! Anritsu VNA Master:                     Model: MS2036C/10/77
! SN:                                  1601066
! /bd0/18may09/254.ns.m11.s2p
! Existing Calibration Information:
! TYPE:                         Current Settings,       Active Cal Settings
! TIME:             	   05/09/2018 01:06:45 PM,    05/09/2018 12:54:36 PM
! INTERNAL TEMP:    	                   58.8 C,                    58.3 C
! # POINTS:         	                      494,                       494
! START FREQ:       	               20.000 MHz,                20.000 MHz
! STOP FREQ:        	          118.797 594 MHz,           118.797 594 MHz
! SOURCE POWER:     	                     High,                      High
! IFBW:             	                    50 Hz,                     50 Hz
! AVG FACTOR:       	                       1 ,                        1 
! REF PLANE 1:      	                     0 mm,                      0 mm
! REF PLANE 2:      	                     0 mm,                      0 mm
! CAL TYPE:         	                 Full S22,                  Full S22
! CAL METHOD:       	                     SOLT,                      SOLT
! CAL LINE TYPE:    	                     Coax,                      Coax
! DUT PORT 1:       	                K-Conn(M),                 K-Conn(M)
! DUT PORT 2:       	                K-Conn(M),                 K-Conn(M)
! CAL STATUS:       	        OK: Accuracy High,                        --
# GHZ S DB R 50.0
! FREQ.GHZ       S11DB        S11A       S21DB        S21A       S12DB        S12A       S22DB        S22A
  0.020000000    0.000000    0.000000    0.000000    0.000000  -89.398197   34.318802   -0.638375 -126.651062
  0.020200401    0.000000    0.000000    0.000000    0.000000  -90.150884   32.694321   -0.642601 -128.124619
  0.020400802    0.000000    0.000000    0.000000    0.000000  -90.399895   31.333052   -0.646642 -129.612259
  0.020601202    0.000000    0.000000    0.000000    0.000000  -90.884903   30.162081   -0.651698 -131.126770
  0.020801603    0.000000    0.000000    0.000000    0.000000  -90.814943   31.620695   -0.654298 -132.677856
  0.021002004    0.000000    0.000000    0.000000    0.000000  -90.834457   36.782738   -0.655690 -134.232147
  0.021202405    0.000000    0.000000    0.000000    0.000000  -91.590486   36.825291   -0.661086 -135.783234
  0.021402806    0.000000    0.000000    0.000000    0.000000  -91.851058   36.908913   -0.663438 -137.342133
  0.021603206    0.000000    0.000000    0.000000    0.000000  -92.107111   39.581924   -0.668233 -138.893005
  0.021803607    0.000000    0.000000    0.000000    0.000000  -92.071198   39.463856   -0.671027 -140.454453
  0.022004008    0.000000    0.000000    0.000000    0.000000  -91.839648   35.312119   -0.676461 -142.012985
  0.022204409    0.000000    0.000000    0.000000    0.000000  -92.311058   41.319546   -0.684348 -143.583572
  0.022404810    0.000000    0.000000    0.000000    0.000000  -91.678920   40.019756   -0.691491 -145.187698
  0.022605210    0.000000    0.000000    0.000000    0.000000  -92.254914   42.533905   -0.692654 -146.796707
  0.022805611    0.000000    0.000000    0.000000    0.000000  -91.963394   42.540276   -0.695115 -148.417297
  0.023006012    0.000000    0.000000    0.000000    0.000000  -91.278396   40.732941   -0.700863 -150.023880
  0.023206413    0.000000    0.000000    0.000000    0.000000  -90.838761   42.986992   -0.707767 -151.610672
  0.023406814    0.000000    0.000000    0.000000    0.000000  -91.084073   38.553150   -0.714212 -153.210785
  0.023607214    0.000000    0.000000    0.000000    0.000000  -91.161596   42.960850   -0.722415 -154.807739
  0.023807615    0.000000    0.000000    0.000000    0.000000  -91.169992   39.099552   -0.730850 -156.437744
  0.024008016    0.000000    0.000000    0.000000    0.000000  -91.444715   37.266823   -0.738004 -158.083771
  0.024208417    0.000000    0.000000    0.000000    0.000000  -91.413282   35.655079   -0.747135 -159.720032
  0.024408818    0.000000    0.000000    0.000000    0.000000  -90.969727   33.077560   -0.753079 -161.386871
  0.024609218    0.000000    0.000000    0.000000    0.000000  -91.109374   31.730774   -0.759029 -163.047134
  0.024809619    0.000000    0.000000    0.000000    0.000000  -91.649374   33.661633   -0.768036 -164.711380
  0.025010020    0.000000    0.000000    0.000000    0.000000  -91.314014   32.861908   -0.777114 -166.385178
  0.025210421    0.000000    0.000000    0.000000    0.000000  -91.685423   27.779945   -0.787646 -168.075378
  0.025410822    0.000000    0.000000    0.000000    0.000000  -91.637728   24.861963   -0.796419 -169.772995
  0.025611222    0.000000    0.000000    0.000000    0.000000  -92.964114   24.625906   -0.807871 -171.488037
  0.025811623    0.000000    0.000000    0.000000    0.000000  -93.083479   26.873718   -0.818806 -173.204895
  0.026012024    0.000000    0.000000    0.000000    0.000000  -93.012618   17.556761   -0.829103 -174.962311
  0.026212425    0.000000    0.000000    0.000000    0.000000  -93.545786   21.090208   -0.840360 -176.711395
  0.026412826    0.000000    0.000000    0.000000    0.000000  -93.441210   20.888691   -0.854303 -178.480164
  0.026613226    0.000000    0.000000    0.000000    0.000000  -93.971408   26.797138   -0.868447  179.740860
  0.026813627    0.000000    0.000000    0.000000    0.000000  -94.095805   26.195250   -0.883546  177.965012
  0.027014028    0.000000    0.000000    0.000000    0.000000  -94.194450   24.850796   -0.899365  176.168762
  0.027214429    0.000000    0.000000    0.000000    0.000000  -94.762752   30.255461   -0.913508  174.364899
  0.027414830    0.000000    0.000000    0.000000    0.000000  -94.798706   26.940092   -0.930327  172.557083
  0.027615230    0.000000    0.000000    0.000000    0.000000  -95.574506   29.951021   -0.947275  170.727615
  0.027815631    0.000000    0.000000    0.000000    0.000000  -94.545348   32.479565   -0.966017  168.898499
  0.028016032    0.000000    0.000000    0.000000    0.000000  -94.039217   33.644787   -0.982727  167.047729
  0.028216433    0.000000    0.000000    0.000000    0.000000  -94.838097   31.541111   -1.002170  165.184662
  0.028416834    0.000000    0.000000    0.000000    0.000000  -94.760182   33.725620   -1.021636  163.335129
  0.028617234    0.000000    0.000000    0.000000    0.000000  -94.528442   33.334492   -1.041900  161.459534
  0.028817635    0.000000    0.000000    0.000000    0.000000  -95.396091   34.001900   -1.062207  159.599045
  0.029018036    0.000000    0.000000    0.000000    0.000000  -94.435403   33.707485   -1.085173  157.727966
  0.029218437    0.000000    0.000000    0.000000    0.000000  -94.192587   34.022301   -1.108142  155.852081
  0.029418838    0.000000    0.000000    0.000000    0.000000  -94.196068   30.456783   -1.133669  153.950027
  0.029619238    0.000000    0.000000    0.000000    0.000000  -93.878236   32.699379   -1.157373  152.043610
  0.029819639    0.000000    0.000000    0.000000    0.000000  -93.844589   30.617785   -1.182921  150.131287
  0.030020040    0.000000    0.000000    0.000000    0.000000  -94.301964   23.491541   -1.209540  148.222122
  0.030220441    0.000000    0.000000    0.000000    0.000000  -94.222296   25.652824   -1.235445  146.296921
  0.030420842    0.000000    0.000000    0.000000    0.000000  -94.264152   27.059284   -1.261624  144.389694
  0.030621242    0.000000    0.000000    0.000000    0.000000  -93.712988   23.911697   -1.290025  142.482071
  0.030821643    0.000000    0.000000    0.000000    0.000000  -94.363722   21.009716   -1.321953  140.549957
  0.031022044    0.000000    0.000000    0.000000    0.000000  -94.797078   21.225325   -1.352303  138.617859
  0.031222445    0.000000    0.000000    0.000000    0.000000  -94.407032   15.019086   -1.376122  136.681091
  0.031422846    0.000000    0.000000    0.000000    0.000000  -94.771242   24.667368   -1.409607  134.692017
  0.031623246    0.000000    0.000000    0.000000    0.000000  -95.184097   20.339903   -1.442693  132.713028
  0.031823647    0.000000    0.000000    0.000000    0.000000  -95.316013   18.917994   -1.475343  130.724350
  0.032024048    0.000000    0.000000    0.000000    0.000000  -95.374825   16.029852   -1.509825  128.738586
  0.032224449    0.000000    0.000000    0.000000    0.000000  -95.188226   16.078331   -1.546283  126.749908
  0.032424850    0.000000    0.000000    0.000000    0.000000  -95.157195   17.609653   -1.580886  124.735855
  0.032625250    0.000000    0.000000    0.000000    0.000000  -95.961114   19.788975   -1.616845  122.704605
  0.032825651    0.000000    0.000000    0.000000    0.000000  -95.465742   24.789713   -1.655169  120.663284
  0.033026052    0.000000    0.000000    0.000000    0.000000  -96.135665   24.904278   -1.687396  118.612259
  0.033226453    0.000000    0.000000    0.000000    0.000000  -95.535854   17.802717   -1.724394  116.572807
  0.033426854    0.000000    0.000000    0.000000    0.000000  -96.083872   23.884720   -1.761041  114.512062
  0.033627254    0.000000    0.000000    0.000000    0.000000  -96.943668   21.330130   -1.799363  112.463417
  0.033827655    0.000000    0.000000    0.000000    0.000000  -97.002230   20.123049   -1.837738  110.418991
  0.034028056    0.000000    0.000000    0.000000    0.000000  -96.275797   19.775787   -1.875973  108.373558
  0.034228457    0.000000    0.000000    0.000000    0.000000  -96.772233   14.870931   -1.915727  106.313614
  0.034428858    0.000000    0.000000    0.000000    0.000000  -96.728904   20.268684   -1.957822  104.257607
  0.034629258    0.000000    0.000000    0.000000    0.000000  -96.553614   19.214603   -1.997585  102.160683
  0.034829659    0.000000    0.000000    0.000000    0.000000  -95.198514   29.823307   -2.039116  100.100754
  0.035030060    0.000000    0.000000    0.000000    0.000000  -96.115800   24.448868   -2.083936   98.016327
  0.035230461    0.000000    0.000000    0.000000    0.000000  -95.923240   28.918833   -2.127837   95.941734
  0.035430862    0.000000    0.000000    0.000000    0.000000  -96.947929   20.782532   -2.173480   93.860542
  0.035631262    0.000000    0.000000    0.000000    0.000000  -94.761058   26.209829   -2.220965   91.787453
  0.035831663    0.000000    0.000000    0.000000    0.000000  -96.094732   35.820995   -2.268199   89.706207
  0.036032064    0.000000    0.000000    0.000000    0.000000  -97.503449   23.420517   -2.314011   87.622185
  0.036232465    0.000000    0.000000    0.000000    0.000000  -95.432072   22.235708   -2.360101   85.552155
  0.036432866    0.000000    0.000000    0.000000    0.000000  -96.608185   23.360909   -2.411531   83.456467
  0.036633266    0.000000    0.000000    0.000000    0.000000  -96.375840   22.641933   -2.462285   81.377045
  0.036833667    0.000000    0.000000    0.000000    0.000000  -97.230275   21.743595   -2.512764   79.268448
  0.037034068    0.000000    0.000000    0.000000    0.000000  -96.163678   16.726625   -2.565791   77.179886
  0.037234469    0.000000    0.000000    0.000000    0.000000  -95.983843   14.613056   -2.616838   75.080688
  0.037434870    0.000000    0.000000    0.000000    0.000000  -97.228710   28.975706   -2.671904   72.987724
  0.037635270    0.000000    0.000000    0.000000    0.000000  -97.909356   14.067660   -2.726876   70.847740
  0.037835671    0.000000    0.000000    0.000000    0.000000  -96.935682   22.540348   -2.791265   68.737732
  0.038036072    0.000000    0.000000    0.000000    0.000000  -96.842314   18.257858   -2.854386   66.673546
  0.038236473    0.000000    0.000000    0.000000    0.000000  -97.805643   19.751591   -2.908676   64.592941
  0.038436874    0.000000    0.000000    0.000000    0.000000  -98.044628   17.844385   -2.965089   62.493958
  0.038637274    0.000000    0.000000    0.000000    0.000000  -97.955606   22.827309   -3.020251   60.399040
  0.038837675    0.000000    0.000000    0.000000    0.000000  -98.061641   19.172394   -3.073048   58.302975
  0.039038076    0.000000    0.000000    0.000000    0.000000  -96.936610   32.782803   -3.125662   56.219021
  0.039238477    0.000000    0.000000    0.000000    0.000000  -97.727259   24.220446   -3.176555   54.116112
  0.039438878    0.000000    0.000000    0.000000    0.000000  -98.650007   17.829271   -3.233357   52.060860
  0.039639278    0.000000    0.000000    0.000000    0.000000  -98.613664   26.092443   -3.284875   49.978828
  0.039839679    0.000000    0.000000    0.000000    0.000000  -99.740211   22.542915   -3.338310   47.886356
  0.040040080    0.000000    0.000000    0.000000    0.000000  -98.586431   20.471407   -3.386623   45.795860
  0.040240481    0.000000    0.000000    0.000000    0.000000  -98.415259   24.027611   -3.437677   43.726131
  0.040440882    0.000000    0.000000    0.000000    0.000000  -97.070422   20.958761   -3.488892   41.668407
  0.040641283    0.000000    0.000000    0.000000    0.000000  -97.723897   28.860916   -3.537163   39.628654
  0.040841683    0.000000    0.000000    0.000000    0.000000  -97.725536   28.348373   -3.585223   37.597565
  0.041042084    0.000000    0.000000    0.000000    0.000000  -98.790599   36.381058   -3.635789   35.580902
  0.041242485    0.000000    0.000000    0.000000    0.000000  -97.945683   23.614595   -3.684585   33.553864
  0.041442886    0.000000    0.000000    0.000000    0.000000  -96.628825   23.597977   -3.733712   31.534727
  0.041643287    0.000000    0.000000    0.000000    0.000000  -97.212040   24.954721   -3.780661   29.513733
  0.041843687    0.000000    0.000000    0.000000    0.000000  -97.268700   29.616217   -3.828809   27.501532
  0.042044088    0.000000    0.000000    0.000000    0.000000  -97.437012   25.443157   -3.874512   25.508133
  0.042244489    0.000000    0.000000    0.000000    0.000000  -97.629855   22.550238   -3.922035   23.509014
  0.042444890    0.000000    0.000000    0.000000    0.000000  -98.032675   22.250174   -3.970220   21.545639
  0.042645291    0.000000    0.000000    0.000000    0.000000  -99.161239   24.934572   -4.018452   19.567888
  0.042845691    0.000000    0.000000    0.000000    0.000000  -98.313103   17.943125   -4.067217   17.604052
  0.043046092    0.000000    0.000000    0.000000    0.000000  -97.314525   26.292059   -4.114633   15.633789
  0.043246493    0.000000    0.000000    0.000000    0.000000  -97.999386   18.593452   -4.161717   13.667315
  0.043446894    0.000000    0.000000    0.000000    0.000000 -100.114844   22.745495   -4.205824   11.717015
  0.043647295    0.000000    0.000000    0.000000    0.000000  -98.771260   18.010937   -4.249657    9.757036
  0.043847695    0.000000    0.000000    0.000000    0.000000  -98.059746   24.868769   -4.294921    7.816316
  0.044048096    0.000000    0.000000    0.000000    0.000000  -98.414155   23.732759   -4.339887    5.865143
  0.044248497    0.000000    0.000000    0.000000    0.000000  -99.593447   23.895006   -4.384584    3.934910
  0.044448898    0.000000    0.000000    0.000000    0.000000 -100.221408   31.206936   -4.429390    2.014579
  0.044649299    0.000000    0.000000    0.000000    0.000000  -99.692065   29.714840   -4.470931    0.107770
  0.044849699    0.000000    0.000000    0.000000    0.000000  -97.530157   30.430145   -4.513286   -1.794564
  0.045050100    0.000000    0.000000    0.000000    0.000000  -99.829316   25.918978   -4.549944   -3.709660
  0.045250501    0.000000    0.000000    0.000000    0.000000  -98.085579   30.408587   -4.588866   -5.615909
  0.045450902    0.000000    0.000000    0.000000    0.000000  -99.184434   28.146452   -4.626009   -7.519775
  0.045651303    0.000000    0.000000    0.000000    0.000000  -99.415694   34.133514   -4.662294   -9.408535
  0.045851703    0.000000    0.000000    0.000000    0.000000  -98.078816   38.239895   -4.698271  -11.275656
  0.046052104    0.000000    0.000000    0.000000    0.000000  -99.375765   24.219255   -4.731687  -13.139153
  0.046252505    0.000000    0.000000    0.000000    0.000000  -98.346266   33.250561   -4.767032  -14.960860
  0.046452906    0.000000    0.000000    0.000000    0.000000  -98.286317   29.609020   -4.801301  -16.776333
  0.046653307    0.000000    0.000000    0.000000    0.000000  -98.356216   25.859993   -4.835079  -18.599562
  0.046853707    0.000000    0.000000    0.000000    0.000000  -98.823604   30.239098   -4.867355  -20.429136
  0.047054108    0.000000    0.000000    0.000000    0.000000  -99.228552   30.170746   -4.898738  -22.227625
  0.047254509    0.000000    0.000000    0.000000    0.000000  -98.439151   29.212097   -4.929183  -24.037477
  0.047454910    0.000000    0.000000    0.000000    0.000000  -98.156265   27.345085   -4.954932  -25.820078
  0.047655311    0.000000    0.000000    0.000000    0.000000  -99.028820   32.201664   -4.984257  -27.587475
  0.047855711    0.000000    0.000000    0.000000    0.000000  -98.459715   30.772957   -5.014281  -29.349176
  0.048056112    0.000000    0.000000    0.000000    0.000000 -100.486870   31.741560   -5.042337  -31.087725
  0.048256513    0.000000    0.000000    0.000000    0.000000 -100.039737   30.251095   -5.072622  -32.805065
  0.048456914    0.000000    0.000000    0.000000    0.000000  -99.540550   22.961000   -5.099473  -34.527298
  0.048657315    0.000000    0.000000    0.000000    0.000000  -99.085400   24.578733   -5.128612  -36.224930
  0.048857715    0.000000    0.000000    0.000000    0.000000  -99.046300   29.100042   -5.152600  -37.974014
  0.049058116    0.000000    0.000000    0.000000    0.000000 -100.089839   22.659208   -5.177064  -39.682003
  0.049258517    0.000000    0.000000    0.000000    0.000000  -98.019664   38.710648   -5.201719  -41.374149
  0.049458918    0.000000    0.000000    0.000000    0.000000  -99.210147   36.997997   -5.226456  -43.056625
  0.049659319    0.000000    0.000000    0.000000    0.000000  -99.343380   27.960676   -5.254508  -44.750206
  0.049859719    0.000000    0.000000    0.000000    0.000000  -99.911722   41.469048   -5.278127  -46.427837
  0.050060120    0.000000    0.000000    0.000000    0.000000  -98.932881   32.165329   -5.303655  -48.076408
  0.050260521    0.000000    0.000000    0.000000    0.000000  -99.061114   28.489277   -5.325179  -49.764553
  0.050460922    0.000000    0.000000    0.000000    0.000000 -100.088123   24.436266   -5.345072  -51.437248
  0.050661323    0.000000    0.000000    0.000000    0.000000  -99.409996   31.305048   -5.363215  -53.079174
  0.050861723    0.000000    0.000000    0.000000    0.000000  -99.752314   29.622112   -5.381035  -54.743717
  0.051062124    0.000000    0.000000    0.000000    0.000000  -97.929349   32.218170   -5.398391  -56.378983
  0.051262525    0.000000    0.000000    0.000000    0.000000  -99.124140   32.639454   -5.419784  -58.006939
  0.051462926    0.000000    0.000000    0.000000    0.000000  -98.011788   28.143114   -5.436659  -59.606049
  0.051663327    0.000000    0.000000    0.000000    0.000000  -99.088645   24.798904   -5.453560  -61.222610
  0.051863727    0.000000    0.000000    0.000000    0.000000  -98.354323   32.529617   -5.466565  -62.809074
  0.052064128    0.000000    0.000000    0.000000    0.000000  -98.054697   32.505268   -5.478061  -64.408798
  0.052264529    0.000000    0.000000    0.000000    0.000000 -100.043309   41.140392   -5.488394  -65.991379
  0.052464930    0.000000    0.000000    0.000000    0.000000  -98.390993   32.070530   -5.500864  -67.541641
  0.052665331    0.000000    0.000000    0.000000    0.000000  -98.702426   32.525360   -5.510709  -69.087425
  0.052865731    0.000000    0.000000    0.000000    0.000000  -98.878277   22.304337   -5.521617  -70.619370
