! Anritsu VNA Master:                     Model: MS2036C/10/77
! SN:                                  1601066
! /bd0/18may07/256.ew.m4.s2p
! Existing Calibration Information:
! TYPE:                         Current Settings,       Active Cal Settings
! TIME:             	   05/07/2018 11:56:38 AM,    05/07/2018 11:47:21 AM
! INTERNAL TEMP:    	                   53.0 C,                    52.0 C
! # POINTS:         	                      500,                       500
! START FREQ:       	               20.000 MHz,                20.000 MHz
! STOP FREQ:        	              120.000 MHz,               120.000 MHz
! SOURCE POWER:     	                     High,                      High
! IFBW:             	                    50 Hz,                     50 Hz
! AVG FACTOR:       	                       1 ,                        1 
! REF PLANE 1:      	                     0 mm,                      0 mm
! REF PLANE 2:      	                     0 mm,                      0 mm
! CAL TYPE:         	                 Full S11,                  Full S11
! CAL METHOD:       	                     SOLT,                      SOLT
! CAL LINE TYPE:    	                     Coax,                      Coax
! DUT PORT 1:       	                K-Conn(F),                 K-Conn(F)
! DUT PORT 2:       	                K-Conn(F),                 K-Conn(F)
! CAL STATUS:       	        OK: Accuracy High,                        --
# GHZ S DB R 50.0
! FREQ.GHZ       S11DB        S11A       S21DB        S21A       S12DB        S12A       S22DB        S22A
  0.020000000   -0.629070 -125.765732  -91.053388   29.827106    0.000000    0.000000    0.000000    0.000000
  0.020200401   -0.627265 -127.222328  -91.361623   24.813330    0.000000    0.000000    0.000000    0.000000
  0.020400802   -0.627705 -128.664474  -91.461532   33.267357    0.000000    0.000000    0.000000    0.000000
  0.020601202   -0.630420 -130.135315  -91.750207   31.426226    0.000000    0.000000    0.000000    0.000000
  0.020801603   -0.633267 -131.621796  -92.368118   31.195000    0.000000    0.000000    0.000000    0.000000
  0.021002004   -0.641627 -133.136200  -92.947126   30.962709    0.000000    0.000000    0.000000    0.000000
  0.021202405   -0.649896 -134.669357  -92.788693   34.374260    0.000000    0.000000    0.000000    0.000000
  0.021402806   -0.654894 -136.194443  -92.588379   31.394251    0.000000    0.000000    0.000000    0.000000
  0.021603206   -0.659287 -137.729263  -92.842381   32.195332    0.000000    0.000000    0.000000    0.000000
  0.021803607   -0.665885 -139.261627  -92.903090   32.182178    0.000000    0.000000    0.000000    0.000000
  0.022004008   -0.671394 -140.801666  -93.464082   32.096531    0.000000    0.000000    0.000000    0.000000
  0.022204409   -0.676837 -142.362900  -91.967968   35.627422    0.000000    0.000000    0.000000    0.000000
  0.022404810   -0.683647 -143.932297  -94.142662   33.974976    0.000000    0.000000    0.000000    0.000000
  0.022605210   -0.689189 -145.521225  -93.156783   32.312435    0.000000    0.000000    0.000000    0.000000
  0.022805611   -0.689233 -147.132782  -93.035867   33.977737    0.000000    0.000000    0.000000    0.000000
  0.023006012   -0.693625 -148.718979  -93.326671   33.050091    0.000000    0.000000    0.000000    0.000000
  0.023206413   -0.696652 -150.315598  -93.173911   34.131096    0.000000    0.000000    0.000000    0.000000
  0.023406814   -0.699579 -151.883194  -92.506642   33.435699    0.000000    0.000000    0.000000    0.000000
  0.023607214   -0.707962 -153.471939  -92.941956   30.762499    0.000000    0.000000    0.000000    0.000000
  0.023807615   -0.713608 -155.074326  -93.540828   29.624271    0.000000    0.000000    0.000000    0.000000
  0.024008016   -0.722639 -156.687607  -93.025241   33.722599    0.000000    0.000000    0.000000    0.000000
  0.024208417   -0.733787 -158.325256  -93.354236   27.330561    0.000000    0.000000    0.000000    0.000000
  0.024408818   -0.742781 -159.972809  -93.288121   24.124304    0.000000    0.000000    0.000000    0.000000
  0.024609218   -0.752811 -161.619522  -92.575761   29.598078    0.000000    0.000000    0.000000    0.000000
  0.024809619   -0.762729 -163.279358  -93.136169   18.124256    0.000000    0.000000    0.000000    0.000000
  0.025010020   -0.774244 -164.919159  -93.433292   17.046101    0.000000    0.000000    0.000000    0.000000
  0.025210421   -0.787079 -166.576218  -94.182583   20.244841    0.000000    0.000000    0.000000    0.000000
  0.025410822   -0.799114 -168.258881  -94.064043   20.262236    0.000000    0.000000    0.000000    0.000000
  0.025611222   -0.816079 -169.951813  -94.342652   15.162560    0.000000    0.000000    0.000000    0.000000
  0.025811623   -0.828433 -171.669952  -94.658561   20.830524    0.000000    0.000000    0.000000    0.000000
  0.026012024   -0.839613 -173.396500  -94.949497   13.621398    0.000000    0.000000    0.000000    0.000000
  0.026212425   -0.850677 -175.118805  -94.619708   22.063637    0.000000    0.000000    0.000000    0.000000
  0.026412826   -0.864208 -176.846405  -95.905289   12.367019    0.000000    0.000000    0.000000    0.000000
  0.026613226   -0.879450 -178.592255  -95.797182   18.154045    0.000000    0.000000    0.000000    0.000000
  0.026813627   -0.896591  179.646896  -95.120065   19.421385    0.000000    0.000000    0.000000    0.000000
  0.027014028   -0.914141  177.879105  -95.678898   20.225929    0.000000    0.000000    0.000000    0.000000
  0.027214429   -0.931439  176.091080  -96.394555    8.618143    0.000000    0.000000    0.000000    0.000000
  0.027414830   -0.947888  174.304550  -96.508443   20.900225    0.000000    0.000000    0.000000    0.000000
  0.027615230   -0.965177  172.502518  -96.815619   17.571663    0.000000    0.000000    0.000000    0.000000
  0.027815631   -0.986531  170.690842  -96.600291   22.099005    0.000000    0.000000    0.000000    0.000000
  0.028016032   -1.006699  168.863419  -96.295763   20.815603    0.000000    0.000000    0.000000    0.000000
  0.028216433   -1.028838  167.033920  -95.915307   20.234753    0.000000    0.000000    0.000000    0.000000
  0.028416834   -1.051240  165.199005  -96.372442   26.468050    0.000000    0.000000    0.000000    0.000000
  0.028617234   -1.072262  163.364044  -96.229164   21.222387    0.000000    0.000000    0.000000    0.000000
  0.028817635   -1.091957  161.532867  -96.156488   24.478790    0.000000    0.000000    0.000000    0.000000
  0.029018036   -1.112823  159.716339  -96.534247   22.321705    0.000000    0.000000    0.000000    0.000000
  0.029218437   -1.134299  157.903137  -96.109569   23.457067    0.000000    0.000000    0.000000    0.000000
  0.029418838   -1.158843  156.085785  -95.511788   14.690668    0.000000    0.000000    0.000000    0.000000
  0.029619238   -1.184394  154.251495  -96.820509   19.265106    0.000000    0.000000    0.000000    0.000000
  0.029819639   -1.215143  152.386551  -95.932885   15.480917    0.000000    0.000000    0.000000    0.000000
  0.030020040   -1.245691  150.501877  -96.989272   17.331602    0.000000    0.000000    0.000000    0.000000
  0.030220441   -1.275108  148.604065  -96.584921   17.450003    0.000000    0.000000    0.000000    0.000000
  0.030420842   -1.305068  146.693665  -97.112011   12.175978    0.000000    0.000000    0.000000    0.000000
  0.030621242   -1.336102  144.799606  -96.752125    6.013847    0.000000    0.000000    0.000000    0.000000
  0.030821643   -1.367890  142.894867  -96.935645   10.769034    0.000000    0.000000    0.000000    0.000000
  0.031022044   -1.403381  140.990479  -97.329417   12.885938    0.000000    0.000000    0.000000    0.000000
  0.031222445   -1.435604  139.082657  -97.624753   13.985373    0.000000    0.000000    0.000000    0.000000
  0.031422846   -1.472314  137.122864  -97.889147   15.773513    0.000000    0.000000    0.000000    0.000000
  0.031623246   -1.510842  135.128479  -96.862196   10.525215    0.000000    0.000000    0.000000    0.000000
  0.031823647   -1.543685  133.125122  -97.255094    9.252559    0.000000    0.000000    0.000000    0.000000
  0.032024048   -1.580548  131.139618  -97.592677    7.383059    0.000000    0.000000    0.000000    0.000000
  0.032224449   -1.617378  129.139069  -97.333430    7.545677    0.000000    0.000000    0.000000    0.000000
  0.032424850   -1.652064  127.143959  -97.947620   14.275715    0.000000    0.000000    0.000000    0.000000
  0.032625251   -1.688172  125.171974  -97.981234   13.656465    0.000000    0.000000    0.000000    0.000000
  0.032825651   -1.724862  123.168938  -97.424139   13.950711    0.000000    0.000000    0.000000    0.000000
  0.033026052   -1.763852  121.195885  -98.659748   13.153517    0.000000    0.000000    0.000000    0.000000
  0.033226453   -1.809738  119.201538  -98.513988   11.321486    0.000000    0.000000    0.000000    0.000000
  0.033426854   -1.855899  117.202812  -98.408310    7.348327    0.000000    0.000000    0.000000    0.000000
  0.033627255   -1.908584  115.196304  -99.884639    9.296479    0.000000    0.000000    0.000000    0.000000
  0.033827655   -1.962173  113.173683  -97.444780   19.286520    0.000000    0.000000    0.000000    0.000000
  0.034028056   -2.013989  111.080688  -98.229719   12.498690    0.000000    0.000000    0.000000    0.000000
  0.034228457   -2.066205  108.988907  -98.060296   13.360475    0.000000    0.000000    0.000000    0.000000
  0.034428858   -2.114180  106.832382  -97.592779   18.226194    0.000000    0.000000    0.000000    0.000000
  0.034629259   -2.161897  104.704872  -98.806512    4.414179    0.000000    0.000000    0.000000    0.000000
  0.034829659   -2.209492  102.578339  -98.687508   10.067800    0.000000    0.000000    0.000000    0.000000
  0.035030060   -2.252101  100.461731  -97.279761    5.313067    0.000000    0.000000    0.000000    0.000000
  0.035230461   -2.293298   98.347435  -97.830217    8.443816    0.000000    0.000000    0.000000    0.000000
  0.035430862   -2.337404   96.238815  -98.870656    8.548378    0.000000    0.000000    0.000000    0.000000
  0.035631263   -2.381111   94.141304  -98.787691   12.032653    0.000000    0.000000    0.000000    0.000000
  0.035831663   -2.421660   92.071091  -98.407829   -3.198607    0.000000    0.000000    0.000000    0.000000
  0.036032064   -2.470147   89.998154  -98.933942   13.178456    0.000000    0.000000    0.000000    0.000000
  0.036232465   -2.514185   87.944710  -99.996846    3.640142    0.000000    0.000000    0.000000    0.000000
  0.036432866   -2.562036   85.910843 -100.060914    4.141907    0.000000    0.000000    0.000000    0.000000
  0.036633267   -2.613338   83.879738  -99.773466   12.269238    0.000000    0.000000    0.000000    0.000000
  0.036833667   -2.667672   81.829018  -99.269833   -7.828894    0.000000    0.000000    0.000000    0.000000
  0.037034068   -2.726040   79.783310 -100.159714    3.263645    0.000000    0.000000    0.000000    0.000000
  0.037234469   -2.784571   77.709877 -100.014167   14.110237    0.000000    0.000000    0.000000    0.000000
  0.037434870   -2.846063   75.622322  -99.043639    8.121073    0.000000    0.000000    0.000000    0.000000
  0.037635271   -2.903605   73.525238  -98.811078    4.193641    0.000000    0.000000    0.000000    0.000000
  0.037835671   -2.966164   71.377136  -99.312227    6.812543    0.000000    0.000000    0.000000    0.000000
  0.038036072   -3.027032   69.215912  -99.850134    5.819639    0.000000    0.000000    0.000000    0.000000
  0.038236473   -3.088429   67.074455 -101.869383   17.894688    0.000000    0.000000    0.000000    0.000000
  0.038436874   -3.145412   64.905952  -99.255310   17.705544    0.000000    0.000000    0.000000    0.000000
  0.038637275   -3.201407   62.765934 -101.025686   10.987090    0.000000    0.000000    0.000000    0.000000
  0.038837675   -3.247217   60.634609 -100.659517   18.515661    0.000000    0.000000    0.000000    0.000000
  0.039038076   -3.294555   58.535728 -100.438358    7.736548    0.000000    0.000000    0.000000    0.000000
  0.039238477   -3.340808   56.469799 -101.223333    9.191440    0.000000    0.000000    0.000000    0.000000
  0.039438878   -3.392130   54.419804 -100.380704    8.192107    0.000000    0.000000    0.000000    0.000000
  0.039639279   -3.447256   52.385868 -100.367310   17.019524    0.000000    0.000000    0.000000    0.000000
  0.039839679   -3.504189   50.336857 -100.855878    9.773087    0.000000    0.000000    0.000000    0.000000
  0.040040080   -3.566466   48.278297  -99.998279    3.780272    0.000000    0.000000    0.000000    0.000000
  0.040240481   -3.626282   46.198174 -100.129899   19.525433    0.000000    0.000000    0.000000    0.000000
  0.040440882   -3.686682   44.114838 -100.784424    7.280257    0.000000    0.000000    0.000000    0.000000
  0.040641283   -3.745821   42.044373 -100.071729   13.970095    0.000000    0.000000    0.000000    0.000000
  0.040841683   -3.806532   39.941528 -100.281716    6.511287    0.000000    0.000000    0.000000    0.000000
  0.041042084   -3.864123   37.891430  -99.084601    6.608636    0.000000    0.000000    0.000000    0.000000
  0.041242485   -3.922091   35.815456  -99.440848    1.169128    0.000000    0.000000    0.000000    0.000000
  0.041442886   -3.977527   33.736137 -100.301569    4.903739    0.000000    0.000000    0.000000    0.000000
  0.041643287   -4.033122   31.651981 -100.982015    3.675784    0.000000    0.000000    0.000000    0.000000
  0.041843687   -4.084720   29.568453 -100.807535   -2.068862    0.000000    0.000000    0.000000    0.000000
  0.042044088   -4.135964   27.504503 -100.657338   -5.282079    0.000000    0.000000    0.000000    0.000000
  0.042244489   -4.189251   25.449451 -102.726914   13.364923    0.000000    0.000000    0.000000    0.000000
  0.042444890   -4.238656   23.424210  -99.779067    6.252780    0.000000    0.000000    0.000000    0.000000
  0.042645291   -4.292103   21.395647 -101.539036   -1.106684    0.000000    0.000000    0.000000    0.000000
  0.042845691   -4.341017   19.403542 -100.988055    9.711074    0.000000    0.000000    0.000000    0.000000
  0.043046092   -4.391678   17.362112 -103.048065   10.307052    0.000000    0.000000    0.000000    0.000000
  0.043246493   -4.442437   15.359514 -101.638865   10.819290    0.000000    0.000000    0.000000    0.000000
  0.043446894   -4.489873   13.350870 -101.521245    5.009911    0.000000    0.000000    0.000000    0.000000
  0.043647295   -4.538899   11.356546 -103.023380    6.241227    0.000000    0.000000    0.000000    0.000000
  0.043847695   -4.586812    9.363311 -102.856689   17.820232    0.000000    0.000000    0.000000    0.000000
  0.044048096   -4.635821    7.379533 -101.685043    7.102203    0.000000    0.000000    0.000000    0.000000
  0.044248497   -4.683631    5.409337 -103.010696    3.117727    0.000000    0.000000    0.000000    0.000000
  0.044448898   -4.729289    3.425762 -103.400710    2.876406    0.000000    0.000000    0.000000    0.000000
  0.044649299   -4.776691    1.479007 -100.365885   13.573643    0.000000    0.000000    0.000000    0.000000
  0.044849699   -4.816960   -0.471789 -102.773522    9.405481    0.000000    0.000000    0.000000    0.000000
  0.045050100   -4.857605   -2.428165 -100.957860   -5.012811    0.000000    0.000000    0.000000    0.000000
  0.045250501   -4.893844   -4.370353 -100.685020   14.597989    0.000000    0.000000    0.000000    0.000000
  0.045450902   -4.927330   -6.280007 -102.273924   15.763597    0.000000    0.000000    0.000000    0.000000
  0.045651303   -4.964435   -8.201945 -101.107214    4.497335    0.000000    0.000000    0.000000    0.000000
  0.045851703   -5.004221  -10.100482 -100.778668    1.768418    0.000000    0.000000    0.000000    0.000000
  0.046052104   -5.042443  -11.983523 -102.291161   10.076993    0.000000    0.000000    0.000000    0.000000
  0.046252505   -5.079923  -13.856378 -103.126023   -1.259027    0.000000    0.000000    0.000000    0.000000
  0.046452906   -5.116107  -15.732371 -100.937912    2.650718    0.000000    0.000000    0.000000    0.000000
  0.046653307   -5.150351  -17.582150 -100.196533   -0.436391    0.000000    0.000000    0.000000    0.000000
  0.046853707   -5.183327  -19.447355 -102.172938   -9.390758    0.000000    0.000000    0.000000    0.000000
  0.047054108   -5.211731  -21.266165 -100.238980    1.698648    0.000000    0.000000    0.000000    0.000000
  0.047254509   -5.242708  -23.109138 -102.197152   -3.540076    0.000000    0.000000    0.000000    0.000000
  0.047454910   -5.267639  -24.903292 -102.565399   -7.878492    0.000000    0.000000    0.000000    0.000000
  0.047655311   -5.295761  -26.705681 -101.663403  -16.255939    0.000000    0.000000    0.000000    0.000000
  0.047855711   -5.324584  -28.472799 -102.298757   -2.773893    0.000000    0.000000    0.000000    0.000000
  0.048056112   -5.353468  -30.212921 -103.889750   -5.776712    0.000000    0.000000    0.000000    0.000000
  0.048256513   -5.381581  -31.958506 -101.890116    5.186794    0.000000    0.000000    0.000000    0.000000
  0.048456914   -5.411476  -33.695164 -103.638625    3.429523    0.000000    0.000000    0.000000    0.000000
  0.048657315   -5.439544  -35.429806 -102.931459    9.814200    0.000000    0.000000    0.000000    0.000000
  0.048857715   -5.463607  -37.181122 -105.268699   -0.543742    0.000000    0.000000    0.000000    0.000000
  0.049058116   -5.492303  -38.922401 -102.905655   -2.740137    0.000000    0.000000    0.000000    0.000000
  0.049258517   -5.512671  -40.651085 -101.943066  -19.042927    0.000000    0.000000    0.000000    0.000000
  0.049458918   -5.540031  -42.360565 -104.486202    5.055751    0.000000    0.000000    0.000000    0.000000
  0.049659319   -5.566304  -44.044022 -103.537128   13.835428    0.000000    0.000000    0.000000    0.000000
  0.049859719   -5.594758  -45.757111 -102.120785    2.951154    0.000000    0.000000    0.000000    0.000000
  0.050060120   -5.617455  -47.444187 -101.366418   22.337208    0.000000    0.000000    0.000000    0.000000
  0.050260521   -5.637250  -49.151104 -104.164765   16.875326    0.000000    0.000000    0.000000    0.000000
  0.050460922   -5.657450  -50.853310 -104.342129    5.167781    0.000000    0.000000    0.000000    0.000000
  0.050661323   -5.674409  -52.516422 -102.851728   11.492229    0.000000    0.000000    0.000000    0.000000
  0.050861723   -5.688572  -54.198315 -103.440634   13.667672    0.000000    0.000000    0.000000    0.000000
  0.051062124   -5.707308  -55.846714 -102.982920    1.063936    0.000000    0.000000    0.000000    0.000000
  0.051262525   -5.720120  -57.462074 -104.397709    5.749035    0.000000    0.000000    0.000000    0.000000
  0.051462926   -5.732382  -59.040791 -102.212333    1.002650    0.000000    0.000000    0.000000    0.000000
  0.051663327   -5.744354  -60.597157 -102.150903   12.229504    0.000000    0.000000    0.000000    0.000000
  0.051863727   -5.762310  -62.169418 -100.975861    0.177730    0.000000    0.000000    0.000000    0.000000
  0.052064128   -5.774068  -63.705036 -101.241484   -2.578624    0.000000    0.000000    0.000000    0.000000
  0.052264529   -5.791568  -65.220985 -100.538727    6.185198    0.000000    0.000000    0.000000    0.000000
  0.052464930   -5.807022  -66.772179 -100.348758   -4.118828    0.000000    0.000000    0.000000    0.000000
  0.052665331   -5.817997  -68.323654 -102.603030    1.935122    0.000000    0.000000    0.000000    0.000000
  0.052865731   -5.837018  -69.869682 -100.992152   -3.929892    0.000000    0.000000    0.000000    0.000000
