! Anritsu VNA Master:                     Model: MS2036C/10/77
! SN:                                  1601066
! /bd0/18may07/256.ew.m14.s2p
! Existing Calibration Information:
! TYPE:                         Current Settings,       Active Cal Settings
! TIME:             	   05/07/2018 02:30:43 PM,    05/07/2018 02:21:54 PM
! INTERNAL TEMP:    	                   56.8 C,                    55.5 C
! # POINTS:         	                      500,                       500
! START FREQ:       	               20.000 MHz,                20.000 MHz
! STOP FREQ:        	              120.000 MHz,               120.000 MHz
! SOURCE POWER:     	                     High,                      High
! IFBW:             	                    50 Hz,                     50 Hz
! AVG FACTOR:       	                       1 ,                        1 
! REF PLANE 1:      	                     0 mm,                      0 mm
! REF PLANE 2:      	                     0 mm,                      0 mm
! CAL TYPE:         	                 Full S11,                  Full S11
! CAL METHOD:       	                     SOLT,                      SOLT
! CAL LINE TYPE:    	                     Coax,                      Coax
! DUT PORT 1:       	                K-Conn(F),                 K-Conn(F)
! DUT PORT 2:       	                K-Conn(F),                 K-Conn(F)
! CAL STATUS:       	        OK: Accuracy High,                        --
# GHZ S DB R 50.0
! FREQ.GHZ       S11DB        S11A       S21DB        S21A       S12DB        S12A       S22DB        S22A
  0.020000000   -0.650183 -126.126190  -90.833833   29.403254    0.000000    0.000000    0.000000    0.000000
  0.020200401   -0.648899 -127.588943  -91.409229   33.162563    0.000000    0.000000    0.000000    0.000000
  0.020400802   -0.649076 -129.056046  -91.592072   25.959169    0.000000    0.000000    0.000000    0.000000
  0.020601202   -0.650369 -130.512619  -91.955157   25.418007    0.000000    0.000000    0.000000    0.000000
  0.020801603   -0.655179 -132.009430  -92.706169   27.475065    0.000000    0.000000    0.000000    0.000000
  0.021002004   -0.662103 -133.521988  -92.783820   25.281618    0.000000    0.000000    0.000000    0.000000
  0.021202405   -0.667031 -135.061249  -93.495466   32.245926    0.000000    0.000000    0.000000    0.000000
  0.021402806   -0.673988 -136.596893  -93.210321   32.983265    0.000000    0.000000    0.000000    0.000000
  0.021603206   -0.678008 -138.131058  -93.631787   36.710476    0.000000    0.000000    0.000000    0.000000
  0.021803607   -0.681954 -139.661453  -92.828453   30.786674    0.000000    0.000000    0.000000    0.000000
  0.022004008   -0.687447 -141.209213  -93.678869   32.774364    0.000000    0.000000    0.000000    0.000000
  0.022204409   -0.696918 -142.757965  -93.645128   36.635197    0.000000    0.000000    0.000000    0.000000
  0.022404810   -0.699543 -144.330185  -92.802731   34.250111    0.000000    0.000000    0.000000    0.000000
  0.022605210   -0.704537 -145.924194  -93.629979   34.520939    0.000000    0.000000    0.000000    0.000000
  0.022805611   -0.710783 -147.516586  -92.984038   34.433750    0.000000    0.000000    0.000000    0.000000
  0.023006012   -0.714844 -149.114243  -93.510990   34.081768    0.000000    0.000000    0.000000    0.000000
  0.023206413   -0.717087 -150.710419  -92.786007   33.370937    0.000000    0.000000    0.000000    0.000000
  0.023406814   -0.719483 -152.297760  -92.759540   28.249281    0.000000    0.000000    0.000000    0.000000
  0.023607214   -0.723933 -153.886993  -93.886108   32.889202    0.000000    0.000000    0.000000    0.000000
  0.023807615   -0.732785 -155.492859  -92.927843   31.135565    0.000000    0.000000    0.000000    0.000000
  0.024008016   -0.742295 -157.116989  -93.345099   26.731092    0.000000    0.000000    0.000000    0.000000
  0.024208417   -0.753049 -158.738403  -93.264676   23.945641    0.000000    0.000000    0.000000    0.000000
  0.024408818   -0.762283 -160.396729  -93.451018   26.267084    0.000000    0.000000    0.000000    0.000000
  0.024609218   -0.769845 -162.053894  -93.087413   21.054634    0.000000    0.000000    0.000000    0.000000
  0.024809619   -0.780121 -163.708603  -93.918070   22.739782    0.000000    0.000000    0.000000    0.000000
  0.025010020   -0.792721 -165.363647  -94.017290   23.757473    0.000000    0.000000    0.000000    0.000000
  0.025210421   -0.804618 -167.025528  -93.929262   20.888435    0.000000    0.000000    0.000000    0.000000
  0.025410822   -0.818542 -168.709625  -94.777151   15.204406    0.000000    0.000000    0.000000    0.000000
  0.025611222   -0.831261 -170.416855  -95.023105   14.877561    0.000000    0.000000    0.000000    0.000000
  0.025811623   -0.846099 -172.127762  -94.698190   13.775127    0.000000    0.000000    0.000000    0.000000
  0.026012024   -0.857781 -173.855286  -95.515412   15.354602    0.000000    0.000000    0.000000    0.000000
  0.026212425   -0.868173 -175.586990  -95.491081   15.978702    0.000000    0.000000    0.000000    0.000000
  0.026412826   -0.880608 -177.311920  -95.077195   17.045546    0.000000    0.000000    0.000000    0.000000
  0.026613226   -0.896129 -179.053619  -94.788586   16.583858    0.000000    0.000000    0.000000    0.000000
  0.026813627   -0.912571  179.179626  -95.831569   16.351034    0.000000    0.000000    0.000000    0.000000
  0.027014028   -0.929899  177.422394  -95.777302   15.389492    0.000000    0.000000    0.000000    0.000000
  0.027214429   -0.947135  175.633347  -96.905425   17.751694    0.000000    0.000000    0.000000    0.000000
  0.027414830   -0.962871  173.847809  -96.028039   22.536097    0.000000    0.000000    0.000000    0.000000
  0.027615230   -0.980465  172.051529  -97.679194   21.070715    0.000000    0.000000    0.000000    0.000000
  0.027815631   -0.999674  170.237976  -96.894117   20.721066    0.000000    0.000000    0.000000    0.000000
  0.028016032   -1.021614  168.419373  -96.610325   28.711550    0.000000    0.000000    0.000000    0.000000
  0.028216433   -1.044374  166.586777  -95.668428   20.157495    0.000000    0.000000    0.000000    0.000000
  0.028416834   -1.065453  164.752625  -96.098296   29.222469    0.000000    0.000000    0.000000    0.000000
  0.028617234   -1.087195  162.918610  -96.146422   25.948000    0.000000    0.000000    0.000000    0.000000
  0.028817635   -1.107064  161.081573  -96.366377   23.907101    0.000000    0.000000    0.000000    0.000000
  0.029018036   -1.128009  159.270782  -95.820449   23.476000    0.000000    0.000000    0.000000    0.000000
  0.029218437   -1.150937  157.444077  -97.546490   21.114685    0.000000    0.000000    0.000000    0.000000
  0.029418838   -1.173423  155.622864  -95.568652   21.629320    0.000000    0.000000    0.000000    0.000000
  0.029619238   -1.199623  153.784317  -96.143861   16.159475    0.000000    0.000000    0.000000    0.000000
  0.029819639   -1.229234  151.921600  -96.285115   18.269844    0.000000    0.000000    0.000000    0.000000
  0.030020040   -1.260178  150.034348  -96.511625   14.461607    0.000000    0.000000    0.000000    0.000000
  0.030220441   -1.291209  148.122849  -96.340977   15.910934    0.000000    0.000000    0.000000    0.000000
  0.030420842   -1.320424  146.206833  -96.807821   12.612598    0.000000    0.000000    0.000000    0.000000
  0.030621242   -1.351653  144.296646  -96.383575   17.940840    0.000000    0.000000    0.000000    0.000000
  0.030821643   -1.383350  142.389999  -97.776780   18.802065    0.000000    0.000000    0.000000    0.000000
  0.031022044   -1.417642  140.466248  -96.492745   11.822439    0.000000    0.000000    0.000000    0.000000
  0.031222445   -1.447721  138.559174  -96.581821   16.379749    0.000000    0.000000    0.000000    0.000000
  0.031422846   -1.486068  136.568375  -96.699023    4.099541    0.000000    0.000000    0.000000    0.000000
  0.031623246   -1.523118  134.582184  -96.583895    8.501686    0.000000    0.000000    0.000000    0.000000
  0.031823647   -1.561681  132.579224  -97.857139    7.707730    0.000000    0.000000    0.000000    0.000000
  0.032024048   -1.594545  130.576202  -98.516396   10.320075    0.000000    0.000000    0.000000    0.000000
  0.032224449   -1.630514  128.556976  -98.163892    9.209292    0.000000    0.000000    0.000000    0.000000
  0.032424850   -1.666738  126.568489  -97.597178    8.614017    0.000000    0.000000    0.000000    0.000000
  0.032625251   -1.699807  124.556274 -100.217302   16.668318    0.000000    0.000000    0.000000    0.000000
  0.032825651   -1.736297  122.559151  -98.727354   14.744664    0.000000    0.000000    0.000000    0.000000
  0.033026052   -1.775537  120.575226  -98.086087    7.137547    0.000000    0.000000    0.000000    0.000000
  0.033226453   -1.815297  118.588287  -97.726499    8.705371    0.000000    0.000000    0.000000    0.000000
  0.033426854   -1.864241  116.600044  -98.659187   25.265629    0.000000    0.000000    0.000000    0.000000
  0.033627255   -1.914421  114.597595  -97.732560    7.313000    0.000000    0.000000    0.000000    0.000000
  0.033827655   -1.963435  112.574844  -98.415237   17.525419    0.000000    0.000000    0.000000    0.000000
  0.034028056   -2.015185  110.519081  -98.925963   10.877839    0.000000    0.000000    0.000000    0.000000
  0.034228457   -2.065450  108.424149  -97.245808   13.463128    0.000000    0.000000    0.000000    0.000000
  0.034428858   -2.114660  106.308159  -98.869173   15.394173    0.000000    0.000000    0.000000    0.000000
  0.034629259   -2.163619  104.184349  -97.886261   14.064963    0.000000    0.000000    0.000000    0.000000
  0.034829659   -2.207180  102.064087  -98.341858    9.125606    0.000000    0.000000    0.000000    0.000000
  0.035030060   -2.254083   99.936943  -99.559681    2.448527    0.000000    0.000000    0.000000    0.000000
  0.035230461   -2.296427   97.843636  -97.869100   17.849949    0.000000    0.000000    0.000000    0.000000
  0.035430862   -2.338991   95.754425  -98.905891   12.771384    0.000000    0.000000    0.000000    0.000000
  0.035631263   -2.380268   93.666100  -99.183403   20.005056    0.000000    0.000000    0.000000    0.000000
  0.035831663   -2.425039   91.597389  -98.298947    4.638335    0.000000    0.000000    0.000000    0.000000
  0.036032064   -2.469207   89.529854  -98.635598    6.307179    0.000000    0.000000    0.000000    0.000000
  0.036232465   -2.513174   87.451195  -99.007806    9.508183    0.000000    0.000000    0.000000    0.000000
  0.036432866   -2.561852   85.415520 -100.006864    1.411220    0.000000    0.000000    0.000000    0.000000
  0.036633267   -2.610230   83.400208  -99.105985    3.193034    0.000000    0.000000    0.000000    0.000000
  0.036833667   -2.664947   81.354813 -101.399602   12.479080    0.000000    0.000000    0.000000    0.000000
  0.037034068   -2.721791   79.303596  -99.520602    4.951915    0.000000    0.000000    0.000000    0.000000
  0.037234469   -2.781059   77.246941  -98.910678   -3.106893    0.000000    0.000000    0.000000    0.000000
  0.037434870   -2.840997   75.173096 -100.834436    4.110938    0.000000    0.000000    0.000000    0.000000
  0.037635271   -2.902364   73.063347  -98.883386    3.702722    0.000000    0.000000    0.000000    0.000000
  0.037835671   -2.961714   70.935547 -100.305147    4.893740    0.000000    0.000000    0.000000    0.000000
  0.038036072   -3.024120   68.792053 -101.362466   16.052341    0.000000    0.000000    0.000000    0.000000
  0.038236473   -3.086017   66.615013 -101.601897   -4.411867    0.000000    0.000000    0.000000    0.000000
  0.038436874   -3.142276   64.468079 -102.392818    7.799319    0.000000    0.000000    0.000000    0.000000
  0.038637275   -3.197167   62.305424 -101.097751   14.840456    0.000000    0.000000    0.000000    0.000000
  0.038837675   -3.247288   60.173634  -99.956772   10.832841    0.000000    0.000000    0.000000    0.000000
  0.039038076   -3.297751   58.075600 -101.330067   16.035158    0.000000    0.000000    0.000000    0.000000
  0.039238477   -3.342054   56.011005 -100.172059    8.143533    0.000000    0.000000    0.000000    0.000000
  0.039438878   -3.392031   53.922340 -101.081627    6.678746    0.000000    0.000000    0.000000    0.000000
  0.039639279   -3.444852   51.901501 -100.745489    6.020223    0.000000    0.000000    0.000000    0.000000
  0.039839679   -3.502216   49.838909  -99.928353    7.896905    0.000000    0.000000    0.000000    0.000000
  0.040040080   -3.561025   47.759930  -99.608653    2.249253    0.000000    0.000000    0.000000    0.000000
  0.040240481   -3.622074   45.707432 -100.448992    3.293284    0.000000    0.000000    0.000000    0.000000
  0.040440882   -3.680741   43.617725 -100.502078   11.924150    0.000000    0.000000    0.000000    0.000000
  0.040641283   -3.740499   41.537285 -100.659061    1.666407    0.000000    0.000000    0.000000    0.000000
  0.040841683   -3.799764   39.450478 -100.259735   -0.483853    0.000000    0.000000    0.000000    0.000000
  0.041042084   -3.854296   37.387184  -99.749490   12.880948    0.000000    0.000000    0.000000    0.000000
  0.041242485   -3.911907   35.309677 -100.345046    4.270067    0.000000    0.000000    0.000000    0.000000
  0.041442886   -3.966780   33.237099  -99.722954   -1.040545    0.000000    0.000000    0.000000    0.000000
  0.041643287   -4.020851   31.152411 -100.560700    5.078574    0.000000    0.000000    0.000000    0.000000
  0.041843687   -4.074511   29.092262 -102.344878   -5.046283    0.000000    0.000000    0.000000    0.000000
  0.042044088   -4.124610   27.032934 -101.242459    5.137968    0.000000    0.000000    0.000000    0.000000
  0.042244489   -4.174527   25.006374 -101.851781   -5.504716    0.000000    0.000000    0.000000    0.000000
  0.042444890   -4.226857   22.986019 -100.818580    1.526688    0.000000    0.000000    0.000000    0.000000
  0.042645291   -4.274602   20.974388 -100.879829    1.642379    0.000000    0.000000    0.000000    0.000000
  0.042845691   -4.326519   18.989445 -100.315176    2.421818    0.000000    0.000000    0.000000    0.000000
  0.043046092   -4.377074   16.970949 -104.748831   -9.908932    0.000000    0.000000    0.000000    0.000000
  0.043246493   -4.424180   14.964528 -101.234450    1.434750    0.000000    0.000000    0.000000    0.000000
  0.043446894   -4.474117   12.986938 -102.023960    5.621132    0.000000    0.000000    0.000000    0.000000
  0.043647295   -4.522223   10.993488 -103.279069    7.407649    0.000000    0.000000    0.000000    0.000000
  0.043847695   -4.569253    9.023797 -102.242797    3.759027    0.000000    0.000000    0.000000    0.000000
  0.044048096   -4.617843    7.040825 -102.746116    8.921066    0.000000    0.000000    0.000000    0.000000
  0.044248497   -4.664554    5.086315 -101.349673    7.241303    0.000000    0.000000    0.000000    0.000000
  0.044448898   -4.710900    3.126227 -104.210768    7.806342    0.000000    0.000000    0.000000    0.000000
  0.044649299   -4.756838    1.184339 -103.621381   27.124361    0.000000    0.000000    0.000000    0.000000
  0.044849699   -4.802819   -0.757026 -101.702850    9.250563    0.000000    0.000000    0.000000    0.000000
  0.045050100   -4.845788   -2.680789 -103.472166    6.781578    0.000000    0.000000    0.000000    0.000000
  0.045250501   -4.885620   -4.606427 -101.615995   -4.689669    0.000000    0.000000    0.000000    0.000000
  0.045450902   -4.926700   -6.523679 -102.138166   14.531244    0.000000    0.000000    0.000000    0.000000
  0.045651303   -4.966863   -8.414690 -101.172929    4.977919    0.000000    0.000000    0.000000    0.000000
  0.045851703   -5.009045  -10.307028 -102.195656   15.156322    0.000000    0.000000    0.000000    0.000000
  0.046052104   -5.048281  -12.216779 -100.439185    3.346341    0.000000    0.000000    0.000000    0.000000
  0.046252505   -5.084890  -14.084680 -102.229384   12.838541    0.000000    0.000000    0.000000    0.000000
  0.046452906   -5.122037  -15.965635 -100.303062   10.138844    0.000000    0.000000    0.000000    0.000000
  0.046653307   -5.159215  -17.836870 -101.638952    1.365326    0.000000    0.000000    0.000000    0.000000
  0.046853707   -5.194832  -19.694260  -99.920488   -2.360306    0.000000    0.000000    0.000000    0.000000
  0.047054108   -5.228902  -21.549889 -101.394262   -5.774887    0.000000    0.000000    0.000000    0.000000
  0.047254509   -5.261144  -23.395992 -101.230667   -8.705186    0.000000    0.000000    0.000000    0.000000
  0.047454910   -5.293025  -25.214962 -106.088507  -13.510253    0.000000    0.000000    0.000000    0.000000
  0.047655311   -5.324087  -27.016560 -103.145486   -1.921987    0.000000    0.000000    0.000000    0.000000
  0.047855711   -5.354586  -28.808929 -103.082514   -0.598839    0.000000    0.000000    0.000000    0.000000
  0.048056112   -5.383430  -30.581266 -103.236191    1.913904    0.000000    0.000000    0.000000    0.000000
  0.048256513   -5.413356  -32.338779 -103.148371    1.641014    0.000000    0.000000    0.000000    0.000000
  0.048456914   -5.442345  -34.090450 -101.214633   -9.893116    0.000000    0.000000    0.000000    0.000000
  0.048657315   -5.471655  -35.843117 -104.294467  -29.854792    0.000000    0.000000    0.000000    0.000000
  0.048857715   -5.496648  -37.596920 -106.267214   -3.232656    0.000000    0.000000    0.000000    0.000000
  0.049058116   -5.524202  -39.349464 -103.154982   -3.177182    0.000000    0.000000    0.000000    0.000000
  0.049258517   -5.547623  -41.079967 -102.264771   -7.712705    0.000000    0.000000    0.000000    0.000000
  0.049458918   -5.573525  -42.808399 -103.976694   20.348988    0.000000    0.000000    0.000000    0.000000
  0.049659319   -5.598738  -44.514565 -103.116998   -2.139346    0.000000    0.000000    0.000000    0.000000
  0.049859719   -5.622895  -46.220879 -104.504864   17.956726    0.000000    0.000000    0.000000    0.000000
  0.050060120   -5.646695  -47.914124 -103.810634    5.282931    0.000000    0.000000    0.000000    0.000000
  0.050260521   -5.671352  -49.620159 -105.060476   24.778679    0.000000    0.000000    0.000000    0.000000
  0.050460922   -5.688476  -51.309547 -103.597999   14.704675    0.000000    0.000000    0.000000    0.000000
  0.050661323   -5.704964  -52.980106 -103.751426   -5.177434    0.000000    0.000000    0.000000    0.000000
  0.050861723   -5.721120  -54.632626 -102.732397    5.330382    0.000000    0.000000    0.000000    0.000000
  0.051062124   -5.732380  -56.310024 -102.328987   13.888378    0.000000    0.000000    0.000000    0.000000
  0.051262525   -5.750046  -57.911499 -102.160007    4.013496    0.000000    0.000000    0.000000    0.000000
  0.051462926   -5.764764  -59.486938 -103.092133   12.864391    0.000000    0.000000    0.000000    0.000000
  0.051663327   -5.779162  -61.043232 -103.268812    5.781827    0.000000    0.000000    0.000000    0.000000
  0.051863727   -5.790642  -62.609940 -105.015048   16.168898    0.000000    0.000000    0.000000    0.000000
  0.052064128   -5.805838  -64.162148 -102.380361   -0.121130    0.000000    0.000000    0.000000    0.000000
  0.052264529   -5.821688  -65.691582 -101.787773   10.047079    0.000000    0.000000    0.000000    0.000000
  0.052464930   -5.842263  -67.224609 -101.917758    3.819345    0.000000    0.000000    0.000000    0.000000
  0.052665331   -5.855466  -68.772591 -103.285768   11.154645    0.000000    0.000000    0.000000    0.000000
  0.052865731   -5.868338  -70.313065 -102.062817   -5.118935    0.000000    0.000000    0.000000    0.000000
