! Anritsu VNA Master:                     Model: MS2036C/10/77
! SN:                                  1601066
! /bd0/18may07/256.ew.m2.s2p
! Existing Calibration Information:
! TYPE:                         Current Settings,       Active Cal Settings
! TIME:             	   05/07/2018 11:52:44 AM,    05/07/2018 11:47:21 AM
! INTERNAL TEMP:    	                   52.5 C,                    52.0 C
! # POINTS:         	                      500,                       500
! START FREQ:       	               20.000 MHz,                20.000 MHz
! STOP FREQ:        	              120.000 MHz,               120.000 MHz
! SOURCE POWER:     	                     High,                      High
! IFBW:             	                    50 Hz,                     50 Hz
! AVG FACTOR:       	                       1 ,                        1 
! REF PLANE 1:      	                     0 mm,                      0 mm
! REF PLANE 2:      	                     0 mm,                      0 mm
! CAL TYPE:         	                 Full S11,                  Full S11
! CAL METHOD:       	                     SOLT,                      SOLT
! CAL LINE TYPE:    	                     Coax,                      Coax
! DUT PORT 1:       	                K-Conn(F),                 K-Conn(F)
! DUT PORT 2:       	                K-Conn(F),                 K-Conn(F)
! CAL STATUS:       	        OK: Accuracy High,                        --
# GHZ S DB R 50.0
! FREQ.GHZ       S11DB        S11A       S21DB        S21A       S12DB        S12A       S22DB        S22A
  0.020000000   -0.623929 -125.822670  -90.914869   29.989981    0.000000    0.000000    0.000000    0.000000
  0.020200401   -0.620890 -127.281998  -91.197282   28.572302    0.000000    0.000000    0.000000    0.000000
  0.020400802   -0.621902 -128.729980  -91.857133   30.383884    0.000000    0.000000    0.000000    0.000000
  0.020601202   -0.623368 -130.193970  -91.897909   26.250399    0.000000    0.000000    0.000000    0.000000
  0.020801603   -0.626590 -131.681244  -92.039759   27.647272    0.000000    0.000000    0.000000    0.000000
  0.021002004   -0.635065 -133.197495  -92.233749   30.044794    0.000000    0.000000    0.000000    0.000000
  0.021202405   -0.643565 -134.728409  -92.739924   27.640476    0.000000    0.000000    0.000000    0.000000
  0.021402806   -0.647226 -136.256165  -92.486266   32.183510    0.000000    0.000000    0.000000    0.000000
  0.021603206   -0.652948 -137.784515  -93.435340   33.953964    0.000000    0.000000    0.000000    0.000000
  0.021803607   -0.658240 -139.320679  -93.064602   29.651785    0.000000    0.000000    0.000000    0.000000
  0.022004008   -0.663986 -140.859421  -93.898989   33.066727    0.000000    0.000000    0.000000    0.000000
  0.022204409   -0.669389 -142.415298  -93.602057   35.404263    0.000000    0.000000    0.000000    0.000000
  0.022404810   -0.675743 -143.985336  -93.147351   33.394924    0.000000    0.000000    0.000000    0.000000
  0.022605210   -0.683210 -145.570618  -93.114935   34.039711    0.000000    0.000000    0.000000    0.000000
  0.022805611   -0.684593 -147.177643  -92.831136   32.406662    0.000000    0.000000    0.000000    0.000000
  0.023006012   -0.687257 -148.764801  -92.693130   30.724840    0.000000    0.000000    0.000000    0.000000
  0.023206413   -0.689967 -150.360916  -93.237623   36.289696    0.000000    0.000000    0.000000    0.000000
  0.023406814   -0.693805 -151.928635  -92.760275   30.720341    0.000000    0.000000    0.000000    0.000000
  0.023607214   -0.700797 -153.518906  -92.677791   30.019258    0.000000    0.000000    0.000000    0.000000
  0.023807615   -0.708632 -155.122055  -92.837251   27.909443    0.000000    0.000000    0.000000    0.000000
  0.024008016   -0.717483 -156.732803  -92.805287   27.223818    0.000000    0.000000    0.000000    0.000000
  0.024208417   -0.727303 -158.379517  -93.155822   26.089239    0.000000    0.000000    0.000000    0.000000
  0.024408818   -0.737060 -160.024719  -92.834755   27.759886    0.000000    0.000000    0.000000    0.000000
  0.024609218   -0.747156 -161.670929  -92.998578   24.545183    0.000000    0.000000    0.000000    0.000000
  0.024809619   -0.755715 -163.324432  -93.139617   21.480968    0.000000    0.000000    0.000000    0.000000
  0.025010020   -0.768757 -164.978180  -94.006916   21.756474    0.000000    0.000000    0.000000    0.000000
  0.025210421   -0.781164 -166.637604  -93.327831   22.429022    0.000000    0.000000    0.000000    0.000000
  0.025410822   -0.794157 -168.311844  -94.026678   17.868841    0.000000    0.000000    0.000000    0.000000
  0.025611222   -0.809295 -170.011353  -94.668428   17.606773    0.000000    0.000000    0.000000    0.000000
  0.025811623   -0.822104 -171.733414  -93.945794   13.672347    0.000000    0.000000    0.000000    0.000000
  0.026012024   -0.833883 -173.456497  -95.602336   20.704227    0.000000    0.000000    0.000000    0.000000
  0.026212425   -0.843844 -175.178589  -94.821190   14.723516    0.000000    0.000000    0.000000    0.000000
  0.026412826   -0.858171 -176.903839  -95.664876   19.444101    0.000000    0.000000    0.000000    0.000000
  0.026613226   -0.873429 -178.649231  -96.494730   17.401924    0.000000    0.000000    0.000000    0.000000
  0.026813627   -0.889437  179.588455  -95.458635   15.980739    0.000000    0.000000    0.000000    0.000000
  0.027014028   -0.907273  177.823944  -95.554449   20.154209    0.000000    0.000000    0.000000    0.000000
  0.027214429   -0.924271  176.035492  -95.652582   20.196014    0.000000    0.000000    0.000000    0.000000
  0.027414830   -0.940776  174.250290  -95.795471   18.169188    0.000000    0.000000    0.000000    0.000000
  0.027615230   -0.958493  172.451721  -96.277320   22.015055    0.000000    0.000000    0.000000    0.000000
  0.027815631   -0.978530  170.634033  -96.835951   21.590794    0.000000    0.000000    0.000000    0.000000
  0.028016032   -0.998909  168.806976  -97.051186   23.770765    0.000000    0.000000    0.000000    0.000000
  0.028216433   -1.022064  166.984787  -95.471342   24.105354    0.000000    0.000000    0.000000    0.000000
  0.028416834   -1.043664  165.143097  -96.944229   27.823545    0.000000    0.000000    0.000000    0.000000
  0.028617234   -1.065119  163.311264  -95.911516   22.920177    0.000000    0.000000    0.000000    0.000000
  0.028817635   -1.084396  161.484711  -96.117732   24.946428    0.000000    0.000000    0.000000    0.000000
  0.029018036   -1.106520  159.662720  -95.503032   19.986942    0.000000    0.000000    0.000000    0.000000
  0.029218437   -1.127312  157.843674  -96.441798   16.941017    0.000000    0.000000    0.000000    0.000000
  0.029418838   -1.151518  156.030838  -96.372231   19.587332    0.000000    0.000000    0.000000    0.000000
  0.029619238   -1.177674  154.195786  -96.456906   15.624899    0.000000    0.000000    0.000000    0.000000
  0.029819639   -1.207086  152.328949  -96.244122   17.489891    0.000000    0.000000    0.000000    0.000000
  0.030020040   -1.238262  150.447830  -96.142013   15.040126    0.000000    0.000000    0.000000    0.000000
  0.030220441   -1.268132  148.539459  -96.969345   14.633363    0.000000    0.000000    0.000000    0.000000
  0.030420842   -1.296850  146.625931  -96.709475   16.916946    0.000000    0.000000    0.000000    0.000000
  0.030621242   -1.328786  144.728271  -97.190332   14.958899    0.000000    0.000000    0.000000    0.000000
  0.030821643   -1.360511  142.814392  -96.486549   14.753167    0.000000    0.000000    0.000000    0.000000
  0.031022044   -1.395133  140.906418  -97.287523   13.544306    0.000000    0.000000    0.000000    0.000000
  0.031222445   -1.426091  138.995422  -97.772493   12.541344    0.000000    0.000000    0.000000    0.000000
  0.031422846   -1.464008  137.023911  -97.611208   14.872715    0.000000    0.000000    0.000000    0.000000
  0.031623246   -1.501863  135.029526  -96.875967   10.222046    0.000000    0.000000    0.000000    0.000000
  0.031823647   -1.536077  133.027252  -97.760087   12.673807    0.000000    0.000000    0.000000    0.000000
  0.032024048   -1.572845  131.028961  -97.990164   12.775618    0.000000    0.000000    0.000000    0.000000
  0.032224449   -1.608156  129.032333  -97.730644    4.394318    0.000000    0.000000    0.000000    0.000000
  0.032424850   -1.643614  127.033226  -98.523462    2.679835    0.000000    0.000000    0.000000    0.000000
  0.032625251   -1.678700  125.057213  -97.202434    7.903222    0.000000    0.000000    0.000000    0.000000
  0.032825651   -1.716409  123.058685  -97.915072   14.304574    0.000000    0.000000    0.000000    0.000000
  0.033026052   -1.754813  121.045967  -97.806572   10.265275    0.000000    0.000000    0.000000    0.000000
  0.033226453   -1.800203  119.057823  -97.866602   16.522726    0.000000    0.000000    0.000000    0.000000
  0.033426854   -1.846530  117.068756  -99.320292    9.575749    0.000000    0.000000    0.000000    0.000000
  0.033627255   -1.898333  115.055237  -97.915707   15.186434    0.000000    0.000000    0.000000    0.000000
  0.033827655   -1.952531  113.025673  -98.582744   18.052855    0.000000    0.000000    0.000000    0.000000
  0.034028056   -2.003990  110.940254  -97.871720    7.864240    0.000000    0.000000    0.000000    0.000000
  0.034228457   -2.054851  108.832565  -97.524546   14.734315    0.000000    0.000000    0.000000    0.000000
  0.034428858   -2.104586  106.697289  -98.281792    2.137679    0.000000    0.000000    0.000000    0.000000
  0.034629259   -2.152217  104.567421  -97.989790   19.038702    0.000000    0.000000    0.000000    0.000000
  0.034829659   -2.197196  102.440765  -98.775407   -0.472229    0.000000    0.000000    0.000000    0.000000
  0.035030060   -2.242748  100.324181  -98.503611   11.468171    0.000000    0.000000    0.000000    0.000000
  0.035230461   -2.284116   98.232513  -97.949933   11.836405    0.000000    0.000000    0.000000    0.000000
  0.035430862   -2.326175   96.106865  -97.587677   16.081482    0.000000    0.000000    0.000000    0.000000
  0.035631263   -2.370843   94.016426 -100.460838   12.112425    0.000000    0.000000    0.000000    0.000000
  0.035831663   -2.413204   91.951462  -97.934767    5.066445    0.000000    0.000000    0.000000    0.000000
  0.036032064   -2.459526   89.879555  -99.866881    5.313801    0.000000    0.000000    0.000000    0.000000
  0.036232465   -2.504399   87.817848  -98.432451    5.104951    0.000000    0.000000    0.000000    0.000000
  0.036432866   -2.551559   85.787277 -100.373113    2.737641    0.000000    0.000000    0.000000    0.000000
  0.036633267   -2.602955   83.749672 -100.542171    6.296618    0.000000    0.000000    0.000000    0.000000
  0.036833667   -2.657388   81.711876 -100.119658   19.521334    0.000000    0.000000    0.000000    0.000000
  0.037034068   -2.715603   79.661507 -100.335304   13.944716    0.000000    0.000000    0.000000    0.000000
  0.037234469   -2.773812   77.578011 -100.133446   -3.228476    0.000000    0.000000    0.000000    0.000000
  0.037434870   -2.835631   75.498497  -98.476981    7.153666    0.000000    0.000000    0.000000    0.000000
  0.037635271   -2.892591   73.388527 -100.694863    4.556220    0.000000    0.000000    0.000000    0.000000
  0.037835671   -2.955290   71.243042 -102.169605    5.898461    0.000000    0.000000    0.000000    0.000000
  0.038036072   -3.014642   69.076111  -99.052789   -2.314702    0.000000    0.000000    0.000000    0.000000
  0.038236473   -3.076606   66.933769  -99.927126   10.158453    0.000000    0.000000    0.000000    0.000000
  0.038436874   -3.132463   64.759552 -101.574981   10.634073    0.000000    0.000000    0.000000    0.000000
  0.038637275   -3.188520   62.632275  -99.806939    9.364341    0.000000    0.000000    0.000000    0.000000
  0.038837675   -3.233768   60.499718  -98.886544    5.392226    0.000000    0.000000    0.000000    0.000000
  0.039038076   -3.283375   58.389950  -99.639211   13.518866    0.000000    0.000000    0.000000    0.000000
  0.039238477   -3.328061   56.320770 -100.402467    9.363395    0.000000    0.000000    0.000000    0.000000
  0.039438878   -3.379127   54.233292  -99.223929   13.165830    0.000000    0.000000    0.000000    0.000000
  0.039639279   -3.434036   52.194988 -100.702126   10.691480    0.000000    0.000000    0.000000    0.000000
  0.039839679   -3.490509   50.150398  -99.626609    4.009922    0.000000    0.000000    0.000000    0.000000
  0.040040080   -3.552674   48.087280 -100.374619    7.374436    0.000000    0.000000    0.000000    0.000000
  0.040240481   -3.614326   46.009399 -100.078131   18.432756    0.000000    0.000000    0.000000    0.000000
  0.040440882   -3.675280   43.926517 -100.998596    1.346100    0.000000    0.000000    0.000000    0.000000
  0.040641283   -3.734703   41.849892  -99.899628    5.149370    0.000000    0.000000    0.000000    0.000000
  0.040841683   -3.793548   39.745815 -100.238051    9.806873    0.000000    0.000000    0.000000    0.000000
  0.041042084   -3.851802   37.676956 -100.397800   11.552821    0.000000    0.000000    0.000000    0.000000
  0.041242485   -3.909729   35.595921  -99.555751   -1.742290    0.000000    0.000000    0.000000    0.000000
  0.041442886   -3.964636   33.517193 -101.558341   -5.930239    0.000000    0.000000    0.000000    0.000000
  0.041643287   -4.018477   31.428228  -99.556298    3.886603    0.000000    0.000000    0.000000    0.000000
  0.041843687   -4.069865   29.353155 -100.438307    4.221961    0.000000    0.000000    0.000000    0.000000
  0.042044088   -4.123656   27.276302 -100.902671    0.006974    0.000000    0.000000    0.000000    0.000000
  0.042244489   -4.173559   25.232790 -101.173302   -3.877440    0.000000    0.000000    0.000000    0.000000
  0.042444890   -4.223565   23.209173 -101.991053    0.452586    0.000000    0.000000    0.000000    0.000000
  0.042645291   -4.275145   21.192543 -102.323827   -5.277814    0.000000    0.000000    0.000000    0.000000
  0.042845691   -4.324358   19.179440 -103.926528   10.798632    0.000000    0.000000    0.000000    0.000000
  0.043046092   -4.375791   17.160097 -102.835651    6.658655    0.000000    0.000000    0.000000    0.000000
  0.043246493   -4.423424   15.149705 -102.050953   -2.673014    0.000000    0.000000    0.000000    0.000000
  0.043446894   -4.471620   13.159222 -103.252857   -6.427838    0.000000    0.000000    0.000000    0.000000
  0.043647295   -4.518653   11.160416 -102.894798    5.999983    0.000000    0.000000    0.000000    0.000000
  0.043847695   -4.566934    9.175070 -100.819248   -2.410164    0.000000    0.000000    0.000000    0.000000
  0.044048096   -4.616665    7.212959 -101.172908   16.628094    0.000000    0.000000    0.000000    0.000000
  0.044248497   -4.662918    5.235240 -104.763260   15.205996    0.000000    0.000000    0.000000    0.000000
  0.044448898   -4.708383    3.271383 -102.602379   14.411505    0.000000    0.000000    0.000000    0.000000
  0.044649299   -4.755036    1.328768 -101.571874   16.065601    0.000000    0.000000    0.000000    0.000000
  0.044849699   -4.797644   -0.613865 -101.220286    1.351627    0.000000    0.000000    0.000000    0.000000
  0.045050100   -4.837670   -2.564252 -101.194670    1.012642    0.000000    0.000000    0.000000    0.000000
  0.045250501   -4.877066   -4.497028 -102.104821    8.372848    0.000000    0.000000    0.000000    0.000000
  0.045450902   -4.910361   -6.414375 -100.683909   -0.975805    0.000000    0.000000    0.000000    0.000000
  0.045651303   -4.948698   -8.334021 -101.841811   15.343102    0.000000    0.000000    0.000000    0.000000
  0.045851703   -4.986743  -10.223644 -103.194376    5.442615    0.000000    0.000000    0.000000    0.000000
  0.046052104   -5.027359  -12.105700 -100.672667    2.929128    0.000000    0.000000    0.000000    0.000000
  0.046252505   -5.065806  -13.986046 -101.568956   10.059221    0.000000    0.000000    0.000000    0.000000
  0.046452906   -5.102646  -15.859406 -102.258491    2.033265    0.000000    0.000000    0.000000    0.000000
  0.046653307   -5.139269  -17.710119 -101.796425   14.091920    0.000000    0.000000    0.000000    0.000000
  0.046853707   -5.171637  -19.592358 -101.104351   -1.662291    0.000000    0.000000    0.000000    0.000000
  0.047054108   -5.202833  -21.418112 -102.801502    0.207059    0.000000    0.000000    0.000000    0.000000
  0.047254509   -5.234017  -23.258432 -102.429930   -2.860861    0.000000    0.000000    0.000000    0.000000
  0.047454910   -5.259318  -25.069824 -103.117985    0.981320    0.000000    0.000000    0.000000    0.000000
  0.047655311   -5.288927  -26.879822 -101.444236  -18.323711    0.000000    0.000000    0.000000    0.000000
  0.047855711   -5.315264  -28.647434 -103.643391   -3.626158    0.000000    0.000000    0.000000    0.000000
  0.048056112   -5.344787  -30.404402 -103.796411    0.012490    0.000000    0.000000    0.000000    0.000000
  0.048256513   -5.370429  -32.163139 -101.869002   -2.820431    0.000000    0.000000    0.000000    0.000000
  0.048456914   -5.400621  -33.902130 -102.774592    5.915693    0.000000    0.000000    0.000000    0.000000
  0.048657315   -5.430158  -35.658352 -103.531479   -3.875935    0.000000    0.000000    0.000000    0.000000
  0.048857715   -5.454329  -37.390766 -104.429994   -8.829748    0.000000    0.000000    0.000000    0.000000
  0.049058116   -5.481983  -39.147865 -103.724462    3.446218    0.000000    0.000000    0.000000    0.000000
  0.049258517   -5.502184  -40.853977 -104.222516   -9.083008    0.000000    0.000000    0.000000    0.000000
  0.049458918   -5.526700  -42.576180 -105.449922    7.825119    0.000000    0.000000    0.000000    0.000000
  0.049659319   -5.553504  -44.270592 -104.046971    9.686267    0.000000    0.000000    0.000000    0.000000
  0.049859719   -5.579437  -45.967133 -104.052186    2.324012    0.000000    0.000000    0.000000    0.000000
  0.050060120   -5.602520  -47.660049 -103.387040   12.854257    0.000000    0.000000    0.000000    0.000000
  0.050260521   -5.622524  -49.352211 -104.521331    7.953739    0.000000    0.000000    0.000000    0.000000
  0.050460922   -5.643857  -51.043285 -101.722640   -2.841493    0.000000    0.000000    0.000000    0.000000
  0.050661323   -5.660048  -52.706112 -103.208998    8.020095    0.000000    0.000000    0.000000    0.000000
  0.050861723   -5.671983  -54.374557 -102.807194    7.058783    0.000000    0.000000    0.000000    0.000000
  0.051062124   -5.692678  -56.015701 -101.529605    6.832561    0.000000    0.000000    0.000000    0.000000
  0.051262525   -5.706099  -57.627460 -102.787793   11.299833    0.000000    0.000000    0.000000    0.000000
  0.051462926   -5.719757  -59.191792 -102.365126    6.212237    0.000000    0.000000    0.000000    0.000000
  0.051663327   -5.733386  -60.758289 -101.907431   12.867430    0.000000    0.000000    0.000000    0.000000
  0.051863727   -5.750676  -62.306419 -100.968812    5.588820    0.000000    0.000000    0.000000    0.000000
  0.052064128   -5.763836  -63.852940 -102.146187    3.264180    0.000000    0.000000    0.000000    0.000000
  0.052264529   -5.781275  -65.376587 -101.669979   -0.373145    0.000000    0.000000    0.000000    0.000000
  0.052464930   -5.795415  -66.917938 -104.069718   17.126560    0.000000    0.000000    0.000000    0.000000
  0.052665331   -5.812315  -68.474030 -102.151335   11.673055    0.000000    0.000000    0.000000    0.000000
  0.052865731   -5.831158  -70.005112 -101.104395    7.939999    0.000000    0.000000    0.000000    0.000000
