! Anritsu VNA Master:                     Model: MS2036C/10/77
! SN:                                  1601066
! /card0/usr/18may27.balun/5a..47.s2p
! Existing Calibration Information:
! TYPE:                         Current Settings,       Active Cal Settings
! TIME:             	   05/27/2018 04:49:41 PM,    05/27/2018 04:42:15 PM
! INTERNAL TEMP:    	                   52.8 C,                    52.0 C
! # POINTS:         	                      500,                       500
! START FREQ:       	               20.000 MHz,                20.000 MHz
! STOP FREQ:        	              120.000 MHz,               120.000 MHz
! SOURCE POWER:     	                     High,                      High
! IFBW:             	                    50 Hz,                     50 Hz
! AVG FACTOR:       	                       1 ,                        1 
! REF PLANE 1:      	                     0 mm,                      0 mm
! REF PLANE 2:      	                     0 mm,                      0 mm
! CAL TYPE:         	                 Full S11,                  Full S11
! CAL METHOD:       	                     SOLT,                      SOLT
! CAL LINE TYPE:    	                     Coax,                      Coax
! DUT PORT 1:       	                K-Conn(M),                 K-Conn(M)
! DUT PORT 2:       	                K-Conn(M),                 K-Conn(M)
! CAL STATUS:       	        OK: Accuracy High,                        --
# GHZ S DB R 50.0
! FREQ.GHZ       S11DB        S11A       S21DB        S21A       S12DB        S12A       S22DB        S22A
  0.020000000   -0.020958  -55.689362  -90.653968   35.486313    0.000000    0.000000    0.000000    0.000000
  0.020200401   -0.014203  -56.209305  -90.869518   37.285202    0.000000    0.000000    0.000000    0.000000
  0.020400802   -0.011516  -56.722057  -90.835889   32.818951    0.000000    0.000000    0.000000    0.000000
  0.020601202   -0.008517  -57.213257  -90.455438   30.904390    0.000000    0.000000    0.000000    0.000000
  0.020801603   -0.007133  -57.748001  -91.172091   32.100647    0.000000    0.000000    0.000000    0.000000
  0.021002004   -0.006793  -58.290291  -91.171791   28.837011    0.000000    0.000000    0.000000    0.000000
  0.021202405   -0.008844  -58.815079  -91.483777   28.507298    0.000000    0.000000    0.000000    0.000000
  0.021402806   -0.010423  -59.351597  -92.247857   25.492386    0.000000    0.000000    0.000000    0.000000
  0.021603206   -0.011739  -59.890739  -92.590740   24.560740    0.000000    0.000000    0.000000    0.000000
  0.021803607   -0.019079  -60.415455  -93.302641   28.342216    0.000000    0.000000    0.000000    0.000000
  0.022004008   -0.017864  -60.936142  -93.095807   26.166954    0.000000    0.000000    0.000000    0.000000
  0.022204409   -0.023001  -61.499275  -93.522705   28.692022    0.000000    0.000000    0.000000    0.000000
  0.022404810   -0.025453  -62.090096  -93.521898   30.461342    0.000000    0.000000    0.000000    0.000000
  0.022605210   -0.027045  -62.677860  -94.219157   33.389160    0.000000    0.000000    0.000000    0.000000
  0.022805611   -0.027184  -63.257332  -93.688268   28.333773    0.000000    0.000000    0.000000    0.000000
  0.023006012   -0.020950  -63.840912  -93.834467   37.648983    0.000000    0.000000    0.000000    0.000000
  0.023206413   -0.012548  -64.418381  -94.244543   32.778778    0.000000    0.000000    0.000000    0.000000
  0.023406814   -0.009249  -65.013130  -94.296784   33.742065    0.000000    0.000000    0.000000    0.000000
  0.023607214   -0.005996  -65.584282  -93.878596   38.489410    0.000000    0.000000    0.000000    0.000000
  0.023807615   -0.004878  -66.105148  -93.053612   34.320736    0.000000    0.000000    0.000000    0.000000
  0.024008016   -0.011328  -66.621895  -92.832260   29.873478    0.000000    0.000000    0.000000    0.000000
  0.024208417   -0.014776  -67.101967  -93.474777   28.819675    0.000000    0.000000    0.000000    0.000000
  0.024408818   -0.021441  -67.606384  -93.713432   31.047476    0.000000    0.000000    0.000000    0.000000
  0.024609218   -0.025564  -68.089142  -93.030109   27.064554    0.000000    0.000000    0.000000    0.000000
  0.024809619   -0.029475  -68.615974  -93.181499   24.846416    0.000000    0.000000    0.000000    0.000000
  0.025010020   -0.034196  -69.150566  -93.805589   25.094358    0.000000    0.000000    0.000000    0.000000
  0.025210421   -0.033962  -69.698517  -93.415422   19.056555    0.000000    0.000000    0.000000    0.000000
  0.025410822   -0.035148  -70.249458  -93.892947   20.999048    0.000000    0.000000    0.000000    0.000000
  0.025611222   -0.033842  -70.812782  -94.461362   19.513775    0.000000    0.000000    0.000000    0.000000
  0.025811623   -0.033502  -71.351410  -94.045539   17.572336    0.000000    0.000000    0.000000    0.000000
  0.026012024   -0.032299  -71.895241  -95.449176   20.223759    0.000000    0.000000    0.000000    0.000000
  0.026212425   -0.025405  -72.418678  -95.319141   22.813820    0.000000    0.000000    0.000000    0.000000
  0.026412826   -0.024921  -72.953316  -95.696919   17.954416    0.000000    0.000000    0.000000    0.000000
  0.026613226   -0.024954  -73.449692  -95.501921   16.739233    0.000000    0.000000    0.000000    0.000000
  0.026813627   -0.025807  -73.941322  -95.559198   13.787086    0.000000    0.000000    0.000000    0.000000
  0.027014028   -0.028970  -74.422585  -95.999824   24.709309    0.000000    0.000000    0.000000    0.000000
  0.027214429   -0.036858  -74.899910  -95.960429   19.949741    0.000000    0.000000    0.000000    0.000000
  0.027414830   -0.046763  -75.459274  -95.950768   15.463975    0.000000    0.000000    0.000000    0.000000
  0.027615230   -0.055083  -76.036285  -96.627948   23.915972    0.000000    0.000000    0.000000    0.000000
  0.027815631   -0.059228  -76.647087  -96.905663   24.387590    0.000000    0.000000    0.000000    0.000000
  0.028016032   -0.056759  -77.280983  -97.061577   15.831117    0.000000    0.000000    0.000000    0.000000
  0.028216433   -0.049173  -77.893829  -96.229208   26.733305    0.000000    0.000000    0.000000    0.000000
  0.028416834   -0.041711  -78.526833  -95.720672   28.375114    0.000000    0.000000    0.000000    0.000000
  0.028617234   -0.032965  -79.129814  -96.082348   21.758240    0.000000    0.000000    0.000000    0.000000
  0.028817635   -0.023297  -79.683426  -95.883450   23.144705    0.000000    0.000000    0.000000    0.000000
  0.029018036   -0.015750  -80.189636  -95.604944   16.329992    0.000000    0.000000    0.000000    0.000000
  0.029218437   -0.008602  -80.643097  -95.607299   27.157175    0.000000    0.000000    0.000000    0.000000
  0.029418838   -0.000397  -81.079025  -95.335784   19.962667    0.000000    0.000000    0.000000    0.000000
  0.029619238   -0.001089  -81.506256  -95.915298   14.235533    0.000000    0.000000    0.000000    0.000000
  0.029819639   -0.003040  -81.936989  -96.549617   15.709809    0.000000    0.000000    0.000000    0.000000
  0.030020040   -0.008084  -82.388969  -96.118803   12.833426    0.000000    0.000000    0.000000    0.000000
  0.030220441   -0.018407  -82.889229  -96.435095   12.043168    0.000000    0.000000    0.000000    0.000000
  0.030420842   -0.030112  -83.394066  -96.756124    7.851747    0.000000    0.000000    0.000000    0.000000
  0.030621242   -0.039117  -83.926079  -96.818927   15.281163    0.000000    0.000000    0.000000    0.000000
  0.030821643   -0.042396  -84.477501  -96.989677    9.956097    0.000000    0.000000    0.000000    0.000000
  0.031022044   -0.044066  -85.010208  -97.994451   11.945575    0.000000    0.000000    0.000000    0.000000
  0.031222445   -0.043542  -85.553635  -97.174316   13.839554    0.000000    0.000000    0.000000    0.000000
  0.031422846   -0.045029  -86.094490  -97.308376   14.651076    0.000000    0.000000    0.000000    0.000000
  0.031623246   -0.047688  -86.626152  -98.618791    9.562096    0.000000    0.000000    0.000000    0.000000
  0.031823647   -0.043937  -87.119263  -96.369117    7.438330    0.000000    0.000000    0.000000    0.000000
  0.032024048   -0.042657  -87.591629  -97.658077   11.720410    0.000000    0.000000    0.000000    0.000000
  0.032224449   -0.044723  -88.068283  -98.263496   17.231552    0.000000    0.000000    0.000000    0.000000
  0.032424850   -0.048510  -88.522331  -98.238090    8.632280    0.000000    0.000000    0.000000    0.000000
  0.032625251   -0.059173  -89.012268  -97.289770   19.916431    0.000000    0.000000    0.000000    0.000000
  0.032825651   -0.069179  -89.538269  -97.953655   15.007730    0.000000    0.000000    0.000000    0.000000
  0.033026052   -0.077713  -90.076134  -96.393332   14.491853    0.000000    0.000000    0.000000    0.000000
  0.033226453   -0.083177  -90.659531  -98.082542    3.479265    0.000000    0.000000    0.000000    0.000000
  0.033426854   -0.086713  -91.260246  -97.606255   13.024205    0.000000    0.000000    0.000000    0.000000
  0.033627255   -0.090138  -91.861252  -97.595743   13.518909    0.000000    0.000000    0.000000    0.000000
  0.033827655   -0.090024  -92.494843  -98.964954   12.804406    0.000000    0.000000    0.000000    0.000000
  0.034028056   -0.084870  -93.086517  -97.405283    3.200424    0.000000    0.000000    0.000000    0.000000
  0.034228457   -0.075191  -93.655106  -98.387813   12.463443    0.000000    0.000000    0.000000    0.000000
  0.034428858   -0.060847  -94.184593  -97.824663   13.500635    0.000000    0.000000    0.000000    0.000000
  0.034629259   -0.053198  -94.694374  -98.830916    3.962008    0.000000    0.000000    0.000000    0.000000
  0.034829659   -0.042139  -95.163445  -98.697229    6.752522    0.000000    0.000000    0.000000    0.000000
  0.035030060   -0.036963  -95.625420  -97.700403    4.263635    0.000000    0.000000    0.000000    0.000000
  0.035230461   -0.031082  -96.071869  -99.049907   16.451063    0.000000    0.000000    0.000000    0.000000
  0.035430862   -0.031246  -96.519806  -99.111474    9.187472    0.000000    0.000000    0.000000    0.000000
  0.035631263   -0.034378  -96.940483  -99.284048   12.669213    0.000000    0.000000    0.000000    0.000000
  0.035831663   -0.046075  -97.404755  -98.671491    4.800166    0.000000    0.000000    0.000000    0.000000
  0.036032064   -0.054400  -97.927742  -98.761169    3.905358    0.000000    0.000000    0.000000    0.000000
  0.036232465   -0.062460  -98.466141  -98.860253   -0.619011    0.000000    0.000000    0.000000    0.000000
  0.036432866   -0.066916  -99.020462  -99.569580    2.874571    0.000000    0.000000    0.000000    0.000000
  0.036633267   -0.071971  -99.577057  -99.102004   23.560221    0.000000    0.000000    0.000000    0.000000
  0.036833667   -0.074947 -100.123009  -99.236160    8.396106    0.000000    0.000000    0.000000    0.000000
  0.037034068   -0.071775 -100.640877  -99.215360   19.877493    0.000000    0.000000    0.000000    0.000000
  0.037234469   -0.061652 -101.149971  -99.096556   22.990185    0.000000    0.000000    0.000000    0.000000
  0.037434870   -0.054339 -101.620964 -100.312426   10.384761    0.000000    0.000000    0.000000    0.000000
  0.037635271   -0.049877 -102.045059  -98.733376    7.337345    0.000000    0.000000    0.000000    0.000000
  0.037835671   -0.054621 -102.485306  -99.273487   21.465117    0.000000    0.000000    0.000000    0.000000
  0.038036072   -0.059596 -102.942047 -100.811196   11.566930    0.000000    0.000000    0.000000    0.000000
  0.038236473   -0.068832 -103.422287  -99.177739   14.390703    0.000000    0.000000    0.000000    0.000000
  0.038436874   -0.078303 -103.916077  -98.938768   -2.217510    0.000000    0.000000    0.000000    0.000000
  0.038637275   -0.086614 -104.412468  -98.452319   23.518934    0.000000    0.000000    0.000000    0.000000
  0.038837675   -0.096132 -104.924240  -99.623417   15.421414    0.000000    0.000000    0.000000    0.000000
  0.039038076   -0.106389 -105.466415  -99.523588   10.724360    0.000000    0.000000    0.000000    0.000000
  0.039238477   -0.112351 -106.029228 -100.497749    6.699217    0.000000    0.000000    0.000000    0.000000
  0.039438878   -0.115196 -106.573921  -99.628414    6.212210    0.000000    0.000000    0.000000    0.000000
  0.039639279   -0.111136 -107.105827  -99.513134    7.418570    0.000000    0.000000    0.000000    0.000000
  0.039839679   -0.105329 -107.638252  -99.847056    7.279919    0.000000    0.000000    0.000000    0.000000
  0.040040080   -0.093111 -108.124748 -101.019245    2.280795    0.000000    0.000000    0.000000    0.000000
  0.040240481   -0.088790 -108.603333 -100.113097   -3.428449    0.000000    0.000000    0.000000    0.000000
  0.040440882   -0.081372 -109.078903 -100.671878   -6.473475    0.000000    0.000000    0.000000    0.000000
  0.040641283   -0.075108 -109.532257 -102.691419   -3.493170    0.000000    0.000000    0.000000    0.000000
  0.040841683   -0.072350 -109.987457 -100.922101    2.360474    0.000000    0.000000    0.000000    0.000000
  0.041042084   -0.076963 -110.465691 -101.176199   11.506783    0.000000    0.000000    0.000000    0.000000
  0.041242485   -0.080117 -110.931778 -103.720041   -2.018626    0.000000    0.000000    0.000000    0.000000
  0.041442886   -0.089878 -111.412895 -101.814765   -0.561774    0.000000    0.000000    0.000000    0.000000
  0.041643287   -0.098043 -111.957573 -102.179339   -4.469023    0.000000    0.000000    0.000000    0.000000
  0.041843687   -0.104018 -112.515694 -102.221282    4.551102    0.000000    0.000000    0.000000    0.000000
  0.042044088   -0.106196 -113.085213 -102.673720    7.863728    0.000000    0.000000    0.000000    0.000000
  0.042244489   -0.100396 -113.649590 -102.761076    5.411820    0.000000    0.000000    0.000000    0.000000
  0.042444890   -0.087795 -114.196480  -98.823609   15.810143    0.000000    0.000000    0.000000    0.000000
  0.042645291   -0.076692 -114.703712 -101.272253   16.721869    0.000000    0.000000    0.000000    0.000000
  0.042845691   -0.070173 -115.169662  -99.551522    8.047380    0.000000    0.000000    0.000000    0.000000
  0.043046092   -0.067984 -115.639061  -99.896094   28.348387    0.000000    0.000000    0.000000    0.000000
  0.043246493   -0.071505 -116.094894 -100.307963   16.528988    0.000000    0.000000    0.000000    0.000000
  0.043446894   -0.075601 -116.568146  -98.807052    3.075078    0.000000    0.000000    0.000000    0.000000
  0.043647295   -0.081020 -117.001785  -99.307275    7.403727    0.000000    0.000000    0.000000    0.000000
  0.043847695   -0.087256 -117.478912 -100.705157    2.507507    0.000000    0.000000    0.000000    0.000000
  0.044048096   -0.095373 -117.921371 -102.157070    1.985268    0.000000    0.000000    0.000000    0.000000
  0.044248497   -0.104067 -118.389542 -100.232272   -3.386455    0.000000    0.000000    0.000000    0.000000
  0.044448898   -0.113786 -118.851631 -101.591819   -3.708709    0.000000    0.000000    0.000000    0.000000
  0.044649299   -0.120251 -119.343918 -101.129760   10.397665    0.000000    0.000000    0.000000    0.000000
  0.044849699   -0.120319 -119.810493 -101.086987   -8.805906    0.000000    0.000000    0.000000    0.000000
  0.045050100   -0.119661 -120.281860 -100.456551   -8.755808    0.000000    0.000000    0.000000    0.000000
  0.045250501   -0.119130 -120.728279 -101.658029    2.749754    0.000000    0.000000    0.000000    0.000000
  0.045450902   -0.120060 -121.159882 -103.870112   -5.683577    0.000000    0.000000    0.000000    0.000000
  0.045651303   -0.123318 -121.629608 -102.181718   -0.456521    0.000000    0.000000    0.000000    0.000000
  0.045851703   -0.119969 -122.095520 -102.976565   -4.767964    0.000000    0.000000    0.000000    0.000000
  0.046052104   -0.121200 -122.540291 -102.470938    0.587186    0.000000    0.000000    0.000000    0.000000
  0.046252505   -0.120770 -122.990326 -104.909589   -0.495938    0.000000    0.000000    0.000000    0.000000
  0.046452906   -0.124181 -123.431984 -106.733100    8.477914    0.000000    0.000000    0.000000    0.000000
  0.046653307   -0.130807 -123.848465 -102.248048   -1.685253    0.000000    0.000000    0.000000    0.000000
  0.046853707   -0.142144 -124.353317 -104.767766   17.763088    0.000000    0.000000    0.000000    0.000000
  0.047054108   -0.149449 -124.867905 -102.724445   20.659101    0.000000    0.000000    0.000000    0.000000
  0.047254509   -0.149864 -125.445702 -103.508497   11.338474    0.000000    0.000000    0.000000    0.000000
  0.047454910   -0.145194 -126.014450 -102.298198    0.366349    0.000000    0.000000    0.000000    0.000000
  0.047655311   -0.136612 -126.568420 -103.842318   26.270220    0.000000    0.000000    0.000000    0.000000
  0.047855711   -0.126148 -127.106361  -99.253051   16.578186    0.000000    0.000000    0.000000    0.000000
  0.048056112   -0.119947 -127.629379 -101.003667   12.901195    0.000000    0.000000    0.000000    0.000000
  0.048256513   -0.114797 -128.119080  -99.847202   17.058733    0.000000    0.000000    0.000000    0.000000
  0.048456914   -0.113006 -128.623306 -100.702145   -0.158212    0.000000    0.000000    0.000000    0.000000
  0.048657315   -0.112634 -129.109848 -101.203663    5.753237    0.000000    0.000000    0.000000    0.000000
  0.048857715   -0.113571 -129.586990 -103.088431   10.531013    0.000000    0.000000    0.000000    0.000000
  0.049058116   -0.114906 -130.044800 -100.804181    0.813475    0.000000    0.000000    0.000000    0.000000
  0.049258517   -0.119577 -130.510056 -101.105390    3.413572    0.000000    0.000000    0.000000    0.000000
  0.049458918   -0.124301 -130.978653 -101.937436  -17.151484    0.000000    0.000000    0.000000    0.000000
  0.049659319   -0.128576 -131.451599 -100.861196   -5.125327    0.000000    0.000000    0.000000    0.000000
  0.049859719   -0.130598 -131.911850 -102.136598   -3.111795    0.000000    0.000000    0.000000    0.000000
  0.050060120   -0.132409 -132.362411 -103.400186   -7.826423    0.000000    0.000000    0.000000    0.000000
  0.050260521   -0.134078 -132.779083 -104.628881   -8.500304    0.000000    0.000000    0.000000    0.000000
  0.050460922   -0.136598 -133.193314 -104.906795    3.927751    0.000000    0.000000    0.000000    0.000000
  0.050661323   -0.140795 -133.627167 -103.046742   -7.419271    0.000000    0.000000    0.000000    0.000000
  0.050861723   -0.142888 -134.065201 -103.057691    1.219309    0.000000    0.000000    0.000000    0.000000
  0.051062124   -0.142303 -134.490311 -105.839132   15.797166    0.000000    0.000000    0.000000    0.000000
  0.051262525   -0.143475 -134.923553 -104.710398  -24.635504    0.000000    0.000000    0.000000    0.000000
  0.051462926   -0.143409 -135.320862 -104.633455   -1.458515    0.000000    0.000000    0.000000    0.000000
  0.051663327   -0.146851 -135.709396 -107.394854   17.358469    0.000000    0.000000    0.000000    0.000000
  0.051863727   -0.155400 -136.110153 -103.465370   10.183056    0.000000    0.000000    0.000000    0.000000
  0.052064128   -0.162742 -136.531723 -104.056847    5.097703    0.000000    0.000000    0.000000    0.000000
  0.052264529   -0.173866 -137.009628 -104.770049    8.212604    0.000000    0.000000    0.000000    0.000000
  0.052464930   -0.179723 -137.516739 -107.269933   27.988995    0.000000    0.000000    0.000000    0.000000
  0.052665331   -0.179931 -138.043671 -103.025115   19.618626    0.000000    0.000000    0.000000    0.000000
  0.052865731   -0.176258 -138.548492 -105.370043   -4.348326    0.000000    0.000000    0.000000    0.000000
