! Anritsu VNA Master:                     Model: MS2036C/10/77
! SN:                                  1601066
! /bd0/18may10/252.ew.m7.s2p
! Existing Calibration Information:
! TYPE:                         Current Settings,       Active Cal Settings
! TIME:             	   05/10/2018 06:42:17 PM,    05/10/2018 06:36:47 PM
! INTERNAL TEMP:    	                   61.3 C,                    61.0 C
! # POINTS:         	                      487,                       487
! START FREQ:       	           20.601 202 MHz,            20.601 202 MHz
! STOP FREQ:        	          117.995 991 MHz,           117.995 991 MHz
! SOURCE POWER:     	                     High,                      High
! IFBW:             	                    50 Hz,                     50 Hz
! AVG FACTOR:       	                       1 ,                        1 
! REF PLANE 1:      	                     0 mm,                      0 mm
! REF PLANE 2:      	                     0 mm,                      0 mm
! CAL TYPE:         	                 Full S22,                  Full S22
! CAL METHOD:       	                     SOLT,                      SOLT
! CAL LINE TYPE:    	                     Coax,                      Coax
! DUT PORT 1:       	                K-Conn(M),                 K-Conn(M)
! DUT PORT 2:       	                K-Conn(M),                 K-Conn(M)
! CAL STATUS:       	        OK: Accuracy High,                        --
# GHZ S DB R 50.0
! FREQ.GHZ       S11DB        S11A       S21DB        S21A       S12DB        S12A       S22DB        S22A
  0.020601202    0.000000    0.000000    0.000000    0.000000  -90.376599   35.529388   -0.638266 -129.900955
  0.020801603    0.000000    0.000000    0.000000    0.000000  -91.330290   34.387169   -0.642014 -131.414322
  0.021002004    0.000000    0.000000    0.000000    0.000000  -91.229422   36.741398   -0.642205 -132.944214
  0.021202405    0.000000    0.000000    0.000000    0.000000  -91.347430   34.852566   -0.646814 -134.468201
  0.021402806    0.000000    0.000000    0.000000    0.000000  -92.025868   32.548237   -0.648935 -135.990463
  0.021603206    0.000000    0.000000    0.000000    0.000000  -91.767617   32.131817   -0.649917 -137.526672
  0.021803607    0.000000    0.000000    0.000000    0.000000  -91.557851   37.795017   -0.652754 -139.043411
  0.022004008    0.000000    0.000000    0.000000    0.000000  -92.177570   39.925999   -0.659738 -140.564545
  0.022204409    0.000000    0.000000    0.000000    0.000000  -92.339011   39.869617   -0.662877 -142.125336
  0.022404810    0.000000    0.000000    0.000000    0.000000  -91.596968   40.941929   -0.670931 -143.698959
  0.022605210    0.000000    0.000000    0.000000    0.000000  -91.648940   43.666801   -0.672230 -145.292023
  0.022805611    0.000000    0.000000    0.000000    0.000000  -91.373234   38.801331   -0.677096 -146.882874
  0.023006012    0.000000    0.000000    0.000000    0.000000  -91.406235   41.350414   -0.680497 -148.478104
  0.023206413    0.000000    0.000000    0.000000    0.000000  -91.518912   41.890018   -0.683439 -150.065247
  0.023406814    0.000000    0.000000    0.000000    0.000000  -91.092566   43.128330   -0.689770 -151.658478
  0.023607214    0.000000    0.000000    0.000000    0.000000  -91.326174   40.920666   -0.696863 -153.268845
  0.023807615    0.000000    0.000000    0.000000    0.000000  -91.674139   37.108715   -0.706523 -154.891388
  0.024008016    0.000000    0.000000    0.000000    0.000000  -91.110629   36.754471   -0.714609 -156.530823
  0.024208417    0.000000    0.000000    0.000000    0.000000  -91.720150   36.448082   -0.723040 -158.192398
  0.024408818    0.000000    0.000000    0.000000    0.000000  -91.547752   32.826164   -0.728754 -159.867523
  0.024609218    0.000000    0.000000    0.000000    0.000000  -90.986084   30.845930   -0.736219 -161.518158
  0.024809619    0.000000    0.000000    0.000000    0.000000  -91.557691   32.121101   -0.746648 -163.192841
  0.025010020    0.000000    0.000000    0.000000    0.000000  -91.555810   28.677294   -0.755595 -164.877563
  0.025210421    0.000000    0.000000    0.000000    0.000000  -92.186327   29.168234   -0.766828 -166.560135
  0.025410822    0.000000    0.000000    0.000000    0.000000  -91.945190   28.619595   -0.780166 -168.256668
  0.025611222    0.000000    0.000000    0.000000    0.000000  -92.169161   23.579906   -0.791301 -169.960220
  0.025811623    0.000000    0.000000    0.000000    0.000000  -93.016118   26.617226   -0.803475 -171.679474
  0.026012024    0.000000    0.000000    0.000000    0.000000  -92.678288   24.208572   -0.814282 -173.413544
  0.026212425    0.000000    0.000000    0.000000    0.000000  -93.839582   26.030098   -0.826832 -175.151138
  0.026412826    0.000000    0.000000    0.000000    0.000000  -94.037776   24.337605   -0.841185 -176.905289
  0.026613226    0.000000    0.000000    0.000000    0.000000  -93.728708   24.977179   -0.856823 -178.659454
  0.026813627    0.000000    0.000000    0.000000    0.000000  -93.661147   28.564110   -0.872061  179.575836
  0.027014028    0.000000    0.000000    0.000000    0.000000  -93.943013   26.642393   -0.888555  177.810822
  0.027214429    0.000000    0.000000    0.000000    0.000000  -94.624317   29.658594   -0.904999  176.030640
  0.027414830    0.000000    0.000000    0.000000    0.000000  -94.047852   28.791338   -0.920347  174.249374
  0.027615230    0.000000    0.000000    0.000000    0.000000  -95.574034   27.210766   -0.940344  172.456177
  0.027815631    0.000000    0.000000    0.000000    0.000000  -94.744780   26.576244   -0.958434  170.645050
  0.028016032    0.000000    0.000000    0.000000    0.000000  -94.883476   34.416256   -0.976947  168.832855
  0.028216433    0.000000    0.000000    0.000000    0.000000  -95.026278   34.596287   -0.997673  167.000290
  0.028416834    0.000000    0.000000    0.000000    0.000000  -94.668329   29.609959   -1.018703  165.160263
  0.028617234    0.000000    0.000000    0.000000    0.000000  -94.120511   31.314505   -1.040508  163.317245
  0.028817635    0.000000    0.000000    0.000000    0.000000  -94.600933   28.620253   -1.062000  161.468018
  0.029018036    0.000000    0.000000    0.000000    0.000000  -94.541641   30.062056   -1.085946  159.624329
  0.029218437    0.000000    0.000000    0.000000    0.000000  -93.462166   32.294956   -1.110856  157.756561
  0.029418838    0.000000    0.000000    0.000000    0.000000  -94.093816   27.872751   -1.136490  155.856705
  0.029619238    0.000000    0.000000    0.000000    0.000000  -94.062176   26.002550   -1.163731  153.968719
  0.029819639    0.000000    0.000000    0.000000    0.000000  -94.582350   28.097277   -1.189475  152.060440
  0.030020040    0.000000    0.000000    0.000000    0.000000  -94.244877   29.294979   -1.219212  150.139801
  0.030220441    0.000000    0.000000    0.000000    0.000000  -93.663627   28.700151   -1.245988  148.223618
  0.030420842    0.000000    0.000000    0.000000    0.000000  -94.347963   26.282070   -1.275154  146.307755
  0.030621242    0.000000    0.000000    0.000000    0.000000  -94.540583   27.667564   -1.305563  144.383484
  0.030821643    0.000000    0.000000    0.000000    0.000000  -95.083769   23.390165   -1.338663  142.441238
  0.031022044    0.000000    0.000000    0.000000    0.000000  -94.840147   21.669743   -1.371264  140.502899
  0.031222445    0.000000    0.000000    0.000000    0.000000  -94.456814   19.532270   -1.398110  138.556763
  0.031422846    0.000000    0.000000    0.000000    0.000000  -94.205451   17.681257   -1.434188  136.570694
  0.031623246    0.000000    0.000000    0.000000    0.000000  -95.069642   22.551384   -1.470100  134.576324
  0.031823647    0.000000    0.000000    0.000000    0.000000  -95.242660   16.833199   -1.508835  132.585175
  0.032024048    0.000000    0.000000    0.000000    0.000000  -94.578764   11.227674   -1.546984  130.594193
  0.032224449    0.000000    0.000000    0.000000    0.000000  -96.121019   15.109750   -1.586783  128.589554
  0.032424850    0.000000    0.000000    0.000000    0.000000  -95.612205   10.783710   -1.628294  126.589890
  0.032625250    0.000000    0.000000    0.000000    0.000000  -96.037210   21.826424   -1.668038  124.565628
  0.032825651    0.000000    0.000000    0.000000    0.000000  -96.403748   28.453108   -1.707304  122.539757
  0.033026052    0.000000    0.000000    0.000000    0.000000  -96.815839   13.829707   -1.749244  120.490616
  0.033226453    0.000000    0.000000    0.000000    0.000000  -96.401056   15.384308   -1.792654  118.438362
  0.033426854    0.000000    0.000000    0.000000    0.000000  -96.915317   18.105597   -1.832587  116.393867
  0.033627254    0.000000    0.000000    0.000000    0.000000  -95.830848   19.690876   -1.878060  114.370346
  0.033827655    0.000000    0.000000    0.000000    0.000000  -96.379594   22.665936   -1.923965  112.324821
  0.034028056    0.000000    0.000000    0.000000    0.000000  -95.878577   16.906750   -1.968353  110.298332
  0.034228457    0.000000    0.000000    0.000000    0.000000  -96.793999   20.914389   -2.016202  108.228065
  0.034428858    0.000000    0.000000    0.000000    0.000000  -95.500070   23.853689   -2.063710  106.171555
  0.034629258    0.000000    0.000000    0.000000    0.000000  -96.457674   30.115473   -2.112270  104.102097
  0.034829659    0.000000    0.000000    0.000000    0.000000  -96.161785   23.940458   -2.160220  102.023529
  0.035030060    0.000000    0.000000    0.000000    0.000000  -96.338182   27.769384   -2.212401   99.945618
  0.035230461    0.000000    0.000000    0.000000    0.000000  -96.125354   24.317816   -2.264643   97.878914
  0.035430862    0.000000    0.000000    0.000000    0.000000  -96.135973   22.314718   -2.315230   95.797508
  0.035631262    0.000000    0.000000    0.000000    0.000000  -95.677136   30.168669   -2.370193   93.727463
  0.035831663    0.000000    0.000000    0.000000    0.000000  -96.478881   24.872358   -2.421142   91.651665
  0.036032064    0.000000    0.000000    0.000000    0.000000  -96.594687   25.345640   -2.477353   89.561569
  0.036232465    0.000000    0.000000    0.000000    0.000000  -96.332553   20.241266   -2.529126   87.474693
  0.036432866    0.000000    0.000000    0.000000    0.000000  -97.076726   16.732954   -2.584651   85.366196
  0.036633266    0.000000    0.000000    0.000000    0.000000  -96.355279   27.573753   -2.641548   83.275955
  0.036833667    0.000000    0.000000    0.000000    0.000000  -96.497263   24.336611   -2.696792   81.182381
  0.037034068    0.000000    0.000000    0.000000    0.000000  -97.036895   16.591284   -2.757614   79.082497
  0.037234469    0.000000    0.000000    0.000000    0.000000  -97.988662   24.755211   -2.813005   77.003639
  0.037434870    0.000000    0.000000    0.000000    0.000000  -96.209623   17.202852   -2.871276   74.896576
  0.037635270    0.000000    0.000000    0.000000    0.000000  -98.411098   16.399372   -2.929601   72.828568
  0.037835671    0.000000    0.000000    0.000000    0.000000  -97.708741   13.922520   -2.987496   70.738304
  0.038036072    0.000000    0.000000    0.000000    0.000000  -97.936379   20.423656   -3.046915   68.600571
  0.038236473    0.000000    0.000000    0.000000    0.000000  -97.036353   25.969120   -3.107736   66.487923
  0.038436874    0.000000    0.000000    0.000000    0.000000  -97.623817   22.976448   -3.167769   64.370964
  0.038637274    0.000000    0.000000    0.000000    0.000000  -97.631981   29.648977   -3.230672   62.263805
  0.038837675    0.000000    0.000000    0.000000    0.000000  -97.176077   24.703875   -3.289836   60.163857
  0.039038076    0.000000    0.000000    0.000000    0.000000  -98.163431   20.610998   -3.346046   58.078697
  0.039238477    0.000000    0.000000    0.000000    0.000000  -98.919221   21.513741   -3.402702   56.004417
  0.039438878    0.000000    0.000000    0.000000    0.000000  -97.273417   27.159012   -3.462581   53.916149
  0.039639278    0.000000    0.000000    0.000000    0.000000  -97.073961   27.911146   -3.520770   51.833054
  0.039839679    0.000000    0.000000    0.000000    0.000000  -96.841166   29.099464   -3.583049   49.739319
  0.040040080    0.000000    0.000000    0.000000    0.000000  -97.116414   32.285267   -3.638394   47.649792
  0.040240481    0.000000    0.000000    0.000000    0.000000  -96.982664   28.481520   -3.697708   45.564281
  0.040440882    0.000000    0.000000    0.000000    0.000000  -97.156288   20.096535   -3.754143   43.509895
  0.040641283    0.000000    0.000000    0.000000    0.000000  -97.883255   24.522148   -3.812903   41.463184
  0.040841683    0.000000    0.000000    0.000000    0.000000  -98.375126   25.093887   -3.869645   39.405254
  0.041042084    0.000000    0.000000    0.000000    0.000000  -97.604587   28.764536   -3.928490   37.367878
  0.041242485    0.000000    0.000000    0.000000    0.000000  -98.034860   28.314991   -3.985896   35.317551
  0.041442886    0.000000    0.000000    0.000000    0.000000  -97.823919   24.060041   -4.043517   33.276443
  0.041643287    0.000000    0.000000    0.000000    0.000000  -98.465933   27.618032   -4.097972   31.229963
  0.041843687    0.000000    0.000000    0.000000    0.000000  -97.068609   25.830824   -4.155595   29.163616
  0.042044088    0.000000    0.000000    0.000000    0.000000  -98.129234   18.371040   -4.209097   27.134729
  0.042244489    0.000000    0.000000    0.000000    0.000000  -97.220878   25.701571   -4.264834   25.108356
  0.042444890    0.000000    0.000000    0.000000    0.000000  -97.968473   18.914251   -4.319308   23.083723
  0.042645291    0.000000    0.000000    0.000000    0.000000  -96.666359   24.405493   -4.377449   21.069563
  0.042845691    0.000000    0.000000    0.000000    0.000000  -98.446998   28.173840   -4.429723   19.064085
  0.043046092    0.000000    0.000000    0.000000    0.000000  -99.177924   30.131756   -4.482577   17.043728
  0.043246493    0.000000    0.000000    0.000000    0.000000  -98.484121   27.966707   -4.536671   15.039286
  0.043446894    0.000000    0.000000    0.000000    0.000000  -98.416626   27.976233   -4.589473   13.039036
  0.043647295    0.000000    0.000000    0.000000    0.000000  -98.218831   29.132298   -4.638753   11.021358
  0.043847695    0.000000    0.000000    0.000000    0.000000  -99.461962   30.808603   -4.689137    9.063261
  0.044048096    0.000000    0.000000    0.000000    0.000000  -98.220250   30.999142   -4.737881    7.088711
  0.044248497    0.000000    0.000000    0.000000    0.000000  -99.168492   31.139000   -4.787696    5.114810
  0.044448898    0.000000    0.000000    0.000000    0.000000  -99.547806   26.140381   -4.836382    3.158846
  0.044649299    0.000000    0.000000    0.000000    0.000000  -98.280941   32.182262   -4.883888    1.214865
  0.044849699    0.000000    0.000000    0.000000    0.000000  -98.465268   36.671638   -4.929718   -0.729656
  0.045050100    0.000000    0.000000    0.000000    0.000000  -99.746925   30.899734   -4.977087   -2.660419
  0.045250501    0.000000    0.000000    0.000000    0.000000  -98.042448   31.716198   -5.021533   -4.583584
  0.045450902    0.000000    0.000000    0.000000    0.000000  -98.834298   28.230095   -5.064614   -6.501370
  0.045651303    0.000000    0.000000    0.000000    0.000000  -98.225469   30.579214   -5.109749   -8.430199
  0.045851703    0.000000    0.000000    0.000000    0.000000  -98.744644   43.541115   -5.147824  -10.313173
  0.046052104    0.000000    0.000000    0.000000    0.000000  -99.100350   34.548771   -5.191263  -12.209644
  0.046252505    0.000000    0.000000    0.000000    0.000000  -98.191699   31.800541   -5.232143  -14.073578
  0.046452906    0.000000    0.000000    0.000000    0.000000  -99.223195   35.754932   -5.274165  -15.927472
  0.046653307    0.000000    0.000000    0.000000    0.000000  -99.894693   18.098335   -5.315396  -17.779808
  0.046853707    0.000000    0.000000    0.000000    0.000000  -98.472440   32.342979   -5.356201  -19.613087
  0.047054108    0.000000    0.000000    0.000000    0.000000  -98.064693   25.214754   -5.394509  -21.480146
  0.047254509    0.000000    0.000000    0.000000    0.000000  -98.528395   39.928997   -5.434650  -23.308186
  0.047454910    0.000000    0.000000    0.000000    0.000000  -98.625324   29.062181   -5.470093  -25.119646
  0.047655311    0.000000    0.000000    0.000000    0.000000  -98.174058   30.249880   -5.506095  -26.951836
  0.047855711    0.000000    0.000000    0.000000    0.000000  -98.642675   28.276281   -5.542201  -28.745195
  0.048056112    0.000000    0.000000    0.000000    0.000000  -98.642560   32.360107   -5.578720  -30.523729
  0.048256513    0.000000    0.000000    0.000000    0.000000  -99.573015   22.968309   -5.615757  -32.300148
  0.048456914    0.000000    0.000000    0.000000    0.000000  -98.266809   24.143242   -5.652548  -34.054928
  0.048657315    0.000000    0.000000    0.000000    0.000000  -99.120960   35.716633   -5.683708  -35.823540
  0.048857715    0.000000    0.000000    0.000000    0.000000 -100.092362   25.469500   -5.714800  -37.582066
  0.049058116    0.000000    0.000000    0.000000    0.000000  -99.812831   33.792774   -5.746580  -39.327187
  0.049258517    0.000000    0.000000    0.000000    0.000000  -98.627349   30.723223   -5.772384  -41.047848
  0.049458918    0.000000    0.000000    0.000000    0.000000 -100.343568   27.803913   -5.804204  -42.776905
  0.049659319    0.000000    0.000000    0.000000    0.000000  -99.656378   38.794575   -5.834846  -44.490398
  0.049859719    0.000000    0.000000    0.000000    0.000000  -99.668677   32.497852   -5.863988  -46.173656
  0.050060120    0.000000    0.000000    0.000000    0.000000 -100.049277   31.573984   -5.889376  -47.839893
  0.050260521    0.000000    0.000000    0.000000    0.000000 -100.141990   28.820780   -5.914152  -49.523678
  0.050460922    0.000000    0.000000    0.000000    0.000000  -99.496267   43.329430   -5.941617  -51.194294
  0.050661323    0.000000    0.000000    0.000000    0.000000  -99.791354   26.960020   -5.961883  -52.858707
  0.050861723    0.000000    0.000000    0.000000    0.000000  -99.861932   32.386032   -5.982994  -54.485466
  0.051062124    0.000000    0.000000    0.000000    0.000000  -99.483928   30.862005   -6.007080  -56.121632
  0.051262525    0.000000    0.000000    0.000000    0.000000  -99.129783   34.206161   -6.028759  -57.742508
  0.051462926    0.000000    0.000000    0.000000    0.000000  -98.547440   36.199528   -6.051199  -59.322029
  0.051663327    0.000000    0.000000    0.000000    0.000000 -100.809606   31.699322   -6.069532  -60.933708
  0.051863727    0.000000    0.000000    0.000000    0.000000  -98.962949   41.856529   -6.091394  -62.497166
  0.052064128    0.000000    0.000000    0.000000    0.000000  -97.768208   28.241411   -6.105820  -64.056969
  0.052264529    0.000000    0.000000    0.000000    0.000000  -98.199643   26.990002   -6.121684  -65.643700
  0.052464930    0.000000    0.000000    0.000000    0.000000 -100.200280   35.267841   -6.135466  -67.172707
  0.052665331    0.000000    0.000000    0.000000    0.000000  -99.497301   27.955297   -6.151595  -68.704247
  0.052865731    0.000000    0.000000    0.000000    0.000000  -98.956738   31.283913   -6.166880  -70.225822
  0.053066132    0.000000    0.000000    0.000000    0.000000  -99.572067   31.015192   -6.182316  -71.751671
  0.053266533    0.000000    0.000000    0.000000    0.000000  -99.198515   31.848066   -6.197976  -73.223045
  0.053466934    0.000000    0.000000    0.000000    0.000000  -98.828672   30.169136   -6.213120  -74.732101
