! Anritsu VNA Master:                     Model: MS2036C/10/77
! SN:                                  1601066
! /bd0/18may10/252.ew.m1.s2p
! Existing Calibration Information:
! TYPE:                         Current Settings,       Active Cal Settings
! TIME:             	   05/10/2018 06:25:22 PM,    05/10/2018 06:18:15 PM
! INTERNAL TEMP:    	                   60.0 C,                    60.0 C
! # POINTS:         	                      487,                       487
! START FREQ:       	           20.601 202 MHz,            20.601 202 MHz
! STOP FREQ:        	          117.995 991 MHz,           117.995 991 MHz
! SOURCE POWER:     	                     High,                      High
! IFBW:             	                    50 Hz,                     50 Hz
! AVG FACTOR:       	                       1 ,                        1 
! REF PLANE 1:      	                     0 mm,                      0 mm
! REF PLANE 2:      	                     0 mm,                      0 mm
! CAL TYPE:         	                 Full S22,                  Full S22
! CAL METHOD:       	                     SOLT,                      SOLT
! CAL LINE TYPE:    	                     Coax,                      Coax
! DUT PORT 1:       	                K-Conn(M),                 K-Conn(M)
! DUT PORT 2:       	                K-Conn(M),                 K-Conn(M)
! CAL STATUS:       	        OK: Accuracy High,                        --
# GHZ S DB R 50.0
! FREQ.GHZ       S11DB        S11A       S21DB        S21A       S12DB        S12A       S22DB        S22A
  0.020601202    0.000000    0.000000    0.000000    0.000000  -90.533621   32.112072   -0.637602 -129.645309
  0.020801603    0.000000    0.000000    0.000000    0.000000  -90.977638   33.140385   -0.642403 -131.160065
  0.021002004    0.000000    0.000000    0.000000    0.000000  -90.459771   30.922834   -0.644585 -132.688324
  0.021202405    0.000000    0.000000    0.000000    0.000000  -90.764970   32.589642   -0.648661 -134.226913
  0.021402806    0.000000    0.000000    0.000000    0.000000  -91.530961   35.977299   -0.651406 -135.771225
  0.021603206    0.000000    0.000000    0.000000    0.000000  -91.554066   37.224220   -0.653521 -137.289886
  0.021803607    0.000000    0.000000    0.000000    0.000000  -92.285984   33.985657   -0.657025 -138.831955
  0.022004008    0.000000    0.000000    0.000000    0.000000  -92.435070   38.793816   -0.664158 -140.379837
  0.022204409    0.000000    0.000000    0.000000    0.000000  -92.013646   40.632965   -0.667865 -141.948395
  0.022404810    0.000000    0.000000    0.000000    0.000000  -92.069491   37.592957   -0.672516 -143.531174
  0.022605210    0.000000    0.000000    0.000000    0.000000  -91.864216   41.499401   -0.675018 -145.127380
  0.022805611    0.000000    0.000000    0.000000    0.000000  -91.402860   41.045040   -0.678051 -146.740189
  0.023006012    0.000000    0.000000    0.000000    0.000000  -91.739948   41.329617   -0.683075 -148.334579
  0.023206413    0.000000    0.000000    0.000000    0.000000  -91.418192   38.276714   -0.685202 -149.916946
  0.023406814    0.000000    0.000000    0.000000    0.000000  -91.595543   39.843819   -0.690156 -151.518082
  0.023607214    0.000000    0.000000    0.000000    0.000000  -91.693029   38.332039   -0.696258 -153.119568
  0.023807615    0.000000    0.000000    0.000000    0.000000  -91.044052   40.056377   -0.704641 -154.726013
  0.024008016    0.000000    0.000000    0.000000    0.000000  -91.298159   36.581490   -0.714183 -156.353638
  0.024208417    0.000000    0.000000    0.000000    0.000000  -91.316700   36.315205   -0.720797 -158.013016
  0.024408818    0.000000    0.000000    0.000000    0.000000  -91.119136   34.230255   -0.728210 -159.658417
  0.024609218    0.000000    0.000000    0.000000    0.000000  -91.441978   30.034607   -0.734705 -161.307495
  0.024809619    0.000000    0.000000    0.000000    0.000000  -91.829307   31.884451   -0.742801 -162.969772
  0.025010020    0.000000    0.000000    0.000000    0.000000  -91.463264   27.848343   -0.753032 -164.617004
  0.025210421    0.000000    0.000000    0.000000    0.000000  -92.364400   26.438356   -0.764903 -166.297913
  0.025410822    0.000000    0.000000    0.000000    0.000000  -92.070574   25.560038   -0.775308 -167.972366
  0.025611222    0.000000    0.000000    0.000000    0.000000  -92.294935   26.570433   -0.788682 -169.654541
  0.025811623    0.000000    0.000000    0.000000    0.000000  -92.441083   27.153942   -0.800400 -171.366852
  0.026012024    0.000000    0.000000    0.000000    0.000000  -92.772220   22.969353   -0.811891 -173.084427
  0.026212425    0.000000    0.000000    0.000000    0.000000  -93.503159   23.087952   -0.823578 -174.809555
  0.026412826    0.000000    0.000000    0.000000    0.000000  -93.202086   16.842010   -0.839637 -176.543549
  0.026613226    0.000000    0.000000    0.000000    0.000000  -93.747628   26.376089   -0.854528 -178.303345
  0.026813627    0.000000    0.000000    0.000000    0.000000  -94.578155   24.353348   -0.871036  179.937439
  0.027014028    0.000000    0.000000    0.000000    0.000000  -94.978642   26.194494   -0.888859  178.168228
  0.027214429    0.000000    0.000000    0.000000    0.000000  -94.494886   26.220333   -0.904557  176.386734
  0.027414830    0.000000    0.000000    0.000000    0.000000  -94.847516   25.516537   -0.922614  174.600601
  0.027615230    0.000000    0.000000    0.000000    0.000000  -94.003382   30.432407   -0.940302  172.793228
  0.027815631    0.000000    0.000000    0.000000    0.000000  -94.838435   32.456074   -0.959477  170.978516
  0.028016032    0.000000    0.000000    0.000000    0.000000  -94.679688   28.795965   -0.977309  169.150681
  0.028216433    0.000000    0.000000    0.000000    0.000000  -94.657055   30.103704   -0.999201  167.310211
  0.028416834    0.000000    0.000000    0.000000    0.000000  -94.568540   32.692177   -1.019910  165.457092
  0.028617234    0.000000    0.000000    0.000000    0.000000  -94.038770   33.473907   -1.039836  163.609344
  0.028817635    0.000000    0.000000    0.000000    0.000000  -93.868102   33.302162   -1.061741  161.748535
  0.029018036    0.000000    0.000000    0.000000    0.000000  -93.663195   30.929886   -1.085152  159.901047
  0.029218437    0.000000    0.000000    0.000000    0.000000  -94.113190   31.880739   -1.109655  158.029770
  0.029418838    0.000000    0.000000    0.000000    0.000000  -93.575490   30.949360   -1.134695  156.132034
  0.029619238    0.000000    0.000000    0.000000    0.000000  -94.579656   25.884024   -1.159656  154.241470
  0.029819639    0.000000    0.000000    0.000000    0.000000  -93.801114   27.046228   -1.186809  152.342346
  0.030020040    0.000000    0.000000    0.000000    0.000000  -94.455484   25.882509   -1.213542  150.429413
  0.030220441    0.000000    0.000000    0.000000    0.000000  -94.599463   26.224136   -1.241165  148.522598
  0.030420842    0.000000    0.000000    0.000000    0.000000  -93.993092   26.118008   -1.269306  146.609955
  0.030621242    0.000000    0.000000    0.000000    0.000000  -94.456043   24.929518   -1.298877  144.704010
  0.030821643    0.000000    0.000000    0.000000    0.000000  -94.607885   23.267685   -1.331904  142.784103
  0.031022044    0.000000    0.000000    0.000000    0.000000  -94.618497   20.120197   -1.366180  140.845215
  0.031222445    0.000000    0.000000    0.000000    0.000000  -94.458986   25.067682   -1.392998  138.921005
  0.031422846    0.000000    0.000000    0.000000    0.000000  -95.076633   16.711823   -1.426757  136.953751
  0.031623246    0.000000    0.000000    0.000000    0.000000  -95.236808   23.593538   -1.463014  134.974976
  0.031823647    0.000000    0.000000    0.000000    0.000000  -95.011653   16.563892   -1.502353  132.997971
  0.032024048    0.000000    0.000000    0.000000    0.000000  -94.447379   19.872042   -1.540886  131.015625
  0.032224449    0.000000    0.000000    0.000000    0.000000  -95.362940   18.775488   -1.581905  129.010040
  0.032424850    0.000000    0.000000    0.000000    0.000000  -95.349868   21.430502   -1.624267  127.002037
  0.032625250    0.000000    0.000000    0.000000    0.000000  -95.150523   21.482719   -1.665631  124.974594
  0.032825651    0.000000    0.000000    0.000000    0.000000  -95.180847   15.738798   -1.706230  122.943787
  0.033026052    0.000000    0.000000    0.000000    0.000000  -95.723017   20.943190   -1.749529  120.888504
  0.033226453    0.000000    0.000000    0.000000    0.000000  -96.455029   22.284721   -1.790019  118.825523
  0.033426854    0.000000    0.000000    0.000000    0.000000  -95.915050   29.397917   -1.833127  116.778992
  0.033627254    0.000000    0.000000    0.000000    0.000000  -98.560241   29.520720   -1.878024  114.720146
  0.033827655    0.000000    0.000000    0.000000    0.000000  -95.586846   27.361759   -1.921731  112.659813
  0.034028056    0.000000    0.000000    0.000000    0.000000  -96.264166   32.422543   -1.969062  110.601768
  0.034228457    0.000000    0.000000    0.000000    0.000000  -96.626008   31.781925   -2.013892  108.539230
  0.034428858    0.000000    0.000000    0.000000    0.000000  -97.191388   23.792694   -2.060014  106.463264
  0.034629258    0.000000    0.000000    0.000000    0.000000  -96.977404   24.749779   -2.108872  104.370453
  0.034829659    0.000000    0.000000    0.000000    0.000000  -95.308780   24.050980   -2.154874  102.293198
  0.035030060    0.000000    0.000000    0.000000    0.000000  -96.344434   21.329172   -2.207409  100.201927
  0.035230461    0.000000    0.000000    0.000000    0.000000  -96.339479   30.199959   -2.260065   98.128426
  0.035430862    0.000000    0.000000    0.000000    0.000000  -96.279467   31.623144   -2.309540   96.053436
  0.035631262    0.000000    0.000000    0.000000    0.000000  -96.906712   28.865084   -2.362045   93.974823
  0.035831663    0.000000    0.000000    0.000000    0.000000  -95.902206   23.187780   -2.413179   91.890930
  0.036032064    0.000000    0.000000    0.000000    0.000000  -95.512903   20.774918   -2.466892   89.811447
  0.036232465    0.000000    0.000000    0.000000    0.000000  -96.424175   16.718988   -2.518586   87.739525
  0.036432866    0.000000    0.000000    0.000000    0.000000  -96.202004   25.090092   -2.572394   85.654373
  0.036633266    0.000000    0.000000    0.000000    0.000000  -95.381977   19.998209   -2.628187   83.591949
  0.036833667    0.000000    0.000000    0.000000    0.000000  -97.533255   24.780952   -2.683063   81.515999
  0.037034068    0.000000    0.000000    0.000000    0.000000  -96.717515   17.302269   -2.742690   79.429268
  0.037234469    0.000000    0.000000    0.000000    0.000000  -96.451860   17.061049   -2.798024   77.347878
  0.037434870    0.000000    0.000000    0.000000    0.000000  -97.037252   19.591089   -2.856080   75.303146
  0.037635270    0.000000    0.000000    0.000000    0.000000  -97.241251   12.282049   -2.916744   73.222824
  0.037835671    0.000000    0.000000    0.000000    0.000000  -96.865760   19.569860   -2.975662   71.129547
  0.038036072    0.000000    0.000000    0.000000    0.000000  -98.397925   16.560328   -3.034919   69.036400
  0.038236473    0.000000    0.000000    0.000000    0.000000  -97.106127   19.253305   -3.097120   66.919579
  0.038436874    0.000000    0.000000    0.000000    0.000000  -97.708083   19.774538   -3.159313   64.808411
  0.038637274    0.000000    0.000000    0.000000    0.000000  -97.730794   24.912203   -3.222550   62.705631
  0.038837675    0.000000    0.000000    0.000000    0.000000  -99.059799   17.232325   -3.282829   60.594154
  0.039038076    0.000000    0.000000    0.000000    0.000000  -97.083202   21.099857   -3.342602   58.508144
  0.039238477    0.000000    0.000000    0.000000    0.000000  -97.721060   27.074488   -3.401349   56.416943
  0.039438878    0.000000    0.000000    0.000000    0.000000  -97.960609   34.905800   -3.462622   54.344677
  0.039639278    0.000000    0.000000    0.000000    0.000000  -97.727143   30.360079   -3.523073   52.250893
  0.039839679    0.000000    0.000000    0.000000    0.000000  -98.315131   23.242376   -3.582377   50.136124
  0.040040080    0.000000    0.000000    0.000000    0.000000  -98.757986   28.700178   -3.641819   48.044991
  0.040240481    0.000000    0.000000    0.000000    0.000000  -97.845339   34.727688   -3.698652   45.936813
  0.040440882    0.000000    0.000000    0.000000    0.000000  -97.872895   34.645237   -3.755104   43.872086
  0.040641283    0.000000    0.000000    0.000000    0.000000  -96.957010   27.918638   -3.813317   41.792583
  0.040841683    0.000000    0.000000    0.000000    0.000000  -97.505928   31.594358   -3.869022   39.739216
  0.041042084    0.000000    0.000000    0.000000    0.000000  -97.588070   33.094925   -3.927281   37.707127
  0.041242485    0.000000    0.000000    0.000000    0.000000  -98.094086   28.482227   -3.983886   35.654549
  0.041442886    0.000000    0.000000    0.000000    0.000000  -98.283921   22.093632   -4.039940   33.609028
  0.041643287    0.000000    0.000000    0.000000    0.000000  -98.143204   28.533350   -4.096136   31.567591
  0.041843687    0.000000    0.000000    0.000000    0.000000  -98.356299   25.347538   -4.149416   29.508142
  0.042044088    0.000000    0.000000    0.000000    0.000000  -98.196697   28.910244   -4.205451   27.489386
  0.042244489    0.000000    0.000000    0.000000    0.000000  -97.970593   27.036430   -4.257186   25.459686
  0.042444890    0.000000    0.000000    0.000000    0.000000  -97.967484   26.975792   -4.309572   23.470800
  0.042645291    0.000000    0.000000    0.000000    0.000000  -97.796413   25.404346   -4.367825   21.462393
  0.042845691    0.000000    0.000000    0.000000    0.000000  -98.153008   27.400688   -4.422672   19.472273
  0.043046092    0.000000    0.000000    0.000000    0.000000  -97.538325   22.794651   -4.475864   17.476015
  0.043246493    0.000000    0.000000    0.000000    0.000000  -98.379378   18.113401   -4.529753   15.475918
  0.043446894    0.000000    0.000000    0.000000    0.000000  -99.181561   24.955853   -4.581150   13.491168
  0.043647295    0.000000    0.000000    0.000000    0.000000  -98.932349   22.097416   -4.632665   11.504197
  0.043847695    0.000000    0.000000    0.000000    0.000000  -98.815312   27.011066   -4.683553    9.530997
  0.044048096    0.000000    0.000000    0.000000    0.000000  -98.037751   35.719486   -4.733644    7.564986
  0.044248497    0.000000    0.000000    0.000000    0.000000  -99.134852   20.002981   -4.785585    5.600793
  0.044448898    0.000000    0.000000    0.000000    0.000000  -98.433441   25.458441   -4.836872    3.651717
  0.044649299    0.000000    0.000000    0.000000    0.000000  -98.818155   27.039215   -4.883728    1.692429
  0.044849699    0.000000    0.000000    0.000000    0.000000  -98.953647   21.641161   -4.931640   -0.229937
  0.045050100    0.000000    0.000000    0.000000    0.000000  -98.575573   26.218214   -4.978864   -2.188980
  0.045250501    0.000000    0.000000    0.000000    0.000000  -99.521165   30.907864   -5.026370   -4.114161
  0.045450902    0.000000    0.000000    0.000000    0.000000  -98.902958   25.214088   -5.071455   -6.043934
  0.045651303    0.000000    0.000000    0.000000    0.000000  -98.384646   33.056534   -5.114778   -7.972070
  0.045851703    0.000000    0.000000    0.000000    0.000000  -98.897696   36.607975   -5.158128   -9.860596
  0.046052104    0.000000    0.000000    0.000000    0.000000  -98.302857   27.371685   -5.200691  -11.768791
  0.046252505    0.000000    0.000000    0.000000    0.000000 -100.030235   37.902439   -5.240327  -13.641858
  0.046452906    0.000000    0.000000    0.000000    0.000000  -99.536695   28.761633   -5.280627  -15.506496
  0.046653307    0.000000    0.000000    0.000000    0.000000  -98.999847   24.730644   -5.321632  -17.365664
  0.046853707    0.000000    0.000000    0.000000    0.000000  -99.662589   25.457706   -5.358556  -19.212193
  0.047054108    0.000000    0.000000    0.000000    0.000000  -97.993287   23.347033   -5.398128  -21.072060
  0.047254509    0.000000    0.000000    0.000000    0.000000  -98.167767   31.452587   -5.434550  -22.903564
  0.047454910    0.000000    0.000000    0.000000    0.000000  -98.367334   34.385155   -5.467446  -24.730055
  0.047655311    0.000000    0.000000    0.000000    0.000000  -98.199194   26.919798   -5.503677  -26.536659
  0.047855711    0.000000    0.000000    0.000000    0.000000  -98.556248   31.128769   -5.542952  -28.297472
  0.048056112    0.000000    0.000000    0.000000    0.000000 -100.138387   28.386009   -5.575666  -30.082134
  0.048256513    0.000000    0.000000    0.000000    0.000000  -99.397975   28.949282   -5.613048  -31.840122
  0.048456914    0.000000    0.000000    0.000000    0.000000  -98.698762   28.277618   -5.648348  -33.593029
  0.048657315    0.000000    0.000000    0.000000    0.000000  -99.390552   29.563070   -5.678934  -35.346378
  0.048857715    0.000000    0.000000    0.000000    0.000000  -98.640088   32.531246   -5.711454  -37.094185
  0.049058116    0.000000    0.000000    0.000000    0.000000  -98.644744   29.261675   -5.744505  -38.835808
  0.049258517    0.000000    0.000000    0.000000    0.000000  -99.199822   34.238876   -5.773995  -40.545635
  0.049458918    0.000000    0.000000    0.000000    0.000000 -100.181843   34.068230   -5.806542  -42.271858
  0.049659319    0.000000    0.000000    0.000000    0.000000  -99.534095   32.907925   -5.835591  -43.961552
  0.049859719    0.000000    0.000000    0.000000    0.000000  -99.383710   30.680540   -5.869880  -45.646805
  0.050060120    0.000000    0.000000    0.000000    0.000000  -99.865030   33.451000   -5.898274  -47.341190
  0.050260521    0.000000    0.000000    0.000000    0.000000 -101.200069   37.562893   -5.923581  -49.034836
  0.050460922    0.000000    0.000000    0.000000    0.000000 -100.274398   47.314854   -5.950257  -50.721672
  0.050661323    0.000000    0.000000    0.000000    0.000000  -99.471710   36.614525   -5.972977  -52.378391
  0.050861723    0.000000    0.000000    0.000000    0.000000  -98.886515   37.853088   -5.998342  -54.047981
  0.051062124    0.000000    0.000000    0.000000    0.000000 -100.218626   36.139408   -6.021058  -55.692810
  0.051262525    0.000000    0.000000    0.000000    0.000000  -98.582436   35.727695   -6.045513  -57.316319
  0.051462926    0.000000    0.000000    0.000000    0.000000  -97.868318   30.928049   -6.065050  -58.940128
  0.051663327    0.000000    0.000000    0.000000    0.000000  -98.548820   38.373604   -6.085506  -60.553017
  0.051863727    0.000000    0.000000    0.000000    0.000000  -99.866775   32.049126   -6.102973  -62.164852
  0.052064128    0.000000    0.000000    0.000000    0.000000  -98.067706   34.312286   -6.120190  -63.744476
  0.052264529    0.000000    0.000000    0.000000    0.000000  -98.145165   32.648647   -6.131305  -65.329697
  0.052464930    0.000000    0.000000    0.000000    0.000000  -98.607087   34.348316   -6.142306  -66.902527
  0.052665331    0.000000    0.000000    0.000000    0.000000  -98.365478   32.375889   -6.155860  -68.438324
  0.052865731    0.000000    0.000000    0.000000    0.000000  -98.916298   30.818975   -6.168879  -69.977356
  0.053066132    0.000000    0.000000    0.000000    0.000000  -98.426201   26.914482   -6.182048  -71.501923
  0.053266533    0.000000    0.000000    0.000000    0.000000  -98.916733   32.658932   -6.189811  -72.975021
  0.053466934    0.000000    0.000000    0.000000    0.000000  -98.512962   27.930033   -6.209292  -74.496445
