! Anritsu VNA Master:                     Model: MS2036C/10/77
! SN:                                  1601066
! /bd0/18may26.balun/2a.m3.s2p
! Existing Calibration Information:
! TYPE:                         Current Settings,       Active Cal Settings
! TIME:             	   05/26/2018 08:04:32 PM,    05/26/2018 07:26:54 PM
! INTERNAL TEMP:    	                   45.8 C,                    45.5 C
! # POINTS:         	                      500,                       500
! START FREQ:       	               20.000 MHz,                20.000 MHz
! STOP FREQ:        	              120.000 MHz,               120.000 MHz
! SOURCE POWER:     	                     High,                      High
! IFBW:             	                    50 Hz,                     50 Hz
! AVG FACTOR:       	                       1 ,                        1 
! REF PLANE 1:      	                     0 mm,                      0 mm
! REF PLANE 2:      	                     0 mm,                      0 mm
! CAL TYPE:         	                 Full S11,                  Full S11
! CAL METHOD:       	                     SOLT,                      SOLT
! CAL LINE TYPE:    	                     Coax,                      Coax
! DUT PORT 1:       	                K-Conn(M),                 K-Conn(M)
! DUT PORT 2:       	                K-Conn(M),                 K-Conn(M)
! CAL STATUS:       	        OK: Accuracy High,                        --
# GHZ S DB R 50.0
! FREQ.GHZ       S11DB        S11A       S21DB        S21A       S12DB        S12A       S22DB        S22A
  0.020000000   -0.622378 -125.825157  -91.099786   33.678947    0.000000    0.000000    0.000000    0.000000
  0.020200401   -0.618726 -127.316376  -91.216369   32.923836    0.000000    0.000000    0.000000    0.000000
  0.020400802   -0.617226 -128.777267  -92.090237   29.613979    0.000000    0.000000    0.000000    0.000000
  0.020601202   -0.616903 -130.233826  -91.900167   30.656200    0.000000    0.000000    0.000000    0.000000
  0.020801603   -0.619078 -131.715500  -92.304828   32.648521    0.000000    0.000000    0.000000    0.000000
  0.021002004   -0.623570 -133.243744  -92.957530   32.581577    0.000000    0.000000    0.000000    0.000000
  0.021202405   -0.631694 -134.758179  -92.910736   30.190798    0.000000    0.000000    0.000000    0.000000
  0.021402806   -0.634279 -136.274780  -93.383615   35.178810    0.000000    0.000000    0.000000    0.000000
  0.021603206   -0.639486 -137.800064  -92.722256   32.059956    0.000000    0.000000    0.000000    0.000000
  0.021803607   -0.643508 -139.320740  -92.720820   33.708488    0.000000    0.000000    0.000000    0.000000
  0.022004008   -0.648936 -140.863724  -93.510191   34.132626    0.000000    0.000000    0.000000    0.000000
  0.022204409   -0.652827 -142.426498  -93.063470   33.836510    0.000000    0.000000    0.000000    0.000000
  0.022404810   -0.655949 -143.993805  -92.710340   38.288528    0.000000    0.000000    0.000000    0.000000
  0.022605210   -0.654953 -145.562149  -92.346953   33.516640    0.000000    0.000000    0.000000    0.000000
  0.022805611   -0.656598 -147.121445  -92.409931   36.458366    0.000000    0.000000    0.000000    0.000000
  0.023006012   -0.661722 -148.688232  -92.555802   33.103230    0.000000    0.000000    0.000000    0.000000
  0.023206413   -0.672034 -150.261795  -92.147576   33.879311    0.000000    0.000000    0.000000    0.000000
  0.023406814   -0.679154 -151.880997  -92.602494   32.490673    0.000000    0.000000    0.000000    0.000000
  0.023607214   -0.687162 -153.508606  -92.576782   30.659668    0.000000    0.000000    0.000000    0.000000
  0.023807615   -0.694478 -155.129196  -92.094219   29.077583    0.000000    0.000000    0.000000    0.000000
  0.024008016   -0.705184 -156.741699  -92.784752   27.200823    0.000000    0.000000    0.000000    0.000000
  0.024208417   -0.715276 -158.373993  -92.934958   30.785883    0.000000    0.000000    0.000000    0.000000
  0.024408818   -0.726383 -160.021088  -93.891456   23.434124    0.000000    0.000000    0.000000    0.000000
  0.024609218   -0.737301 -161.700531  -93.308823   21.266399    0.000000    0.000000    0.000000    0.000000
  0.024809619   -0.743614 -163.391525  -94.129894   21.142582    0.000000    0.000000    0.000000    0.000000
  0.025010020   -0.748329 -165.080811  -93.479986   18.929502    0.000000    0.000000    0.000000    0.000000
  0.025210421   -0.758321 -166.756973  -94.137121   14.294979    0.000000    0.000000    0.000000    0.000000
  0.025410822   -0.766864 -168.439941  -94.796455   22.489353    0.000000    0.000000    0.000000    0.000000
  0.025611222   -0.777700 -170.130676  -94.691671   18.492395    0.000000    0.000000    0.000000    0.000000
  0.025811623   -0.785822 -171.845276  -95.124954   23.767973    0.000000    0.000000    0.000000    0.000000
  0.026012024   -0.797799 -173.557999  -95.160208   23.799877    0.000000    0.000000    0.000000    0.000000
  0.026212425   -0.810871 -175.288284  -96.798443   30.643862    0.000000    0.000000    0.000000    0.000000
  0.026412826   -0.827487 -177.025040  -94.800350   22.024302    0.000000    0.000000    0.000000    0.000000
  0.026613226   -0.845111 -178.765884  -94.794916   30.633368    0.000000    0.000000    0.000000    0.000000
  0.026813627   -0.862042  179.477158  -95.792000   31.036547    0.000000    0.000000    0.000000    0.000000
  0.027014028   -0.878112  177.724060  -95.545935   22.686817    0.000000    0.000000    0.000000    0.000000
  0.027214429   -0.893855  175.959702  -95.610156   24.196934    0.000000    0.000000    0.000000    0.000000
  0.027414830   -0.910640  174.185745  -94.834397   23.996824    0.000000    0.000000    0.000000    0.000000
  0.027615230   -0.929552  172.403305  -95.757537   22.940575    0.000000    0.000000    0.000000    0.000000
  0.027815631   -0.951757  170.579788  -95.339017   19.673267    0.000000    0.000000    0.000000    0.000000
  0.028016032   -0.973003  168.752670  -94.386753   19.098269    0.000000    0.000000    0.000000    0.000000
  0.028216433   -0.993500  166.896667  -95.400271   20.395506    0.000000    0.000000    0.000000    0.000000
  0.028416834   -1.016679  165.062881  -95.957571   17.895397    0.000000    0.000000    0.000000    0.000000
  0.028617234   -1.040589  163.198181  -96.376177   17.941986    0.000000    0.000000    0.000000    0.000000
  0.028817635   -1.066694  161.328369  -95.818870   16.884438    0.000000    0.000000    0.000000    0.000000
  0.029018036   -1.092685  159.422897  -96.347145   17.531223    0.000000    0.000000    0.000000    0.000000
  0.029218437   -1.115694  157.510452  -96.589771   14.965974    0.000000    0.000000    0.000000    0.000000
  0.029418838   -1.135653  155.611847  -97.356623   14.616617    0.000000    0.000000    0.000000    0.000000
  0.029619238   -1.156556  153.735626  -96.567324   11.992465    0.000000    0.000000    0.000000    0.000000
  0.029819639   -1.179957  151.871277  -97.114198   11.444417    0.000000    0.000000    0.000000    0.000000
  0.030020040   -1.208424  150.002716  -96.673120    6.311267    0.000000    0.000000    0.000000    0.000000
  0.030220441   -1.240222  148.115967  -97.733479   13.113676    0.000000    0.000000    0.000000    0.000000
  0.030420842   -1.276666  146.197006  -98.082668   11.971350    0.000000    0.000000    0.000000    0.000000
  0.030621242   -1.316073  144.237549  -98.370717   20.264153    0.000000    0.000000    0.000000    0.000000
  0.030821643   -1.351256  142.250076  -97.112752   17.799049    0.000000    0.000000    0.000000    0.000000
  0.031022044   -1.381528  140.245407  -96.957396   22.653629    0.000000    0.000000    0.000000    0.000000
  0.031222445   -1.409103  138.243454  -97.256590   17.230751    0.000000    0.000000    0.000000    0.000000
  0.031422846   -1.437655  136.247284  -97.155119   20.638176    0.000000    0.000000    0.000000    0.000000
  0.031623246   -1.466130  134.245804  -96.731628   14.972811    0.000000    0.000000    0.000000    0.000000
  0.031823647   -1.488847  132.301468  -98.195604   12.327762    0.000000    0.000000    0.000000    0.000000
  0.032024048   -1.515858  130.349655  -96.260606   19.167757    0.000000    0.000000    0.000000    0.000000
  0.032224449   -1.546480  128.396545  -97.210639   17.275316    0.000000    0.000000    0.000000    0.000000
  0.032424850   -1.582569  126.455040  -96.344174   16.643728    0.000000    0.000000    0.000000    0.000000
  0.032625251   -1.623150  124.477524  -96.933768    9.690596    0.000000    0.000000    0.000000    0.000000
  0.032825651   -1.669911  122.497147  -98.589159   18.181860    0.000000    0.000000    0.000000    0.000000
  0.033026052   -1.719341  120.495094  -95.836927   13.400709    0.000000    0.000000    0.000000    0.000000
  0.033226453   -1.766477  118.471245  -98.102358    9.292312    0.000000    0.000000    0.000000    0.000000
  0.033426854   -1.818674  116.431641  -98.526659   -1.808251    0.000000    0.000000    0.000000    0.000000
  0.033627255   -1.864741  114.348663  -97.501192   14.073097    0.000000    0.000000    0.000000    0.000000
  0.033827655   -1.910770  112.255165  -96.917405    1.694346    0.000000    0.000000    0.000000    0.000000
  0.034028056   -1.961623  110.158478  -97.044905   14.192802    0.000000    0.000000    0.000000    0.000000
  0.034228457   -2.009483  108.047760  -98.411151    6.957589    0.000000    0.000000    0.000000    0.000000
  0.034428858   -2.049181  105.963676  -98.333596    1.976849    0.000000    0.000000    0.000000    0.000000
  0.034629259   -2.091017  103.884171  -98.067552   15.277132    0.000000    0.000000    0.000000    0.000000
  0.034829659   -2.129672  101.850494  -98.751353    7.603579    0.000000    0.000000    0.000000    0.000000
  0.035030060   -2.171555   99.860771  -98.872667    7.771652    0.000000    0.000000    0.000000    0.000000
  0.035230461   -2.226400   97.891769  -99.659396   20.983952    0.000000    0.000000    0.000000    0.000000
  0.035430862   -2.283805   95.885590  -98.354054   11.239601    0.000000    0.000000    0.000000    0.000000
  0.035631263   -2.344888   93.878067  -98.006378   16.175615    0.000000    0.000000    0.000000    0.000000
  0.035831663   -2.409465   91.801102  -99.438787    3.548424    0.000000    0.000000    0.000000    0.000000
  0.036032064   -2.472437   89.681213  -99.100082    9.974279    0.000000    0.000000    0.000000    0.000000
  0.036232465   -2.533005   87.535141  -99.665687   10.998752    0.000000    0.000000    0.000000    0.000000
  0.036432866   -2.592083   85.349922  -99.109171    3.790808    0.000000    0.000000    0.000000    0.000000
  0.036633267   -2.644422   83.199600  -98.679572    6.026263    0.000000    0.000000    0.000000    0.000000
  0.036833667   -2.694062   81.068054  -99.040299   11.127171    0.000000    0.000000    0.000000    0.000000
  0.037034068   -2.741642   78.931862  -99.409830    8.054170    0.000000    0.000000    0.000000    0.000000
  0.037234469   -2.788597   76.821083  -98.938343    2.471868    0.000000    0.000000    0.000000    0.000000
  0.037434870   -2.834420   74.748657  -99.045944   22.847740    0.000000    0.000000    0.000000    0.000000
  0.037635271   -2.884157   72.702415 -100.028016    5.563068    0.000000    0.000000    0.000000    0.000000
  0.037835671   -2.934514   70.639481  -98.822624    1.259780    0.000000    0.000000    0.000000    0.000000
  0.038036072   -2.986482   68.573723  -99.883096    7.594270    0.000000    0.000000    0.000000    0.000000
  0.038236473   -3.051202   66.473679  -99.915543    0.076255    0.000000    0.000000    0.000000    0.000000
  0.038436874   -3.118613   64.395584 -101.288325    8.892006    0.000000    0.000000    0.000000    0.000000
  0.038637275   -3.185148   62.297337 -101.557715   -7.979159    0.000000    0.000000    0.000000    0.000000
  0.038837675   -3.249043   60.171890 -101.088069    5.986747    0.000000    0.000000    0.000000    0.000000
  0.039038076   -3.310256   57.975395  -98.731396   12.689912    0.000000    0.000000    0.000000    0.000000
  0.039238477   -3.365613   55.836781 -100.391537    2.584656    0.000000    0.000000    0.000000    0.000000
  0.039438878   -3.411096   53.700321 -100.295780   13.157578    0.000000    0.000000    0.000000    0.000000
  0.039639279   -3.454707   51.630878  -99.270700   12.623360    0.000000    0.000000    0.000000    0.000000
  0.039839679   -3.499804   49.606617 -101.153669   16.112755    0.000000    0.000000    0.000000    0.000000
  0.040040080   -3.549289   47.625778  -99.504813   13.749488    0.000000    0.000000    0.000000    0.000000
  0.040240481   -3.602400   45.630135 -102.739065   -0.166939    0.000000    0.000000    0.000000    0.000000
  0.040440882   -3.665533   43.618164  -98.745966   16.642954    0.000000    0.000000    0.000000    0.000000
  0.040641283   -3.731598   41.583183  -99.928699    0.817620    0.000000    0.000000    0.000000    0.000000
  0.040841683   -3.791398   39.543503  -98.901650    2.237532    0.000000    0.000000    0.000000    0.000000
  0.041042084   -3.856641   37.496105 -102.225702   12.100300    0.000000    0.000000    0.000000    0.000000
  0.041242485   -3.917177   35.439342 -100.342175    9.331688    0.000000    0.000000    0.000000    0.000000
  0.041442886   -3.975163   33.371323  -99.833821    9.034706    0.000000    0.000000    0.000000    0.000000
  0.041643287   -4.032425   31.292320  -99.761221   -0.806314    0.000000    0.000000    0.000000    0.000000
  0.041843687   -4.085395   29.214689 -101.923233    9.023931    0.000000    0.000000    0.000000    0.000000
  0.042044088   -4.138218   27.149370 -100.604503   -2.932622    0.000000    0.000000    0.000000    0.000000
  0.042244489   -4.187824   25.117815 -101.067042    6.684123    0.000000    0.000000    0.000000    0.000000
  0.042444890   -4.235658   23.097563 -100.588980   -1.933761    0.000000    0.000000    0.000000    0.000000
  0.042645291   -4.288877   21.060408 -100.680624    2.254479    0.000000    0.000000    0.000000    0.000000
  0.042845691   -4.334608   19.026283 -102.967678   -2.685079    0.000000    0.000000    0.000000    0.000000
  0.043046092   -4.381636   17.025677 -102.176161    0.991378    0.000000    0.000000    0.000000    0.000000
  0.043246493   -4.429044   15.012120 -100.723089   -6.251327    0.000000    0.000000    0.000000    0.000000
  0.043446894   -4.474832   13.030452 -102.816743    5.639723    0.000000    0.000000    0.000000    0.000000
  0.043647295   -4.526179   11.032076 -100.413009    2.827977    0.000000    0.000000    0.000000    0.000000
  0.043847695   -4.572039    9.063839 -101.287667    8.164075    0.000000    0.000000    0.000000    0.000000
  0.044048096   -4.616327    7.070798 -101.284870   12.150285    0.000000    0.000000    0.000000    0.000000
  0.044248497   -4.662735    5.117167  -99.728334    5.810441    0.000000    0.000000    0.000000    0.000000
  0.044448898   -4.699722    3.163130 -103.260506    4.861334    0.000000    0.000000    0.000000    0.000000
  0.044649299   -4.740666    1.242591 -102.018794   -0.476475    0.000000    0.000000    0.000000    0.000000
  0.044849699   -4.781065   -0.655556 -100.583520   12.344715    0.000000    0.000000    0.000000    0.000000
  0.045050100   -4.825553   -2.564254  -99.878808   10.107707    0.000000    0.000000    0.000000    0.000000
  0.045250501   -4.871886   -4.458623 -103.438645    9.101698    0.000000    0.000000    0.000000    0.000000
  0.045450902   -4.913550   -6.361540 -101.633580    7.182827    0.000000    0.000000    0.000000    0.000000
  0.045651303   -4.956915   -8.255164 -100.027893   -1.707997    0.000000    0.000000    0.000000    0.000000
  0.045851703   -4.998512  -10.157148  -99.875461   -4.236163    0.000000    0.000000    0.000000    0.000000
  0.046052104   -5.038620  -12.082184 -101.662051    6.086246    0.000000    0.000000    0.000000    0.000000
  0.046252505   -5.077691  -13.969248 -101.573471   -6.747075    0.000000    0.000000    0.000000    0.000000
  0.046452906   -5.114619  -15.826373 -101.473030   -6.193805    0.000000    0.000000    0.000000    0.000000
  0.046653307   -5.152862  -17.678255 -101.194059   -0.058221    0.000000    0.000000    0.000000    0.000000
  0.046853707   -5.189452  -19.575201 -103.480247    2.592396    0.000000    0.000000    0.000000    0.000000
  0.047054108   -5.223974  -21.419762 -102.735680    5.448556    0.000000    0.000000    0.000000    0.000000
  0.047254509   -5.254991  -23.284740 -103.358201   -7.560783    0.000000    0.000000    0.000000    0.000000
  0.047454910   -5.291032  -25.148815 -103.122724    3.658501    0.000000    0.000000    0.000000    0.000000
  0.047655311   -5.320811  -26.998423 -103.879120   -2.009984    0.000000    0.000000    0.000000    0.000000
  0.047855711   -5.353845  -28.814960 -103.132426   -0.436529    0.000000    0.000000    0.000000    0.000000
  0.048056112   -5.381839  -30.643347 -104.747955   -2.242290    0.000000    0.000000    0.000000    0.000000
  0.048256513   -5.409937  -32.437954 -103.343944    2.886478    0.000000    0.000000    0.000000    0.000000
  0.048456914   -5.430601  -34.282104 -102.455735    7.651231    0.000000    0.000000    0.000000    0.000000
  0.048657315   -5.454157  -36.063942 -104.882156   -5.797627    0.000000    0.000000    0.000000    0.000000
  0.048857715   -5.472102  -37.820618 -102.463836    0.493564    0.000000    0.000000    0.000000    0.000000
  0.049058116   -5.494778  -39.528786 -101.684450    1.224086    0.000000    0.000000    0.000000    0.000000
  0.049258517   -5.513519  -41.214630 -101.582732   10.592897    0.000000    0.000000    0.000000    0.000000
  0.049458918   -5.537757  -42.888664 -103.172255   12.183209    0.000000    0.000000    0.000000    0.000000
  0.049659319   -5.563399  -44.551437 -101.370875    8.978432    0.000000    0.000000    0.000000    0.000000
  0.049859719   -5.587218  -46.235611 -100.856564   -1.899633    0.000000    0.000000    0.000000    0.000000
  0.050060120   -5.618226  -47.934250 -100.438448   -0.271270    0.000000    0.000000    0.000000    0.000000
  0.050260521   -5.645409  -49.597786 -102.806686    1.028125    0.000000    0.000000    0.000000    0.000000
  0.050460922   -5.671161  -51.294033 -103.246515   -6.134113    0.000000    0.000000    0.000000    0.000000
  0.050661323   -5.693027  -53.000748 -101.401867   -3.332669    0.000000    0.000000    0.000000    0.000000
  0.050861723   -5.711076  -54.708878 -101.671116    4.315060    0.000000    0.000000    0.000000    0.000000
  0.051062124   -5.728139  -56.392014 -104.126741   -6.915223    0.000000    0.000000    0.000000    0.000000
  0.051262525   -5.743680  -58.024220 -101.690034   -0.068862    0.000000    0.000000    0.000000    0.000000
  0.051462926   -5.756189  -59.657654 -103.294122   -7.658493    0.000000    0.000000    0.000000    0.000000
  0.051663327   -5.773228  -61.266140 -101.990638   -1.596982    0.000000    0.000000    0.000000    0.000000
  0.051863727   -5.791899  -62.854023 -103.809539  -15.589241    0.000000    0.000000    0.000000    0.000000
  0.052064128   -5.808495  -64.458817 -101.872961    2.516671    0.000000    0.000000    0.000000    0.000000
  0.052264529   -5.825961  -66.048561 -102.916051    0.863724    0.000000    0.000000    0.000000    0.000000
  0.052464930   -5.839419  -67.668137 -106.072695    5.224899    0.000000    0.000000    0.000000    0.000000
  0.052665331   -5.855991  -69.253448 -103.700203   13.205096    0.000000    0.000000    0.000000    0.000000
  0.052865731   -5.867587  -70.816765 -107.127796   13.151494    0.000000    0.000000    0.000000    0.000000
