! Anritsu VNA Master:                     Model: MS2036C/10/77
! SN:                                  1601066
! /bd0/18may26.balun/2a.r50.s2p
! Existing Calibration Information:
! TYPE:                         Current Settings,       Active Cal Settings
! TIME:             	   05/26/2018 07:45:27 PM,    05/26/2018 07:26:54 PM
! INTERNAL TEMP:    	                   45.0 C,                    45.5 C
! # POINTS:         	                      500,                       500
! START FREQ:       	               20.000 MHz,                20.000 MHz
! STOP FREQ:        	              120.000 MHz,               120.000 MHz
! SOURCE POWER:     	                     High,                      High
! IFBW:             	                    50 Hz,                     50 Hz
! AVG FACTOR:       	                       1 ,                        1 
! REF PLANE 1:      	                     0 mm,                      0 mm
! REF PLANE 2:      	                     0 mm,                      0 mm
! CAL TYPE:         	                 Full S11,                  Full S11
! CAL METHOD:       	                     SOLT,                      SOLT
! CAL LINE TYPE:    	                     Coax,                      Coax
! DUT PORT 1:       	                K-Conn(M),                 K-Conn(M)
! DUT PORT 2:       	                K-Conn(M),                 K-Conn(M)
! CAL STATUS:       	        OK: Accuracy High,                        --
# GHZ S DB R 50.0
! FREQ.GHZ       S11DB        S11A       S21DB        S21A       S12DB        S12A       S22DB        S22A
  0.020000000  -39.452916   55.305698  -90.510851   35.888367    0.000000    0.000000    0.000000    0.000000
  0.020200401  -39.542880   56.072433  -90.928373   38.481647    0.000000    0.000000    0.000000    0.000000
  0.020400802  -39.487772   56.184612  -91.730386   38.851368    0.000000    0.000000    0.000000    0.000000
  0.020601202  -39.525088   55.248337  -91.512227   42.583969    0.000000    0.000000    0.000000    0.000000
  0.020801603  -39.574781   55.134476  -91.148316   34.974285    0.000000    0.000000    0.000000    0.000000
  0.021002004  -39.579497   54.160442  -91.425114   31.401583    0.000000    0.000000    0.000000    0.000000
  0.021202405  -39.533326   54.505089  -91.460643   34.339264    0.000000    0.000000    0.000000    0.000000
  0.021402806  -39.572681   54.492573  -91.738668   33.309643    0.000000    0.000000    0.000000    0.000000
  0.021603206  -39.563083   53.961552  -92.014203   35.649811    0.000000    0.000000    0.000000    0.000000
  0.021803607  -39.475050   52.542118  -92.731310   31.287260    0.000000    0.000000    0.000000    0.000000
  0.022004008  -39.463445   52.722321  -91.893866   32.289230    0.000000    0.000000    0.000000    0.000000
  0.022204409  -39.356389   52.194443  -92.316059   32.334160    0.000000    0.000000    0.000000    0.000000
  0.022404810  -39.170115   51.287907  -93.127885   29.805832    0.000000    0.000000    0.000000    0.000000
  0.022605210  -39.199962   50.339317  -92.342303   28.584194    0.000000    0.000000    0.000000    0.000000
  0.022805611  -39.151897   49.730202  -92.706794   27.939758    0.000000    0.000000    0.000000    0.000000
  0.023006012  -38.973732   50.084480  -93.010134   28.003185    0.000000    0.000000    0.000000    0.000000
  0.023206413  -38.837001   49.900005  -92.794245   28.472645    0.000000    0.000000    0.000000    0.000000
  0.023406814  -38.825629   49.367119  -92.982410   31.620203    0.000000    0.000000    0.000000    0.000000
  0.023607214  -38.659761   49.849926  -92.578628   27.653730    0.000000    0.000000    0.000000    0.000000
  0.023807615  -38.501780   50.094093  -93.632856   29.664778    0.000000    0.000000    0.000000    0.000000
  0.024008016  -38.476352   50.232151  -93.313275   27.355131    0.000000    0.000000    0.000000    0.000000
  0.024208417  -38.345782   50.382896  -93.420194   25.521938    0.000000    0.000000    0.000000    0.000000
  0.024408818  -38.240218   50.721462  -93.620310   22.999689    0.000000    0.000000    0.000000    0.000000
  0.024609218  -38.262579   50.538010  -93.987442   25.040558    0.000000    0.000000    0.000000    0.000000
  0.024809619  -38.241878   50.297401  -93.554865   24.370312    0.000000    0.000000    0.000000    0.000000
  0.025010020  -38.293657   51.092731  -93.674320   27.537046    0.000000    0.000000    0.000000    0.000000
  0.025210421  -38.217712   51.236504  -94.188853   27.788080    0.000000    0.000000    0.000000    0.000000
  0.025410822  -38.211528   50.888439  -94.200845   23.530252    0.000000    0.000000    0.000000    0.000000
  0.025611222  -38.243922   51.526630  -94.649373   25.902866    0.000000    0.000000    0.000000    0.000000
  0.025811623  -38.314492   50.690044  -95.214044   20.714880    0.000000    0.000000    0.000000    0.000000
  0.026012024  -38.225926   50.442581  -95.054653   25.131599    0.000000    0.000000    0.000000    0.000000
  0.026212425  -38.205933   50.074154  -94.411712   20.423954    0.000000    0.000000    0.000000    0.000000
  0.026412826  -38.181915   49.545639  -94.869548   22.037401    0.000000    0.000000    0.000000    0.000000
  0.026613226  -38.258424   48.875210  -94.778007   20.675453    0.000000    0.000000    0.000000    0.000000
  0.026813627  -38.191112   48.088039  -94.512335   21.799147    0.000000    0.000000    0.000000    0.000000
  0.027014028  -38.045662   47.772026  -95.433249   23.015509    0.000000    0.000000    0.000000    0.000000
  0.027214429  -38.090411   46.905701  -95.472194   24.040241    0.000000    0.000000    0.000000    0.000000
  0.027414830  -38.007210   46.650646  -95.138814   19.707180    0.000000    0.000000    0.000000    0.000000
  0.027615230  -37.901484   46.092976  -96.144341   24.047880    0.000000    0.000000    0.000000    0.000000
  0.027815631  -37.759171   45.299713  -95.575161   23.016108    0.000000    0.000000    0.000000    0.000000
  0.028016032  -37.587377   45.536503  -94.926085   20.698841    0.000000    0.000000    0.000000    0.000000
  0.028216433  -37.444183   44.821991  -95.775658   14.308554    0.000000    0.000000    0.000000    0.000000
  0.028416834  -37.370209   45.240196  -96.491917   18.808191    0.000000    0.000000    0.000000    0.000000
  0.028617234  -37.229492   44.982887  -95.888392   16.449562    0.000000    0.000000    0.000000    0.000000
  0.028817635  -37.143470   45.565445  -95.645573   17.846771    0.000000    0.000000    0.000000    0.000000
  0.029018036  -37.028642   45.572262  -97.746942   18.262100    0.000000    0.000000    0.000000    0.000000
  0.029218437  -37.003713   45.732494  -95.878476   20.171883    0.000000    0.000000    0.000000    0.000000
  0.029418838  -36.923809   46.281055  -96.479815   19.129835    0.000000    0.000000    0.000000    0.000000
  0.029619238  -36.888808   46.747261  -96.984079   18.917850    0.000000    0.000000    0.000000    0.000000
  0.029819639  -36.863467   47.049107  -96.523102   19.325270    0.000000    0.000000    0.000000    0.000000
  0.030020040  -36.847991   46.932655  -96.979511   20.805126    0.000000    0.000000    0.000000    0.000000
  0.030220441  -36.818284   47.442467  -96.102238   17.115410    0.000000    0.000000    0.000000    0.000000
  0.030420842  -36.822155   47.593895  -96.739934   13.091827    0.000000    0.000000    0.000000    0.000000
  0.030621242  -36.859517   47.510479  -96.809198   12.715168    0.000000    0.000000    0.000000    0.000000
  0.030821643  -36.875919   47.245758  -97.651836   14.404222    0.000000    0.000000    0.000000    0.000000
  0.031022044  -36.850612   47.471783  -97.333355   16.312641    0.000000    0.000000    0.000000    0.000000
  0.031222445  -36.912619   47.428623  -97.570399   14.265286    0.000000    0.000000    0.000000    0.000000
  0.031422846  -36.863991   47.548626  -96.797375   14.154459    0.000000    0.000000    0.000000    0.000000
  0.031623246  -36.872871   46.059551  -97.133456   11.760614    0.000000    0.000000    0.000000    0.000000
  0.031823647  -36.883993   45.782272  -97.740086   10.828252    0.000000    0.000000    0.000000    0.000000
  0.032024048  -36.849724   45.744797  -96.802459   14.394002    0.000000    0.000000    0.000000    0.000000
  0.032224449  -36.723998   45.131145  -96.581603   13.086441    0.000000    0.000000    0.000000    0.000000
  0.032424850  -36.771749   44.379765  -96.968530   11.421612    0.000000    0.000000    0.000000    0.000000
  0.032625251  -36.706884   43.034573  -97.237437    4.600117    0.000000    0.000000    0.000000    0.000000
  0.032825651  -36.567250   42.334812  -97.930517   19.714808    0.000000    0.000000    0.000000    0.000000
  0.033026052  -36.555803   42.760410  -97.733999   12.335032    0.000000    0.000000    0.000000    0.000000
  0.033226453  -36.342920   42.676273  -97.949081    2.262603    0.000000    0.000000    0.000000    0.000000
  0.033426854  -36.270296   41.614399  -98.588608    3.543730    0.000000    0.000000    0.000000    0.000000
  0.033627255  -36.082645   41.542068  -97.657854   13.921550    0.000000    0.000000    0.000000    0.000000
  0.033827655  -35.957564   41.844582  -98.194188   13.032937    0.000000    0.000000    0.000000    0.000000
  0.034028056  -35.960999   41.726341  -98.007129   12.788313    0.000000    0.000000    0.000000    0.000000
  0.034228457  -35.862525   41.496864  -97.861562   16.064737    0.000000    0.000000    0.000000    0.000000
  0.034428858  -35.753600   42.262722  -98.305100   19.827030    0.000000    0.000000    0.000000    0.000000
  0.034629259  -35.604680   42.142757  -98.213631   16.581293    0.000000    0.000000    0.000000    0.000000
  0.034829659  -35.549532   42.655025  -99.773737    2.951683    0.000000    0.000000    0.000000    0.000000
  0.035030060  -35.532404   43.767925  -98.362530    8.155704    0.000000    0.000000    0.000000    0.000000
  0.035230461  -35.532112   43.779839  -98.428248   11.140308    0.000000    0.000000    0.000000    0.000000
  0.035430862  -35.523823   44.545780  -98.970866    6.910374    0.000000    0.000000    0.000000    0.000000
  0.035631263  -35.469858   44.626030  -99.900115    3.985301    0.000000    0.000000    0.000000    0.000000
  0.035831663  -35.501581   44.486355  -98.586313    9.776822    0.000000    0.000000    0.000000    0.000000
  0.036032064  -35.534255   44.919079  -98.449509    9.385040    0.000000    0.000000    0.000000    0.000000
  0.036232465  -35.517717   44.835560 -100.238990    3.466693    0.000000    0.000000    0.000000    0.000000
  0.036432866  -35.596609   44.104870  -98.849149    7.793410    0.000000    0.000000    0.000000    0.000000
  0.036633267  -35.664895   44.307133  -98.894504   11.290392    0.000000    0.000000    0.000000    0.000000
  0.036833667  -35.628272   44.282864  -99.838450    6.492223    0.000000    0.000000    0.000000    0.000000
  0.037034068  -35.673217   43.721439 -100.173770    8.115744    0.000000    0.000000    0.000000    0.000000
  0.037234469  -35.591478   43.090775  -99.112073    8.379421    0.000000    0.000000    0.000000    0.000000
  0.037434870  -35.623249   42.742577  -99.784261    9.674388    0.000000    0.000000    0.000000    0.000000
  0.037635271  -35.566996   42.188736  -98.229478    7.788448    0.000000    0.000000    0.000000    0.000000
  0.037835671  -35.540701   42.256714 -100.328714    2.502872    0.000000    0.000000    0.000000    0.000000
  0.038036072  -35.397946   41.632698 -100.448254   10.548265    0.000000    0.000000    0.000000    0.000000
  0.038236473  -35.427492   41.201332  -99.389371   12.331340    0.000000    0.000000    0.000000    0.000000
  0.038436874  -35.320245   40.889996  -99.325415    3.251662    0.000000    0.000000    0.000000    0.000000
  0.038637275  -35.228852   40.577972  -99.908545    5.339254    0.000000    0.000000    0.000000    0.000000
  0.038837675  -35.137307   40.052216  -98.431950    9.975788    0.000000    0.000000    0.000000    0.000000
  0.039038076  -35.026872   40.016239  -99.533601   11.366108    0.000000    0.000000    0.000000    0.000000
  0.039238477  -34.922422   39.569450 -100.985802    2.607013    0.000000    0.000000    0.000000    0.000000
  0.039438878  -34.821238   39.900581  -99.998033    5.049224    0.000000    0.000000    0.000000    0.000000
  0.039639279  -34.758778   40.018185 -101.857672    2.076851    0.000000    0.000000    0.000000    0.000000
  0.039839679  -34.747552   40.258060 -101.234800    3.017953    0.000000    0.000000    0.000000    0.000000
  0.040040080  -34.616225   40.846218 -101.908784    8.671539    0.000000    0.000000    0.000000    0.000000
  0.040240481  -34.529546   40.997231 -101.852763   11.690842    0.000000    0.000000    0.000000    0.000000
  0.040440882  -34.515020   41.787159  -99.839986    9.829558    0.000000    0.000000    0.000000    0.000000
  0.040641283  -34.526060   41.854370 -101.440537    6.155929    0.000000    0.000000    0.000000    0.000000
  0.040841683  -34.512916   42.196480 -100.192039    9.326945    0.000000    0.000000    0.000000    0.000000
  0.041042084  -34.582659   42.047974 -100.260750   11.122363    0.000000    0.000000    0.000000    0.000000
  0.041242485  -34.585893   41.973354  -98.228879    3.039629    0.000000    0.000000    0.000000    0.000000
  0.041442886  -34.613286   42.560005 -100.556172   23.142605    0.000000    0.000000    0.000000    0.000000
  0.041643287  -34.622513   41.892395 -100.298064   14.030130    0.000000    0.000000    0.000000    0.000000
  0.041843687  -34.612185   42.044682  -99.514379    5.223486    0.000000    0.000000    0.000000    0.000000
  0.042044088  -34.647211   41.807732 -103.269734    3.434875    0.000000    0.000000    0.000000    0.000000
  0.042244489  -34.653183   41.810577 -101.928751    2.010102    0.000000    0.000000    0.000000    0.000000
  0.042444890  -34.638608   41.550613 -102.986299   15.711175    0.000000    0.000000    0.000000    0.000000
  0.042645291  -34.641204   40.478630 -100.889703   -0.690696    0.000000    0.000000    0.000000    0.000000
  0.042845691  -34.628523   40.189571 -100.297326   -4.756736    0.000000    0.000000    0.000000    0.000000
  0.043046092  -34.649274   40.330196  -99.957207    7.200274    0.000000    0.000000    0.000000    0.000000
  0.043246493  -34.556210   39.803417 -101.064291   12.591532    0.000000    0.000000    0.000000    0.000000
  0.043446894  -34.464625   39.597126 -100.900772    3.734190    0.000000    0.000000    0.000000    0.000000
  0.043647295  -34.446872   38.591866 -102.401985   12.440523    0.000000    0.000000    0.000000    0.000000
  0.043847695  -34.430112   38.834587  -99.601500    8.428585    0.000000    0.000000    0.000000    0.000000
  0.044048096  -34.252547   38.474850 -102.344254    8.284950    0.000000    0.000000    0.000000    0.000000
  0.044248497  -34.273886   38.383636 -101.938728    8.518731    0.000000    0.000000    0.000000    0.000000
  0.044448898  -34.179893   38.376488 -100.055572   14.323521    0.000000    0.000000    0.000000    0.000000
  0.044649299  -34.098576   38.182903  -99.801463    3.371318    0.000000    0.000000    0.000000    0.000000
  0.044849699  -34.011518   38.630035 -101.122381    6.436713    0.000000    0.000000    0.000000    0.000000
  0.045050100  -34.018912   38.244202 -101.231428    9.713724    0.000000    0.000000    0.000000    0.000000
  0.045250501  -33.892444   38.934170 -100.110545   10.196799    0.000000    0.000000    0.000000    0.000000
  0.045450902  -33.910952   38.856094 -101.287349    8.181026    0.000000    0.000000    0.000000    0.000000
  0.045651303  -33.898135   39.814655 -102.479113    3.086846    0.000000    0.000000    0.000000    0.000000
  0.045851703  -33.898413   40.083858 -100.624243    9.664515    0.000000    0.000000    0.000000    0.000000
  0.046052104  -33.916228   39.937679 -102.115035   -3.413272    0.000000    0.000000    0.000000    0.000000
  0.046252505  -33.903354   39.676018 -101.238013   -6.587002    0.000000    0.000000    0.000000    0.000000
  0.046452906  -33.899515   40.216991 -102.684649  -16.106461    0.000000    0.000000    0.000000    0.000000
  0.046653307  -33.944015   40.593929 -103.846415   -3.055968    0.000000    0.000000    0.000000    0.000000
  0.046853707  -33.986921   40.135536 -102.279653   -9.812887    0.000000    0.000000    0.000000    0.000000
  0.047054108  -34.041606   39.947250 -103.660134    6.366277    0.000000    0.000000    0.000000    0.000000
  0.047254509  -34.038071   39.672447 -101.881015   -7.535906    0.000000    0.000000    0.000000    0.000000
  0.047454910  -34.122047   39.733456 -103.441472    6.043489    0.000000    0.000000    0.000000    0.000000
  0.047655311  -34.115742   38.834377 -103.146792   12.917953    0.000000    0.000000    0.000000    0.000000
  0.047855711  -34.044488   38.739594 -102.787666   -4.180695    0.000000    0.000000    0.000000    0.000000
  0.048056112  -34.107843   38.246189 -102.490292    3.297286    0.000000    0.000000    0.000000    0.000000
  0.048256513  -34.071200   37.679665 -102.725784    1.215191    0.000000    0.000000    0.000000    0.000000
  0.048456914  -34.077895   36.964878 -101.859855   -3.650043    0.000000    0.000000    0.000000    0.000000
  0.048657315  -34.051160   36.744827 -101.712384    9.800416    0.000000    0.000000    0.000000    0.000000
  0.048857715  -33.990432   36.128159 -101.006356    6.296247    0.000000    0.000000    0.000000    0.000000
  0.049058116  -33.844540   35.774910 -102.643907  -12.768850    0.000000    0.000000    0.000000    0.000000
  0.049258517  -33.838014   35.260586 -103.839274   24.123644    0.000000    0.000000    0.000000    0.000000
  0.049458918  -33.775183   35.294529 -104.712986    2.132646    0.000000    0.000000    0.000000    0.000000
  0.049659319  -33.728415   35.351936 -105.168582   -0.683430    0.000000    0.000000    0.000000    0.000000
  0.049859719  -33.653316   34.756229 -101.341179    6.459163    0.000000    0.000000    0.000000    0.000000
  0.050060120  -33.620292   35.059258 -103.323353   21.092442    0.000000    0.000000    0.000000    0.000000
  0.050260521  -33.472384   35.140724 -105.262348    5.545183    0.000000    0.000000    0.000000    0.000000
  0.050460922  -33.421191   35.347836 -101.878666    3.973418    0.000000    0.000000    0.000000    0.000000
  0.050661323  -33.384696   35.391949 -101.428141   10.249340    0.000000    0.000000    0.000000    0.000000
  0.050861723  -33.414964   35.725079 -106.102810   13.702196    0.000000    0.000000    0.000000    0.000000
  0.051062124  -33.389423   36.028004 -105.338754   -2.705645    0.000000    0.000000    0.000000    0.000000
  0.051262525  -33.289774   35.954826 -102.771699   14.336617    0.000000    0.000000    0.000000    0.000000
  0.051462926  -33.342646   36.028370 -100.007001    9.006421    0.000000    0.000000    0.000000    0.000000
  0.051663327  -33.337447   36.053783 -103.901012  -16.571409    0.000000    0.000000    0.000000    0.000000
  0.051863727  -33.378742   36.085239 -104.133823    4.135565    0.000000    0.000000    0.000000    0.000000
  0.052064128  -33.383852   36.036674 -101.467478   15.213202    0.000000    0.000000    0.000000    0.000000
  0.052264529  -33.415892   35.788704 -102.683867    4.067132    0.000000    0.000000    0.000000    0.000000
  0.052464930  -33.443854   35.687534 -102.516856   -0.109642    0.000000    0.000000    0.000000    0.000000
  0.052665331  -33.404518   35.471504 -101.359287   18.909012    0.000000    0.000000    0.000000    0.000000
  0.052865731  -33.496256   34.961964 -102.762513   12.884576    0.000000    0.000000    0.000000    0.000000
