! Anritsu VNA Master:                     Model: MS2036C/10/77
! SN:                                  1601066
! /bd0/18may10/252.ew.m4.s2p
! Existing Calibration Information:
! TYPE:                         Current Settings,       Active Cal Settings
! TIME:             	   05/10/2018 06:30:18 PM,    05/10/2018 06:18:15 PM
! INTERNAL TEMP:    	                   60.5 C,                    60.0 C
! # POINTS:         	                      487,                       487
! START FREQ:       	           20.601 202 MHz,            20.601 202 MHz
! STOP FREQ:        	          117.995 991 MHz,           117.995 991 MHz
! SOURCE POWER:     	                     High,                      High
! IFBW:             	                    50 Hz,                     50 Hz
! AVG FACTOR:       	                       1 ,                        1 
! REF PLANE 1:      	                     0 mm,                      0 mm
! REF PLANE 2:      	                     0 mm,                      0 mm
! CAL TYPE:         	                 Full S22,                  Full S22
! CAL METHOD:       	                     SOLT,                      SOLT
! CAL LINE TYPE:    	                     Coax,                      Coax
! DUT PORT 1:       	                K-Conn(M),                 K-Conn(M)
! DUT PORT 2:       	                K-Conn(M),                 K-Conn(M)
! CAL STATUS:       	        OK: Accuracy High,                        --
# GHZ S DB R 50.0
! FREQ.GHZ       S11DB        S11A       S21DB        S21A       S12DB        S12A       S22DB        S22A
  0.020601202    0.000000    0.000000    0.000000    0.000000  -90.468904   32.823746   -0.646074 -129.418442
  0.020801603    0.000000    0.000000    0.000000    0.000000  -90.583181   31.235588   -0.650512 -130.940002
  0.021002004    0.000000    0.000000    0.000000    0.000000  -91.501843   30.303879   -0.653385 -132.470673
  0.021202405    0.000000    0.000000    0.000000    0.000000  -91.500775   36.379307   -0.657186 -134.009216
  0.021402806    0.000000    0.000000    0.000000    0.000000  -91.696488   34.803577   -0.661238 -135.559433
  0.021603206    0.000000    0.000000    0.000000    0.000000  -92.229245   37.382332   -0.661869 -137.079880
  0.021803607    0.000000    0.000000    0.000000    0.000000  -92.137474   38.467377   -0.666888 -138.631149
  0.022004008    0.000000    0.000000    0.000000    0.000000  -92.083173   40.696438   -0.673398 -140.183502
  0.022204409    0.000000    0.000000    0.000000    0.000000  -91.802487   39.285782   -0.677547 -141.763794
  0.022404810    0.000000    0.000000    0.000000    0.000000  -92.108840   40.964359   -0.679620 -143.364960
  0.022605210    0.000000    0.000000    0.000000    0.000000  -91.492028   43.827621   -0.684344 -144.957153
  0.022805611    0.000000    0.000000    0.000000    0.000000  -91.787135   39.917030   -0.687711 -146.569229
  0.023006012    0.000000    0.000000    0.000000    0.000000  -91.634593   41.842243   -0.692171 -148.166245
  0.023206413    0.000000    0.000000    0.000000    0.000000  -91.906018   40.379726   -0.694143 -149.754745
  0.023406814    0.000000    0.000000    0.000000    0.000000  -91.727556   41.121815   -0.696978 -151.361389
  0.023607214    0.000000    0.000000    0.000000    0.000000  -91.572958   38.206306   -0.702840 -152.959595
  0.023807615    0.000000    0.000000    0.000000    0.000000  -91.340343   38.466850   -0.711395 -154.562241
  0.024008016    0.000000    0.000000    0.000000    0.000000  -91.331907   37.749928   -0.719812 -156.186188
  0.024208417    0.000000    0.000000    0.000000    0.000000  -90.950185   33.668709   -0.726060 -157.837326
  0.024408818    0.000000    0.000000    0.000000    0.000000  -91.069833   34.154896   -0.732941 -159.480804
  0.024609218    0.000000    0.000000    0.000000    0.000000  -91.644799   31.105324   -0.737980 -161.116745
  0.024809619    0.000000    0.000000    0.000000    0.000000  -91.556182   28.976252   -0.746833 -162.768478
  0.025010020    0.000000    0.000000    0.000000    0.000000  -91.563695   30.392469   -0.757990 -164.402206
  0.025210421    0.000000    0.000000    0.000000    0.000000  -92.004590   23.926411   -0.767787 -166.066315
  0.025410822    0.000000    0.000000    0.000000    0.000000  -91.695420   25.973883   -0.780198 -167.739227
  0.025611222    0.000000    0.000000    0.000000    0.000000  -92.276475   26.025656   -0.792451 -169.405075
  0.025811623    0.000000    0.000000    0.000000    0.000000  -92.494794   25.538134   -0.804687 -171.108932
  0.026012024    0.000000    0.000000    0.000000    0.000000  -93.052625   24.625393   -0.816129 -172.825256
  0.026212425    0.000000    0.000000    0.000000    0.000000  -93.276330   23.898663   -0.828528 -174.544632
  0.026412826    0.000000    0.000000    0.000000    0.000000  -93.807480   20.348913   -0.844683 -176.270813
  0.026613226    0.000000    0.000000    0.000000    0.000000  -93.850177   27.793291   -0.860538 -178.024078
  0.026813627    0.000000    0.000000    0.000000    0.000000  -93.731723   25.449867   -0.876828 -179.781631
  0.027014028    0.000000    0.000000    0.000000    0.000000  -94.530612   27.729109   -0.894318  178.447769
  0.027214429    0.000000    0.000000    0.000000    0.000000  -94.328788   29.187868   -0.911806  176.672806
  0.027414830    0.000000    0.000000    0.000000    0.000000  -94.387218   25.762619   -0.928931  174.878006
  0.027615230    0.000000    0.000000    0.000000    0.000000  -95.072694   31.089405   -0.947645  173.072281
  0.027815631    0.000000    0.000000    0.000000    0.000000  -94.735083   29.213661   -0.965975  171.243866
  0.028016032    0.000000    0.000000    0.000000    0.000000  -95.626612   26.117750   -0.984874  169.409775
  0.028216433    0.000000    0.000000    0.000000    0.000000  -95.244741   28.669884   -1.007087  167.557175
  0.028416834    0.000000    0.000000    0.000000    0.000000  -95.204312   35.833138   -1.027097  165.701553
  0.028617234    0.000000    0.000000    0.000000    0.000000  -94.012674   28.462252   -1.047029  163.849167
  0.028817635    0.000000    0.000000    0.000000    0.000000  -94.213069   30.907887   -1.069610  161.976929
  0.029018036    0.000000    0.000000    0.000000    0.000000  -94.910879   29.215597   -1.092410  160.125778
  0.029218437    0.000000    0.000000    0.000000    0.000000  -95.059270   30.421141   -1.116699  158.246857
  0.029418838    0.000000    0.000000    0.000000    0.000000  -94.438099   30.614346   -1.140769  156.347900
  0.029619238    0.000000    0.000000    0.000000    0.000000  -93.660039   28.417782   -1.166721  154.456696
  0.029819639    0.000000    0.000000    0.000000    0.000000  -94.206512   27.145529   -1.192450  152.554153
  0.030020040    0.000000    0.000000    0.000000    0.000000  -93.853896   24.117922   -1.219044  150.647888
  0.030220441    0.000000    0.000000    0.000000    0.000000  -94.064090   27.840046   -1.246915  148.747040
  0.030420842    0.000000    0.000000    0.000000    0.000000  -94.767440   26.040659   -1.274919  146.829788
  0.030621242    0.000000    0.000000    0.000000    0.000000  -94.641851   27.589750   -1.304427  144.925842
  0.030821643    0.000000    0.000000    0.000000    0.000000  -95.006909   21.861946   -1.336841  143.012802
  0.031022044    0.000000    0.000000    0.000000    0.000000  -94.944683   22.871258   -1.370380  141.084824
  0.031222445    0.000000    0.000000    0.000000    0.000000  -95.018725   23.142530   -1.398089  139.160553
  0.031422846    0.000000    0.000000    0.000000    0.000000  -95.704193   17.702576   -1.433283  137.198212
  0.031623246    0.000000    0.000000    0.000000    0.000000  -94.123807   19.456184   -1.469765  135.231094
  0.031823647    0.000000    0.000000    0.000000    0.000000  -96.041756   17.483130   -1.509404  133.257217
  0.032024048    0.000000    0.000000    0.000000    0.000000  -94.062991   13.207438   -1.549067  131.271484
  0.032224449    0.000000    0.000000    0.000000    0.000000  -95.181708   21.994534   -1.589778  129.275681
  0.032424850    0.000000    0.000000    0.000000    0.000000  -94.474452   11.651369   -1.631599  127.277336
  0.032625250    0.000000    0.000000    0.000000    0.000000  -95.596861   14.521441   -1.673479  125.245781
  0.032825651    0.000000    0.000000    0.000000    0.000000  -97.033478   17.979582   -1.715709  123.216827
  0.033026052    0.000000    0.000000    0.000000    0.000000  -96.572486   17.966072   -1.759827  121.160057
  0.033226453    0.000000    0.000000    0.000000    0.000000  -96.527410   21.472488   -1.798591  119.080292
  0.033426854    0.000000    0.000000    0.000000    0.000000  -97.113509   21.128771   -1.843528  117.030403
  0.033627254    0.000000    0.000000    0.000000    0.000000  -95.886156   25.000135   -1.889756  114.974266
  0.033827655    0.000000    0.000000    0.000000    0.000000  -96.307068   20.853271   -1.932461  112.898064
  0.034028056    0.000000    0.000000    0.000000    0.000000  -95.880238   20.433311   -1.979477  110.841904
  0.034228457    0.000000    0.000000    0.000000    0.000000  -96.133006   23.563940   -2.024967  108.769440
  0.034428858    0.000000    0.000000    0.000000    0.000000  -96.437913   23.075041   -2.069892  106.673409
  0.034629258    0.000000    0.000000    0.000000    0.000000  -95.547362   30.398457   -2.118930  104.589958
  0.034829659    0.000000    0.000000    0.000000    0.000000  -96.655841   24.056843   -2.163444  102.493286
  0.035030060    0.000000    0.000000    0.000000    0.000000  -96.404711   26.022642   -2.214545  100.403313
  0.035230461    0.000000    0.000000    0.000000    0.000000  -96.075168   27.979769   -2.267032   98.320854
  0.035430862    0.000000    0.000000    0.000000    0.000000  -96.344007   18.660385   -2.316339   96.260330
  0.035631262    0.000000    0.000000    0.000000    0.000000  -95.465154   25.944469   -2.366545   94.165848
  0.035831663    0.000000    0.000000    0.000000    0.000000  -96.232670   24.075891   -2.417373   92.096603
  0.036032064    0.000000    0.000000    0.000000    0.000000  -95.925358   25.612759   -2.469789   90.025406
  0.036232465    0.000000    0.000000    0.000000    0.000000  -96.818994   22.845778   -2.521402   87.960724
  0.036432866    0.000000    0.000000    0.000000    0.000000  -96.145681   20.592628   -2.574440   85.875076
  0.036633266    0.000000    0.000000    0.000000    0.000000  -95.862634   27.990488   -2.627919   83.827118
  0.036833667    0.000000    0.000000    0.000000    0.000000  -96.629723   25.956741   -2.682715   81.761147
  0.037034068    0.000000    0.000000    0.000000    0.000000  -96.952219   14.491706   -2.742294   79.691307
  0.037234469    0.000000    0.000000    0.000000    0.000000  -96.993653   26.389183   -2.798305   77.621887
  0.037434870    0.000000    0.000000    0.000000    0.000000  -96.996124   25.831814   -2.855968   75.592422
  0.037635270    0.000000    0.000000    0.000000    0.000000  -98.063065   22.577894   -2.915514   73.525391
  0.037835671    0.000000    0.000000    0.000000    0.000000  -97.470059    9.443935   -2.974498   71.446724
  0.038036072    0.000000    0.000000    0.000000    0.000000  -98.000599   25.085497   -3.034953   69.363060
  0.038236473    0.000000    0.000000    0.000000    0.000000  -97.301577   17.955107   -3.096977   67.256630
  0.038436874    0.000000    0.000000    0.000000    0.000000  -98.208483   24.928604   -3.160940   65.154022
  0.038637274    0.000000    0.000000    0.000000    0.000000  -97.696441   18.445955   -3.223208   63.064812
  0.038837675    0.000000    0.000000    0.000000    0.000000  -97.525529   19.951139   -3.284912   60.955086
  0.039038076    0.000000    0.000000    0.000000    0.000000  -98.597060   26.874725   -3.345014   58.890865
  0.039238477    0.000000    0.000000    0.000000    0.000000  -98.557243   14.014752   -3.405197   56.793385
  0.039438878    0.000000    0.000000    0.000000    0.000000  -98.122158   21.576464   -3.468009   54.712524
  0.039639278    0.000000    0.000000    0.000000    0.000000  -97.030180   19.308641   -3.528982   52.630386
  0.039839679    0.000000    0.000000    0.000000    0.000000  -96.407893   29.966785   -3.584634   50.514565
  0.040040080    0.000000    0.000000    0.000000    0.000000  -98.983951   24.351036   -3.647219   48.415798
  0.040240481    0.000000    0.000000    0.000000    0.000000  -98.173045   35.065468   -3.702956   46.305809
  0.040440882    0.000000    0.000000    0.000000    0.000000  -98.106294   32.861164   -3.760789   44.242008
  0.040641283    0.000000    0.000000    0.000000    0.000000  -96.774000   27.300280   -3.817195   42.172943
  0.040841683    0.000000    0.000000    0.000000    0.000000  -97.546017   31.896725   -3.871758   40.111172
  0.041042084    0.000000    0.000000    0.000000    0.000000  -97.257044   24.110603   -3.929674   38.077648
  0.041242485    0.000000    0.000000    0.000000    0.000000  -97.985779   22.756407   -3.985690   36.036217
  0.041442886    0.000000    0.000000    0.000000    0.000000  -97.590096   22.906057   -4.042669   33.989559
  0.041643287    0.000000    0.000000    0.000000    0.000000  -98.463650   30.107309   -4.097709   31.960234
  0.041843687    0.000000    0.000000    0.000000    0.000000  -97.171744   25.888779   -4.149673   29.894871
  0.042044088    0.000000    0.000000    0.000000    0.000000  -97.893947   29.273993   -4.203908   27.883970
  0.042244489    0.000000    0.000000    0.000000    0.000000  -97.209603   35.256012   -4.255637   25.872231
  0.042444890    0.000000    0.000000    0.000000    0.000000  -97.535715   25.348045   -4.310769   23.891174
  0.042645291    0.000000    0.000000    0.000000    0.000000  -97.376754   27.762257   -4.366749   21.894142
  0.042845691    0.000000    0.000000    0.000000    0.000000  -99.265929   27.570133   -4.421999   19.905457
  0.043046092    0.000000    0.000000    0.000000    0.000000  -98.088468   27.859734   -4.474039   17.922907
  0.043246493    0.000000    0.000000    0.000000    0.000000  -98.251555   37.670498   -4.528670   15.936991
  0.043446894    0.000000    0.000000    0.000000    0.000000  -98.800154   23.806883   -4.579247   13.956693
  0.043647295    0.000000    0.000000    0.000000    0.000000  -98.996169   23.468269   -4.631815   11.991626
  0.043847695    0.000000    0.000000    0.000000    0.000000  -99.358436   25.547375   -4.682312   10.022223
  0.044048096    0.000000    0.000000    0.000000    0.000000  -99.471125   22.502472   -4.734905    8.071680
  0.044248497    0.000000    0.000000    0.000000    0.000000  -97.963104   32.908203   -4.785182    6.107228
  0.044448898    0.000000    0.000000    0.000000    0.000000  -98.881248   30.642015   -4.835458    4.171973
  0.044649299    0.000000    0.000000    0.000000    0.000000  -97.617645   25.270857   -4.884040    2.208121
  0.044849699    0.000000    0.000000    0.000000    0.000000  -98.487222   32.310314   -4.932857    0.287335
  0.045050100    0.000000    0.000000    0.000000    0.000000  -99.039673   34.891571   -4.981820   -1.663797
  0.045250501    0.000000    0.000000    0.000000    0.000000  -99.296452   29.522881   -5.032222   -3.586171
  0.045450902    0.000000    0.000000    0.000000    0.000000  -99.099130   29.578926   -5.077868   -5.516825
  0.045651303    0.000000    0.000000    0.000000    0.000000  -97.680768   39.111099   -5.120504   -7.436338
  0.045851703    0.000000    0.000000    0.000000    0.000000  -97.963185   33.267662   -5.163146   -9.335580
  0.046052104    0.000000    0.000000    0.000000    0.000000  -97.817552   24.081907   -5.203298  -11.230178
  0.046252505    0.000000    0.000000    0.000000    0.000000  -99.920590   33.954147   -5.243877  -13.109086
  0.046452906    0.000000    0.000000    0.000000    0.000000  -98.704776   33.281441   -5.285701  -14.987008
  0.046653307    0.000000    0.000000    0.000000    0.000000  -98.553416   34.676174   -5.324855  -16.844645
  0.046853707    0.000000    0.000000    0.000000    0.000000  -99.243742   27.812113   -5.361853  -18.684391
  0.047054108    0.000000    0.000000    0.000000    0.000000  -98.875109   25.647377   -5.400897  -20.542259
  0.047254509    0.000000    0.000000    0.000000    0.000000  -97.892564   30.155224   -5.438237  -22.365580
  0.047454910    0.000000    0.000000    0.000000    0.000000  -98.671362   31.257805   -5.473271  -24.180248
  0.047655311    0.000000    0.000000    0.000000    0.000000  -98.652731   22.894691   -5.509526  -25.976521
  0.047855711    0.000000    0.000000    0.000000    0.000000  -98.950274   22.480270   -5.545643  -27.760424
  0.048056112    0.000000    0.000000    0.000000    0.000000  -99.198034   22.470371   -5.578411  -29.516556
  0.048256513    0.000000    0.000000    0.000000    0.000000  -98.983038   27.196913   -5.616665  -31.258675
  0.048456914    0.000000    0.000000    0.000000    0.000000 -100.201658   28.991512   -5.650902  -33.012249
  0.048657315    0.000000    0.000000    0.000000    0.000000  -98.897561   24.527483   -5.683071  -34.751171
  0.048857715    0.000000    0.000000    0.000000    0.000000  -98.312344   34.843208   -5.716554  -36.495522
  0.049058116    0.000000    0.000000    0.000000    0.000000  -98.428859   32.587662   -5.749813  -38.229462
  0.049258517    0.000000    0.000000    0.000000    0.000000  -99.688875   37.565514   -5.782277  -39.946564
  0.049458918    0.000000    0.000000    0.000000    0.000000 -100.018523   30.667662   -5.814132  -41.653954
  0.049659319    0.000000    0.000000    0.000000    0.000000 -100.571335   32.449463   -5.845451  -43.344448
  0.049859719    0.000000    0.000000    0.000000    0.000000 -100.447223   39.207500   -5.879829  -45.035717
  0.050060120    0.000000    0.000000    0.000000    0.000000 -102.144774   34.638180   -5.910291  -46.715981
  0.050260521    0.000000    0.000000    0.000000    0.000000  -99.465229   35.165840   -5.936989  -48.419735
  0.050460922    0.000000    0.000000    0.000000    0.000000  -99.018336   32.264297   -5.964283  -50.125084
  0.050661323    0.000000    0.000000    0.000000    0.000000  -99.333099   28.922102   -5.989423  -51.786640
  0.050861723    0.000000    0.000000    0.000000    0.000000 -100.302870   34.730793   -6.016139  -53.466534
  0.051062124    0.000000    0.000000    0.000000    0.000000  -98.173867   35.768486   -6.039017  -55.127022
  0.051262525    0.000000    0.000000    0.000000    0.000000  -99.807460   30.442549   -6.064209  -56.747063
  0.051462926    0.000000    0.000000    0.000000    0.000000  -97.895737   32.555115   -6.085219  -58.394047
  0.051663327    0.000000    0.000000    0.000000    0.000000  -98.086555   29.114828   -6.104796  -59.989223
  0.051863727    0.000000    0.000000    0.000000    0.000000  -99.031625   31.027271   -6.120986  -61.647491
  0.052064128    0.000000    0.000000    0.000000    0.000000  -98.607895   28.240311   -6.137437  -63.236118
  0.052264529    0.000000    0.000000    0.000000    0.000000  -98.234361   41.735832   -6.148270  -64.843094
  0.052464930    0.000000    0.000000    0.000000    0.000000  -97.430826   32.094193   -6.158134  -66.418152
  0.052665331    0.000000    0.000000    0.000000    0.000000  -99.061005   30.587786   -6.169945  -67.954895
  0.052865731    0.000000    0.000000    0.000000    0.000000  -99.036928   35.539749   -6.182611  -69.501488
  0.053066132    0.000000    0.000000    0.000000    0.000000  -99.639844   31.010080   -6.196096  -71.024368
  0.053266533    0.000000    0.000000    0.000000    0.000000  -98.780058   25.333963   -6.204020  -72.510818
  0.053466934    0.000000    0.000000    0.000000    0.000000  -99.338667   25.360144   -6.218270  -74.028374
