! Anritsu VNA Master:                     Model: MS2036C/10/77
! SN:                                  1601066
! /bd0/18may10/252.ew.m6.s2p
! Existing Calibration Information:
! TYPE:                         Current Settings,       Active Cal Settings
! TIME:             	   05/10/2018 06:40:00 PM,    05/10/2018 06:36:47 PM
! INTERNAL TEMP:    	                   61.3 C,                    61.0 C
! # POINTS:         	                      487,                       487
! START FREQ:       	           20.601 202 MHz,            20.601 202 MHz
! STOP FREQ:        	          117.995 991 MHz,           117.995 991 MHz
! SOURCE POWER:     	                     High,                      High
! IFBW:             	                    50 Hz,                     50 Hz
! AVG FACTOR:       	                       1 ,                        1 
! REF PLANE 1:      	                     0 mm,                      0 mm
! REF PLANE 2:      	                     0 mm,                      0 mm
! CAL TYPE:         	                 Full S22,                  Full S22
! CAL METHOD:       	                     SOLT,                      SOLT
! CAL LINE TYPE:    	                     Coax,                      Coax
! DUT PORT 1:       	                K-Conn(M),                 K-Conn(M)
! DUT PORT 2:       	                K-Conn(M),                 K-Conn(M)
! CAL STATUS:       	        OK: Accuracy High,                        --
# GHZ S DB R 50.0
! FREQ.GHZ       S11DB        S11A       S21DB        S21A       S12DB        S12A       S22DB        S22A
  0.020601202    0.000000    0.000000    0.000000    0.000000  -90.129705   31.169371   -0.643505 -129.852661
  0.020801603    0.000000    0.000000    0.000000    0.000000  -90.989734   32.708813   -0.647015 -131.372314
  0.021002004    0.000000    0.000000    0.000000    0.000000  -91.468955   34.494865   -0.648857 -132.893387
  0.021202405    0.000000    0.000000    0.000000    0.000000  -91.747341   31.446095   -0.651625 -134.421997
  0.021402806    0.000000    0.000000    0.000000    0.000000  -91.729260   32.452133   -0.654137 -135.950241
  0.021603206    0.000000    0.000000    0.000000    0.000000  -91.598944   36.242382   -0.654646 -137.481079
  0.021803607    0.000000    0.000000    0.000000    0.000000  -92.311021   37.241684   -0.658671 -139.006638
  0.022004008    0.000000    0.000000    0.000000    0.000000  -92.555163   35.852734   -0.664110 -140.528076
  0.022204409    0.000000    0.000000    0.000000    0.000000  -92.164368   41.954575   -0.667785 -142.088074
  0.022404810    0.000000    0.000000    0.000000    0.000000  -91.716873   41.601364   -0.676263 -143.669022
  0.022605210    0.000000    0.000000    0.000000    0.000000  -91.663423   42.600216   -0.677900 -145.252594
  0.022805611    0.000000    0.000000    0.000000    0.000000  -91.738404   43.149948   -0.681393 -146.851929
  0.023006012    0.000000    0.000000    0.000000    0.000000  -91.344463   40.875614   -0.685035 -148.449265
  0.023206413    0.000000    0.000000    0.000000    0.000000  -91.837884   40.932037   -0.688589 -150.036163
  0.023406814    0.000000    0.000000    0.000000    0.000000  -91.618108   36.395119   -0.693772 -151.626526
  0.023607214    0.000000    0.000000    0.000000    0.000000  -91.232641   41.480717   -0.701603 -153.233322
  0.023807615    0.000000    0.000000    0.000000    0.000000  -91.041057   35.469009   -0.711082 -154.858597
  0.024008016    0.000000    0.000000    0.000000    0.000000  -90.722906   32.566006   -0.719667 -156.492371
  0.024208417    0.000000    0.000000    0.000000    0.000000  -91.453086   35.416149   -0.727462 -158.154495
  0.024408818    0.000000    0.000000    0.000000    0.000000  -91.344098   37.813862   -0.734197 -159.818832
  0.024609218    0.000000    0.000000    0.000000    0.000000  -91.439740   31.398138   -0.740477 -161.480804
  0.024809619    0.000000    0.000000    0.000000    0.000000  -91.969665   31.115866   -0.750136 -163.145752
  0.025010020    0.000000    0.000000    0.000000    0.000000  -91.745193   28.453371   -0.760483 -164.833740
  0.025210421    0.000000    0.000000    0.000000    0.000000  -91.809250   26.061390   -0.772294 -166.513382
  0.025410822    0.000000    0.000000    0.000000    0.000000  -91.426845   29.168467   -0.784151 -168.217178
  0.025611222    0.000000    0.000000    0.000000    0.000000  -92.425685   21.174500   -0.795060 -169.915634
  0.025811623    0.000000    0.000000    0.000000    0.000000  -92.693102   26.342539   -0.807720 -171.634705
  0.026012024    0.000000    0.000000    0.000000    0.000000  -92.946896   26.521366   -0.818761 -173.368866
  0.026212425    0.000000    0.000000    0.000000    0.000000  -93.115754   22.379587   -0.831384 -175.099731
  0.026412826    0.000000    0.000000    0.000000    0.000000  -93.675102   25.197172   -0.844977 -176.855011
  0.026613226    0.000000    0.000000    0.000000    0.000000  -94.161139   25.581610   -0.861291 -178.605957
  0.026813627    0.000000    0.000000    0.000000    0.000000  -94.207277   30.604492   -0.876578  179.622543
  0.027014028    0.000000    0.000000    0.000000    0.000000  -94.380017   25.463894   -0.893444  177.854004
  0.027214429    0.000000    0.000000    0.000000    0.000000  -94.687269   25.806614   -0.910897  176.076111
  0.027414830    0.000000    0.000000    0.000000    0.000000  -94.597884   29.271997   -0.927035  174.289413
  0.027615230    0.000000    0.000000    0.000000    0.000000  -94.387350   27.452988   -0.944598  172.494965
  0.027815631    0.000000    0.000000    0.000000    0.000000  -94.898271   30.514315   -0.962523  170.687241
  0.028016032    0.000000    0.000000    0.000000    0.000000  -93.978669   35.913666   -0.982327  168.865265
  0.028216433    0.000000    0.000000    0.000000    0.000000  -93.931385   29.829304   -1.002459  167.032806
  0.028416834    0.000000    0.000000    0.000000    0.000000  -94.541635   29.163385   -1.024497  165.189804
  0.028617234    0.000000    0.000000    0.000000    0.000000  -94.385498   27.145420   -1.045773  163.340897
  0.028817635    0.000000    0.000000    0.000000    0.000000  -94.810598   35.771629   -1.067554  161.492569
  0.029018036    0.000000    0.000000    0.000000    0.000000  -94.857125   34.271736   -1.091317  159.643814
  0.029218437    0.000000    0.000000    0.000000    0.000000  -94.362992   33.910130   -1.116580  157.768356
  0.029418838    0.000000    0.000000    0.000000    0.000000  -94.161282   31.080553   -1.141491  155.874420
  0.029619238    0.000000    0.000000    0.000000    0.000000  -94.049622   29.967321   -1.169304  153.983948
  0.029819639    0.000000    0.000000    0.000000    0.000000  -94.020737   29.931847   -1.196170  152.072723
  0.030020040    0.000000    0.000000    0.000000    0.000000  -94.100150   30.428249   -1.223909  150.149384
  0.030220441    0.000000    0.000000    0.000000    0.000000  -94.497921   24.508640   -1.251881  148.229599
  0.030420842    0.000000    0.000000    0.000000    0.000000  -94.087802   26.228230   -1.280051  146.318283
  0.030621242    0.000000    0.000000    0.000000    0.000000  -94.528316   25.602612   -1.311203  144.400436
  0.030821643    0.000000    0.000000    0.000000    0.000000  -94.296318   20.919628   -1.344405  142.461884
  0.031022044    0.000000    0.000000    0.000000    0.000000  -94.470138   20.252573   -1.376498  140.515686
  0.031222445    0.000000    0.000000    0.000000    0.000000  -94.709562   23.519623   -1.403291  138.573105
  0.031422846    0.000000    0.000000    0.000000    0.000000  -94.186918   20.876883   -1.439496  136.592941
  0.031623246    0.000000    0.000000    0.000000    0.000000  -94.935946   17.724964   -1.475030  134.600098
  0.031823647    0.000000    0.000000    0.000000    0.000000  -94.100016   20.587767   -1.513416  132.603699
  0.032024048    0.000000    0.000000    0.000000    0.000000  -95.000207   15.124638   -1.551166  130.622635
  0.032224449    0.000000    0.000000    0.000000    0.000000  -94.931778   22.822826   -1.591335  128.620316
  0.032424850    0.000000    0.000000    0.000000    0.000000  -95.820315   17.616720   -1.632917  126.615379
  0.032625250    0.000000    0.000000    0.000000    0.000000  -94.917024   23.407200   -1.673924  124.592148
  0.032825651    0.000000    0.000000    0.000000    0.000000  -96.455923   12.032038   -1.711612  122.561623
  0.033026052    0.000000    0.000000    0.000000    0.000000  -95.824705   25.536543   -1.754951  120.515228
  0.033226453    0.000000    0.000000    0.000000    0.000000  -97.888196   11.790292   -1.797459  118.469315
  0.033426854    0.000000    0.000000    0.000000    0.000000  -97.156327   31.322004   -1.837603  116.431641
  0.033627254    0.000000    0.000000    0.000000    0.000000  -95.328343   19.967382   -1.882216  114.401367
  0.033827655    0.000000    0.000000    0.000000    0.000000  -97.379793   19.280466   -1.927999  112.355476
  0.034028056    0.000000    0.000000    0.000000    0.000000  -96.509320   22.521929   -1.973132  110.310310
  0.034228457    0.000000    0.000000    0.000000    0.000000  -96.152276   24.650230   -2.019053  108.255722
  0.034428858    0.000000    0.000000    0.000000    0.000000  -96.347015   24.389935   -2.068757  106.198700
  0.034629258    0.000000    0.000000    0.000000    0.000000  -95.829609   22.903980   -2.116929  104.131836
  0.034829659    0.000000    0.000000    0.000000    0.000000  -95.318108   23.934927   -2.163404  102.043419
  0.035030060    0.000000    0.000000    0.000000    0.000000  -97.063743   29.266052   -2.216871   99.973465
  0.035230461    0.000000    0.000000    0.000000    0.000000  -96.447891   27.576839   -2.268551   97.902084
  0.035430862    0.000000    0.000000    0.000000    0.000000  -95.115619   21.825026   -2.320087   95.832207
  0.035631262    0.000000    0.000000    0.000000    0.000000  -96.544437   20.459372   -2.374863   93.765175
  0.035831663    0.000000    0.000000    0.000000    0.000000  -97.096966   23.193745   -2.425606   91.691383
  0.036032064    0.000000    0.000000    0.000000    0.000000  -96.748755   23.513699   -2.480958   89.603500
  0.036232465    0.000000    0.000000    0.000000    0.000000  -96.268842   22.873535   -2.532249   87.515656
  0.036432866    0.000000    0.000000    0.000000    0.000000  -96.220905   22.629519   -2.587622   85.411377
  0.036633266    0.000000    0.000000    0.000000    0.000000  -96.822371   18.807999   -2.643354   83.326126
  0.036833667    0.000000    0.000000    0.000000    0.000000  -97.139372   19.646626   -2.698293   81.237717
  0.037034068    0.000000    0.000000    0.000000    0.000000  -96.807804   21.099684   -2.759661   79.140182
  0.037234469    0.000000    0.000000    0.000000    0.000000  -97.584222   18.608664   -2.814202   77.065147
  0.037434870    0.000000    0.000000    0.000000    0.000000  -96.805681   17.914589   -2.872575   74.971069
  0.037635270    0.000000    0.000000    0.000000    0.000000  -96.693391   22.534128   -2.931183   72.901382
  0.037835671    0.000000    0.000000    0.000000    0.000000  -97.503124   19.730539   -2.989876   70.815002
  0.038036072    0.000000    0.000000    0.000000    0.000000  -98.308110   26.978006   -3.049950   68.692009
  0.038236473    0.000000    0.000000    0.000000    0.000000  -98.044953   23.900694   -3.108463   66.581703
  0.038436874    0.000000    0.000000    0.000000    0.000000  -96.997443   22.314775   -3.171021   64.467194
  0.038637274    0.000000    0.000000    0.000000    0.000000  -97.714810   18.928061   -3.232778   62.353958
  0.038837675    0.000000    0.000000    0.000000    0.000000  -98.937147   19.956905   -3.291267   60.263557
  0.039038076    0.000000    0.000000    0.000000    0.000000  -97.833596   29.174389   -3.349665   58.173069
  0.039238477    0.000000    0.000000    0.000000    0.000000  -96.936372   28.887373   -3.406795   56.098274
  0.039438878    0.000000    0.000000    0.000000    0.000000  -98.229536   24.266439   -3.465773   54.015911
  0.039639278    0.000000    0.000000    0.000000    0.000000  -97.666985   24.836594   -3.525361   51.947277
  0.039839679    0.000000    0.000000    0.000000    0.000000  -99.121675   27.293493   -3.587678   49.840473
  0.040040080    0.000000    0.000000    0.000000    0.000000  -98.052909   25.392042   -3.643048   47.744244
  0.040240481    0.000000    0.000000    0.000000    0.000000  -98.281619   15.541564   -3.701537   45.666840
  0.040440882    0.000000    0.000000    0.000000    0.000000  -97.611768   29.805153   -3.758590   43.613586
  0.040641283    0.000000    0.000000    0.000000    0.000000  -98.642562   26.800083   -3.816704   41.558254
  0.040841683    0.000000    0.000000    0.000000    0.000000  -98.602253   23.702505   -3.873916   39.483818
  0.041042084    0.000000    0.000000    0.000000    0.000000  -98.265975   24.434954   -3.930150   37.469032
  0.041242485    0.000000    0.000000    0.000000    0.000000  -97.926294   31.381290   -3.990410   35.405952
  0.041442886    0.000000    0.000000    0.000000    0.000000  -96.699605   30.305023   -4.046922   33.373035
  0.041643287    0.000000    0.000000    0.000000    0.000000  -98.926698   28.248611   -4.102856   31.322195
  0.041843687    0.000000    0.000000    0.000000    0.000000  -97.419109   28.352133   -4.160340   29.254108
  0.042044088    0.000000    0.000000    0.000000    0.000000  -98.185027   25.427383   -4.212009   27.236212
  0.042244489    0.000000    0.000000    0.000000    0.000000  -99.202117   22.029156   -4.268232   25.209095
  0.042444890    0.000000    0.000000    0.000000    0.000000  -97.729150   26.247894   -4.323101   23.182737
  0.042645291    0.000000    0.000000    0.000000    0.000000  -97.910118   21.946657   -4.378614   21.168921
  0.042845691    0.000000    0.000000    0.000000    0.000000  -99.048183   22.972374   -4.433427   19.162039
  0.043046092    0.000000    0.000000    0.000000    0.000000  -97.523633   22.802656   -4.488051   17.148767
  0.043246493    0.000000    0.000000    0.000000    0.000000  -97.793439   27.534128   -4.541127   15.138873
  0.043446894    0.000000    0.000000    0.000000    0.000000  -99.269597   30.160658   -4.590745   13.150057
  0.043647295    0.000000    0.000000    0.000000    0.000000  -98.273812   35.337395   -4.642812   11.151628
  0.043847695    0.000000    0.000000    0.000000    0.000000  -99.426125   20.236208   -4.692413    9.170664
  0.044048096    0.000000    0.000000    0.000000    0.000000 -100.389913   26.202421   -4.742086    7.198162
  0.044248497    0.000000    0.000000    0.000000    0.000000  -99.092294   29.621714   -4.792442    5.216962
  0.044448898    0.000000    0.000000    0.000000    0.000000  -99.166143   31.559187   -4.840102    3.276538
  0.044649299    0.000000    0.000000    0.000000    0.000000  -98.747694   29.910212   -4.887724    1.330130
  0.044849699    0.000000    0.000000    0.000000    0.000000  -99.120089   27.458403   -4.936236   -0.606190
  0.045050100    0.000000    0.000000    0.000000    0.000000  -99.607806   33.085079   -4.981230   -2.538208
  0.045250501    0.000000    0.000000    0.000000    0.000000  -98.836890   38.157627   -5.025635   -4.476069
  0.045450902    0.000000    0.000000    0.000000    0.000000  -98.079506   29.062305   -5.068471   -6.387816
  0.045651303    0.000000    0.000000    0.000000    0.000000  -98.396947   29.081829   -5.115597   -8.311942
  0.045851703    0.000000    0.000000    0.000000    0.000000  -97.781219   28.413979   -5.155311  -10.214979
  0.046052104    0.000000    0.000000    0.000000    0.000000  -97.490698   30.642794   -5.196603  -12.098505
  0.046252505    0.000000    0.000000    0.000000    0.000000  -97.913083   32.174431   -5.236983  -13.978191
  0.046452906    0.000000    0.000000    0.000000    0.000000  -98.897316   23.807512   -5.278600  -15.823049
  0.046653307    0.000000    0.000000    0.000000    0.000000  -99.067933   26.696680   -5.321637  -17.664143
  0.046853707    0.000000    0.000000    0.000000    0.000000  -98.304286   28.064072   -5.362235  -19.519159
  0.047054108    0.000000    0.000000    0.000000    0.000000  -97.617800   26.868353   -5.399765  -21.377800
  0.047254509    0.000000    0.000000    0.000000    0.000000  -98.366834   17.273848   -5.439484  -23.211214
  0.047454910    0.000000    0.000000    0.000000    0.000000  -98.719378   27.493750   -5.476208  -25.030659
  0.047655311    0.000000    0.000000    0.000000    0.000000 -100.699565   24.337046   -5.511686  -26.859821
  0.047855711    0.000000    0.000000    0.000000    0.000000  -98.664162   15.273104   -5.546970  -28.638006
  0.048056112    0.000000    0.000000    0.000000    0.000000  -97.800011   29.291946   -5.582706  -30.421909
  0.048256513    0.000000    0.000000    0.000000    0.000000 -100.013401   34.371906   -5.620730  -32.199764
  0.048456914    0.000000    0.000000    0.000000    0.000000 -100.063313   31.096571   -5.656606  -33.966564
  0.048657315    0.000000    0.000000    0.000000    0.000000  -99.133488   35.070778   -5.688513  -35.708984
  0.048857715    0.000000    0.000000    0.000000    0.000000  -99.230766   36.202568   -5.721329  -37.472397
  0.049058116    0.000000    0.000000    0.000000    0.000000  -99.856121   28.337143   -5.750636  -39.229561
  0.049258517    0.000000    0.000000    0.000000    0.000000  -98.383336   25.642155   -5.776414  -40.947136
  0.049458918    0.000000    0.000000    0.000000    0.000000 -101.044642   30.385237   -5.807570  -42.666851
  0.049659319    0.000000    0.000000    0.000000    0.000000  -98.560238   22.803047   -5.838157  -44.379833
  0.049859719    0.000000    0.000000    0.000000    0.000000  -98.956626   35.795242   -5.868969  -46.060364
  0.050060120    0.000000    0.000000    0.000000    0.000000  -99.360647   32.509701   -5.897169  -47.731350
  0.050260521    0.000000    0.000000    0.000000    0.000000  -99.641324   29.843367   -5.919765  -49.413658
  0.050460922    0.000000    0.000000    0.000000    0.000000  -99.505923   30.848303   -5.946696  -51.089405
  0.050661323    0.000000    0.000000    0.000000    0.000000  -98.166069   34.920799   -5.968835  -52.735691
  0.050861723    0.000000    0.000000    0.000000    0.000000  -99.122843   31.474424   -5.988918  -54.379219
  0.051062124    0.000000    0.000000    0.000000    0.000000  -99.127315   33.778568   -6.013468  -56.004436
  0.051262525    0.000000    0.000000    0.000000    0.000000  -98.690683   32.594082   -6.037100  -57.614407
  0.051462926    0.000000    0.000000    0.000000    0.000000  -98.215327   27.413757   -6.059831  -59.211342
  0.051663327    0.000000    0.000000    0.000000    0.000000  -99.264707   33.737755   -6.077686  -60.816109
  0.051863727    0.000000    0.000000    0.000000    0.000000  -98.029629   31.703495   -6.098960  -62.385201
  0.052064128    0.000000    0.000000    0.000000    0.000000  -99.553246   34.851322   -6.113400  -63.948471
  0.052264529    0.000000    0.000000    0.000000    0.000000  -98.195249   28.554850   -6.129924  -65.530251
  0.052464930    0.000000    0.000000    0.000000    0.000000  -97.142342   27.653246   -6.142295  -67.064934
  0.052665331    0.000000    0.000000    0.000000    0.000000  -99.077134   35.020466   -6.159920  -68.597931
  0.052865731    0.000000    0.000000    0.000000    0.000000  -99.062710   28.779928   -6.176511  -70.130783
  0.053066132    0.000000    0.000000    0.000000    0.000000  -98.506183   35.295837   -6.192005  -71.655487
  0.053266533    0.000000    0.000000    0.000000    0.000000  -97.786944   31.047075   -6.205063  -73.131050
  0.053466934    0.000000    0.000000    0.000000    0.000000  -98.634084   31.379433   -6.219686  -74.644424
