! Anritsu VNA Master:                     Model: MS2036C/10/77
! SN:                                  1601066
! /bd0/18may10/252.ew.m10.s2p
! Existing Calibration Information:
! TYPE:                         Current Settings,       Active Cal Settings
! TIME:             	   05/10/2018 06:48:30 PM,    05/10/2018 06:36:47 PM
! INTERNAL TEMP:    	                   61.0 C,                    61.0 C
! # POINTS:         	                      487,                       487
! START FREQ:       	           20.601 202 MHz,            20.601 202 MHz
! STOP FREQ:        	          117.995 991 MHz,           117.995 991 MHz
! SOURCE POWER:     	                     High,                      High
! IFBW:             	                    50 Hz,                     50 Hz
! AVG FACTOR:       	                       1 ,                        1 
! REF PLANE 1:      	                     0 mm,                      0 mm
! REF PLANE 2:      	                     0 mm,                      0 mm
! CAL TYPE:         	                 Full S22,                  Full S22
! CAL METHOD:       	                     SOLT,                      SOLT
! CAL LINE TYPE:    	                     Coax,                      Coax
! DUT PORT 1:       	                K-Conn(M),                 K-Conn(M)
! DUT PORT 2:       	                K-Conn(M),                 K-Conn(M)
! CAL STATUS:       	        OK: Accuracy High,                        --
# GHZ S DB R 50.0
! FREQ.GHZ       S11DB        S11A       S21DB        S21A       S12DB        S12A       S22DB        S22A
  0.020601202    0.000000    0.000000    0.000000    0.000000  -90.908342   31.832943   -0.631241 -130.307831
  0.020801603    0.000000    0.000000    0.000000    0.000000  -90.664842   29.380140   -0.635149 -131.816269
  0.021002004    0.000000    0.000000    0.000000    0.000000  -90.781522   31.334105   -0.634403 -133.342972
  0.021202405    0.000000    0.000000    0.000000    0.000000  -91.361835   31.318073   -0.637673 -134.863220
  0.021402806    0.000000    0.000000    0.000000    0.000000  -91.488447   32.851311   -0.638631 -136.381638
  0.021603206    0.000000    0.000000    0.000000    0.000000  -92.188020   38.662468   -0.639961 -137.902786
  0.021803607    0.000000    0.000000    0.000000    0.000000  -91.690041   40.028515   -0.643335 -139.414246
  0.022004008    0.000000    0.000000    0.000000    0.000000  -91.619201   36.054291   -0.647890 -140.934326
  0.022204409    0.000000    0.000000    0.000000    0.000000  -92.076992   39.086781   -0.651353 -142.477905
  0.022404810    0.000000    0.000000    0.000000    0.000000  -91.964428   38.846455   -0.659736 -144.052200
  0.022605210    0.000000    0.000000    0.000000    0.000000  -91.572048   42.290924   -0.662623 -145.629471
  0.022805611    0.000000    0.000000    0.000000    0.000000  -91.636207   42.645504   -0.665952 -147.222549
  0.023006012    0.000000    0.000000    0.000000    0.000000  -91.740195   41.243549   -0.670663 -148.812149
  0.023206413    0.000000    0.000000    0.000000    0.000000  -91.315078   39.703358   -0.674192 -150.403610
  0.023406814    0.000000    0.000000    0.000000    0.000000  -92.073764   42.051197   -0.680955 -152.005386
  0.023607214    0.000000    0.000000    0.000000    0.000000  -91.352360   39.147434   -0.689152 -153.617752
  0.023807615    0.000000    0.000000    0.000000    0.000000  -91.184792   37.225754   -0.698236 -155.244934
  0.024008016    0.000000    0.000000    0.000000    0.000000  -91.564523   35.888783   -0.707958 -156.896057
  0.024208417    0.000000    0.000000    0.000000    0.000000  -91.123057   36.043610   -0.715259 -158.567993
  0.024408818    0.000000    0.000000    0.000000    0.000000  -91.481653   32.582603   -0.723360 -160.253510
  0.024609218    0.000000    0.000000    0.000000    0.000000  -91.641083   35.162319   -0.730421 -161.936401
  0.024809619    0.000000    0.000000    0.000000    0.000000  -91.448943   30.623529   -0.740844 -163.619980
  0.025010020    0.000000    0.000000    0.000000    0.000000  -91.889434   28.220188   -0.750906 -165.327362
  0.025210421    0.000000    0.000000    0.000000    0.000000  -92.103932   28.247019   -0.762258 -167.027359
  0.025410822    0.000000    0.000000    0.000000    0.000000  -91.914537   27.506910   -0.774592 -168.745758
  0.025611222    0.000000    0.000000    0.000000    0.000000  -91.854843   23.579231   -0.784861 -170.462723
  0.025811623    0.000000    0.000000    0.000000    0.000000  -92.300448   26.131668   -0.797741 -172.195953
  0.026012024    0.000000    0.000000    0.000000    0.000000  -93.001058   26.242680   -0.807282 -173.942154
  0.026212425    0.000000    0.000000    0.000000    0.000000  -93.015499   24.309355   -0.820263 -175.680313
  0.026412826    0.000000    0.000000    0.000000    0.000000  -93.220766   27.386894   -0.832853 -177.441360
  0.026613226    0.000000    0.000000    0.000000    0.000000  -93.528686   24.237778   -0.848295 -179.197464
  0.026813627    0.000000    0.000000    0.000000    0.000000  -95.114990   27.224277   -0.862856  179.037338
  0.027014028    0.000000    0.000000    0.000000    0.000000  -93.713795   27.262409   -0.878252  177.267883
  0.027214429    0.000000    0.000000    0.000000    0.000000  -94.331451   28.319992   -0.894457  175.500290
  0.027414830    0.000000    0.000000    0.000000    0.000000  -94.461686   26.752354   -0.910361  173.734161
  0.027615230    0.000000    0.000000    0.000000    0.000000  -94.787173   25.099241   -0.927515  171.946411
  0.027815631    0.000000    0.000000    0.000000    0.000000  -94.597667   32.902573   -0.945423  170.150757
  0.028016032    0.000000    0.000000    0.000000    0.000000  -94.375389   33.072498   -0.964452  168.341629
  0.028216433    0.000000    0.000000    0.000000    0.000000  -95.158011   33.109779   -0.983926  166.529480
  0.028416834    0.000000    0.000000    0.000000    0.000000  -94.740329   34.698872   -1.006236  164.706894
  0.028617234    0.000000    0.000000    0.000000    0.000000  -94.339818   33.392410   -1.027033  162.872757
  0.028817635    0.000000    0.000000    0.000000    0.000000  -94.170298   31.563875   -1.048975  161.034134
  0.029018036    0.000000    0.000000    0.000000    0.000000  -94.295007   31.492052   -1.072311  159.194901
  0.029218437    0.000000    0.000000    0.000000    0.000000  -94.167450   31.997252   -1.099405  157.328354
  0.029418838    0.000000    0.000000    0.000000    0.000000  -94.726804   32.087883   -1.124883  155.429657
  0.029619238    0.000000    0.000000    0.000000    0.000000  -94.643164   25.379864   -1.152078  153.543350
  0.029819639    0.000000    0.000000    0.000000    0.000000  -94.475951   27.788939   -1.179807  151.633530
  0.030020040    0.000000    0.000000    0.000000    0.000000  -94.655128   23.660389   -1.208724  149.705200
  0.030220441    0.000000    0.000000    0.000000    0.000000  -94.393195   22.043833   -1.237321  147.778961
  0.030420842    0.000000    0.000000    0.000000    0.000000  -93.939246   23.076530   -1.266545  145.854965
  0.030621242    0.000000    0.000000    0.000000    0.000000  -94.314789   29.498089   -1.297626  143.916229
  0.030821643    0.000000    0.000000    0.000000    0.000000  -94.847860   26.051161   -1.331069  141.964569
  0.031022044    0.000000    0.000000    0.000000    0.000000  -94.645720   23.924652   -1.363635  140.007813
  0.031222445    0.000000    0.000000    0.000000    0.000000  -94.580681   21.751268   -1.390039  138.043869
  0.031422846    0.000000    0.000000    0.000000    0.000000  -94.205622   24.168541   -1.426411  136.057709
  0.031623246    0.000000    0.000000    0.000000    0.000000  -95.169022   19.261984   -1.461915  134.047379
  0.031823647    0.000000    0.000000    0.000000    0.000000  -94.756338   19.225954   -1.500214  132.045883
  0.032024048    0.000000    0.000000    0.000000    0.000000  -94.989209   22.110680   -1.536679  130.044968
  0.032224449    0.000000    0.000000    0.000000    0.000000  -95.749213   10.964736   -1.577093  128.039230
  0.032424850    0.000000    0.000000    0.000000    0.000000  -94.889586   22.690758   -1.616880  126.038803
  0.032625250    0.000000    0.000000    0.000000    0.000000  -95.258137   12.341049   -1.656072  124.016769
  0.032825651    0.000000    0.000000    0.000000    0.000000  -95.751585   17.559881   -1.693938  121.990936
  0.033026052    0.000000    0.000000    0.000000    0.000000  -95.134314   21.438683   -1.736491  119.947441
  0.033226453    0.000000    0.000000    0.000000    0.000000  -95.282130   14.279613   -1.777841  117.905952
  0.033426854    0.000000    0.000000    0.000000    0.000000  -96.917461   17.924404   -1.818400  115.876328
  0.033627254    0.000000    0.000000    0.000000    0.000000  -96.895914   20.486835   -1.861854  113.867256
  0.033827655    0.000000    0.000000    0.000000    0.000000  -96.071360   29.174486   -1.907307  111.838066
  0.034028056    0.000000    0.000000    0.000000    0.000000  -96.325416   17.689636   -1.953885  109.795692
  0.034228457    0.000000    0.000000    0.000000    0.000000  -96.538307   31.658394   -2.000838  107.754471
  0.034428858    0.000000    0.000000    0.000000    0.000000  -96.090165   28.760527   -2.048545  105.705452
  0.034629258    0.000000    0.000000    0.000000    0.000000  -95.591869   24.014236   -2.098459  103.636200
  0.034829659    0.000000    0.000000    0.000000    0.000000  -95.899776   28.060705   -2.146986  101.572464
  0.035030060    0.000000    0.000000    0.000000    0.000000  -96.391313   24.245264   -2.200349   99.493073
  0.035230461    0.000000    0.000000    0.000000    0.000000  -95.585080   23.718365   -2.254983   97.420952
  0.035430862    0.000000    0.000000    0.000000    0.000000  -96.073874   22.001207   -2.307313   95.339256
  0.035631262    0.000000    0.000000    0.000000    0.000000  -95.431558   26.616236   -2.363487   93.251343
  0.035831663    0.000000    0.000000    0.000000    0.000000  -97.208394   20.829489   -2.415480   91.159027
  0.036032064    0.000000    0.000000    0.000000    0.000000  -95.781107   28.109541   -2.472082   89.063904
  0.036232465    0.000000    0.000000    0.000000    0.000000  -95.791448   24.372723   -2.525675   86.949013
  0.036432866    0.000000    0.000000    0.000000    0.000000  -96.436249   21.066347   -2.582476   84.809174
  0.036633266    0.000000    0.000000    0.000000    0.000000  -96.671045   21.578510   -2.639464   82.702881
  0.036833667    0.000000    0.000000    0.000000    0.000000  -96.886205   17.510174   -2.694912   80.581894
  0.037034068    0.000000    0.000000    0.000000    0.000000  -95.779184   15.976241   -2.755967   78.448547
  0.037234469    0.000000    0.000000    0.000000    0.000000  -97.871126   24.831707   -2.811018   76.342918
  0.037434870    0.000000    0.000000    0.000000    0.000000  -97.023370   16.130785   -2.869230   74.216545
  0.037635270    0.000000    0.000000    0.000000    0.000000  -96.630261   17.985327   -2.927773   72.116844
  0.037835671    0.000000    0.000000    0.000000    0.000000  -97.336598   17.734615   -2.985341   70.006340
  0.038036072    0.000000    0.000000    0.000000    0.000000  -98.066681   20.247396   -3.042926   67.868164
  0.038236473    0.000000    0.000000    0.000000    0.000000  -97.471185   30.609434   -3.101782   65.732971
  0.038436874    0.000000    0.000000    0.000000    0.000000  -97.000432   21.074795   -3.160604   63.600529
  0.038637274    0.000000    0.000000    0.000000    0.000000  -98.158554   22.772968   -3.221332   61.481812
  0.038837675    0.000000    0.000000    0.000000    0.000000  -97.224847   23.826603   -3.278073   59.387123
  0.039038076    0.000000    0.000000    0.000000    0.000000  -97.529689   22.639212   -3.335135   57.292412
  0.039238477    0.000000    0.000000    0.000000    0.000000  -98.019086   27.716484   -3.390235   55.219662
  0.039438878    0.000000    0.000000    0.000000    0.000000  -98.518721   25.206081   -3.448068   53.138420
  0.039639278    0.000000    0.000000    0.000000    0.000000  -98.476586   28.856207   -3.506500   51.077873
  0.039839679    0.000000    0.000000    0.000000    0.000000  -97.134146   29.507435   -3.566467   48.988617
  0.040040080    0.000000    0.000000    0.000000    0.000000  -98.385343   30.878981   -3.620864   46.911957
  0.040240481    0.000000    0.000000    0.000000    0.000000  -98.556128   28.022310   -3.678925   44.832554
  0.040440882    0.000000    0.000000    0.000000    0.000000  -97.770129   26.274660   -3.736691   42.802372
  0.040641283    0.000000    0.000000    0.000000    0.000000  -97.628268   19.888931   -3.794422   40.744869
  0.040841683    0.000000    0.000000    0.000000    0.000000  -97.348957   24.480518   -3.851678   38.690742
  0.041042084    0.000000    0.000000    0.000000    0.000000  -97.853527   31.770044   -3.911365   36.669903
  0.041242485    0.000000    0.000000    0.000000    0.000000  -96.966754   26.936443   -3.972331   34.619762
  0.041442886    0.000000    0.000000    0.000000    0.000000  -99.216037   30.897856   -4.028488   32.569374
  0.041643287    0.000000    0.000000    0.000000    0.000000  -96.946468   28.386278   -4.085493   30.524109
  0.041843687    0.000000    0.000000    0.000000    0.000000  -98.062961   27.169077   -4.143200   28.446234
  0.042044088    0.000000    0.000000    0.000000    0.000000  -97.872583   20.243130   -4.197078   26.409224
  0.042244489    0.000000    0.000000    0.000000    0.000000  -97.204417   25.980135   -4.251814   24.376070
  0.042444890    0.000000    0.000000    0.000000    0.000000  -97.798081   24.220387   -4.307064   22.344084
  0.042645291    0.000000    0.000000    0.000000    0.000000  -98.252023   25.111076   -4.363694   20.299492
  0.042845691    0.000000    0.000000    0.000000    0.000000  -99.026137   25.469584   -4.416688   18.286453
  0.043046092    0.000000    0.000000    0.000000    0.000000  -98.722545   31.125954   -4.471390   16.254145
  0.043246493    0.000000    0.000000    0.000000    0.000000  -98.329685   23.388369   -4.522876   14.237309
  0.043446894    0.000000    0.000000    0.000000    0.000000  -98.006347   26.374443   -4.574166   12.221349
  0.043647295    0.000000    0.000000    0.000000    0.000000  -98.119246   19.595770   -4.622045   10.200705
  0.043847695    0.000000    0.000000    0.000000    0.000000  -98.258941   15.889464   -4.671032    8.223806
  0.044048096    0.000000    0.000000    0.000000    0.000000  -98.994356   31.585144   -4.718966    6.231183
  0.044248497    0.000000    0.000000    0.000000    0.000000  -97.670282   28.387800   -4.766223    4.257277
  0.044448898    0.000000    0.000000    0.000000    0.000000  -98.991221   23.437088   -4.812628    2.314871
  0.044649299    0.000000    0.000000    0.000000    0.000000  -98.858804   30.683897   -4.860887    0.375477
  0.044849699    0.000000    0.000000    0.000000    0.000000  -99.725791   29.831516   -4.905406   -1.549889
  0.045050100    0.000000    0.000000    0.000000    0.000000  -99.357290   32.475410   -4.950088   -3.465122
  0.045250501    0.000000    0.000000    0.000000    0.000000  -98.456318   33.814255   -4.993780   -5.394181
  0.045450902    0.000000    0.000000    0.000000    0.000000  -99.009663   26.554535   -5.037233   -7.297861
  0.045651303    0.000000    0.000000    0.000000    0.000000  -99.174361   28.236761   -5.080061   -9.198970
  0.045851703    0.000000    0.000000    0.000000    0.000000  -99.135525   38.220112   -5.118646  -11.076919
  0.046052104    0.000000    0.000000    0.000000    0.000000  -99.238821   24.682158   -5.163489  -12.957326
  0.046252505    0.000000    0.000000    0.000000    0.000000  -98.330985   31.436277   -5.204634  -14.806365
  0.046452906    0.000000    0.000000    0.000000    0.000000  -97.988045   29.558275   -5.247125  -16.649782
  0.046653307    0.000000    0.000000    0.000000    0.000000  -97.389870   28.705147   -5.290850  -18.497719
  0.046853707    0.000000    0.000000    0.000000    0.000000  -97.826252   22.045164   -5.330710  -20.342131
  0.047054108    0.000000    0.000000    0.000000    0.000000  -98.494872   26.195995   -5.371992  -22.199671
  0.047254509    0.000000    0.000000    0.000000    0.000000  -99.049018   37.813190   -5.411685  -24.036860
  0.047454910    0.000000    0.000000    0.000000    0.000000  -98.619114   26.120123   -5.450149  -25.852293
  0.047655311    0.000000    0.000000    0.000000    0.000000  -97.140099   24.563416   -5.487689  -27.688263
  0.047855711    0.000000    0.000000    0.000000    0.000000 -100.508308   24.455790   -5.523841  -29.490496
  0.048056112    0.000000    0.000000    0.000000    0.000000  -97.715761   33.124836   -5.561230  -31.273518
  0.048256513    0.000000    0.000000    0.000000    0.000000  -99.160546   23.504471   -5.599608  -33.064384
  0.048456914    0.000000    0.000000    0.000000    0.000000  -98.336079   28.056110   -5.632399  -34.854645
  0.048657315    0.000000    0.000000    0.000000    0.000000  -98.822593   28.510054   -5.664947  -36.626549
  0.048857715    0.000000    0.000000    0.000000    0.000000  -98.213786   27.865570   -5.696815  -38.387085
  0.049058116    0.000000    0.000000    0.000000    0.000000  -98.097569   24.122921   -5.725126  -40.151550
  0.049258517    0.000000    0.000000    0.000000    0.000000  -98.919919   29.348745   -5.750226  -41.898075
  0.049458918    0.000000    0.000000    0.000000    0.000000  -98.521278   32.387398   -5.778973  -43.621166
  0.049659319    0.000000    0.000000    0.000000    0.000000  -97.924384   27.304358   -5.808510  -45.346821
  0.049859719    0.000000    0.000000    0.000000    0.000000  -99.258226   27.142744   -5.835228  -47.022064
  0.050060120    0.000000    0.000000    0.000000    0.000000  -99.659429   31.625465   -5.859842  -48.694210
  0.050260521    0.000000    0.000000    0.000000    0.000000  -98.878797   29.909597   -5.881266  -50.370548
  0.050460922    0.000000    0.000000    0.000000    0.000000  -99.320748   32.040474   -5.903756  -52.042553
  0.050661323    0.000000    0.000000    0.000000    0.000000  -99.821312   27.373505   -5.924636  -53.663864
  0.050861723    0.000000    0.000000    0.000000    0.000000 -100.112852   17.839800   -5.941837  -55.280743
  0.051062124    0.000000    0.000000    0.000000    0.000000  -99.859972   38.028969   -5.966088  -56.894295
  0.051262525    0.000000    0.000000    0.000000    0.000000  -97.642439   32.576130   -5.987820  -58.470943
  0.051462926    0.000000    0.000000    0.000000    0.000000  -99.748551   35.498940   -6.010593  -60.034386
  0.051663327    0.000000    0.000000    0.000000    0.000000  -98.881346   36.539001   -6.028939  -61.615635
  0.051863727    0.000000    0.000000    0.000000    0.000000  -97.758119   29.294828   -6.049414  -63.145012
  0.052064128    0.000000    0.000000    0.000000    0.000000  -98.047518   31.417061   -6.067484  -64.703270
  0.052264529    0.000000    0.000000    0.000000    0.000000  -97.240234   29.079182   -6.084045  -66.250854
  0.052464930    0.000000    0.000000    0.000000    0.000000  -99.438860   34.540482   -6.101309  -67.777771
  0.052665331    0.000000    0.000000    0.000000    0.000000  -97.987259   31.596933   -6.119811  -69.279335
  0.052865731    0.000000    0.000000    0.000000    0.000000  -97.622885   29.346823   -6.139936  -70.789001
  0.053066132    0.000000    0.000000    0.000000    0.000000  -98.160527   28.871443   -6.156685  -72.315689
  0.053266533    0.000000    0.000000    0.000000    0.000000  -97.510941   31.571777   -6.174498  -73.798141
  0.053466934    0.000000    0.000000    0.000000    0.000000  -97.409090   25.920511   -6.193347  -75.310936
