! Anritsu VNA Master:                     Model: MS2036C/10/77
! SN:                                  1601066
! /bd0/18may10/255.ew.m7.s2p
! Existing Calibration Information:
! TYPE:                         Current Settings,       Active Cal Settings
! TIME:             	   05/10/2018 01:53:50 PM,    05/10/2018 01:50:32 PM
! INTERNAL TEMP:    	                   56.3 C,                    56.0 C
! # POINTS:         	                      492,                       492
! START FREQ:       	               20.000 MHz,                20.000 MHz
! STOP FREQ:        	          118.396 793 MHz,           118.396 793 MHz
! SOURCE POWER:     	                     High,                      High
! IFBW:             	                    50 Hz,                     50 Hz
! AVG FACTOR:       	                       1 ,                        1 
! REF PLANE 1:      	                     0 mm,                      0 mm
! REF PLANE 2:      	                     0 mm,                      0 mm
! CAL TYPE:         	                 Full S22,                  Full S22
! CAL METHOD:       	                     SOLT,                      SOLT
! CAL LINE TYPE:    	                     Coax,                      Coax
! DUT PORT 1:       	                K-Conn(M),                 K-Conn(M)
! DUT PORT 2:       	                K-Conn(M),                 K-Conn(M)
! CAL STATUS:       	        OK: Accuracy High,                        --
# GHZ S DB R 50.0
! FREQ.GHZ       S11DB        S11A       S21DB        S21A       S12DB        S12A       S22DB        S22A
  0.020000000    0.000000    0.000000    0.000000    0.000000  -89.164408   35.759590   -0.916511 -125.538826
  0.020200401    0.000000    0.000000    0.000000    0.000000  -89.548880   33.201958   -0.927370 -126.979485
  0.020400802    0.000000    0.000000    0.000000    0.000000  -90.212554   34.267715   -0.936448 -128.406448
  0.020601202    0.000000    0.000000    0.000000    0.000000  -90.552952   36.046822   -0.944903 -129.875061
  0.020801603    0.000000    0.000000    0.000000    0.000000  -91.115068   35.135571   -0.956794 -131.356430
  0.021002004    0.000000    0.000000    0.000000    0.000000  -91.317163   35.606529   -0.965251 -132.865906
  0.021202405    0.000000    0.000000    0.000000    0.000000  -91.133428   37.422550   -0.974892 -134.367996
  0.021402806    0.000000    0.000000    0.000000    0.000000  -91.475971   36.137688   -0.984511 -135.849854
  0.021603206    0.000000    0.000000    0.000000    0.000000  -91.473259   38.372078   -0.993431 -137.338959
  0.021803607    0.000000    0.000000    0.000000    0.000000  -91.970742   37.184345   -1.004566 -138.832916
  0.022004008    0.000000    0.000000    0.000000    0.000000  -92.519724   45.320042   -1.014528 -140.327621
  0.022204409    0.000000    0.000000    0.000000    0.000000  -91.420449   43.896549   -1.027293 -141.828552
  0.022404810    0.000000    0.000000    0.000000    0.000000  -92.324306   42.322891   -1.038206 -143.374725
  0.022605210    0.000000    0.000000    0.000000    0.000000  -91.631777   41.456112   -1.047687 -144.923233
  0.022805611    0.000000    0.000000    0.000000    0.000000  -91.955472   40.560780   -1.057683 -146.481323
  0.023006012    0.000000    0.000000    0.000000    0.000000  -91.511967   42.539936   -1.067960 -148.029358
  0.023206413    0.000000    0.000000    0.000000    0.000000  -91.039394   39.557198   -1.075520 -149.569077
  0.023406814    0.000000    0.000000    0.000000    0.000000  -91.798982   42.354530   -1.084421 -151.119781
  0.023607214    0.000000    0.000000    0.000000    0.000000  -90.904394   39.649380   -1.096919 -152.686691
  0.023807615    0.000000    0.000000    0.000000    0.000000  -91.456137   37.503586   -1.111445 -154.266006
  0.024008016    0.000000    0.000000    0.000000    0.000000  -91.435249   39.140194   -1.123977 -155.856522
  0.024208417    0.000000    0.000000    0.000000    0.000000  -91.202000   35.141685   -1.135504 -157.475510
  0.024408818    0.000000    0.000000    0.000000    0.000000  -91.357330   34.576897   -1.146900 -159.100082
  0.024609218    0.000000    0.000000    0.000000    0.000000  -91.307499   32.941513   -1.157869 -160.726532
  0.024809619    0.000000    0.000000    0.000000    0.000000  -92.242989   30.614731   -1.170800 -162.363815
  0.025010020    0.000000    0.000000    0.000000    0.000000  -91.468739   31.092770   -1.186093 -164.009888
  0.025210421    0.000000    0.000000    0.000000    0.000000  -92.033932   32.184689   -1.201547 -165.648911
  0.025410822    0.000000    0.000000    0.000000    0.000000  -91.727411   30.842518   -1.218259 -167.309662
  0.025611222    0.000000    0.000000    0.000000    0.000000  -92.186052   25.349369   -1.233911 -168.981644
  0.025811623    0.000000    0.000000    0.000000    0.000000  -92.833154   26.820372   -1.250327 -170.665390
  0.026012024    0.000000    0.000000    0.000000    0.000000  -93.653795   26.816031   -1.267603 -172.368729
  0.026212425    0.000000    0.000000    0.000000    0.000000  -93.409488   24.402699   -1.283860 -174.079514
  0.026412826    0.000000    0.000000    0.000000    0.000000  -94.009413   26.727474   -1.301158 -175.786331
  0.026613226    0.000000    0.000000    0.000000    0.000000  -93.771479   19.484669   -1.320730 -177.509506
  0.026813627    0.000000    0.000000    0.000000    0.000000  -93.889739   29.703947   -1.340643 -179.255615
  0.027014028    0.000000    0.000000    0.000000    0.000000  -93.566418   26.596327   -1.362960  179.010803
  0.027214429    0.000000    0.000000    0.000000    0.000000  -94.805035   26.787268   -1.384459  177.260757
  0.027414830    0.000000    0.000000    0.000000    0.000000  -94.245329   31.360212   -1.406624  175.506500
  0.027615230    0.000000    0.000000    0.000000    0.000000  -95.608694   25.453419   -1.428401  173.730072
  0.027815631    0.000000    0.000000    0.000000    0.000000  -94.702928   29.257956   -1.452031  171.956863
  0.028016032    0.000000    0.000000    0.000000    0.000000  -94.692930   30.239443   -1.477111  170.157288
  0.028216433    0.000000    0.000000    0.000000    0.000000  -93.488818   26.121937   -1.501844  168.351334
  0.028416834    0.000000    0.000000    0.000000    0.000000  -94.663400   31.472921   -1.529288  166.542419
  0.028617234    0.000000    0.000000    0.000000    0.000000  -94.060301   35.449978   -1.554955  164.728226
  0.028817635    0.000000    0.000000    0.000000    0.000000  -94.237194   32.053776   -1.583000  162.905289
  0.029018036    0.000000    0.000000    0.000000    0.000000  -93.959259   29.475754   -1.611114  161.088638
  0.029218437    0.000000    0.000000    0.000000    0.000000  -94.051892   31.532463   -1.640225  159.247101
  0.029418838    0.000000    0.000000    0.000000    0.000000  -94.349011   29.630423   -1.671207  157.401749
  0.029619238    0.000000    0.000000    0.000000    0.000000  -94.523493   31.172565   -1.700384  155.533646
  0.029819639    0.000000    0.000000    0.000000    0.000000  -94.688962   24.249277   -1.732412  153.653488
  0.030020040    0.000000    0.000000    0.000000    0.000000  -94.536076   30.173433   -1.764240  151.779709
  0.030220441    0.000000    0.000000    0.000000    0.000000  -94.063211   28.854807   -1.795361  149.893814
  0.030420842    0.000000    0.000000    0.000000    0.000000  -94.135266   27.160847   -1.828208  148.015427
  0.030621242    0.000000    0.000000    0.000000    0.000000  -94.233422   26.064411   -1.861105  146.133011
  0.030821643    0.000000    0.000000    0.000000    0.000000  -94.096161   21.175062   -1.897546  144.248642
  0.031022044    0.000000    0.000000    0.000000    0.000000  -94.473778   21.447729   -1.932811  142.328598
  0.031222445    0.000000    0.000000    0.000000    0.000000  -94.522372   24.939627   -1.960762  140.417175
  0.031422846    0.000000    0.000000    0.000000    0.000000  -95.115938   20.400885   -1.997886  138.474380
  0.031623246    0.000000    0.000000    0.000000    0.000000  -94.109139   20.470959   -2.036917  136.507935
  0.031823647    0.000000    0.000000    0.000000    0.000000  -94.417748   17.758728   -2.072875  134.550873
  0.032024048    0.000000    0.000000    0.000000    0.000000  -94.778605   22.033369   -2.111747  132.588608
  0.032224449    0.000000    0.000000    0.000000    0.000000  -95.146344   19.962349   -2.154753  130.621475
  0.032424850    0.000000    0.000000    0.000000    0.000000  -95.746316   24.857716   -2.196423  128.628113
  0.032625250    0.000000    0.000000    0.000000    0.000000  -95.262793   15.755844   -2.235554  126.633308
  0.032825651    0.000000    0.000000    0.000000    0.000000  -96.373380   18.578527   -2.276892  124.621872
  0.033026052    0.000000    0.000000    0.000000    0.000000  -95.950229   23.007860   -2.318102  122.611885
  0.033226453    0.000000    0.000000    0.000000    0.000000  -96.709260   24.047400   -2.360741  120.586487
  0.033426854    0.000000    0.000000    0.000000    0.000000  -96.294505   22.281601   -2.404189  118.566360
  0.033627254    0.000000    0.000000    0.000000    0.000000  -96.157535   23.474957   -2.447316  116.546265
  0.033827655    0.000000    0.000000    0.000000    0.000000  -97.196570   22.753708   -2.490575  114.515373
  0.034028056    0.000000    0.000000    0.000000    0.000000  -96.381639   27.549553   -2.534443  112.490166
  0.034228457    0.000000    0.000000    0.000000    0.000000  -97.703587   19.012119   -2.580194  110.447487
  0.034428858    0.000000    0.000000    0.000000    0.000000  -96.501376   29.941187   -2.627180  108.388168
  0.034629258    0.000000    0.000000    0.000000    0.000000  -97.829404   23.658381   -2.673868  106.296982
  0.034829659    0.000000    0.000000    0.000000    0.000000  -95.989411   25.216408   -2.720159  104.252098
  0.035030060    0.000000    0.000000    0.000000    0.000000  -95.827971   26.325268   -2.769864  102.189247
  0.035230461    0.000000    0.000000    0.000000    0.000000  -96.440221   27.137272   -2.818333  100.123337
  0.035430862    0.000000    0.000000    0.000000    0.000000  -94.915053   23.732264   -2.865950   98.056221
  0.035631262    0.000000    0.000000    0.000000    0.000000  -95.837814   25.010408   -2.915105   95.980614
  0.035831663    0.000000    0.000000    0.000000    0.000000  -96.545381   24.077152   -2.964177   93.888580
  0.036032064    0.000000    0.000000    0.000000    0.000000  -95.982349   24.090961   -3.011918   91.836235
  0.036232465    0.000000    0.000000    0.000000    0.000000  -95.981781   23.379770   -3.059752   89.736977
  0.036432866    0.000000    0.000000    0.000000    0.000000  -96.010432   29.951473   -3.108556   87.654045
  0.036633266    0.000000    0.000000    0.000000    0.000000  -97.009849   23.637489   -3.150639   85.559212
  0.036833667    0.000000    0.000000    0.000000    0.000000  -96.910741   20.059973   -3.198243   83.461479
  0.037034068    0.000000    0.000000    0.000000    0.000000  -97.081884   22.119204   -3.238600   81.359406
  0.037234469    0.000000    0.000000    0.000000    0.000000  -98.321278   20.992023   -3.277163   79.225319
  0.037434870    0.000000    0.000000    0.000000    0.000000  -97.751838   27.003029   -3.315404   77.070625
  0.037635270    0.000000    0.000000    0.000000    0.000000  -96.894123   26.807440   -3.347243   74.862106
  0.037835671    0.000000    0.000000    0.000000    0.000000  -97.632707   26.769484   -3.389064   72.547310
  0.038036072    0.000000    0.000000    0.000000    0.000000  -97.394771   20.435287   -3.442764   70.177299
  0.038236473    0.000000    0.000000    0.000000    0.000000  -97.826123   15.749865   -3.515921   67.838501
  0.038436874    0.000000    0.000000    0.000000    0.000000  -97.366521   24.821890   -3.598192   65.573364
  0.038637274    0.000000    0.000000    0.000000    0.000000  -97.469690   24.992462   -3.676557   63.394962
  0.038837675    0.000000    0.000000    0.000000    0.000000  -97.944636   24.821747   -3.749859   61.276699
  0.039038076    0.000000    0.000000    0.000000    0.000000  -96.294121   25.752699   -3.813924   59.171761
  0.039238477    0.000000    0.000000    0.000000    0.000000  -97.727810   28.333567   -3.876686   57.090107
  0.039438878    0.000000    0.000000    0.000000    0.000000  -98.119998   20.508085   -3.938537   54.971512
  0.039639278    0.000000    0.000000    0.000000    0.000000  -98.720230   29.548347   -3.997220   52.886379
  0.039839679    0.000000    0.000000    0.000000    0.000000  -97.719567   22.916634   -4.053202   50.792030
  0.040040080    0.000000    0.000000    0.000000    0.000000  -97.445727   30.255383   -4.106104   48.671951
  0.040240481    0.000000    0.000000    0.000000    0.000000  -97.837788   28.889917   -4.158591   46.565659
  0.040440882    0.000000    0.000000    0.000000    0.000000  -97.530666   29.690111   -4.209925   44.463543
  0.040641283    0.000000    0.000000    0.000000    0.000000  -98.742446   31.690962   -4.261379   42.368988
  0.040841683    0.000000    0.000000    0.000000    0.000000  -97.793115   24.359962   -4.313265   40.267101
  0.041042084    0.000000    0.000000    0.000000    0.000000  -96.700919   33.867428   -4.363547   38.183010
  0.041242485    0.000000    0.000000    0.000000    0.000000  -98.024617   30.136259   -4.415297   36.081467
  0.041442886    0.000000    0.000000    0.000000    0.000000  -97.942233   27.301754   -4.466789   33.986126
  0.041643287    0.000000    0.000000    0.000000    0.000000  -98.107516   34.101788   -4.515532   31.890310
  0.041843687    0.000000    0.000000    0.000000    0.000000  -97.373244   32.285309   -4.563650   29.779543
  0.042044088    0.000000    0.000000    0.000000    0.000000  -97.727037   24.795668   -4.608617   27.692974
  0.042244489    0.000000    0.000000    0.000000    0.000000  -98.594191   18.425917   -4.656788   25.636181
  0.042444890    0.000000    0.000000    0.000000    0.000000  -97.402091   28.502344   -4.704333   23.562260
  0.042645291    0.000000    0.000000    0.000000    0.000000  -98.557971   26.950689   -4.753729   21.504904
  0.042845691    0.000000    0.000000    0.000000    0.000000  -97.785064   27.815439   -4.799566   19.455709
  0.043046092    0.000000    0.000000    0.000000    0.000000  -98.685685   22.937220   -4.843080   17.399094
  0.043246493    0.000000    0.000000    0.000000    0.000000  -98.329717   29.044554   -4.889130   15.337870
  0.043446894    0.000000    0.000000    0.000000    0.000000  -98.406309   31.227365   -4.931339   13.306528
  0.043647295    0.000000    0.000000    0.000000    0.000000  -97.523581   22.291151   -4.973046   11.255352
  0.043847695    0.000000    0.000000    0.000000    0.000000  -99.158514   31.218618   -5.012837    9.233594
  0.044048096    0.000000    0.000000    0.000000    0.000000  -98.686256   37.898716   -5.051803    7.220058
  0.044248497    0.000000    0.000000    0.000000    0.000000 -100.370489   29.228704   -5.092687    5.212071
  0.044448898    0.000000    0.000000    0.000000    0.000000  -98.733618   31.088928   -5.130450    3.214988
  0.044649299    0.000000    0.000000    0.000000    0.000000  -98.748697   36.228214   -5.167630    1.237664
  0.044849699    0.000000    0.000000    0.000000    0.000000  -99.645356   29.365654   -5.202176   -0.751572
  0.045050100    0.000000    0.000000    0.000000    0.000000  -98.701898   31.314556   -5.239367   -2.725452
  0.045250501    0.000000    0.000000    0.000000    0.000000  -98.060859   30.250120   -5.273052   -4.689657
  0.045450902    0.000000    0.000000    0.000000    0.000000  -98.622296   34.013912   -5.306165   -6.646821
  0.045651303    0.000000    0.000000    0.000000    0.000000  -99.753431   27.097631   -5.336359   -8.614451
  0.045851703    0.000000    0.000000    0.000000    0.000000  -99.027635   39.585602   -5.368285  -10.548732
  0.046052104    0.000000    0.000000    0.000000    0.000000  -98.493198   31.442663   -5.397248  -12.480359
  0.046252505    0.000000    0.000000    0.000000    0.000000  -98.463638   24.688936   -5.424137  -14.387322
  0.046452906    0.000000    0.000000    0.000000    0.000000  -98.119049   33.498295   -5.454331  -16.293839
  0.046653307    0.000000    0.000000    0.000000    0.000000  -99.982084   32.868881   -5.480035  -18.197580
  0.046853707    0.000000    0.000000    0.000000    0.000000  -98.434214   33.121887   -5.508314  -20.087917
  0.047054108    0.000000    0.000000    0.000000    0.000000  -98.878046   28.874817   -5.534984  -21.965244
  0.047254509    0.000000    0.000000    0.000000    0.000000  -99.894573   35.362640   -5.557923  -23.854988
  0.047454910    0.000000    0.000000    0.000000    0.000000  -98.165864   32.489117   -5.580276  -25.733137
  0.047655311    0.000000    0.000000    0.000000    0.000000  -99.747895   34.363636   -5.604696  -27.582277
  0.047855711    0.000000    0.000000    0.000000    0.000000  -98.099318   24.792431   -5.626744  -29.403780
  0.048056112    0.000000    0.000000    0.000000    0.000000  -98.974169   41.421249   -5.646894  -31.214935
  0.048256513    0.000000    0.000000    0.000000    0.000000  -99.190500   33.231812   -5.670224  -33.037663
  0.048456914    0.000000    0.000000    0.000000    0.000000  -99.395783   34.699528   -5.691928  -34.830978
  0.048657315    0.000000    0.000000    0.000000    0.000000  -99.548877   32.205990   -5.714009  -36.646446
  0.048857715    0.000000    0.000000    0.000000    0.000000  -99.398341   34.097530   -5.730943  -38.424679
  0.049058116    0.000000    0.000000    0.000000    0.000000  -98.742003   31.652172   -5.747226  -40.202366
  0.049258517    0.000000    0.000000    0.000000    0.000000  -99.910943   28.920992   -5.762547  -41.984413
  0.049458918    0.000000    0.000000    0.000000    0.000000  -98.213158   37.489685   -5.778319  -43.703320
  0.049659319    0.000000    0.000000    0.000000    0.000000 -100.236864   31.180981   -5.799005  -45.453075
  0.049859719    0.000000    0.000000    0.000000    0.000000  -99.105099   30.002151   -5.813657  -47.165180
  0.050060120    0.000000    0.000000    0.000000    0.000000  -97.690641   35.593079   -5.829164  -48.884125
  0.050260521    0.000000    0.000000    0.000000    0.000000 -100.474220   31.061323   -5.844049  -50.589119
  0.050460922    0.000000    0.000000    0.000000    0.000000  -98.695404   39.926861   -5.853624  -52.282997
  0.050661323    0.000000    0.000000    0.000000    0.000000  -98.987556   33.411175   -5.865550  -53.984272
  0.050861723    0.000000    0.000000    0.000000    0.000000  -98.338989   34.118145   -5.875169  -55.632233
  0.051062124    0.000000    0.000000    0.000000    0.000000  -97.874548   36.640667   -5.888059  -57.306252
  0.051262525    0.000000    0.000000    0.000000    0.000000  -97.692904   27.474089   -5.900492  -58.942722
  0.051462926    0.000000    0.000000    0.000000    0.000000  -99.075464   39.071491   -5.911561  -60.587608
  0.051663327    0.000000    0.000000    0.000000    0.000000  -98.697953   27.574713   -5.921400  -62.206127
  0.051863727    0.000000    0.000000    0.000000    0.000000  -98.930954   42.911335   -5.930315  -63.815987
  0.052064128    0.000000    0.000000    0.000000    0.000000  -98.394075   33.927502   -5.935225  -65.415390
  0.052264529    0.000000    0.000000    0.000000    0.000000  -97.872803   38.503349   -5.940706  -67.018486
  0.052464930    0.000000    0.000000    0.000000    0.000000  -99.158855   32.268337   -5.947780  -68.595284
  0.052665331    0.000000    0.000000    0.000000    0.000000  -98.344912   32.632038   -5.953946  -70.170708
  0.052865731    0.000000    0.000000    0.000000    0.000000  -97.644950   29.802031   -5.961194  -71.721184
