! Anritsu VNA Master:                     Model: MS2036C/10/77
! SN:                                  1601066
! /bd0/18may10/255.ew.m8.s2p
! Existing Calibration Information:
! TYPE:                         Current Settings,       Active Cal Settings
! TIME:             	   05/10/2018 01:56:29 PM,    05/10/2018 01:50:32 PM
! INTERNAL TEMP:    	                   56.5 C,                    56.0 C
! # POINTS:         	                      492,                       492
! START FREQ:       	               20.000 MHz,                20.000 MHz
! STOP FREQ:        	          118.396 793 MHz,           118.396 793 MHz
! SOURCE POWER:     	                     High,                      High
! IFBW:             	                    50 Hz,                     50 Hz
! AVG FACTOR:       	                       1 ,                        1 
! REF PLANE 1:      	                     0 mm,                      0 mm
! REF PLANE 2:      	                     0 mm,                      0 mm
! CAL TYPE:         	                 Full S22,                  Full S22
! CAL METHOD:       	                     SOLT,                      SOLT
! CAL LINE TYPE:    	                     Coax,                      Coax
! DUT PORT 1:       	                K-Conn(M),                 K-Conn(M)
! DUT PORT 2:       	                K-Conn(M),                 K-Conn(M)
! CAL STATUS:       	        OK: Accuracy High,                        --
# GHZ S DB R 50.0
! FREQ.GHZ       S11DB        S11A       S21DB        S21A       S12DB        S12A       S22DB        S22A
  0.020000000    0.000000    0.000000    0.000000    0.000000  -89.338779   32.020172   -0.917499 -125.538780
  0.020200401    0.000000    0.000000    0.000000    0.000000  -89.838298   31.425072   -0.928153 -126.985771
  0.020400802    0.000000    0.000000    0.000000    0.000000  -90.093360   33.504868   -0.936681 -128.412628
  0.020601202    0.000000    0.000000    0.000000    0.000000  -90.057607   34.008713   -0.946474 -129.877884
  0.020801603    0.000000    0.000000    0.000000    0.000000  -90.468894   33.792328   -0.961644 -131.355453
  0.021002004    0.000000    0.000000    0.000000    0.000000  -91.041168   35.638000   -0.969303 -132.860916
  0.021202405    0.000000    0.000000    0.000000    0.000000  -91.520081   35.630463   -0.979844 -134.365601
  0.021402806    0.000000    0.000000    0.000000    0.000000  -91.438135   37.525757   -0.989171 -135.851944
  0.021603206    0.000000    0.000000    0.000000    0.000000  -91.609535   39.250881   -0.997795 -137.346573
  0.021803607    0.000000    0.000000    0.000000    0.000000  -91.392500   36.872665   -1.008431 -138.844971
  0.022004008    0.000000    0.000000    0.000000    0.000000  -91.925769   39.998310   -1.017454 -140.346161
  0.022204409    0.000000    0.000000    0.000000    0.000000  -91.900865   41.914082   -1.029673 -141.850403
  0.022404810    0.000000    0.000000    0.000000    0.000000  -91.885521   44.362156   -1.038576 -143.400101
  0.022605210    0.000000    0.000000    0.000000    0.000000  -91.955430   43.232361   -1.050538 -144.946762
  0.022805611    0.000000    0.000000    0.000000    0.000000  -92.293756   41.833633   -1.061472 -146.506073
  0.023006012    0.000000    0.000000    0.000000    0.000000  -91.348872   46.093048   -1.071584 -148.044525
  0.023206413    0.000000    0.000000    0.000000    0.000000  -91.544079   41.808643   -1.078613 -149.594864
  0.023406814    0.000000    0.000000    0.000000    0.000000  -91.401378   42.697948   -1.087066 -151.148346
  0.023607214    0.000000    0.000000    0.000000    0.000000  -92.033424   40.754505   -1.099099 -152.710571
  0.023807615    0.000000    0.000000    0.000000    0.000000  -91.355554   38.918362   -1.113189 -154.289597
  0.024008016    0.000000    0.000000    0.000000    0.000000  -90.465134   34.339634   -1.126918 -155.873978
  0.024208417    0.000000    0.000000    0.000000    0.000000  -91.719896   36.902584   -1.137914 -157.495422
  0.024408818    0.000000    0.000000    0.000000    0.000000  -90.924263   33.617462   -1.146164 -159.114868
  0.024609218    0.000000    0.000000    0.000000    0.000000  -91.462020   30.910000   -1.158538 -160.740738
  0.024809619    0.000000    0.000000    0.000000    0.000000  -91.792579   30.781908   -1.170938 -162.372742
  0.025010020    0.000000    0.000000    0.000000    0.000000  -91.878048   31.904367   -1.186307 -164.014816
  0.025210421    0.000000    0.000000    0.000000    0.000000  -91.997182   29.941278   -1.199859 -165.649460
  0.025410822    0.000000    0.000000    0.000000    0.000000  -92.328578   28.923658   -1.216854 -167.303299
  0.025611222    0.000000    0.000000    0.000000    0.000000  -92.021720   22.974764   -1.232278 -168.969147
  0.025811623    0.000000    0.000000    0.000000    0.000000  -92.557867   30.038094   -1.248370 -170.650894
  0.026012024    0.000000    0.000000    0.000000    0.000000  -92.856336   24.118683   -1.265507 -172.344955
  0.026212425    0.000000    0.000000    0.000000    0.000000  -93.361943   24.067604   -1.281659 -174.058014
  0.026412826    0.000000    0.000000    0.000000    0.000000  -93.237759   23.553768   -1.298751 -175.762909
  0.026613226    0.000000    0.000000    0.000000    0.000000  -93.559533   22.492296   -1.317589 -177.473740
  0.026813627    0.000000    0.000000    0.000000    0.000000  -94.320838   26.577015   -1.337905 -179.219009
  0.027014028    0.000000    0.000000    0.000000    0.000000  -93.593820   27.563871   -1.359284  179.047104
  0.027214429    0.000000    0.000000    0.000000    0.000000  -94.287425   30.599735   -1.380911  177.300491
  0.027414830    0.000000    0.000000    0.000000    0.000000  -94.419945   25.888990   -1.404495  175.547241
  0.027615230    0.000000    0.000000    0.000000    0.000000  -94.451037   32.945618   -1.426431  173.778336
  0.027815631    0.000000    0.000000    0.000000    0.000000  -94.423375   27.492277   -1.449046  171.994156
  0.028016032    0.000000    0.000000    0.000000    0.000000  -94.509869   30.372795   -1.473540  170.199203
  0.028216433    0.000000    0.000000    0.000000    0.000000  -94.358723   31.097994   -1.499540  168.389374
  0.028416834    0.000000    0.000000    0.000000    0.000000  -94.356397   33.137413   -1.527035  166.580170
  0.028617234    0.000000    0.000000    0.000000    0.000000  -95.207740   31.074198   -1.553587  164.762070
  0.028817635    0.000000    0.000000    0.000000    0.000000  -94.268691   33.119225   -1.581354  162.936874
  0.029018036    0.000000    0.000000    0.000000    0.000000  -94.179543   30.564308   -1.610334  161.119415
  0.029218437    0.000000    0.000000    0.000000    0.000000  -94.821857   28.847691   -1.639352  159.272751
  0.029418838    0.000000    0.000000    0.000000    0.000000  -94.211877   31.017097   -1.671407  157.427139
  0.029619238    0.000000    0.000000    0.000000    0.000000  -94.669938   29.335228   -1.700849  155.550995
  0.029819639    0.000000    0.000000    0.000000    0.000000  -93.973083   31.430950   -1.731744  153.669189
  0.030020040    0.000000    0.000000    0.000000    0.000000  -94.431747   26.453356   -1.764197  151.788391
  0.030220441    0.000000    0.000000    0.000000    0.000000  -94.016562   28.300413   -1.796101  149.902222
  0.030420842    0.000000    0.000000    0.000000    0.000000  -94.319919   25.460560   -1.828774  148.015015
  0.030621242    0.000000    0.000000    0.000000    0.000000  -94.034099   24.040443   -1.863757  146.122391
  0.030821643    0.000000    0.000000    0.000000    0.000000  -94.405033   24.419416   -1.898861  144.238358
  0.031022044    0.000000    0.000000    0.000000    0.000000  -94.739913   22.324881   -1.934541  142.309296
  0.031222445    0.000000    0.000000    0.000000    0.000000  -93.922539   18.538017   -1.962852  140.402985
  0.031422846    0.000000    0.000000    0.000000    0.000000  -94.709170   24.510059   -1.999638  138.448914
  0.031623246    0.000000    0.000000    0.000000    0.000000  -94.548923   17.354769   -2.038705  136.482254
  0.031823647    0.000000    0.000000    0.000000    0.000000  -95.151861   18.327326   -2.074256  134.525650
  0.032024048    0.000000    0.000000    0.000000    0.000000  -94.689547   16.719015   -2.113536  132.552216
  0.032224449    0.000000    0.000000    0.000000    0.000000  -95.147325   17.269873   -2.155050  130.587265
  0.032424850    0.000000    0.000000    0.000000    0.000000  -95.777314   21.909407   -2.196300  128.595093
  0.032625250    0.000000    0.000000    0.000000    0.000000  -95.103529   22.505964   -2.235641  126.605576
  0.032825651    0.000000    0.000000    0.000000    0.000000  -96.845346   15.163489   -2.275471  124.596779
  0.033026052    0.000000    0.000000    0.000000    0.000000  -96.175567   19.559769   -2.317021  122.578468
  0.033226453    0.000000    0.000000    0.000000    0.000000  -96.828607   23.624018   -2.358453  120.552170
  0.033426854    0.000000    0.000000    0.000000    0.000000  -95.625832   20.042543   -2.401871  118.535339
  0.033627254    0.000000    0.000000    0.000000    0.000000  -96.645582   24.701729   -2.444374  116.523079
  0.033827655    0.000000    0.000000    0.000000    0.000000  -96.813877   22.807224   -2.486814  114.494926
  0.034028056    0.000000    0.000000    0.000000    0.000000  -95.745307   27.469572   -2.532073  112.486847
  0.034228457    0.000000    0.000000    0.000000    0.000000  -95.638697   26.559715   -2.576668  110.437256
  0.034428858    0.000000    0.000000    0.000000    0.000000  -96.446674   27.258381   -2.624327  108.392937
  0.034629258    0.000000    0.000000    0.000000    0.000000  -96.831344   25.272020   -2.669845  106.304733
  0.034829659    0.000000    0.000000    0.000000    0.000000  -95.337220   23.028383   -2.715688  104.253014
  0.035030060    0.000000    0.000000    0.000000    0.000000  -96.590263   24.200735   -2.766393  102.210495
  0.035230461    0.000000    0.000000    0.000000    0.000000  -95.345434   33.270027   -2.814968  100.148026
  0.035430862    0.000000    0.000000    0.000000    0.000000  -96.294455   30.590672   -2.862210   98.074135
  0.035631262    0.000000    0.000000    0.000000    0.000000  -95.954816   20.661451   -2.911647   96.018318
  0.035831663    0.000000    0.000000    0.000000    0.000000  -96.440705   27.532793   -2.960940   93.925705
  0.036032064    0.000000    0.000000    0.000000    0.000000  -95.792489   22.353220   -3.010851   91.858475
  0.036232465    0.000000    0.000000    0.000000    0.000000  -96.417789   19.318115   -3.059354   89.771454
  0.036432866    0.000000    0.000000    0.000000    0.000000  -96.695633   23.224310   -3.105938   87.689232
  0.036633266    0.000000    0.000000    0.000000    0.000000  -96.289195   18.606171   -3.149267   85.594910
  0.036833667    0.000000    0.000000    0.000000    0.000000  -96.869432   28.431551   -3.198594   83.495514
  0.037034068    0.000000    0.000000    0.000000    0.000000  -97.058250   26.839275   -3.240234   81.391678
  0.037234469    0.000000    0.000000    0.000000    0.000000  -98.167522   14.653717   -3.280487   79.259689
  0.037434870    0.000000    0.000000    0.000000    0.000000  -97.692648   17.439226   -3.316933   77.098801
  0.037635270    0.000000    0.000000    0.000000    0.000000  -97.059107   22.255865   -3.352862   74.884903
  0.037835671    0.000000    0.000000    0.000000    0.000000  -97.398368   24.317570   -3.394273   72.565445
  0.038036072    0.000000    0.000000    0.000000    0.000000  -96.998639   19.963104   -3.448799   70.183235
  0.038236473    0.000000    0.000000    0.000000    0.000000  -97.299499   21.983458   -3.523048   67.842545
  0.038436874    0.000000    0.000000    0.000000    0.000000  -98.034414   27.501472   -3.605102   65.557518
  0.038637274    0.000000    0.000000    0.000000    0.000000  -97.725745   17.592726   -3.682531   63.393917
  0.038837675    0.000000    0.000000    0.000000    0.000000  -97.240084   27.872307   -3.756427   61.254757
  0.039038076    0.000000    0.000000    0.000000    0.000000  -98.302535   34.188293   -3.821582   59.148640
  0.039238477    0.000000    0.000000    0.000000    0.000000  -99.044174   31.818491   -3.882942   57.037018
  0.039438878    0.000000    0.000000    0.000000    0.000000  -98.405171   30.959097   -3.945719   54.931450
  0.039639278    0.000000    0.000000    0.000000    0.000000  -98.802263   34.105064   -4.004218   52.837978
  0.039839679    0.000000    0.000000    0.000000    0.000000  -97.756569   26.937796   -4.060233   50.727005
  0.040040080    0.000000    0.000000    0.000000    0.000000  -98.268083   17.382092   -4.111733   48.605450
  0.040240481    0.000000    0.000000    0.000000    0.000000  -97.436880   20.152788   -4.163647   46.482658
  0.040440882    0.000000    0.000000    0.000000    0.000000  -98.703377   32.500919   -4.212322   44.386932
  0.040641283    0.000000    0.000000    0.000000    0.000000  -98.736569   33.057106   -4.263420   42.294029
  0.040841683    0.000000    0.000000    0.000000    0.000000  -96.682350   32.660934   -4.313932   40.192516
  0.041042084    0.000000    0.000000    0.000000    0.000000  -99.088434   32.833469   -4.365203   38.110542
  0.041242485    0.000000    0.000000    0.000000    0.000000  -97.528053   25.476526   -4.414356   36.021694
  0.041442886    0.000000    0.000000    0.000000    0.000000  -97.126686   31.683643   -4.466659   33.926167
  0.041643287    0.000000    0.000000    0.000000    0.000000  -96.498588   29.699892   -4.514105   31.825132
  0.041843687    0.000000    0.000000    0.000000    0.000000  -97.952663   28.588215   -4.561640   29.735580
  0.042044088    0.000000    0.000000    0.000000    0.000000  -99.044744   24.947618   -4.605699   27.647474
  0.042244489    0.000000    0.000000    0.000000    0.000000  -97.430632   27.392946   -4.655143   25.591772
  0.042444890    0.000000    0.000000    0.000000    0.000000  -98.440887   30.386719   -4.701039   23.538183
  0.042645291    0.000000    0.000000    0.000000    0.000000  -97.839645   34.845207   -4.749745   21.481678
  0.042845691    0.000000    0.000000    0.000000    0.000000  -98.055184   24.593527   -4.798000   19.428730
  0.043046092    0.000000    0.000000    0.000000    0.000000  -99.128616   22.591034   -4.841990   17.395267
  0.043246493    0.000000    0.000000    0.000000    0.000000  -98.503399   29.652910   -4.887535   15.332480
  0.043446894    0.000000    0.000000    0.000000    0.000000  -98.445534   22.561249   -4.931276   13.299472
  0.043647295    0.000000    0.000000    0.000000    0.000000  -98.713297   25.845869   -4.973158   11.258917
  0.043847695    0.000000    0.000000    0.000000    0.000000  -99.358778   26.959112   -5.011074    9.229441
  0.044048096    0.000000    0.000000    0.000000    0.000000  -98.508034   25.894262   -5.052440    7.223658
  0.044248497    0.000000    0.000000    0.000000    0.000000  -99.658023   20.980949   -5.090786    5.220407
  0.044448898    0.000000    0.000000    0.000000    0.000000  -98.268847   27.678017   -5.130335    3.219244
  0.044649299    0.000000    0.000000    0.000000    0.000000  -97.927898   30.009871   -5.169214    1.239823
  0.044849699    0.000000    0.000000    0.000000    0.000000  -99.481925   31.846716   -5.205727   -0.746807
  0.045050100    0.000000    0.000000    0.000000    0.000000  -98.789022   30.179901   -5.242124   -2.722280
  0.045250501    0.000000    0.000000    0.000000    0.000000  -99.637357   34.818825   -5.275892   -4.688978
  0.045450902    0.000000    0.000000    0.000000    0.000000  -98.707163   35.227520   -5.309706   -6.653381
  0.045651303    0.000000    0.000000    0.000000    0.000000  -99.878187   32.600140   -5.339171   -8.622888
  0.045851703    0.000000    0.000000    0.000000    0.000000  -98.662076   29.547514   -5.369144  -10.546698
  0.046052104    0.000000    0.000000    0.000000    0.000000  -97.761129   29.487804   -5.396628  -12.510150
  0.046252505    0.000000    0.000000    0.000000    0.000000  -97.883511   30.501986   -5.428430  -14.394479
  0.046452906    0.000000    0.000000    0.000000    0.000000  -98.060549   33.293289   -5.455070  -16.304323
  0.046653307    0.000000    0.000000    0.000000    0.000000  -97.269309   27.930429   -5.482795  -18.211845
  0.046853707    0.000000    0.000000    0.000000    0.000000  -98.521660   25.276014   -5.509079  -20.107134
  0.047054108    0.000000    0.000000    0.000000    0.000000  -99.054939   25.355427   -5.534555  -21.976604
  0.047254509    0.000000    0.000000    0.000000    0.000000  -97.927501   31.172590   -5.560059  -23.858845
  0.047454910    0.000000    0.000000    0.000000    0.000000  -99.401223   29.459759   -5.582951  -25.733175
  0.047655311    0.000000    0.000000    0.000000    0.000000  -98.885458   23.887178   -5.604766  -27.575737
  0.047855711    0.000000    0.000000    0.000000    0.000000  -98.174734   36.954948   -5.625704  -29.392750
  0.048056112    0.000000    0.000000    0.000000    0.000000  -97.363986   29.464384   -5.649075  -31.197336
  0.048256513    0.000000    0.000000    0.000000    0.000000  -99.288715   35.580002   -5.670086  -33.025127
  0.048456914    0.000000    0.000000    0.000000    0.000000  -99.695114   27.585762   -5.690679  -34.814625
  0.048657315    0.000000    0.000000    0.000000    0.000000  -99.413646   29.336449   -5.711256  -36.618610
  0.048857715    0.000000    0.000000    0.000000    0.000000  -98.664765   30.343382   -5.731162  -38.387352
  0.049058116    0.000000    0.000000    0.000000    0.000000  -99.816202   20.713718   -5.748229  -40.165798
  0.049258517    0.000000    0.000000    0.000000    0.000000 -100.559067   33.886692   -5.762724  -41.944019
  0.049458918    0.000000    0.000000    0.000000    0.000000 -100.128501   24.448101   -5.781483  -43.661293
  0.049659319    0.000000    0.000000    0.000000    0.000000  -99.612685   33.237118   -5.799857  -45.420258
  0.049859719    0.000000    0.000000    0.000000    0.000000  -99.719474   30.279940   -5.817631  -47.120708
  0.050060120    0.000000    0.000000    0.000000    0.000000  -99.058007   32.471878   -5.832882  -48.837391
  0.050260521    0.000000    0.000000    0.000000    0.000000  -99.335722   36.262512   -5.849093  -50.556374
  0.050460922    0.000000    0.000000    0.000000    0.000000  -98.598841   27.796934   -5.859845  -52.245983
  0.050661323    0.000000    0.000000    0.000000    0.000000  -99.348780   34.689674   -5.872613  -53.948982
  0.050861723    0.000000    0.000000    0.000000    0.000000 -100.122529   30.948790   -5.880680  -55.608311
  0.051062124    0.000000    0.000000    0.000000    0.000000  -98.576550   35.884392   -5.897241  -57.288567
  0.051262525    0.000000    0.000000    0.000000    0.000000  -97.935558   31.645281   -5.909694  -58.930191
  0.051462926    0.000000    0.000000    0.000000    0.000000  -98.427055   34.436493   -5.921385  -60.581490
  0.051663327    0.000000    0.000000    0.000000    0.000000  -99.273844   32.070869   -5.931254  -62.210819
  0.051863727    0.000000    0.000000    0.000000    0.000000  -98.889067   38.671902   -5.939856  -63.842960
  0.052064128    0.000000    0.000000    0.000000    0.000000  -98.653218   21.541233   -5.946586  -65.443298
  0.052264529    0.000000    0.000000    0.000000    0.000000  -98.163606   31.372934   -5.950546  -67.048477
  0.052464930    0.000000    0.000000    0.000000    0.000000  -99.168895   22.777029   -5.956729  -68.635040
  0.052665331    0.000000    0.000000    0.000000    0.000000  -97.927983   34.886303   -5.961977  -70.209671
  0.052865731    0.000000    0.000000    0.000000    0.000000 -100.321355   26.661861   -5.970433  -71.773262
