! Anritsu VNA Master:                     Model: MS2036C/10/77
! SN:                                  1601066
! /card0/usr/18may27.balun/252b.m4.s2p
! Existing Calibration Information:
! TYPE:                         Current Settings,       Active Cal Settings
! TIME:             	   05/27/2018 12:53:22 PM,    05/27/2018 12:49:51 PM
! INTERNAL TEMP:    	                   52.5 C,                    52.5 C
! # POINTS:         	                      500,                       500
! START FREQ:       	               20.000 MHz,                20.000 MHz
! STOP FREQ:        	              120.000 MHz,               120.000 MHz
! SOURCE POWER:     	                     High,                      High
! IFBW:             	                    50 Hz,                     50 Hz
! AVG FACTOR:       	                       1 ,                        1 
! REF PLANE 1:      	                     0 mm,                      0 mm
! REF PLANE 2:      	                     0 mm,                      0 mm
! CAL TYPE:         	                 Full S11,                  Full S11
! CAL METHOD:       	                     SOLT,                      SOLT
! CAL LINE TYPE:    	                     Coax,                      Coax
! DUT PORT 1:       	                K-Conn(M),                 K-Conn(M)
! DUT PORT 2:       	                K-Conn(M),                 K-Conn(M)
! CAL STATUS:       	        OK: Accuracy High,                        --
# GHZ S DB R 50.0
! FREQ.GHZ       S11DB        S11A       S21DB        S21A       S12DB        S12A       S22DB        S22A
  0.020000000   -0.629436 -125.593269  -90.942393   27.085630    0.000000    0.000000    0.000000    0.000000
  0.020200401   -0.628884 -127.072472  -91.387141   30.232185    0.000000    0.000000    0.000000    0.000000
  0.020400802   -0.627557 -128.525024  -91.146683   31.772196    0.000000    0.000000    0.000000    0.000000
  0.020601202   -0.627621 -129.947708  -92.243392   28.620213    0.000000    0.000000    0.000000    0.000000
  0.020801603   -0.632120 -131.409439  -92.201600   29.029434    0.000000    0.000000    0.000000    0.000000
  0.021002004   -0.639328 -132.904663  -92.568165   31.340378    0.000000    0.000000    0.000000    0.000000
  0.021202405   -0.647917 -134.412308  -93.344683   33.257339    0.000000    0.000000    0.000000    0.000000
  0.021402806   -0.655194 -135.924393  -93.158852   39.470764    0.000000    0.000000    0.000000    0.000000
  0.021603206   -0.660055 -137.416946  -94.352783   28.750278    0.000000    0.000000    0.000000    0.000000
  0.021803607   -0.666251 -138.920654  -92.843256   34.574276    0.000000    0.000000    0.000000    0.000000
  0.022004008   -0.672781 -140.441040  -92.370889   35.329250    0.000000    0.000000    0.000000    0.000000
  0.022204409   -0.678872 -141.991272  -92.874079   36.284473    0.000000    0.000000    0.000000    0.000000
  0.022404810   -0.680951 -143.556122  -92.778741   32.858704    0.000000    0.000000    0.000000    0.000000
  0.022605210   -0.682523 -145.083786  -92.796316   37.139946    0.000000    0.000000    0.000000    0.000000
  0.022805611   -0.683197 -146.625549  -92.489679   32.487610    0.000000    0.000000    0.000000    0.000000
  0.023006012   -0.688632 -148.146423  -93.469938   31.887886    0.000000    0.000000    0.000000    0.000000
  0.023206413   -0.694119 -149.697342  -93.085217   31.797884    0.000000    0.000000    0.000000    0.000000
  0.023406814   -0.703227 -151.272797  -92.341490   33.531490    0.000000    0.000000    0.000000    0.000000
  0.023607214   -0.709687 -152.873062  -93.216418   31.884119    0.000000    0.000000    0.000000    0.000000
  0.023807615   -0.718001 -154.449234  -92.343124   25.277824    0.000000    0.000000    0.000000    0.000000
  0.024008016   -0.725772 -156.029572  -93.168496   27.154385    0.000000    0.000000    0.000000    0.000000
  0.024208417   -0.734388 -157.622025  -93.205716   24.669996    0.000000    0.000000    0.000000    0.000000
  0.024408818   -0.746801 -159.233795  -93.574729   14.554595    0.000000    0.000000    0.000000    0.000000
  0.024609218   -0.756958 -160.871399  -94.014147   15.252291    0.000000    0.000000    0.000000    0.000000
  0.024809619   -0.763307 -162.533249  -94.075220   20.925198    0.000000    0.000000    0.000000    0.000000
  0.025010020   -0.769032 -164.191833  -94.157917   21.638447    0.000000    0.000000    0.000000    0.000000
  0.025210421   -0.776478 -165.845474  -94.974608   19.102228    0.000000    0.000000    0.000000    0.000000
  0.025410822   -0.785870 -167.509232  -95.734053   20.444065    0.000000    0.000000    0.000000    0.000000
  0.025611222   -0.795192 -169.168320  -95.054543   19.587870    0.000000    0.000000    0.000000    0.000000
  0.025811623   -0.805542 -170.843460  -95.335094   22.070015    0.000000    0.000000    0.000000    0.000000
  0.026012024   -0.814327 -172.548248  -95.803547   25.008278    0.000000    0.000000    0.000000    0.000000
  0.026212425   -0.828505 -174.252518  -95.937286   22.987465    0.000000    0.000000    0.000000    0.000000
  0.026412826   -0.844010 -175.962952  -95.748476   25.381531    0.000000    0.000000    0.000000    0.000000
  0.026613226   -0.861065 -177.695297  -95.397590   21.230970    0.000000    0.000000    0.000000    0.000000
  0.026813627   -0.876685 -179.425522  -95.296330   23.488371    0.000000    0.000000    0.000000    0.000000
  0.027014028   -0.892613  178.848434  -95.083362   28.649990    0.000000    0.000000    0.000000    0.000000
  0.027214429   -0.907453  177.108414  -95.528860   24.548615    0.000000    0.000000    0.000000    0.000000
  0.027414830   -0.922409  175.371841  -95.332769   21.141211    0.000000    0.000000    0.000000    0.000000
  0.027615230   -0.941164  173.618652  -95.438367   21.104658    0.000000    0.000000    0.000000    0.000000
  0.027815631   -0.960121  171.847534  -94.190038   18.254745    0.000000    0.000000    0.000000    0.000000
  0.028016032   -0.981334  170.047745  -95.580925   20.062368    0.000000    0.000000    0.000000    0.000000
  0.028216433   -1.000761  168.238373  -95.347473   19.868879    0.000000    0.000000    0.000000    0.000000
  0.028416834   -1.023972  166.430832  -96.548017   17.759172    0.000000    0.000000    0.000000    0.000000
  0.028617234   -1.048333  164.620239  -95.945384   15.508729    0.000000    0.000000    0.000000    0.000000
  0.028817635   -1.072397  162.794342  -96.403593   21.859989    0.000000    0.000000    0.000000    0.000000
  0.029018036   -1.100672  160.944016  -96.137213   13.524925    0.000000    0.000000    0.000000    0.000000
  0.029218437   -1.125063  159.063416  -97.181931   18.856590    0.000000    0.000000    0.000000    0.000000
  0.029418838   -1.149594  157.192368  -97.572892    7.727008    0.000000    0.000000    0.000000    0.000000
  0.029619238   -1.173449  155.352631  -96.906727   12.474648    0.000000    0.000000    0.000000    0.000000
  0.029819639   -1.198200  153.504593  -97.557213   18.864210    0.000000    0.000000    0.000000    0.000000
  0.030020040   -1.224747  151.651352  -97.916231   17.573895    0.000000    0.000000    0.000000    0.000000
  0.030220441   -1.257080  149.821014  -98.121029   16.834641    0.000000    0.000000    0.000000    0.000000
  0.030420842   -1.293561  147.945129  -97.004763   20.841383    0.000000    0.000000    0.000000    0.000000
  0.030621242   -1.333088  146.050430  -98.510658   17.955698    0.000000    0.000000    0.000000    0.000000
  0.030821643   -1.370377  144.111252  -97.779115   17.304634    0.000000    0.000000    0.000000    0.000000
  0.031022044   -1.403928  142.152237  -97.536251   19.345245    0.000000    0.000000    0.000000    0.000000
  0.031222445   -1.429992  140.172546  -97.962569   16.893610    0.000000    0.000000    0.000000    0.000000
  0.031422846   -1.458939  138.216873  -98.179664   18.649889    0.000000    0.000000    0.000000    0.000000
  0.031623246   -1.484085  136.256378 -100.282411   13.328269    0.000000    0.000000    0.000000    0.000000
  0.031823647   -1.503996  134.314270  -96.863030   11.812460    0.000000    0.000000    0.000000    0.000000
  0.032024048   -1.527267  132.392746  -98.227236   12.881945    0.000000    0.000000    0.000000    0.000000
  0.032224449   -1.555361  130.480576  -97.324328   20.037169    0.000000    0.000000    0.000000    0.000000
  0.032424850   -1.580449  128.562561  -97.865727    9.638445    0.000000    0.000000    0.000000    0.000000
  0.032625251   -1.615785  126.649971  -97.631239    7.748770    0.000000    0.000000    0.000000    0.000000
  0.032825651   -1.654575  124.700310  -97.320870   11.802142    0.000000    0.000000    0.000000    0.000000
  0.033026052   -1.697831  122.754608  -97.780855   13.861987    0.000000    0.000000    0.000000    0.000000
  0.033226453   -1.743119  120.776062  -97.456179    7.216250    0.000000    0.000000    0.000000    0.000000
  0.033426854   -1.787827  118.766487  -97.553476    4.652239    0.000000    0.000000    0.000000    0.000000
  0.033627255   -1.831950  116.711853  -98.352719    0.555388    0.000000    0.000000    0.000000    0.000000
  0.033827655   -1.876321  114.660820  -98.303731    2.961686    0.000000    0.000000    0.000000    0.000000
  0.034028056   -1.921727  112.585533  -98.290041   10.664699    0.000000    0.000000    0.000000    0.000000
  0.034228457   -1.970497  110.463776  -98.732050   10.903644    0.000000    0.000000    0.000000    0.000000
  0.034428858   -2.012968  108.380447  -98.418840    3.207739    0.000000    0.000000    0.000000    0.000000
  0.034629259   -2.054695  106.309753  -99.203303   12.845584    0.000000    0.000000    0.000000    0.000000
  0.034829659   -2.093005  104.237808  -98.086809   10.506289    0.000000    0.000000    0.000000    0.000000
  0.035030060   -2.132625  102.190437  -99.310506   16.045614    0.000000    0.000000    0.000000    0.000000
  0.035230461   -2.176378  100.174805  -99.456306   16.183485    0.000000    0.000000    0.000000    0.000000
  0.035430862   -2.230876   98.143539  -98.352157    6.417345    0.000000    0.000000    0.000000    0.000000
  0.035631263   -2.290895   96.125832  -98.539224   11.347208    0.000000    0.000000    0.000000    0.000000
  0.035831663   -2.353583   94.055077  -98.318208   17.342045    0.000000    0.000000    0.000000    0.000000
  0.036032064   -2.413200   91.943359  -98.043666   16.184534    0.000000    0.000000    0.000000    0.000000
  0.036232465   -2.473240   89.751030  -99.123753    8.267547    0.000000    0.000000    0.000000    0.000000
  0.036432866   -2.531315   87.579750 -101.127460   14.019550    0.000000    0.000000    0.000000    0.000000
  0.036633267   -2.585685   85.389267  -97.870626   17.752596    0.000000    0.000000    0.000000    0.000000
  0.036833667   -2.634887   83.222343 -100.191817    6.630915    0.000000    0.000000    0.000000    0.000000
  0.037034068   -2.684375   81.064827  -99.217820    3.323999    0.000000    0.000000    0.000000    0.000000
  0.037234469   -2.728443   78.925148  -98.942201    9.778419    0.000000    0.000000    0.000000    0.000000
  0.037434870   -2.774091   76.807762  -99.110311   10.960465    0.000000    0.000000    0.000000    0.000000
  0.037635271   -2.825950   74.735352  -98.485041   -2.647596    0.000000    0.000000    0.000000    0.000000
  0.037835671   -2.879610   72.653725  -99.810708   -3.675602    0.000000    0.000000    0.000000    0.000000
  0.038036072   -2.936051   70.607048 -102.313942   -5.175759    0.000000    0.000000    0.000000    0.000000
  0.038236473   -2.993062   68.555992 -100.989051    9.782818    0.000000    0.000000    0.000000    0.000000
  0.038436874   -3.052474   66.466026 -100.685379    9.200357    0.000000    0.000000    0.000000    0.000000
  0.038637275   -3.116728   64.348228  -99.999494    3.877561    0.000000    0.000000    0.000000    0.000000
  0.038837675   -3.182925   62.198101 -101.402134    9.292129    0.000000    0.000000    0.000000    0.000000
  0.039038076   -3.248515   60.000172 -101.775324    1.761023    0.000000    0.000000    0.000000    0.000000
  0.039238477   -3.306849   57.768196 -101.327082    1.241426    0.000000    0.000000    0.000000    0.000000
  0.039438878   -3.360608   55.581062 -101.315156   13.483096    0.000000    0.000000    0.000000    0.000000
  0.039639279   -3.412929   53.438889 -101.770190   16.503517    0.000000    0.000000    0.000000    0.000000
  0.039839679   -3.455664   51.317989 -100.361259   10.570441    0.000000    0.000000    0.000000    0.000000
  0.040040080   -3.503676   49.255032 -100.298665   17.886303    0.000000    0.000000    0.000000    0.000000
  0.040240481   -3.560760   47.199303 -100.559046   12.041891    0.000000    0.000000    0.000000    0.000000
  0.040440882   -3.621515   45.120487  -99.326769   -1.561948    0.000000    0.000000    0.000000    0.000000
  0.040641283   -3.684571   43.036545 -101.208723   17.706432    0.000000    0.000000    0.000000    0.000000
  0.040841683   -3.747577   40.926579 -100.398979    0.872832    0.000000    0.000000    0.000000    0.000000
  0.041042084   -3.812261   38.831055  -99.389518    8.020185    0.000000    0.000000    0.000000    0.000000
  0.041242485   -3.872546   36.698231  -98.600279    4.988359    0.000000    0.000000    0.000000    0.000000
  0.041442886   -3.934701   34.597164 -100.269768   -7.598397    0.000000    0.000000    0.000000    0.000000
  0.041643287   -3.992031   32.457161  -99.223500    0.832921    0.000000    0.000000    0.000000    0.000000
  0.041843687   -4.047184   30.330479 -100.103973    5.497583    0.000000    0.000000    0.000000    0.000000
  0.042044088   -4.101206   28.230190 -101.343007   10.490432    0.000000    0.000000    0.000000    0.000000
  0.042244489   -4.152761   26.139462 -100.931553    8.181580    0.000000    0.000000    0.000000    0.000000
  0.042444890   -4.204188   24.072590 -101.625962   -2.613267    0.000000    0.000000    0.000000    0.000000
  0.042645291   -4.258553   22.015972 -102.656805    0.885591    0.000000    0.000000    0.000000    0.000000
  0.042845691   -4.309660   19.966038 -102.081611   -0.625383    0.000000    0.000000    0.000000    0.000000
  0.043046092   -4.361657   17.902487 -103.234340   -0.047475    0.000000    0.000000    0.000000    0.000000
  0.043246493   -4.411620   15.857429 -100.970620   12.372350    0.000000    0.000000    0.000000    0.000000
  0.043446894   -4.461965   13.821903 -102.867233    5.583151    0.000000    0.000000    0.000000    0.000000
  0.043647295   -4.516275   11.793746 -102.736982   16.500645    0.000000    0.000000    0.000000    0.000000
  0.043847695   -4.566380    9.770053 -101.685084    5.082044    0.000000    0.000000    0.000000    0.000000
  0.044048096   -4.617306    7.765669 -100.943650   22.753963    0.000000    0.000000    0.000000    0.000000
  0.044248497   -4.666094    5.755538 -100.589458    5.753864    0.000000    0.000000    0.000000    0.000000
  0.044448898   -4.711169    3.734045 -100.274503   14.997405    0.000000    0.000000    0.000000    0.000000
  0.044649299   -4.750381    1.758671 -102.811405    7.904660    0.000000    0.000000    0.000000    0.000000
  0.044849699   -4.797117   -0.210993 -102.692736    3.676764    0.000000    0.000000    0.000000    0.000000
  0.045050100   -4.838794   -2.164015 -100.683082    0.122628    0.000000    0.000000    0.000000    0.000000
  0.045250501   -4.885594   -4.116691 -100.764740    9.378695    0.000000    0.000000    0.000000    0.000000
  0.045450902   -4.927025   -6.045514 -100.588800   23.243208    0.000000    0.000000    0.000000    0.000000
  0.045651303   -4.966000   -8.014396  -99.897044    3.651082    0.000000    0.000000    0.000000    0.000000
  0.045851703   -5.005479   -9.935130 -100.631277    1.829062    0.000000    0.000000    0.000000    0.000000
  0.046052104   -5.042843  -11.867501 -102.764201    3.451990    0.000000    0.000000    0.000000    0.000000
  0.046252505   -5.080212  -13.775414 -100.679195    5.223763    0.000000    0.000000    0.000000    0.000000
  0.046452906   -5.118999  -15.674438 -101.021527    0.636133    0.000000    0.000000    0.000000    0.000000
  0.046653307   -5.152641  -17.553001 -102.103118   -9.843514    0.000000    0.000000    0.000000    0.000000
  0.046853707   -5.189208  -19.427818 -102.343719  -14.608750    0.000000    0.000000    0.000000    0.000000
  0.047054108   -5.222765  -21.318188 -102.962492   -0.676301    0.000000    0.000000    0.000000    0.000000
  0.047254509   -5.255260  -23.188326 -103.274811   -9.217587    0.000000    0.000000    0.000000    0.000000
  0.047454910   -5.286414  -25.071838 -103.860969    4.848317    0.000000    0.000000    0.000000    0.000000
  0.047655311   -5.317368  -26.933977 -103.264918    5.963795    0.000000    0.000000    0.000000    0.000000
  0.047855711   -5.347434  -28.796310 -103.784010   -4.210704    0.000000    0.000000    0.000000    0.000000
  0.048056112   -5.377091  -30.658812 -101.342350   -0.014466    0.000000    0.000000    0.000000    0.000000
  0.048256513   -5.404849  -32.491905 -100.970023   11.172831    0.000000    0.000000    0.000000    0.000000
  0.048456914   -5.428592  -34.356014 -106.263724   -0.704325    0.000000    0.000000    0.000000    0.000000
  0.048657315   -5.450658  -36.194595 -102.032011    3.275930    0.000000    0.000000    0.000000    0.000000
  0.048857715   -5.469579  -38.006706 -102.569641   22.935242    0.000000    0.000000    0.000000    0.000000
  0.049058116   -5.485411  -39.784077 -101.321347   13.284360    0.000000    0.000000    0.000000    0.000000
  0.049258517   -5.507064  -41.524563 -100.816509    2.516720    0.000000    0.000000    0.000000    0.000000
  0.049458918   -5.524869  -43.259365 -100.857143   -0.134954    0.000000    0.000000    0.000000    0.000000
  0.049659319   -5.546609  -44.984348 -100.873765   20.194084    0.000000    0.000000    0.000000    0.000000
  0.049859719   -5.567956  -46.710590 -103.008053   -3.600050    0.000000    0.000000    0.000000    0.000000
  0.050060120   -5.590025  -48.446182 -103.236358   16.972008    0.000000    0.000000    0.000000    0.000000
  0.050260521   -5.615513  -50.176353 -100.421438    8.820926    0.000000    0.000000    0.000000    0.000000
  0.050460922   -5.634070  -51.907005 -101.861240   -2.603037    0.000000    0.000000    0.000000    0.000000
  0.050661323   -5.652147  -53.623543 -101.249732   -0.884027    0.000000    0.000000    0.000000    0.000000
  0.050861723   -5.662786  -55.359406 -102.519912   -4.939932    0.000000    0.000000    0.000000    0.000000
  0.051062124   -5.675207  -57.063328 -103.840387   -5.511506    0.000000    0.000000    0.000000    0.000000
  0.051262525   -5.684393  -58.718349 -103.501533   -5.490695    0.000000    0.000000    0.000000    0.000000
  0.051462926   -5.692523  -60.356812 -104.374579    0.595710    0.000000    0.000000    0.000000    0.000000
  0.051663327   -5.705702  -61.973969 -103.980609    1.460968    0.000000    0.000000    0.000000    0.000000
  0.051863727   -5.719477  -63.580727 -106.157275   -0.923616    0.000000    0.000000    0.000000    0.000000
  0.052064128   -5.736745  -65.201355 -104.704207   -1.720546    0.000000    0.000000    0.000000    0.000000
  0.052264529   -5.753453  -66.789017 -104.175024    3.551445    0.000000    0.000000    0.000000    0.000000
  0.052464930   -5.765229  -68.411751 -105.178295   15.017604    0.000000    0.000000    0.000000    0.000000
  0.052665331   -5.778167  -70.004555 -108.591248    6.192125    0.000000    0.000000    0.000000    0.000000
  0.052865731   -5.789825  -71.592819 -102.628665   -7.270571    0.000000    0.000000    0.000000    0.000000
