! Anritsu VNA Master:                     Model: MS2036C/10/77
! SN:                                  1601066
! /bd0/18may26.balun/2a.47.s2p
! Existing Calibration Information:
! TYPE:                         Current Settings,       Active Cal Settings
! TIME:             	   05/26/2018 07:37:27 PM,    05/26/2018 07:26:54 PM
! INTERNAL TEMP:    	                   45.0 C,                    45.5 C
! # POINTS:         	                      500,                       500
! START FREQ:       	               20.000 MHz,                20.000 MHz
! STOP FREQ:        	              120.000 MHz,               120.000 MHz
! SOURCE POWER:     	                     High,                      High
! IFBW:             	                    50 Hz,                     50 Hz
! AVG FACTOR:       	                       1 ,                        1 
! REF PLANE 1:      	                     0 mm,                      0 mm
! REF PLANE 2:      	                     0 mm,                      0 mm
! CAL TYPE:         	                 Full S11,                  Full S11
! CAL METHOD:       	                     SOLT,                      SOLT
! CAL LINE TYPE:    	                     Coax,                      Coax
! DUT PORT 1:       	                K-Conn(M),                 K-Conn(M)
! DUT PORT 2:       	                K-Conn(M),                 K-Conn(M)
! CAL STATUS:       	        OK: Accuracy High,                        --
# GHZ S DB R 50.0
! FREQ.GHZ       S11DB        S11A       S21DB        S21A       S12DB        S12A       S22DB        S22A
  0.020000000   -0.021777  -56.080238  -90.150227   35.821133    0.000000    0.000000    0.000000    0.000000
  0.020200401   -0.017373  -56.647835  -90.270273   36.521938    0.000000    0.000000    0.000000    0.000000
  0.020400802   -0.017257  -57.189274  -90.328645   35.725887    0.000000    0.000000    0.000000    0.000000
  0.020601202   -0.015685  -57.732475  -90.395582   33.703060    0.000000    0.000000    0.000000    0.000000
  0.020801603   -0.016502  -58.292667  -91.054362   31.513838    0.000000    0.000000    0.000000    0.000000
  0.021002004   -0.015673  -58.856422  -90.590889   32.598293    0.000000    0.000000    0.000000    0.000000
  0.021202405   -0.021208  -59.422688  -91.653654   25.995537    0.000000    0.000000    0.000000    0.000000
  0.021402806   -0.022300  -59.963043  -92.335589   28.180695    0.000000    0.000000    0.000000    0.000000
  0.021603206   -0.026483  -60.506302  -91.602376   30.059034    0.000000    0.000000    0.000000    0.000000
  0.021803607   -0.028237  -61.032269  -92.538997   32.247391    0.000000    0.000000    0.000000    0.000000
  0.022004008   -0.032041  -61.552067  -93.250101   26.263012    0.000000    0.000000    0.000000    0.000000
  0.022204409   -0.034453  -62.113762  -93.042169   31.143749    0.000000    0.000000    0.000000    0.000000
  0.022404810   -0.038445  -62.678951  -92.765640   31.154428    0.000000    0.000000    0.000000    0.000000
  0.022605210   -0.036306  -63.233120  -92.983133   32.913090    0.000000    0.000000    0.000000    0.000000
  0.022805611   -0.035396  -63.796432  -93.991707   36.900711    0.000000    0.000000    0.000000    0.000000
  0.023006012   -0.026633  -64.349831  -93.944180   37.138725    0.000000    0.000000    0.000000    0.000000
  0.023206413   -0.021791  -64.899086  -93.478569   36.055286    0.000000    0.000000    0.000000    0.000000
  0.023406814   -0.014677  -65.460449  -93.510384   31.578482    0.000000    0.000000    0.000000    0.000000
  0.023607214   -0.013414  -66.020790  -93.136091   30.988726    0.000000    0.000000    0.000000    0.000000
  0.023807615   -0.013273  -66.529984  -92.741214   36.048450    0.000000    0.000000    0.000000    0.000000
  0.024008016   -0.021241  -67.015205  -93.457000   33.317997    0.000000    0.000000    0.000000    0.000000
  0.024208417   -0.026479  -67.500099  -92.910590   29.577291    0.000000    0.000000    0.000000    0.000000
  0.024408818   -0.033447  -68.001480  -92.585557   25.896006    0.000000    0.000000    0.000000    0.000000
  0.024609218   -0.037711  -68.512276  -93.241575   27.855328    0.000000    0.000000    0.000000    0.000000
  0.024809619   -0.040481  -69.047508  -93.017523   25.225454    0.000000    0.000000    0.000000    0.000000
  0.025010020   -0.042556  -69.613541  -93.845916   25.545624    0.000000    0.000000    0.000000    0.000000
  0.025210421   -0.044281  -70.182274  -93.349500   25.741232    0.000000    0.000000    0.000000    0.000000
  0.025410822   -0.045047  -70.744339  -93.835634   18.971203    0.000000    0.000000    0.000000    0.000000
  0.025611222   -0.045324  -71.333702  -93.720464   19.551701    0.000000    0.000000    0.000000    0.000000
  0.025811623   -0.045113  -71.885033  -94.401078   18.240396    0.000000    0.000000    0.000000    0.000000
  0.026012024   -0.043293  -72.435547  -95.022193   17.699490    0.000000    0.000000    0.000000    0.000000
  0.026212425   -0.039468  -72.974968  -95.035835   12.068017    0.000000    0.000000    0.000000    0.000000
  0.026412826   -0.038814  -73.516273  -95.849113   13.723049    0.000000    0.000000    0.000000    0.000000
  0.026613226   -0.040455  -74.007935  -95.782506   17.581461    0.000000    0.000000    0.000000    0.000000
  0.026813627   -0.044245  -74.491310  -95.570719   19.419237    0.000000    0.000000    0.000000    0.000000
  0.027014028   -0.049505  -74.966599  -95.737373   22.685314    0.000000    0.000000    0.000000    0.000000
  0.027214429   -0.058614  -75.473907  -96.436988   16.305542    0.000000    0.000000    0.000000    0.000000
  0.027414830   -0.067961  -76.025200  -96.480831   13.715826    0.000000    0.000000    0.000000    0.000000
  0.027615230   -0.073855  -76.606102  -96.091154   22.136776    0.000000    0.000000    0.000000    0.000000
  0.027815631   -0.075763  -77.193329  -95.661971   17.513142    0.000000    0.000000    0.000000    0.000000
  0.028016032   -0.072165  -77.797302  -97.337968   27.156504    0.000000    0.000000    0.000000    0.000000
  0.028216433   -0.062958  -78.401810  -97.016493   19.380398    0.000000    0.000000    0.000000    0.000000
  0.028416834   -0.055121  -79.013748  -95.195116   24.782211    0.000000    0.000000    0.000000    0.000000
  0.028617234   -0.045492  -79.579102  -95.547250   22.832003    0.000000    0.000000    0.000000    0.000000
  0.028817635   -0.038402  -80.116219  -94.963456   18.083366    0.000000    0.000000    0.000000    0.000000
  0.029018036   -0.029582  -80.576492  -95.789346   23.455954    0.000000    0.000000    0.000000    0.000000
  0.029218437   -0.021907  -81.014908  -95.317895   22.759178    0.000000    0.000000    0.000000    0.000000
  0.029418838   -0.018167  -81.443657  -95.577721   18.620888    0.000000    0.000000    0.000000    0.000000
  0.029619238   -0.018469  -81.873260  -95.410358   17.695892    0.000000    0.000000    0.000000    0.000000
  0.029819639   -0.022734  -82.317268  -96.327671   14.295264    0.000000    0.000000    0.000000    0.000000
  0.030020040   -0.028672  -82.818779  -96.234740   16.319654    0.000000    0.000000    0.000000    0.000000
  0.030220441   -0.039316  -83.326584  -96.253281   15.968021    0.000000    0.000000    0.000000    0.000000
  0.030420842   -0.051313  -83.874504  -97.344862   13.850597    0.000000    0.000000    0.000000    0.000000
  0.030621242   -0.058570  -84.445061  -97.720624   11.339017    0.000000    0.000000    0.000000    0.000000
  0.030821643   -0.061412  -84.999931  -97.775166   13.579877    0.000000    0.000000    0.000000    0.000000
  0.031022044   -0.062215  -85.553101  -97.810921   12.395163    0.000000    0.000000    0.000000    0.000000
  0.031222445   -0.059418  -86.096069  -96.538311   11.456609    0.000000    0.000000    0.000000    0.000000
  0.031422846   -0.060618  -86.628830  -98.405655    1.241148    0.000000    0.000000    0.000000    0.000000
  0.031623246   -0.057987  -87.141212  -96.194522    8.108521    0.000000    0.000000    0.000000    0.000000
  0.031823647   -0.057569  -87.638016  -96.612318   16.512091    0.000000    0.000000    0.000000    0.000000
  0.032024048   -0.057247  -88.109276  -97.532372   19.945553    0.000000    0.000000    0.000000    0.000000
  0.032224449   -0.062891  -88.548355  -98.867872    7.368145    0.000000    0.000000    0.000000    0.000000
  0.032424850   -0.069684  -89.022263  -99.626257   15.340916    0.000000    0.000000    0.000000    0.000000
  0.032625251   -0.082573  -89.522125  -97.847213   21.968859    0.000000    0.000000    0.000000    0.000000
  0.032825651   -0.090487  -90.050850  -98.247426    8.134129    0.000000    0.000000    0.000000    0.000000
  0.033026052   -0.099707  -90.601089  -96.813299   11.678863    0.000000    0.000000    0.000000    0.000000
  0.033226453   -0.105515  -91.177605  -98.488521   22.826733    0.000000    0.000000    0.000000    0.000000
  0.033426854   -0.109158  -91.774071  -97.530556    9.659139    0.000000    0.000000    0.000000    0.000000
  0.033627255   -0.111823  -92.400597  -99.715204    8.356833    0.000000    0.000000    0.000000    0.000000
  0.033827655   -0.110383  -92.998726  -98.058811   15.019965    0.000000    0.000000    0.000000    0.000000
  0.034028056   -0.101539  -93.555069  -99.410456   13.906712    0.000000    0.000000    0.000000    0.000000
  0.034228457   -0.088608  -94.113167  -98.208921   14.122628    0.000000    0.000000    0.000000    0.000000
  0.034428858   -0.077464  -94.632156  -97.880941   12.719428    0.000000    0.000000    0.000000    0.000000
  0.034629259   -0.065932  -95.109779  -96.905918    8.284542    0.000000    0.000000    0.000000    0.000000
  0.034829659   -0.055341  -95.571899  -97.393131    4.595488    0.000000    0.000000    0.000000    0.000000
  0.035030060   -0.053966  -96.042313  -98.010167    9.949787    0.000000    0.000000    0.000000    0.000000
  0.035230461   -0.047606  -96.465416  -98.216024    5.057687    0.000000    0.000000    0.000000    0.000000
  0.035430862   -0.049851  -96.897079  -98.632704    6.529347    0.000000    0.000000    0.000000    0.000000
  0.035631263   -0.058377  -97.350395  -98.980278   11.380026    0.000000    0.000000    0.000000    0.000000
  0.035831663   -0.066993  -97.858353  -99.396826   12.068490    0.000000    0.000000    0.000000    0.000000
  0.036032064   -0.076171  -98.386063  -98.470424    3.413761    0.000000    0.000000    0.000000    0.000000
  0.036232465   -0.081504  -98.956528  -99.584996    6.201828    0.000000    0.000000    0.000000    0.000000
  0.036432866   -0.084829  -99.503899 -100.646518    4.883389    0.000000    0.000000    0.000000    0.000000
  0.036633267   -0.085129 -100.065071  -98.753507    7.820459    0.000000    0.000000    0.000000    0.000000
  0.036833667   -0.087438 -100.611374 -100.217708    5.136270    0.000000    0.000000    0.000000    0.000000
  0.037034068   -0.077997 -101.138474 -100.354219    8.172421    0.000000    0.000000    0.000000    0.000000
  0.037234469   -0.066923 -101.601669 -101.420715   15.511559    0.000000    0.000000    0.000000    0.000000
  0.037434870   -0.061972 -102.045868  -99.499621   13.311357    0.000000    0.000000    0.000000    0.000000
  0.037635271   -0.059812 -102.476051 -100.669900    8.798039    0.000000    0.000000    0.000000    0.000000
  0.037835671   -0.063987 -102.910271  -98.120977   16.385353    0.000000    0.000000    0.000000    0.000000
  0.038036072   -0.074569 -103.380341  -98.714394   10.051008    0.000000    0.000000    0.000000    0.000000
  0.038236473   -0.081005 -103.869316  -97.616479   19.783470    0.000000    0.000000    0.000000    0.000000
  0.038436874   -0.088239 -104.367889  -98.914444   12.480208    0.000000    0.000000    0.000000    0.000000
  0.038637275   -0.099365 -104.876076  -98.948312    8.276349    0.000000    0.000000    0.000000    0.000000
  0.038837675   -0.109720 -105.418915  -98.099128   13.927207    0.000000    0.000000    0.000000    0.000000
  0.039038076   -0.117179 -105.963226  -98.966124    9.455231    0.000000    0.000000    0.000000    0.000000
  0.039238477   -0.121958 -106.522102  -99.191306   -2.379283    0.000000    0.000000    0.000000    0.000000
  0.039438878   -0.121691 -107.089638  -98.755676    2.928995    0.000000    0.000000    0.000000    0.000000
  0.039639279   -0.116538 -107.629784  -98.036809    6.049725    0.000000    0.000000    0.000000    0.000000
  0.039839679   -0.107609 -108.155289  -99.805822   13.045226    0.000000    0.000000    0.000000    0.000000
  0.040040080   -0.101927 -108.654556 -100.679952    5.261589    0.000000    0.000000    0.000000    0.000000
  0.040240481   -0.096114 -109.139122 -100.151232   -4.931870    0.000000    0.000000    0.000000    0.000000
  0.040440882   -0.090680 -109.605980 -100.841196  -10.416916    0.000000    0.000000    0.000000    0.000000
  0.040641283   -0.087668 -110.070763 -101.721454    4.573994    0.000000    0.000000    0.000000    0.000000
  0.040841683   -0.089800 -110.547760 -101.732362   -6.732460    0.000000    0.000000    0.000000    0.000000
  0.041042084   -0.091425 -111.009262 -102.841579   -3.137068    0.000000    0.000000    0.000000    0.000000
  0.041242485   -0.100914 -111.481071 -101.549620    6.747156    0.000000    0.000000    0.000000    0.000000
  0.041442886   -0.114820 -111.969124 -101.292389    1.682483    0.000000    0.000000    0.000000    0.000000
  0.041643287   -0.123859 -112.508614 -101.477019    3.652223    0.000000    0.000000    0.000000    0.000000
  0.041843687   -0.127700 -113.062515 -101.542389    6.446935    0.000000    0.000000    0.000000    0.000000
  0.042044088   -0.123699 -113.609138 -100.294236    9.611960    0.000000    0.000000    0.000000    0.000000
  0.042244489   -0.118204 -114.148285 -101.900915    6.907354    0.000000    0.000000    0.000000    0.000000
  0.042444890   -0.106526 -114.652351 -101.420722   13.942616    0.000000    0.000000    0.000000    0.000000
  0.042645291   -0.092785 -115.100243 -101.739520   20.495720    0.000000    0.000000    0.000000    0.000000
  0.042845691   -0.089030 -115.528221 -101.390466   19.932747    0.000000    0.000000    0.000000    0.000000
  0.043046092   -0.090122 -115.980148 -100.548102    7.602737    0.000000    0.000000    0.000000    0.000000
  0.043246493   -0.093791 -116.426262  -99.435253   14.365821    0.000000    0.000000    0.000000    0.000000
  0.043446894   -0.100965 -116.879265 -100.118169   14.884358    0.000000    0.000000    0.000000    0.000000
  0.043647295   -0.104448 -117.346062 -100.611027    8.784850    0.000000    0.000000    0.000000    0.000000
  0.043847695   -0.111420 -117.820068  -99.916941   10.327155    0.000000    0.000000    0.000000    0.000000
  0.044048096   -0.118444 -118.303345 -101.460667   11.470701    0.000000    0.000000    0.000000    0.000000
  0.044248497   -0.127194 -118.821075  -99.831650   -1.018353    0.000000    0.000000    0.000000    0.000000
  0.044448898   -0.131259 -119.337517 -100.127888    6.513832    0.000000    0.000000    0.000000    0.000000
  0.044649299   -0.132997 -119.862282 -100.872318   -6.466940    0.000000    0.000000    0.000000    0.000000
  0.044849699   -0.133366 -120.371986 -103.384069   -7.986897    0.000000    0.000000    0.000000    0.000000
  0.045050100   -0.129648 -120.877365 -102.829536    0.903237    0.000000    0.000000    0.000000    0.000000
  0.045250501   -0.128791 -121.367966 -102.550870   -7.965648    0.000000    0.000000    0.000000    0.000000
  0.045450902   -0.128039 -121.854622 -103.647304   -5.644420    0.000000    0.000000    0.000000    0.000000
  0.045651303   -0.126175 -122.358047 -104.202459    5.392812    0.000000    0.000000    0.000000    0.000000
  0.045851703   -0.122010 -122.852821 -101.891303    7.081172    0.000000    0.000000    0.000000    0.000000
  0.046052104   -0.119468 -123.335648 -102.750826   -2.270361    0.000000    0.000000    0.000000    0.000000
  0.046252505   -0.119606 -123.784355 -102.662384   -7.070535    0.000000    0.000000    0.000000    0.000000
  0.046452906   -0.126377 -124.222534 -104.766983   11.340901    0.000000    0.000000    0.000000    0.000000
  0.046653307   -0.138192 -124.673027 -104.512337   12.274661    0.000000    0.000000    0.000000    0.000000
  0.046853707   -0.145408 -125.166656 -103.186508   12.342308    0.000000    0.000000    0.000000    0.000000
  0.047054108   -0.152151 -125.706802 -105.280360   10.346887    0.000000    0.000000    0.000000    0.000000
  0.047254509   -0.151531 -126.217018 -105.775814   15.848819    0.000000    0.000000    0.000000    0.000000
  0.047454910   -0.146150 -126.769325 -101.605714    5.369764    0.000000    0.000000    0.000000    0.000000
  0.047655311   -0.136971 -127.243362 -100.438880   15.396783    0.000000    0.000000    0.000000    0.000000
  0.047855711   -0.131641 -127.696709 -101.033583   16.704041    0.000000    0.000000    0.000000    0.000000
  0.048056112   -0.126521 -128.174133 -103.192056    1.520991    0.000000    0.000000    0.000000    0.000000
  0.048256513   -0.127672 -128.601318 -100.631642    8.900055    0.000000    0.000000    0.000000    0.000000
  0.048456914   -0.126693 -129.057495 -102.861054   -2.679876    0.000000    0.000000    0.000000    0.000000
  0.048657315   -0.130147 -129.492142 -100.681305    9.915813    0.000000    0.000000    0.000000    0.000000
  0.048857715   -0.133235 -129.922958  -99.944439    6.152735    0.000000    0.000000    0.000000    0.000000
  0.049058116   -0.141494 -130.366318 -101.434102    1.187323    0.000000    0.000000    0.000000    0.000000
  0.049258517   -0.146004 -130.834030 -102.951806    4.146920    0.000000    0.000000    0.000000    0.000000
  0.049458918   -0.152503 -131.309875  -99.234511   -1.069833    0.000000    0.000000    0.000000    0.000000
  0.049659319   -0.158145 -131.804794 -100.835377   -6.124877    0.000000    0.000000    0.000000    0.000000
  0.049859719   -0.156265 -132.280457 -101.392639   -5.088017    0.000000    0.000000    0.000000    0.000000
  0.050060120   -0.159719 -132.767105 -100.813324  -10.603619    0.000000    0.000000    0.000000    0.000000
  0.050260521   -0.159502 -133.210953 -103.745441  -16.186886    0.000000    0.000000    0.000000    0.000000
  0.050460922   -0.160987 -133.685364 -102.022718    8.878713    0.000000    0.000000    0.000000    0.000000
  0.050661323   -0.162052 -134.182358 -102.615698   -3.662976    0.000000    0.000000    0.000000    0.000000
  0.050861723   -0.158313 -134.677963 -102.761985   -7.057912    0.000000    0.000000    0.000000    0.000000
  0.051062124   -0.157296 -135.161118 -102.433521  -11.633000    0.000000    0.000000    0.000000    0.000000
  0.051262525   -0.156429 -135.615799 -103.344630    2.021912    0.000000    0.000000    0.000000    0.000000
  0.051462926   -0.153748 -136.058212 -108.028940   14.515257    0.000000    0.000000    0.000000    0.000000
  0.051663327   -0.157251 -136.485489 -106.401032   28.445332    0.000000    0.000000    0.000000    0.000000
  0.051863727   -0.165076 -136.925171 -103.012634   13.068495    0.000000    0.000000    0.000000    0.000000
  0.052064128   -0.171683 -137.388824 -105.940324   16.825535    0.000000    0.000000    0.000000    0.000000
  0.052264529   -0.179302 -137.869003 -105.917382   17.204208    0.000000    0.000000    0.000000    0.000000
  0.052464930   -0.178286 -138.375397 -102.054468   21.882351    0.000000    0.000000    0.000000    0.000000
  0.052665331   -0.178503 -138.883804 -106.727017   -2.636813    0.000000    0.000000    0.000000    0.000000
  0.052865731   -0.172572 -139.347412 -101.261969   16.893278    0.000000    0.000000    0.000000    0.000000
