! Anritsu VNA Master:                     Model: MS2036C/10/77
! SN:                                  1601066
! /bd0/18may26.balun/2a.47.2.s2p
! Existing Calibration Information:
! TYPE:                         Current Settings,       Active Cal Settings
! TIME:             	   05/26/2018 07:52:50 PM,    05/26/2018 07:26:54 PM
! INTERNAL TEMP:    	                   45.3 C,                    45.5 C
! # POINTS:         	                      500,                       500
! START FREQ:       	               20.000 MHz,                20.000 MHz
! STOP FREQ:        	              120.000 MHz,               120.000 MHz
! SOURCE POWER:     	                     High,                      High
! IFBW:             	                    50 Hz,                     50 Hz
! AVG FACTOR:       	                       1 ,                        1 
! REF PLANE 1:      	                     0 mm,                      0 mm
! REF PLANE 2:      	                     0 mm,                      0 mm
! CAL TYPE:         	                 Full S11,                  Full S11
! CAL METHOD:       	                     SOLT,                      SOLT
! CAL LINE TYPE:    	                     Coax,                      Coax
! DUT PORT 1:       	                K-Conn(M),                 K-Conn(M)
! DUT PORT 2:       	                K-Conn(M),                 K-Conn(M)
! CAL STATUS:       	        OK: Accuracy High,                        --
# GHZ S DB R 50.0
! FREQ.GHZ       S11DB        S11A       S21DB        S21A       S12DB        S12A       S22DB        S22A
  0.020000000   -0.019902  -56.289547  -90.569990   38.463436    0.000000    0.000000    0.000000    0.000000
  0.020200401   -0.015730  -56.866272  -90.078479   34.669590    0.000000    0.000000    0.000000    0.000000
  0.020400802   -0.015569  -57.416756  -90.160492   34.534000    0.000000    0.000000    0.000000    0.000000
  0.020601202   -0.014132  -57.968990  -91.088525   34.889355    0.000000    0.000000    0.000000    0.000000
  0.020801603   -0.015192  -58.536915  -90.939751   33.560608    0.000000    0.000000    0.000000    0.000000
  0.021002004   -0.013997  -59.094604  -91.341427   30.892935    0.000000    0.000000    0.000000    0.000000
  0.021202405   -0.018797  -59.674057  -91.113833   26.800220    0.000000    0.000000    0.000000    0.000000
  0.021402806   -0.020482  -60.218887  -91.696424   27.276377    0.000000    0.000000    0.000000    0.000000
  0.021603206   -0.022762  -60.760166  -92.102982   25.611824    0.000000    0.000000    0.000000    0.000000
  0.021803607   -0.026336  -61.292507  -92.191509   23.516216    0.000000    0.000000    0.000000    0.000000
  0.022004008   -0.027723  -61.814346  -92.908684   24.479792    0.000000    0.000000    0.000000    0.000000
  0.022204409   -0.031729  -62.371689  -92.931254   26.680307    0.000000    0.000000    0.000000    0.000000
  0.022404810   -0.034930  -62.929184  -93.649294   34.508255    0.000000    0.000000    0.000000    0.000000
  0.022605210   -0.030628  -63.490311  -93.333221   37.175091    0.000000    0.000000    0.000000    0.000000
  0.022805611   -0.029179  -64.050964  -93.698246   31.296719    0.000000    0.000000    0.000000    0.000000
  0.023006012   -0.022644  -64.595131  -93.285827   33.613190    0.000000    0.000000    0.000000    0.000000
  0.023206413   -0.017196  -65.140381  -93.513254   33.496613    0.000000    0.000000    0.000000    0.000000
  0.023406814   -0.010791  -65.695305  -92.923572   35.276833    0.000000    0.000000    0.000000    0.000000
  0.023607214   -0.009815  -66.265282  -92.986405   39.966442    0.000000    0.000000    0.000000    0.000000
  0.023807615   -0.009958  -66.763458  -93.410814   34.296158    0.000000    0.000000    0.000000    0.000000
  0.024008016   -0.016989  -67.260101  -92.650506   32.439083    0.000000    0.000000    0.000000    0.000000
  0.024208417   -0.023197  -67.741348  -92.752069   31.402952    0.000000    0.000000    0.000000    0.000000
  0.024408818   -0.030811  -68.245872  -93.284073   28.446331    0.000000    0.000000    0.000000    0.000000
  0.024609218   -0.036411  -68.763641  -92.759258   27.568827    0.000000    0.000000    0.000000    0.000000
  0.024809619   -0.039174  -69.308380  -93.310618   25.061689    0.000000    0.000000    0.000000    0.000000
  0.025010020   -0.041206  -69.877945  -93.076963   27.056747    0.000000    0.000000    0.000000    0.000000
  0.025210421   -0.044476  -70.456734  -93.367512   19.815392    0.000000    0.000000    0.000000    0.000000
  0.025410822   -0.044543  -71.025452  -94.140968   20.476673    0.000000    0.000000    0.000000    0.000000
  0.025611222   -0.045269  -71.621620  -93.277359   15.582914    0.000000    0.000000    0.000000    0.000000
  0.025811623   -0.043766  -72.172165  -93.766213   21.835592    0.000000    0.000000    0.000000    0.000000
  0.026012024   -0.042959  -72.734421  -94.759221   17.007254    0.000000    0.000000    0.000000    0.000000
  0.026212425   -0.038991  -73.270103  -95.517151   13.740816    0.000000    0.000000    0.000000    0.000000
  0.026412826   -0.037732  -73.819160  -94.746319   18.801697    0.000000    0.000000    0.000000    0.000000
  0.026613226   -0.038831  -74.311806  -95.225196   19.841654    0.000000    0.000000    0.000000    0.000000
  0.026813627   -0.041516  -74.793198  -95.334350   18.723797    0.000000    0.000000    0.000000    0.000000
  0.027014028   -0.047234  -75.266449  -95.866906   21.066673    0.000000    0.000000    0.000000    0.000000
  0.027214429   -0.055223  -75.776192  -96.310047   23.429060    0.000000    0.000000    0.000000    0.000000
  0.027414830   -0.064669  -76.330383  -96.795502   18.240370    0.000000    0.000000    0.000000    0.000000
  0.027615230   -0.070129  -76.903603  -95.595902   21.383638    0.000000    0.000000    0.000000    0.000000
  0.027815631   -0.071555  -77.487686  -96.050859   25.547243    0.000000    0.000000    0.000000    0.000000
  0.028016032   -0.067742  -78.087914  -95.796929   23.777721    0.000000    0.000000    0.000000    0.000000
  0.028216433   -0.059371  -78.688309  -95.539976   28.825741    0.000000    0.000000    0.000000    0.000000
  0.028416834   -0.050731  -79.287766  -97.493496   26.873604    0.000000    0.000000    0.000000    0.000000
  0.028617234   -0.042277  -79.862000  -95.386780   18.091993    0.000000    0.000000    0.000000    0.000000
  0.028817635   -0.034324  -80.388161  -96.422030   20.952492    0.000000    0.000000    0.000000    0.000000
  0.029018036   -0.026156  -80.847878  -96.492483   15.368670    0.000000    0.000000    0.000000    0.000000
  0.029218437   -0.019938  -81.291870  -96.330422   22.427736    0.000000    0.000000    0.000000    0.000000
  0.029418838   -0.016984  -81.715218  -95.300610   16.857800    0.000000    0.000000    0.000000    0.000000
  0.029619238   -0.017499  -82.157890  -95.910269   16.020428    0.000000    0.000000    0.000000    0.000000
  0.029819639   -0.022114  -82.609558  -96.315864   13.544378    0.000000    0.000000    0.000000    0.000000
  0.030020040   -0.028079  -83.116684  -96.281290   10.212412    0.000000    0.000000    0.000000    0.000000
  0.030220441   -0.040362  -83.630188  -96.638980    9.495574    0.000000    0.000000    0.000000    0.000000
  0.030420842   -0.051180  -84.190994  -97.317569   13.526703    0.000000    0.000000    0.000000    0.000000
  0.030621242   -0.059394  -84.769699  -97.474229   11.020296    0.000000    0.000000    0.000000    0.000000
  0.030821643   -0.061004  -85.334465  -97.556258   13.777786    0.000000    0.000000    0.000000    0.000000
  0.031022044   -0.061998  -85.891426  -97.489549   14.470833    0.000000    0.000000    0.000000    0.000000
  0.031222445   -0.058564  -86.442284  -97.751782   12.729727    0.000000    0.000000    0.000000    0.000000
  0.031422846   -0.059702  -86.979103  -96.944226    8.533077    0.000000    0.000000    0.000000    0.000000
  0.031623246   -0.057869  -87.495667  -98.290033   14.821549    0.000000    0.000000    0.000000    0.000000
  0.031823647   -0.056540  -87.990952  -96.011502    6.658381    0.000000    0.000000    0.000000    0.000000
  0.032024048   -0.055161  -88.465111  -98.730108    8.177848    0.000000    0.000000    0.000000    0.000000
  0.032224449   -0.059946  -88.905556  -98.512607   12.164799    0.000000    0.000000    0.000000    0.000000
  0.032424850   -0.067832  -89.370125  -97.810866    9.061924    0.000000    0.000000    0.000000    0.000000
  0.032625251   -0.078856  -89.872849  -98.131174   14.352999    0.000000    0.000000    0.000000    0.000000
  0.032825651   -0.087370  -90.386665  -98.516772   14.377194    0.000000    0.000000    0.000000    0.000000
  0.033026052   -0.095263  -90.934021  -97.278333   18.457518    0.000000    0.000000    0.000000    0.000000
  0.033226453   -0.103231  -91.517212  -98.234121   13.299501    0.000000    0.000000    0.000000    0.000000
  0.033426854   -0.106268  -92.102310  -97.824613   17.638720    0.000000    0.000000    0.000000    0.000000
  0.033627255   -0.108550  -92.735603  -97.068779    9.683350    0.000000    0.000000    0.000000    0.000000
  0.033827655   -0.105369  -93.320107  -98.150158   12.325220    0.000000    0.000000    0.000000    0.000000
  0.034028056   -0.098089  -93.879425  -97.930866   15.708673    0.000000    0.000000    0.000000    0.000000
  0.034228457   -0.085355  -94.435974  -98.418203   16.640923    0.000000    0.000000    0.000000    0.000000
  0.034428858   -0.075470  -94.959686  -97.672676   10.190602    0.000000    0.000000    0.000000    0.000000
  0.034629259   -0.063887  -95.441078  -97.717775    7.871135    0.000000    0.000000    0.000000    0.000000
  0.034829659   -0.055429  -95.906921  -97.893052    1.045309    0.000000    0.000000    0.000000    0.000000
  0.035030060   -0.051468  -96.389534  -98.646138    6.577843    0.000000    0.000000    0.000000    0.000000
  0.035230461   -0.047516  -96.816711  -99.061925   11.101802    0.000000    0.000000    0.000000    0.000000
  0.035430862   -0.050148  -97.255547  -98.363251   10.309359    0.000000    0.000000    0.000000    0.000000
  0.035631263   -0.058581  -97.731865  -98.050873    3.218023    0.000000    0.000000    0.000000    0.000000
  0.035831663   -0.066311  -98.236214  -99.524000   -1.636590    0.000000    0.000000    0.000000    0.000000
  0.036032064   -0.077191  -98.770096  -99.286790   12.547264    0.000000    0.000000    0.000000    0.000000
  0.036232465   -0.081837  -99.354370  -98.427837    8.994830    0.000000    0.000000    0.000000    0.000000
  0.036432866   -0.084420  -99.915207  -99.994260    1.308944    0.000000    0.000000    0.000000    0.000000
  0.036633267   -0.085182 -100.479103  -99.001159    8.080620    0.000000    0.000000    0.000000    0.000000
  0.036833667   -0.086027 -101.028442 -100.242090   12.693338    0.000000    0.000000    0.000000    0.000000
  0.037034068   -0.076081 -101.555496  -99.665492   22.994289    0.000000    0.000000    0.000000    0.000000
  0.037234469   -0.064666 -102.020088  -99.564123    8.307316    0.000000    0.000000    0.000000    0.000000
  0.037434870   -0.058753 -102.462746 -101.933917    4.281424    0.000000    0.000000    0.000000    0.000000
  0.037635271   -0.055757 -102.884224  -98.594010    1.749475    0.000000    0.000000    0.000000    0.000000
  0.037835671   -0.060196 -103.313461  -99.729353   12.900572    0.000000    0.000000    0.000000    0.000000
  0.038036072   -0.070282 -103.786430  -99.582112   16.134117    0.000000    0.000000    0.000000    0.000000
  0.038236473   -0.076189 -104.260399 -100.102664   11.058184    0.000000    0.000000    0.000000    0.000000
  0.038436874   -0.083533 -104.759628  -99.276566    8.920182    0.000000    0.000000    0.000000    0.000000
  0.038637275   -0.095168 -105.262367  -98.378616    9.096604    0.000000    0.000000    0.000000    0.000000
  0.038837675   -0.103637 -105.800072  -99.395150    5.428119    0.000000    0.000000    0.000000    0.000000
  0.039038076   -0.114224 -106.342354  -98.426214   12.254452    0.000000    0.000000    0.000000    0.000000
  0.039238477   -0.119141 -106.908379  -97.948721   10.373652    0.000000    0.000000    0.000000    0.000000
  0.039438878   -0.118933 -107.466362  -99.088820   14.231336    0.000000    0.000000    0.000000    0.000000
  0.039639279   -0.114380 -108.014206  -99.634295    9.242995    0.000000    0.000000    0.000000    0.000000
  0.039839679   -0.105232 -108.547058 -101.360948    7.625780    0.000000    0.000000    0.000000    0.000000
  0.040040080   -0.101541 -109.054314  -99.386906    1.454633    0.000000    0.000000    0.000000    0.000000
  0.040240481   -0.094908 -109.536858 -100.184313   -0.929306    0.000000    0.000000    0.000000    0.000000
  0.040440882   -0.088890 -110.022682 -101.093009    3.386032    0.000000    0.000000    0.000000    0.000000
  0.040641283   -0.087161 -110.494026 -101.403733   -0.901599    0.000000    0.000000    0.000000    0.000000
  0.040841683   -0.089315 -110.973785 -101.683052    2.110156    0.000000    0.000000    0.000000    0.000000
  0.041042084   -0.091366 -111.449524 -100.495598    7.708923    0.000000    0.000000    0.000000    0.000000
  0.041242485   -0.100158 -111.936455 -103.469454   14.561999    0.000000    0.000000    0.000000    0.000000
  0.041442886   -0.113517 -112.442108 -102.348323   -4.000401    0.000000    0.000000    0.000000    0.000000
  0.041643287   -0.122221 -112.981537 -101.864457   17.376236    0.000000    0.000000    0.000000    0.000000
  0.041843687   -0.126705 -113.541756 -101.598344   15.206778    0.000000    0.000000    0.000000    0.000000
  0.042044088   -0.122583 -114.092728  -99.779061    2.645008    0.000000    0.000000    0.000000    0.000000
  0.042244489   -0.115805 -114.627747 -100.705852   10.569973    0.000000    0.000000    0.000000    0.000000
  0.042444890   -0.103359 -115.126472 -101.538943   13.407223    0.000000    0.000000    0.000000    0.000000
  0.042645291   -0.088915 -115.576118 -100.737625    4.523841    0.000000    0.000000    0.000000    0.000000
  0.042845691   -0.084551 -116.007553  -99.883510    6.138787    0.000000    0.000000    0.000000    0.000000
  0.043046092   -0.087037 -116.449440 -100.147939   13.928393    0.000000    0.000000    0.000000    0.000000
  0.043246493   -0.089269 -116.893349 -100.105838    7.780220    0.000000    0.000000    0.000000    0.000000
  0.043446894   -0.096165 -117.348999 -101.038348    3.812602    0.000000    0.000000    0.000000    0.000000
  0.043647295   -0.099729 -117.811378  -99.216216    6.810691    0.000000    0.000000    0.000000    0.000000
  0.043847695   -0.107102 -118.280807 -100.235714   16.062063    0.000000    0.000000    0.000000    0.000000
  0.044048096   -0.114699 -118.756828  -99.822180    0.686185    0.000000    0.000000    0.000000    0.000000
  0.044248497   -0.123383 -119.278282 -100.196626   -5.238298    0.000000    0.000000    0.000000    0.000000
  0.044448898   -0.128113 -119.799553 -101.371216    6.043633    0.000000    0.000000    0.000000    0.000000
  0.044649299   -0.129997 -120.319687 -100.813902   -6.712811    0.000000    0.000000    0.000000    0.000000
  0.044849699   -0.130384 -120.832504 -102.494998    3.772952    0.000000    0.000000    0.000000    0.000000
  0.045050100   -0.126851 -121.327492 -102.582804    5.206243    0.000000    0.000000    0.000000    0.000000
  0.045250501   -0.125272 -121.832542 -101.896517   -9.350347    0.000000    0.000000    0.000000    0.000000
  0.045450902   -0.126691 -122.327240 -101.711367   -8.804027    0.000000    0.000000    0.000000    0.000000
  0.045651303   -0.125727 -122.834343 -101.916288   -3.824104    0.000000    0.000000    0.000000    0.000000
  0.045851703   -0.122632 -123.328247 -103.313191    4.742351    0.000000    0.000000    0.000000    0.000000
  0.046052104   -0.119920 -123.819366 -102.432980    6.044077    0.000000    0.000000    0.000000    0.000000
  0.046252505   -0.121251 -124.276428 -101.549661   10.953435    0.000000    0.000000    0.000000    0.000000
  0.046452906   -0.126276 -124.719513 -102.753193   13.809239    0.000000    0.000000    0.000000    0.000000
  0.046653307   -0.138531 -125.178856 -104.382589   13.476581    0.000000    0.000000    0.000000    0.000000
  0.046853707   -0.143999 -125.671181 -103.792618   20.058084    0.000000    0.000000    0.000000    0.000000
  0.047054108   -0.150712 -126.222809 -103.181895   -2.207593    0.000000    0.000000    0.000000    0.000000
  0.047254509   -0.149526 -126.739624 -103.049099   -4.060776    0.000000    0.000000    0.000000    0.000000
  0.047454910   -0.143648 -127.292023 -102.350105   10.542379    0.000000    0.000000    0.000000    0.000000
  0.047655311   -0.133263 -127.760078 -103.087994   15.181040    0.000000    0.000000    0.000000    0.000000
  0.047855711   -0.128915 -128.208588 -101.361201   10.178598    0.000000    0.000000    0.000000    0.000000
  0.048056112   -0.124177 -128.681351 -100.693639    9.698907    0.000000    0.000000    0.000000    0.000000
  0.048256513   -0.123074 -129.109467 -100.271358    0.067780    0.000000    0.000000    0.000000    0.000000
  0.048456914   -0.124109 -129.560043  -99.743505    7.274551    0.000000    0.000000    0.000000    0.000000
  0.048657315   -0.126778 -129.996536 -100.257885   10.581621    0.000000    0.000000    0.000000    0.000000
  0.048857715   -0.129891 -130.429047 -101.839560   -5.192046    0.000000    0.000000    0.000000    0.000000
  0.049058116   -0.138171 -130.877136 -102.182612    5.732421    0.000000    0.000000    0.000000    0.000000
  0.049258517   -0.145205 -131.344086 -100.157762   -0.337312    0.000000    0.000000    0.000000    0.000000
  0.049458918   -0.151437 -131.808350  -99.192388   -5.416090    0.000000    0.000000    0.000000    0.000000
  0.049659319   -0.156316 -132.317368 -101.209523    8.861242    0.000000    0.000000    0.000000    0.000000
  0.049859719   -0.153772 -132.791458 -102.104778    6.175965    0.000000    0.000000    0.000000    0.000000
  0.050060120   -0.158439 -133.287979 -105.112881   -9.248990    0.000000    0.000000    0.000000    0.000000
  0.050260521   -0.159647 -133.741821 -104.752852   -8.746240    0.000000    0.000000    0.000000    0.000000
  0.050460922   -0.161616 -134.218887 -103.963297   -1.205343    0.000000    0.000000    0.000000    0.000000
  0.050661323   -0.162998 -134.722824 -103.991540   -9.492046    0.000000    0.000000    0.000000    0.000000
  0.050861723   -0.158900 -135.230576 -103.830547   -7.607196    0.000000    0.000000    0.000000    0.000000
  0.051062124   -0.157529 -135.718735 -102.952119    7.988057    0.000000    0.000000    0.000000    0.000000
  0.051262525   -0.155897 -136.185471 -105.976360    6.181707    0.000000    0.000000    0.000000    0.000000
  0.051462926   -0.155174 -136.634003 -105.724938    2.614985    0.000000    0.000000    0.000000    0.000000
  0.051663327   -0.158649 -137.066742 -104.536922   14.649590    0.000000    0.000000    0.000000    0.000000
  0.051863727   -0.164989 -137.498383 -106.752210    8.139550    0.000000    0.000000    0.000000    0.000000
  0.052064128   -0.172335 -137.972885 -102.513607   18.702787    0.000000    0.000000    0.000000    0.000000
  0.052264529   -0.177619 -138.446304 -101.809607   12.791076    0.000000    0.000000    0.000000    0.000000
  0.052464930   -0.177261 -138.960922 -105.616707   17.323067    0.000000    0.000000    0.000000    0.000000
  0.052665331   -0.176826 -139.457962 -102.821383   19.860975    0.000000    0.000000    0.000000    0.000000
  0.052865731   -0.169656 -139.928986 -101.778837    9.008835    0.000000    0.000000    0.000000    0.000000
