! Anritsu VNA Master:                     Model: MS2036C/10/77
! SN:                                  1601066
! /bd0/18may26.balun/2a.m2.s2p
! Existing Calibration Information:
! TYPE:                         Current Settings,       Active Cal Settings
! TIME:             	   05/26/2018 07:50:10 PM,    05/26/2018 07:26:54 PM
! INTERNAL TEMP:    	                   45.3 C,                    45.5 C
! # POINTS:         	                      500,                       500
! START FREQ:       	               20.000 MHz,                20.000 MHz
! STOP FREQ:        	              120.000 MHz,               120.000 MHz
! SOURCE POWER:     	                     High,                      High
! IFBW:             	                    50 Hz,                     50 Hz
! AVG FACTOR:       	                       1 ,                        1 
! REF PLANE 1:      	                     0 mm,                      0 mm
! REF PLANE 2:      	                     0 mm,                      0 mm
! CAL TYPE:         	                 Full S11,                  Full S11
! CAL METHOD:       	                     SOLT,                      SOLT
! CAL LINE TYPE:    	                     Coax,                      Coax
! DUT PORT 1:       	                K-Conn(M),                 K-Conn(M)
! DUT PORT 2:       	                K-Conn(M),                 K-Conn(M)
! CAL STATUS:       	        OK: Accuracy High,                        --
# GHZ S DB R 50.0
! FREQ.GHZ       S11DB        S11A       S21DB        S21A       S12DB        S12A       S22DB        S22A
  0.020000000   -0.619283 -125.586678  -90.353192   33.918991    0.000000    0.000000    0.000000    0.000000
  0.020200401   -0.615547 -127.074043  -91.085552   25.848690    0.000000    0.000000    0.000000    0.000000
  0.020400802   -0.614453 -128.532104  -91.148252   28.301176    0.000000    0.000000    0.000000    0.000000
  0.020601202   -0.613399 -129.986633  -91.459894   31.569687    0.000000    0.000000    0.000000    0.000000
  0.020801603   -0.616882 -131.469345  -91.762998   29.642990    0.000000    0.000000    0.000000    0.000000
  0.021002004   -0.621738 -132.978882  -92.523296   28.251333    0.000000    0.000000    0.000000    0.000000
  0.021202405   -0.629047 -134.502182  -92.579043   35.744190    0.000000    0.000000    0.000000    0.000000
  0.021402806   -0.632600 -136.020493  -93.436802   30.750519    0.000000    0.000000    0.000000    0.000000
  0.021603206   -0.636511 -137.548203  -93.040526   35.090748    0.000000    0.000000    0.000000    0.000000
  0.021803607   -0.640365 -139.063568  -92.712058   33.391361    0.000000    0.000000    0.000000    0.000000
  0.022004008   -0.646748 -140.614487  -92.657264   34.254047    0.000000    0.000000    0.000000    0.000000
  0.022204409   -0.649886 -142.183945  -92.688440   35.794430    0.000000    0.000000    0.000000    0.000000
  0.022404810   -0.652524 -143.754242  -92.823398   39.662331    0.000000    0.000000    0.000000    0.000000
  0.022605210   -0.652331 -145.326843  -93.035568   39.487595    0.000000    0.000000    0.000000    0.000000
  0.022805611   -0.654188 -146.877686  -92.975578   34.015953    0.000000    0.000000    0.000000    0.000000
  0.023006012   -0.658792 -148.444061  -92.562735   37.823349    0.000000    0.000000    0.000000    0.000000
  0.023206413   -0.667993 -150.024765  -92.392313   31.172928    0.000000    0.000000    0.000000    0.000000
  0.023406814   -0.674731 -151.635178  -92.796252   27.424728    0.000000    0.000000    0.000000    0.000000
  0.023607214   -0.682575 -153.274216  -91.710448   31.227249    0.000000    0.000000    0.000000    0.000000
  0.023807615   -0.690690 -154.884369  -91.950986   27.934450    0.000000    0.000000    0.000000    0.000000
  0.024008016   -0.700678 -156.497147  -92.654619   23.759108    0.000000    0.000000    0.000000    0.000000
  0.024208417   -0.711293 -158.124512  -92.943488   21.950731    0.000000    0.000000    0.000000    0.000000
  0.024408818   -0.722492 -159.769974  -93.365685   16.128895    0.000000    0.000000    0.000000    0.000000
  0.024609218   -0.733085 -161.442886  -93.212574   19.600435    0.000000    0.000000    0.000000    0.000000
  0.024809619   -0.738349 -163.129395  -93.432669   17.813606    0.000000    0.000000    0.000000    0.000000
  0.025010020   -0.743735 -164.814972  -93.692461   17.705175    0.000000    0.000000    0.000000    0.000000
  0.025210421   -0.753038 -166.487534  -94.893492   18.580132    0.000000    0.000000    0.000000    0.000000
  0.025410822   -0.762436 -168.164017  -93.961296   23.095730    0.000000    0.000000    0.000000    0.000000
  0.025611222   -0.772538 -169.851578  -94.463360   19.100601    0.000000    0.000000    0.000000    0.000000
  0.025811623   -0.781283 -171.552765  -95.384659   23.519793    0.000000    0.000000    0.000000    0.000000
  0.026012024   -0.792452 -173.271088  -94.502475   26.122604    0.000000    0.000000    0.000000    0.000000
  0.026212425   -0.807586 -174.996918  -96.331657   24.194042    0.000000    0.000000    0.000000    0.000000
  0.026412826   -0.824976 -176.727234  -95.367363   25.815943    0.000000    0.000000    0.000000    0.000000
  0.026613226   -0.840380 -178.467285  -95.391353   24.393719    0.000000    0.000000    0.000000    0.000000
  0.026813627   -0.857685  179.774673  -96.030750   27.605043    0.000000    0.000000    0.000000    0.000000
  0.027014028   -0.872949  178.024780  -95.924693   22.759930    0.000000    0.000000    0.000000    0.000000
  0.027214429   -0.888202  176.271820  -95.288194   26.507198    0.000000    0.000000    0.000000    0.000000
  0.027414830   -0.905534  174.497406  -94.794634   23.737680    0.000000    0.000000    0.000000    0.000000
  0.027615230   -0.925427  172.721390  -95.053766   22.655169    0.000000    0.000000    0.000000    0.000000
  0.027815631   -0.945871  170.904114  -94.969988   24.490406    0.000000    0.000000    0.000000    0.000000
  0.028016032   -0.967406  169.074310  -94.876300   22.117657    0.000000    0.000000    0.000000    0.000000
  0.028216433   -0.987462  167.231827  -95.450382   17.535650    0.000000    0.000000    0.000000    0.000000
  0.028416834   -1.011264  165.394135  -95.834788   16.002892    0.000000    0.000000    0.000000    0.000000
  0.028617234   -1.035305  163.546051  -96.837241   15.312763    0.000000    0.000000    0.000000    0.000000
  0.028817635   -1.061266  161.678192  -95.927396   17.797657    0.000000    0.000000    0.000000    0.000000
  0.029018036   -1.087161  159.779083  -95.813068   12.258416    0.000000    0.000000    0.000000    0.000000
  0.029218437   -1.111144  157.868286  -96.668338   12.424158    0.000000    0.000000    0.000000    0.000000
  0.029418838   -1.130269  155.974152  -96.297563    9.177991    0.000000    0.000000    0.000000    0.000000
  0.029619238   -1.151449  154.103348  -96.907020   15.694540    0.000000    0.000000    0.000000    0.000000
  0.029819639   -1.175188  152.242249  -97.052192   17.933199    0.000000    0.000000    0.000000    0.000000
  0.030020040   -1.202920  150.373123  -97.665524   20.973051    0.000000    0.000000    0.000000    0.000000
  0.030220441   -1.234383  148.490814  -97.251348   19.806370    0.000000    0.000000    0.000000    0.000000
  0.030420842   -1.271493  146.567139  -97.960853   19.676481    0.000000    0.000000    0.000000    0.000000
  0.030621242   -1.310314  144.614838  -97.900077   13.616130    0.000000    0.000000    0.000000    0.000000
  0.030821643   -1.344465  142.622864  -97.106435   21.447680    0.000000    0.000000    0.000000    0.000000
  0.031022044   -1.375500  140.619476  -97.513182   19.800261    0.000000    0.000000    0.000000    0.000000
  0.031222445   -1.403196  138.611191  -97.098376   12.090372    0.000000    0.000000    0.000000    0.000000
  0.031422846   -1.430667  136.618515  -97.236739   11.380889    0.000000    0.000000    0.000000    0.000000
  0.031623246   -1.459175  134.627090  -97.864072   21.324623    0.000000    0.000000    0.000000    0.000000
  0.031823647   -1.482246  132.683746  -97.447405   11.751615    0.000000    0.000000    0.000000    0.000000
  0.032024048   -1.509546  130.726639  -97.663418   15.984311    0.000000    0.000000    0.000000    0.000000
  0.032224449   -1.539136  128.784531  -96.435602   11.596669    0.000000    0.000000    0.000000    0.000000
  0.032424850   -1.575008  126.837776  -96.997134    9.181528    0.000000    0.000000    0.000000    0.000000
  0.032625251   -1.615217  124.869781  -96.361587    9.401319    0.000000    0.000000    0.000000    0.000000
  0.032825651   -1.662004  122.902550  -97.002776    8.963893    0.000000    0.000000    0.000000    0.000000
  0.033026052   -1.711841  120.895836  -98.201858   12.289390    0.000000    0.000000    0.000000    0.000000
  0.033226453   -1.759337  118.891357  -97.273309   20.681013    0.000000    0.000000    0.000000    0.000000
  0.033426854   -1.809392  116.854561  -98.529690   11.419315    0.000000    0.000000    0.000000    0.000000
  0.033627255   -1.857145  114.788445  -97.731638    4.875784    0.000000    0.000000    0.000000    0.000000
  0.033827655   -1.903106  112.684715  -98.097079   10.333691    0.000000    0.000000    0.000000    0.000000
  0.034028056   -1.955068  110.593231  -98.167153   -1.771100    0.000000    0.000000    0.000000    0.000000
  0.034228457   -2.002807  108.480637  -99.247350    8.929552    0.000000    0.000000    0.000000    0.000000
  0.034428858   -2.044826  106.405563  -98.412761   18.933111    0.000000    0.000000    0.000000    0.000000
  0.034629259   -2.084231  104.307755  -98.463070   19.709610    0.000000    0.000000    0.000000    0.000000
  0.034829659   -2.123787  102.279289  -97.966546   15.303741    0.000000    0.000000    0.000000    0.000000
  0.035030060   -2.167418  100.295563  -99.684352   18.353844    0.000000    0.000000    0.000000    0.000000
  0.035230461   -2.220743   98.315567  -98.729830   11.864313    0.000000    0.000000    0.000000    0.000000
  0.035430862   -2.277370   96.306236  -98.993947    5.916338    0.000000    0.000000    0.000000    0.000000
  0.035631263   -2.338758   94.276505  -97.756970   10.831958    0.000000    0.000000    0.000000    0.000000
  0.035831663   -2.404283   92.205513  -98.710200    5.073721    0.000000    0.000000    0.000000    0.000000
  0.036032064   -2.464609   90.087967  -97.420855   14.865075    0.000000    0.000000    0.000000    0.000000
  0.036232465   -2.524053   87.952568  -97.811522   11.268533    0.000000    0.000000    0.000000    0.000000
  0.036432866   -2.584522   85.762222  -97.929345   12.917099    0.000000    0.000000    0.000000    0.000000
  0.036633267   -2.636203   83.611023  -98.548769    3.985297    0.000000    0.000000    0.000000    0.000000
  0.036833667   -2.685363   81.473404  -97.597137   17.827667    0.000000    0.000000    0.000000    0.000000
  0.037034068   -2.734501   79.344788  -98.236837    9.077290    0.000000    0.000000    0.000000    0.000000
  0.037234469   -2.779187   77.245285  -98.834346    7.406843    0.000000    0.000000    0.000000    0.000000
  0.037434870   -2.824561   75.191345 -100.157889    9.315207    0.000000    0.000000    0.000000    0.000000
  0.037635271   -2.873938   73.123932  -98.462182   -1.043910    0.000000    0.000000    0.000000    0.000000
  0.037835671   -2.923897   71.085075  -98.797280   -1.713152    0.000000    0.000000    0.000000    0.000000
  0.038036072   -2.976817   69.015831  -99.894254    2.290712    0.000000    0.000000    0.000000    0.000000
  0.038236473   -3.040280   66.943161  -99.456429    8.994436    0.000000    0.000000    0.000000    0.000000
  0.038436874   -3.107708   64.863731  -99.850488    9.722527    0.000000    0.000000    0.000000    0.000000
  0.038637275   -3.175018   62.778488 -100.542737    2.660058    0.000000    0.000000    0.000000    0.000000
  0.038837675   -3.240467   60.659176 -101.590470   11.963826    0.000000    0.000000    0.000000    0.000000
  0.039038076   -3.301872   58.460274 -101.541910   -3.519415    0.000000    0.000000    0.000000    0.000000
  0.039238477   -3.357938   56.319847 -100.362266    7.736898    0.000000    0.000000    0.000000    0.000000
  0.039438878   -3.403547   54.201511  -98.782949   10.914443    0.000000    0.000000    0.000000    0.000000
  0.039639279   -3.447779   52.116684 -100.486908   17.070667    0.000000    0.000000    0.000000    0.000000
  0.039839679   -3.492801   50.099159 -100.793328    5.853904    0.000000    0.000000    0.000000    0.000000
  0.040040080   -3.541011   48.127110  -99.148570    8.966783    0.000000    0.000000    0.000000    0.000000
  0.040240481   -3.595664   46.121868 -100.987369    6.975733    0.000000    0.000000    0.000000    0.000000
  0.040440882   -3.655671   44.121326  -99.711114   12.102747    0.000000    0.000000    0.000000    0.000000
  0.040641283   -3.719083   42.080666 -101.135899   15.558017    0.000000    0.000000    0.000000    0.000000
  0.040841683   -3.782265   40.049404 -100.726527   -3.480229    0.000000    0.000000    0.000000    0.000000
  0.041042084   -3.844102   37.993294 -100.373729   11.623717    0.000000    0.000000    0.000000    0.000000
  0.041242485   -3.905543   35.936012 -100.432509   11.703573    0.000000    0.000000    0.000000    0.000000
  0.041442886   -3.962880   33.861603 -100.438689    4.281531    0.000000    0.000000    0.000000    0.000000
  0.041643287   -4.019435   31.793520 -100.332753    6.781789    0.000000    0.000000    0.000000    0.000000
  0.041843687   -4.070995   29.719761 -100.033790    6.626874    0.000000    0.000000    0.000000    0.000000
  0.042044088   -4.124546   27.669939 -100.265813    4.183939    0.000000    0.000000    0.000000    0.000000
  0.042244489   -4.173871   25.634666 -100.676583   -0.146900    0.000000    0.000000    0.000000    0.000000
  0.042444890   -4.223519   23.639488 -100.893985    8.243491    0.000000    0.000000    0.000000    0.000000
  0.042645291   -4.275845   21.608229 -101.903472   11.367011    0.000000    0.000000    0.000000    0.000000
  0.042845691   -4.321921   19.576220 -102.894873    3.006375    0.000000    0.000000    0.000000    0.000000
  0.043046092   -4.368240   17.594107 -101.099315    7.038111    0.000000    0.000000    0.000000    0.000000
  0.043246493   -4.416031   15.577903 -101.167592    3.423710    0.000000    0.000000    0.000000    0.000000
  0.043446894   -4.462320   13.592001 -102.142320   14.967352    0.000000    0.000000    0.000000    0.000000
  0.043647295   -4.514034   11.598511 -101.241978   18.125574    0.000000    0.000000    0.000000    0.000000
  0.043847695   -4.562561    9.644868 -102.554333   -2.393329    0.000000    0.000000    0.000000    0.000000
  0.044048096   -4.605699    7.649958 -102.432376    4.051070    0.000000    0.000000    0.000000    0.000000
  0.044248497   -4.649813    5.694536 -102.832841    0.405709    0.000000    0.000000    0.000000    0.000000
  0.044448898   -4.689576    3.721972 -101.269809   15.046792    0.000000    0.000000    0.000000    0.000000
  0.044649299   -4.729968    1.825324 -100.173833   -1.334152    0.000000    0.000000    0.000000    0.000000
  0.044849699   -4.771569   -0.083431 -102.561436    8.992873    0.000000    0.000000    0.000000    0.000000
  0.045050100   -4.813542   -1.984057 -101.367181    8.949056    0.000000    0.000000    0.000000    0.000000
  0.045250501   -4.858635   -3.877655 -101.027216   -3.319573    0.000000    0.000000    0.000000    0.000000
  0.045450902   -4.900435   -5.780551 -101.840502   14.257884    0.000000    0.000000    0.000000    0.000000
  0.045651303   -4.945111   -7.663342  -99.687588    8.587831    0.000000    0.000000    0.000000    0.000000
  0.045851703   -4.982653   -9.582155 -101.539352    4.468314    0.000000    0.000000    0.000000    0.000000
  0.046052104   -5.023427  -11.470200 -101.208450   10.726497    0.000000    0.000000    0.000000    0.000000
  0.046252505   -5.060245  -13.359223 -101.473463   -1.255751    0.000000    0.000000    0.000000    0.000000
  0.046452906   -5.097824  -15.200472 -102.168533    1.169929    0.000000    0.000000    0.000000    0.000000
  0.046653307   -5.136386  -17.057453 -102.042755    6.945732    0.000000    0.000000    0.000000    0.000000
  0.046853707   -5.174578  -18.923887 -102.811192    4.819544    0.000000    0.000000    0.000000    0.000000
  0.047054108   -5.210564  -20.783073 -104.503511   16.776205    0.000000    0.000000    0.000000    0.000000
  0.047254509   -5.240596  -22.644117 -103.243848  -16.803806    0.000000    0.000000    0.000000    0.000000
  0.047454910   -5.275892  -24.498915 -105.053345   -3.944923    0.000000    0.000000    0.000000    0.000000
  0.047655311   -5.308287  -26.329323 -101.289061   -0.207789    0.000000    0.000000    0.000000    0.000000
  0.047855711   -5.340515  -28.139935 -101.769229   12.419429    0.000000    0.000000    0.000000    0.000000
  0.048056112   -5.370581  -29.973005 -105.563088    0.595672    0.000000    0.000000    0.000000    0.000000
  0.048256513   -5.397777  -31.762177 -103.511797   -2.789451    0.000000    0.000000    0.000000    0.000000
  0.048456914   -5.421420  -33.596420 -100.608302   17.546986    0.000000    0.000000    0.000000    0.000000
  0.048657315   -5.442893  -35.396324 -102.496487    1.524595    0.000000    0.000000    0.000000    0.000000
  0.048857715   -5.464060  -37.142120 -102.704903    5.151158    0.000000    0.000000    0.000000    0.000000
  0.049058116   -5.485166  -38.863506 -103.684545   -1.368806    0.000000    0.000000    0.000000    0.000000
  0.049258517   -5.508280  -40.553535 -102.717386   10.068406    0.000000    0.000000    0.000000    0.000000
  0.049458918   -5.529395  -42.221748 -102.034927    6.617261    0.000000    0.000000    0.000000    0.000000
  0.049659319   -5.556864  -43.906616 -102.643188    4.164389    0.000000    0.000000    0.000000    0.000000
  0.049859719   -5.580584  -45.569229 -101.249569   -2.055649    0.000000    0.000000    0.000000    0.000000
  0.050060120   -5.609366  -47.289688 -100.237346   14.079344    0.000000    0.000000    0.000000    0.000000
  0.050260521   -5.634922  -48.955418 -102.066502    2.386657    0.000000    0.000000    0.000000    0.000000
  0.050460922   -5.661583  -50.652470 -102.467561    1.491640    0.000000    0.000000    0.000000    0.000000
  0.050661323   -5.683162  -52.337448 -101.180843   -2.053556    0.000000    0.000000    0.000000    0.000000
  0.050861723   -5.700405  -54.045410 -102.004542  -19.101795    0.000000    0.000000    0.000000    0.000000
  0.051062124   -5.715431  -55.717064 -100.885900   -7.957311    0.000000    0.000000    0.000000    0.000000
  0.051262525   -5.729710  -57.341030 -101.613423   -1.462076    0.000000    0.000000    0.000000    0.000000
  0.051462926   -5.744052  -58.978504 -101.484508   -6.790191    0.000000    0.000000    0.000000    0.000000
  0.051663327   -5.764048  -60.562809 -104.298503   16.817583    0.000000    0.000000    0.000000    0.000000
  0.051863727   -5.779652  -62.157616 -105.071071  -16.316769    0.000000    0.000000    0.000000    0.000000
  0.052064128   -5.798480  -63.743710 -106.710589   -3.626345    0.000000    0.000000    0.000000    0.000000
  0.052264529   -5.817867  -65.333694 -103.878923    8.351710    0.000000    0.000000    0.000000    0.000000
  0.052464930   -5.829403  -66.950150 -105.029153    6.281737    0.000000    0.000000    0.000000    0.000000
  0.052665331   -5.846831  -68.527473 -104.626906   11.692656    0.000000    0.000000    0.000000    0.000000
  0.052865731   -5.862074  -70.103165 -104.756768    4.572018    0.000000    0.000000    0.000000    0.000000
