! Anritsu VNA Master:                     Model: MS2036C/10/77
! SN:                                  1601066
! /bd0/18may26.balun/2a.r200.2.s2p
! Existing Calibration Information:
! TYPE:                         Current Settings,       Active Cal Settings
! TIME:             	   05/26/2018 08:01:06 PM,    05/26/2018 07:26:54 PM
! INTERNAL TEMP:    	                   45.5 C,                    45.5 C
! # POINTS:         	                      500,                       500
! START FREQ:       	               20.000 MHz,                20.000 MHz
! STOP FREQ:        	              120.000 MHz,               120.000 MHz
! SOURCE POWER:     	                     High,                      High
! IFBW:             	                    50 Hz,                     50 Hz
! AVG FACTOR:       	                       1 ,                        1 
! REF PLANE 1:      	                     0 mm,                      0 mm
! REF PLANE 2:      	                     0 mm,                      0 mm
! CAL TYPE:         	                 Full S11,                  Full S11
! CAL METHOD:       	                     SOLT,                      SOLT
! CAL LINE TYPE:    	                     Coax,                      Coax
! DUT PORT 1:       	                K-Conn(M),                 K-Conn(M)
! DUT PORT 2:       	                K-Conn(M),                 K-Conn(M)
! CAL STATUS:       	        OK: Accuracy High,                        --
# GHZ S DB R 50.0
! FREQ.GHZ       S11DB        S11A       S21DB        S21A       S12DB        S12A       S22DB        S22A
  0.020000000   -4.554317  -22.651365  -90.446101   40.187202    0.000000    0.000000    0.000000    0.000000
  0.020200401   -4.553291  -22.882595  -90.963505   36.754345    0.000000    0.000000    0.000000    0.000000
  0.020400802   -4.554354  -23.121941  -90.593769   35.978607    0.000000    0.000000    0.000000    0.000000
  0.020601202   -4.552428  -23.365595  -91.085614   34.440926    0.000000    0.000000    0.000000    0.000000
  0.020801603   -4.552981  -23.613352  -90.749485   33.637531    0.000000    0.000000    0.000000    0.000000
  0.021002004   -4.552501  -23.865263  -91.163702   34.280209    0.000000    0.000000    0.000000    0.000000
  0.021202405   -4.555623  -24.118942  -91.764881   32.789024    0.000000    0.000000    0.000000    0.000000
  0.021402806   -4.557224  -24.357708  -91.549511   25.487982    0.000000    0.000000    0.000000    0.000000
  0.021603206   -4.557056  -24.608496  -91.675174   27.311981    0.000000    0.000000    0.000000    0.000000
  0.021803607   -4.557486  -24.819563  -92.088699   26.690676    0.000000    0.000000    0.000000    0.000000
  0.022004008   -4.556148  -25.053032  -92.837343   31.509428    0.000000    0.000000    0.000000    0.000000
  0.022204409   -4.557235  -25.271839  -92.335268   28.505222    0.000000    0.000000    0.000000    0.000000
  0.022404810   -4.557089  -25.486677  -93.089818   25.933825    0.000000    0.000000    0.000000    0.000000
  0.022605210   -4.554953  -25.744034  -92.681677   31.269592    0.000000    0.000000    0.000000    0.000000
  0.022805611   -4.557353  -25.970854  -93.349588   28.676741    0.000000    0.000000    0.000000    0.000000
  0.023006012   -4.556965  -26.197172  -94.364373   31.073868    0.000000    0.000000    0.000000    0.000000
  0.023206413   -4.551847  -26.417919  -92.765623   27.503376    0.000000    0.000000    0.000000    0.000000
  0.023406814   -4.547318  -26.663492  -93.404655   27.965549    0.000000    0.000000    0.000000    0.000000
  0.023607214   -4.544871  -26.894625  -93.176010   29.745008    0.000000    0.000000    0.000000    0.000000
  0.023807615   -4.543383  -27.109783  -92.930525   29.814602    0.000000    0.000000    0.000000    0.000000
  0.024008016   -4.549081  -27.316896  -93.072338   31.781998    0.000000    0.000000    0.000000    0.000000
  0.024208417   -4.550332  -27.520729  -92.783378   32.085983    0.000000    0.000000    0.000000    0.000000
  0.024408818   -4.554325  -27.744783  -93.617070   28.074080    0.000000    0.000000    0.000000    0.000000
  0.024609218   -4.558731  -27.940578  -93.463294   23.424374    0.000000    0.000000    0.000000    0.000000
  0.024809619   -4.560200  -28.172588  -93.514457   26.170588    0.000000    0.000000    0.000000    0.000000
  0.025010020   -4.564682  -28.389381  -94.070107   24.920759    0.000000    0.000000    0.000000    0.000000
  0.025210421   -4.567033  -28.619156  -94.167001   30.819624    0.000000    0.000000    0.000000    0.000000
  0.025410822   -4.569155  -28.872633  -93.470793   22.557552    0.000000    0.000000    0.000000    0.000000
  0.025611222   -4.571886  -29.129759  -93.927868   21.664759    0.000000    0.000000    0.000000    0.000000
  0.025811623   -4.571422  -29.378939  -94.060088   21.711147    0.000000    0.000000    0.000000    0.000000
  0.026012024   -4.573231  -29.644152  -94.211985   24.164806    0.000000    0.000000    0.000000    0.000000
  0.026212425   -4.571615  -29.905355  -94.424733   17.717606    0.000000    0.000000    0.000000    0.000000
  0.026412826   -4.570956  -30.195822  -94.924014   21.913652    0.000000    0.000000    0.000000    0.000000
  0.026613226   -4.566546  -30.429600  -95.290901   17.848475    0.000000    0.000000    0.000000    0.000000
  0.026813627   -4.561901  -30.630342  -95.674825   11.810425    0.000000    0.000000    0.000000    0.000000
  0.027014028   -4.560572  -30.823687  -95.867389   22.817665    0.000000    0.000000    0.000000    0.000000
  0.027214429   -4.561913  -31.023434  -95.275091   19.484283    0.000000    0.000000    0.000000    0.000000
  0.027414830   -4.563469  -31.224977  -95.733020   14.891989    0.000000    0.000000    0.000000    0.000000
  0.027615230   -4.565514  -31.425014  -95.786524   17.136133    0.000000    0.000000    0.000000    0.000000
  0.027815631   -4.570792  -31.658873  -96.261707   19.083134    0.000000    0.000000    0.000000    0.000000
  0.028016032   -4.575424  -31.902943  -95.723629   17.165886    0.000000    0.000000    0.000000    0.000000
  0.028216433   -4.573197  -32.149620  -96.496808   26.922806    0.000000    0.000000    0.000000    0.000000
  0.028416834   -4.571253  -32.428467  -97.682773   19.849007    0.000000    0.000000    0.000000    0.000000
  0.028617234   -4.564267  -32.684399  -95.972136   19.719728    0.000000    0.000000    0.000000    0.000000
  0.028817635   -4.562167  -32.921577  -96.119709   22.505606    0.000000    0.000000    0.000000    0.000000
  0.029018036   -4.559772  -33.146664  -97.100059   19.382376    0.000000    0.000000    0.000000    0.000000
  0.029218437   -4.557372  -33.365231  -96.690623   16.294588    0.000000    0.000000    0.000000    0.000000
  0.029418838   -4.553853  -33.546455  -95.839358   14.987082    0.000000    0.000000    0.000000    0.000000
  0.029619238   -4.552634  -33.722435  -96.376934   12.430605    0.000000    0.000000    0.000000    0.000000
  0.029819639   -4.552423  -33.876740  -95.747006   21.840923    0.000000    0.000000    0.000000    0.000000
  0.030020040   -4.551655  -34.062462  -96.556099   19.509678    0.000000    0.000000    0.000000    0.000000
  0.030220441   -4.559413  -34.253246  -97.249020   18.344673    0.000000    0.000000    0.000000    0.000000
  0.030420842   -4.565622  -34.493839  -96.844888   15.232366    0.000000    0.000000    0.000000    0.000000
  0.030621242   -4.570447  -34.744820  -96.134629   13.701399    0.000000    0.000000    0.000000    0.000000
  0.030821643   -4.572960  -35.002613  -97.547713   11.250750    0.000000    0.000000    0.000000    0.000000
  0.031022044   -4.577208  -35.258179  -96.602018   15.700666    0.000000    0.000000    0.000000    0.000000
  0.031222445   -4.574424  -35.485031  -97.868964    5.974315    0.000000    0.000000    0.000000    0.000000
  0.031422846   -4.579625  -35.739277  -97.621883    9.611851    0.000000    0.000000    0.000000    0.000000
  0.031623246   -4.579622  -36.028973  -96.549566    5.690628    0.000000    0.000000    0.000000    0.000000
  0.031823647   -4.581667  -36.273167  -97.135901   10.423481    0.000000    0.000000    0.000000    0.000000
  0.032024048   -4.574671  -36.525166  -95.903891   13.171266    0.000000    0.000000    0.000000    0.000000
  0.032224449   -4.571565  -36.768047  -98.656522    7.405637    0.000000    0.000000    0.000000    0.000000
  0.032424850   -4.563700  -36.991135  -97.760353   11.560472    0.000000    0.000000    0.000000    0.000000
  0.032625251   -4.554355  -37.188927  -97.513239   12.873982    0.000000    0.000000    0.000000    0.000000
  0.032825651   -4.554286  -37.365807  -98.200791    4.170104    0.000000    0.000000    0.000000    0.000000
  0.033026052   -4.558537  -37.538391  -96.825223    9.415946    0.000000    0.000000    0.000000    0.000000
  0.033226453   -4.566036  -37.718910  -98.387843    6.541538    0.000000    0.000000    0.000000    0.000000
  0.033426854   -4.570413  -37.951366  -98.416478    0.685306    0.000000    0.000000    0.000000    0.000000
  0.033627255   -4.572399  -38.214214  -97.730024   11.417569    0.000000    0.000000    0.000000    0.000000
  0.033827655   -4.575772  -38.473511  -98.006376   15.025711    0.000000    0.000000    0.000000    0.000000
  0.034028056   -4.578719  -38.721233  -97.971856   14.103579    0.000000    0.000000    0.000000    0.000000
  0.034228457   -4.577560  -38.987396  -97.600905   15.089687    0.000000    0.000000    0.000000    0.000000
  0.034428858   -4.577051  -39.221542  -97.937849   16.407570    0.000000    0.000000    0.000000    0.000000
  0.034629259   -4.570595  -39.443874  -96.859087   15.364524    0.000000    0.000000    0.000000    0.000000
  0.034829659   -4.562920  -39.680923  -97.752634   18.002522    0.000000    0.000000    0.000000    0.000000
  0.035030060   -4.560991  -39.905087  -97.883222   11.913840    0.000000    0.000000    0.000000    0.000000
  0.035230461   -4.556851  -40.093418  -98.917425    2.599980    0.000000    0.000000    0.000000    0.000000
  0.035430862   -4.554497  -40.266949  -99.583210    8.722709    0.000000    0.000000    0.000000    0.000000
  0.035631263   -4.558865  -40.460434  -98.858276   20.398228    0.000000    0.000000    0.000000    0.000000
  0.035831663   -4.562483  -40.648117 -100.484371   14.322630    0.000000    0.000000    0.000000    0.000000
  0.036032064   -4.567502  -40.888435  -98.641867    3.204197    0.000000    0.000000    0.000000    0.000000
  0.036232465   -4.573846  -41.131737  -98.797372    6.963206    0.000000    0.000000    0.000000    0.000000
  0.036432866   -4.579271  -41.390972  -99.340698    2.049263    0.000000    0.000000    0.000000    0.000000
  0.036633267   -4.583203  -41.651386  -99.862661    3.811755    0.000000    0.000000    0.000000    0.000000
  0.036833667   -4.588135  -41.924614 -100.065257   16.585781    0.000000    0.000000    0.000000    0.000000
  0.037034068   -4.591445  -42.170460  -99.198465    7.924285    0.000000    0.000000    0.000000    0.000000
  0.037234469   -4.588163  -42.419987 -101.572593   17.411919    0.000000    0.000000    0.000000    0.000000
  0.037434870   -4.585894  -42.655598  -98.773847   12.274582    0.000000    0.000000    0.000000    0.000000
  0.037635271   -4.581464  -42.918362  -99.316690    4.186115    0.000000    0.000000    0.000000    0.000000
  0.037835671   -4.575105  -43.176552 -100.260485   11.508451    0.000000    0.000000    0.000000    0.000000
  0.038036072   -4.565777  -43.404358 -101.690700    2.597279    0.000000    0.000000    0.000000    0.000000
  0.038236473   -4.558574  -43.574669  -99.684335   12.750134    0.000000    0.000000    0.000000    0.000000
  0.038436874   -4.555374  -43.722198  -98.582202    4.505025    0.000000    0.000000    0.000000    0.000000
  0.038637275   -4.562081  -43.882572  -98.882045   10.014609    0.000000    0.000000    0.000000    0.000000
  0.038837675   -4.570774  -44.064503 -100.346579    4.387681    0.000000    0.000000    0.000000    0.000000
  0.039038076   -4.578602  -44.297722  -99.810456    2.108435    0.000000    0.000000    0.000000    0.000000
  0.039238477   -4.587935  -44.537525  -98.053912    6.262336    0.000000    0.000000    0.000000    0.000000
  0.039438878   -4.592498  -44.779335  -99.596221    7.715630    0.000000    0.000000    0.000000    0.000000
  0.039639279   -4.597647  -45.048286 -100.237017    5.624837    0.000000    0.000000    0.000000    0.000000
  0.039839679   -4.598239  -45.325787  -99.688266    2.556402    0.000000    0.000000    0.000000    0.000000
  0.040040080   -4.597594  -45.584812 -100.427764   -2.144829    0.000000    0.000000    0.000000    0.000000
  0.040240481   -4.592660  -45.831223  -98.305536    0.701222    0.000000    0.000000    0.000000    0.000000
  0.040440882   -4.585913  -46.073296  -99.425175    5.719131    0.000000    0.000000    0.000000    0.000000
  0.040641283   -4.578753  -46.289001  -99.612001    4.485429    0.000000    0.000000    0.000000    0.000000
  0.040841683   -4.579066  -46.487057 -101.070663    4.238399    0.000000    0.000000    0.000000    0.000000
  0.041042084   -4.580116  -46.688175 -100.734885   -9.675872    0.000000    0.000000    0.000000    0.000000
  0.041242485   -4.585730  -46.908909 -100.519184    1.181098    0.000000    0.000000    0.000000    0.000000
  0.041442886   -4.593990  -47.126888 -101.169479   -6.140947    0.000000    0.000000    0.000000    0.000000
  0.041643287   -4.597473  -47.375828 -101.848092    5.472579    0.000000    0.000000    0.000000    0.000000
  0.041843687   -4.602583  -47.640797 -102.167087   15.221924    0.000000    0.000000    0.000000    0.000000
  0.042044088   -4.603347  -47.899651 -102.113484    4.691192    0.000000    0.000000    0.000000    0.000000
  0.042244489   -4.607109  -48.139008  -99.282685   10.587404    0.000000    0.000000    0.000000    0.000000
  0.042444890   -4.606220  -48.390476 -103.084071    0.884846    0.000000    0.000000    0.000000    0.000000
  0.042645291   -4.603645  -48.619320 -100.077268   14.807869    0.000000    0.000000    0.000000    0.000000
  0.042845691   -4.598262  -48.882271 -101.552971   11.862730    0.000000    0.000000    0.000000    0.000000
  0.043046092   -4.595929  -49.150509 -100.982087    0.341832    0.000000    0.000000    0.000000    0.000000
  0.043246493   -4.586473  -49.395977 -103.740009    1.982277    0.000000    0.000000    0.000000    0.000000
  0.043446894   -4.579775  -49.584068 -102.293423   12.805695    0.000000    0.000000    0.000000    0.000000
  0.043647295   -4.572509  -49.775173 -100.466423   24.226700    0.000000    0.000000    0.000000    0.000000
  0.043847695   -4.573585  -49.932243 -100.139666   20.482582    0.000000    0.000000    0.000000    0.000000
  0.044048096   -4.575798  -50.094742 -101.567257    1.229355    0.000000    0.000000    0.000000    0.000000
  0.044248497   -4.585150  -50.301014  -99.379369    7.936370    0.000000    0.000000    0.000000    0.000000
  0.044448898   -4.593660  -50.501526 -100.911043    9.335450    0.000000    0.000000    0.000000    0.000000
  0.044649299   -4.597472  -50.727257 -103.789517    5.653999    0.000000    0.000000    0.000000    0.000000
  0.044849699   -4.606899  -50.955891 -100.951573  -11.952849    0.000000    0.000000    0.000000    0.000000
  0.045050100   -4.611045  -51.216473 -102.477865    5.827785    0.000000    0.000000    0.000000    0.000000
  0.045250501   -4.614597  -51.467278 -100.920628   -6.408668    0.000000    0.000000    0.000000    0.000000
  0.045450902   -4.615485  -51.742088  -99.951942   -1.371648    0.000000    0.000000    0.000000    0.000000
  0.045651303   -4.613148  -52.006924 -100.601850   -9.424263    0.000000    0.000000    0.000000    0.000000
  0.045851703   -4.608081  -52.245937 -103.802251    0.912964    0.000000    0.000000    0.000000    0.000000
  0.046052104   -4.605208  -52.478081 -101.307600    0.859342    0.000000    0.000000    0.000000    0.000000
  0.046252505   -4.603902  -52.697575 -104.121293    2.074108    0.000000    0.000000    0.000000    0.000000
  0.046452906   -4.607651  -52.898106 -101.885556   -6.738233    0.000000    0.000000    0.000000    0.000000
  0.046653307   -4.614046  -53.123318 -103.258400   -5.123864    0.000000    0.000000    0.000000    0.000000
  0.046853707   -4.617612  -53.378513 -102.646934    0.344850    0.000000    0.000000    0.000000    0.000000
  0.047054108   -4.622721  -53.647629 -103.878427   -4.363545    0.000000    0.000000    0.000000    0.000000
  0.047254509   -4.622513  -53.886406 -101.998434    2.525160    0.000000    0.000000    0.000000    0.000000
  0.047454910   -4.627612  -54.163811 -104.228293   -6.462073    0.000000    0.000000    0.000000    0.000000
  0.047655311   -4.627032  -54.379143 -105.224698    8.387058    0.000000    0.000000    0.000000    0.000000
  0.047855711   -4.629484  -54.614624 -104.487047    3.245898    0.000000    0.000000    0.000000    0.000000
  0.048056112   -4.624477  -54.910423 -102.477725   16.439417    0.000000    0.000000    0.000000    0.000000
  0.048256513   -4.622287  -55.169685 -103.233809   10.997736    0.000000    0.000000    0.000000    0.000000
  0.048456914   -4.614375  -55.447380 -101.630004   19.185354    0.000000    0.000000    0.000000    0.000000
  0.048657315   -4.607015  -55.675461 -103.108523    8.150191    0.000000    0.000000    0.000000    0.000000
  0.048857715   -4.603620  -55.880741 -100.339299   -1.869581    0.000000    0.000000    0.000000    0.000000
  0.049058116   -4.601349  -56.053165 -101.632801    5.332791    0.000000    0.000000    0.000000    0.000000
  0.049258517   -4.600451  -56.220036 -102.868671    1.547506    0.000000    0.000000    0.000000    0.000000
  0.049458918   -4.603744  -56.410366 -102.808068   -5.091947    0.000000    0.000000    0.000000    0.000000
  0.049659319   -4.612593  -56.604488 -101.296079    1.766920    0.000000    0.000000    0.000000    0.000000
  0.049859719   -4.614033  -56.800541 -103.834800    7.758412    0.000000    0.000000    0.000000    0.000000
  0.050060120   -4.624276  -57.034679 -101.381569  -12.511125    0.000000    0.000000    0.000000    0.000000
  0.050260521   -4.631694  -57.252224 -102.355115    0.854245    0.000000    0.000000    0.000000    0.000000
  0.050460922   -4.636443  -57.529400 -101.750858   -5.125238    0.000000    0.000000    0.000000    0.000000
  0.050661323   -4.635221  -57.794117 -102.723912    1.892899    0.000000    0.000000    0.000000    0.000000
  0.050861723   -4.633250  -58.079941 -101.735646    1.837768    0.000000    0.000000    0.000000    0.000000
  0.051062124   -4.629442  -58.329666 -103.133239  -16.057989    0.000000    0.000000    0.000000    0.000000
  0.051262525   -4.629366  -58.552143 -103.444458    2.454985    0.000000    0.000000    0.000000    0.000000
  0.051462926   -4.626148  -58.780258 -102.743305   -0.816153    0.000000    0.000000    0.000000    0.000000
  0.051663327   -4.629130  -59.009739 -103.324203    9.180738    0.000000    0.000000    0.000000    0.000000
  0.051863727   -4.631139  -59.218102 -104.896263   -7.331489    0.000000    0.000000    0.000000    0.000000
  0.052064128   -4.633737  -59.451714 -102.680055    5.322731    0.000000    0.000000    0.000000    0.000000
  0.052264529   -4.640167  -59.689270 -107.117374   25.584286    0.000000    0.000000    0.000000    0.000000
  0.052464930   -4.640917  -59.932034 -103.690432   -7.449889    0.000000    0.000000    0.000000    0.000000
  0.052665331   -4.645702  -60.180973 -109.420669   10.545774    0.000000    0.000000    0.000000    0.000000
  0.052865731   -4.645203  -60.414261 -104.258437   11.948098    0.000000    0.000000    0.000000    0.000000
