! Anritsu VNA Master:                     Model: MS2036C/10/77
! SN:                                  1601066
! /bd0/18may26.balun/2a.r20.s2p
! Existing Calibration Information:
! TYPE:                         Current Settings,       Active Cal Settings
! TIME:             	   05/26/2018 07:43:18 PM,    05/26/2018 07:26:54 PM
! INTERNAL TEMP:    	                   45.0 C,                    45.5 C
! # POINTS:         	                      500,                       500
! START FREQ:       	               20.000 MHz,                20.000 MHz
! STOP FREQ:        	              120.000 MHz,               120.000 MHz
! SOURCE POWER:     	                     High,                      High
! IFBW:             	                    50 Hz,                     50 Hz
! AVG FACTOR:       	                       1 ,                        1 
! REF PLANE 1:      	                     0 mm,                      0 mm
! REF PLANE 2:      	                     0 mm,                      0 mm
! CAL TYPE:         	                 Full S11,                  Full S11
! CAL METHOD:       	                     SOLT,                      SOLT
! CAL LINE TYPE:    	                     Coax,                      Coax
! DUT PORT 1:       	                K-Conn(M),                 K-Conn(M)
! DUT PORT 2:       	                K-Conn(M),                 K-Conn(M)
! CAL STATUS:       	        OK: Accuracy High,                        --
# GHZ S DB R 50.0
! FREQ.GHZ       S11DB        S11A       S21DB        S21A       S12DB        S12A       S22DB        S22A
  0.020000000   -7.274158  154.496231  -91.534592   35.469742    0.000000    0.000000    0.000000    0.000000
  0.020200401   -7.274559  154.260193  -91.635322   32.707535    0.000000    0.000000    0.000000    0.000000
  0.020400802   -7.272239  154.027985  -91.818103   36.400677    0.000000    0.000000    0.000000    0.000000
  0.020601202   -7.272022  153.765167  -90.936979   34.635429    0.000000    0.000000    0.000000    0.000000
  0.020801603   -7.269015  153.526901  -92.126143   36.151688    0.000000    0.000000    0.000000    0.000000
  0.021002004   -7.268002  153.289520  -92.315625   31.364676    0.000000    0.000000    0.000000    0.000000
  0.021202405   -7.266147  153.039124  -91.750789   39.951527    0.000000    0.000000    0.000000    0.000000
  0.021402806   -7.269057  152.816269  -92.151237   36.027699    0.000000    0.000000    0.000000    0.000000
  0.021603206   -7.274027  152.592636  -91.705840   38.039967    0.000000    0.000000    0.000000    0.000000
  0.021803607   -7.277706  152.339584  -92.687019   33.114841    0.000000    0.000000    0.000000    0.000000
  0.022004008   -7.283403  152.081833  -92.135363   40.317635    0.000000    0.000000    0.000000    0.000000
  0.022204409   -7.284200  151.869446  -92.401409   37.325558    0.000000    0.000000    0.000000    0.000000
  0.022404810   -7.287256  151.619934  -91.918030   35.032558    0.000000    0.000000    0.000000    0.000000
  0.022605210   -7.288909  151.351151  -92.052887   32.495026    0.000000    0.000000    0.000000    0.000000
  0.022805611   -7.291022  151.122162  -92.289061   30.297415    0.000000    0.000000    0.000000    0.000000
  0.023006012   -7.295232  150.848068  -92.850595   27.051638    0.000000    0.000000    0.000000    0.000000
  0.023206413   -7.292531  150.561707  -93.023878   28.133478    0.000000    0.000000    0.000000    0.000000
  0.023406814   -7.294324  150.301315  -93.057734   30.383472    0.000000    0.000000    0.000000    0.000000
  0.023607214   -7.287577  150.011841  -93.408287   27.102139    0.000000    0.000000    0.000000    0.000000
  0.023807615   -7.290684  149.738541  -93.365086   25.417122    0.000000    0.000000    0.000000    0.000000
  0.024008016   -7.290925  149.490829  -94.376688   25.668949    0.000000    0.000000    0.000000    0.000000
  0.024208417   -7.290922  149.247910  -94.199994   23.317736    0.000000    0.000000    0.000000    0.000000
  0.024408818   -7.290490  149.010254  -94.053133   23.619020    0.000000    0.000000    0.000000    0.000000
  0.024609218   -7.292090  148.778152  -95.163283   22.159527    0.000000    0.000000    0.000000    0.000000
  0.024809619   -7.293503  148.563599  -94.590569   25.573334    0.000000    0.000000    0.000000    0.000000
  0.025010020   -7.290363  148.301056  -93.824363   21.105568    0.000000    0.000000    0.000000    0.000000
  0.025210421   -7.296172  148.043045  -94.834415   20.760469    0.000000    0.000000    0.000000    0.000000
  0.025410822   -7.299615  147.791611  -94.510843   24.082396    0.000000    0.000000    0.000000    0.000000
  0.025611222   -7.298294  147.543518  -94.596304   25.374517    0.000000    0.000000    0.000000    0.000000
  0.025811623   -7.293752  147.257233  -94.687691   25.446514    0.000000    0.000000    0.000000    0.000000
  0.026012024   -7.287753  146.992218  -95.033938   23.810329    0.000000    0.000000    0.000000    0.000000
  0.026212425   -7.287430  146.747574  -94.423602   28.379543    0.000000    0.000000    0.000000    0.000000
  0.026412826   -7.285345  146.488159  -94.792599   21.132614    0.000000    0.000000    0.000000    0.000000
  0.026613226   -7.285697  146.271393  -95.011805   23.099844    0.000000    0.000000    0.000000    0.000000
  0.026813627   -7.289468  146.059677  -95.041277   23.530626    0.000000    0.000000    0.000000    0.000000
  0.027014028   -7.288358  145.841827  -94.015850   24.454256    0.000000    0.000000    0.000000    0.000000
  0.027214429   -7.293022  145.658661  -94.519657   23.514877    0.000000    0.000000    0.000000    0.000000
  0.027414830   -7.297267  145.446350  -95.536667   20.872070    0.000000    0.000000    0.000000    0.000000
  0.027615230   -7.302545  145.199142  -95.681984   19.894896    0.000000    0.000000    0.000000    0.000000
  0.027815631   -7.310294  144.930527  -95.768447   21.150784    0.000000    0.000000    0.000000    0.000000
  0.028016032   -7.315071  144.651138  -95.503788   20.930847    0.000000    0.000000    0.000000    0.000000
  0.028216433   -7.318407  144.357346  -95.911667   18.356764    0.000000    0.000000    0.000000    0.000000
  0.028416834   -7.317343  144.079330  -94.949744   14.994219    0.000000    0.000000    0.000000    0.000000
  0.028617234   -7.319891  143.778992  -95.901379   15.850683    0.000000    0.000000    0.000000    0.000000
  0.028817635   -7.316454  143.461533  -95.995198   21.921741    0.000000    0.000000    0.000000    0.000000
  0.029018036   -7.316493  143.159073  -96.875631   18.091255    0.000000    0.000000    0.000000    0.000000
  0.029218437   -7.311830  142.903259  -96.145374   14.474020    0.000000    0.000000    0.000000    0.000000
  0.029418838   -7.305122  142.657135  -96.286049   13.430470    0.000000    0.000000    0.000000    0.000000
  0.029619238   -7.301010  142.466797  -96.537990   15.312632    0.000000    0.000000    0.000000    0.000000
  0.029819639   -7.296952  142.260101  -96.774858   10.206533    0.000000    0.000000    0.000000    0.000000
  0.030020040   -7.298234  142.067810  -97.722677   16.063530    0.000000    0.000000    0.000000    0.000000
  0.030220441   -7.298839  141.841324  -96.788271   24.207350    0.000000    0.000000    0.000000    0.000000
  0.030420842   -7.304318  141.608627  -96.950446   14.098163    0.000000    0.000000    0.000000    0.000000
  0.030621242   -7.313683  141.347778  -97.683613   13.746509    0.000000    0.000000    0.000000    0.000000
  0.030821643   -7.314301  141.053375  -97.403224   16.019291    0.000000    0.000000    0.000000    0.000000
  0.031022044   -7.312401  140.754959  -97.431084   17.416578    0.000000    0.000000    0.000000    0.000000
  0.031222445   -7.304552  140.533569  -98.285976    9.743400    0.000000    0.000000    0.000000    0.000000
  0.031422846   -7.302533  140.243729  -96.537929   16.255775    0.000000    0.000000    0.000000    0.000000
  0.031623246   -7.301575  139.971527  -97.031821   19.780691    0.000000    0.000000    0.000000    0.000000
  0.031823647   -7.295050  139.737442  -97.202080   17.082434    0.000000    0.000000    0.000000    0.000000
  0.032024048   -7.287390  139.499710  -97.460918   20.759228    0.000000    0.000000    0.000000    0.000000
  0.032224449   -7.281234  139.259186  -98.331441   17.352581    0.000000    0.000000    0.000000    0.000000
  0.032424850   -7.278606  139.067734  -98.200197   16.138548    0.000000    0.000000    0.000000    0.000000
  0.032625251   -7.276711  138.857910  -98.488645    7.092781    0.000000    0.000000    0.000000    0.000000
  0.032825651   -7.278960  138.647446  -97.359427   19.083111    0.000000    0.000000    0.000000    0.000000
  0.033026052   -7.283146  138.401810  -96.784398   15.760516    0.000000    0.000000    0.000000    0.000000
  0.033226453   -7.286815  138.156296  -97.096737   17.831207    0.000000    0.000000    0.000000    0.000000
  0.033426854   -7.296264  137.907043  -98.355577    0.986324    0.000000    0.000000    0.000000    0.000000
  0.033627255   -7.298270  137.635635  -98.096915    9.148619    0.000000    0.000000    0.000000    0.000000
  0.033827655   -7.301990  137.325073  -97.862553   11.893076    0.000000    0.000000    0.000000    0.000000
  0.034028056   -7.307528  137.037292  -98.752776    8.968294    0.000000    0.000000    0.000000    0.000000
  0.034228457   -7.312433  136.747009  -98.253464   10.457449    0.000000    0.000000    0.000000    0.000000
  0.034428858   -7.309455  136.475616  -97.725390   16.179443    0.000000    0.000000    0.000000    0.000000
  0.034629259   -7.309077  136.181946  -99.244062   10.572429    0.000000    0.000000    0.000000    0.000000
  0.034829659   -7.299554  135.900940  -99.521056   18.697754    0.000000    0.000000    0.000000    0.000000
  0.035030060   -7.288201  135.669083  -99.071324   17.265089    0.000000    0.000000    0.000000    0.000000
  0.035230461   -7.282683  135.414536  -97.972192   10.048229    0.000000    0.000000    0.000000    0.000000
  0.035430862   -7.274368  135.223267  -99.992406   13.734748    0.000000    0.000000    0.000000    0.000000
  0.035631263   -7.270191  135.029556  -98.238291   20.262218    0.000000    0.000000    0.000000    0.000000
  0.035831663   -7.271385  134.857941  -99.604295   14.457062    0.000000    0.000000    0.000000    0.000000
  0.036032064   -7.280415  134.631378  -98.235583   18.692568    0.000000    0.000000    0.000000    0.000000
  0.036232465   -7.283738  134.397598  -97.798082   17.365931    0.000000    0.000000    0.000000    0.000000
  0.036432866   -7.296053  134.116974  -99.968193   11.004304    0.000000    0.000000    0.000000    0.000000
  0.036633267   -7.299502  133.839920  -99.425377   19.620426    0.000000    0.000000    0.000000    0.000000
  0.036833667   -7.302386  133.568054  -98.261276   12.077540    0.000000    0.000000    0.000000    0.000000
  0.037034068   -7.303632  133.289047  -99.020575   10.675491    0.000000    0.000000    0.000000    0.000000
  0.037234469   -7.302023  133.001678  -98.986654    9.157882    0.000000    0.000000    0.000000    0.000000
  0.037434870   -7.296681  132.736374  -99.507407    4.308415    0.000000    0.000000    0.000000    0.000000
  0.037635271   -7.289756  132.485413 -100.835479    8.084668    0.000000    0.000000    0.000000    0.000000
  0.037835671   -7.281690  132.248672  -99.470981    4.425307    0.000000    0.000000    0.000000    0.000000
  0.038036072   -7.276352  132.037277  -98.570651    4.851792    0.000000    0.000000    0.000000    0.000000
  0.038236473   -7.275391  131.836502  -99.554354    8.697849    0.000000    0.000000    0.000000    0.000000
  0.038436874   -7.280802  131.612793  -99.665284   10.719974    0.000000    0.000000    0.000000    0.000000
  0.038637275   -7.284925  131.374832  -98.800829   13.524248    0.000000    0.000000    0.000000    0.000000
  0.038837675   -7.289326  131.131027  -99.840584    8.254972    0.000000    0.000000    0.000000    0.000000
  0.039038076   -7.296445  130.830368  -99.261643   12.569599    0.000000    0.000000    0.000000    0.000000
  0.039238477   -7.305082  130.552902 -100.577877    2.248417    0.000000    0.000000    0.000000    0.000000
  0.039438878   -7.300928  130.273666 -101.067719   -2.944211    0.000000    0.000000    0.000000    0.000000
  0.039639279   -7.306769  130.009354 -101.580095   11.072953    0.000000    0.000000    0.000000    0.000000
  0.039839679   -7.303764  129.732788 -102.146758   11.770512    0.000000    0.000000    0.000000    0.000000
  0.040040080   -7.297455  129.465195 -100.697721    0.373151    0.000000    0.000000    0.000000    0.000000
  0.040240481   -7.291835  129.165741 -100.798566    4.851066    0.000000    0.000000    0.000000    0.000000
  0.040440882   -7.279703  128.881104 -101.466046    4.331459    0.000000    0.000000    0.000000    0.000000
  0.040641283   -7.271864  128.649216 -100.422102   17.807022    0.000000    0.000000    0.000000    0.000000
  0.040841683   -7.261728  128.437668 -102.141086   -8.546295    0.000000    0.000000    0.000000    0.000000
  0.041042084   -7.260744  128.285690 -100.569625    7.261697    0.000000    0.000000    0.000000    0.000000
  0.041242485   -7.263403  128.101349 -100.994063   12.147739    0.000000    0.000000    0.000000    0.000000
  0.041442886   -7.267683  127.897003  -99.781139   10.495415    0.000000    0.000000    0.000000    0.000000
  0.041643287   -7.277342  127.648834 -100.349657   14.656430    0.000000    0.000000    0.000000    0.000000
  0.041843687   -7.281821  127.388931 -102.022323   15.229551    0.000000    0.000000    0.000000    0.000000
  0.042044088   -7.288123  127.154396 -101.388405    0.231347    0.000000    0.000000    0.000000    0.000000
  0.042244489   -7.289403  126.897003  -99.517464    0.984481    0.000000    0.000000    0.000000    0.000000
  0.042444890   -7.291122  126.605865 -100.381062    8.963524    0.000000    0.000000    0.000000    0.000000
  0.042645291   -7.292532  126.360809 -101.281680    5.929108    0.000000    0.000000    0.000000    0.000000
  0.042845691   -7.289533  126.074883 -100.668135    2.178485    0.000000    0.000000    0.000000    0.000000
  0.043046092   -7.279389  125.801132 -101.979515    0.077918    0.000000    0.000000    0.000000    0.000000
  0.043246493   -7.273047  125.559502 -101.267557    3.598209    0.000000    0.000000    0.000000    0.000000
  0.043446894   -7.268399  125.325546 -100.906202   -3.480445    0.000000    0.000000    0.000000    0.000000
  0.043647295   -7.271447  125.093246 -101.264832    3.725508    0.000000    0.000000    0.000000    0.000000
  0.043847695   -7.274530  124.895012 -101.425503    8.287730    0.000000    0.000000    0.000000    0.000000
  0.044048096   -7.280073  124.647293 -104.297633    6.236343    0.000000    0.000000    0.000000    0.000000
  0.044248497   -7.284041  124.390152 -103.206942    9.584902    0.000000    0.000000    0.000000    0.000000
  0.044448898   -7.284691  124.147530 -102.147410   -2.689636    0.000000    0.000000    0.000000    0.000000
  0.044649299   -7.290627  123.883789 -101.762882   11.330415    0.000000    0.000000    0.000000    0.000000
  0.044849699   -7.288868  123.611588 -101.706034    2.157645    0.000000    0.000000    0.000000    0.000000
  0.045050100   -7.289043  123.351440 -100.899400    6.176853    0.000000    0.000000    0.000000    0.000000
  0.045250501   -7.282810  123.086823 -101.875064   -4.681315    0.000000    0.000000    0.000000    0.000000
  0.045450902   -7.283772  122.812675 -102.718234   20.048439    0.000000    0.000000    0.000000    0.000000
  0.045651303   -7.272251  122.543335  -99.877704   17.642067    0.000000    0.000000    0.000000    0.000000
  0.045851703   -7.264858  122.290916 -101.036889   18.354267    0.000000    0.000000    0.000000    0.000000
  0.046052104   -7.258633  122.066261 -102.280698    7.945260    0.000000    0.000000    0.000000    0.000000
  0.046252505   -7.253436  121.849152 -100.822206    8.182245    0.000000    0.000000    0.000000    0.000000
  0.046452906   -7.249585  121.689301 -101.987843   11.938706    0.000000    0.000000    0.000000    0.000000
  0.046653307   -7.249509  121.487999 -101.939860    5.690828    0.000000    0.000000    0.000000    0.000000
  0.046853707   -7.256413  121.291153 -100.354403    3.371880    0.000000    0.000000    0.000000    0.000000
  0.047054108   -7.264409  121.067398 -100.347723    6.466578    0.000000    0.000000    0.000000    0.000000
  0.047254509   -7.272144  120.825119 -101.677126    7.555087    0.000000    0.000000    0.000000    0.000000
  0.047454910   -7.274141  120.599228 -103.120564    3.576900    0.000000    0.000000    0.000000    0.000000
  0.047655311   -7.282832  120.325943 -101.345908   12.387180    0.000000    0.000000    0.000000    0.000000
  0.047855711   -7.281132  120.040291 -101.641922    6.173910    0.000000    0.000000    0.000000    0.000000
  0.048056112   -7.280556  119.782547 -103.067153   -2.870689    0.000000    0.000000    0.000000    0.000000
  0.048256513   -7.275482  119.494553 -102.433356   12.167279    0.000000    0.000000    0.000000    0.000000
  0.048456914   -7.269631  119.238190 -102.691749    5.057683    0.000000    0.000000    0.000000    0.000000
  0.048657315   -7.269087  118.999924 -104.195969    5.293818    0.000000    0.000000    0.000000    0.000000
  0.048857715   -7.268097  118.778435 -102.425458    0.114901    0.000000    0.000000    0.000000    0.000000
  0.049058116   -7.264495  118.546432 -100.924924    5.782103    0.000000    0.000000    0.000000    0.000000
  0.049258517   -7.268323  118.324257 -105.260015    9.238294    0.000000    0.000000    0.000000    0.000000
  0.049458918   -7.274720  118.073593 -104.717187   -6.917108    0.000000    0.000000    0.000000    0.000000
  0.049659319   -7.275366  117.826294 -103.857209    2.590823    0.000000    0.000000    0.000000    0.000000
  0.049859719   -7.279058  117.547600 -102.128659   -0.691691    0.000000    0.000000    0.000000    0.000000
  0.050060120   -7.280904  117.300354 -106.615687   -2.986508    0.000000    0.000000    0.000000    0.000000
  0.050260521   -7.280203  117.021179 -104.560860   12.121594    0.000000    0.000000    0.000000    0.000000
  0.050460922   -7.279002  116.774445 -103.713094   10.099748    0.000000    0.000000    0.000000    0.000000
  0.050661323   -7.277419  116.493027 -103.952252   21.383343    0.000000    0.000000    0.000000    0.000000
  0.050861723   -7.271145  116.207939 -102.940581    3.376400    0.000000    0.000000    0.000000    0.000000
  0.051062124   -7.261753  115.953339 -103.068962    5.565838    0.000000    0.000000    0.000000    0.000000
  0.051262525   -7.251324  115.661644 -102.303057    0.535683    0.000000    0.000000    0.000000    0.000000
  0.051462926   -7.250572  115.459648 -100.344399   10.673373    0.000000    0.000000    0.000000    0.000000
  0.051663327   -7.247922  115.278679 -103.366383   14.368365    0.000000    0.000000    0.000000    0.000000
  0.051863727   -7.247827  115.091118 -102.901104    5.729694    0.000000    0.000000    0.000000    0.000000
  0.052064128   -7.245891  114.884537 -101.945338    6.327156    0.000000    0.000000    0.000000    0.000000
  0.052264529   -7.251320  114.681976 -101.483709    3.538041    0.000000    0.000000    0.000000    0.000000
  0.052464930   -7.258537  114.479767 -102.165720   10.425896    0.000000    0.000000    0.000000    0.000000
  0.052665331   -7.264854  114.221626 -102.208060   14.781423    0.000000    0.000000    0.000000    0.000000
  0.052865731   -7.266359  113.971375 -102.383507   -1.645304    0.000000    0.000000    0.000000    0.000000
