! Anritsu VNA Master:                     Model: MS2036C/10/77
! SN:                                  1601066
! /bd0/18may26.balun/2a.r200.s2p
! Existing Calibration Information:
! TYPE:                         Current Settings,       Active Cal Settings
! TIME:             	   05/26/2018 07:46:50 PM,    05/26/2018 07:26:54 PM
! INTERNAL TEMP:    	                   45.3 C,                    45.5 C
! # POINTS:         	                      500,                       500
! START FREQ:       	               20.000 MHz,                20.000 MHz
! STOP FREQ:        	              120.000 MHz,               120.000 MHz
! SOURCE POWER:     	                     High,                      High
! IFBW:             	                    50 Hz,                     50 Hz
! AVG FACTOR:       	                       1 ,                        1 
! REF PLANE 1:      	                     0 mm,                      0 mm
! REF PLANE 2:      	                     0 mm,                      0 mm
! CAL TYPE:         	                 Full S11,                  Full S11
! CAL METHOD:       	                     SOLT,                      SOLT
! CAL LINE TYPE:    	                     Coax,                      Coax
! DUT PORT 1:       	                K-Conn(M),                 K-Conn(M)
! DUT PORT 2:       	                K-Conn(M),                 K-Conn(M)
! CAL STATUS:       	        OK: Accuracy High,                        --
# GHZ S DB R 50.0
! FREQ.GHZ       S11DB        S11A       S21DB        S21A       S12DB        S12A       S22DB        S22A
  0.020000000   -4.556345  -22.575455  -90.748828   40.494915    0.000000    0.000000    0.000000    0.000000
  0.020200401   -4.554916  -22.825249  -90.317259   38.715046    0.000000    0.000000    0.000000    0.000000
  0.020400802   -4.556220  -23.050583  -90.903289   35.593700    0.000000    0.000000    0.000000    0.000000
  0.020601202   -4.556398  -23.291925  -90.979714   35.235603    0.000000    0.000000    0.000000    0.000000
  0.020801603   -4.554095  -23.542322  -90.881865   33.116264    0.000000    0.000000    0.000000    0.000000
  0.021002004   -4.556499  -23.779882  -91.168050   32.324959    0.000000    0.000000    0.000000    0.000000
  0.021202405   -4.557736  -24.042883  -91.152972   32.822197    0.000000    0.000000    0.000000    0.000000
  0.021402806   -4.557192  -24.279413  -91.605808   25.132685    0.000000    0.000000    0.000000    0.000000
  0.021603206   -4.558311  -24.515610  -92.055538   32.114761    0.000000    0.000000    0.000000    0.000000
  0.021803607   -4.560461  -24.735931  -92.298327   29.363117    0.000000    0.000000    0.000000    0.000000
  0.022004008   -4.560215  -24.963926  -92.304184   26.516985    0.000000    0.000000    0.000000    0.000000
  0.022204409   -4.559805  -25.188400  -92.618400   31.249434    0.000000    0.000000    0.000000    0.000000
  0.022404810   -4.558808  -25.406282  -92.438969   30.021133    0.000000    0.000000    0.000000    0.000000
  0.022605210   -4.558786  -25.641233  -92.814522   32.963814    0.000000    0.000000    0.000000    0.000000
  0.022805611   -4.562149  -25.893835  -93.390200   33.747459    0.000000    0.000000    0.000000    0.000000
  0.023006012   -4.559593  -26.113985  -93.962405   25.221382    0.000000    0.000000    0.000000    0.000000
  0.023206413   -4.555858  -26.330570  -93.274492   26.921574    0.000000    0.000000    0.000000    0.000000
  0.023406814   -4.552931  -26.570591  -93.235307   30.543087    0.000000    0.000000    0.000000    0.000000
  0.023607214   -4.548713  -26.819761  -93.214683   30.254381    0.000000    0.000000    0.000000    0.000000
  0.023807615   -4.547465  -27.039494  -93.790077   30.702728    0.000000    0.000000    0.000000    0.000000
  0.024008016   -4.552760  -27.240479  -93.422639   28.350235    0.000000    0.000000    0.000000    0.000000
  0.024208417   -4.553874  -27.450642  -94.188113   27.536959    0.000000    0.000000    0.000000    0.000000
  0.024408818   -4.558714  -27.654024  -92.718778   29.445202    0.000000    0.000000    0.000000    0.000000
  0.024609218   -4.560803  -27.871317  -93.417699   27.905231    0.000000    0.000000    0.000000    0.000000
  0.024809619   -4.564592  -28.081402  -93.194717   28.407276    0.000000    0.000000    0.000000    0.000000
  0.025010020   -4.568142  -28.314028  -92.570217   27.867970    0.000000    0.000000    0.000000    0.000000
  0.025210421   -4.571445  -28.546898  -94.381367   21.851053    0.000000    0.000000    0.000000    0.000000
  0.025410822   -4.572631  -28.793373  -93.693936   20.066214    0.000000    0.000000    0.000000    0.000000
  0.025611222   -4.574416  -29.056677  -93.311745   20.183359    0.000000    0.000000    0.000000    0.000000
  0.025811623   -4.573294  -29.302324  -94.310413   19.536339    0.000000    0.000000    0.000000    0.000000
  0.026012024   -4.574880  -29.557838  -94.512306   20.428869    0.000000    0.000000    0.000000    0.000000
  0.026212425   -4.576121  -29.829458  -93.910472   20.605230    0.000000    0.000000    0.000000    0.000000
  0.026412826   -4.573176  -30.104954  -94.787195   22.065065    0.000000    0.000000    0.000000    0.000000
  0.026613226   -4.570251  -30.346718  -95.055191   14.298187    0.000000    0.000000    0.000000    0.000000
  0.026813627   -4.564302  -30.530420  -95.759025   15.953465    0.000000    0.000000    0.000000    0.000000
  0.027014028   -4.563426  -30.733757  -95.685860   20.676332    0.000000    0.000000    0.000000    0.000000
  0.027214429   -4.566158  -30.928585  -95.912567   18.499708    0.000000    0.000000    0.000000    0.000000
  0.027414830   -4.564841  -31.130104  -95.452044   18.799704    0.000000    0.000000    0.000000    0.000000
  0.027615230   -4.570139  -31.338135  -96.255358   22.125338    0.000000    0.000000    0.000000    0.000000
  0.027815631   -4.574302  -31.572783  -95.812245   23.169714    0.000000    0.000000    0.000000    0.000000
  0.028016032   -4.578337  -31.825533  -96.704931   15.517411    0.000000    0.000000    0.000000    0.000000
  0.028216433   -4.577459  -32.065205  -96.481400   11.431071    0.000000    0.000000    0.000000    0.000000
  0.028416834   -4.574369  -32.335377  -96.036901   23.634451    0.000000    0.000000    0.000000    0.000000
  0.028617234   -4.568176  -32.592377  -96.506020   24.701881    0.000000    0.000000    0.000000    0.000000
  0.028817635   -4.567273  -32.839844  -95.843913   20.291508    0.000000    0.000000    0.000000    0.000000
  0.029018036   -4.563707  -33.065521  -95.342411   23.005178    0.000000    0.000000    0.000000    0.000000
  0.029218437   -4.560168  -33.272823  -96.031493   24.090981    0.000000    0.000000    0.000000    0.000000
  0.029418838   -4.557733  -33.457630  -96.293352   18.402903    0.000000    0.000000    0.000000    0.000000
  0.029619238   -4.555891  -33.638004  -96.414257   19.875429    0.000000    0.000000    0.000000    0.000000
  0.029819639   -4.555953  -33.783749  -96.778012   14.275024    0.000000    0.000000    0.000000    0.000000
  0.030020040   -4.554261  -33.965363  -95.738200   16.808069    0.000000    0.000000    0.000000    0.000000
  0.030220441   -4.560691  -34.161415  -95.989803   16.431444    0.000000    0.000000    0.000000    0.000000
  0.030420842   -4.567823  -34.399662  -96.357519   19.023893    0.000000    0.000000    0.000000    0.000000
  0.030621242   -4.572001  -34.648235  -96.548942   15.684396    0.000000    0.000000    0.000000    0.000000
  0.030821643   -4.574298  -34.897179  -96.243587   15.112128    0.000000    0.000000    0.000000    0.000000
  0.031022044   -4.579200  -35.165165  -96.910759   15.098481    0.000000    0.000000    0.000000    0.000000
  0.031222445   -4.575227  -35.356052  -97.341058   15.261878    0.000000    0.000000    0.000000    0.000000
  0.031422846   -4.581547  -35.624428  -96.312948    7.983432    0.000000    0.000000    0.000000    0.000000
  0.031623246   -4.583750  -35.908127  -96.829094    9.427276    0.000000    0.000000    0.000000    0.000000
  0.031823647   -4.583583  -36.168312  -95.835693   16.127018    0.000000    0.000000    0.000000    0.000000
  0.032024048   -4.580381  -36.417233  -97.689428    8.598143    0.000000    0.000000    0.000000    0.000000
  0.032224449   -4.575852  -36.648163  -97.692342    7.796274    0.000000    0.000000    0.000000    0.000000
  0.032424850   -4.566075  -36.874165  -96.985418   14.158480    0.000000    0.000000    0.000000    0.000000
  0.032625251   -4.560457  -37.072571  -97.707118   11.709833    0.000000    0.000000    0.000000    0.000000
  0.032825651   -4.559491  -37.257336  -98.075568   10.477794    0.000000    0.000000    0.000000    0.000000
  0.033026052   -4.563602  -37.426685  -97.972301    7.817195    0.000000    0.000000    0.000000    0.000000
  0.033226453   -4.569578  -37.615345  -97.611140   20.758379    0.000000    0.000000    0.000000    0.000000
  0.033426854   -4.575610  -37.851437  -97.465993   16.225403    0.000000    0.000000    0.000000    0.000000
  0.033627255   -4.578512  -38.119411  -98.504315    7.591536    0.000000    0.000000    0.000000    0.000000
  0.033827655   -4.581076  -38.368328  -98.271606   20.246096    0.000000    0.000000    0.000000    0.000000
  0.034028056   -4.583301  -38.621937  -97.622080   13.538918    0.000000    0.000000    0.000000    0.000000
  0.034228457   -4.580636  -38.885361  -97.714344   13.410917    0.000000    0.000000    0.000000    0.000000
  0.034428858   -4.579382  -39.121391  -98.137589   16.446579    0.000000    0.000000    0.000000    0.000000
  0.034629259   -4.573812  -39.344830  -98.938403   15.331359    0.000000    0.000000    0.000000    0.000000
  0.034829659   -4.566088  -39.583225  -98.518457   16.015167    0.000000    0.000000    0.000000    0.000000
  0.035030060   -4.563088  -39.801292  -98.724003    8.527097    0.000000    0.000000    0.000000    0.000000
  0.035230461   -4.558684  -39.993546  -97.930231    9.671822    0.000000    0.000000    0.000000    0.000000
  0.035430862   -4.558641  -40.165047  -98.642974    3.300361    0.000000    0.000000    0.000000    0.000000
  0.035631263   -4.558423  -40.348969  -97.001777    9.937535    0.000000    0.000000    0.000000    0.000000
  0.035831663   -4.563392  -40.542252  -97.816111    4.726216    0.000000    0.000000    0.000000    0.000000
  0.036032064   -4.570779  -40.763603  -99.300673   -4.308452    0.000000    0.000000    0.000000    0.000000
  0.036232465   -4.574694  -41.007927 -100.044721    3.678393    0.000000    0.000000    0.000000    0.000000
  0.036432866   -4.580714  -41.261803  -99.037094    1.321143    0.000000    0.000000    0.000000    0.000000
  0.036633267   -4.585198  -41.534882  -99.113958    5.988806    0.000000    0.000000    0.000000    0.000000
  0.036833667   -4.589736  -41.799683 -100.485322   12.000480    0.000000    0.000000    0.000000    0.000000
  0.037034068   -4.590875  -42.048355 -100.018627    7.510508    0.000000    0.000000    0.000000    0.000000
  0.037234469   -4.589229  -42.283463  -99.987929    9.524300    0.000000    0.000000    0.000000    0.000000
  0.037434870   -4.588672  -42.520802  -99.910436    5.879365    0.000000    0.000000    0.000000    0.000000
  0.037635271   -4.582805  -42.786041 -101.466917    5.977302    0.000000    0.000000    0.000000    0.000000
  0.037835671   -4.578182  -43.036579 -100.295039   11.776175    0.000000    0.000000    0.000000    0.000000
  0.038036072   -4.570120  -43.264378 -100.280000    9.170784    0.000000    0.000000    0.000000    0.000000
  0.038236473   -4.560114  -43.431297 -100.319343   14.675681    0.000000    0.000000    0.000000    0.000000
  0.038436874   -4.558907  -43.597221  -98.008121   12.408158    0.000000    0.000000    0.000000    0.000000
  0.038637275   -4.563326  -43.746246 -100.786655    6.500360    0.000000    0.000000    0.000000    0.000000
  0.038837675   -4.574266  -43.937878  -98.624780   10.476568    0.000000    0.000000    0.000000    0.000000
  0.039038076   -4.580819  -44.164967  -99.140140   12.931482    0.000000    0.000000    0.000000    0.000000
  0.039238477   -4.592285  -44.400078  -99.537790   19.337549    0.000000    0.000000    0.000000    0.000000
  0.039438878   -4.595022  -44.654598  -98.635379   12.073197    0.000000    0.000000    0.000000    0.000000
  0.039639279   -4.599862  -44.916267  -99.382580    6.404462    0.000000    0.000000    0.000000    0.000000
  0.039839679   -4.599961  -45.187145  -99.108891    0.010366    0.000000    0.000000    0.000000    0.000000
  0.040040080   -4.600566  -45.455925  -98.943681    2.455722    0.000000    0.000000    0.000000    0.000000
  0.040240481   -4.594741  -45.682266  -99.742726   -0.456646    0.000000    0.000000    0.000000    0.000000
  0.040440882   -4.587304  -45.925323  -99.214700    1.871753    0.000000    0.000000    0.000000    0.000000
  0.040641283   -4.581356  -46.149921 -100.978023    7.357066    0.000000    0.000000    0.000000    0.000000
  0.040841683   -4.581198  -46.336956 -100.161017    8.186067    0.000000    0.000000    0.000000    0.000000
  0.041042084   -4.581655  -46.539906 -101.907484   -4.218554    0.000000    0.000000    0.000000    0.000000
  0.041242485   -4.585732  -46.751732 -100.472061    8.464424    0.000000    0.000000    0.000000    0.000000
  0.041442886   -4.594679  -46.960960 -100.816710   -0.544181    0.000000    0.000000    0.000000    0.000000
  0.041643287   -4.599005  -47.223534 -102.733465    7.760206    0.000000    0.000000    0.000000    0.000000
  0.041843687   -4.605881  -47.463509 -101.388688    4.854514    0.000000    0.000000    0.000000    0.000000
  0.042044088   -4.606211  -47.737095 -101.464777   -3.888738    0.000000    0.000000    0.000000    0.000000
  0.042244489   -4.610006  -47.964298 -100.862046    4.320522    0.000000    0.000000    0.000000    0.000000
  0.042444890   -4.609234  -48.210762 -101.257054    5.616087    0.000000    0.000000    0.000000    0.000000
  0.042645291   -4.606922  -48.451454 -103.407122    7.655365    0.000000    0.000000    0.000000    0.000000
  0.042845691   -4.603390  -48.727222 -103.962522    6.837299    0.000000    0.000000    0.000000    0.000000
  0.043046092   -4.599928  -48.971294 -103.018592   14.892124    0.000000    0.000000    0.000000    0.000000
  0.043246493   -4.592571  -49.217690 -102.431221   11.517375    0.000000    0.000000    0.000000    0.000000
  0.043446894   -4.584664  -49.434460 -102.225630   18.798769    0.000000    0.000000    0.000000    0.000000
  0.043647295   -4.576931  -49.623730 -100.821767    6.361886    0.000000    0.000000    0.000000    0.000000
  0.043847695   -4.578003  -49.771454 -100.319770    0.303033    0.000000    0.000000    0.000000    0.000000
  0.044048096   -4.581898  -49.936977  -99.384666    9.908947    0.000000    0.000000    0.000000    0.000000
  0.044248497   -4.592599  -50.146938 -101.049355    9.281363    0.000000    0.000000    0.000000    0.000000
  0.044448898   -4.597693  -50.359818 -103.950567    9.267331    0.000000    0.000000    0.000000    0.000000
  0.044649299   -4.602004  -50.587379 -100.175766    9.218813    0.000000    0.000000    0.000000    0.000000
  0.044849699   -4.610202  -50.808247 -102.585380   -5.881653    0.000000    0.000000    0.000000    0.000000
  0.045050100   -4.613429  -51.075554 -100.935614   14.366720    0.000000    0.000000    0.000000    0.000000
  0.045250501   -4.618188  -51.328358 -101.529223    7.823387    0.000000    0.000000    0.000000    0.000000
  0.045450902   -4.617777  -51.594910 -103.416575    2.997161    0.000000    0.000000    0.000000    0.000000
  0.045651303   -4.616424  -51.856045 -100.730541   -8.473024    0.000000    0.000000    0.000000    0.000000
  0.045851703   -4.610670  -52.094181 -101.441603   -0.996223    0.000000    0.000000    0.000000    0.000000
  0.046052104   -4.605713  -52.325226 -101.506139   -5.845914    0.000000    0.000000    0.000000    0.000000
  0.046252505   -4.606424  -52.541019 -102.086523    6.845764    0.000000    0.000000    0.000000    0.000000
  0.046452906   -4.609919  -52.743603 -102.366697    2.194745    0.000000    0.000000    0.000000    0.000000
  0.046653307   -4.617890  -52.963585 -103.770632    2.526954    0.000000    0.000000    0.000000    0.000000
  0.046853707   -4.619712  -53.204594 -101.803901    5.130810    0.000000    0.000000    0.000000    0.000000
  0.047054108   -4.624493  -53.474552 -102.863742    2.356428    0.000000    0.000000    0.000000    0.000000
  0.047254509   -4.625080  -53.703880 -102.544454   -0.970701    0.000000    0.000000    0.000000    0.000000
  0.047454910   -4.628426  -53.986210 -105.200396   15.245588    0.000000    0.000000    0.000000    0.000000
  0.047655311   -4.632177  -54.211552 -105.414765   -4.427270    0.000000    0.000000    0.000000    0.000000
  0.047855711   -4.633477  -54.449459 -103.175533    0.500771    0.000000    0.000000    0.000000    0.000000
  0.048056112   -4.629087  -54.732319 -103.114250   12.526442    0.000000    0.000000    0.000000    0.000000
  0.048256513   -4.626914  -54.990101 -104.066078    2.405036    0.000000    0.000000    0.000000    0.000000
  0.048456914   -4.618806  -55.278370 -105.780734    5.473053    0.000000    0.000000    0.000000    0.000000
  0.048657315   -4.612488  -55.490486 -102.036442   12.094459    0.000000    0.000000    0.000000    0.000000
  0.048857715   -4.609372  -55.699631 -104.709503   15.255118    0.000000    0.000000    0.000000    0.000000
  0.049058116   -4.606800  -55.888283 -102.600926   11.223675    0.000000    0.000000    0.000000    0.000000
  0.049258517   -4.605191  -56.057346 -102.890563    7.072489    0.000000    0.000000    0.000000    0.000000
  0.049458918   -4.608295  -56.223495 -101.861694    6.526025    0.000000    0.000000    0.000000    0.000000
  0.049659319   -4.615339  -56.444942 -101.805762    9.698534    0.000000    0.000000    0.000000    0.000000
  0.049859719   -4.617945  -56.645317 -100.795383    3.014623    0.000000    0.000000    0.000000    0.000000
  0.050060120   -4.628339  -56.886505 -100.895455    3.478675    0.000000    0.000000    0.000000    0.000000
  0.050260521   -4.634279  -57.103149 -103.220918    5.081773    0.000000    0.000000    0.000000    0.000000
  0.050460922   -4.637648  -57.359348 -101.364631   -6.812536    0.000000    0.000000    0.000000    0.000000
  0.050661323   -4.638715  -57.638306 -102.583144   -5.119675    0.000000    0.000000    0.000000    0.000000
  0.050861723   -4.636309  -57.907074 -103.502429   -7.881193    0.000000    0.000000    0.000000    0.000000
  0.051062124   -4.633146  -58.171688 -104.105459   -4.794309    0.000000    0.000000    0.000000    0.000000
  0.051262525   -4.629887  -58.386349 -104.267011  -16.257885    0.000000    0.000000    0.000000    0.000000
  0.051462926   -4.628966  -58.601009 -101.277172   -6.890154    0.000000    0.000000    0.000000    0.000000
  0.051663327   -4.630839  -58.820980 -105.034403   19.501480    0.000000    0.000000    0.000000    0.000000
  0.051863727   -4.632708  -59.035778 -104.171228    8.463355    0.000000    0.000000    0.000000    0.000000
  0.052064128   -4.636769  -59.267151 -103.761635    2.097074    0.000000    0.000000    0.000000    0.000000
  0.052264529   -4.641841  -59.501991 -102.778820   -7.281546    0.000000    0.000000    0.000000    0.000000
  0.052464930   -4.642197  -59.748474 -106.285885   -3.311628    0.000000    0.000000    0.000000    0.000000
  0.052665331   -4.646588  -59.985195 -106.402325    3.504853    0.000000    0.000000    0.000000    0.000000
  0.052865731   -4.647559  -60.221081 -107.996310  -12.664163    0.000000    0.000000    0.000000    0.000000
