! Anritsu VNA Master:                     Model: MS2036C/10/77
! SN:                                  1601066
! /bd0/18may26.balun/2a.r50.2.s2p
! Existing Calibration Information:
! TYPE:                         Current Settings,       Active Cal Settings
! TIME:             	   05/26/2018 07:59:43 PM,    05/26/2018 07:26:54 PM
! INTERNAL TEMP:    	                   45.5 C,                    45.5 C
! # POINTS:         	                      500,                       500
! START FREQ:       	               20.000 MHz,                20.000 MHz
! STOP FREQ:        	              120.000 MHz,               120.000 MHz
! SOURCE POWER:     	                     High,                      High
! IFBW:             	                    50 Hz,                     50 Hz
! AVG FACTOR:       	                       1 ,                        1 
! REF PLANE 1:      	                     0 mm,                      0 mm
! REF PLANE 2:      	                     0 mm,                      0 mm
! CAL TYPE:         	                 Full S11,                  Full S11
! CAL METHOD:       	                     SOLT,                      SOLT
! CAL LINE TYPE:    	                     Coax,                      Coax
! DUT PORT 1:       	                K-Conn(M),                 K-Conn(M)
! DUT PORT 2:       	                K-Conn(M),                 K-Conn(M)
! CAL STATUS:       	        OK: Accuracy High,                        --
# GHZ S DB R 50.0
! FREQ.GHZ       S11DB        S11A       S21DB        S21A       S12DB        S12A       S22DB        S22A
  0.020000000  -39.437593   55.481567  -90.988558   36.853939    0.000000    0.000000    0.000000    0.000000
  0.020200401  -39.591495   55.663486  -91.170569   39.871216    0.000000    0.000000    0.000000    0.000000
  0.020400802  -39.493037   56.220081  -91.629949   36.741894    0.000000    0.000000    0.000000    0.000000
  0.020601202  -39.608243   55.792866  -91.742635   34.926842    0.000000    0.000000    0.000000    0.000000
  0.020801603  -39.553298   55.088734  -91.311658   35.887894    0.000000    0.000000    0.000000    0.000000
  0.021002004  -39.688968   54.513111  -91.625766   35.761002    0.000000    0.000000    0.000000    0.000000
  0.021202405  -39.665739   54.669922  -91.055749   33.710098    0.000000    0.000000    0.000000    0.000000
  0.021402806  -39.714307   54.101017  -91.673535   36.877411    0.000000    0.000000    0.000000    0.000000
  0.021603206  -39.671721   53.872677  -92.908330   30.725927    0.000000    0.000000    0.000000    0.000000
  0.021803607  -39.647019   52.786407  -92.294602   32.730915    0.000000    0.000000    0.000000    0.000000
  0.022004008  -39.522367   51.698475  -92.395539   34.835190    0.000000    0.000000    0.000000    0.000000
  0.022204409  -39.588983   51.415680  -92.607067   35.986622    0.000000    0.000000    0.000000    0.000000
  0.022404810  -39.391249   50.702480  -92.519245   30.858440    0.000000    0.000000    0.000000    0.000000
  0.022605210  -39.223381   49.887390  -92.374713   32.789345    0.000000    0.000000    0.000000    0.000000
  0.022805611  -39.172806   49.472084  -92.497814   30.659479    0.000000    0.000000    0.000000    0.000000
  0.023006012  -39.068845   49.464447  -92.470875   31.691650    0.000000    0.000000    0.000000    0.000000
  0.023206413  -38.903880   49.392143  -93.679386   31.800648    0.000000    0.000000    0.000000    0.000000
  0.023406814  -38.795681   48.946392  -92.690588   28.539522    0.000000    0.000000    0.000000    0.000000
  0.023607214  -38.768099   49.301178  -92.883983   28.875694    0.000000    0.000000    0.000000    0.000000
  0.023807615  -38.530232   48.672241  -94.138703   29.543648    0.000000    0.000000    0.000000    0.000000
  0.024008016  -38.386311   49.537018  -93.285540   27.080692    0.000000    0.000000    0.000000    0.000000
  0.024208417  -38.325644   49.590168  -92.686319   25.785961    0.000000    0.000000    0.000000    0.000000
  0.024408818  -38.278591   50.427879  -93.542155   24.087626    0.000000    0.000000    0.000000    0.000000
  0.024609218  -38.297344   50.357761  -94.229383   27.283539    0.000000    0.000000    0.000000    0.000000
  0.024809619  -38.310314   50.625465  -94.203257   25.204868    0.000000    0.000000    0.000000    0.000000
  0.025010020  -38.340945   50.920788  -94.203983   29.010351    0.000000    0.000000    0.000000    0.000000
  0.025210421  -38.242723   50.548897  -93.661380   27.083088    0.000000    0.000000    0.000000    0.000000
  0.025410822  -38.262961   50.566917  -94.235487   22.036457    0.000000    0.000000    0.000000    0.000000
  0.025611222  -38.333376   51.290367  -94.226377   24.371262    0.000000    0.000000    0.000000    0.000000
  0.025811623  -38.339410   50.595879  -93.965021   25.621399    0.000000    0.000000    0.000000    0.000000
  0.026012024  -38.292072   50.148785  -94.244842   25.401628    0.000000    0.000000    0.000000    0.000000
  0.026212425  -38.340848   49.957939  -94.535147   21.980112    0.000000    0.000000    0.000000    0.000000
  0.026412826  -38.306387   50.045444  -94.049783   25.106890    0.000000    0.000000    0.000000    0.000000
  0.026613226  -38.247552   48.630539  -96.091908   20.604059    0.000000    0.000000    0.000000    0.000000
  0.026813627  -38.218398   48.370125  -94.675484   21.888557    0.000000    0.000000    0.000000    0.000000
  0.027014028  -38.162919   47.419147  -96.454954   20.864510    0.000000    0.000000    0.000000    0.000000
  0.027214429  -38.112197   46.934391  -95.328334   24.307981    0.000000    0.000000    0.000000    0.000000
  0.027414830  -38.101980   46.141918  -95.654325   17.571230    0.000000    0.000000    0.000000    0.000000
  0.027615230  -37.970828   45.703907  -95.503669   15.794142    0.000000    0.000000    0.000000    0.000000
  0.027815631  -37.816575   44.784920  -95.920717   21.509180    0.000000    0.000000    0.000000    0.000000
  0.028016032  -37.664967   44.931786  -95.463253   19.970957    0.000000    0.000000    0.000000    0.000000
  0.028216433  -37.537118   44.643867  -95.947350   18.608381    0.000000    0.000000    0.000000    0.000000
  0.028416834  -37.419959   45.008942  -95.432072   20.163263    0.000000    0.000000    0.000000    0.000000
  0.028617234  -37.310708   44.744499  -95.932186   14.703095    0.000000    0.000000    0.000000    0.000000
  0.028817635  -37.171704   45.599346  -95.925334   23.211618    0.000000    0.000000    0.000000    0.000000
  0.029018036  -37.077709   45.428310  -96.532722   12.637090    0.000000    0.000000    0.000000    0.000000
  0.029218437  -37.030588   45.394905  -96.773416   14.007030    0.000000    0.000000    0.000000    0.000000
  0.029418838  -37.019214   46.212887  -96.672888   17.698032    0.000000    0.000000    0.000000    0.000000
  0.029619238  -36.969928   46.745304  -96.792776   24.608517    0.000000    0.000000    0.000000    0.000000
  0.029819639  -36.885730   47.056664  -96.599864   13.833294    0.000000    0.000000    0.000000    0.000000
  0.030020040  -36.886514   46.854576  -97.444416   15.689219    0.000000    0.000000    0.000000    0.000000
  0.030220441  -36.842273   47.706409  -97.874212   13.572467    0.000000    0.000000    0.000000    0.000000
  0.030420842  -36.857768   47.890945  -97.147091   18.690104    0.000000    0.000000    0.000000    0.000000
  0.030621242  -36.951490   47.686947  -97.497184   18.275326    0.000000    0.000000    0.000000    0.000000
  0.030821643  -37.001018   47.569107  -96.900478   17.783863    0.000000    0.000000    0.000000    0.000000
  0.031022044  -36.955873   47.481113  -96.744923   15.828239    0.000000    0.000000    0.000000    0.000000
  0.031222445  -37.051646   47.357777  -97.662562   15.956327    0.000000    0.000000    0.000000    0.000000
  0.031422846  -36.985690   47.052399  -97.143169   15.634020    0.000000    0.000000    0.000000    0.000000
  0.031623246  -37.017030   46.073521  -97.557168    8.631213    0.000000    0.000000    0.000000    0.000000
  0.031823647  -37.036413   45.384571  -98.164150   20.440931    0.000000    0.000000    0.000000    0.000000
  0.032024048  -36.972213   45.195583  -97.723404   14.351880    0.000000    0.000000    0.000000    0.000000
  0.032224449  -36.843988   44.621658  -97.208961   13.938009    0.000000    0.000000    0.000000    0.000000
  0.032424850  -36.881151   43.399620  -96.297813   12.968615    0.000000    0.000000    0.000000    0.000000
  0.032625251  -36.842091   42.677063  -97.585395    8.709079    0.000000    0.000000    0.000000    0.000000
  0.032825651  -36.702391   41.781059  -98.208943   15.675998    0.000000    0.000000    0.000000    0.000000
  0.033026052  -36.571459   41.674084  -98.139532   12.730276    0.000000    0.000000    0.000000    0.000000
  0.033226453  -36.445735   41.477436  -98.309379   12.605488    0.000000    0.000000    0.000000    0.000000
  0.033426854  -36.348453   41.035458  -97.092912   14.813418    0.000000    0.000000    0.000000    0.000000
  0.033627255  -36.175662   40.873699  -98.145070   10.686815    0.000000    0.000000    0.000000    0.000000
  0.033827655  -36.043531   41.366631  -98.372184    6.980706    0.000000    0.000000    0.000000    0.000000
  0.034028056  -35.862347   41.217087  -97.467472    9.684358    0.000000    0.000000    0.000000    0.000000
  0.034228457  -35.839195   41.084572  -98.815140   10.885720    0.000000    0.000000    0.000000    0.000000
  0.034428858  -35.762646   41.725590  -98.029343   15.345022    0.000000    0.000000    0.000000    0.000000
  0.034629259  -35.607424   41.902813  -97.530036    5.218431    0.000000    0.000000    0.000000    0.000000
  0.034829659  -35.540659   42.702316  -98.470440    8.643349    0.000000    0.000000    0.000000    0.000000
  0.035030060  -35.502749   43.365231  -97.900839    7.010517    0.000000    0.000000    0.000000    0.000000
  0.035230461  -35.549378   43.615971  -98.191639   10.579573    0.000000    0.000000    0.000000    0.000000
  0.035430862  -35.505063   44.053402  -98.514730   15.784123    0.000000    0.000000    0.000000    0.000000
  0.035631263  -35.530201   44.681065  -98.821799    5.342769    0.000000    0.000000    0.000000    0.000000
  0.035831663  -35.544363   44.619656  -98.241730    5.424085    0.000000    0.000000    0.000000    0.000000
  0.036032064  -35.547254   44.788658  -98.831674   11.266222    0.000000    0.000000    0.000000    0.000000
  0.036232465  -35.642693   45.086357 -100.321025    1.577642    0.000000    0.000000    0.000000    0.000000
  0.036432866  -35.618630   44.465687  -99.648282   24.017969    0.000000    0.000000    0.000000    0.000000
  0.036633267  -35.718215   44.361027  -97.848314    6.957499    0.000000    0.000000    0.000000    0.000000
  0.036833667  -35.648682   44.173393  -99.608228   15.249960    0.000000    0.000000    0.000000    0.000000
  0.037034068  -35.738227   44.131088  -97.762908    6.040211    0.000000    0.000000    0.000000    0.000000
  0.037234469  -35.690845   43.243793  -99.694116    0.848562    0.000000    0.000000    0.000000    0.000000
  0.037434870  -35.665854   42.975899  -99.217744    6.796919    0.000000    0.000000    0.000000    0.000000
  0.037635271  -35.648066   42.348885  -98.521724    5.186220    0.000000    0.000000    0.000000    0.000000
  0.037835671  -35.605175   41.991680  -97.907753    7.667757    0.000000    0.000000    0.000000    0.000000
  0.038036072  -35.571278   42.198555  -99.661218    9.999332    0.000000    0.000000    0.000000    0.000000
  0.038236473  -35.472639   41.537308 -101.259130   16.800810    0.000000    0.000000    0.000000    0.000000
  0.038436874  -35.417920   40.527222 -100.236786    1.807567    0.000000    0.000000    0.000000    0.000000
  0.038637275  -35.290674   40.354664 -100.015325    7.361133    0.000000    0.000000    0.000000    0.000000
  0.038837675  -35.207848   40.344296 -100.083551   12.857101    0.000000    0.000000    0.000000    0.000000
  0.039038076  -35.066084   39.668854  -99.009240   12.190941    0.000000    0.000000    0.000000    0.000000
  0.039238477  -35.003653   39.916092  -99.559071    0.463248    0.000000    0.000000    0.000000    0.000000
  0.039438878  -34.867727   40.438591 -101.457617   11.177328    0.000000    0.000000    0.000000    0.000000
  0.039639279  -34.789256   39.955315 -100.610065    5.741607    0.000000    0.000000    0.000000    0.000000
  0.039839679  -34.718663   39.830173 -100.246059    0.603378    0.000000    0.000000    0.000000    0.000000
  0.040040080  -34.737959   41.073818  -99.161041    0.321027    0.000000    0.000000    0.000000    0.000000
  0.040240481  -34.632397   41.539078 -100.329696   12.186987    0.000000    0.000000    0.000000    0.000000
  0.040440882  -34.619550   41.772243 -101.349514    8.917715    0.000000    0.000000    0.000000    0.000000
  0.040641283  -34.664115   42.004330 -100.294167   12.380909    0.000000    0.000000    0.000000    0.000000
  0.040841683  -34.626965   42.280663 -100.805886    4.599455    0.000000    0.000000    0.000000    0.000000
  0.041042084  -34.737987   42.334400 -102.677232   18.490385    0.000000    0.000000    0.000000    0.000000
  0.041242485  -34.805545   42.305542 -101.282957    7.419422    0.000000    0.000000    0.000000    0.000000
  0.041442886  -34.785880   42.280708 -100.566688    9.524850    0.000000    0.000000    0.000000    0.000000
  0.041643287  -34.764948   42.111870 -101.573678    2.944128    0.000000    0.000000    0.000000    0.000000
  0.041843687  -34.764827   42.194057 -101.571709    1.776949    0.000000    0.000000    0.000000    0.000000
  0.042044088  -34.764370   41.688824 -101.711001    9.657477    0.000000    0.000000    0.000000    0.000000
  0.042244489  -34.822432   41.398911 -102.079118   13.967372    0.000000    0.000000    0.000000    0.000000
  0.042444890  -34.829240   40.927246 -101.730114   -4.103688    0.000000    0.000000    0.000000    0.000000
  0.042645291  -34.872664   39.970299 -100.066510    6.831180    0.000000    0.000000    0.000000    0.000000
  0.042845691  -34.818081   39.766907 -101.507150    1.827983    0.000000    0.000000    0.000000    0.000000
  0.043046092  -34.766823   39.616699 -102.202853    8.625745    0.000000    0.000000    0.000000    0.000000
  0.043246493  -34.683981   38.760391 -100.268806    6.829057    0.000000    0.000000    0.000000    0.000000
  0.043446894  -34.600612   38.054512 -101.758811   -1.333150    0.000000    0.000000    0.000000    0.000000
  0.043647295  -34.466068   37.798050 -100.175184   14.990361    0.000000    0.000000    0.000000    0.000000
  0.043847695  -34.482781   37.659031 -101.237369    4.784235    0.000000    0.000000    0.000000    0.000000
  0.044048096  -34.314375   37.238029 -101.827143    7.323045    0.000000    0.000000    0.000000    0.000000
  0.044248497  -34.254562   37.698654 -101.575335   -2.241246    0.000000    0.000000    0.000000    0.000000
  0.044448898  -34.183043   37.463791 -101.959407   -2.823892    0.000000    0.000000    0.000000    0.000000
  0.044649299  -34.147072   37.510113 -101.855916   13.925019    0.000000    0.000000    0.000000    0.000000
  0.044849699  -34.054900   37.831264 -101.514724    9.975601    0.000000    0.000000    0.000000    0.000000
  0.045050100  -34.005279   37.618134 -101.506157    3.461499    0.000000    0.000000    0.000000    0.000000
  0.045250501  -33.941469   38.773937 -100.936338    8.975385    0.000000    0.000000    0.000000    0.000000
  0.045450902  -33.872599   38.609913 -102.471987    3.124903    0.000000    0.000000    0.000000    0.000000
  0.045651303  -33.877724   39.528053 -102.623563    7.312454    0.000000    0.000000    0.000000    0.000000
  0.045851703  -33.868811   39.833382 -102.941768    1.568171    0.000000    0.000000    0.000000    0.000000
  0.046052104  -33.938403   40.057068 -102.031544    5.072602    0.000000    0.000000    0.000000    0.000000
  0.046252505  -33.971385   39.807400 -102.186188   -2.945947    0.000000    0.000000    0.000000    0.000000
  0.046452906  -33.995365   40.280277 -103.463460   -3.187667    0.000000    0.000000    0.000000    0.000000
  0.046653307  -34.007447   40.645344 -102.828358    1.429284    0.000000    0.000000    0.000000    0.000000
  0.046853707  -34.107155   40.248089 -103.368094   -8.317841    0.000000    0.000000    0.000000    0.000000
  0.047054108  -34.141137   40.202290 -102.618856    2.656098    0.000000    0.000000    0.000000    0.000000
  0.047254509  -34.156788   39.399303 -101.701166    3.280465    0.000000    0.000000    0.000000    0.000000
  0.047454910  -34.199040   39.960335 -102.882154   18.213648    0.000000    0.000000    0.000000    0.000000
  0.047655311  -34.263448   38.733265 -101.073937   10.455764    0.000000    0.000000    0.000000    0.000000
  0.047855711  -34.199411   38.405865 -102.534826   13.666533    0.000000    0.000000    0.000000    0.000000
  0.048056112  -34.267808   37.872360 -103.299367    2.742746    0.000000    0.000000    0.000000    0.000000
  0.048256513  -34.206250   37.609184 -102.357552    5.636642    0.000000    0.000000    0.000000    0.000000
  0.048456914  -34.201713   36.882534 -103.307262   -1.608113    0.000000    0.000000    0.000000    0.000000
  0.048657315  -34.082313   36.465263 -100.439400    4.880937    0.000000    0.000000    0.000000    0.000000
  0.048857715  -34.080116   35.859764 -101.568980   12.760212    0.000000    0.000000    0.000000    0.000000
  0.049058116  -33.980828   35.350384 -101.722278   10.554360    0.000000    0.000000    0.000000    0.000000
  0.049258517  -33.964530   34.618298 -103.420738   17.563498    0.000000    0.000000    0.000000    0.000000
  0.049458918  -33.818958   34.296459 -103.799413   -7.410278    0.000000    0.000000    0.000000    0.000000
  0.049659319  -33.683732   34.781784 -102.993363  -20.229967    0.000000    0.000000    0.000000    0.000000
  0.049859719  -33.686031   34.312447 -102.412810    1.154027    0.000000    0.000000    0.000000    0.000000
  0.050060120  -33.604548   34.696301 -102.879958   -6.326041    0.000000    0.000000    0.000000    0.000000
  0.050260521  -33.513132   35.055500 -102.534420    0.835692    0.000000    0.000000    0.000000    0.000000
  0.050460922  -33.480408   35.132687 -103.035290    9.652212    0.000000    0.000000    0.000000    0.000000
  0.050661323  -33.422773   35.370724 -103.242400    7.700806    0.000000    0.000000    0.000000    0.000000
  0.050861723  -33.419521   35.420403 -102.377500   17.130905    0.000000    0.000000    0.000000    0.000000
  0.051062124  -33.415923   35.785210 -103.577135   -0.097607    0.000000    0.000000    0.000000    0.000000
  0.051262525  -33.308534   36.137276 -102.446106   -2.286161    0.000000    0.000000    0.000000    0.000000
  0.051462926  -33.450432   36.300865 -101.164785   -3.964851    0.000000    0.000000    0.000000    0.000000
  0.051663327  -33.429159   36.041195 -103.059703    4.253284    0.000000    0.000000    0.000000    0.000000
  0.051863727  -33.438120   36.237598 -101.512496    0.472560    0.000000    0.000000    0.000000    0.000000
  0.052064128  -33.496837   36.150547 -103.238329   -7.283457    0.000000    0.000000    0.000000    0.000000
  0.052264529  -33.547003   36.152321 -101.567198    6.097775    0.000000    0.000000    0.000000    0.000000
  0.052464930  -33.581326   35.824295 -102.309363    8.241761    0.000000    0.000000    0.000000    0.000000
  0.052665331  -33.605271   35.563580 -102.568145    0.280500    0.000000    0.000000    0.000000    0.000000
  0.052865731  -33.593628   35.383595 -101.554085   18.517895    0.000000    0.000000    0.000000    0.000000
