! Anritsu VNA Master:                     Model: MS2036C/10/77
! SN:                                  1601066
! /bd0/18may07/256.ns.m7.s2p
! Existing Calibration Information:
! TYPE:                         Current Settings,       Active Cal Settings
! TIME:             	   05/07/2018 03:17:02 PM,    05/07/2018 03:13:55 PM
! INTERNAL TEMP:    	                   61.0 C,                    60.5 C
! # POINTS:         	                      500,                       500
! START FREQ:       	               20.000 MHz,                20.000 MHz
! STOP FREQ:        	              120.000 MHz,               120.000 MHz
! SOURCE POWER:     	                     High,                      High
! IFBW:             	                    50 Hz,                     50 Hz
! AVG FACTOR:       	                       1 ,                        1 
! REF PLANE 1:      	                     0 mm,                      0 mm
! REF PLANE 2:      	                     0 mm,                      0 mm
! CAL TYPE:         	                 Full S11,                  Full S11
! CAL METHOD:       	                     SOLT,                      SOLT
! CAL LINE TYPE:    	                     Coax,                      Coax
! DUT PORT 1:       	                K-Conn(F),                 K-Conn(F)
! DUT PORT 2:       	                K-Conn(F),                 K-Conn(F)
! CAL STATUS:       	        OK: Accuracy High,                        --
# GHZ S DB R 50.0
! FREQ.GHZ       S11DB        S11A       S21DB        S21A       S12DB        S12A       S22DB        S22A
  0.020000000   -0.615824 -125.913933  -90.560244   29.777676    0.000000    0.000000    0.000000    0.000000
  0.020200401   -0.614582 -127.393250  -91.376462   26.734715    0.000000    0.000000    0.000000    0.000000
  0.020400802   -0.614840 -128.854050  -91.771211   28.631824    0.000000    0.000000    0.000000    0.000000
  0.020601202   -0.618457 -130.319839  -91.428443   24.944563    0.000000    0.000000    0.000000    0.000000
  0.020801603   -0.620648 -131.825638  -92.653638   28.907871    0.000000    0.000000    0.000000    0.000000
  0.021002004   -0.628120 -133.343155  -92.746694   26.113379    0.000000    0.000000    0.000000    0.000000
  0.021202405   -0.635582 -134.872192  -92.805379   28.676111    0.000000    0.000000    0.000000    0.000000
  0.021402806   -0.641205 -136.425507  -93.346507   30.234484    0.000000    0.000000    0.000000    0.000000
  0.021603206   -0.646581 -137.962875  -93.195287   27.949636    0.000000    0.000000    0.000000    0.000000
  0.021803607   -0.652077 -139.492279  -93.133586   29.446438    0.000000    0.000000    0.000000    0.000000
  0.022004008   -0.655932 -141.025696  -94.100059   32.041534    0.000000    0.000000    0.000000    0.000000
  0.022204409   -0.662534 -142.592133  -93.652172   34.971230    0.000000    0.000000    0.000000    0.000000
  0.022404810   -0.669759 -144.167206  -93.379727   34.331963    0.000000    0.000000    0.000000    0.000000
  0.022605210   -0.674208 -145.751114  -93.154108   31.926958    0.000000    0.000000    0.000000    0.000000
  0.022805611   -0.679735 -147.353912  -93.289217   32.102089    0.000000    0.000000    0.000000    0.000000
  0.023006012   -0.682234 -148.950912  -93.677222   33.483639    0.000000    0.000000    0.000000    0.000000
  0.023206413   -0.684628 -150.553604  -93.068345   35.968315    0.000000    0.000000    0.000000    0.000000
  0.023406814   -0.685007 -152.142883  -93.031493   32.464355    0.000000    0.000000    0.000000    0.000000
  0.023607214   -0.692367 -153.728455  -93.481568   27.815290    0.000000    0.000000    0.000000    0.000000
  0.023807615   -0.699126 -155.350571  -93.426851   31.150242    0.000000    0.000000    0.000000    0.000000
  0.024008016   -0.708349 -156.966370  -93.272862   28.036135    0.000000    0.000000    0.000000    0.000000
  0.024208417   -0.720027 -158.613617  -93.664292   25.221415    0.000000    0.000000    0.000000    0.000000
  0.024408818   -0.730299 -160.271500  -92.994415   25.465910    0.000000    0.000000    0.000000    0.000000
  0.024609218   -0.739234 -161.933029  -93.479892   24.751888    0.000000    0.000000    0.000000    0.000000
  0.024809619   -0.748158 -163.600388  -93.651027   22.636675    0.000000    0.000000    0.000000    0.000000
  0.025010020   -0.760732 -165.268295  -94.279177   24.505211    0.000000    0.000000    0.000000    0.000000
  0.025210421   -0.773539 -166.945145  -93.484849   15.766929    0.000000    0.000000    0.000000    0.000000
  0.025410822   -0.787254 -168.637589  -94.445373   12.091410    0.000000    0.000000    0.000000    0.000000
  0.025611222   -0.801576 -170.348206  -94.761339   17.432253    0.000000    0.000000    0.000000    0.000000
  0.025811623   -0.816448 -172.081558  -94.596334   16.650900    0.000000    0.000000    0.000000    0.000000
  0.026012024   -0.829644 -173.821991  -95.649237   16.084160    0.000000    0.000000    0.000000    0.000000
  0.026212425   -0.839389 -175.564255  -95.918441   14.409083    0.000000    0.000000    0.000000    0.000000
  0.026412826   -0.853808 -177.308975  -96.416896   18.574741    0.000000    0.000000    0.000000    0.000000
  0.026613226   -0.867606 -179.075180  -96.451929   16.975004    0.000000    0.000000    0.000000    0.000000
  0.026813627   -0.884861  179.151978  -96.529616    8.939429    0.000000    0.000000    0.000000    0.000000
  0.027014028   -0.901658  177.376038  -96.645104   18.485088    0.000000    0.000000    0.000000    0.000000
  0.027214429   -0.920381  175.566742  -96.312347   19.560139    0.000000    0.000000    0.000000    0.000000
  0.027414830   -0.936160  173.758606  -95.759607   17.570917    0.000000    0.000000    0.000000    0.000000
  0.027615230   -0.952737  171.953323  -96.420000   18.610245    0.000000    0.000000    0.000000    0.000000
  0.027815631   -0.973231  170.115417  -95.711090   22.843218    0.000000    0.000000    0.000000    0.000000
  0.028016032   -0.993342  168.271393  -96.886336   26.222256    0.000000    0.000000    0.000000    0.000000
  0.028216433   -1.015345  166.435898  -96.562056   17.989307    0.000000    0.000000    0.000000    0.000000
  0.028416834   -1.035929  164.576904  -96.688422   17.103048    0.000000    0.000000    0.000000    0.000000
  0.028617234   -1.055963  162.718597  -95.817652   22.555922    0.000000    0.000000    0.000000    0.000000
  0.028817635   -1.074785  160.869400  -96.046138   22.165545    0.000000    0.000000    0.000000    0.000000
  0.029018036   -1.093884  159.035507  -97.393841   16.797709    0.000000    0.000000    0.000000    0.000000
  0.029218437   -1.113970  157.189362  -96.099665   21.360764    0.000000    0.000000    0.000000    0.000000
  0.029418838   -1.138096  155.363052  -96.750646   18.988842    0.000000    0.000000    0.000000    0.000000
  0.029619238   -1.162104  153.501419  -96.968925   24.027037    0.000000    0.000000    0.000000    0.000000
  0.029819639   -1.190825  151.613617  -96.820376   14.358122    0.000000    0.000000    0.000000    0.000000
  0.030020040   -1.221799  149.702728  -95.853856   16.369513    0.000000    0.000000    0.000000    0.000000
  0.030220441   -1.251921  147.779251  -96.399909   19.222609    0.000000    0.000000    0.000000    0.000000
  0.030420842   -1.281732  145.846161  -96.968885    8.680075    0.000000    0.000000    0.000000    0.000000
  0.030621242   -1.312866  143.922241  -97.638035   15.922670    0.000000    0.000000    0.000000    0.000000
  0.030821643   -1.345197  142.002594  -97.408841    8.873954    0.000000    0.000000    0.000000    0.000000
  0.031022044   -1.379398  140.068802  -96.388081   10.992658    0.000000    0.000000    0.000000    0.000000
  0.031222445   -1.408693  138.147522  -97.336531    5.112549    0.000000    0.000000    0.000000    0.000000
  0.031422846   -1.444528  136.163803  -97.435810    7.361396    0.000000    0.000000    0.000000    0.000000
  0.031623246   -1.482965  134.172424  -96.340134    9.317870    0.000000    0.000000    0.000000    0.000000
  0.031823647   -1.521627  132.158554  -97.142703   10.887237    0.000000    0.000000    0.000000    0.000000
  0.032024048   -1.557379  130.158447  -97.969344    9.990327    0.000000    0.000000    0.000000    0.000000
  0.032224449   -1.592825  128.143372  -96.819733   15.575486    0.000000    0.000000    0.000000    0.000000
  0.032424850   -1.632039  126.146248  -98.241830    7.096157    0.000000    0.000000    0.000000    0.000000
  0.032625251   -1.666356  124.139709  -97.853925    9.004017    0.000000    0.000000    0.000000    0.000000
  0.032825651   -1.705866  122.138893  -97.577148   11.871420    0.000000    0.000000    0.000000    0.000000
  0.033026052   -1.742586  120.128357  -99.596903    4.287841    0.000000    0.000000    0.000000    0.000000
  0.033226453   -1.783527  118.137436  -97.901338   11.387723    0.000000    0.000000    0.000000    0.000000
  0.033426854   -1.829324  116.141449  -99.781047   21.218443    0.000000    0.000000    0.000000    0.000000
  0.033627255   -1.879533  114.155952  -97.312298   10.253666    0.000000    0.000000    0.000000    0.000000
  0.033827655   -1.931026  112.130119  -98.804131   10.592992    0.000000    0.000000    0.000000    0.000000
  0.034028056   -1.985042  110.078369  -98.135282    5.017545    0.000000    0.000000    0.000000    0.000000
  0.034228457   -2.034104  107.985847  -98.674119    3.162853    0.000000    0.000000    0.000000    0.000000
  0.034428858   -2.087733  105.857613  -98.311793    8.226027    0.000000    0.000000    0.000000    0.000000
  0.034629259   -2.137558  103.738747  -99.111589    7.741553    0.000000    0.000000    0.000000    0.000000
  0.034829659   -2.183549  101.611725  -98.885334    6.222782    0.000000    0.000000    0.000000    0.000000
  0.035030060   -2.231268   99.470009  -97.688508   12.289498    0.000000    0.000000    0.000000    0.000000
  0.035230461   -2.277279   97.356155  -97.698448   13.198535    0.000000    0.000000    0.000000    0.000000
  0.035430862   -2.321424   95.233498  -99.081716    5.577388    0.000000    0.000000    0.000000    0.000000
  0.035631263   -2.363813   93.137062  -98.575416    8.372619    0.000000    0.000000    0.000000    0.000000
  0.035831663   -2.408466   91.047127  -99.546578   10.498878    0.000000    0.000000    0.000000    0.000000
  0.036032064   -2.454637   88.982475  -98.565718    4.698496    0.000000    0.000000    0.000000    0.000000
  0.036232465   -2.497987   86.910751 -100.086117    7.215180    0.000000    0.000000    0.000000    0.000000
  0.036432866   -2.545762   84.841141  -98.164063    6.748594    0.000000    0.000000    0.000000    0.000000
  0.036633267   -2.594838   82.793808 -100.108287    5.793419    0.000000    0.000000    0.000000    0.000000
  0.036833667   -2.649321   80.736160  -99.698247   -0.444567    0.000000    0.000000    0.000000    0.000000
  0.037034068   -2.707583   78.676682 -100.299476    3.381557    0.000000    0.000000    0.000000    0.000000
  0.037234469   -2.767092   76.607521  -99.684179    7.218476    0.000000    0.000000    0.000000    0.000000
  0.037434870   -2.833626   74.526703 -100.024824    3.114888    0.000000    0.000000    0.000000    0.000000
  0.037635271   -2.903000   72.428749 -100.114936    8.421439    0.000000    0.000000    0.000000    0.000000
  0.037835671   -2.975167   70.387962 -100.748272   12.734972    0.000000    0.000000    0.000000    0.000000
  0.038036072   -3.033651   68.381866 -101.080268    4.395878    0.000000    0.000000    0.000000    0.000000
  0.038236473   -3.082883   66.290611 -100.606661    2.668053    0.000000    0.000000    0.000000    0.000000
  0.038436874   -3.132836   64.164825 -101.289217   -2.461197    0.000000    0.000000    0.000000    0.000000
  0.038637275   -3.182754   62.045719 -100.916630    4.584182    0.000000    0.000000    0.000000    0.000000
  0.038837675   -3.229510   59.924290 -100.460024   12.520250    0.000000    0.000000    0.000000    0.000000
  0.039038076   -3.272334   57.851498 -100.540497    6.808499    0.000000    0.000000    0.000000    0.000000
  0.039238477   -3.316337   55.780720  -99.833447    6.093875    0.000000    0.000000    0.000000    0.000000
  0.039438878   -3.365698   53.745739 -100.149875   13.227276    0.000000    0.000000    0.000000    0.000000
  0.039639279   -3.414156   51.711105 -102.583597    7.381115    0.000000    0.000000    0.000000    0.000000
  0.039839679   -3.469762   49.685158 -100.539373    1.024280    0.000000    0.000000    0.000000    0.000000
  0.040040080   -3.527263   47.642681 -100.298151    5.035727    0.000000    0.000000    0.000000    0.000000
  0.040240481   -3.586553   45.605106 -100.323715   13.942659    0.000000    0.000000    0.000000    0.000000
  0.040440882   -3.645358   43.539360 -100.119960    6.455711    0.000000    0.000000    0.000000    0.000000
  0.040641283   -3.705203   41.462486  -99.858756    4.376928    0.000000    0.000000    0.000000    0.000000
  0.040841683   -3.761395   39.406414  -99.299731    6.411920    0.000000    0.000000    0.000000    0.000000
  0.041042084   -3.816668   37.360729  -99.818109    8.818720    0.000000    0.000000    0.000000    0.000000
  0.041242485   -3.871846   35.296291 -101.499124    3.813187    0.000000    0.000000    0.000000    0.000000
  0.041442886   -3.924944   33.241825 -100.266702   -0.719453    0.000000    0.000000    0.000000    0.000000
  0.041643287   -3.980198   31.169930  -99.330614    2.444978    0.000000    0.000000    0.000000    0.000000
  0.041843687   -4.029400   29.099274 -100.522278   -5.759574    0.000000    0.000000    0.000000    0.000000
  0.042044088   -4.079116   27.044506 -102.075612    5.754714    0.000000    0.000000    0.000000    0.000000
  0.042244489   -4.130834   25.003395 -101.462914   -5.969664    0.000000    0.000000    0.000000    0.000000
  0.042444890   -4.178212   22.996483 -100.815853   -1.932435    0.000000    0.000000    0.000000    0.000000
  0.042645291   -4.227434   20.968443 -102.226297   -2.536982    0.000000    0.000000    0.000000    0.000000
  0.042845691   -4.274053   18.989246 -100.157886   -1.105909    0.000000    0.000000    0.000000    0.000000
  0.043046092   -4.323692   16.980396 -103.705945   -1.821238    0.000000    0.000000    0.000000    0.000000
  0.043246493   -4.368611   14.985728 -103.304233  -15.285583    0.000000    0.000000    0.000000    0.000000
  0.043446894   -4.414869   12.996522 -103.574606    2.225689    0.000000    0.000000    0.000000    0.000000
  0.043647295   -4.460052   11.015350 -101.181707   -3.325653    0.000000    0.000000    0.000000    0.000000
  0.043847695   -4.506315    9.049048 -103.938019   15.970376    0.000000    0.000000    0.000000    0.000000
  0.044048096   -4.552819    7.077301 -102.393507   16.343830    0.000000    0.000000    0.000000    0.000000
  0.044248497   -4.597197    5.115056 -103.211875    1.540652    0.000000    0.000000    0.000000    0.000000
  0.044448898   -4.641647    3.168801 -101.706589    5.853598    0.000000    0.000000    0.000000    0.000000
  0.044649299   -4.683908    1.235922 -101.333184   14.267004    0.000000    0.000000    0.000000    0.000000
  0.044849699   -4.728849   -0.681392 -102.017225   15.177482    0.000000    0.000000    0.000000    0.000000
  0.045050100   -4.768692   -2.580998 -101.542175   16.316275    0.000000    0.000000    0.000000    0.000000
  0.045250501   -4.810870   -4.504597 -102.706108   -8.821381    0.000000    0.000000    0.000000    0.000000
  0.045450902   -4.848559   -6.399750 -101.858910    5.176264    0.000000    0.000000    0.000000    0.000000
  0.045651303   -4.887160   -8.289122 -102.538640   16.882092    0.000000    0.000000    0.000000    0.000000
  0.045851703   -4.927272  -10.132746  -99.671303   11.050862    0.000000    0.000000    0.000000    0.000000
  0.046052104   -4.968101  -12.015929 -100.843351   12.479465    0.000000    0.000000    0.000000    0.000000
  0.046252505   -5.006507  -13.873322 -102.244612   -7.681167    0.000000    0.000000    0.000000    0.000000
  0.046452906   -5.044178  -15.707891  -99.878149   15.012428    0.000000    0.000000    0.000000    0.000000
  0.046653307   -5.083605  -17.558746 -102.000730    5.630746    0.000000    0.000000    0.000000    0.000000
  0.046853707   -5.121622  -19.396856 -102.500793   -5.958279    0.000000    0.000000    0.000000    0.000000
  0.047054108   -5.159330  -21.221130 -101.029628    6.200419    0.000000    0.000000    0.000000    0.000000
  0.047254509   -5.194431  -23.047274 -103.040005   -7.694315    0.000000    0.000000    0.000000    0.000000
  0.047454910   -5.229111  -24.827337 -100.753207   -7.506155    0.000000    0.000000    0.000000    0.000000
  0.047655311   -5.260201  -26.621439 -102.190759   -1.413763    0.000000    0.000000    0.000000    0.000000
  0.047855711   -5.291223  -28.381285 -102.353082   -4.647082    0.000000    0.000000    0.000000    0.000000
  0.048056112   -5.324150  -30.115353 -103.105556    6.003227    0.000000    0.000000    0.000000    0.000000
  0.048256513   -5.356100  -31.863607 -103.862210   -9.064368    0.000000    0.000000    0.000000    0.000000
  0.048456914   -5.386029  -33.596771 -102.870733    4.776484    0.000000    0.000000    0.000000    0.000000
  0.048657315   -5.418892  -35.331364 -104.146843   -4.802579    0.000000    0.000000    0.000000    0.000000
  0.048857715   -5.445643  -37.066921 -103.605074    5.949421    0.000000    0.000000    0.000000    0.000000
  0.049058116   -5.476214  -38.809608 -105.152714   -1.865048    0.000000    0.000000    0.000000    0.000000
  0.049258517   -5.501633  -40.511772 -103.626388  -23.557232    0.000000    0.000000    0.000000    0.000000
  0.049458918   -5.527648  -42.214951 -104.978040   11.766187    0.000000    0.000000    0.000000    0.000000
  0.049659319   -5.556546  -43.921635 -104.445555   -6.766083    0.000000    0.000000    0.000000    0.000000
  0.049859719   -5.584164  -45.588348 -104.927540   11.063245    0.000000    0.000000    0.000000    0.000000
  0.050060120   -5.609024  -47.276451 -103.977189    8.156617    0.000000    0.000000    0.000000    0.000000
  0.050260521   -5.633636  -48.947838 -105.896667   11.741911    0.000000    0.000000    0.000000    0.000000
  0.050460922   -5.656621  -50.634399 -103.785553    9.926123    0.000000    0.000000    0.000000    0.000000
  0.050661323   -5.673769  -52.297054 -103.747215   24.827324    0.000000    0.000000    0.000000    0.000000
  0.050861723   -5.693381  -53.931149 -102.162185   14.365474    0.000000    0.000000    0.000000    0.000000
  0.051062124   -5.708338  -55.568867 -104.757176   -7.110968    0.000000    0.000000    0.000000    0.000000
  0.051262525   -5.726085  -57.178059 -102.296950   13.648279    0.000000    0.000000    0.000000    0.000000
  0.051462926   -5.744219  -58.737782 -101.558978    8.423025    0.000000    0.000000    0.000000    0.000000
  0.051663327   -5.757397  -60.295525 -101.834864    1.012534    0.000000    0.000000    0.000000    0.000000
  0.051863727   -5.772887  -61.835472 -103.807527   -0.838007    0.000000    0.000000    0.000000    0.000000
  0.052064128   -5.790963  -63.375706 -101.889696    3.895715    0.000000    0.000000    0.000000    0.000000
  0.052264529   -5.807576  -64.893311 -102.283729    2.358556    0.000000    0.000000    0.000000    0.000000
  0.052464930   -5.822366  -66.406303 -101.998541   -2.295701    0.000000    0.000000    0.000000    0.000000
  0.052665331   -5.841032  -67.949486 -103.182506   -8.261987    0.000000    0.000000    0.000000    0.000000
  0.052865731   -5.860527  -69.447334 -104.139174   -1.436309    0.000000    0.000000    0.000000    0.000000
