! Anritsu VNA Master:                     Model: MS2036C/10/77
! SN:                                  1601066
! /bd0/18may09/254.ns.m4.s2p
! Existing Calibration Information:
! TYPE:                         Current Settings,       Active Cal Settings
! TIME:             	   05/09/2018 12:46:38 PM,    05/09/2018 12:35:56 PM
! INTERNAL TEMP:    	                   58.0 C,                    56.8 C
! # POINTS:         	                      494,                       494
! START FREQ:       	               20.000 MHz,                20.000 MHz
! STOP FREQ:        	          118.797 594 MHz,           118.797 594 MHz
! SOURCE POWER:     	                     High,                      High
! IFBW:             	                    50 Hz,                     50 Hz
! AVG FACTOR:       	                       1 ,                        1 
! REF PLANE 1:      	                     0 mm,                      0 mm
! REF PLANE 2:      	                     0 mm,                      0 mm
! CAL TYPE:         	                 Full S22,                  Full S22
! CAL METHOD:       	                     SOLT,                      SOLT
! CAL LINE TYPE:    	                     Coax,                      Coax
! DUT PORT 1:       	                K-Conn(M),                 K-Conn(M)
! DUT PORT 2:       	                K-Conn(M),                 K-Conn(M)
! CAL STATUS:       	        OK: Accuracy High,                        --
# GHZ S DB R 50.0
! FREQ.GHZ       S11DB        S11A       S21DB        S21A       S12DB        S12A       S22DB        S22A
  0.020000000    0.000000    0.000000    0.000000    0.000000  -89.650389   33.127769   -0.639193 -126.430626
  0.020200401    0.000000    0.000000    0.000000    0.000000  -89.477653   33.556061   -0.645025 -127.883476
  0.020400802    0.000000    0.000000    0.000000    0.000000  -90.269094   32.897778   -0.646755 -129.352173
  0.020601202    0.000000    0.000000    0.000000    0.000000  -90.478662   33.129868   -0.652846 -130.859863
  0.020801603    0.000000    0.000000    0.000000    0.000000  -91.004379   34.618420   -0.654367 -132.360443
  0.021002004    0.000000    0.000000    0.000000    0.000000  -90.873337   32.215378   -0.656466 -133.918182
  0.021202405    0.000000    0.000000    0.000000    0.000000  -91.346758   33.843925   -0.659181 -135.457764
  0.021402806    0.000000    0.000000    0.000000    0.000000  -91.537827   31.692884   -0.661473 -136.998322
  0.021603206    0.000000    0.000000    0.000000    0.000000  -91.660967   38.431984   -0.664924 -138.545654
  0.021803607    0.000000    0.000000    0.000000    0.000000  -92.599321   39.956020   -0.669868 -140.103851
  0.022004008    0.000000    0.000000    0.000000    0.000000  -91.774865   42.902348   -0.677136 -141.651093
  0.022204409    0.000000    0.000000    0.000000    0.000000  -92.235378   39.602123   -0.680285 -143.250671
  0.022404810    0.000000    0.000000    0.000000    0.000000  -92.136252   43.908428   -0.685379 -144.875824
  0.022605210    0.000000    0.000000    0.000000    0.000000  -91.558086   44.514679   -0.690780 -146.489746
  0.022805611    0.000000    0.000000    0.000000    0.000000  -91.506011   41.421783   -0.695966 -148.116333
  0.023006012    0.000000    0.000000    0.000000    0.000000  -91.477115   41.403404   -0.702153 -149.739594
  0.023206413    0.000000    0.000000    0.000000    0.000000  -91.500732   43.866352   -0.708253 -151.353180
  0.023406814    0.000000    0.000000    0.000000    0.000000  -91.499201   37.801708   -0.711680 -152.975128
  0.023607214    0.000000    0.000000    0.000000    0.000000  -90.713889   39.325932   -0.719770 -154.605286
  0.023807615    0.000000    0.000000    0.000000    0.000000  -91.508068   39.688862   -0.728554 -156.235504
  0.024008016    0.000000    0.000000    0.000000    0.000000  -91.300126   34.879993   -0.739558 -157.893906
  0.024208417    0.000000    0.000000    0.000000    0.000000  -91.294698   33.210770   -0.746966 -159.563919
  0.024408818    0.000000    0.000000    0.000000    0.000000  -90.920790   32.392845   -0.752741 -161.232086
  0.024609218    0.000000    0.000000    0.000000    0.000000  -91.809191   30.997358   -0.759488 -162.902405
  0.024809619    0.000000    0.000000    0.000000    0.000000  -91.364026   28.204197   -0.768134 -164.572876
  0.025010020    0.000000    0.000000    0.000000    0.000000  -91.748558   29.857018   -0.778457 -166.253067
  0.025210421    0.000000    0.000000    0.000000    0.000000  -91.408825   27.896374   -0.787368 -167.946243
  0.025410822    0.000000    0.000000    0.000000    0.000000  -92.289258   25.444221   -0.797434 -169.637344
  0.025611222    0.000000    0.000000    0.000000    0.000000  -92.803639   27.153528   -0.808228 -171.339371
  0.025811623    0.000000    0.000000    0.000000    0.000000  -91.985225   26.528086   -0.819057 -173.059662
  0.026012024    0.000000    0.000000    0.000000    0.000000  -92.701852   22.278400   -0.829984 -174.798996
  0.026212425    0.000000    0.000000    0.000000    0.000000  -92.795206   23.643955   -0.841219 -176.532074
  0.026412826    0.000000    0.000000    0.000000    0.000000  -93.784051   26.992922   -0.852555 -178.286926
  0.026613226    0.000000    0.000000    0.000000    0.000000  -93.062513   24.667339   -0.867188  179.948090
  0.026813627    0.000000    0.000000    0.000000    0.000000  -94.441320   25.461985   -0.882374  178.174362
  0.027014028    0.000000    0.000000    0.000000    0.000000  -94.213589   23.140114   -0.897113  176.394699
  0.027214429    0.000000    0.000000    0.000000    0.000000  -94.567588   32.621876   -0.913548  174.614182
  0.027414830    0.000000    0.000000    0.000000    0.000000  -94.535137   29.065792   -0.930411  172.811310
  0.027615230    0.000000    0.000000    0.000000    0.000000  -95.418812   29.213669   -0.947533  170.985901
  0.027815631    0.000000    0.000000    0.000000    0.000000  -95.344270   25.556477   -0.965032  169.170303
  0.028016032    0.000000    0.000000    0.000000    0.000000  -94.502232   33.209747   -0.982748  167.335754
  0.028216433    0.000000    0.000000    0.000000    0.000000  -94.342211   33.268387   -1.002805  165.483078
  0.028416834    0.000000    0.000000    0.000000    0.000000  -94.728292   31.685503   -1.023554  163.620544
  0.028617234    0.000000    0.000000    0.000000    0.000000  -94.452332   39.486607   -1.044226  161.753815
  0.028817635    0.000000    0.000000    0.000000    0.000000  -94.513982   33.142929   -1.064596  159.887146
  0.029018036    0.000000    0.000000    0.000000    0.000000  -94.223948   32.847385   -1.086954  158.028763
  0.029218437    0.000000    0.000000    0.000000    0.000000  -94.346160   32.551777   -1.110474  156.143951
  0.029418838    0.000000    0.000000    0.000000    0.000000  -94.033525   29.745419   -1.135518  154.241623
  0.029619238    0.000000    0.000000    0.000000    0.000000  -94.245948   29.502687   -1.160844  152.335403
  0.029819639    0.000000    0.000000    0.000000    0.000000  -94.354052   28.972395   -1.186216  150.434021
  0.030020040    0.000000    0.000000    0.000000    0.000000  -94.129327   26.620525   -1.213339  148.520935
  0.030220441    0.000000    0.000000    0.000000    0.000000  -94.066611   27.106899   -1.239405  146.605667
  0.030420842    0.000000    0.000000    0.000000    0.000000  -94.030475   27.132050   -1.265152  144.693665
  0.030621242    0.000000    0.000000    0.000000    0.000000  -94.785988   18.369917   -1.294619  142.787857
  0.030821643    0.000000    0.000000    0.000000    0.000000  -94.304681   24.257757   -1.324107  140.880722
  0.031022044    0.000000    0.000000    0.000000    0.000000  -94.732356   26.824089   -1.355027  138.952286
  0.031222445    0.000000    0.000000    0.000000    0.000000  -94.442609   23.223455   -1.382022  137.028610
  0.031422846    0.000000    0.000000    0.000000    0.000000  -94.032642   15.010717   -1.415125  135.060562
  0.031623246    0.000000    0.000000    0.000000    0.000000  -94.821922   19.647158   -1.447755  133.092712
  0.031823647    0.000000    0.000000    0.000000    0.000000  -94.628955   17.262718   -1.479909  131.126846
  0.032024048    0.000000    0.000000    0.000000    0.000000  -94.402610   20.908016   -1.514863  129.151505
  0.032224449    0.000000    0.000000    0.000000    0.000000  -95.484680   22.468893   -1.549789  127.181511
  0.032424850    0.000000    0.000000    0.000000    0.000000  -95.971649   22.924402   -1.586336  125.191467
  0.032625250    0.000000    0.000000    0.000000    0.000000  -96.350559   17.269354   -1.621905  123.189186
  0.032825651    0.000000    0.000000    0.000000    0.000000  -96.621873   21.097706   -1.659889  121.163483
  0.033026052    0.000000    0.000000    0.000000    0.000000  -95.123040   15.549005   -1.696904  119.138496
  0.033226453    0.000000    0.000000    0.000000    0.000000  -96.078000   19.994473   -1.732814  117.078468
  0.033426854    0.000000    0.000000    0.000000    0.000000  -96.003795   26.221893   -1.767549  115.055275
  0.033627254    0.000000    0.000000    0.000000    0.000000  -96.960811   33.119968   -1.812554  113.014229
  0.033827655    0.000000    0.000000    0.000000    0.000000  -96.529960   19.073887   -1.849289  110.960739
  0.034028056    0.000000    0.000000    0.000000    0.000000  -96.833618   23.556278   -1.889661  108.916855
  0.034228457    0.000000    0.000000    0.000000    0.000000  -96.583193   17.601660   -1.932919  106.836716
  0.034428858    0.000000    0.000000    0.000000    0.000000  -96.694023   25.439720   -1.973377  104.761574
  0.034629258    0.000000    0.000000    0.000000    0.000000  -95.726248   28.658016   -2.015726  102.650589
  0.034829659    0.000000    0.000000    0.000000    0.000000  -96.403182   24.217922   -2.058863  100.538254
  0.035030060    0.000000    0.000000    0.000000    0.000000  -96.380370   25.611982   -2.105072   98.440620
  0.035230461    0.000000    0.000000    0.000000    0.000000  -95.892453   24.466341   -2.152242   96.344208
  0.035430862    0.000000    0.000000    0.000000    0.000000  -96.472198   24.997063   -2.198063   94.249237
  0.035631262    0.000000    0.000000    0.000000    0.000000  -96.305442   26.300800   -2.244467   92.139267
  0.035831663    0.000000    0.000000    0.000000    0.000000  -96.007000   21.960707   -2.292682   90.043655
  0.036032064    0.000000    0.000000    0.000000    0.000000  -96.294715   26.308819   -2.339892   87.926140
  0.036232465    0.000000    0.000000    0.000000    0.000000  -96.274726   22.983795   -2.385895   85.847649
  0.036432866    0.000000    0.000000    0.000000    0.000000  -96.134524   24.448374   -2.436492   83.738541
  0.036633266    0.000000    0.000000    0.000000    0.000000  -96.813393   19.900671   -2.485324   81.646034
  0.036833667    0.000000    0.000000    0.000000    0.000000  -96.845045   21.234930   -2.535416   79.554092
  0.037034068    0.000000    0.000000    0.000000    0.000000  -97.600957   19.577549   -2.587898   77.463203
  0.037234469    0.000000    0.000000    0.000000    0.000000  -97.860631   20.450556   -2.637807   75.353874
  0.037434870    0.000000    0.000000    0.000000    0.000000  -96.858688   15.286548   -2.690696   73.276062
  0.037635270    0.000000    0.000000    0.000000    0.000000  -97.580001   20.232210   -2.742382   71.173912
  0.037835671    0.000000    0.000000    0.000000    0.000000  -97.217251   21.592346   -2.806284   69.072540
  0.038036072    0.000000    0.000000    0.000000    0.000000  -98.264523   17.649864   -2.865676   67.030685
  0.038236473    0.000000    0.000000    0.000000    0.000000  -97.233531   24.942043   -2.921997   64.980331
  0.038436874    0.000000    0.000000    0.000000    0.000000  -98.788004   23.311958   -2.975727   62.909210
  0.038637274    0.000000    0.000000    0.000000    0.000000  -97.645395   17.500042   -3.030776   60.853359
  0.038837675    0.000000    0.000000    0.000000    0.000000  -96.683367   20.213964   -3.081582   58.785252
  0.039038076    0.000000    0.000000    0.000000    0.000000  -98.490186   28.546070   -3.134168   56.723572
  0.039238477    0.000000    0.000000    0.000000    0.000000  -97.379527   25.646004   -3.186335   54.675503
  0.039438878    0.000000    0.000000    0.000000    0.000000  -98.284101   22.484991   -3.240901   52.607162
  0.039639278    0.000000    0.000000    0.000000    0.000000  -98.631728   27.847454   -3.294356   50.555969
  0.039839679    0.000000    0.000000    0.000000    0.000000  -97.490585   29.801624   -3.349728   48.496906
  0.040040080    0.000000    0.000000    0.000000    0.000000  -98.222402   20.228992   -3.399337   46.407909
  0.040240481    0.000000    0.000000    0.000000    0.000000  -98.883668   27.280045   -3.452628   44.355736
  0.040440882    0.000000    0.000000    0.000000    0.000000  -97.072704   23.499413   -3.503313   42.297764
  0.040641283    0.000000    0.000000    0.000000    0.000000  -97.821443   27.268684   -3.555618   40.253990
  0.040841683    0.000000    0.000000    0.000000    0.000000  -98.353209   26.348703   -3.606336   38.222153
  0.041042084    0.000000    0.000000    0.000000    0.000000  -97.471812   26.175024   -3.657405   36.190598
  0.041242485    0.000000    0.000000    0.000000    0.000000  -98.839283   35.171757   -3.708594   34.161915
  0.041442886    0.000000    0.000000    0.000000    0.000000  -97.239255   28.999767   -3.758002   32.131203
  0.041643287    0.000000    0.000000    0.000000    0.000000  -98.493693   36.009914   -3.809662   30.091427
  0.041843687    0.000000    0.000000    0.000000    0.000000  -98.290454   17.674841   -3.855056   28.049368
  0.042044088    0.000000    0.000000    0.000000    0.000000  -97.421896   21.455669   -3.903978   26.043756
  0.042244489    0.000000    0.000000    0.000000    0.000000  -98.316992   27.494055   -3.949538   24.032539
  0.042444890    0.000000    0.000000    0.000000    0.000000  -98.047329   23.603809   -3.994143   22.043344
  0.042645291    0.000000    0.000000    0.000000    0.000000  -98.547321   26.505699   -4.043576   20.051950
  0.042845691    0.000000    0.000000    0.000000    0.000000  -98.419676   30.619503   -4.088278   18.077959
  0.043046092    0.000000    0.000000    0.000000    0.000000  -98.915637   27.679737   -4.134004   16.097315
  0.043246493    0.000000    0.000000    0.000000    0.000000  -98.652379   26.936998   -4.178774   14.130556
  0.043446894    0.000000    0.000000    0.000000    0.000000  -99.471905   23.970486   -4.221105   12.178884
  0.043647295    0.000000    0.000000    0.000000    0.000000  -98.689845   27.851437   -4.261145   10.220669
  0.043847695    0.000000    0.000000    0.000000    0.000000  -99.465429   26.623503   -4.304248    8.305569
  0.044048096    0.000000    0.000000    0.000000    0.000000  -99.404323   29.689016   -4.348078    6.397148
  0.044248497    0.000000    0.000000    0.000000    0.000000  -98.895215   37.455208   -4.389445    4.497002
  0.044448898    0.000000    0.000000    0.000000    0.000000  -99.841425   37.000351   -4.428999    2.618728
  0.044649299    0.000000    0.000000    0.000000    0.000000  -99.203722   27.250607   -4.469328    0.721054
  0.044849699    0.000000    0.000000    0.000000    0.000000  -99.250798   27.520094   -4.509263   -1.142309
  0.045050100    0.000000    0.000000    0.000000    0.000000  -98.680385   24.234276   -4.550301   -3.023878
  0.045250501    0.000000    0.000000    0.000000    0.000000  -99.940502   26.338177   -4.587627   -4.881636
  0.045450902    0.000000    0.000000    0.000000    0.000000  -98.051298   27.172483   -4.628843   -6.740386
  0.045651303    0.000000    0.000000    0.000000    0.000000  -98.234174   35.465527   -4.669240   -8.591587
  0.045851703    0.000000    0.000000    0.000000    0.000000  -98.519667   31.480837   -4.705155  -10.434004
  0.046052104    0.000000    0.000000    0.000000    0.000000  -98.199976   26.736254   -4.742928  -12.268585
  0.046252505    0.000000    0.000000    0.000000    0.000000  -97.993225   21.869261   -4.778789  -14.102299
  0.046452906    0.000000    0.000000    0.000000    0.000000  -98.026651   23.707874   -4.812889  -15.923193
  0.046653307    0.000000    0.000000    0.000000    0.000000  -99.253723   35.202553   -4.849598  -17.751345
  0.046853707    0.000000    0.000000    0.000000    0.000000  -98.188082   29.879509   -4.884808  -19.575489
  0.047054108    0.000000    0.000000    0.000000    0.000000  -97.784614   34.727634   -4.918712  -21.404169
  0.047254509    0.000000    0.000000    0.000000    0.000000  -99.251155   22.909271   -4.952193  -23.241741
  0.047454910    0.000000    0.000000    0.000000    0.000000  -98.424745   32.870373   -4.984109  -25.052313
  0.047655311    0.000000    0.000000    0.000000    0.000000  -98.888875   28.791231   -5.017130  -26.855421
  0.047855711    0.000000    0.000000    0.000000    0.000000  -98.634822   32.058170   -5.050396  -28.659204
  0.048056112    0.000000    0.000000    0.000000    0.000000  -98.136715   22.495384   -5.080581  -30.455465
  0.048256513    0.000000    0.000000    0.000000    0.000000  -98.224051   25.313004   -5.107204  -32.231625
  0.048456914    0.000000    0.000000    0.000000    0.000000  -99.547237   29.701191   -5.136389  -34.003105
  0.048657315    0.000000    0.000000    0.000000    0.000000  -99.999543   28.503529   -5.162441  -35.774124
  0.048857715    0.000000    0.000000    0.000000    0.000000 -100.084371   28.278419   -5.183190  -37.541283
  0.049058116    0.000000    0.000000    0.000000    0.000000  -99.423796   22.798580   -5.207185  -39.317822
  0.049258517    0.000000    0.000000    0.000000    0.000000  -98.207607   34.336647   -5.229188  -41.071453
  0.049458918    0.000000    0.000000    0.000000    0.000000  -98.902663   35.448898   -5.253912  -42.792076
  0.049659319    0.000000    0.000000    0.000000    0.000000 -100.284862   37.857101   -5.274234  -44.516899
  0.049859719    0.000000    0.000000    0.000000    0.000000  -99.143164   39.122074   -5.292827  -46.203896
  0.050060120    0.000000    0.000000    0.000000    0.000000  -99.600697   30.447351   -5.314171  -47.863220
  0.050260521    0.000000    0.000000    0.000000    0.000000  -99.004700   41.259518   -5.329777  -49.566689
  0.050460922    0.000000    0.000000    0.000000    0.000000  -97.799139   36.352531   -5.343976  -51.230553
  0.050661323    0.000000    0.000000    0.000000    0.000000  -98.069582   36.088539   -5.359061  -52.879135
  0.050861723    0.000000    0.000000    0.000000    0.000000  -99.182794   34.345955   -5.371381  -54.513214
  0.051062124    0.000000    0.000000    0.000000    0.000000  -99.046598   30.728266   -5.386229  -56.125935
  0.051262525    0.000000    0.000000    0.000000    0.000000  -97.716501   39.290184   -5.401499  -57.693775
  0.051462926    0.000000    0.000000    0.000000    0.000000  -99.411593   36.399624   -5.417206  -59.268562
  0.051663327    0.000000    0.000000    0.000000    0.000000  -98.961975   24.475815   -5.429529  -60.825260
  0.051863727    0.000000    0.000000    0.000000    0.000000  -98.514668   32.325344   -5.443208  -62.358624
  0.052064128    0.000000    0.000000    0.000000    0.000000  -98.414738   29.714869   -5.451528  -63.914921
  0.052264529    0.000000    0.000000    0.000000    0.000000  -98.455547   29.418785   -5.462289  -65.445320
  0.052464930    0.000000    0.000000    0.000000    0.000000  -98.534707   21.871155   -5.475880  -66.936836
  0.052665331    0.000000    0.000000    0.000000    0.000000  -97.996799   33.234238   -5.488231  -68.449783
  0.052865731    0.000000    0.000000    0.000000    0.000000  -98.704939   28.661020   -5.497774  -69.920944
