! Anritsu VNA Master:                     Model: MS2036C/10/77
! SN:                                  1601066
! /bd0/18may09/254.ns.m.s2p
! Existing Calibration Information:
! TYPE:                         Current Settings,       Active Cal Settings
! TIME:             	   05/09/2018 12:57:18 PM,    05/09/2018 12:54:36 PM
! INTERNAL TEMP:    	                   58.5 C,                    58.3 C
! # POINTS:         	                      494,                       494
! START FREQ:       	               20.000 MHz,                20.000 MHz
! STOP FREQ:        	          118.797 594 MHz,           118.797 594 MHz
! SOURCE POWER:     	                     High,                      High
! IFBW:             	                    50 Hz,                     50 Hz
! AVG FACTOR:       	                       1 ,                        1 
! REF PLANE 1:      	                     0 mm,                      0 mm
! REF PLANE 2:      	                     0 mm,                      0 mm
! CAL TYPE:         	                 Full S22,                  Full S22
! CAL METHOD:       	                     SOLT,                      SOLT
! CAL LINE TYPE:    	                     Coax,                      Coax
! DUT PORT 1:       	                K-Conn(M),                 K-Conn(M)
! DUT PORT 2:       	                K-Conn(M),                 K-Conn(M)
! CAL STATUS:       	        OK: Accuracy High,                        --
# GHZ S DB R 50.0
! FREQ.GHZ       S11DB        S11A       S21DB        S21A       S12DB        S12A       S22DB        S22A
  0.020000000    0.000000    0.000000    0.000000    0.000000  -89.659513   35.337135   -0.626454 -126.801903
  0.020200401    0.000000    0.000000    0.000000    0.000000  -89.312961   32.015514   -0.629215 -128.266159
  0.020400802    0.000000    0.000000    0.000000    0.000000  -90.015388   34.735252   -0.633563 -129.752579
  0.020601202    0.000000    0.000000    0.000000    0.000000  -89.706836   33.939255   -0.637340 -131.249695
  0.020801603    0.000000    0.000000    0.000000    0.000000  -90.319858   33.714573   -0.640765 -132.783051
  0.021002004    0.000000    0.000000    0.000000    0.000000  -91.497015   32.550606   -0.642270 -134.323395
  0.021202405    0.000000    0.000000    0.000000    0.000000  -91.193037   34.875561   -0.646155 -135.867050
  0.021402806    0.000000    0.000000    0.000000    0.000000  -91.599689   36.656254   -0.649079 -137.411575
  0.021603206    0.000000    0.000000    0.000000    0.000000  -91.842017   37.841644   -0.652250 -138.941040
  0.021803607    0.000000    0.000000    0.000000    0.000000  -91.475953   40.652866   -0.656365 -140.491837
  0.022004008    0.000000    0.000000    0.000000    0.000000  -91.693017   39.965382   -0.661622 -142.036621
  0.022204409    0.000000    0.000000    0.000000    0.000000  -92.668670   43.210876   -0.668116 -143.605118
  0.022404810    0.000000    0.000000    0.000000    0.000000  -91.834383   45.627766   -0.676864 -145.201920
  0.022605210    0.000000    0.000000    0.000000    0.000000  -91.956507   42.385441   -0.681501 -146.805359
  0.022805611    0.000000    0.000000    0.000000    0.000000  -91.179740   44.043991   -0.683768 -148.422394
  0.023006012    0.000000    0.000000    0.000000    0.000000  -91.843767   40.646053   -0.689033 -150.032196
  0.023206413    0.000000    0.000000    0.000000    0.000000  -91.284151   39.594688   -0.696207 -151.633026
  0.023406814    0.000000    0.000000    0.000000    0.000000  -91.233402   40.446388   -0.701779 -153.240051
  0.023607214    0.000000    0.000000    0.000000    0.000000  -91.052422   38.419350   -0.712084 -154.847809
  0.023807615    0.000000    0.000000    0.000000    0.000000  -91.135036   39.065796   -0.721113 -156.482315
  0.024008016    0.000000    0.000000    0.000000    0.000000  -90.928826   35.674564   -0.730457 -158.137970
  0.024208417    0.000000    0.000000    0.000000    0.000000  -91.327274   37.817608   -0.739202 -159.790817
  0.024408818    0.000000    0.000000    0.000000    0.000000  -91.560499   33.182823   -0.745346 -161.472549
  0.024609218    0.000000    0.000000    0.000000    0.000000  -91.352162   35.533958   -0.753398 -163.140289
  0.024809619    0.000000    0.000000    0.000000    0.000000  -91.479101   32.918949   -0.763854 -164.815598
  0.025010020    0.000000    0.000000    0.000000    0.000000  -91.361095   29.725113   -0.772539 -166.495422
  0.025210421    0.000000    0.000000    0.000000    0.000000  -91.536930   29.497892   -0.783376 -168.190506
  0.025410822    0.000000    0.000000    0.000000    0.000000  -91.681396   23.642159   -0.792507 -169.891617
  0.025611222    0.000000    0.000000    0.000000    0.000000  -92.275225   26.045214   -0.804556 -171.609039
  0.025811623    0.000000    0.000000    0.000000    0.000000  -93.242339   24.980310   -0.813815 -173.339584
  0.026012024    0.000000    0.000000    0.000000    0.000000  -92.831835   21.235834   -0.824446 -175.091949
  0.026212425    0.000000    0.000000    0.000000    0.000000  -92.588335   23.489454   -0.834832 -176.834595
  0.026412826    0.000000    0.000000    0.000000    0.000000  -93.078350   22.104322   -0.847436 -178.602829
  0.026613226    0.000000    0.000000    0.000000    0.000000  -93.428547   24.194717   -0.861150  179.632095
  0.026813627    0.000000    0.000000    0.000000    0.000000  -94.140593   24.514061   -0.874400  177.847107
  0.027014028    0.000000    0.000000    0.000000    0.000000  -93.962084   24.053164   -0.890727  176.061768
  0.027214429    0.000000    0.000000    0.000000    0.000000  -94.893809   23.799843   -0.904401  174.268814
  0.027414830    0.000000    0.000000    0.000000    0.000000  -94.525019   30.259254   -0.920254  172.468750
  0.027615230    0.000000    0.000000    0.000000    0.000000  -94.772847   28.990250   -0.937339  170.652679
  0.027815631    0.000000    0.000000    0.000000    0.000000  -94.417184   26.427105   -0.954796  168.834290
  0.028016032    0.000000    0.000000    0.000000    0.000000  -94.888150   36.545902   -0.972245  166.994965
  0.028216433    0.000000    0.000000    0.000000    0.000000  -94.311384   35.263680   -0.991522  165.143097
  0.028416834    0.000000    0.000000    0.000000    0.000000  -94.896727   32.830597   -1.012298  163.294556
  0.028617234    0.000000    0.000000    0.000000    0.000000  -94.549501   32.382832   -1.031484  161.424850
  0.028817635    0.000000    0.000000    0.000000    0.000000  -94.369575   34.617817   -1.052069  159.565186
  0.029018036    0.000000    0.000000    0.000000    0.000000  -94.447915   34.631168   -1.075000  157.691864
  0.029218437    0.000000    0.000000    0.000000    0.000000  -94.725904   30.262957   -1.098840  155.821777
  0.029418838    0.000000    0.000000    0.000000    0.000000  -94.581713   29.822256   -1.123713  153.915558
  0.029619238    0.000000    0.000000    0.000000    0.000000  -93.583889   31.468834   -1.149076  152.001099
  0.029819639    0.000000    0.000000    0.000000    0.000000  -94.415769   32.075024   -1.174926  150.085754
  0.030020040    0.000000    0.000000    0.000000    0.000000  -94.298937   28.688108   -1.201610  148.164017
  0.030220441    0.000000    0.000000    0.000000    0.000000  -93.468792   29.407621   -1.228439  146.233307
  0.030420842    0.000000    0.000000    0.000000    0.000000  -94.676352   25.056086   -1.255281  144.319870
  0.030621242    0.000000    0.000000    0.000000    0.000000  -93.344767   24.760895   -1.284242  142.396820
  0.030821643    0.000000    0.000000    0.000000    0.000000  -94.584975   19.341072   -1.315257  140.459671
  0.031022044    0.000000    0.000000    0.000000    0.000000  -94.186516   24.391499   -1.346135  138.513611
  0.031222445    0.000000    0.000000    0.000000    0.000000  -93.594243   22.501270   -1.368866  136.574921
  0.031422846    0.000000    0.000000    0.000000    0.000000  -93.613337   23.186718   -1.401616  134.587799
  0.031623246    0.000000    0.000000    0.000000    0.000000  -94.674205   26.027992   -1.435046  132.602737
  0.031823647    0.000000    0.000000    0.000000    0.000000  -95.616542   23.755049   -1.468149  130.616898
  0.032024048    0.000000    0.000000    0.000000    0.000000  -95.382678   19.657816   -1.501335  128.624176
  0.032224449    0.000000    0.000000    0.000000    0.000000  -95.779835   21.081432   -1.539639  126.641296
  0.032424850    0.000000    0.000000    0.000000    0.000000  -95.873779   24.396864   -1.573901  124.634613
  0.032625250    0.000000    0.000000    0.000000    0.000000  -95.393578   18.307346   -1.608072  122.609024
  0.032825651    0.000000    0.000000    0.000000    0.000000  -95.225283   16.148811   -1.646690  120.578888
  0.033026052    0.000000    0.000000    0.000000    0.000000  -96.098406   18.566689   -1.678805  118.543289
  0.033226453    0.000000    0.000000    0.000000    0.000000  -96.561722   24.358807   -1.716641  116.496826
  0.033426854    0.000000    0.000000    0.000000    0.000000  -96.589943   18.071896   -1.753202  114.454834
  0.033627254    0.000000    0.000000    0.000000    0.000000  -96.795092   27.988092   -1.790619  112.413910
  0.033827655    0.000000    0.000000    0.000000    0.000000  -96.443996   23.712227   -1.829974  110.376617
  0.034028056    0.000000    0.000000    0.000000    0.000000  -96.345087   21.940659   -1.868080  108.336594
  0.034228457    0.000000    0.000000    0.000000    0.000000  -95.803429   25.852709   -1.908611  106.270065
  0.034428858    0.000000    0.000000    0.000000    0.000000  -95.693427   15.610469   -1.950370  104.211235
  0.034629258    0.000000    0.000000    0.000000    0.000000  -96.375679   22.984262   -1.991339  102.116356
  0.034829659    0.000000    0.000000    0.000000    0.000000  -96.079884   28.658653   -2.033192  100.044075
  0.035030060    0.000000    0.000000    0.000000    0.000000  -96.433900   19.883247   -2.079222   97.952858
  0.035230461    0.000000    0.000000    0.000000    0.000000  -96.334393   24.814697   -2.124068   95.867729
  0.035430862    0.000000    0.000000    0.000000    0.000000  -96.696870   26.125698   -2.170458   93.774727
  0.035631262    0.000000    0.000000    0.000000    0.000000  -95.783644   27.147747   -2.218457   91.683563
  0.035831663    0.000000    0.000000    0.000000    0.000000  -96.244539   23.511497   -2.265218   89.581734
  0.036032064    0.000000    0.000000    0.000000    0.000000  -96.069722   22.545080   -2.311293   87.487930
  0.036232465    0.000000    0.000000    0.000000    0.000000  -95.750129   29.538467   -2.358133   85.401360
  0.036432866    0.000000    0.000000    0.000000    0.000000  -95.685579   24.254515   -2.408482   83.286018
  0.036633266    0.000000    0.000000    0.000000    0.000000  -96.329376   18.183104   -2.457917   81.197029
  0.036833667    0.000000    0.000000    0.000000    0.000000  -95.728807   23.662731   -2.508664   79.074547
  0.037034068    0.000000    0.000000    0.000000    0.000000  -96.706800   22.870974   -2.559870   76.969818
  0.037234469    0.000000    0.000000    0.000000    0.000000  -96.581875   23.486887   -2.611751   74.867012
  0.037434870    0.000000    0.000000    0.000000    0.000000  -96.085400   20.318989   -2.662814   72.762657
  0.037635270    0.000000    0.000000    0.000000    0.000000  -96.953922   19.974195   -2.717685   70.623894
  0.037835671    0.000000    0.000000    0.000000    0.000000  -97.429444   26.552280   -2.781339   68.506760
  0.038036072    0.000000    0.000000    0.000000    0.000000  -97.069774   23.786270   -2.842511   66.459419
  0.038236473    0.000000    0.000000    0.000000    0.000000  -97.874303   19.874636   -2.895809   64.389420
  0.038436874    0.000000    0.000000    0.000000    0.000000  -99.467816   28.081785   -2.950375   62.295322
  0.038637274    0.000000    0.000000    0.000000    0.000000  -98.166996   30.218273   -3.003319   60.222134
  0.038837675    0.000000    0.000000    0.000000    0.000000  -97.687215   27.411993   -3.054111   58.140503
  0.039038076    0.000000    0.000000    0.000000    0.000000  -97.834718   26.722292   -3.108161   56.079151
  0.039238477    0.000000    0.000000    0.000000    0.000000  -98.167125   23.268400   -3.156903   53.998039
  0.039438878    0.000000    0.000000    0.000000    0.000000  -97.171196   22.814127   -3.213117   51.951038
  0.039639278    0.000000    0.000000    0.000000    0.000000  -97.959956   29.241941   -3.265019   49.894585
  0.039839679    0.000000    0.000000    0.000000    0.000000  -98.279592   25.738461   -3.318491   47.815815
  0.040040080    0.000000    0.000000    0.000000    0.000000  -97.358246   28.897369   -3.369510   45.743893
  0.040240481    0.000000    0.000000    0.000000    0.000000  -97.973171   22.317123   -3.421089   43.690346
  0.040440882    0.000000    0.000000    0.000000    0.000000  -97.903152   28.265211   -3.473476   41.650410
  0.040641283    0.000000    0.000000    0.000000    0.000000  -97.396390   28.650404   -3.522814   39.612274
  0.040841683    0.000000    0.000000    0.000000    0.000000  -97.517244   26.852615   -3.572319   37.596657
  0.041042084    0.000000    0.000000    0.000000    0.000000  -97.748384   28.655605   -3.626485   35.585468
  0.041242485    0.000000    0.000000    0.000000    0.000000  -98.145133   27.549751   -3.677007   33.542458
  0.041442886    0.000000    0.000000    0.000000    0.000000  -98.090243   30.559324   -3.726677   31.525360
  0.041643287    0.000000    0.000000    0.000000    0.000000  -98.840449   27.614109   -3.775998   29.479652
  0.041843687    0.000000    0.000000    0.000000    0.000000  -97.472059   18.241062   -3.825957   27.447401
  0.042044088    0.000000    0.000000    0.000000    0.000000  -97.934339   21.575613   -3.871129   25.433268
  0.042244489    0.000000    0.000000    0.000000    0.000000  -97.530886   30.142349   -3.920855   23.416658
  0.042444890    0.000000    0.000000    0.000000    0.000000  -98.165931   27.959652   -3.968767   21.444027
  0.042645291    0.000000    0.000000    0.000000    0.000000  -97.942283   25.665771   -4.018000   19.448763
  0.042845691    0.000000    0.000000    0.000000    0.000000  -98.836399   32.880920   -4.064949   17.467667
  0.043046092    0.000000    0.000000    0.000000    0.000000  -98.608041   29.446688   -4.111238   15.479923
  0.043246493    0.000000    0.000000    0.000000    0.000000  -98.327915   19.553577   -4.157180   13.484728
  0.043446894    0.000000    0.000000    0.000000    0.000000  -98.313829   30.644190   -4.199253   11.531022
  0.043647295    0.000000    0.000000    0.000000    0.000000  -98.100011   32.398891   -4.243370    9.557986
  0.043847695    0.000000    0.000000    0.000000    0.000000  -99.660563   31.523426   -4.287524    7.610547
  0.044048096    0.000000    0.000000    0.000000    0.000000  -99.107283   26.468544   -4.330471    5.661907
  0.044248497    0.000000    0.000000    0.000000    0.000000  -97.855685   33.248413   -4.372461    3.730867
  0.044448898    0.000000    0.000000    0.000000    0.000000  -98.427665   28.912151   -4.415589    1.825121
  0.044649299    0.000000    0.000000    0.000000    0.000000  -98.929401   33.795738   -4.458298   -0.094717
  0.044849699    0.000000    0.000000    0.000000    0.000000  -99.733251   19.323244   -4.498198   -1.982879
  0.045050100    0.000000    0.000000    0.000000    0.000000  -98.994241   35.835766   -4.536121   -3.880792
  0.045250501    0.000000    0.000000    0.000000    0.000000  -98.142141   31.470547   -4.574617   -5.772724
  0.045450902    0.000000    0.000000    0.000000    0.000000  -98.509210   34.746975   -4.610518   -7.658367
  0.045651303    0.000000    0.000000    0.000000    0.000000  -97.661105   25.063194   -4.648063   -9.532108
  0.045851703    0.000000    0.000000    0.000000    0.000000 -100.574301   26.870092   -4.682320  -11.381422
  0.046052104    0.000000    0.000000    0.000000    0.000000  -99.082276   29.046396   -4.716384  -13.247177
  0.046252505    0.000000    0.000000    0.000000    0.000000  -98.733651   30.196291   -4.753938  -15.047299
  0.046452906    0.000000    0.000000    0.000000    0.000000  -98.832596   25.182236   -4.788746  -16.867002
  0.046653307    0.000000    0.000000    0.000000    0.000000  -98.278623   31.686966   -4.823760  -18.683079
  0.046853707    0.000000    0.000000    0.000000    0.000000  -98.772085   39.746273   -4.856212  -20.509058
  0.047054108    0.000000    0.000000    0.000000    0.000000  -99.622179   27.897448   -4.891471  -22.313072
  0.047254509    0.000000    0.000000    0.000000    0.000000  -98.284251   23.295090   -4.922402  -24.139757
  0.047454910    0.000000    0.000000    0.000000    0.000000  -97.096069   23.698063   -4.949562  -25.914278
  0.047655311    0.000000    0.000000    0.000000    0.000000  -98.767495   31.541588   -4.981061  -27.702242
  0.047855711    0.000000    0.000000    0.000000    0.000000  -98.408363   24.602312   -5.010316  -29.451908
  0.048056112    0.000000    0.000000    0.000000    0.000000  -98.200922   33.493645   -5.041688  -31.218292
  0.048256513    0.000000    0.000000    0.000000    0.000000  -99.226258   31.202152   -5.069124  -32.956375
  0.048456914    0.000000    0.000000    0.000000    0.000000  -98.869008   29.941767   -5.097299  -34.710232
  0.048657315    0.000000    0.000000    0.000000    0.000000  -99.554680   26.103285   -5.124523  -36.421833
  0.048857715    0.000000    0.000000    0.000000    0.000000  -98.711905   27.449293   -5.149285  -38.170227
  0.049058116    0.000000    0.000000    0.000000    0.000000  -99.216557   33.224045   -5.171471  -39.890045
  0.049258517    0.000000    0.000000    0.000000    0.000000  -99.768008   26.576704   -5.195172  -41.611782
  0.049458918    0.000000    0.000000    0.000000    0.000000  -98.671631   26.289915   -5.216536  -43.293633
  0.049659319    0.000000    0.000000    0.000000    0.000000  -99.508473   31.597340   -5.243991  -44.978954
  0.049859719    0.000000    0.000000    0.000000    0.000000  -98.557317   35.472263   -5.263664  -46.669964
  0.050060120    0.000000    0.000000    0.000000    0.000000  -98.744192   35.210014   -5.287429  -48.296055
  0.050260521    0.000000    0.000000    0.000000    0.000000  -99.151877   27.119608   -5.307110  -49.973663
  0.050460922    0.000000    0.000000    0.000000    0.000000  -99.340035   28.144396   -5.326348  -51.630459
  0.050661323    0.000000    0.000000    0.000000    0.000000  -99.448601   36.248039   -5.341009  -53.274071
  0.050861723    0.000000    0.000000    0.000000    0.000000 -100.490583   39.186123   -5.357919  -54.905678
  0.051062124    0.000000    0.000000    0.000000    0.000000  -98.669620   34.513618   -5.377542  -56.531910
  0.051262525    0.000000    0.000000    0.000000    0.000000 -100.545378   34.453251   -5.395773  -58.123276
  0.051462926    0.000000    0.000000    0.000000    0.000000  -99.169735   33.454784   -5.411560  -59.705688
  0.051663327    0.000000    0.000000    0.000000    0.000000  -99.463529   32.571472   -5.429211  -61.303593
  0.051863727    0.000000    0.000000    0.000000    0.000000  -98.861359   31.136049   -5.445519  -62.860527
  0.052064128    0.000000    0.000000    0.000000    0.000000  -99.274619   38.906643   -5.456668  -64.448677
  0.052264529    0.000000    0.000000    0.000000    0.000000  -99.248313   36.653732   -5.467699  -66.014549
  0.052464930    0.000000    0.000000    0.000000    0.000000  -99.204451   28.471083   -5.484554  -67.561943
  0.052665331    0.000000    0.000000    0.000000    0.000000  -97.979325   25.743114   -5.496091  -69.092476
  0.052865731    0.000000    0.000000    0.000000    0.000000  -98.745531   23.450140   -5.510790  -70.612518
