! Anritsu VNA Master:                     Model: MS2036C/10/77
! SN:                                  1601066
! /bd0/18may09/254.ns.m5.s2p
! Existing Calibration Information:
! TYPE:                         Current Settings,       Active Cal Settings
! TIME:             	   05/09/2018 12:47:56 PM,    05/09/2018 12:35:56 PM
! INTERNAL TEMP:    	                   58.0 C,                    56.8 C
! # POINTS:         	                      494,                       494
! START FREQ:       	               20.000 MHz,                20.000 MHz
! STOP FREQ:        	          118.797 594 MHz,           118.797 594 MHz
! SOURCE POWER:     	                     High,                      High
! IFBW:             	                    50 Hz,                     50 Hz
! AVG FACTOR:       	                       1 ,                        1 
! REF PLANE 1:      	                     0 mm,                      0 mm
! REF PLANE 2:      	                     0 mm,                      0 mm
! CAL TYPE:         	                 Full S22,                  Full S22
! CAL METHOD:       	                     SOLT,                      SOLT
! CAL LINE TYPE:    	                     Coax,                      Coax
! DUT PORT 1:       	                K-Conn(M),                 K-Conn(M)
! DUT PORT 2:       	                K-Conn(M),                 K-Conn(M)
! CAL STATUS:       	        OK: Accuracy High,                        --
# GHZ S DB R 50.0
! FREQ.GHZ       S11DB        S11A       S21DB        S21A       S12DB        S12A       S22DB        S22A
  0.020000000    0.000000    0.000000    0.000000    0.000000  -89.090468   33.425182   -0.637551 -126.434273
  0.020200401    0.000000    0.000000    0.000000    0.000000  -90.120618   33.812355   -0.641569 -127.888260
  0.020400802    0.000000    0.000000    0.000000    0.000000  -90.352704   31.930420   -0.645477 -129.357788
  0.020601202    0.000000    0.000000    0.000000    0.000000  -90.378041   35.580837   -0.650038 -130.868256
  0.020801603    0.000000    0.000000    0.000000    0.000000  -90.918419   33.087532   -0.653298 -132.370575
  0.021002004    0.000000    0.000000    0.000000    0.000000  -91.189857   33.989861   -0.654263 -133.928467
  0.021202405    0.000000    0.000000    0.000000    0.000000  -91.215659   33.899483   -0.657630 -135.464279
  0.021402806    0.000000    0.000000    0.000000    0.000000  -91.412963   33.251030   -0.661256 -137.021637
  0.021603206    0.000000    0.000000    0.000000    0.000000  -92.011020   39.058296   -0.663645 -138.561432
  0.021803607    0.000000    0.000000    0.000000    0.000000  -91.679630   34.710613   -0.669564 -140.119873
  0.022004008    0.000000    0.000000    0.000000    0.000000  -91.848068   39.746193   -0.676520 -141.677917
  0.022204409    0.000000    0.000000    0.000000    0.000000  -91.414678   45.288139   -0.680527 -143.272888
  0.022404810    0.000000    0.000000    0.000000    0.000000  -90.914575   42.345634   -0.685201 -144.898407
  0.022605210    0.000000    0.000000    0.000000    0.000000  -92.550119   45.857494   -0.688540 -146.524963
  0.022805611    0.000000    0.000000    0.000000    0.000000  -91.624412   43.425190   -0.695584 -148.150497
  0.023006012    0.000000    0.000000    0.000000    0.000000  -91.344774   42.166279   -0.700346 -149.761932
  0.023206413    0.000000    0.000000    0.000000    0.000000  -91.414186   43.351246   -0.706811 -151.381042
  0.023406814    0.000000    0.000000    0.000000    0.000000  -91.778458   43.715969   -0.711781 -153.007538
  0.023607214    0.000000    0.000000    0.000000    0.000000  -90.979879   37.606129   -0.717947 -154.637436
  0.023807615    0.000000    0.000000    0.000000    0.000000  -91.710260   40.183487   -0.727696 -156.267822
  0.024008016    0.000000    0.000000    0.000000    0.000000  -91.306986   38.958988   -0.737818 -157.920517
  0.024208417    0.000000    0.000000    0.000000    0.000000  -91.592561   32.516449   -0.746730 -159.599274
  0.024408818    0.000000    0.000000    0.000000    0.000000  -91.150899   32.590420   -0.752054 -161.259369
  0.024609218    0.000000    0.000000    0.000000    0.000000  -91.289999   30.566681   -0.758820 -162.924225
  0.024809619    0.000000    0.000000    0.000000    0.000000  -91.926154   31.810787   -0.768039 -164.585449
  0.025010020    0.000000    0.000000    0.000000    0.000000  -91.718025   30.599869   -0.778665 -166.270020
  0.025210421    0.000000    0.000000    0.000000    0.000000  -91.668781   28.444393   -0.787845 -167.953186
  0.025410822    0.000000    0.000000    0.000000    0.000000  -91.638110   29.268852   -0.797379 -169.641647
  0.025611222    0.000000    0.000000    0.000000    0.000000  -92.487016   24.959412   -0.809359 -171.343643
  0.025811623    0.000000    0.000000    0.000000    0.000000  -92.448248   25.494848   -0.819884 -173.060715
  0.026012024    0.000000    0.000000    0.000000    0.000000  -92.789885   23.928059   -0.830664 -174.793335
  0.026212425    0.000000    0.000000    0.000000    0.000000  -93.207467   24.165228   -0.841991 -176.534714
  0.026412826    0.000000    0.000000    0.000000    0.000000  -92.601275   20.012938   -0.853690 -178.285324
  0.026613226    0.000000    0.000000    0.000000    0.000000  -93.826573   27.344238   -0.867467  179.953400
  0.026813627    0.000000    0.000000    0.000000    0.000000  -93.966930   23.753044   -0.882367  178.182846
  0.027014028    0.000000    0.000000    0.000000    0.000000  -93.899326   22.958570   -0.897652  176.400558
  0.027214429    0.000000    0.000000    0.000000    0.000000  -94.808169   31.025185   -0.914928  174.625336
  0.027414830    0.000000    0.000000    0.000000    0.000000  -94.023299   24.958246   -0.931015  172.810287
  0.027615230    0.000000    0.000000    0.000000    0.000000  -94.312862   30.560022   -0.948395  170.996445
  0.027815631    0.000000    0.000000    0.000000    0.000000  -94.889646   32.610081   -0.965976  169.173874
  0.028016032    0.000000    0.000000    0.000000    0.000000  -95.211061   29.700504   -0.983618  167.337891
  0.028216433    0.000000    0.000000    0.000000    0.000000  -94.763268   32.207897   -1.004051  165.484543
  0.028416834    0.000000    0.000000    0.000000    0.000000  -95.036654   35.364845   -1.023974  163.622406
  0.028617234    0.000000    0.000000    0.000000    0.000000  -94.349323   37.212727   -1.044961  161.752014
  0.028817635    0.000000    0.000000    0.000000    0.000000  -94.517785   32.901917   -1.065580  159.879257
  0.029018036    0.000000    0.000000    0.000000    0.000000  -94.806070   35.575989   -1.087482  158.011887
  0.029218437    0.000000    0.000000    0.000000    0.000000  -94.050472   38.017273   -1.111536  156.135162
  0.029418838    0.000000    0.000000    0.000000    0.000000  -94.004110   30.720211   -1.135820  154.228775
  0.029619238    0.000000    0.000000    0.000000    0.000000  -94.074821   29.365210   -1.162076  152.321304
  0.029819639    0.000000    0.000000    0.000000    0.000000  -94.457380   32.504944   -1.187364  150.413574
  0.030020040    0.000000    0.000000    0.000000    0.000000  -93.845841   28.527739   -1.214746  148.497253
  0.030220441    0.000000    0.000000    0.000000    0.000000  -94.425989   26.193357   -1.240822  146.580338
  0.030420842    0.000000    0.000000    0.000000    0.000000  -93.515650   24.362848   -1.266496  144.672348
  0.030621242    0.000000    0.000000    0.000000    0.000000  -93.981698   28.107128   -1.295058  142.770126
  0.030821643    0.000000    0.000000    0.000000    0.000000  -94.815233   23.885487   -1.326275  140.860748
  0.031022044    0.000000    0.000000    0.000000    0.000000  -94.515708   21.139055   -1.356513  138.929169
  0.031222445    0.000000    0.000000    0.000000    0.000000  -94.994885   17.758816   -1.382944  137.009888
  0.031422846    0.000000    0.000000    0.000000    0.000000  -94.076323   21.829275   -1.416429  135.043106
  0.031623246    0.000000    0.000000    0.000000    0.000000  -93.503024   17.940935   -1.448629  133.073257
  0.031823647    0.000000    0.000000    0.000000    0.000000  -95.576427   17.419382   -1.481662  131.112045
  0.032024048    0.000000    0.000000    0.000000    0.000000  -94.891127   12.735290   -1.515929  129.143051
  0.032224449    0.000000    0.000000    0.000000    0.000000  -95.603587   18.900284   -1.553363  127.173767
  0.032424850    0.000000    0.000000    0.000000    0.000000  -95.550104   21.791689   -1.588778  125.192139
  0.032625250    0.000000    0.000000    0.000000    0.000000  -96.979254   20.597837   -1.624036  123.191025
  0.032825651    0.000000    0.000000    0.000000    0.000000  -95.889152   20.948057   -1.661606  121.163528
  0.033026052    0.000000    0.000000    0.000000    0.000000  -97.573835   23.763527   -1.699228  119.145767
  0.033226453    0.000000    0.000000    0.000000    0.000000  -96.723123   21.550175   -1.733508  117.084427
  0.033426854    0.000000    0.000000    0.000000    0.000000  -97.189436   17.557531   -1.769853  115.066574
  0.033627254    0.000000    0.000000    0.000000    0.000000  -95.620688   27.018671   -1.813322  113.028656
  0.033827655    0.000000    0.000000    0.000000    0.000000  -96.476926   29.904755   -1.849526  110.985176
  0.034028056    0.000000    0.000000    0.000000    0.000000  -96.294641   27.867817   -1.891521  108.936195
  0.034228457    0.000000    0.000000    0.000000    0.000000  -96.277842   24.606804   -1.934909  106.861778
  0.034428858    0.000000    0.000000    0.000000    0.000000  -96.928526   30.921431   -1.974284  104.789627
  0.034629258    0.000000    0.000000    0.000000    0.000000  -95.872818   23.879570   -2.017893  102.683205
  0.034829659    0.000000    0.000000    0.000000    0.000000  -96.454656   25.327688   -2.060060  100.591362
  0.035030060    0.000000    0.000000    0.000000    0.000000  -96.673697   20.223171   -2.106489   98.493317
  0.035230461    0.000000    0.000000    0.000000    0.000000  -96.527047   22.859016   -2.152322   96.397072
  0.035430862    0.000000    0.000000    0.000000    0.000000  -96.687112   25.213961   -2.199570   94.299446
  0.035631262    0.000000    0.000000    0.000000    0.000000  -96.204541   25.620819   -2.244808   92.197594
  0.035831663    0.000000    0.000000    0.000000    0.000000  -95.135725   21.206947   -2.294743   90.093445
  0.036032064    0.000000    0.000000    0.000000    0.000000  -96.320378   30.151457   -2.341783   87.981117
  0.036232465    0.000000    0.000000    0.000000    0.000000  -96.342696   24.818945   -2.388902   85.894073
  0.036432866    0.000000    0.000000    0.000000    0.000000  -95.743373   26.679319   -2.437840   83.789940
  0.036633266    0.000000    0.000000    0.000000    0.000000  -96.081357   27.638870   -2.487357   81.689095
  0.036833667    0.000000    0.000000    0.000000    0.000000  -97.256191   21.157934   -2.536696   79.594894
  0.037034068    0.000000    0.000000    0.000000    0.000000  -95.520675   25.813772   -2.589897   77.491989
  0.037234469    0.000000    0.000000    0.000000    0.000000  -98.410214   13.502443   -2.640490   75.391861
  0.037434870    0.000000    0.000000    0.000000    0.000000  -97.593950   19.379845   -2.693051   73.308273
  0.037635270    0.000000    0.000000    0.000000    0.000000  -97.360739   26.138792   -2.745126   71.193893
  0.037835671    0.000000    0.000000    0.000000    0.000000  -97.550041   17.320337   -2.810999   69.096260
  0.038036072    0.000000    0.000000    0.000000    0.000000  -97.120064   14.263469   -2.870632   67.056572
  0.038236473    0.000000    0.000000    0.000000    0.000000  -96.788486   15.423877   -2.927005   64.997238
  0.038436874    0.000000    0.000000    0.000000    0.000000  -97.667175   25.832979   -2.980996   62.919182
  0.038637274    0.000000    0.000000    0.000000    0.000000  -97.572687   27.464382   -3.035288   60.860195
  0.038837675    0.000000    0.000000    0.000000    0.000000  -98.670610   25.950764   -3.086288   58.798168
  0.039038076    0.000000    0.000000    0.000000    0.000000  -96.862280   21.864613   -3.139303   56.726025
  0.039238477    0.000000    0.000000    0.000000    0.000000  -97.880298   26.690479   -3.191768   54.681732
  0.039438878    0.000000    0.000000    0.000000    0.000000  -97.681693   27.455488   -3.246934   52.602615
  0.039639278    0.000000    0.000000    0.000000    0.000000  -98.134396   24.227116   -3.299853   50.558128
  0.039839679    0.000000    0.000000    0.000000    0.000000  -98.503931   22.783901   -3.355257   48.482407
  0.040040080    0.000000    0.000000    0.000000    0.000000  -97.417676   25.832998   -3.405716   46.406010
  0.040240481    0.000000    0.000000    0.000000    0.000000  -97.166331   28.924877   -3.457911   44.349731
  0.040440882    0.000000    0.000000    0.000000    0.000000  -97.093290   33.370644   -3.509006   42.286694
  0.040641283    0.000000    0.000000    0.000000    0.000000  -98.162492   23.775587   -3.560449   40.232910
  0.040841683    0.000000    0.000000    0.000000    0.000000  -98.775037   22.735298   -3.611513   38.204178
  0.041042084    0.000000    0.000000    0.000000    0.000000  -98.194723   30.098660   -3.660615   36.171257
  0.041242485    0.000000    0.000000    0.000000    0.000000  -97.504303   32.015427   -3.712630   34.150051
  0.041442886    0.000000    0.000000    0.000000    0.000000  -98.170004   25.342571   -3.761538   32.121132
  0.041643287    0.000000    0.000000    0.000000    0.000000  -96.712849   23.886946   -3.808617   30.076752
  0.041843687    0.000000    0.000000    0.000000    0.000000  -97.444520   28.893951   -3.857131   28.040972
  0.042044088    0.000000    0.000000    0.000000    0.000000  -97.664186   19.272398   -3.902699   26.047325
  0.042244489    0.000000    0.000000    0.000000    0.000000  -98.473931   31.156187   -3.948787   24.025688
  0.042444890    0.000000    0.000000    0.000000    0.000000  -98.511776   24.240952   -3.993664   22.045588
  0.042645291    0.000000    0.000000    0.000000    0.000000  -98.721293   26.060539   -4.045022   20.059612
  0.042845691    0.000000    0.000000    0.000000    0.000000  -98.444159   24.831293   -4.087520   18.085590
  0.043046092    0.000000    0.000000    0.000000    0.000000  -98.856285   22.678360   -4.133462   16.117014
  0.043246493    0.000000    0.000000    0.000000    0.000000  -97.854232   27.275152   -4.178535   14.145930
  0.043446894    0.000000    0.000000    0.000000    0.000000  -99.847632   31.140881   -4.219183   12.204922
  0.043647295    0.000000    0.000000    0.000000    0.000000  -98.157948   22.031073   -4.261496   10.251042
  0.043847695    0.000000    0.000000    0.000000    0.000000 -100.471671   21.961786   -4.302684    8.330688
  0.044048096    0.000000    0.000000    0.000000    0.000000  -98.427570   32.902290   -4.347116    6.422249
  0.044248497    0.000000    0.000000    0.000000    0.000000  -99.695899   20.734394   -4.387716    4.524404
  0.044448898    0.000000    0.000000    0.000000    0.000000  -98.945928   28.005508   -4.427672    2.641065
  0.044649299    0.000000    0.000000    0.000000    0.000000  -98.585831   29.624163   -4.470721    0.751728
  0.044849699    0.000000    0.000000    0.000000    0.000000  -98.933568   31.417063   -4.510132   -1.120067
  0.045050100    0.000000    0.000000    0.000000    0.000000  -98.325490   27.017082   -4.550183   -2.990723
  0.045250501    0.000000    0.000000    0.000000    0.000000  -98.464402   30.215361   -4.590133   -4.849006
  0.045450902    0.000000    0.000000    0.000000    0.000000  -98.851539   35.505943   -4.630699   -6.708246
  0.045651303    0.000000    0.000000    0.000000    0.000000  -97.840114   35.672112   -4.671738   -8.562604
  0.045851703    0.000000    0.000000    0.000000    0.000000  -98.956964   28.975763   -4.709043  -10.403463
  0.046052104    0.000000    0.000000    0.000000    0.000000  -98.525290   29.200356   -4.745842  -12.238338
  0.046252505    0.000000    0.000000    0.000000    0.000000  -98.270997   28.105852   -4.783472  -14.078400
  0.046452906    0.000000    0.000000    0.000000    0.000000  -98.605692   31.778671   -4.816714  -15.893254
  0.046653307    0.000000    0.000000    0.000000    0.000000  -97.897212   25.434528   -4.853669  -17.737749
  0.046853707    0.000000    0.000000    0.000000    0.000000 -100.058748   33.385353   -4.888178  -19.569412
  0.047054108    0.000000    0.000000    0.000000    0.000000  -98.812066   29.037477   -4.924646  -21.405302
  0.047254509    0.000000    0.000000    0.000000    0.000000  -98.719696   25.617121   -4.956751  -23.232365
  0.047454910    0.000000    0.000000    0.000000    0.000000  -98.587011   30.164547   -4.989400  -25.057175
  0.047655311    0.000000    0.000000    0.000000    0.000000  -97.730925   28.219938   -5.021668  -26.859367
  0.047855711    0.000000    0.000000    0.000000    0.000000  -99.431164   28.765738   -5.054435  -28.670504
  0.048056112    0.000000    0.000000    0.000000    0.000000 -100.506267   33.158913   -5.086175  -30.454609
  0.048256513    0.000000    0.000000    0.000000    0.000000  -98.888147   35.535728   -5.114190  -32.239212
  0.048456914    0.000000    0.000000    0.000000    0.000000  -99.372846   27.952137   -5.143132  -34.018631
  0.048657315    0.000000    0.000000    0.000000    0.000000  -99.538845   33.195305   -5.168994  -35.786076
  0.048857715    0.000000    0.000000    0.000000    0.000000  -98.866536   35.055489   -5.189157  -37.565239
  0.049058116    0.000000    0.000000    0.000000    0.000000  -99.506859   32.419651   -5.213101  -39.338051
  0.049258517    0.000000    0.000000    0.000000    0.000000  -99.721215   34.005684   -5.234305  -41.090057
  0.049458918    0.000000    0.000000    0.000000    0.000000 -100.008773   32.301231   -5.257299  -42.811481
  0.049659319    0.000000    0.000000    0.000000    0.000000 -100.328613   36.529373   -5.278706  -44.549610
  0.049859719    0.000000    0.000000    0.000000    0.000000  -98.751332   29.921219   -5.297771  -46.230305
  0.050060120    0.000000    0.000000    0.000000    0.000000  -98.283752   28.072943   -5.317772  -47.904137
  0.050260521    0.000000    0.000000    0.000000    0.000000  -98.432501   33.203030   -5.331442  -49.593620
  0.050460922    0.000000    0.000000    0.000000    0.000000  -99.444507   27.807285   -5.345894  -51.286461
  0.050661323    0.000000    0.000000    0.000000    0.000000 -100.249121   40.444988   -5.361008  -52.913895
  0.050861723    0.000000    0.000000    0.000000    0.000000 -100.598665   28.447981   -5.373263  -54.552818
  0.051062124    0.000000    0.000000    0.000000    0.000000  -99.089331   39.107212   -5.388785  -56.177094
  0.051262525    0.000000    0.000000    0.000000    0.000000  -99.698911   29.492672   -5.403422  -57.743828
  0.051462926    0.000000    0.000000    0.000000    0.000000  -98.344943   38.311863   -5.416949  -59.321415
  0.051663327    0.000000    0.000000    0.000000    0.000000  -98.697674   30.341831   -5.429750  -60.884380
  0.051863727    0.000000    0.000000    0.000000    0.000000  -97.574881   37.829964   -5.443596  -62.422745
  0.052064128    0.000000    0.000000    0.000000    0.000000 -100.345614   34.454056   -5.453356  -63.978443
  0.052264529    0.000000    0.000000    0.000000    0.000000  -99.158381   24.321930   -5.462818  -65.492050
  0.052464930    0.000000    0.000000    0.000000    0.000000  -97.855850   34.335705   -5.474743  -67.011353
  0.052665331    0.000000    0.000000    0.000000    0.000000  -99.512143   35.927597   -5.486500  -68.509552
  0.052865731    0.000000    0.000000    0.000000    0.000000  -98.664993   30.259981   -5.495090  -69.985405
