! Anritsu VNA Master:                     Model: MS2036C/10/77
! SN:                                  1601066
! /card0/usr/18may27.balun/252b.47.5.s2p
! Existing Calibration Information:
! TYPE:                         Current Settings,       Active Cal Settings
! TIME:             	   05/27/2018 01:20:00 PM,    05/27/2018 01:14:08 PM
! INTERNAL TEMP:    	                   52.0 C,                    52.0 C
! # POINTS:         	                      500,                       500
! START FREQ:       	               20.000 MHz,                20.000 MHz
! STOP FREQ:        	              120.000 MHz,               120.000 MHz
! SOURCE POWER:     	                     High,                      High
! IFBW:             	                    50 Hz,                     50 Hz
! AVG FACTOR:       	                       1 ,                        1 
! REF PLANE 1:      	                     0 mm,                      0 mm
! REF PLANE 2:      	                     0 mm,                      0 mm
! CAL TYPE:         	                 Full S11,                  Full S11
! CAL METHOD:       	                     SOLT,                      SOLT
! CAL LINE TYPE:    	                     Coax,                      Coax
! DUT PORT 1:       	                K-Conn(M),                 K-Conn(M)
! DUT PORT 2:       	                K-Conn(M),                 K-Conn(M)
! CAL STATUS:       	        OK: Accuracy High,                        --
# GHZ S DB R 50.0
! FREQ.GHZ       S11DB        S11A       S21DB        S21A       S12DB        S12A       S22DB        S22A
  0.020000000   -0.029682  -55.924877  -90.227940   38.941376    0.000000    0.000000    0.000000    0.000000
  0.020200401   -0.024420  -56.483490  -90.060848   36.846836    0.000000    0.000000    0.000000    0.000000
  0.020400802   -0.021967  -57.025295  -91.172384   33.585800    0.000000    0.000000    0.000000    0.000000
  0.020601202   -0.022510  -57.568428  -90.466622   32.814266    0.000000    0.000000    0.000000    0.000000
  0.020801603   -0.021077  -58.100651  -90.437570   31.024082    0.000000    0.000000    0.000000    0.000000
  0.021002004   -0.022358  -58.664940  -91.279350   22.912535    0.000000    0.000000    0.000000    0.000000
  0.021202405   -0.024581  -59.228348  -91.896794   24.365978    0.000000    0.000000    0.000000    0.000000
  0.021402806   -0.026753  -59.773861  -92.139390   25.011532    0.000000    0.000000    0.000000    0.000000
  0.021603206   -0.030705  -60.313194  -92.476962   23.153587    0.000000    0.000000    0.000000    0.000000
  0.021803607   -0.036128  -60.834248  -93.303995   30.382013    0.000000    0.000000    0.000000    0.000000
  0.022004008   -0.036670  -61.374516  -93.711321   23.727497    0.000000    0.000000    0.000000    0.000000
  0.022204409   -0.041180  -61.920952  -93.009597   27.505928    0.000000    0.000000    0.000000    0.000000
  0.022404810   -0.044007  -62.482277  -93.548580   31.420868    0.000000    0.000000    0.000000    0.000000
  0.022605210   -0.045784  -63.049618  -93.434024   31.024895    0.000000    0.000000    0.000000    0.000000
  0.022805611   -0.043324  -63.617992  -93.701846   32.731846    0.000000    0.000000    0.000000    0.000000
  0.023006012   -0.035975  -64.183266  -93.504123   36.328960    0.000000    0.000000    0.000000    0.000000
  0.023206413   -0.029812  -64.743652  -94.233550   30.250095    0.000000    0.000000    0.000000    0.000000
  0.023406814   -0.024076  -65.312866  -93.550636   33.773407    0.000000    0.000000    0.000000    0.000000
  0.023607214   -0.021568  -65.860588  -93.310166   34.384079    0.000000    0.000000    0.000000    0.000000
  0.023807615   -0.020020  -66.379776  -92.865868   31.016743    0.000000    0.000000    0.000000    0.000000
  0.024008016   -0.023432  -66.874336  -93.299557   29.707552    0.000000    0.000000    0.000000    0.000000
  0.024208417   -0.027509  -67.369064  -93.388918   33.458385    0.000000    0.000000    0.000000    0.000000
  0.024408818   -0.034176  -67.847893  -93.421120   29.682705    0.000000    0.000000    0.000000    0.000000
  0.024609218   -0.039813  -68.338699  -92.939142   27.876421    0.000000    0.000000    0.000000    0.000000
  0.024809619   -0.046794  -68.867859  -92.987922   23.030149    0.000000    0.000000    0.000000    0.000000
  0.025010020   -0.045211  -69.419014  -93.153974   24.990131    0.000000    0.000000    0.000000    0.000000
  0.025210421   -0.045424  -69.976898  -93.943938   24.834162    0.000000    0.000000    0.000000    0.000000
  0.025410822   -0.048029  -70.545532  -93.877734   22.835297    0.000000    0.000000    0.000000    0.000000
  0.025611222   -0.049062  -71.092262  -94.509876   14.857888    0.000000    0.000000    0.000000    0.000000
  0.025811623   -0.048532  -71.654839  -94.659584   19.761068    0.000000    0.000000    0.000000    0.000000
  0.026012024   -0.045212  -72.202972  -94.702047   22.265423    0.000000    0.000000    0.000000    0.000000
  0.026212425   -0.043864  -72.752281  -95.190771   15.240041    0.000000    0.000000    0.000000    0.000000
  0.026412826   -0.041505  -73.283089  -95.327304   16.819162    0.000000    0.000000    0.000000    0.000000
  0.026613226   -0.043966  -73.792953  -96.120224   14.609187    0.000000    0.000000    0.000000    0.000000
  0.026813627   -0.047100  -74.291145  -96.365887   17.438385    0.000000    0.000000    0.000000    0.000000
  0.027014028   -0.053158  -74.772850  -96.167390   25.023050    0.000000    0.000000    0.000000    0.000000
  0.027214429   -0.060688  -75.258423  -95.619080   20.995005    0.000000    0.000000    0.000000    0.000000
  0.027414830   -0.072723  -75.810257  -95.960538   19.830332    0.000000    0.000000    0.000000    0.000000
  0.027615230   -0.080563  -76.395676  -96.366637   18.199312    0.000000    0.000000    0.000000    0.000000
  0.027815631   -0.084698  -76.998222  -96.119593   20.781315    0.000000    0.000000    0.000000    0.000000
  0.028016032   -0.083254  -77.620842  -95.865581   16.870298    0.000000    0.000000    0.000000    0.000000
  0.028216433   -0.074391  -78.263283  -96.209715   19.476324    0.000000    0.000000    0.000000    0.000000
  0.028416834   -0.065066  -78.861000  -96.068672   23.261856    0.000000    0.000000    0.000000    0.000000
  0.028617234   -0.056631  -79.469635  -95.970804   21.985098    0.000000    0.000000    0.000000    0.000000
  0.028817635   -0.048558  -80.014748  -95.903925   23.623264    0.000000    0.000000    0.000000    0.000000
  0.029018036   -0.038784  -80.500191  -95.960930   22.158182    0.000000    0.000000    0.000000    0.000000
  0.029218437   -0.031277  -80.964729  -96.896309   20.271500    0.000000    0.000000    0.000000    0.000000
  0.029418838   -0.024474  -81.388000  -95.556598   13.369301    0.000000    0.000000    0.000000    0.000000
  0.029619238   -0.021394  -81.795425  -95.954119   16.144960    0.000000    0.000000    0.000000    0.000000
  0.029819639   -0.023511  -82.238777  -96.664080   17.385704    0.000000    0.000000    0.000000    0.000000
  0.030020040   -0.028874  -82.713326  -96.076506   16.329721    0.000000    0.000000    0.000000    0.000000
  0.030220441   -0.036863  -83.204201  -97.166931   12.001955    0.000000    0.000000    0.000000    0.000000
  0.030420842   -0.047462  -83.722336  -96.357142   11.346389    0.000000    0.000000    0.000000    0.000000
  0.030621242   -0.057281  -84.276802  -97.084454   10.372400    0.000000    0.000000    0.000000    0.000000
  0.030821643   -0.061231  -84.822578  -96.902832   17.682638    0.000000    0.000000    0.000000    0.000000
  0.031022044   -0.062251  -85.363007  -96.795637    8.580330    0.000000    0.000000    0.000000    0.000000
  0.031222445   -0.060712  -85.900620  -97.352935   15.648609    0.000000    0.000000    0.000000    0.000000
  0.031422846   -0.060116  -86.446159  -97.744246    9.673545    0.000000    0.000000    0.000000    0.000000
  0.031623246   -0.064973  -86.948189  -97.406333   17.999302    0.000000    0.000000    0.000000    0.000000
  0.031823647   -0.062387  -87.469513  -97.964693    6.880397    0.000000    0.000000    0.000000    0.000000
  0.032024048   -0.058583  -87.946175  -97.424233    6.419522    0.000000    0.000000    0.000000    0.000000
  0.032224449   -0.061621  -88.404922  -98.553313   11.039867    0.000000    0.000000    0.000000    0.000000
  0.032424850   -0.070800  -88.860847  -98.675765   15.754649    0.000000    0.000000    0.000000    0.000000
  0.032625251   -0.081214  -89.367111  -96.658869    7.100704    0.000000    0.000000    0.000000    0.000000
  0.032825651   -0.093485  -89.886627  -98.847136    6.887061    0.000000    0.000000    0.000000    0.000000
  0.033026052   -0.102157  -90.451111  -98.055347   16.728331    0.000000    0.000000    0.000000    0.000000
  0.033226453   -0.106451  -91.021965  -97.071518    7.484107    0.000000    0.000000    0.000000    0.000000
  0.033426854   -0.111797  -91.598969  -98.064404   16.987867    0.000000    0.000000    0.000000    0.000000
  0.033627255   -0.114146  -92.228485  -99.078290   12.111463    0.000000    0.000000    0.000000    0.000000
  0.033827655   -0.116371  -92.840820  -98.408746   16.161480    0.000000    0.000000    0.000000    0.000000
  0.034028056   -0.110270  -93.415581  -98.356221   16.613089    0.000000    0.000000    0.000000    0.000000
  0.034228457   -0.100818  -94.000992  -97.907683    2.002572    0.000000    0.000000    0.000000    0.000000
  0.034428858   -0.089904  -94.533737  -98.410838   12.343006    0.000000    0.000000    0.000000    0.000000
  0.034629259   -0.078225  -95.044411  -98.388988    8.395370    0.000000    0.000000    0.000000    0.000000
  0.034829659   -0.071425  -95.517746  -98.430407   10.749341    0.000000    0.000000    0.000000    0.000000
  0.035030060   -0.063497  -95.966278  -99.163543    7.448039    0.000000    0.000000    0.000000    0.000000
  0.035230461   -0.058756  -96.403221  -99.761692    0.998630    0.000000    0.000000    0.000000    0.000000
  0.035430862   -0.055895  -96.828720  -98.240398    3.691078    0.000000    0.000000    0.000000    0.000000
  0.035631263   -0.063618  -97.276817  -98.035237   10.938057    0.000000    0.000000    0.000000    0.000000
  0.035831663   -0.071793  -97.753677  -99.382442   -6.549636    0.000000    0.000000    0.000000    0.000000
  0.036032064   -0.081851  -98.278709  -99.908452    5.191450    0.000000    0.000000    0.000000    0.000000
  0.036232465   -0.087221  -98.797173 -100.692399   12.336213    0.000000    0.000000    0.000000    0.000000
  0.036432866   -0.093207  -99.367668  -99.290540   10.585974    0.000000    0.000000    0.000000    0.000000
  0.036633267   -0.097513  -99.896896  -99.286560    4.228721    0.000000    0.000000    0.000000    0.000000
  0.036833667   -0.099246 -100.448364 -100.556581    0.459397    0.000000    0.000000    0.000000    0.000000
  0.037034068   -0.093803 -100.981209 -100.116075   19.822573    0.000000    0.000000    0.000000    0.000000
  0.037234469   -0.083430 -101.485291  -99.966451    8.632324    0.000000    0.000000    0.000000    0.000000
  0.037434870   -0.076247 -101.936096 -100.170624   14.678869    0.000000    0.000000    0.000000    0.000000
  0.037635271   -0.069892 -102.376801  -99.218052   11.233067    0.000000    0.000000    0.000000    0.000000
  0.037835671   -0.072381 -102.810432 -100.654620   15.741336    0.000000    0.000000    0.000000    0.000000
  0.038036072   -0.081043 -103.264748  -99.239504   11.791368    0.000000    0.000000    0.000000    0.000000
  0.038236473   -0.088839 -103.754097  -99.346281    8.728474    0.000000    0.000000    0.000000    0.000000
  0.038436874   -0.098388 -104.261314  -98.184651    7.097846    0.000000    0.000000    0.000000    0.000000
  0.038637275   -0.106464 -104.770500  -98.803333    7.284411    0.000000    0.000000    0.000000    0.000000
  0.038837675   -0.114536 -105.293358  -98.574472   -0.989163    0.000000    0.000000    0.000000    0.000000
  0.039038076   -0.124489 -105.850830  -99.857656    2.374717    0.000000    0.000000    0.000000    0.000000
  0.039238477   -0.130709 -106.406578  -99.603053    2.834366    0.000000    0.000000    0.000000    0.000000
  0.039438878   -0.130548 -106.978516  -98.406637    4.446721    0.000000    0.000000    0.000000    0.000000
  0.039639279   -0.127844 -107.525963 -101.024390    6.984242    0.000000    0.000000    0.000000    0.000000
  0.039839679   -0.121066 -108.051338  -98.604487    5.214943    0.000000    0.000000    0.000000    0.000000
  0.040040080   -0.111295 -108.547318  -98.019286   10.769220    0.000000    0.000000    0.000000    0.000000
  0.040240481   -0.102777 -109.032837 -101.126836    2.149435    0.000000    0.000000    0.000000    0.000000
  0.040440882   -0.099515 -109.498817 -100.799109   -1.888449    0.000000    0.000000    0.000000    0.000000
  0.040641283   -0.093222 -109.960373 -100.487936    2.242366    0.000000    0.000000    0.000000    0.000000
  0.040841683   -0.095634 -110.426376 -103.718104    1.999018    0.000000    0.000000    0.000000    0.000000
  0.041042084   -0.096254 -110.888000 -101.299499   14.684410    0.000000    0.000000    0.000000    0.000000
  0.041242485   -0.102616 -111.351158 -105.004931    4.504811    0.000000    0.000000    0.000000    0.000000
  0.041442886   -0.114682 -111.821144 -100.905979    5.149025    0.000000    0.000000    0.000000    0.000000
  0.041643287   -0.125817 -112.347046 -103.446241    9.802097    0.000000    0.000000    0.000000    0.000000
  0.041843687   -0.131951 -112.886406 -103.638875   16.314651    0.000000    0.000000    0.000000    0.000000
  0.042044088   -0.133819 -113.432449 -102.155582   15.755254    0.000000    0.000000    0.000000    0.000000
  0.042244489   -0.127025 -113.979080 -101.297430   13.128547    0.000000    0.000000    0.000000    0.000000
  0.042444890   -0.118468 -114.516434 -100.399526   14.310765    0.000000    0.000000    0.000000    0.000000
  0.042645291   -0.109520 -114.979515 -100.404725   16.045126    0.000000    0.000000    0.000000    0.000000
  0.042845691   -0.101419 -115.444420 -100.362014   12.962658    0.000000    0.000000    0.000000    0.000000
  0.043046092   -0.102547 -115.904236 -100.708852   16.766632    0.000000    0.000000    0.000000    0.000000
  0.043246493   -0.105246 -116.366852 -101.377388   19.132288    0.000000    0.000000    0.000000    0.000000
  0.043446894   -0.111290 -116.835289  -99.142623    7.532794    0.000000    0.000000    0.000000    0.000000
  0.043647295   -0.115719 -117.297478 -100.377229   11.036486    0.000000    0.000000    0.000000    0.000000
  0.043847695   -0.122041 -117.770218 -100.328458   -4.024142    0.000000    0.000000    0.000000    0.000000
  0.044048096   -0.129399 -118.257225  -99.989782    0.913284    0.000000    0.000000    0.000000    0.000000
  0.044248497   -0.139274 -118.735458  -99.420869   -1.329854    0.000000    0.000000    0.000000    0.000000
  0.044448898   -0.144830 -119.259117  -99.083911   13.263369    0.000000    0.000000    0.000000    0.000000
  0.044649299   -0.147333 -119.762245 -100.814859   -2.362708    0.000000    0.000000    0.000000    0.000000
  0.044849699   -0.148239 -120.273331 -103.497976   -1.061134    0.000000    0.000000    0.000000    0.000000
  0.045050100   -0.145726 -120.751732 -103.359232    6.143221    0.000000    0.000000    0.000000    0.000000
  0.045250501   -0.142726 -121.218292 -101.871660   -0.739181    0.000000    0.000000    0.000000    0.000000
  0.045450902   -0.141049 -121.695175 -101.332793  -10.099954    0.000000    0.000000    0.000000    0.000000
  0.045651303   -0.141162 -122.173981 -102.600423    0.955826    0.000000    0.000000    0.000000    0.000000
  0.045851703   -0.137229 -122.646538 -102.403969   -1.835329    0.000000    0.000000    0.000000    0.000000
  0.046052104   -0.134545 -123.085556 -102.643869    4.902780    0.000000    0.000000    0.000000    0.000000
  0.046252505   -0.135199 -123.527687 -103.370092    3.062644    0.000000    0.000000    0.000000    0.000000
  0.046452906   -0.138199 -123.955765 -103.902690    5.317323    0.000000    0.000000    0.000000    0.000000
  0.046653307   -0.148624 -124.386284 -103.089068   10.711323    0.000000    0.000000    0.000000    0.000000
  0.046853707   -0.158963 -124.837692 -103.615658    9.634227    0.000000    0.000000    0.000000    0.000000
  0.047054108   -0.167515 -125.342171 -103.973253   17.857006    0.000000    0.000000    0.000000    0.000000
  0.047254509   -0.168436 -125.876358 -101.576027   13.640908    0.000000    0.000000    0.000000    0.000000
  0.047454910   -0.167066 -126.408195 -103.288209   14.139040    0.000000    0.000000    0.000000    0.000000
  0.047655311   -0.157347 -126.921127 -101.757313   12.051239    0.000000    0.000000    0.000000    0.000000
  0.047855711   -0.151475 -127.399597 -101.273238   10.963419    0.000000    0.000000    0.000000    0.000000
  0.048056112   -0.147229 -127.893311 -101.345799    3.407165    0.000000    0.000000    0.000000    0.000000
  0.048256513   -0.143965 -128.361542 -101.101468    2.545208    0.000000    0.000000    0.000000    0.000000
  0.048456914   -0.141866 -128.828949 -100.488114    4.445907    0.000000    0.000000    0.000000    0.000000
  0.048657315   -0.144910 -129.293930 -101.080352   16.736446    0.000000    0.000000    0.000000    0.000000
  0.048857715   -0.146847 -129.766205 -100.520849    9.013022    0.000000    0.000000    0.000000    0.000000
  0.049058116   -0.149953 -130.240982 -102.054141    6.981789    0.000000    0.000000    0.000000    0.000000
  0.049258517   -0.156557 -130.733704 -102.304602    4.739132    0.000000    0.000000    0.000000    0.000000
  0.049458918   -0.161090 -131.225693 -101.843576   -1.716460    0.000000    0.000000    0.000000    0.000000
  0.049659319   -0.165425 -131.732010 -102.840995   -1.214203    0.000000    0.000000    0.000000    0.000000
  0.049859719   -0.164314 -132.233917 -101.973984    1.343366    0.000000    0.000000    0.000000    0.000000
  0.050060120   -0.165010 -132.734329 -102.917762   -1.531906    0.000000    0.000000    0.000000    0.000000
  0.050260521   -0.161710 -133.207809 -102.973387    2.685998    0.000000    0.000000    0.000000    0.000000
  0.050460922   -0.164633 -133.685883 -105.999245  -12.690078    0.000000    0.000000    0.000000    0.000000
  0.050661323   -0.164120 -134.158005 -103.539576   -7.780387    0.000000    0.000000    0.000000    0.000000
  0.050861723   -0.165982 -134.646637 -103.407149    4.428383    0.000000    0.000000    0.000000    0.000000
  0.051062124   -0.161848 -135.118011 -106.175422  -16.616360    0.000000    0.000000    0.000000    0.000000
  0.051262525   -0.158246 -135.561325 -104.284849    6.990541    0.000000    0.000000    0.000000    0.000000
  0.051462926   -0.158802 -135.984039 -105.107011    0.090853    0.000000    0.000000    0.000000    0.000000
  0.051663327   -0.159966 -136.393402 -104.853820   16.910227    0.000000    0.000000    0.000000    0.000000
  0.051863727   -0.168790 -136.817703 -104.812628   16.501627    0.000000    0.000000    0.000000    0.000000
  0.052064128   -0.176856 -137.237595 -105.634914   10.017122    0.000000    0.000000    0.000000    0.000000
  0.052264529   -0.183065 -137.698288 -102.442267   11.869321    0.000000    0.000000    0.000000    0.000000
  0.052464930   -0.187383 -138.181473 -102.847784   25.110771    0.000000    0.000000    0.000000    0.000000
  0.052665331   -0.186553 -138.660126 -101.700758   10.030963    0.000000    0.000000    0.000000    0.000000
  0.052865731   -0.182333 -139.122437 -102.874695   11.004528    0.000000    0.000000    0.000000    0.000000
