! Anritsu VNA Master:                     Model: MS2036C/10/77
! SN:                                  1601066
! /card0/usr/18may27.balun/252b.m2.s2p
! Existing Calibration Information:
! TYPE:                         Current Settings,       Active Cal Settings
! TIME:             	   05/27/2018 12:26:35 PM,    05/27/2018 12:21:44 PM
! INTERNAL TEMP:    	                   54.0 C,                    53.3 C
! # POINTS:         	                      500,                       500
! START FREQ:       	               20.000 MHz,                20.000 MHz
! STOP FREQ:        	              120.000 MHz,               120.000 MHz
! SOURCE POWER:     	                     High,                      High
! IFBW:             	                    50 Hz,                     50 Hz
! AVG FACTOR:       	                       1 ,                        1 
! REF PLANE 1:      	                     0 mm,                      0 mm
! REF PLANE 2:      	                     0 mm,                      0 mm
! CAL TYPE:         	                 Full S11,                  Full S11
! CAL METHOD:       	                     SOLT,                      SOLT
! CAL LINE TYPE:    	                     Coax,                      Coax
! DUT PORT 1:       	                K-Conn(M),                 K-Conn(M)
! DUT PORT 2:       	                K-Conn(M),                 K-Conn(M)
! CAL STATUS:       	        OK: Accuracy High,                        --
# GHZ S DB R 50.0
! FREQ.GHZ       S11DB        S11A       S21DB        S21A       S12DB        S12A       S22DB        S22A
  0.020000000   -0.628684 -125.477394  -90.552086   32.685055    0.000000    0.000000    0.000000    0.000000
  0.020200401   -0.626501 -126.938919  -90.844280   29.855692    0.000000    0.000000    0.000000    0.000000
  0.020400802   -0.624623 -128.400482  -90.983609   31.649031    0.000000    0.000000    0.000000    0.000000
  0.020601202   -0.626231 -129.831528  -91.758340   31.186094    0.000000    0.000000    0.000000    0.000000
  0.020801603   -0.630011 -131.293854  -92.272196   28.363754    0.000000    0.000000    0.000000    0.000000
  0.021002004   -0.638738 -132.803040  -91.766371   28.260374    0.000000    0.000000    0.000000    0.000000
  0.021202405   -0.646835 -134.312424  -93.567840   30.366552    0.000000    0.000000    0.000000    0.000000
  0.021402806   -0.652011 -135.820160  -92.658511   30.784618    0.000000    0.000000    0.000000    0.000000
  0.021603206   -0.659739 -137.338638  -92.882638   33.607506    0.000000    0.000000    0.000000    0.000000
  0.021803607   -0.666326 -138.839752  -92.773628   33.031822    0.000000    0.000000    0.000000    0.000000
  0.022004008   -0.671182 -140.374084  -93.016786   33.870499    0.000000    0.000000    0.000000    0.000000
  0.022204409   -0.675193 -141.930588  -93.107302   37.153473    0.000000    0.000000    0.000000    0.000000
  0.022404810   -0.680067 -143.491852  -93.206530   34.530838    0.000000    0.000000    0.000000    0.000000
  0.022605210   -0.682357 -145.027466  -92.600539   37.760872    0.000000    0.000000    0.000000    0.000000
  0.022805611   -0.681974 -146.576599  -92.578953   31.278708    0.000000    0.000000    0.000000    0.000000
  0.023006012   -0.683830 -148.123779  -92.340327   33.920269    0.000000    0.000000    0.000000    0.000000
  0.023206413   -0.690630 -149.673859  -93.222004   28.566393    0.000000    0.000000    0.000000    0.000000
  0.023406814   -0.701000 -151.243301  -92.263659   29.723125    0.000000    0.000000    0.000000    0.000000
  0.023607214   -0.708314 -152.832916  -92.923232   26.303438    0.000000    0.000000    0.000000    0.000000
  0.023807615   -0.715523 -154.419250  -93.072030   27.772087    0.000000    0.000000    0.000000    0.000000
  0.024008016   -0.722021 -155.999557  -93.418512   25.299322    0.000000    0.000000    0.000000    0.000000
  0.024208417   -0.730473 -157.574753  -93.421200   22.600468    0.000000    0.000000    0.000000    0.000000
  0.024408818   -0.743671 -159.193832  -93.505326   23.310051    0.000000    0.000000    0.000000    0.000000
  0.024609218   -0.752924 -160.820511  -93.530560   21.882090    0.000000    0.000000    0.000000    0.000000
  0.024809619   -0.760018 -162.469193  -93.610196   13.611917    0.000000    0.000000    0.000000    0.000000
  0.025010020   -0.763492 -164.121277  -94.365776   19.406235    0.000000    0.000000    0.000000    0.000000
  0.025210421   -0.771495 -165.761276  -95.354477   16.773825    0.000000    0.000000    0.000000    0.000000
  0.025410822   -0.781294 -167.412201  -94.990542   19.244450    0.000000    0.000000    0.000000    0.000000
  0.025611222   -0.789851 -169.061584  -94.937252   18.002733    0.000000    0.000000    0.000000    0.000000
  0.025811623   -0.799630 -170.736450  -95.419838   14.491855    0.000000    0.000000    0.000000    0.000000
  0.026012024   -0.810606 -172.436615  -95.751511   20.405348    0.000000    0.000000    0.000000    0.000000
  0.026212425   -0.824423 -174.129807  -96.132806   27.023664    0.000000    0.000000    0.000000    0.000000
  0.026412826   -0.840342 -175.852142  -95.619058   28.331081    0.000000    0.000000    0.000000    0.000000
  0.026613226   -0.857623 -177.568863  -95.824413   25.274691    0.000000    0.000000    0.000000    0.000000
  0.026813627   -0.875048 -179.313843  -94.826630   27.059214    0.000000    0.000000    0.000000    0.000000
  0.027014028   -0.890511  178.949600  -94.947296   26.468351    0.000000    0.000000    0.000000    0.000000
  0.027214429   -0.906125  177.215576  -95.187743   23.625860    0.000000    0.000000    0.000000    0.000000
  0.027414830   -0.922523  175.465012  -95.699722   24.068703    0.000000    0.000000    0.000000    0.000000
  0.027615230   -0.938629  173.704620  -95.306706   24.284496    0.000000    0.000000    0.000000    0.000000
  0.027815631   -0.958910  171.924286  -95.496915   20.117395    0.000000    0.000000    0.000000    0.000000
  0.028016032   -0.981131  170.122421  -94.915891   21.903151    0.000000    0.000000    0.000000    0.000000
  0.028216433   -1.000874  168.305588  -95.875822   19.840729    0.000000    0.000000    0.000000    0.000000
  0.028416834   -1.022971  166.481033  -96.494551   13.998765    0.000000    0.000000    0.000000    0.000000
  0.028617234   -1.046400  164.668045  -96.233311   15.619617    0.000000    0.000000    0.000000    0.000000
  0.028817635   -1.074364  162.829483  -96.074594   16.131701    0.000000    0.000000    0.000000    0.000000
  0.029018036   -1.099625  160.971664  -96.081418    8.017408    0.000000    0.000000    0.000000    0.000000
  0.029218437   -1.125606  159.094162  -96.746979   10.196856    0.000000    0.000000    0.000000    0.000000
  0.029418838   -1.149081  157.225494  -96.425374   18.756609    0.000000    0.000000    0.000000    0.000000
  0.029619238   -1.171643  155.379654  -97.904264   18.795677    0.000000    0.000000    0.000000    0.000000
  0.029819639   -1.197710  153.538696  -97.019253   11.705296    0.000000    0.000000    0.000000    0.000000
  0.030020040   -1.222174  151.687698  -97.563971   17.319136    0.000000    0.000000    0.000000    0.000000
  0.030220441   -1.253494  149.856735  -96.768258   15.139635    0.000000    0.000000    0.000000    0.000000
  0.030420842   -1.288711  147.991898  -98.183615   15.073874    0.000000    0.000000    0.000000    0.000000
  0.030621242   -1.331035  146.090118  -98.336708   17.263338    0.000000    0.000000    0.000000    0.000000
  0.030821643   -1.366706  144.158463  -97.205915   21.336161    0.000000    0.000000    0.000000    0.000000
  0.031022044   -1.403695  142.189560  -98.143991   20.179604    0.000000    0.000000    0.000000    0.000000
  0.031222445   -1.430258  140.226456  -96.777730   14.883754    0.000000    0.000000    0.000000    0.000000
  0.031422846   -1.461542  138.244339  -96.944605   14.822376    0.000000    0.000000    0.000000    0.000000
  0.031623246   -1.485264  136.270096  -97.627464   18.469406    0.000000    0.000000    0.000000    0.000000
  0.031823647   -1.509894  134.323700  -97.463387   14.775826    0.000000    0.000000    0.000000    0.000000
  0.032024048   -1.531609  132.390854  -98.437406   19.407185    0.000000    0.000000    0.000000    0.000000
  0.032224449   -1.556757  130.475281  -96.900024   17.205111    0.000000    0.000000    0.000000    0.000000
  0.032424850   -1.586888  128.550964  -97.210093   10.866137    0.000000    0.000000    0.000000    0.000000
  0.032625251   -1.620489  126.611023  -99.015401   17.849163    0.000000    0.000000    0.000000    0.000000
  0.032825651   -1.658262  124.676254  -97.258390    8.213989    0.000000    0.000000    0.000000    0.000000
  0.033026052   -1.701986  122.709526  -98.049939   11.206921    0.000000    0.000000    0.000000    0.000000
  0.033226453   -1.745308  120.742363  -98.224969    4.144060    0.000000    0.000000    0.000000    0.000000
  0.033426854   -1.789169  118.745964  -97.519038   10.120064    0.000000    0.000000    0.000000    0.000000
  0.033627255   -1.831166  116.705299  -99.350931    4.664998    0.000000    0.000000    0.000000    0.000000
  0.033827655   -1.877249  114.646950  -98.311904   10.695733    0.000000    0.000000    0.000000    0.000000
  0.034028056   -1.923494  112.588211  -99.273508   14.182307    0.000000    0.000000    0.000000    0.000000
  0.034228457   -1.968107  110.488731  -99.239725    8.220584    0.000000    0.000000    0.000000    0.000000
  0.034428858   -2.012642  108.423500  -97.858726   15.144415    0.000000    0.000000    0.000000    0.000000
  0.034629259   -2.052346  106.349228  -98.776852   12.319139    0.000000    0.000000    0.000000    0.000000
  0.034829659   -2.089755  104.296669  -99.341885   13.193455    0.000000    0.000000    0.000000    0.000000
  0.035030060   -2.130411  102.255760  -99.731928   11.597021    0.000000    0.000000    0.000000    0.000000
  0.035230461   -2.174850  100.231247  -97.858451   19.063795    0.000000    0.000000    0.000000    0.000000
  0.035430862   -2.227558   98.248734  -97.911274    9.428343    0.000000    0.000000    0.000000    0.000000
  0.035631263   -2.284658   96.236336  -98.963616    8.206728    0.000000    0.000000    0.000000    0.000000
  0.035831663   -2.348541   94.158615  -99.272116   17.993250    0.000000    0.000000    0.000000    0.000000
  0.036032064   -2.412464   92.052101  -98.500085   15.612480    0.000000    0.000000    0.000000    0.000000
  0.036232465   -2.472506   89.877434  -97.035993   13.401804    0.000000    0.000000    0.000000    0.000000
  0.036432866   -2.532465   87.685333  -98.997570   11.330056    0.000000    0.000000    0.000000    0.000000
  0.036633267   -2.586518   85.478325  -98.774107    9.130592    0.000000    0.000000    0.000000    0.000000
  0.036833667   -2.634977   83.313469  -99.574060    4.843458    0.000000    0.000000    0.000000    0.000000
  0.037034068   -2.687446   81.138763  -99.870141    8.745956    0.000000    0.000000    0.000000    0.000000
  0.037234469   -2.732199   78.984901  -99.253398   -0.591497    0.000000    0.000000    0.000000    0.000000
  0.037434870   -2.781233   76.877594  -99.671237    6.942891    0.000000    0.000000    0.000000    0.000000
  0.037635271   -2.830328   74.784889 -100.362978   18.292807    0.000000    0.000000    0.000000    0.000000
  0.037835671   -2.883460   72.694397 -101.611792   -5.801426    0.000000    0.000000    0.000000    0.000000
  0.038036072   -2.939468   70.648865 -100.989383    0.814049    0.000000    0.000000    0.000000    0.000000
  0.038236473   -2.995060   68.600433 -101.476543   13.139400    0.000000    0.000000    0.000000    0.000000
  0.038436874   -3.055081   66.509438  -99.403051   11.720474    0.000000    0.000000    0.000000    0.000000
  0.038637275   -3.119033   64.398529 -101.997156    2.587809    0.000000    0.000000    0.000000    0.000000
  0.038837675   -3.183444   62.255337 -102.002598    4.531794    0.000000    0.000000    0.000000    0.000000
  0.039038076   -3.246649   60.061672  -99.223399    6.964339    0.000000    0.000000    0.000000    0.000000
  0.039238477   -3.305799   57.901596 -100.894270   12.716225    0.000000    0.000000    0.000000    0.000000
  0.039438878   -3.359979   55.705498  -99.426407   12.093117    0.000000    0.000000    0.000000    0.000000
  0.039639279   -3.408495   53.551422 -100.810881    0.306002    0.000000    0.000000    0.000000    0.000000
  0.039839679   -3.457291   51.447189 -101.929514   11.662216    0.000000    0.000000    0.000000    0.000000
  0.040040080   -3.503889   49.411442  -99.503727   11.295607    0.000000    0.000000    0.000000    0.000000
  0.040240481   -3.560461   47.341442 -100.750716    6.248741    0.000000    0.000000    0.000000    0.000000
  0.040440882   -3.624952   45.306011  -99.533446    5.620471    0.000000    0.000000    0.000000    0.000000
  0.040641283   -3.685849   43.236580 -101.394091    6.658096    0.000000    0.000000    0.000000    0.000000
  0.040841683   -3.748614   41.124062  -99.814994    8.213460    0.000000    0.000000    0.000000    0.000000
  0.041042084   -3.814028   39.026806 -101.603230    4.327587    0.000000    0.000000    0.000000    0.000000
  0.041242485   -3.877744   36.913273 -101.024084    7.915986    0.000000    0.000000    0.000000    0.000000
  0.041442886   -3.939247   34.790951  -99.590261   12.711457    0.000000    0.000000    0.000000    0.000000
  0.041643287   -3.997963   32.655933 -100.187008   -3.771945    0.000000    0.000000    0.000000    0.000000
  0.041843687   -4.052992   30.518105 -100.629339    6.751712    0.000000    0.000000    0.000000    0.000000
  0.042044088   -4.106331   28.402273 -101.228632   -2.742534    0.000000    0.000000    0.000000    0.000000
  0.042244489   -4.156101   26.313951 -100.810304   -3.758784    0.000000    0.000000    0.000000    0.000000
  0.042444890   -4.205974   24.234905 -100.703047   -0.763225    0.000000    0.000000    0.000000    0.000000
  0.042645291   -4.256987   22.174219 -101.811005   -0.340640    0.000000    0.000000    0.000000    0.000000
  0.042845691   -4.307128   20.138029 -102.186407   -4.453900    0.000000    0.000000    0.000000    0.000000
  0.043046092   -4.354398   18.078756 -101.692033    3.444951    0.000000    0.000000    0.000000    0.000000
  0.043246493   -4.401050   16.052158 -103.172180    9.721011    0.000000    0.000000    0.000000    0.000000
  0.043446894   -4.450824   14.040627 -102.019342    0.888829    0.000000    0.000000    0.000000    0.000000
  0.043647295   -4.502794   12.039322 -100.930861   -3.298684    0.000000    0.000000    0.000000    0.000000
  0.043847695   -4.554324   10.036883 -101.868460   16.172247    0.000000    0.000000    0.000000    0.000000
  0.044048096   -4.606758    8.058960  -99.299500   16.533543    0.000000    0.000000    0.000000    0.000000
  0.044248497   -4.655442    6.066863 -100.263866   17.668518    0.000000    0.000000    0.000000    0.000000
  0.044448898   -4.702242    4.089936 -100.762762   13.302683    0.000000    0.000000    0.000000    0.000000
  0.044649299   -4.745637    2.115720 -101.532979    4.425860    0.000000    0.000000    0.000000    0.000000
  0.044849699   -4.795237    0.172213 -102.653472    4.125067    0.000000    0.000000    0.000000    0.000000
  0.045050100   -4.842120   -1.783116 -104.453909   19.572182    0.000000    0.000000    0.000000    0.000000
  0.045250501   -4.887697   -3.743126 -100.408913    6.164310    0.000000    0.000000    0.000000    0.000000
  0.045450902   -4.932568   -5.687616 -100.189096    6.541767    0.000000    0.000000    0.000000    0.000000
  0.045651303   -4.976518   -7.648536 -101.722799    6.612316    0.000000    0.000000    0.000000    0.000000
  0.045851703   -5.017083   -9.627470  -99.586609    2.757281    0.000000    0.000000    0.000000    0.000000
  0.046052104   -5.062403  -11.584291 -101.526838    3.812609    0.000000    0.000000    0.000000    0.000000
  0.046252505   -5.099175  -13.523783 -100.478151    2.284994    0.000000    0.000000    0.000000    0.000000
  0.046452906   -5.140642  -15.468040 -100.303223    4.780616    0.000000    0.000000    0.000000    0.000000
  0.046653307   -5.175672  -17.388119 -102.643368    3.379990    0.000000    0.000000    0.000000    0.000000
  0.046853707   -5.210195  -19.322662 -101.724280   -4.301246    0.000000    0.000000    0.000000    0.000000
  0.047054108   -5.241808  -21.246838 -103.081134   14.461993    0.000000    0.000000    0.000000    0.000000
  0.047254509   -5.271143  -23.170696 -102.156946    2.272180    0.000000    0.000000    0.000000    0.000000
  0.047454910   -5.293341  -25.049479 -103.162128   14.674281    0.000000    0.000000    0.000000    0.000000
  0.047655311   -5.318459  -26.931944 -104.246452   20.004465    0.000000    0.000000    0.000000    0.000000
  0.047855711   -5.341699  -28.779751 -104.324288   -0.951770    0.000000    0.000000    0.000000    0.000000
  0.048056112   -5.362695  -30.620731 -104.033524    5.689096    0.000000    0.000000    0.000000    0.000000
  0.048256513   -5.385842  -32.447010 -102.847196    3.694518    0.000000    0.000000    0.000000    0.000000
  0.048456914   -5.400689  -34.261333 -102.268282    9.915751    0.000000    0.000000    0.000000    0.000000
  0.048657315   -5.417192  -36.072285 -104.891335   15.921442    0.000000    0.000000    0.000000    0.000000
  0.048857715   -5.433647  -37.831047 -102.667641   -4.334407    0.000000    0.000000    0.000000    0.000000
  0.049058116   -5.447069  -39.552830 -100.339385   13.298450    0.000000    0.000000    0.000000    0.000000
  0.049258517   -5.461693  -41.250202 -102.773413   12.145020    0.000000    0.000000    0.000000    0.000000
  0.049458918   -5.483857  -42.913620 -101.837765    6.386345    0.000000    0.000000    0.000000    0.000000
  0.049659319   -5.504095  -44.580833 -101.630953    1.716638    0.000000    0.000000    0.000000    0.000000
  0.049859719   -5.528792  -46.272129 -100.919922   11.879702    0.000000    0.000000    0.000000    0.000000
  0.050060120   -5.555677  -47.945938 -101.312780    5.513801    0.000000    0.000000    0.000000    0.000000
  0.050260521   -5.582703  -49.629490 -101.942689    3.310858    0.000000    0.000000    0.000000    0.000000
  0.050460922   -5.609301  -51.346455 -100.735577    6.344551    0.000000    0.000000    0.000000    0.000000
  0.050661323   -5.631502  -53.062210 -100.620020    0.247821    0.000000    0.000000    0.000000    0.000000
  0.050861723   -5.653184  -54.792385 -102.717491   -1.609029    0.000000    0.000000    0.000000    0.000000
  0.051062124   -5.670723  -56.504055 -102.548004   -5.104997    0.000000    0.000000    0.000000    0.000000
  0.051262525   -5.685995  -58.216972 -104.342780   -5.737165    0.000000    0.000000    0.000000    0.000000
  0.051462926   -5.700368  -59.891285 -103.560169   -5.010364    0.000000    0.000000    0.000000    0.000000
  0.051663327   -5.717673  -61.553482 -102.473188    5.198106    0.000000    0.000000    0.000000    0.000000
  0.051863727   -5.733138  -63.188889 -104.914824    5.586116    0.000000    0.000000    0.000000    0.000000
  0.052064128   -5.750551  -64.845108 -103.349444    1.118647    0.000000    0.000000    0.000000    0.000000
  0.052264529   -5.765222  -66.502609 -103.270880    0.395053    0.000000    0.000000    0.000000    0.000000
  0.052464930   -5.774920  -68.166275 -103.760004    2.017721    0.000000    0.000000    0.000000    0.000000
  0.052665331   -5.786416  -69.788979 -106.315871   13.080287    0.000000    0.000000    0.000000    0.000000
  0.052865731   -5.797825  -71.434868 -103.462004   28.194769    0.000000    0.000000    0.000000    0.000000
