! Anritsu VNA Master:                     Model: MS2036C/10/77
! SN:                                  1601066
! /card0/usr/18may27.balun/252b.r200.5.s2p
! Existing Calibration Information:
! TYPE:                         Current Settings,       Active Cal Settings
! TIME:             	   05/27/2018 01:29:08 PM,    05/27/2018 01:14:08 PM
! INTERNAL TEMP:    	                   52.0 C,                    52.0 C
! # POINTS:         	                      500,                       500
! START FREQ:       	               20.000 MHz,                20.000 MHz
! STOP FREQ:        	              120.000 MHz,               120.000 MHz
! SOURCE POWER:     	                     High,                      High
! IFBW:             	                    50 Hz,                     50 Hz
! AVG FACTOR:       	                       1 ,                        1 
! REF PLANE 1:      	                     0 mm,                      0 mm
! REF PLANE 2:      	                     0 mm,                      0 mm
! CAL TYPE:         	                 Full S11,                  Full S11
! CAL METHOD:       	                     SOLT,                      SOLT
! CAL LINE TYPE:    	                     Coax,                      Coax
! DUT PORT 1:       	                K-Conn(M),                 K-Conn(M)
! DUT PORT 2:       	                K-Conn(M),                 K-Conn(M)
! CAL STATUS:       	        OK: Accuracy High,                        --
# GHZ S DB R 50.0
! FREQ.GHZ       S11DB        S11A       S21DB        S21A       S12DB        S12A       S22DB        S22A
  0.020000000   -4.551680  -22.544331  -90.308548   38.478111    0.000000    0.000000    0.000000    0.000000
  0.020200401   -4.549234  -22.783564  -91.034620   39.293961    0.000000    0.000000    0.000000    0.000000
  0.020400802   -4.550674  -23.019146  -91.176510   35.066925    0.000000    0.000000    0.000000    0.000000
  0.020601202   -4.550221  -23.261230  -91.237006   36.721149    0.000000    0.000000    0.000000    0.000000
  0.020801603   -4.548046  -23.491928  -91.406874   36.070789    0.000000    0.000000    0.000000    0.000000
  0.021002004   -4.548661  -23.736187  -91.593308   30.738997    0.000000    0.000000    0.000000    0.000000
  0.021202405   -4.549612  -23.988382  -91.011453   30.002241    0.000000    0.000000    0.000000    0.000000
  0.021402806   -4.551126  -24.234629  -91.936606   33.613071    0.000000    0.000000    0.000000    0.000000
  0.021603206   -4.551234  -24.466793  -92.094347   31.376539    0.000000    0.000000    0.000000    0.000000
  0.021803607   -4.553149  -24.687626  -91.920024   30.798132    0.000000    0.000000    0.000000    0.000000
  0.022004008   -4.554317  -24.922663  -92.421753   28.517681    0.000000    0.000000    0.000000    0.000000
  0.022204409   -4.554691  -25.137468  -92.731861   24.521433    0.000000    0.000000    0.000000    0.000000
  0.022404810   -4.552626  -25.352436  -93.193395   28.569294    0.000000    0.000000    0.000000    0.000000
  0.022605210   -4.556241  -25.585079  -92.651761   31.806787    0.000000    0.000000    0.000000    0.000000
  0.022805611   -4.557710  -25.827009  -93.331656   35.162403    0.000000    0.000000    0.000000    0.000000
  0.023006012   -4.555758  -26.055996  -92.976909   22.756378    0.000000    0.000000    0.000000    0.000000
  0.023206413   -4.552638  -26.286381  -93.900329   32.595428    0.000000    0.000000    0.000000    0.000000
  0.023406814   -4.549189  -26.515648  -93.374447   31.906931    0.000000    0.000000    0.000000    0.000000
  0.023607214   -4.544823  -26.741814  -93.593587   28.438208    0.000000    0.000000    0.000000    0.000000
  0.023807615   -4.545818  -26.972633  -93.850808   29.871832    0.000000    0.000000    0.000000    0.000000
  0.024008016   -4.545422  -27.198174  -93.414269   29.957039    0.000000    0.000000    0.000000    0.000000
  0.024208417   -4.545861  -27.385944  -93.934198   27.142218    0.000000    0.000000    0.000000    0.000000
  0.024408818   -4.549258  -27.587849  -93.234296   25.059151    0.000000    0.000000    0.000000    0.000000
  0.024609218   -4.553722  -27.771238  -93.541092   27.302891    0.000000    0.000000    0.000000    0.000000
  0.024809619   -4.558621  -27.977686  -94.360745   24.360273    0.000000    0.000000    0.000000    0.000000
  0.025010020   -4.558666  -28.199469  -93.922382   21.654831    0.000000    0.000000    0.000000    0.000000
  0.025210421   -4.560938  -28.418758  -93.595512   25.086374    0.000000    0.000000    0.000000    0.000000
  0.025410822   -4.563337  -28.660168  -94.953341   18.006624    0.000000    0.000000    0.000000    0.000000
  0.025611222   -4.562962  -28.897919  -94.231417   19.185553    0.000000    0.000000    0.000000    0.000000
  0.025811623   -4.564812  -29.147150  -93.425093   21.844181    0.000000    0.000000    0.000000    0.000000
  0.026012024   -4.565347  -29.386862  -95.061021   19.750671    0.000000    0.000000    0.000000    0.000000
  0.026212425   -4.566245  -29.652178  -95.236534   15.716445    0.000000    0.000000    0.000000    0.000000
  0.026412826   -4.566808  -29.908371  -95.232097   21.262783    0.000000    0.000000    0.000000    0.000000
  0.026613226   -4.564840  -30.159134  -95.427778   16.234612    0.000000    0.000000    0.000000    0.000000
  0.026813627   -4.560770  -30.355129  -94.962147   20.068747    0.000000    0.000000    0.000000    0.000000
  0.027014028   -4.560748  -30.547857  -95.769241   20.465137    0.000000    0.000000    0.000000    0.000000
  0.027214429   -4.563475  -30.738344  -95.817184   16.438850    0.000000    0.000000    0.000000    0.000000
  0.027414830   -4.564730  -30.927343  -95.961984   17.378666    0.000000    0.000000    0.000000    0.000000
  0.027615230   -4.569042  -31.140844  -95.574098   19.988852    0.000000    0.000000    0.000000    0.000000
  0.027815631   -4.575319  -31.373947  -97.039083   17.845345    0.000000    0.000000    0.000000    0.000000
  0.028016032   -4.581512  -31.628475  -96.170669   23.207233    0.000000    0.000000    0.000000    0.000000
  0.028216433   -4.583637  -31.884979  -95.729218   20.754074    0.000000    0.000000    0.000000    0.000000
  0.028416834   -4.579015  -32.174442  -95.793932   19.194580    0.000000    0.000000    0.000000    0.000000
  0.028617234   -4.576215  -32.443523  -96.374511   21.347334    0.000000    0.000000    0.000000    0.000000
  0.028817635   -4.574653  -32.701874  -96.007519   19.571777    0.000000    0.000000    0.000000    0.000000
  0.029018036   -4.572084  -32.954838  -96.447143   23.574671    0.000000    0.000000    0.000000    0.000000
  0.029218437   -4.568841  -33.186920  -95.890919   17.736111    0.000000    0.000000    0.000000    0.000000
  0.029418838   -4.563982  -33.385143  -96.514718   18.831200    0.000000    0.000000    0.000000    0.000000
  0.029619238   -4.561346  -33.560760  -96.004137   17.022154    0.000000    0.000000    0.000000    0.000000
  0.029819639   -4.557562  -33.727612  -96.786645   21.952477    0.000000    0.000000    0.000000    0.000000
  0.030020040   -4.556254  -33.918789  -96.239536   19.230856    0.000000    0.000000    0.000000    0.000000
  0.030220441   -4.558645  -34.107803  -96.030133   15.935521    0.000000    0.000000    0.000000    0.000000
  0.030420842   -4.563517  -34.340073  -96.911760   14.982641    0.000000    0.000000    0.000000    0.000000
  0.030621242   -4.567833  -34.587189  -96.374290   13.218082    0.000000    0.000000    0.000000    0.000000
  0.030821643   -4.570109  -34.835724  -97.233666   18.531111    0.000000    0.000000    0.000000    0.000000
  0.031022044   -4.573636  -35.066040  -97.977677   14.019354    0.000000    0.000000    0.000000    0.000000
  0.031222445   -4.567205  -35.269009  -95.993399    9.167203    0.000000    0.000000    0.000000    0.000000
  0.031422846   -4.573781  -35.540405  -95.935361   13.985417    0.000000    0.000000    0.000000    0.000000
  0.031623246   -4.577076  -35.792355  -96.405711    7.963488    0.000000    0.000000    0.000000    0.000000
  0.031823647   -4.579640  -36.049591  -98.701703    7.407407    0.000000    0.000000    0.000000    0.000000
  0.032024048   -4.575430  -36.286072  -97.621113    7.167492    0.000000    0.000000    0.000000    0.000000
  0.032224449   -4.571899  -36.536972  -97.964337    6.967412    0.000000    0.000000    0.000000    0.000000
  0.032424850   -4.567539  -36.753532  -97.084851   11.320776    0.000000    0.000000    0.000000    0.000000
  0.032625251   -4.562002  -36.989735  -98.159360    7.504984    0.000000    0.000000    0.000000    0.000000
  0.032825651   -4.559815  -37.157299  -98.531000   12.530403    0.000000    0.000000    0.000000    0.000000
  0.033026052   -4.561634  -37.348110  -97.457005   16.486670    0.000000    0.000000    0.000000    0.000000
  0.033226453   -4.566396  -37.523235  -97.076940   14.671379    0.000000    0.000000    0.000000    0.000000
  0.033426854   -4.571902  -37.726410  -98.111811    7.546128    0.000000    0.000000    0.000000    0.000000
  0.033627255   -4.577014  -37.992859  -98.721100   18.397932    0.000000    0.000000    0.000000    0.000000
  0.033827655   -4.581530  -38.246593  -98.476581    9.176273    0.000000    0.000000    0.000000    0.000000
  0.034028056   -4.586567  -38.512028  -98.028787    6.629442    0.000000    0.000000    0.000000    0.000000
  0.034228457   -4.587149  -38.780556  -98.231699   15.307453    0.000000    0.000000    0.000000    0.000000
  0.034428858   -4.586346  -39.022591  -98.086266    9.034484    0.000000    0.000000    0.000000    0.000000
  0.034629259   -4.582995  -39.269615  -98.726907   12.346013    0.000000    0.000000    0.000000    0.000000
  0.034829659   -4.578929  -39.533680  -98.365378    1.504776    0.000000    0.000000    0.000000    0.000000
  0.035030060   -4.572297  -39.737080  -98.021836    8.275084    0.000000    0.000000    0.000000    0.000000
  0.035230461   -4.566372  -39.960201  -98.805289   16.375118    0.000000    0.000000    0.000000    0.000000
  0.035430862   -4.561641  -40.156017  -97.811462    6.456764    0.000000    0.000000    0.000000    0.000000
  0.035631263   -4.564129  -40.351196  -98.915775    9.668127    0.000000    0.000000    0.000000    0.000000
  0.035831663   -4.567149  -40.528633  -97.284006    2.167605    0.000000    0.000000    0.000000    0.000000
  0.036032064   -4.573143  -40.757843  -99.293677    7.764981    0.000000    0.000000    0.000000    0.000000
  0.036232465   -4.575204  -40.989120 -100.893924    6.353952    0.000000    0.000000    0.000000    0.000000
  0.036432866   -4.581585  -41.241264 -100.247835    4.348097    0.000000    0.000000    0.000000    0.000000
  0.036633267   -4.586882  -41.482315  -99.797148   13.381768    0.000000    0.000000    0.000000    0.000000
  0.036833667   -4.592365  -41.766418  -99.729051   12.794394    0.000000    0.000000    0.000000    0.000000
  0.037034068   -4.594701  -42.004089  -99.608337   -1.237407    0.000000    0.000000    0.000000    0.000000
  0.037234469   -4.595159  -42.243740  -99.460047   14.012867    0.000000    0.000000    0.000000    0.000000
  0.037434870   -4.594799  -42.486771  -99.971224    4.452837    0.000000    0.000000    0.000000    0.000000
  0.037635271   -4.588912  -42.735172  -99.369108   -2.726233    0.000000    0.000000    0.000000    0.000000
  0.037835671   -4.584990  -42.998409  -99.038303    5.541970    0.000000    0.000000    0.000000    0.000000
  0.038036072   -4.576746  -43.241703  -99.396900   16.951447    0.000000    0.000000    0.000000    0.000000
  0.038236473   -4.570589  -43.451492 -100.202674    4.786779    0.000000    0.000000    0.000000    0.000000
  0.038436874   -4.569924  -43.598045 -100.079048    9.006834    0.000000    0.000000    0.000000    0.000000
  0.038637275   -4.569264  -43.766304 -100.444274   10.256633    0.000000    0.000000    0.000000    0.000000
  0.038837675   -4.576959  -43.941120 -100.180612    8.598340    0.000000    0.000000    0.000000    0.000000
  0.039038076   -4.586179  -44.163967  -99.509919    9.075358    0.000000    0.000000    0.000000    0.000000
  0.039238477   -4.592966  -44.395905 -100.288505    6.454881    0.000000    0.000000    0.000000    0.000000
  0.039438878   -4.600846  -44.649204  -99.943528    2.110520    0.000000    0.000000    0.000000    0.000000
  0.039639279   -4.607294  -44.885967  -98.280316   10.781024    0.000000    0.000000    0.000000    0.000000
  0.039839679   -4.608827  -45.149868 -100.374965    6.765522    0.000000    0.000000    0.000000    0.000000
  0.040040080   -4.604152  -45.413914 -100.048178    4.020750    0.000000    0.000000    0.000000    0.000000
  0.040240481   -4.598493  -45.653458  -98.417485    6.343704    0.000000    0.000000    0.000000    0.000000
  0.040440882   -4.594152  -45.890091 -100.268787   -3.681433    0.000000    0.000000    0.000000    0.000000
  0.040641283   -4.585992  -46.107319  -99.605838    6.898170    0.000000    0.000000    0.000000    0.000000
  0.040841683   -4.585874  -46.298241 -101.218306   12.055455    0.000000    0.000000    0.000000    0.000000
  0.041042084   -4.584770  -46.500885 -102.124523   -0.397922    0.000000    0.000000    0.000000    0.000000
  0.041242485   -4.589034  -46.701733 -103.437309   -2.804376    0.000000    0.000000    0.000000    0.000000
  0.041442886   -4.595113  -46.912899 -100.592636    5.283061    0.000000    0.000000    0.000000    0.000000
  0.041643287   -4.601375  -47.151352 -101.308516    8.894259    0.000000    0.000000    0.000000    0.000000
  0.041843687   -4.606997  -47.387188 -101.933381    6.470612    0.000000    0.000000    0.000000    0.000000
  0.042044088   -4.611938  -47.647923 -103.681026   -5.572027    0.000000    0.000000    0.000000    0.000000
  0.042244489   -4.615177  -47.915268 -102.959991   -0.782086    0.000000    0.000000    0.000000    0.000000
  0.042444890   -4.617474  -48.156776 -102.578198   12.516414    0.000000    0.000000    0.000000    0.000000
  0.042645291   -4.620917  -48.382961 -102.209272   17.223700    0.000000    0.000000    0.000000    0.000000
  0.042845691   -4.619989  -48.663181 -102.266151    8.124990    0.000000    0.000000    0.000000    0.000000
  0.043046092   -4.617852  -48.937698 -100.241859    8.421352    0.000000    0.000000    0.000000    0.000000
  0.043246493   -4.614815  -49.233707 -100.930489   12.825257    0.000000    0.000000    0.000000    0.000000
  0.043446894   -4.605417  -49.487698 -100.240641    6.191923    0.000000    0.000000    0.000000    0.000000
  0.043647295   -4.600319  -49.702427 -100.813479   15.802193    0.000000    0.000000    0.000000    0.000000
  0.043847695   -4.600891  -49.903336 -100.270547    8.398626    0.000000    0.000000    0.000000    0.000000
  0.044048096   -4.601321  -50.091259  -99.795287    3.526248    0.000000    0.000000    0.000000    0.000000
  0.044248497   -4.607419  -50.292946 -100.123118   19.003016    0.000000    0.000000    0.000000    0.000000
  0.044448898   -4.615315  -50.539124 -100.296368   10.386041    0.000000    0.000000    0.000000    0.000000
  0.044649299   -4.618230  -50.800396 -101.201781    8.223191    0.000000    0.000000    0.000000    0.000000
  0.044849699   -4.625366  -51.047161 -103.078583   -3.121162    0.000000    0.000000    0.000000    0.000000
  0.045050100   -4.627587  -51.301208 -100.851866   -1.318680    0.000000    0.000000    0.000000    0.000000
  0.045250501   -4.625060  -51.544346 -102.708721    5.328894    0.000000    0.000000    0.000000    0.000000
  0.045450902   -4.623659  -51.830448 -100.842767    3.421181    0.000000    0.000000    0.000000    0.000000
  0.045651303   -4.618088  -52.089432 -102.006708    6.919450    0.000000    0.000000    0.000000    0.000000
  0.045851703   -4.610690  -52.347996 -100.148888   -6.208684    0.000000    0.000000    0.000000    0.000000
  0.046052104   -4.599478  -52.534191 -101.448909   -3.837642    0.000000    0.000000    0.000000    0.000000
  0.046252505   -4.596401  -52.732803 -100.773808    3.168210    0.000000    0.000000    0.000000    0.000000
  0.046452906   -4.596183  -52.918934 -102.735964  -21.733051    0.000000    0.000000    0.000000    0.000000
  0.046653307   -4.604090  -53.106720 -102.040399    5.182598    0.000000    0.000000    0.000000    0.000000
  0.046853707   -4.602452  -53.301754 -103.608430    4.093058    0.000000    0.000000    0.000000    0.000000
  0.047054108   -4.607264  -53.505188 -104.880276   -6.971395    0.000000    0.000000    0.000000    0.000000
  0.047254509   -4.609635  -53.720634 -102.713564   -3.818203    0.000000    0.000000    0.000000    0.000000
  0.047454910   -4.613383  -53.912704 -103.857187   -2.240308    0.000000    0.000000    0.000000    0.000000
  0.047655311   -4.612693  -54.124710 -104.780505    4.810910    0.000000    0.000000    0.000000    0.000000
  0.047855711   -4.617016  -54.320168 -102.786071   -1.662967    0.000000    0.000000    0.000000    0.000000
  0.048056112   -4.618934  -54.550251 -101.555223    8.946992    0.000000    0.000000    0.000000    0.000000
  0.048256513   -4.618292  -54.799099 -103.994556   13.346203    0.000000    0.000000    0.000000    0.000000
  0.048456914   -4.613163  -55.043335 -103.330825    8.513222    0.000000    0.000000    0.000000    0.000000
  0.048657315   -4.610820  -55.277996 -101.551553   11.056131    0.000000    0.000000    0.000000    0.000000
  0.048857715   -4.610627  -55.486397 -104.189763   19.026659    0.000000    0.000000    0.000000    0.000000
  0.049058116   -4.610308  -55.685867 -102.495125   -0.044002    0.000000    0.000000    0.000000    0.000000
  0.049258517   -4.613306  -55.871208 -102.169418    6.800206    0.000000    0.000000    0.000000    0.000000
  0.049458918   -4.619385  -56.061047 -100.529061   15.502552    0.000000    0.000000    0.000000    0.000000
  0.049659319   -4.628451  -56.285946 -102.310367    8.326498    0.000000    0.000000    0.000000    0.000000
  0.049859719   -4.631767  -56.514183 -102.577144    1.918169    0.000000    0.000000    0.000000    0.000000
  0.050060120   -4.641957  -56.759491 -101.825406   -1.261433    0.000000    0.000000    0.000000    0.000000
  0.050260521   -4.648848  -57.046505 -102.628617    8.657534    0.000000    0.000000    0.000000    0.000000
  0.050460922   -4.655148  -57.317192 -102.194440    7.076717    0.000000    0.000000    0.000000    0.000000
  0.050661323   -4.655243  -57.607292 -101.974441    7.447182    0.000000    0.000000    0.000000    0.000000
  0.050861723   -4.657312  -57.933964 -103.279535   -1.791014    0.000000    0.000000    0.000000    0.000000
  0.051062124   -4.651168  -58.218311 -103.910245    0.288421    0.000000    0.000000    0.000000    0.000000
  0.051262525   -4.643170  -58.452576 -101.642125   -4.305216    0.000000    0.000000    0.000000    0.000000
  0.051462926   -4.641550  -58.712887 -101.988346   -0.432543    0.000000    0.000000    0.000000    0.000000
  0.051663327   -4.638264  -58.943523 -104.322667    2.010619    0.000000    0.000000    0.000000    0.000000
  0.051863727   -4.640803  -59.173721 -103.704843   -1.465525    0.000000    0.000000    0.000000    0.000000
  0.052064128   -4.640178  -59.393585 -103.115587    8.175261    0.000000    0.000000    0.000000    0.000000
  0.052264529   -4.642088  -59.630985 -103.793154   -2.449265    0.000000    0.000000    0.000000    0.000000
  0.052464930   -4.639856  -59.872593 -102.704963    8.248116    0.000000    0.000000    0.000000    0.000000
  0.052665331   -4.639994  -60.092426 -106.264668   -1.618288    0.000000    0.000000    0.000000    0.000000
  0.052865731   -4.639065  -60.295891 -105.965328    2.398691    0.000000    0.000000    0.000000    0.000000
