!MINI CIRCUITS LABORATORY
!MODEL:ADT4-6T
!RUN/LOT/DATE CODE:MB37660/0721
!FIXTURE USED:90-2-20-204
!CONNECTION:PORT1-PIN1,PORT2-PIN4,PORT3-PIN6, PIN 3&5- GND.
!Date: Fri Dec 14 11:12:22 2007

# Hz S dB R 50
9000	-3.568852e+000	1.553615e+002	-6.463293e+000	-1.443286e+002	-6.433302e+000	3.555817e+001
	-6.419395e+000	-1.443987e+002	-3.533484e+000	1.552289e+002	-6.416451e+000	-1.443493e+002
	-6.436827e+000	3.565057e+001	-6.416170e+000	-1.442691e+002	-3.564676e+000	1.553222e+002
10000	-3.927341e+000	1.548674e+002	-6.098705e+000	-1.467478e+002	-6.114378e+000	3.317011e+001
	-6.094696e+000	-1.468080e+002	-3.886784e+000	1.548420e+002	-6.092374e+000	-1.467678e+002
	-6.110615e+000	3.322229e+001	-6.088900e+000	-1.467658e+002	-3.920993e+000	1.548543e+002
15000	-5.251868e+000	1.543477e+002	-5.137808e+000	-1.545671e+002	-5.164036e+000	2.541300e+001
	-5.140822e+000	-1.545591e+002	-5.218927e+000	1.543050e+002	-5.135481e+000	-1.545397e+002
	-5.163245e+000	2.541528e+001	-5.133757e+000	-1.545322e+002	-5.254050e+000	1.543167e+002
20000	-6.180647e+000	1.553166e+002	-4.677089e+000	-1.593154e+002	-4.699719e+000	2.065610e+001
	-4.678740e+000	-1.593421e+002	-6.142727e+000	1.552539e+002	-4.673306e+000	-1.593242e+002
	-4.691355e+000	2.064121e+001	-4.668898e+000	-1.593333e+002	-6.171289e+000	1.552689e+002
25000	-6.831706e+000	1.567266e+002	-4.410445e+000	-1.625260e+002	-4.432627e+000	1.744472e+001
	-4.413308e+000	-1.625634e+002	-6.798236e+000	1.566860e+002	-4.405180e+000	-1.625151e+002
	-4.426816e+000	1.746623e+001	-4.405060e+000	-1.625456e+002	-6.838305e+000	1.566952e+002
30000	-7.320880e+000	1.583277e+002	-4.241591e+000	-1.649247e+002	-4.267430e+000	1.504880e+001
	-4.242390e+000	-1.649132e+002	-7.292398e+000	1.582429e+002	-4.241567e+000	-1.649497e+002
	-4.263334e+000	1.503690e+001	-4.237817e+000	-1.649062e+002	-7.316236e+000	1.583465e+002
35000	-7.682352e+000	1.598788e+002	-4.136139e+000	-1.667168e+002	-4.156340e+000	1.323048e+001
	-4.134363e+000	-1.667394e+002	-7.651292e+000	1.597968e+002	-4.130459e+000	-1.667377e+002
	-4.154087e+000	1.324121e+001	-4.127644e+000	-1.667203e+002	-7.683925e+000	1.598603e+002
40000	-7.960035e+000	1.613245e+002	-4.055700e+000	-1.681830e+002	-4.080010e+000	1.179399e+001
	-4.060095e+000	-1.682021e+002	-7.931150e+000	1.612479e+002	-4.049531e+000	-1.681742e+002
	-4.074502e+000	1.180067e+001	-4.049718e+000	-1.681736e+002	-7.956803e+000	1.612899e+002
45000	-8.170445e+000	1.626422e+002	-3.998044e+000	-1.693524e+002	-4.021903e+000	1.063500e+001
	-4.002417e+000	-1.693681e+002	-8.143655e+000	1.626066e+002	-3.996433e+000	-1.693768e+002
	-4.020542e+000	1.063461e+001	-3.993859e+000	-1.693369e+002	-8.169048e+000	1.626714e+002
50000	-8.335237e+000	1.638353e+002	-3.957582e+000	-1.703147e+002	-3.979075e+000	9.677355e+000
	-3.963530e+000	-1.703216e+002	-8.308016e+000	1.637745e+002	-3.952755e+000	-1.703268e+002
	-3.979093e+000	9.663874e+000	-3.951347e+000	-1.703142e+002	-8.342089e+000	1.638221e+002
52500	-8.410160e+000	1.643925e+002	-3.941915e+000	-1.707237e+002	-3.963851e+000	9.245243e+000
	-3.945669e+000	-1.707430e+002	-8.382063e+000	1.643316e+002	-3.941250e+000	-1.707307e+002
	-3.961788e+000	9.246145e+000	-3.936912e+000	-1.707185e+002	-8.403750e+000	1.643970e+002
55000	-8.474041e+000	1.649104e+002	-3.926927e+000	-1.711052e+002	-3.948651e+000	8.852655e+000
	-3.930535e+000	-1.711278e+002	-8.439718e+000	1.648382e+002	-3.924414e+000	-1.711348e+002
	-3.944030e+000	8.843306e+000	-3.922849e+000	-1.711129e+002	-8.476291e+000	1.649089e+002
57500	-8.525045e+000	1.654070e+002	-3.911905e+000	-1.714806e+002	-3.936232e+000	8.512307e+000
	-3.919533e+000	-1.715035e+002	-8.502222e+000	1.653740e+002	-3.913251e+000	-1.714991e+002
	-3.935297e+000	8.504871e+000	-3.907734e+000	-1.714767e+002	-8.526211e+000	1.654314e+002
60000	-8.581581e+000	1.658804e+002	-3.903761e+000	-1.718096e+002	-3.922393e+000	8.174113e+000
	-3.905247e+000	-1.718355e+002	-8.550564e+000	1.658218e+002	-3.899694e+000	-1.718142e+002
	-3.923075e+000	8.171947e+000	-3.898731e+000	-1.718006e+002	-8.577533e+000	1.658685e+002
62500	-8.620664e+000	1.663030e+002	-3.892433e+000	-1.721177e+002	-3.915745e+000	7.864532e+000
	-3.897290e+000	-1.721425e+002	-8.595876e+000	1.663170e+002	-3.888160e+000	-1.721134e+002
	-3.910528e+000	7.862737e+000	-3.885511e+000	-1.721263e+002	-8.625745e+000	1.662769e+002
65000	-8.661362e+000	1.667480e+002	-3.883621e+000	-1.723818e+002	-3.904165e+000	7.599745e+000
	-3.889853e+000	-1.724279e+002	-8.630929e+000	1.667034e+002	-3.882871e+000	-1.724299e+002
	-3.904221e+000	7.574091e+000	-3.881021e+000	-1.724077e+002	-8.668490e+000	1.667474e+002
67500	-8.701294e+000	1.671584e+002	-3.876399e+000	-1.726659e+002	-3.897579e+000	7.318580e+000
	-3.878707e+000	-1.726888e+002	-8.676387e+000	1.670952e+002	-3.874067e+000	-1.726653e+002
	-3.898394e+000	7.310735e+000	-3.867781e+000	-1.726709e+002	-8.702987e+000	1.671705e+002
70000	-8.735128e+000	1.675214e+002	-3.870148e+000	-1.729120e+002	-3.892262e+000	7.049356e+000
	-3.871751e+000	-1.729210e+002	-8.706692e+000	1.674532e+002	-3.867103e+000	-1.729296e+002
	-3.889473e+000	7.062271e+000	-3.861917e+000	-1.729229e+002	-8.731646e+000	1.674985e+002
72500	-8.762857e+000	1.678948e+002	-3.865420e+000	-1.731648e+002	-3.884431e+000	6.829626e+000
	-3.863827e+000	-1.731845e+002	-8.733788e+000	1.678417e+002	-3.863167e+000	-1.731657e+002
	-3.885089e+000	6.830291e+000	-3.859184e+000	-1.731562e+002	-8.760538e+000	1.679181e+002
75000	-8.789442e+000	1.682427e+002	-3.858556e+000	-1.733813e+002	-3.879101e+000	6.608953e+000
	-3.861631e+000	-1.733942e+002	-8.767141e+000	1.682070e+002	-3.856177e+000	-1.733925e+002
	-3.877943e+000	6.607130e+000	-3.851343e+000	-1.733734e+002	-8.790178e+000	1.682310e+002
77500	-8.818375e+000	1.685698e+002	-3.853231e+000	-1.735941e+002	-3.875875e+000	6.388882e+000
	-3.854837e+000	-1.736040e+002	-8.788325e+000	1.684917e+002	-3.850085e+000	-1.735728e+002
	-3.874266e+000	6.398420e+000	-3.846101e+000	-1.735807e+002	-8.816922e+000	1.685622e+002
80000	-8.833299e+000	1.688553e+002	-3.849062e+000	-1.737544e+002	-3.870952e+000	6.216182e+000
	-3.850969e+000	-1.737855e+002	-8.811178e+000	1.688240e+002	-3.848228e+000	-1.737792e+002
	-3.870856e+000	6.209169e+000	-3.843298e+000	-1.737672e+002	-8.831417e+000	1.688563e+002
82500	-8.856149e+000	1.691705e+002	-3.846963e+000	-1.739558e+002	-3.864337e+000	6.041871e+000
	-3.848796e+000	-1.739752e+002	-8.831285e+000	1.691081e+002	-3.842858e+000	-1.739763e+002
	-3.863674e+000	6.027381e+000	-3.840188e+000	-1.739492e+002	-8.858732e+000	1.691532e+002
85000	-8.875548e+000	1.694338e+002	-3.843281e+000	-1.741173e+002	-3.862343e+000	5.852297e+000
	-3.846071e+000	-1.741371e+002	-8.851929e+000	1.694209e+002	-3.841497e+000	-1.741310e+002
	-3.859954e+000	5.842804e+000	-3.836982e+000	-1.741396e+002	-8.872936e+000	1.693681e+002
87500	-8.892931e+000	1.697060e+002	-3.837748e+000	-1.742873e+002	-3.859493e+000	5.687722e+000
	-3.840996e+000	-1.743043e+002	-8.876388e+000	1.696658e+002	-3.835516e+000	-1.743249e+002
	-3.856276e+000	5.682192e+000	-3.830488e+000	-1.742904e+002	-8.901370e+000	1.696901e+002
90000	-8.914892e+000	1.699416e+002	-3.836197e+000	-1.744307e+002	-3.854072e+000	5.539810e+000
	-3.838812e+000	-1.744458e+002	-8.886306e+000	1.698663e+002	-3.831563e+000	-1.744565e+002
	-3.852815e+000	5.533252e+000	-3.829455e+000	-1.744347e+002	-8.911405e+000	1.699558e+002
92500	-8.924711e+000	1.701554e+002	-3.833924e+000	-1.745811e+002	-3.854677e+000	5.410465e+000
	-3.835805e+000	-1.745956e+002	-8.900604e+000	1.701474e+002	-3.830386e+000	-1.746053e+002
	-3.852658e+000	5.398665e+000	-3.826513e+000	-1.745847e+002	-8.929981e+000	1.702005e+002
95000	-8.945092e+000	1.703999e+002	-3.828024e+000	-1.746995e+002	-3.851497e+000	5.249486e+000
	-3.833448e+000	-1.747469e+002	-8.914498e+000	1.703520e+002	-3.829215e+000	-1.747223e+002
	-3.850915e+000	5.254974e+000	-3.825426e+000	-1.747293e+002	-8.940445e+000	1.704116e+002
97500	-8.953488e+000	1.706270e+002	-3.827007e+000	-1.748531e+002	-3.846879e+000	5.126140e+000
	-3.831548e+000	-1.748701e+002	-8.929796e+000	1.706416e+002	-3.825531e+000	-1.748809e+002
	-3.845477e+000	5.128913e+000	-3.823840e+000	-1.748624e+002	-8.954319e+000	1.706333e+002
100000	-8.961737e+000	1.708715e+002	-3.826740e+000	-1.749676e+002	-3.844913e+000	5.007025e+000
	-3.830590e+000	-1.750106e+002	-8.945477e+000	1.707975e+002	-3.824105e+000	-1.749971e+002
	-3.844391e+000	4.993952e+000	-3.820186e+000	-1.749908e+002	-8.969685e+000	1.708036e+002
101250	-8.971820e+000	1.709382e+002	-3.827852e+000	-1.750089e+002	-3.843291e+000	4.947349e+000
	-3.829666e+000	-1.750480e+002	-8.943237e+000	1.708930e+002	-3.825502e+000	-1.750477e+002
	-3.843155e+000	4.933184e+000	-3.820195e+000	-1.750665e+002	-8.968047e+000	1.709352e+002
102500	-8.974288e+000	1.710439e+002	-3.823790e+000	-1.750827e+002	-3.844168e+000	4.868666e+000
	-3.829179e+000	-1.751013e+002	-8.950960e+000	1.709734e+002	-3.821779e+000	-1.751002e+002
	-3.845812e+000	4.881506e+000	-3.820150e+000	-1.751056e+002	-8.974653e+000	1.710430e+002
103750	-8.980516e+000	1.711293e+002	-3.823055e+000	-1.751570e+002	-3.843009e+000	4.832000e+000
	-3.828087e+000	-1.751659e+002	-8.954722e+000	1.710739e+002	-3.821057e+000	-1.751660e+002
	-3.843629e+000	4.825808e+000	-3.817442e+000	-1.751748e+002	-8.983837e+000	1.711081e+002
105000	-8.983030e+000	1.712492e+002	-3.821700e+000	-1.751942e+002	-3.840579e+000	4.782831e+000
	-3.825778e+000	-1.752176e+002	-8.962793e+000	1.711713e+002	-3.820733e+000	-1.752203e+002
	-3.841523e+000	4.775923e+000	-3.816939e+000	-1.752220e+002	-8.988771e+000	1.712103e+002
106250	-8.989346e+000	1.712906e+002	-3.822187e+000	-1.752544e+002	-3.841250e+000	4.740327e+000
	-3.827534e+000	-1.752749e+002	-8.967693e+000	1.712642e+002	-3.819084e+000	-1.752672e+002
	-3.838688e+000	4.718534e+000	-3.817221e+000	-1.752716e+002	-8.992604e+000	1.712750e+002
107500	-8.993293e+000	1.714223e+002	-3.821561e+000	-1.752932e+002	-3.840592e+000	4.680257e+000
	-3.821958e+000	-1.753391e+002	-8.969727e+000	1.713897e+002	-3.819197e+000	-1.753322e+002
	-3.840046e+000	4.652370e+000	-3.818206e+000	-1.753352e+002	-8.996734e+000	1.713954e+002
108750	-8.997874e+000	1.714711e+002	-3.821660e+000	-1.753487e+002	-3.837093e+000	4.617330e+000
	-3.823225e+000	-1.753932e+002	-8.973340e+000	1.714347e+002	-3.815804e+000	-1.753712e+002
	-3.839524e+000	4.616891e+000	-3.813952e+000	-1.753841e+002	-9.008749e+000	1.714789e+002
110000	-8.997184e+000	1.715876e+002	-3.821486e+000	-1.754030e+002	-3.838662e+000	4.562557e+000
	-3.823435e+000	-1.754401e+002	-8.982098e+000	1.715379e+002	-3.816457e+000	-1.754149e+002
	-3.835840e+000	4.558776e+000	-3.813159e+000	-1.754215e+002	-9.002586e+000	1.715484e+002
111250	-9.005536e+000	1.716460e+002	-3.820692e+000	-1.754557e+002	-3.838255e+000	4.511369e+000
	-3.822037e+000	-1.754879e+002	-8.984253e+000	1.716351e+002	-3.813620e+000	-1.754821e+002
	-3.839822e+000	4.526120e+000	-3.813230e+000	-1.754711e+002	-9.011733e+000	1.716487e+002
112500	-9.014142e+000	1.717340e+002	-3.820294e+000	-1.754899e+002	-3.836259e+000	4.483050e+000
	-3.820109e+000	-1.755281e+002	-8.991576e+000	1.716986e+002	-3.815696e+000	-1.755250e+002
	-3.835357e+000	4.467396e+000	-3.811705e+000	-1.755254e+002	-9.017314e+000	1.717403e+002
113750	-9.015957e+000	1.718044e+002	-3.818223e+000	-1.755561e+002	-3.837009e+000	4.430541e+000
	-3.817957e+000	-1.755802e+002	-8.991097e+000	1.717900e+002	-3.814711e+000	-1.755817e+002
	-3.836872e+000	4.410796e+000	-3.811056e+000	-1.755770e+002	-9.019221e+000	1.718030e+002
115000	-9.021452e+000	1.719079e+002	-3.819791e+000	-1.756108e+002	-3.841015e+000	4.369503e+000
	-3.818636e+000	-1.756220e+002	-8.993625e+000	1.719012e+002	-3.813426e+000	-1.756173e+002
	-3.835165e+000	4.365737e+000	-3.811751e+000	-1.756169e+002	-9.026851e+000	1.718722e+002
116250	-9.023983e+000	1.719883e+002	-3.818428e+000	-1.756445e+002	-3.836842e+000	4.318532e+000
	-3.819228e+000	-1.756877e+002	-8.998886e+000	1.719362e+002	-3.810992e+000	-1.756695e+002
	-3.834969e+000	4.336981e+000	-3.811019e+000	-1.756689e+002	-9.029507e+000	1.719873e+002
117500	-9.028374e+000	1.720649e+002	-3.820500e+000	-1.756983e+002	-3.834708e+000	4.292360e+000
	-3.819114e+000	-1.757161e+002	-9.000846e+000	1.720385e+002	-3.812825e+000	-1.756949e+002
	-3.833954e+000	4.295486e+000	-3.808746e+000	-1.757020e+002	-9.034774e+000	1.720578e+002
118750	-9.031956e+000	1.721215e+002	-3.820305e+000	-1.757374e+002	-3.835396e+000	4.269336e+000
	-3.817374e+000	-1.757620e+002	-9.010037e+000	1.720884e+002	-3.811202e+000	-1.757461e+002
	-3.833793e+000	4.239389e+000	-3.807328e+000	-1.757383e+002	-9.035618e+000	1.721112e+002
120000	-9.033705e+000	1.722401e+002	-3.816242e+000	-1.757958e+002	-3.835310e+000	4.202656e+000
	-3.817408e+000	-1.758083e+002	-9.011170e+000	1.721623e+002	-3.810936e+000	-1.757783e+002
	-3.831013e+000	4.189194e+000	-3.807813e+000	-1.757764e+002	-9.038310e+000	1.721695e+002
121250	-9.035244e+000	1.722610e+002	-3.815012e+000	-1.758265e+002	-3.832615e+000	4.159649e+000
	-3.816716e+000	-1.758584e+002	-9.015052e+000	1.722422e+002	-3.812398e+000	-1.758350e+002
	-3.833781e+000	4.168087e+000	-3.806946e+000	-1.758357e+002	-9.037703e+000	1.722625e+002
122500	-9.043708e+000	1.723291e+002	-3.812043e+000	-1.758661e+002	-3.832932e+000	4.131077e+000
	-3.814719e+000	-1.759005e+002	-9.018404e+000	1.722960e+002	-3.812775e+000	-1.758841e+002
	-3.832411e+000	4.129819e+000	-3.806932e+000	-1.758580e+002	-9.040369e+000	1.723484e+002
123750	-9.041393e+000	1.724248e+002	-3.813465e+000	-1.759027e+002	-3.831414e+000	4.094336e+000
	-3.814606e+000	-1.759113e+002	-9.022728e+000	1.723985e+002	-3.810560e+000	-1.759139e+002
	-3.830185e+000	4.090878e+000	-3.806609e+000	-1.759219e+002	-9.047605e+000	1.724117e+002
125000	-9.048613e+000	1.724800e+002	-3.815668e+000	-1.759432e+002	-3.832223e+000	4.044342e+000
	-3.813849e+000	-1.759664e+002	-9.027273e+000	1.724777e+002	-3.810757e+000	-1.759566e+002
	-3.830568e+000	4.027038e+000	-3.802477e+000	-1.759414e+002	-9.046773e+000	1.724619e+002
126250	-9.052867e+000	1.725394e+002	-3.812033e+000	-1.759727e+002	-3.828997e+000	3.999839e+000
	-3.815057e+000	-1.760001e+002	-9.029997e+000	1.725493e+002	-3.809065e+000	-1.759930e+002
	-3.828046e+000	4.011182e+000	-3.805270e+000	-1.759990e+002	-9.054599e+000	1.725384e+002
127500	-9.054364e+000	1.726085e+002	-3.809328e+000	-1.760133e+002	-3.830594e+000	3.962480e+000
	-3.813486e+000	-1.760375e+002	-9.028770e+000	1.725934e+002	-3.807462e+000	-1.760273e+002
	-3.827483e+000	3.965498e+000	-3.806854e+000	-1.760299e+002	-9.056813e+000	1.725971e+002
128750	-9.055980e+000	1.726618e+002	-3.808908e+000	-1.760511e+002	-3.829154e+000	3.934671e+000
	-3.812788e+000	-1.760732e+002	-9.032935e+000	1.726465e+002	-3.807528e+000	-1.760798e+002
	-3.828255e+000	3.931131e+000	-3.804438e+000	-1.760644e+002	-9.056094e+000	1.726665e+002
130000	-9.058659e+000	1.727339e+002	-3.810013e+000	-1.760848e+002	-3.829276e+000	3.895562e+000
	-3.813146e+000	-1.761014e+002	-9.035110e+000	1.727237e+002	-3.806011e+000	-1.760895e+002
	-3.827928e+000	3.894061e+000	-3.804463e+000	-1.761115e+002	-9.059974e+000	1.727127e+002
131250	-9.059630e+000	1.727639e+002	-3.809736e+000	-1.761248e+002	-3.829238e+000	3.860034e+000
	-3.812808e+000	-1.761586e+002	-9.037944e+000	1.727703e+002	-3.804748e+000	-1.761475e+002
	-3.827869e+000	3.855093e+000	-3.803337e+000	-1.761381e+002	-9.064716e+000	1.728070e+002
132500	-9.063917e+000	1.728657e+002	-3.811826e+000	-1.761392e+002	-3.826786e+000	3.825546e+000
	-3.812928e+000	-1.761817e+002	-9.039195e+000	1.728189e+002	-3.804737e+000	-1.761730e+002
	-3.828343e+000	3.820193e+000	-3.802770e+000	-1.761715e+002	-9.064807e+000	1.728419e+002
133750	-9.069932e+000	1.729251e+002	-3.810041e+000	-1.761865e+002	-3.831404e+000	3.774549e+000
	-3.811022e+000	-1.762135e+002	-9.043054e+000	1.728922e+002	-3.802583e+000	-1.762102e+002
	-3.824079e+000	3.774169e+000	-3.802128e+000	-1.762261e+002	-9.066928e+000	1.729285e+002
135000	-9.069649e+000	1.729804e+002	-3.809601e+000	-1.762153e+002	-3.828558e+000	3.754587e+000
	-3.810972e+000	-1.762373e+002	-9.045202e+000	1.729495e+002	-3.802985e+000	-1.762330e+002
	-3.827133e+000	3.757386e+000	-3.802192e+000	-1.762492e+002	-9.075406e+000	1.729309e+002
136250	-9.071432e+000	1.730123e+002	-3.809628e+000	-1.762630e+002	-3.827488e+000	3.721530e+000
	-3.810747e+000	-1.762706e+002	-9.048947e+000	1.730018e+002	-3.801850e+000	-1.762665e+002
	-3.826666e+000	3.721044e+000	-3.801631e+000	-1.762678e+002	-9.071689e+000	1.730035e+002
137500	-9.070940e+000	1.730660e+002	-3.807651e+000	-1.762960e+002	-3.827207e+000	3.682728e+000
	-3.810969e+000	-1.763039e+002	-9.048663e+000	1.730561e+002	-3.803205e+000	-1.762866e+002
	-3.826751e+000	3.694953e+000	-3.803700e+000	-1.763070e+002	-9.077653e+000	1.730819e+002
138750	-9.074682e+000	1.731268e+002	-3.807318e+000	-1.763132e+002	-3.825728e+000	3.673256e+000
	-3.810888e+000	-1.763177e+002	-9.051780e+000	1.731451e+002	-3.803786e+000	-1.763499e+002
	-3.823739e+000	3.647332e+000	-3.801271e+000	-1.763320e+002	-9.080906e+000	1.731486e+002
140000	-9.076170e+000	1.731837e+002	-3.806938e+000	-1.763536e+002	-3.826418e+000	3.628660e+000
	-3.810634e+000	-1.763662e+002	-9.054938e+000	1.731677e+002	-3.803059e+000	-1.763583e+002
	-3.823000e+000	3.610130e+000	-3.798558e+000	-1.763641e+002	-9.081096e+000	1.731628e+002
141250	-9.077639e+000	1.732628e+002	-3.808977e+000	-1.763846e+002	-3.826352e+000	3.603699e+000
	-3.812240e+000	-1.763929e+002	-9.058711e+000	1.732221e+002	-3.803278e+000	-1.764031e+002
	-3.821519e+000	3.567437e+000	-3.798817e+000	-1.763852e+002	-9.084683e+000	1.732351e+002
142500	-9.080283e+000	1.732881e+002	-3.807868e+000	-1.763957e+002	-3.825646e+000	3.567700e+000
	-3.810613e+000	-1.764290e+002	-9.063172e+000	1.733058e+002	-3.803011e+000	-1.764377e+002
	-3.826931e+000	3.551122e+000	-3.798035e+000	-1.764350e+002	-9.085294e+000	1.732973e+002
143750	-9.084553e+000	1.733408e+002	-3.807133e+000	-1.764409e+002	-3.824873e+000	3.535477e+000
	-3.808275e+000	-1.764574e+002	-9.059985e+000	1.733223e+002	-3.801896e+000	-1.764660e+002
	-3.824084e+000	3.517307e+000	-3.799465e+000	-1.764609e+002	-9.085344e+000	1.733340e+002
145000	-9.084854e+000	1.733873e+002	-3.806916e+000	-1.764659e+002	-3.821753e+000	3.524016e+000
	-3.810887e+000	-1.764987e+002	-9.064771e+000	1.733765e+002	-3.802410e+000	-1.764889e+002
	-3.825285e+000	3.503983e+000	-3.797699e+000	-1.764838e+002	-9.093386e+000	1.733800e+002
146250	-9.084343e+000	1.734550e+002	-3.804496e+000	-1.765024e+002	-3.822585e+000	3.483746e+000
	-3.808847e+000	-1.765077e+002	-9.063441e+000	1.734591e+002	-3.801307e+000	-1.765218e+002
	-3.824574e+000	3.453851e+000	-3.799483e+000	-1.764983e+002	-9.092177e+000	1.734516e+002
147500	-9.084652e+000	1.734973e+002	-3.805373e+000	-1.765212e+002	-3.821985e+000	3.464194e+000
	-3.808540e+000	-1.765470e+002	-9.066310e+000	1.734518e+002	-3.803146e+000	-1.765448e+002
	-3.824958e+000	3.421559e+000	-3.797844e+000	-1.765395e+002	-9.093353e+000	1.735035e+002
148750	-9.091226e+000	1.735344e+002	-3.806962e+000	-1.765353e+002	-3.822704e+000	3.427488e+000
	-3.808621e+000	-1.765624e+002	-9.067083e+000	1.735428e+002	-3.802205e+000	-1.765664e+002
	-3.822370e+000	3.416055e+000	-3.797985e+000	-1.765711e+002	-9.092602e+000	1.735608e+002
150000	-9.091743e+000	1.735939e+002	-3.803169e+000	-1.765800e+002	-3.823165e+000	3.402512e+000
	-3.808943e+000	-1.765917e+002	-9.071008e+000	1.735629e+002	-3.802102e+000	-1.765937e+002
	-3.823132e+000	3.378617e+000	-3.798943e+000	-1.765820e+002	-9.088938e+000	1.735719e+002
152500	-9.093609e+000	1.737072e+002	-3.805362e+000	-1.766317e+002	-3.823397e+000	3.366021e+000
	-3.804292e+000	-1.766389e+002	-9.076570e+000	1.736578e+002	-3.799628e+000	-1.766481e+002
	-3.824348e+000	3.319828e+000	-3.795674e+000	-1.766556e+002	-9.097653e+000	1.736794e+002
155000	-9.099409e+000	1.737713e+002	-3.800826e+000	-1.766836e+002	-3.821475e+000	3.295601e+000
