! Anritsu VNA Master:                     Model: MS2036C/10/77
! SN:                                  1601066
! /card0/usr/18may27.balun/5a.m4.s2p
! Existing Calibration Information:
! TYPE:                         Current Settings,       Active Cal Settings
! TIME:             	   05/27/2018 05:26:25 PM,    05/27/2018 05:09:13 PM
! INTERNAL TEMP:    	                   53.3 C,                    53.3 C
! # POINTS:         	                      500,                       500
! START FREQ:       	               20.000 MHz,                20.000 MHz
! STOP FREQ:        	              120.000 MHz,               120.000 MHz
! SOURCE POWER:     	                     High,                      High
! IFBW:             	                    50 Hz,                     50 Hz
! AVG FACTOR:       	                       1 ,                        1 
! REF PLANE 1:      	                     0 mm,                      0 mm
! REF PLANE 2:      	                     0 mm,                      0 mm
! CAL TYPE:         	                 Full S11,                  Full S11
! CAL METHOD:       	                     SOLT,                      SOLT
! CAL LINE TYPE:    	                     Coax,                      Coax
! DUT PORT 1:       	                K-Conn(M),                 K-Conn(M)
! DUT PORT 2:       	                K-Conn(M),                 K-Conn(M)
! CAL STATUS:       	        OK: Accuracy High,                        --
# GHZ S DB R 50.0
! FREQ.GHZ       S11DB        S11A       S21DB        S21A       S12DB        S12A       S22DB        S22A
  0.020000000   -0.681292 -126.397720  -90.949839   31.354803    0.000000    0.000000    0.000000    0.000000
  0.020200401   -0.682238 -127.851700  -90.742115   27.201563    0.000000    0.000000    0.000000    0.000000
  0.020400802   -0.678441 -129.293259  -91.375151   30.330145    0.000000    0.000000    0.000000    0.000000
  0.020601202   -0.679900 -130.713058  -92.026846   27.044344    0.000000    0.000000    0.000000    0.000000
  0.020801603   -0.683812 -132.168442  -92.191807   30.874893    0.000000    0.000000    0.000000    0.000000
  0.021002004   -0.689384 -133.659363  -92.289247   27.684612    0.000000    0.000000    0.000000    0.000000
  0.021202405   -0.697312 -135.140091  -92.874003   29.324034    0.000000    0.000000    0.000000    0.000000
  0.021402806   -0.702828 -136.627777  -93.669391   24.796337    0.000000    0.000000    0.000000    0.000000
  0.021603206   -0.708378 -138.126495  -93.216524   33.625591    0.000000    0.000000    0.000000    0.000000
  0.021803607   -0.715431 -139.617538  -93.051238   35.150829    0.000000    0.000000    0.000000    0.000000
  0.022004008   -0.721176 -141.137436  -93.025650   36.471722    0.000000    0.000000    0.000000    0.000000
  0.022204409   -0.725142 -142.681412  -93.214005   32.399609    0.000000    0.000000    0.000000    0.000000
  0.022404810   -0.727257 -144.228973  -92.611132   34.611568    0.000000    0.000000    0.000000    0.000000
  0.022605210   -0.729998 -145.766174  -93.173255   32.627064    0.000000    0.000000    0.000000    0.000000
  0.022805611   -0.731698 -147.302795  -93.346266   34.469635    0.000000    0.000000    0.000000    0.000000
  0.023006012   -0.733134 -148.838654  -92.375374   34.933426    0.000000    0.000000    0.000000    0.000000
  0.023206413   -0.742112 -150.406647  -92.926441   32.742729    0.000000    0.000000    0.000000    0.000000
  0.023406814   -0.751035 -151.985748  -91.781483   30.965055    0.000000    0.000000    0.000000    0.000000
  0.023607214   -0.757783 -153.576523  -92.198991   28.643988    0.000000    0.000000    0.000000    0.000000
  0.023807615   -0.766411 -155.182007  -92.896881   28.465677    0.000000    0.000000    0.000000    0.000000
  0.024008016   -0.775110 -156.777115  -93.303545   20.562096    0.000000    0.000000    0.000000    0.000000
  0.024208417   -0.784680 -158.376816  -93.043318   20.567913    0.000000    0.000000    0.000000    0.000000
  0.024408818   -0.795061 -159.998306  -93.238692   24.985847    0.000000    0.000000    0.000000    0.000000
  0.024609218   -0.806213 -161.638977  -93.355428   19.045225    0.000000    0.000000    0.000000    0.000000
  0.024809619   -0.814241 -163.296814  -93.214166   18.115446    0.000000    0.000000    0.000000    0.000000
  0.025010020   -0.818957 -164.949158  -94.767034   21.780674    0.000000    0.000000    0.000000    0.000000
  0.025210421   -0.827605 -166.593704  -94.736846   20.149128    0.000000    0.000000    0.000000    0.000000
  0.025410822   -0.837167 -168.257904  -94.527802   21.884680    0.000000    0.000000    0.000000    0.000000
  0.025611222   -0.846389 -169.918365  -94.768996   20.391163    0.000000    0.000000    0.000000    0.000000
  0.025811623   -0.857644 -171.580902  -96.258330   21.216879    0.000000    0.000000    0.000000    0.000000
  0.026012024   -0.867620 -173.267929  -94.718767   21.513641    0.000000    0.000000    0.000000    0.000000
  0.026212425   -0.883091 -174.948975  -95.486166   21.954567    0.000000    0.000000    0.000000    0.000000
  0.026412826   -0.900711 -176.640320  -95.331456   24.061159    0.000000    0.000000    0.000000    0.000000
  0.026613226   -0.919831 -178.349808  -94.631554   22.371809    0.000000    0.000000    0.000000    0.000000
  0.026813627   -0.937194  179.926163  -96.245689   18.400564    0.000000    0.000000    0.000000    0.000000
  0.027014028   -0.953785  178.205124  -95.707252   23.361427    0.000000    0.000000    0.000000    0.000000
  0.027214429   -0.971471  176.480988  -95.207980   26.822081    0.000000    0.000000    0.000000    0.000000
  0.027414830   -0.988574  174.744186  -95.201982   22.617958    0.000000    0.000000    0.000000    0.000000
  0.027615230   -1.006552  173.006485  -95.693265   25.348883    0.000000    0.000000    0.000000    0.000000
  0.027815631   -1.031172  171.242584  -95.543361   13.201395    0.000000    0.000000    0.000000    0.000000
  0.028016032   -1.053392  169.437836  -95.388497   19.995258    0.000000    0.000000    0.000000    0.000000
  0.028216433   -1.074411  167.623932  -95.292917   14.373785    0.000000    0.000000    0.000000    0.000000
  0.028416834   -1.098788  165.806900  -96.655936   13.597871    0.000000    0.000000    0.000000    0.000000
  0.028617234   -1.124940  164.001129  -95.827550   16.210419    0.000000    0.000000    0.000000    0.000000
  0.028817635   -1.150795  162.166412  -95.997367   16.347578    0.000000    0.000000    0.000000    0.000000
  0.029018036   -1.179437  160.301926  -96.307631   15.997729    0.000000    0.000000    0.000000    0.000000
  0.029218437   -1.205075  158.405655  -96.538362   18.463934    0.000000    0.000000    0.000000    0.000000
  0.029418838   -1.229152  156.535995  -96.249768   11.448094    0.000000    0.000000    0.000000    0.000000
  0.029619238   -1.251931  154.688828  -97.148812    6.189135    0.000000    0.000000    0.000000    0.000000
  0.029819639   -1.277861  152.842514  -97.026251   11.131601    0.000000    0.000000    0.000000    0.000000
  0.030020040   -1.302204  150.993546  -96.823174   15.293188    0.000000    0.000000    0.000000    0.000000
  0.030220441   -1.333765  149.158157  -97.236169   17.432682    0.000000    0.000000    0.000000    0.000000
  0.030420842   -1.369068  147.294785  -97.461828   16.089592    0.000000    0.000000    0.000000    0.000000
  0.030621242   -1.411825  145.405396  -96.811446   20.190674    0.000000    0.000000    0.000000    0.000000
  0.030821643   -1.447541  143.466385  -97.558832   17.519695    0.000000    0.000000    0.000000    0.000000
  0.031022044   -1.483126  141.511673  -97.381605   17.074440    0.000000    0.000000    0.000000    0.000000
  0.031222445   -1.510732  139.556534  -98.004384   13.883509    0.000000    0.000000    0.000000    0.000000
  0.031422846   -1.544034  137.587830  -96.542733    6.310894    0.000000    0.000000    0.000000    0.000000
  0.031623246   -1.573990  135.616333  -97.992053   14.917488    0.000000    0.000000    0.000000    0.000000
  0.031823647   -1.600710  133.685715  -97.436512    6.071218    0.000000    0.000000    0.000000    0.000000
  0.032024048   -1.625234  131.748474  -97.451248   17.390335    0.000000    0.000000    0.000000    0.000000
  0.032224449   -1.654039  129.817978  -97.723786   12.353975    0.000000    0.000000    0.000000    0.000000
  0.032424850   -1.688043  127.904907  -96.811910    9.553471    0.000000    0.000000    0.000000    0.000000
  0.032625251   -1.728448  125.959671  -97.008116   13.759502    0.000000    0.000000    0.000000    0.000000
  0.032825651   -1.772094  124.010864  -97.646822   12.626518    0.000000    0.000000    0.000000    0.000000
  0.033026052   -1.819811  122.056473  -97.808635    8.955722    0.000000    0.000000    0.000000    0.000000
  0.033226453   -1.870513  120.060562  -98.883808    8.465240    0.000000    0.000000    0.000000    0.000000
  0.033426854   -1.920429  118.044083  -98.966740   16.761417    0.000000    0.000000    0.000000    0.000000
  0.033627255   -1.966852  115.975777  -97.544327    6.249074    0.000000    0.000000    0.000000    0.000000
  0.033827655   -2.016201  113.893303  -98.042485    4.587070    0.000000    0.000000    0.000000    0.000000
  0.034028056   -2.065966  111.810089  -98.169369    8.742637    0.000000    0.000000    0.000000    0.000000
  0.034228457   -2.115745  109.700714  -99.745687    5.232942    0.000000    0.000000    0.000000    0.000000
  0.034428858   -2.163705  107.586075  -99.789867    5.310593    0.000000    0.000000    0.000000    0.000000
  0.034629259   -2.207690  105.501503  -97.787763   13.929193    0.000000    0.000000    0.000000    0.000000
  0.034829659   -2.246939  103.422646  -98.588908   14.398065    0.000000    0.000000    0.000000    0.000000
  0.035030060   -2.287782  101.377403  -99.466116   13.069099    0.000000    0.000000    0.000000    0.000000
  0.035230461   -2.335355   99.377586  -98.138348    5.776713    0.000000    0.000000    0.000000    0.000000
  0.035430862   -2.390021   97.363159  -99.549065   13.718390    0.000000    0.000000    0.000000    0.000000
  0.035631263   -2.451102   95.350449  -99.030188   17.506025    0.000000    0.000000    0.000000    0.000000
  0.035831663   -2.516241   93.288315  -98.697420    4.532691    0.000000    0.000000    0.000000    0.000000
  0.036032064   -2.580620   91.178398  -98.513490    9.079340    0.000000    0.000000    0.000000    0.000000
  0.036232465   -2.645679   89.037933  -99.336739   -1.187531    0.000000    0.000000    0.000000    0.000000
  0.036432866   -2.710628   86.850586  -98.287937    3.313743    0.000000    0.000000    0.000000    0.000000
  0.036633267   -2.766333   84.671837  -97.901995    2.668364    0.000000    0.000000    0.000000    0.000000
  0.036833667   -2.821527   82.495529  -98.697190    2.886732    0.000000    0.000000    0.000000    0.000000
  0.037034068   -2.875848   80.318176  -98.788344    4.423981    0.000000    0.000000    0.000000    0.000000
  0.037234469   -2.930010   78.168777 -100.291249    9.974849    0.000000    0.000000    0.000000    0.000000
  0.037434870   -2.981321   76.045959 -100.477419    3.727642    0.000000    0.000000    0.000000    0.000000
  0.037635271   -3.036910   73.933945 -100.275306    6.720796    0.000000    0.000000    0.000000    0.000000
  0.037835671   -3.093907   71.813385  -98.687327    5.364497    0.000000    0.000000    0.000000    0.000000
  0.038036072   -3.157338   69.704887 -100.549411   -0.813584    0.000000    0.000000    0.000000    0.000000
  0.038236473   -3.222175   67.577644 -102.136052    8.502854    0.000000    0.000000    0.000000    0.000000
  0.038436874   -3.291396   65.472183 -100.691823    3.311887    0.000000    0.000000    0.000000    0.000000
  0.038637275   -3.362343   63.306873 -100.617903    2.189083    0.000000    0.000000    0.000000    0.000000
  0.038837675   -3.434609   61.117264 -100.392546   11.588141    0.000000    0.000000    0.000000    0.000000
  0.039038076   -3.505814   58.897186 -101.305789    2.290070    0.000000    0.000000    0.000000    0.000000
  0.039238477   -3.568951   56.640717 -100.604413    5.126539    0.000000    0.000000    0.000000    0.000000
  0.039438878   -3.624550   54.421959 -100.021856    0.786041    0.000000    0.000000    0.000000    0.000000
  0.039639279   -3.679231   52.251884 -100.091454    9.265781    0.000000    0.000000    0.000000    0.000000
  0.039839679   -3.727993   50.100037  -99.138915   12.766238    0.000000    0.000000    0.000000    0.000000
  0.040040080   -3.779786   47.990540  -99.889933    6.359784    0.000000    0.000000    0.000000    0.000000
  0.040240481   -3.837321   45.931087  -99.259507   16.395363    0.000000    0.000000    0.000000    0.000000
  0.040440882   -3.899164   43.850109  -99.008941    0.154216    0.000000    0.000000    0.000000    0.000000
  0.040641283   -3.963715   41.745789 -100.144999    4.843637    0.000000    0.000000    0.000000    0.000000
  0.040841683   -4.032426   39.647369 -101.163976    5.819449    0.000000    0.000000    0.000000    0.000000
  0.041042084   -4.100229   37.525047  -99.832782   11.322927    0.000000    0.000000    0.000000    0.000000
  0.041242485   -4.166706   35.404469 -100.778359   -2.439978    0.000000    0.000000    0.000000    0.000000
  0.041442886   -4.233113   33.280403 -100.225641   10.782446    0.000000    0.000000    0.000000    0.000000
  0.041643287   -4.294784   31.151772  -99.928229   -0.709003    0.000000    0.000000    0.000000    0.000000
  0.041843687   -4.358570   28.988920 -101.007632    5.973509    0.000000    0.000000    0.000000    0.000000
  0.042044088   -4.418372   26.839447 -103.207060    4.371339    0.000000    0.000000    0.000000    0.000000
  0.042244489   -4.478074   24.726330 -102.219345   -4.408129    0.000000    0.000000    0.000000    0.000000
  0.042444890   -4.536862   22.615719 -102.703155    4.142089    0.000000    0.000000    0.000000    0.000000
  0.042645291   -4.593790   20.498871 -102.406458   -0.123862    0.000000    0.000000    0.000000    0.000000
  0.042845691   -4.651465   18.392174  -99.960173    3.378339    0.000000    0.000000    0.000000    0.000000
  0.043046092   -4.709967   16.272936 -101.577552   -1.521741    0.000000    0.000000    0.000000    0.000000
  0.043246493   -4.767013   14.157156 -102.160647   -0.971391    0.000000    0.000000    0.000000    0.000000
  0.043446894   -4.821383   12.050873 -101.520638   -7.638441    0.000000    0.000000    0.000000    0.000000
  0.043647295   -4.879750    9.939860 -101.585288   10.735585    0.000000    0.000000    0.000000    0.000000
  0.043847695   -4.934731    7.849567 -103.088765    5.150915    0.000000    0.000000    0.000000    0.000000
  0.044048096   -4.987501    5.754743 -100.845907    9.604474    0.000000    0.000000    0.000000    0.000000
  0.044248497   -5.036724    3.683382 -102.521304   14.929641    0.000000    0.000000    0.000000    0.000000
  0.044448898   -5.084074    1.578979 -101.300973   17.988811    0.000000    0.000000    0.000000    0.000000
  0.044649299   -5.131237   -0.457524 -100.755925   11.945603    0.000000    0.000000    0.000000    0.000000
  0.044849699   -5.175692   -2.460224 -100.924970    3.729727    0.000000    0.000000    0.000000    0.000000
  0.045050100   -5.223758   -4.475082  -99.713096   15.815028    0.000000    0.000000    0.000000    0.000000
  0.045250501   -5.272703   -6.461965 -100.815458   -0.607923    0.000000    0.000000    0.000000    0.000000
  0.045450902   -5.316694   -8.458820 -100.754952   12.703224    0.000000    0.000000    0.000000    0.000000
  0.045651303   -5.361379  -10.469215 -101.231152    0.836393    0.000000    0.000000    0.000000    0.000000
  0.045851703   -5.407281  -12.443947  -99.973509   -3.340695    0.000000    0.000000    0.000000    0.000000
  0.046052104   -5.449963  -14.396749 -101.624129   -1.268925    0.000000    0.000000    0.000000    0.000000
  0.046252505   -5.494652  -16.354692 -101.301185    8.104670    0.000000    0.000000    0.000000    0.000000
  0.046452906   -5.538216  -18.283228 -101.186756  -10.328116    0.000000    0.000000    0.000000    0.000000
  0.046653307   -5.581137  -20.197441 -104.474091  -15.061837    0.000000    0.000000    0.000000    0.000000
  0.046853707   -5.624725  -22.124693 -103.032349   -3.873371    0.000000    0.000000    0.000000    0.000000
  0.047054108   -5.667424  -24.051693 -103.279543    3.488565    0.000000    0.000000    0.000000    0.000000
  0.047254509   -5.709252  -25.962385 -103.651887    7.906018    0.000000    0.000000    0.000000    0.000000
  0.047454910   -5.750597  -27.889696 -103.248406   -8.740160    0.000000    0.000000    0.000000    0.000000
  0.047655311   -5.790610  -29.786697 -102.025720   16.408998    0.000000    0.000000    0.000000    0.000000
  0.047855711   -5.831717  -31.683287 -102.103480    4.374963    0.000000    0.000000    0.000000    0.000000
  0.048056112   -5.871326  -33.592815 -104.675451   12.925735    0.000000    0.000000    0.000000    0.000000
  0.048256513   -5.903445  -35.489552 -105.098509   10.834837    0.000000    0.000000    0.000000    0.000000
  0.048456914   -5.938171  -37.372475 -102.327293   11.109276    0.000000    0.000000    0.000000    0.000000
  0.048657315   -5.967956  -39.278114 -100.511576   12.213570    0.000000    0.000000    0.000000    0.000000
  0.048857715   -5.991381  -41.108917 -104.307147   19.914883    0.000000    0.000000    0.000000    0.000000
  0.049058116   -6.015132  -42.924904 -102.835394   20.552225    0.000000    0.000000    0.000000    0.000000
  0.049258517   -6.040089  -44.666061 -102.296061   10.231725    0.000000    0.000000    0.000000    0.000000
  0.049458918   -6.061499  -46.389820 -101.773166    3.322555    0.000000    0.000000    0.000000    0.000000
  0.049659319   -6.086974  -48.103157 -103.930648   12.442529    0.000000    0.000000    0.000000    0.000000
  0.049859719   -6.113225  -49.818283 -101.380971    2.943803    0.000000    0.000000    0.000000    0.000000
  0.050060120   -6.141234  -51.536411 -103.632912    5.539392    0.000000    0.000000    0.000000    0.000000
  0.050260521   -6.170184  -53.243069 -101.024431   -0.220032    0.000000    0.000000    0.000000    0.000000
  0.050460922   -6.190469  -54.939781 -101.489048    0.827266    0.000000    0.000000    0.000000    0.000000
  0.050661323   -6.207454  -56.607647 -104.936630   -7.201097    0.000000    0.000000    0.000000    0.000000
  0.050861723   -6.223996  -58.311695 -102.949521   -1.292031    0.000000    0.000000    0.000000    0.000000
  0.051062124   -6.233056  -59.975883 -101.378542   -9.072503    0.000000    0.000000    0.000000    0.000000
  0.051262525   -6.244970  -61.594208 -103.874597   11.048138    0.000000    0.000000    0.000000    0.000000
  0.051462926   -6.251971  -63.208160 -102.847105   -8.240278    0.000000    0.000000    0.000000    0.000000
  0.051663327   -6.267579  -64.774391 -102.874485   -0.947296    0.000000    0.000000    0.000000    0.000000
  0.051863727   -6.277727  -66.345322 -105.837796    3.040040    0.000000    0.000000    0.000000    0.000000
  0.052064128   -6.287989  -67.898018 -103.573741  -18.583544    0.000000    0.000000    0.000000    0.000000
  0.052264529   -6.299690  -69.452080 -103.957975   13.447454    0.000000    0.000000    0.000000    0.000000
  0.052464930   -6.306680  -71.031296 -102.414692    1.462008    0.000000    0.000000    0.000000    0.000000
  0.052665331   -6.313759  -72.622002 -101.472973    9.218260    0.000000    0.000000    0.000000    0.000000
  0.052865731   -6.317310  -74.178329 -102.447034    6.857274    0.000000    0.000000    0.000000    0.000000
