! Anritsu VNA Master:                     Model: MS2036C/10/77
! SN:                                  1601066
! /bd0/18may10/252.ns.m11.s2p
! Existing Calibration Information:
! TYPE:                         Current Settings,       Active Cal Settings
! TIME:             	   05/10/2018 06:01:50 PM,    05/10/2018 05:49:06 PM
! INTERNAL TEMP:    	                   59.8 C,                    59.5 C
! # POINTS:         	                      490,                       490
! START FREQ:       	               20.000 MHz,                20.000 MHz
! STOP FREQ:        	          117.995 991 MHz,           117.995 991 MHz
! SOURCE POWER:     	                     High,                      High
! IFBW:             	                    50 Hz,                     50 Hz
! AVG FACTOR:       	                       1 ,                        1 
! REF PLANE 1:      	                     0 mm,                      0 mm
! REF PLANE 2:      	                     0 mm,                      0 mm
! CAL TYPE:         	                 Full S22,                  Full S22
! CAL METHOD:       	                     SOLT,                      SOLT
! CAL LINE TYPE:    	                     Coax,                      Coax
! DUT PORT 1:       	                K-Conn(M),                 K-Conn(M)
! DUT PORT 2:       	                K-Conn(M),                 K-Conn(M)
! CAL STATUS:       	        OK: Accuracy High,                        --
# GHZ S DB R 50.0
! FREQ.GHZ       S11DB        S11A       S21DB        S21A       S12DB        S12A       S22DB        S22A
  0.020000000    0.000000    0.000000    0.000000    0.000000  -89.712315   32.898502   -0.633913 -125.420113
  0.020200401    0.000000    0.000000    0.000000    0.000000  -89.336630   33.234272   -0.637122 -126.870560
  0.020400802    0.000000    0.000000    0.000000    0.000000  -90.208134   35.319115   -0.641927 -128.320114
  0.020601202    0.000000    0.000000    0.000000    0.000000  -90.125703   34.091267   -0.645818 -129.784149
  0.020801603    0.000000    0.000000    0.000000    0.000000  -90.783245   33.851036   -0.648842 -131.287460
  0.021002004    0.000000    0.000000    0.000000    0.000000  -90.870423   32.679089   -0.651658 -132.794556
  0.021202405    0.000000    0.000000    0.000000    0.000000  -91.586377   36.155552   -0.656112 -134.313309
  0.021402806    0.000000    0.000000    0.000000    0.000000  -91.476546   33.428345   -0.659531 -135.807098
  0.021603206    0.000000    0.000000    0.000000    0.000000  -91.892029   37.583920   -0.661943 -137.324402
  0.021803607    0.000000    0.000000    0.000000    0.000000  -92.121368   38.424713   -0.665851 -138.834763
  0.022004008    0.000000    0.000000    0.000000    0.000000  -92.141616   38.949986   -0.673214 -140.346039
  0.022204409    0.000000    0.000000    0.000000    0.000000  -92.257984   39.815948   -0.678913 -141.881287
  0.022404810    0.000000    0.000000    0.000000    0.000000  -91.981149   43.710114   -0.686363 -143.421722
  0.022605210    0.000000    0.000000    0.000000    0.000000  -92.005868   40.137829   -0.686988 -145.009048
  0.022805611    0.000000    0.000000    0.000000    0.000000  -91.537089   43.330650   -0.688229 -146.578568
  0.023006012    0.000000    0.000000    0.000000    0.000000  -91.481631   40.029690   -0.694287 -148.145081
  0.023206413    0.000000    0.000000    0.000000    0.000000  -91.874289   38.217823   -0.699742 -149.710602
  0.023406814    0.000000    0.000000    0.000000    0.000000  -91.592665   40.453770   -0.705610 -151.262680
  0.023607214    0.000000    0.000000    0.000000    0.000000  -91.443335   38.252720   -0.711883 -152.847748
  0.023807615    0.000000    0.000000    0.000000    0.000000  -91.012815   36.097157   -0.719505 -154.445313
  0.024008016    0.000000    0.000000    0.000000    0.000000  -91.571113   38.833820   -0.726627 -156.053314
  0.024208417    0.000000    0.000000    0.000000    0.000000  -91.831324   35.838619   -0.734274 -157.696609
  0.024408818    0.000000    0.000000    0.000000    0.000000  -91.838030   36.111042   -0.739049 -159.335541
  0.024609218    0.000000    0.000000    0.000000    0.000000  -91.170096   29.620014   -0.744504 -160.972717
  0.024809619    0.000000    0.000000    0.000000    0.000000  -91.401101   28.609882   -0.753582 -162.622849
  0.025010020    0.000000    0.000000    0.000000    0.000000  -91.715446   29.286037   -0.763236 -164.272217
  0.025210421    0.000000    0.000000    0.000000    0.000000  -92.110147   26.811342   -0.772613 -165.940094
  0.025410822    0.000000    0.000000    0.000000    0.000000  -92.077172   23.476019   -0.782687 -167.618729
  0.025611222    0.000000    0.000000    0.000000    0.000000  -92.692722   22.967175   -0.794600 -169.303085
  0.025811623    0.000000    0.000000    0.000000    0.000000  -92.751520   24.981277   -0.804726 -170.998169
  0.026012024    0.000000    0.000000    0.000000    0.000000  -92.883905   22.463615   -0.815382 -172.706482
  0.026212425    0.000000    0.000000    0.000000    0.000000  -93.065952   21.294275   -0.826184 -174.423279
  0.026412826    0.000000    0.000000    0.000000    0.000000  -93.549535   24.352745   -0.838526 -176.148575
  0.026613226    0.000000    0.000000    0.000000    0.000000  -94.305687   27.501059   -0.853199 -177.887421
  0.026813627    0.000000    0.000000    0.000000    0.000000  -93.934641   24.606647   -0.869095 -179.632187
  0.027014028    0.000000    0.000000    0.000000    0.000000  -94.518805   26.646955   -0.885314  178.617752
  0.027214429    0.000000    0.000000    0.000000    0.000000  -95.014108   23.838606   -0.900870  176.861908
  0.027414830    0.000000    0.000000    0.000000    0.000000  -94.270118   27.314501   -0.920012  175.090317
  0.027615230    0.000000    0.000000    0.000000    0.000000  -94.771834   34.014053   -0.935467  173.311905
  0.027815631    0.000000    0.000000    0.000000    0.000000  -94.400101   30.839632   -0.955693  171.530289
  0.028016032    0.000000    0.000000    0.000000    0.000000  -94.312900   28.217209   -0.974206  169.710266
  0.028216433    0.000000    0.000000    0.000000    0.000000  -94.980898   34.282757   -0.996667  167.909882
  0.028416834    0.000000    0.000000    0.000000    0.000000  -95.375446   31.277142   -1.017811  166.083466
  0.028617234    0.000000    0.000000    0.000000    0.000000  -94.506838   32.673149   -1.040257  164.250336
  0.028817635    0.000000    0.000000    0.000000    0.000000  -94.543605   31.636187   -1.063954  162.424225
  0.029018036    0.000000    0.000000    0.000000    0.000000  -95.143181   32.957722   -1.089097  160.592758
  0.029218437    0.000000    0.000000    0.000000    0.000000  -94.516534   30.798338   -1.115684  158.742981
  0.029418838    0.000000    0.000000    0.000000    0.000000  -94.199005   31.961252   -1.142732  156.870789
  0.029619238    0.000000    0.000000    0.000000    0.000000  -94.002612   27.035219   -1.170405  154.992203
  0.029819639    0.000000    0.000000    0.000000    0.000000  -94.310356   26.339005   -1.199064  153.124161
  0.030020040    0.000000    0.000000    0.000000    0.000000  -94.172142   26.429579   -1.229464  151.228699
  0.030220441    0.000000    0.000000    0.000000    0.000000  -93.888296   29.221622   -1.258258  149.348572
  0.030420842    0.000000    0.000000    0.000000    0.000000  -94.231685   26.153461   -1.289003  147.462463
  0.030621242    0.000000    0.000000    0.000000    0.000000  -95.094207   24.943903   -1.321270  145.592911
  0.030821643    0.000000    0.000000    0.000000    0.000000  -93.866372   24.421444   -1.354816  143.707138
  0.031022044    0.000000    0.000000    0.000000    0.000000  -94.217240   23.976805   -1.387757  141.796936
  0.031222445    0.000000    0.000000    0.000000    0.000000  -94.623692   23.361458   -1.416297  139.904877
  0.031422846    0.000000    0.000000    0.000000    0.000000  -94.397538   20.921432   -1.450289  137.997147
  0.031623246    0.000000    0.000000    0.000000    0.000000  -94.177538   19.753359   -1.487323  136.050735
  0.031823647    0.000000    0.000000    0.000000    0.000000  -94.651661   21.829891   -1.519799  134.113068
  0.032024048    0.000000    0.000000    0.000000    0.000000  -94.698141   19.285334   -1.554406  132.188400
  0.032224449    0.000000    0.000000    0.000000    0.000000  -94.342702   17.586988   -1.589432  130.255966
  0.032424850    0.000000    0.000000    0.000000    0.000000  -94.867455   19.065268   -1.625016  128.295227
  0.032625250    0.000000    0.000000    0.000000    0.000000  -96.072446   15.947399   -1.659794  126.330826
  0.032825651    0.000000    0.000000    0.000000    0.000000  -97.263981   17.892595   -1.694723  124.327682
  0.033026052    0.000000    0.000000    0.000000    0.000000  -96.431505   16.265360   -1.727535  122.322693
  0.033226453    0.000000    0.000000    0.000000    0.000000  -96.281507   19.837561   -1.768363  120.324081
  0.033426854    0.000000    0.000000    0.000000    0.000000  -95.473943   20.081356   -1.801279  118.311966
  0.033627254    0.000000    0.000000    0.000000    0.000000  -97.150006   27.544081   -1.840609  116.306007
  0.033827655    0.000000    0.000000    0.000000    0.000000  -97.072849   18.920145   -1.880764  114.311737
  0.034028056    0.000000    0.000000    0.000000    0.000000  -97.002970   20.813131   -1.919374  112.270370
  0.034228457    0.000000    0.000000    0.000000    0.000000  -96.895443   20.378073   -1.959601  110.240486
  0.034428858    0.000000    0.000000    0.000000    0.000000  -96.516334   25.184767   -2.004300  108.182701
  0.034629258    0.000000    0.000000    0.000000    0.000000  -96.167978   26.987219   -2.044221  106.112129
  0.034829659    0.000000    0.000000    0.000000    0.000000  -96.660264   22.399860   -2.090332  104.041298
  0.035030060    0.000000    0.000000    0.000000    0.000000  -95.803534   25.787167   -2.138206  101.962685
  0.035230461    0.000000    0.000000    0.000000    0.000000  -97.233511   33.242481   -2.185257   99.891983
  0.035430862    0.000000    0.000000    0.000000    0.000000  -96.282668   23.787172   -2.234600   97.798210
  0.035631262    0.000000    0.000000    0.000000    0.000000  -95.920370   24.536589   -2.282736   95.723557
  0.035831663    0.000000    0.000000    0.000000    0.000000  -96.531518   28.767452   -2.331342   93.631828
  0.036032064    0.000000    0.000000    0.000000    0.000000  -96.539705   33.492973   -2.383521   91.530388
  0.036232465    0.000000    0.000000    0.000000    0.000000  -95.990639   26.109232   -2.433077   89.430237
  0.036432866    0.000000    0.000000    0.000000    0.000000  -97.245457   24.178015   -2.485598   87.324791
  0.036633266    0.000000    0.000000    0.000000    0.000000  -96.854879   18.995392   -2.537244   85.190872
  0.036833667    0.000000    0.000000    0.000000    0.000000  -96.779252   27.358099   -2.589083   83.083519
  0.037034068    0.000000    0.000000    0.000000    0.000000  -96.952564   17.934584   -2.644209   80.949326
  0.037234469    0.000000    0.000000    0.000000    0.000000  -95.998383   16.760139   -2.696582   78.833038
  0.037434870    0.000000    0.000000    0.000000    0.000000  -97.986349   20.242208   -2.752987   76.720520
  0.037635270    0.000000    0.000000    0.000000    0.000000  -97.266696   23.890522   -2.809908   74.604439
  0.037835671    0.000000    0.000000    0.000000    0.000000  -96.594308   22.450760   -2.871946   72.457199
  0.038036072    0.000000    0.000000    0.000000    0.000000  -99.915388   26.297064   -2.935962   70.341225
  0.038236473    0.000000    0.000000    0.000000    0.000000  -98.174867   18.478592   -3.001797   68.274078
  0.038436874    0.000000    0.000000    0.000000    0.000000  -98.049951   16.495283   -3.058329   66.187981
  0.038637274    0.000000    0.000000    0.000000    0.000000  -99.132455   28.623995   -3.112502   64.097588
  0.038837675    0.000000    0.000000    0.000000    0.000000  -96.865671   28.614397   -3.166024   61.983734
  0.039038076    0.000000    0.000000    0.000000    0.000000  -97.261900   23.063822   -3.221734   59.880672
  0.039238477    0.000000    0.000000    0.000000    0.000000  -97.581008   25.999485   -3.276393   57.798531
  0.039438878    0.000000    0.000000    0.000000    0.000000  -97.699754   31.606178   -3.332663   55.698418
  0.039639278    0.000000    0.000000    0.000000    0.000000  -98.187757   19.509501   -3.388723   53.617836
  0.039839679    0.000000    0.000000    0.000000    0.000000  -97.677280   29.795139   -3.445564   51.504414
  0.040040080    0.000000    0.000000    0.000000    0.000000  -97.911468   38.783588   -3.500896   49.389854
  0.040240481    0.000000    0.000000    0.000000    0.000000  -98.286741   25.105841   -3.557877   47.296223
  0.040440882    0.000000    0.000000    0.000000    0.000000  -98.374025   23.786800   -3.613926   45.201271
  0.040641283    0.000000    0.000000    0.000000    0.000000  -98.278070   28.000313   -3.669797   43.149292
  0.040841683    0.000000    0.000000    0.000000    0.000000  -97.643853   22.038559   -3.728398   41.062469
  0.041042084    0.000000    0.000000    0.000000    0.000000  -98.069657   23.350971   -3.784955   39.013020
  0.041242485    0.000000    0.000000    0.000000    0.000000  -98.009725   25.368025   -3.842190   36.940220
  0.041442886    0.000000    0.000000    0.000000    0.000000  -98.939072   23.013462   -3.899050   34.874306
  0.041643287    0.000000    0.000000    0.000000    0.000000  -97.377954   25.256662   -3.956123   32.793259
  0.041843687    0.000000    0.000000    0.000000    0.000000  -97.494905   26.365372   -4.010057   30.691853
  0.042044088    0.000000    0.000000    0.000000    0.000000  -96.737891   28.226023   -4.066893   28.645451
  0.042244489    0.000000    0.000000    0.000000    0.000000  -97.765201   32.797268   -4.122209   26.580662
  0.042444890    0.000000    0.000000    0.000000    0.000000  -98.305990   26.024427   -4.178226   24.529896
  0.042645291    0.000000    0.000000    0.000000    0.000000  -98.058478   25.901829   -4.233985   22.500479
  0.042845691    0.000000    0.000000    0.000000    0.000000  -97.713755   24.326855   -4.286775   20.458763
  0.043046092    0.000000    0.000000    0.000000    0.000000  -99.140386   34.275669   -4.340338   18.425751
  0.043246493    0.000000    0.000000    0.000000    0.000000  -99.517866   28.515383   -4.395399   16.358921
  0.043446894    0.000000    0.000000    0.000000    0.000000  -99.136457   23.206812   -4.446873   14.340689
  0.043647295    0.000000    0.000000    0.000000    0.000000  -99.950699   32.480072   -4.494718   12.329782
  0.043847695    0.000000    0.000000    0.000000    0.000000  -98.730314   31.148125   -4.545989   10.325525
  0.044048096    0.000000    0.000000    0.000000    0.000000  -98.207229   31.321476   -4.595221    8.327312
  0.044248497    0.000000    0.000000    0.000000    0.000000  -99.813734   30.710726   -4.646570    6.348785
  0.044448898    0.000000    0.000000    0.000000    0.000000  -98.166805   29.111513   -4.694062    4.385248
  0.044649299    0.000000    0.000000    0.000000    0.000000  -98.544954   30.884682   -4.740860    2.421454
  0.044849699    0.000000    0.000000    0.000000    0.000000  -97.245117   25.510633   -4.783076    0.468316
  0.045050100    0.000000    0.000000    0.000000    0.000000  -99.205472   30.350451   -4.827734   -1.468781
  0.045250501    0.000000    0.000000    0.000000    0.000000  -99.445959   33.251068   -4.873426   -3.414618
  0.045450902    0.000000    0.000000    0.000000    0.000000  -98.815226   26.292257   -4.916037   -5.321885
  0.045651303    0.000000    0.000000    0.000000    0.000000  -99.376341   41.864738   -4.958268   -7.258077
  0.045851703    0.000000    0.000000    0.000000    0.000000  -97.036832   25.619978   -4.998766   -9.142721
  0.046052104    0.000000    0.000000    0.000000    0.000000  -98.868825   26.632984   -5.039589  -11.021602
  0.046252505    0.000000    0.000000    0.000000    0.000000  -98.278839   31.247101   -5.080318  -12.899134
  0.046452906    0.000000    0.000000    0.000000    0.000000  -98.381871   36.487667   -5.119171  -14.740146
  0.046653307    0.000000    0.000000    0.000000    0.000000  -99.774154   29.923176   -5.157367  -16.600981
  0.046853707    0.000000    0.000000    0.000000    0.000000  -98.573662   25.223686   -5.192014  -18.470425
  0.047054108    0.000000    0.000000    0.000000    0.000000  -98.261848   26.755140   -5.228153  -20.315798
  0.047254509    0.000000    0.000000    0.000000    0.000000  -97.814278   35.530014   -5.261712  -22.179028
  0.047454910    0.000000    0.000000    0.000000    0.000000  -98.215355   30.546215   -5.293673  -24.014902
  0.047655311    0.000000    0.000000    0.000000    0.000000  -98.905593   27.151047   -5.325010  -25.847164
  0.047855711    0.000000    0.000000    0.000000    0.000000  -98.169413   25.786283   -5.357567  -27.655222
  0.048056112    0.000000    0.000000    0.000000    0.000000  -98.547170   34.403179   -5.391188  -29.456715
  0.048256513    0.000000    0.000000    0.000000    0.000000  -98.723462   23.619408   -5.422499  -31.248375
  0.048456914    0.000000    0.000000    0.000000    0.000000  -98.768525   23.528454   -5.455286  -33.060490
  0.048657315    0.000000    0.000000    0.000000    0.000000  -99.806844   23.332634   -5.479100  -34.829521
  0.048857715    0.000000    0.000000    0.000000    0.000000  -98.783131   25.061619   -5.505724  -36.633774
  0.049058116    0.000000    0.000000    0.000000    0.000000  -99.904182   30.163113   -5.531754  -38.433548
  0.049258517    0.000000    0.000000    0.000000    0.000000  -97.985305   32.239017   -5.554201  -40.178127
  0.049458918    0.000000    0.000000    0.000000    0.000000  -99.242581   32.124828   -5.576029  -41.941837
  0.049659319    0.000000    0.000000    0.000000    0.000000  -99.286801   26.298874   -5.603231  -43.673817
  0.049859719    0.000000    0.000000    0.000000    0.000000  -99.175105   35.458172   -5.625616  -45.391857
  0.050060120    0.000000    0.000000    0.000000    0.000000  -99.948849   34.043388   -5.647504  -47.127556
  0.050260521    0.000000    0.000000    0.000000    0.000000  -98.592154   33.084492   -5.667393  -48.850628
  0.050460922    0.000000    0.000000    0.000000    0.000000  -96.941724   32.484379   -5.687452  -50.537357
  0.050661323    0.000000    0.000000    0.000000    0.000000 -101.400654   33.629009   -5.702112  -52.255047
  0.050861723    0.000000    0.000000    0.000000    0.000000  -98.907818   26.558409   -5.718807  -53.930531
  0.051062124    0.000000    0.000000    0.000000    0.000000 -100.595623   27.757090   -5.735692  -55.603622
  0.051262525    0.000000    0.000000    0.000000    0.000000 -100.153308   32.612820   -5.756996  -57.239681
  0.051462926    0.000000    0.000000    0.000000    0.000000 -100.711433   36.893238   -5.772196  -58.869347
  0.051663327    0.000000    0.000000    0.000000    0.000000  -97.733926   42.927311   -5.788776  -60.483921
  0.051863727    0.000000    0.000000    0.000000    0.000000  -98.062620   30.017366   -5.803698  -62.113529
  0.052064128    0.000000    0.000000    0.000000    0.000000  -98.908038   20.797977   -5.819495  -63.706703
  0.052264529    0.000000    0.000000    0.000000    0.000000  -97.550897   38.214268   -5.824738  -65.325325
  0.052464930    0.000000    0.000000    0.000000    0.000000  -97.644138   36.984776   -5.838723  -66.907867
  0.052665331    0.000000    0.000000    0.000000    0.000000  -98.123514   23.841413   -5.853765  -68.480484
  0.052865731    0.000000    0.000000    0.000000    0.000000  -98.220406   26.262171   -5.867278  -70.023186
