! Anritsu VNA Master:                     Model: MS2036C/10/77
! SN:                                  1601066
! /bd0/18may10/255.ns.m6.s2p
! Existing Calibration Information:
! TYPE:                         Current Settings,       Active Cal Settings
! TIME:             	   05/10/2018 02:37:51 PM,    05/10/2018 02:31:48 PM
! INTERNAL TEMP:    	                   60.3 C,                    59.5 C
! # POINTS:         	                      492,                       492
! START FREQ:       	               20.000 MHz,                20.000 MHz
! STOP FREQ:        	          118.396 793 MHz,           118.396 793 MHz
! SOURCE POWER:     	                     High,                      High
! IFBW:             	                    50 Hz,                     50 Hz
! AVG FACTOR:       	                       1 ,                        1 
! REF PLANE 1:      	                     0 mm,                      0 mm
! REF PLANE 2:      	                     0 mm,                      0 mm
! CAL TYPE:         	                 Full S22,                  Full S22
! CAL METHOD:       	                     SOLT,                      SOLT
! CAL LINE TYPE:    	                     Coax,                      Coax
! DUT PORT 1:       	                K-Conn(M),                 K-Conn(M)
! DUT PORT 2:       	                K-Conn(M),                 K-Conn(M)
! CAL STATUS:       	        OK: Accuracy High,                        --
# GHZ S DB R 50.0
! FREQ.GHZ       S11DB        S11A       S21DB        S21A       S12DB        S12A       S22DB        S22A
  0.020000000    0.000000    0.000000    0.000000    0.000000  -89.725149   35.752434   -0.629951 -125.650192
  0.020200401    0.000000    0.000000    0.000000    0.000000  -89.614347   31.704311   -0.632558 -127.096504
  0.020400802    0.000000    0.000000    0.000000    0.000000  -90.286334   32.415611   -0.636302 -128.540710
  0.020601202    0.000000    0.000000    0.000000    0.000000  -90.465929   29.190542   -0.638183 -130.014252
  0.020801603    0.000000    0.000000    0.000000    0.000000  -91.105921   34.173500   -0.643141 -131.510529
  0.021002004    0.000000    0.000000    0.000000    0.000000  -91.192394   31.533129   -0.644683 -133.030380
  0.021202405    0.000000    0.000000    0.000000    0.000000  -91.439243   35.855740   -0.647560 -134.547302
  0.021402806    0.000000    0.000000    0.000000    0.000000  -92.014688   37.594349   -0.650205 -136.078125
  0.021603206    0.000000    0.000000    0.000000    0.000000  -91.572403   34.632076   -0.652902 -137.577286
  0.021803607    0.000000    0.000000    0.000000    0.000000  -91.330810   38.587215   -0.654098 -139.095413
  0.022004008    0.000000    0.000000    0.000000    0.000000  -92.046330   45.221176   -0.661504 -140.623138
  0.022204409    0.000000    0.000000    0.000000    0.000000  -91.948221   39.573814   -0.667021 -142.182892
  0.022404810    0.000000    0.000000    0.000000    0.000000  -91.748167   40.265831   -0.674239 -143.742920
  0.022605210    0.000000    0.000000    0.000000    0.000000  -91.486636   45.967438   -0.678359 -145.319077
  0.022805611    0.000000    0.000000    0.000000    0.000000  -91.697089   42.743042   -0.679287 -146.913101
  0.023006012    0.000000    0.000000    0.000000    0.000000  -91.915989   42.587410   -0.684135 -148.500397
  0.023206413    0.000000    0.000000    0.000000    0.000000  -91.702547   38.527245   -0.688478 -150.096924
  0.023406814    0.000000    0.000000    0.000000    0.000000  -91.071524   39.883831   -0.695931 -151.668350
  0.023607214    0.000000    0.000000    0.000000    0.000000  -90.777734   38.100033   -0.703239 -153.271576
  0.023807615    0.000000    0.000000    0.000000    0.000000  -91.421627   37.322193   -0.710085 -154.884705
  0.024008016    0.000000    0.000000    0.000000    0.000000  -90.980131   36.552307   -0.719293 -156.518082
  0.024208417    0.000000    0.000000    0.000000    0.000000  -91.174133   34.966022   -0.726582 -158.167480
  0.024408818    0.000000    0.000000    0.000000    0.000000  -91.203936   33.860348   -0.732860 -159.827194
  0.024609218    0.000000    0.000000    0.000000    0.000000  -91.098484   33.439323   -0.738234 -161.491409
  0.024809619    0.000000    0.000000    0.000000    0.000000  -90.875342   27.605865   -0.747281 -163.147354
  0.025010020    0.000000    0.000000    0.000000    0.000000  -91.644138   27.996603   -0.756714 -164.819687
  0.025210421    0.000000    0.000000    0.000000    0.000000  -92.071591   28.002882   -0.766806 -166.492645
  0.025410822    0.000000    0.000000    0.000000    0.000000  -91.838186   26.334162   -0.777825 -168.184784
  0.025611222    0.000000    0.000000    0.000000    0.000000  -92.212518   20.535763   -0.787700 -169.882858
  0.025811623    0.000000    0.000000    0.000000    0.000000  -92.710951   26.502390   -0.798286 -171.586639
  0.026012024    0.000000    0.000000    0.000000    0.000000  -92.680743   27.119663   -0.809124 -173.307861
  0.026212425    0.000000    0.000000    0.000000    0.000000  -92.887661   19.976715   -0.821477 -175.032135
  0.026412826    0.000000    0.000000    0.000000    0.000000  -93.175646   26.149027   -0.834252 -176.758423
  0.026613226    0.000000    0.000000    0.000000    0.000000  -93.820518   20.691664   -0.847270 -178.499695
  0.026813627    0.000000    0.000000    0.000000    0.000000  -94.320873   25.761740   -0.862260  179.745270
  0.027014028    0.000000    0.000000    0.000000    0.000000  -94.813272   28.128527   -0.879026  177.979584
  0.027214429    0.000000    0.000000    0.000000    0.000000  -94.021018   24.279957   -0.894312  176.226669
  0.027414830    0.000000    0.000000    0.000000    0.000000  -95.319176   34.455185   -0.912519  174.452438
  0.027615230    0.000000    0.000000    0.000000    0.000000  -94.604474   33.440746   -0.928782  172.666428
  0.027815631    0.000000    0.000000    0.000000    0.000000  -94.383047   32.018650   -0.948679  170.875137
  0.028016032    0.000000    0.000000    0.000000    0.000000  -95.166268   32.787342   -0.967786  169.057571
  0.028216433    0.000000    0.000000    0.000000    0.000000  -94.382396   33.538593   -0.988585  167.241287
  0.028416834    0.000000    0.000000    0.000000    0.000000  -94.194858   35.360123   -1.011201  165.412476
  0.028617234    0.000000    0.000000    0.000000    0.000000  -94.727863   28.393869   -1.033403  163.583603
  0.028817635    0.000000    0.000000    0.000000    0.000000  -94.161569   28.611708   -1.056685  161.743927
  0.029018036    0.000000    0.000000    0.000000    0.000000  -94.529949   30.667402   -1.080008  159.897629
  0.029218437    0.000000    0.000000    0.000000    0.000000  -94.179601   25.505377   -1.106652  158.048004
  0.029418838    0.000000    0.000000    0.000000    0.000000  -93.999644   30.591902   -1.133678  156.164337
  0.029619238    0.000000    0.000000    0.000000    0.000000  -94.143874   33.073280   -1.160313  154.273544
  0.029819639    0.000000    0.000000    0.000000    0.000000  -94.135770   31.599512   -1.189416  152.378723
  0.030020040    0.000000    0.000000    0.000000    0.000000  -93.660612   29.866682   -1.218782  150.473679
  0.030220441    0.000000    0.000000    0.000000    0.000000  -93.636602   26.082829   -1.247617  148.580673
  0.030420842    0.000000    0.000000    0.000000    0.000000  -93.875494   23.481737   -1.276488  146.679153
  0.030621242    0.000000    0.000000    0.000000    0.000000  -94.821325   26.959620   -1.307272  144.778183
  0.030821643    0.000000    0.000000    0.000000    0.000000  -94.465947   27.937132   -1.340769  142.879822
  0.031022044    0.000000    0.000000    0.000000    0.000000  -94.492846   23.430748   -1.373160  140.958038
  0.031222445    0.000000    0.000000    0.000000    0.000000  -94.358977   18.839186   -1.400151  139.033264
  0.031422846    0.000000    0.000000    0.000000    0.000000  -94.097850   20.024593   -1.431926  137.086151
  0.031623246    0.000000    0.000000    0.000000    0.000000  -94.244511   19.924664   -1.470134  135.126694
  0.031823647    0.000000    0.000000    0.000000    0.000000  -93.982200   13.706293   -1.504423  133.162506
  0.032024048    0.000000    0.000000    0.000000    0.000000  -94.458506   24.745989   -1.540355  131.204437
  0.032224449    0.000000    0.000000    0.000000    0.000000  -96.122220   17.956261   -1.576430  129.253250
  0.032424850    0.000000    0.000000    0.000000    0.000000  -96.976565   14.562824   -1.614342  127.280701
  0.032625250    0.000000    0.000000    0.000000    0.000000  -95.837530   19.613855   -1.650006  125.296021
  0.032825651    0.000000    0.000000    0.000000    0.000000  -96.616084   16.806669   -1.689209  123.295403
  0.033026052    0.000000    0.000000    0.000000    0.000000  -95.838840   17.483078   -1.726135  121.291206
  0.033226453    0.000000    0.000000    0.000000    0.000000  -95.612485   18.073013   -1.764232  119.291756
  0.033426854    0.000000    0.000000    0.000000    0.000000  -96.351402   19.241318   -1.802370  117.277420
  0.033627254    0.000000    0.000000    0.000000    0.000000  -96.076299   20.432421   -1.843399  115.277512
  0.033827655    0.000000    0.000000    0.000000    0.000000  -96.682991   18.568302   -1.884896  113.285248
  0.034028056    0.000000    0.000000    0.000000    0.000000  -95.691823   18.592739   -1.923744  111.269379
  0.034228457    0.000000    0.000000    0.000000    0.000000  -96.214279   17.741898   -1.966714  109.249535
  0.034428858    0.000000    0.000000    0.000000    0.000000  -97.292135   19.499741   -2.012327  107.203766
  0.034629258    0.000000    0.000000    0.000000    0.000000  -97.208986   27.767824   -2.057140  105.146385
  0.034829659    0.000000    0.000000    0.000000    0.000000  -96.395870   26.443321   -2.105080  103.097252
  0.035030060    0.000000    0.000000    0.000000    0.000000  -95.763095   31.930178   -2.153256  101.047630
  0.035230461    0.000000    0.000000    0.000000    0.000000  -96.186213   27.670647   -2.202479   98.985115
  0.035430862    0.000000    0.000000    0.000000    0.000000  -97.860564   25.418299   -2.251345   96.939491
  0.035631262    0.000000    0.000000    0.000000    0.000000  -96.212086   30.146338   -2.302824   94.865288
  0.035831663    0.000000    0.000000    0.000000    0.000000  -95.565591   21.546686   -2.356207   92.785530
  0.036032064    0.000000    0.000000    0.000000    0.000000  -96.199179   30.031891   -2.408518   90.708801
  0.036232465    0.000000    0.000000    0.000000    0.000000  -95.613840   23.415556   -2.461539   88.627464
  0.036432866    0.000000    0.000000    0.000000    0.000000  -95.789203   26.240145   -2.516223   86.533028
  0.036633266    0.000000    0.000000    0.000000    0.000000  -95.520543   22.642492   -2.569307   84.451599
  0.036833667    0.000000    0.000000    0.000000    0.000000  -95.899909   22.771236   -2.624236   82.366730
  0.037034068    0.000000    0.000000    0.000000    0.000000  -96.145230   22.450125   -2.680133   80.265884
  0.037234469    0.000000    0.000000    0.000000    0.000000  -97.080926   21.705919   -2.737574   78.175598
  0.037434870    0.000000    0.000000    0.000000    0.000000  -98.323240   18.097729   -2.792970   76.091675
  0.037635270    0.000000    0.000000    0.000000    0.000000  -97.360394   19.006325   -2.853089   74.008018
  0.037835671    0.000000    0.000000    0.000000    0.000000  -96.934660   30.239101   -2.909412   71.925438
  0.038036072    0.000000    0.000000    0.000000    0.000000  -96.187270   26.881769   -2.966953   69.821068
  0.038236473    0.000000    0.000000    0.000000    0.000000  -97.574667   20.423277   -3.026982   67.724670
  0.038436874    0.000000    0.000000    0.000000    0.000000  -98.430410   13.642665   -3.086450   65.617882
  0.038637274    0.000000    0.000000    0.000000    0.000000  -98.447254   21.148024   -3.143130   63.525391
  0.038837675    0.000000    0.000000    0.000000    0.000000  -97.481835   17.687876   -3.202842   61.440517
  0.039038076    0.000000    0.000000    0.000000    0.000000  -97.247786   24.726948   -3.256412   59.360069
  0.039238477    0.000000    0.000000    0.000000    0.000000  -98.196392   23.567513   -3.313444   57.304207
  0.039438878    0.000000    0.000000    0.000000    0.000000  -97.483922   26.075396   -3.369343   55.230949
  0.039639278    0.000000    0.000000    0.000000    0.000000  -98.389192   24.838270   -3.425053   53.167004
  0.039839679    0.000000    0.000000    0.000000    0.000000  -98.682026   28.767637   -3.482348   51.102974
  0.040040080    0.000000    0.000000    0.000000    0.000000  -96.867586   27.064507   -3.536443   49.044151
  0.040240481    0.000000    0.000000    0.000000    0.000000  -98.418844   27.361126   -3.591180   46.963108
  0.040440882    0.000000    0.000000    0.000000    0.000000  -97.760054   30.310177   -3.646742   44.912331
  0.040641283    0.000000    0.000000    0.000000    0.000000  -97.492036   25.697802   -3.699860   42.883743
  0.040841683    0.000000    0.000000    0.000000    0.000000  -97.088619   29.080412   -3.754986   40.858822
  0.041042084    0.000000    0.000000    0.000000    0.000000  -98.715023   30.186840   -3.811124   38.837112
  0.041242485    0.000000    0.000000    0.000000    0.000000  -96.264116   26.338785   -3.867294   36.805775
  0.041442886    0.000000    0.000000    0.000000    0.000000  -99.033069   34.701752   -3.922956   34.767212
  0.041643287    0.000000    0.000000    0.000000    0.000000  -97.264783   27.409977   -3.977896   32.715809
  0.041843687    0.000000    0.000000    0.000000    0.000000  -97.898006   28.698587   -4.032330   30.678480
  0.042044088    0.000000    0.000000    0.000000    0.000000  -97.962322   34.739582   -4.084632   28.647161
  0.042244489    0.000000    0.000000    0.000000    0.000000  -97.461445   28.506712   -4.136313   26.622931
  0.042444890    0.000000    0.000000    0.000000    0.000000  -97.432740   26.037737   -4.189186   24.620476
  0.042645291    0.000000    0.000000    0.000000    0.000000  -99.021200   22.532465   -4.243444   22.611597
  0.042845691    0.000000    0.000000    0.000000    0.000000  -97.953223   29.808311   -4.296383   20.598515
  0.043046092    0.000000    0.000000    0.000000    0.000000  -99.009971   26.736296   -4.347842   18.590971
  0.043246493    0.000000    0.000000    0.000000    0.000000  -97.068126   30.283028   -4.399843   16.593615
  0.043446894    0.000000    0.000000    0.000000    0.000000  -97.306681   25.458549   -4.446203   14.585181
  0.043647295    0.000000    0.000000    0.000000    0.000000  -98.629479   25.585381   -4.494933   12.583204
  0.043847695    0.000000    0.000000    0.000000    0.000000  -98.648184   33.958138   -4.542479   10.594171
  0.044048096    0.000000    0.000000    0.000000    0.000000  -98.670965   29.536741   -4.592541    8.629245
  0.044248497    0.000000    0.000000    0.000000    0.000000  -99.461943   37.009239   -4.637352    6.650125
  0.044448898    0.000000    0.000000    0.000000    0.000000  -99.303027   30.949854   -4.681972    4.707336
  0.044649299    0.000000    0.000000    0.000000    0.000000  -99.692298   31.355728   -4.726175    2.763108
  0.044849699    0.000000    0.000000    0.000000    0.000000  -99.069527   29.421230   -4.771563    0.832823
  0.045050100    0.000000    0.000000    0.000000    0.000000  -98.796750   34.283241   -4.814172   -1.110018
  0.045250501    0.000000    0.000000    0.000000    0.000000  -99.119337   24.924955   -4.853150   -3.044986
  0.045450902    0.000000    0.000000    0.000000    0.000000  -98.010513   31.145174   -4.893234   -4.940635
  0.045651303    0.000000    0.000000    0.000000    0.000000  -99.270071   29.537020   -4.935542   -6.851671
  0.045851703    0.000000    0.000000    0.000000    0.000000  -97.761338   23.572351   -4.974109   -8.747108
  0.046052104    0.000000    0.000000    0.000000    0.000000  -98.135462   26.470037   -5.011815  -10.636972
  0.046252505    0.000000    0.000000    0.000000    0.000000  -99.387689   37.490456   -5.049240  -12.492454
  0.046452906    0.000000    0.000000    0.000000    0.000000  -99.860681   33.444485   -5.086463  -14.347903
  0.046653307    0.000000    0.000000    0.000000    0.000000  -97.659108   34.362381   -5.121944  -16.191607
  0.046853707    0.000000    0.000000    0.000000    0.000000  -98.985662   32.408710   -5.158453  -18.057106
  0.047054108    0.000000    0.000000    0.000000    0.000000 -100.627449   42.090755   -5.190202  -19.895725
  0.047254509    0.000000    0.000000    0.000000    0.000000  -97.851329   27.300566   -5.225753  -21.741718
  0.047454910    0.000000    0.000000    0.000000    0.000000  -99.020374   24.352859   -5.257280  -23.572395
  0.047655311    0.000000    0.000000    0.000000    0.000000  -98.422368   30.792624   -5.290775  -25.388130
  0.047855711    0.000000    0.000000    0.000000    0.000000  -99.721842   23.670908   -5.321835  -27.180014
  0.048056112    0.000000    0.000000    0.000000    0.000000  -98.681968   38.511871   -5.358133  -28.972183
  0.048256513    0.000000    0.000000    0.000000    0.000000  -98.378937   33.349434   -5.389779  -30.755836
  0.048456914    0.000000    0.000000    0.000000    0.000000  -99.885997   25.903669   -5.421455  -32.567345
  0.048657315    0.000000    0.000000    0.000000    0.000000  -99.751873   35.537224   -5.449405  -34.333267
  0.048857715    0.000000    0.000000    0.000000    0.000000 -100.187020   31.388653   -5.477524  -36.123501
  0.049058116    0.000000    0.000000    0.000000    0.000000  -98.522854   29.927269   -5.504311  -37.891842
  0.049258517    0.000000    0.000000    0.000000    0.000000  -99.469370   22.449087   -5.528425  -39.671303
  0.049458918    0.000000    0.000000    0.000000    0.000000  -99.307254   33.786537   -5.553981  -41.407082
  0.049659319    0.000000    0.000000    0.000000    0.000000  -99.755494   23.917410   -5.580563  -43.140812
  0.049859719    0.000000    0.000000    0.000000    0.000000 -100.139851   45.999619   -5.605698  -44.865353
  0.050060120    0.000000    0.000000    0.000000    0.000000  -99.135885   33.583725   -5.630526  -46.568119
  0.050260521    0.000000    0.000000    0.000000    0.000000  -98.890124   27.766594   -5.649289  -48.305935
  0.050460922    0.000000    0.000000    0.000000    0.000000 -100.174414   29.373323   -5.669984  -50.008278
  0.050661323    0.000000    0.000000    0.000000    0.000000  -99.160581   39.699276   -5.687828  -51.710155
  0.050861723    0.000000    0.000000    0.000000    0.000000  -99.833688   35.862049   -5.706905  -53.382614
  0.051062124    0.000000    0.000000    0.000000    0.000000  -99.238897   35.010254   -5.723684  -55.058949
  0.051262525    0.000000    0.000000    0.000000    0.000000  -98.687109   33.248573   -5.742899  -56.705544
  0.051462926    0.000000    0.000000    0.000000    0.000000  -99.275049   36.775539   -5.761811  -58.342812
  0.051663327    0.000000    0.000000    0.000000    0.000000 -100.116660   32.438850   -5.777551  -59.959377
  0.051863727    0.000000    0.000000    0.000000    0.000000  -98.334362   30.901501   -5.793997  -61.587173
  0.052064128    0.000000    0.000000    0.000000    0.000000  -99.215013   40.673359   -5.807240  -63.190983
  0.052264529    0.000000    0.000000    0.000000    0.000000  -98.976794   26.790627   -5.818498  -64.773293
  0.052464930    0.000000    0.000000    0.000000    0.000000  -98.460860   30.401810   -5.832632  -66.379639
  0.052665331    0.000000    0.000000    0.000000    0.000000  -98.902477   26.317280   -5.845323  -67.948799
  0.052865731    0.000000    0.000000    0.000000    0.000000  -98.954126   26.904713   -5.862137  -69.491417
