! Anritsu VNA Master:                     Model: MS2036C/10/77
! SN:                                  1601066
! /bd0/18may09/b252.ns.m2.s2p
! Existing Calibration Information:
! TYPE:                         Current Settings,       Active Cal Settings
! TIME:             	   05/09/2018 09:47:26 PM,    05/09/2018 09:39:16 PM
! INTERNAL TEMP:    	                   49.3 C,                    49.8 C
! # POINTS:         	                      494,                       494
! START FREQ:       	               20.000 MHz,                20.000 MHz
! STOP FREQ:        	          118.797 594 MHz,           118.797 594 MHz
! SOURCE POWER:     	                     High,                      High
! IFBW:             	                    50 Hz,                     50 Hz
! AVG FACTOR:       	                       1 ,                        1 
! REF PLANE 1:      	                     0 mm,                      0 mm
! REF PLANE 2:      	                     0 mm,                      0 mm
! CAL TYPE:         	                 Full S22,                  Full S22
! CAL METHOD:       	                     SOLT,                      SOLT
! CAL LINE TYPE:    	                     Coax,                      Coax
! DUT PORT 1:       	                K-Conn(M),                 K-Conn(M)
! DUT PORT 2:       	                K-Conn(M),                 K-Conn(M)
! CAL STATUS:       	        OK: Accuracy High,                        --
# GHZ S DB R 50.0
! FREQ.GHZ       S11DB        S11A       S21DB        S21A       S12DB        S12A       S22DB        S22A
  0.020000000    0.000000    0.000000    0.000000    0.000000  -89.591623   35.141239   -0.617141 -125.309509
  0.020200401    0.000000    0.000000    0.000000    0.000000  -89.869317   31.304007   -0.620687 -126.744720
  0.020400802    0.000000    0.000000    0.000000    0.000000  -90.307818   33.525963   -0.622445 -128.189514
  0.020601202    0.000000    0.000000    0.000000    0.000000  -90.740327   34.150837   -0.628210 -129.666626
  0.020801603    0.000000    0.000000    0.000000    0.000000  -90.733181   37.067986   -0.631487 -131.164764
  0.021002004    0.000000    0.000000    0.000000    0.000000  -91.338339   39.366905   -0.633872 -132.670975
  0.021202405    0.000000    0.000000    0.000000    0.000000  -91.675664   36.786087   -0.637888 -134.174500
  0.021402806    0.000000    0.000000    0.000000    0.000000  -92.041771   38.604504   -0.639055 -135.677155
  0.021603206    0.000000    0.000000    0.000000    0.000000  -91.899827   39.130455   -0.641854 -137.174133
  0.021803607    0.000000    0.000000    0.000000    0.000000  -92.275309   36.852806   -0.647638 -138.655899
  0.022004008    0.000000    0.000000    0.000000    0.000000  -91.913234   40.289841   -0.653703 -140.169281
  0.022204409    0.000000    0.000000    0.000000    0.000000  -92.563182   44.044830   -0.661024 -141.693375
  0.022404810    0.000000    0.000000    0.000000    0.000000  -91.991218   41.878067   -0.665401 -143.246246
  0.022605210    0.000000    0.000000    0.000000    0.000000  -91.900690   45.637676   -0.671456 -144.807083
  0.022805611    0.000000    0.000000    0.000000    0.000000  -91.725116   43.556580   -0.672920 -146.363449
  0.023006012    0.000000    0.000000    0.000000    0.000000  -91.377410   44.570465   -0.678619 -147.917633
  0.023206413    0.000000    0.000000    0.000000    0.000000  -91.449694   42.297321   -0.682581 -149.477509
  0.023406814    0.000000    0.000000    0.000000    0.000000  -91.251116   40.363293   -0.688551 -151.019531
  0.023607214    0.000000    0.000000    0.000000    0.000000  -91.183085   40.545197   -0.695491 -152.596970
  0.023807615    0.000000    0.000000    0.000000    0.000000  -91.481118   39.037262   -0.707383 -154.187073
  0.024008016    0.000000    0.000000    0.000000    0.000000  -91.460370   40.054810   -0.713295 -155.809875
  0.024208417    0.000000    0.000000    0.000000    0.000000  -91.265672   33.641117   -0.721125 -157.443405
  0.024408818    0.000000    0.000000    0.000000    0.000000  -91.564676   39.349350   -0.725219 -159.084000
  0.024609218    0.000000    0.000000    0.000000    0.000000  -91.407419   35.255997   -0.732419 -160.724915
  0.024809619    0.000000    0.000000    0.000000    0.000000  -91.062849   31.576780   -0.740688 -162.357590
  0.025010020    0.000000    0.000000    0.000000    0.000000  -91.716819   32.763680   -0.750767 -164.010345
  0.025210421    0.000000    0.000000    0.000000    0.000000  -92.042353   29.477207   -0.761184 -165.669647
  0.025410822    0.000000    0.000000    0.000000    0.000000  -91.532436   31.493582   -0.772419 -167.345184
  0.025611222    0.000000    0.000000    0.000000    0.000000  -92.328263   24.156015   -0.782785 -169.041580
  0.025811623    0.000000    0.000000    0.000000    0.000000  -93.298284   27.031317   -0.794474 -170.731964
  0.026012024    0.000000    0.000000    0.000000    0.000000  -93.038808   23.546980   -0.804950 -172.453308
  0.026212425    0.000000    0.000000    0.000000    0.000000  -93.360520   26.088203   -0.814810 -174.161392
  0.026412826    0.000000    0.000000    0.000000    0.000000  -92.904876   25.366644   -0.829093 -175.887650
  0.026613226    0.000000    0.000000    0.000000    0.000000  -93.391717   27.613131   -0.843857 -177.617386
  0.026813627    0.000000    0.000000    0.000000    0.000000  -94.028944   28.806866   -0.859072 -179.360397
  0.027014028    0.000000    0.000000    0.000000    0.000000  -93.997182   23.051714   -0.875223  178.893448
  0.027214429    0.000000    0.000000    0.000000    0.000000  -93.937525   27.729727   -0.890914  177.145569
  0.027414830    0.000000    0.000000    0.000000    0.000000  -95.049365   31.038637   -0.909239  175.384430
  0.027615230    0.000000    0.000000    0.000000    0.000000  -94.173590   28.033247   -0.925573  173.596268
  0.027815631    0.000000    0.000000    0.000000    0.000000  -94.758128   32.749714   -0.945016  171.815765
  0.028016032    0.000000    0.000000    0.000000    0.000000  -94.962192   35.408760   -0.964036  170.013077
  0.028216433    0.000000    0.000000    0.000000    0.000000  -93.972748   31.850906   -0.986270  168.201691
  0.028416834    0.000000    0.000000    0.000000    0.000000  -94.319098   30.920813   -1.008804  166.384781
  0.028617234    0.000000    0.000000    0.000000    0.000000  -94.628687   27.243858   -1.031975  164.567581
  0.028817635    0.000000    0.000000    0.000000    0.000000  -94.086354   32.950645   -1.056060  162.757477
  0.029018036    0.000000    0.000000    0.000000    0.000000  -93.837138   34.243950   -1.082364  160.923950
  0.029218437    0.000000    0.000000    0.000000    0.000000  -93.961896   30.860546   -1.109678  159.074265
  0.029418838    0.000000    0.000000    0.000000    0.000000  -94.332567   33.470280   -1.138604  157.227219
  0.029619238    0.000000    0.000000    0.000000    0.000000  -94.304136   33.831032   -1.169193  155.358582
  0.029819639    0.000000    0.000000    0.000000    0.000000  -94.482808   31.155918   -1.198400  153.484543
  0.030020040    0.000000    0.000000    0.000000    0.000000  -94.457270   29.714403   -1.230458  151.603333
  0.030220441    0.000000    0.000000    0.000000    0.000000  -94.133275   28.372089   -1.261263  149.734039
  0.030420842    0.000000    0.000000    0.000000    0.000000  -93.860426   25.041735   -1.293251  147.858261
  0.030621242    0.000000    0.000000    0.000000    0.000000  -94.185115   28.121181   -1.326986  145.996552
  0.030821643    0.000000    0.000000    0.000000    0.000000  -94.233783   23.735142   -1.363240  144.118500
  0.031022044    0.000000    0.000000    0.000000    0.000000  -94.489129   23.446812   -1.397179  142.209717
  0.031222445    0.000000    0.000000    0.000000    0.000000  -93.848565   29.932669   -1.424453  140.350082
  0.031422846    0.000000    0.000000    0.000000    0.000000  -94.937672   21.431623   -1.458073  138.419678
  0.031623246    0.000000    0.000000    0.000000    0.000000  -94.093693   18.471062   -1.493261  136.505417
  0.031823647    0.000000    0.000000    0.000000    0.000000  -95.676767   21.029606   -1.526341  134.577255
  0.032024048    0.000000    0.000000    0.000000    0.000000  -95.366803   16.124830   -1.562760  132.654541
  0.032224449    0.000000    0.000000    0.000000    0.000000  -95.256229   18.853750   -1.596946  130.728653
  0.032424850    0.000000    0.000000    0.000000    0.000000  -95.852947   19.751312   -1.632177  128.792633
  0.032625250    0.000000    0.000000    0.000000    0.000000  -95.283938   21.210257   -1.666305  126.818718
  0.032825651    0.000000    0.000000    0.000000    0.000000  -95.309048   20.216080   -1.698994  124.805138
  0.033026052    0.000000    0.000000    0.000000    0.000000  -96.783784   17.861685   -1.735712  122.833549
  0.033226453    0.000000    0.000000    0.000000    0.000000  -97.499242   11.627408   -1.770166  120.797951
  0.033426854    0.000000    0.000000    0.000000    0.000000  -96.246298   19.169468   -1.805583  118.809380
  0.033627254    0.000000    0.000000    0.000000    0.000000  -96.721065   21.260794   -1.845824  116.803993
  0.033827655    0.000000    0.000000    0.000000    0.000000  -95.376346   26.875416   -1.883501  114.790634
  0.034028056    0.000000    0.000000    0.000000    0.000000  -95.939360   18.740776   -1.922587  112.767570
  0.034228457    0.000000    0.000000    0.000000    0.000000  -95.994658   25.894213   -1.965235  110.711899
  0.034428858    0.000000    0.000000    0.000000    0.000000  -96.583967   26.260752   -2.008054  108.654358
  0.034629258    0.000000    0.000000    0.000000    0.000000  -96.447090   27.333551   -2.050793  106.592941
  0.034829659    0.000000    0.000000    0.000000    0.000000  -95.904204   25.937145   -2.096888  104.517876
  0.035030060    0.000000    0.000000    0.000000    0.000000  -96.121372   27.899841   -2.143164  102.448128
  0.035230461    0.000000    0.000000    0.000000    0.000000  -97.112295   31.007835   -2.191706  100.384834
  0.035430862    0.000000    0.000000    0.000000    0.000000  -96.476465   28.626616   -2.240121   98.292679
  0.035631262    0.000000    0.000000    0.000000    0.000000  -96.598364   24.363754   -2.289287   96.215614
  0.035831663    0.000000    0.000000    0.000000    0.000000  -97.167021   23.405537   -2.338041   94.120750
  0.036032064    0.000000    0.000000    0.000000    0.000000  -96.902634   21.805990   -2.389640   92.030380
  0.036232465    0.000000    0.000000    0.000000    0.000000  -95.491920   20.022709   -2.439566   89.908760
  0.036432866    0.000000    0.000000    0.000000    0.000000  -96.854245   31.261564   -2.491542   87.808945
  0.036633266    0.000000    0.000000    0.000000    0.000000  -96.219297   19.691135   -2.545547   85.698509
  0.036833667    0.000000    0.000000    0.000000    0.000000  -97.480693   25.073975   -2.597863   83.567047
  0.037034068    0.000000    0.000000    0.000000    0.000000  -96.153303   17.978853   -2.655599   81.468185
  0.037234469    0.000000    0.000000    0.000000    0.000000  -96.090873   16.705997   -2.709914   79.324760
  0.037434870    0.000000    0.000000    0.000000    0.000000  -96.605006   26.871304   -2.763970   77.206131
  0.037635270    0.000000    0.000000    0.000000    0.000000  -97.645147   21.126230   -2.818382   75.092735
  0.037835671    0.000000    0.000000    0.000000    0.000000  -97.372037   16.401754   -2.881648   72.908806
  0.038036072    0.000000    0.000000    0.000000    0.000000  -97.632390   21.240685   -2.945385   70.756668
  0.038236473    0.000000    0.000000    0.000000    0.000000  -97.969778   15.513095   -3.014553   68.660378
  0.038436874    0.000000    0.000000    0.000000    0.000000  -97.273643   27.909538   -3.074057   66.591476
  0.038637274    0.000000    0.000000    0.000000    0.000000  -98.272699   25.654173   -3.132488   64.491440
  0.038837675    0.000000    0.000000    0.000000    0.000000  -98.367428   37.075943   -3.187269   62.371033
  0.039038076    0.000000    0.000000    0.000000    0.000000  -97.746068   27.893553   -3.241525   60.276318
  0.039238477    0.000000    0.000000    0.000000    0.000000  -97.822528   32.725403   -3.296553   58.171055
  0.039438878    0.000000    0.000000    0.000000    0.000000  -99.665496   22.415318   -3.355784   56.074444
  0.039639278    0.000000    0.000000    0.000000    0.000000  -99.105873   30.895842   -3.413151   53.950924
  0.039839679    0.000000    0.000000    0.000000    0.000000  -97.747493   29.020084   -3.470389   51.833683
  0.040040080    0.000000    0.000000    0.000000    0.000000  -98.253499   24.339361   -3.529492   49.723545
  0.040240481    0.000000    0.000000    0.000000    0.000000  -97.993510   27.190628   -3.583563   47.602467
  0.040440882    0.000000    0.000000    0.000000    0.000000  -97.470203   32.801228   -3.639810   45.517899
  0.040641283    0.000000    0.000000    0.000000    0.000000  -98.151290   32.459743   -3.698485   43.413391
  0.040841683    0.000000    0.000000    0.000000    0.000000  -98.131804   23.510818   -3.757331   41.343811
  0.041042084    0.000000    0.000000    0.000000    0.000000  -97.401718   32.050407   -3.814471   39.269184
  0.041242485    0.000000    0.000000    0.000000    0.000000  -98.352502   30.579887   -3.872871   37.172066
  0.041442886    0.000000    0.000000    0.000000    0.000000  -97.766184   21.985033   -3.930002   35.082676
  0.041643287    0.000000    0.000000    0.000000    0.000000  -99.257225   22.523590   -3.984305   32.972931
  0.041843687    0.000000    0.000000    0.000000    0.000000  -99.261854   27.928284   -4.041292   30.909895
  0.042044088    0.000000    0.000000    0.000000    0.000000  -99.677194   25.990513   -4.095246   28.827658
  0.042244489    0.000000    0.000000    0.000000    0.000000  -98.042711   32.189583   -4.153073   26.764191
  0.042444890    0.000000    0.000000    0.000000    0.000000  -98.686148   26.299412   -4.207204   24.708277
  0.042645291    0.000000    0.000000    0.000000    0.000000  -98.887664   28.228859   -4.265986   22.668041
  0.042845691    0.000000    0.000000    0.000000    0.000000  -97.964515   30.010389   -4.318249   20.607311
  0.043046092    0.000000    0.000000    0.000000    0.000000  -98.988978   28.091152   -4.372369   18.561167
  0.043246493    0.000000    0.000000    0.000000    0.000000  -98.064851   24.633680   -4.427111   16.503199
  0.043446894    0.000000    0.000000    0.000000    0.000000  -98.729815   27.828096   -4.475842   14.471640
  0.043647295    0.000000    0.000000    0.000000    0.000000  -99.216243   20.800135   -4.527272   12.433620
  0.043847695    0.000000    0.000000    0.000000    0.000000 -100.589872   27.870934   -4.579571   10.416990
  0.044048096    0.000000    0.000000    0.000000    0.000000  -98.642592   27.907854   -4.628683    8.409565
  0.044248497    0.000000    0.000000    0.000000    0.000000  -99.409642   26.332693   -4.681075    6.415165
  0.044448898    0.000000    0.000000    0.000000    0.000000  -99.419389   29.154858   -4.727591    4.439560
  0.044649299    0.000000    0.000000    0.000000    0.000000  -99.412692   37.162247   -4.777855    2.469888
  0.044849699    0.000000    0.000000    0.000000    0.000000  -99.022564   26.400885   -4.822541    0.496270
  0.045050100    0.000000    0.000000    0.000000    0.000000  -97.950853   25.464773   -4.868856   -1.479156
  0.045250501    0.000000    0.000000    0.000000    0.000000  -98.777843   31.180872   -4.916090   -3.409728
  0.045450902    0.000000    0.000000    0.000000    0.000000  -98.439151   30.477106   -4.959361   -5.347075
  0.045651303    0.000000    0.000000    0.000000    0.000000  -98.058346   35.956589   -5.004304   -7.272584
  0.045851703    0.000000    0.000000    0.000000    0.000000  -98.216754   37.254261   -5.043807   -9.183269
  0.046052104    0.000000    0.000000    0.000000    0.000000  -99.637638   38.092796   -5.084231  -11.083408
  0.046252505    0.000000    0.000000    0.000000    0.000000  -99.678172   34.574242   -5.125609  -12.975060
  0.046452906    0.000000    0.000000    0.000000    0.000000  -98.076810   28.804960   -5.164586  -14.850980
  0.046653307    0.000000    0.000000    0.000000    0.000000  -98.487151   38.775269   -5.203331  -16.733999
  0.046853707    0.000000    0.000000    0.000000    0.000000  -98.211935   31.277597   -5.236588  -18.597748
  0.047054108    0.000000    0.000000    0.000000    0.000000  -99.453157   31.736765   -5.271999  -20.490843
  0.047254509    0.000000    0.000000    0.000000    0.000000  -98.270208   32.147457   -5.305776  -22.351496
  0.047454910    0.000000    0.000000    0.000000    0.000000  -97.979285   29.914961   -5.335525  -24.189680
  0.047655311    0.000000    0.000000    0.000000    0.000000  -97.671050   23.169449   -5.366917  -26.022278
  0.047855711    0.000000    0.000000    0.000000    0.000000  -99.441357   37.076572   -5.399190  -27.810392
  0.048056112    0.000000    0.000000    0.000000    0.000000 -100.494415   27.527817   -5.429579  -29.621220
  0.048256513    0.000000    0.000000    0.000000    0.000000  -99.536224   27.689173   -5.458864  -31.424925
  0.048456914    0.000000    0.000000    0.000000    0.000000  -98.915162   22.038891   -5.486609  -33.220570
  0.048657315    0.000000    0.000000    0.000000    0.000000  -98.923274   27.207296   -5.509382  -35.005394
  0.048857715    0.000000    0.000000    0.000000    0.000000 -100.398049   37.581680   -5.535444  -36.809170
  0.049058116    0.000000    0.000000    0.000000    0.000000 -100.401343   38.932053   -5.559283  -38.584831
  0.049258517    0.000000    0.000000    0.000000    0.000000  -99.443838   34.372498   -5.582721  -40.329144
  0.049458918    0.000000    0.000000    0.000000    0.000000  -98.623181   40.851620   -5.603322  -42.045658
  0.049659319    0.000000    0.000000    0.000000    0.000000 -100.121129   34.938450   -5.628010  -43.738815
  0.049859719    0.000000    0.000000    0.000000    0.000000  -98.520750   39.903763   -5.652095  -45.478565
  0.050060120    0.000000    0.000000    0.000000    0.000000  -98.412896   44.713169   -5.672323  -47.198071
  0.050260521    0.000000    0.000000    0.000000    0.000000  -99.579352   28.577316   -5.688977  -48.875313
  0.050460922    0.000000    0.000000    0.000000    0.000000  -99.190106   33.258816   -5.708151  -50.586742
  0.050661323    0.000000    0.000000    0.000000    0.000000  -99.499016   38.541294   -5.724326  -52.259674
  0.050861723    0.000000    0.000000    0.000000    0.000000  -98.416161   34.964996   -5.741166  -53.913151
  0.051062124    0.000000    0.000000    0.000000    0.000000  -98.914467   42.333145   -5.761652  -55.567482
  0.051262525    0.000000    0.000000    0.000000    0.000000  -99.855063   37.715107   -5.778503  -57.208973
  0.051462926    0.000000    0.000000    0.000000    0.000000  -99.178319   36.822861   -5.794067  -58.838577
  0.051663327    0.000000    0.000000    0.000000    0.000000  -98.173022   35.174625   -5.808590  -60.475124
  0.051863727    0.000000    0.000000    0.000000    0.000000  -99.719985   36.159672   -5.824911  -62.099472
  0.052064128    0.000000    0.000000    0.000000    0.000000  -99.439131   37.017029   -5.835648  -63.707809
  0.052264529    0.000000    0.000000    0.000000    0.000000  -98.244013   34.544773   -5.841604  -65.328140
  0.052464930    0.000000    0.000000    0.000000    0.000000  -98.000556   31.491426   -5.854777  -66.906799
  0.052665331    0.000000    0.000000    0.000000    0.000000  -98.711745   31.556549   -5.870306  -68.489105
  0.052865731    0.000000    0.000000    0.000000    0.000000 -100.560711   32.280380   -5.883912  -70.045670
