! Anritsu VNA Master:                     Model: MS2036C/10/77
! SN:                                  1601066
! /bd0/18may09/b252.ns.m1.s2p
! Existing Calibration Information:
! TYPE:                         Current Settings,       Active Cal Settings
! TIME:             	   05/09/2018 09:44:30 PM,    05/09/2018 09:39:16 PM
! INTERNAL TEMP:    	                   49.5 C,                    49.8 C
! # POINTS:         	                      494,                       494
! START FREQ:       	               20.000 MHz,                20.000 MHz
! STOP FREQ:        	          118.797 594 MHz,           118.797 594 MHz
! SOURCE POWER:     	                     High,                      High
! IFBW:             	                    50 Hz,                     50 Hz
! AVG FACTOR:       	                       1 ,                        1 
! REF PLANE 1:      	                     0 mm,                      0 mm
! REF PLANE 2:      	                     0 mm,                      0 mm
! CAL TYPE:         	                 Full S22,                  Full S22
! CAL METHOD:       	                     SOLT,                      SOLT
! CAL LINE TYPE:    	                     Coax,                      Coax
! DUT PORT 1:       	                K-Conn(M),                 K-Conn(M)
! DUT PORT 2:       	                K-Conn(M),                 K-Conn(M)
! CAL STATUS:       	        OK: Accuracy High,                        --
# GHZ S DB R 50.0
! FREQ.GHZ       S11DB        S11A       S21DB        S21A       S12DB        S12A       S22DB        S22A
  0.020000000    0.000000    0.000000    0.000000    0.000000  -89.680027   37.648254   -0.611710 -125.308167
  0.020200401    0.000000    0.000000    0.000000    0.000000  -89.655228   31.964571   -0.616728 -126.749886
  0.020400802    0.000000    0.000000    0.000000    0.000000  -90.010553   30.537939   -0.619427 -128.190933
  0.020601202    0.000000    0.000000    0.000000    0.000000  -91.000542   33.664410   -0.624808 -129.674500
  0.020801603    0.000000    0.000000    0.000000    0.000000  -91.051110   34.589279   -0.629370 -131.164841
  0.021002004    0.000000    0.000000    0.000000    0.000000  -91.287655   36.384850   -0.632026 -132.673904
  0.021202405    0.000000    0.000000    0.000000    0.000000  -91.009666   32.257767   -0.635720 -134.168701
  0.021402806    0.000000    0.000000    0.000000    0.000000  -91.768030   36.336124   -0.637526 -135.674332
  0.021603206    0.000000    0.000000    0.000000    0.000000  -91.446387   35.423607   -0.640602 -137.164963
  0.021803607    0.000000    0.000000    0.000000    0.000000  -91.518893   42.025726   -0.646039 -138.658020
  0.022004008    0.000000    0.000000    0.000000    0.000000  -91.833937   41.752846   -0.653315 -140.170456
  0.022204409    0.000000    0.000000    0.000000    0.000000  -91.453895   42.242638   -0.660244 -141.683975
  0.022404810    0.000000    0.000000    0.000000    0.000000  -91.666409   42.087261   -0.663445 -143.245316
  0.022605210    0.000000    0.000000    0.000000    0.000000  -91.418785   48.350338   -0.669927 -144.806854
  0.022805611    0.000000    0.000000    0.000000    0.000000  -91.548240   42.632774   -0.672835 -146.357361
  0.023006012    0.000000    0.000000    0.000000    0.000000  -91.754851   41.892551   -0.678520 -147.914627
  0.023206413    0.000000    0.000000    0.000000    0.000000  -91.399159   45.076008   -0.684029 -149.477493
  0.023406814    0.000000    0.000000    0.000000    0.000000  -90.865002   43.899086   -0.688502 -151.024963
  0.023607214    0.000000    0.000000    0.000000    0.000000  -91.853840   38.859680   -0.695323 -152.595657
  0.023807615    0.000000    0.000000    0.000000    0.000000  -91.406292   39.506714   -0.706291 -154.185715
  0.024008016    0.000000    0.000000    0.000000    0.000000  -91.715748   39.347141   -0.712611 -155.803177
  0.024208417    0.000000    0.000000    0.000000    0.000000  -90.767081   35.991245   -0.720389 -157.438995
  0.024408818    0.000000    0.000000    0.000000    0.000000  -91.129702   36.518974   -0.725153 -159.071365
  0.024609218    0.000000    0.000000    0.000000    0.000000  -91.516389   31.210361   -0.732904 -160.709534
  0.024809619    0.000000    0.000000    0.000000    0.000000  -91.631698   33.366814   -0.741672 -162.344452
  0.025010020    0.000000    0.000000    0.000000    0.000000  -91.531989   28.126558   -0.750102 -163.992569
  0.025210421    0.000000    0.000000    0.000000    0.000000  -91.729456   28.224398   -0.760375 -165.657578
  0.025410822    0.000000    0.000000    0.000000    0.000000  -92.246107   28.604055   -0.772695 -167.326981
  0.025611222    0.000000    0.000000    0.000000    0.000000  -92.534001   27.995794   -0.783153 -169.020493
  0.025811623    0.000000    0.000000    0.000000    0.000000  -92.753903   21.518009   -0.795250 -170.715790
  0.026012024    0.000000    0.000000    0.000000    0.000000  -92.583619   27.887987   -0.805133 -172.418900
  0.026212425    0.000000    0.000000    0.000000    0.000000  -92.962417   27.902397   -0.816091 -174.138275
  0.026412826    0.000000    0.000000    0.000000    0.000000  -92.822503   23.960318   -0.830942 -175.860474
  0.026613226    0.000000    0.000000    0.000000    0.000000  -93.430930   26.246603   -0.845638 -177.587082
  0.026813627    0.000000    0.000000    0.000000    0.000000  -94.342476   18.582705   -0.859981 -179.337067
  0.027014028    0.000000    0.000000    0.000000    0.000000  -94.745491   25.390392   -0.876435  178.920410
  0.027214429    0.000000    0.000000    0.000000    0.000000  -93.785188   28.571941   -0.893057  177.176819
  0.027414830    0.000000    0.000000    0.000000    0.000000  -94.314825   32.382080   -0.911134  175.407288
  0.027615230    0.000000    0.000000    0.000000    0.000000  -94.865834   27.263159   -0.929472  173.619766
  0.027815631    0.000000    0.000000    0.000000    0.000000  -94.059994   27.255850   -0.947279  171.837906
  0.028016032    0.000000    0.000000    0.000000    0.000000  -94.438096   29.601080   -0.968033  170.039124
  0.028216433    0.000000    0.000000    0.000000    0.000000  -94.784570   31.747475   -0.990696  168.230667
  0.028416834    0.000000    0.000000    0.000000    0.000000  -94.199884   33.922989   -1.013311  166.411041
  0.028617234    0.000000    0.000000    0.000000    0.000000  -94.241439   32.308556   -1.036170  164.591934
  0.028817635    0.000000    0.000000    0.000000    0.000000  -94.100490   31.701916   -1.059722  162.777725
  0.029018036    0.000000    0.000000    0.000000    0.000000  -93.843686   28.125509   -1.085974  160.952347
  0.029218437    0.000000    0.000000    0.000000    0.000000  -94.438009   33.277111   -1.112961  159.107391
  0.029418838    0.000000    0.000000    0.000000    0.000000  -94.374923   33.065132   -1.142459  157.254868
  0.029619238    0.000000    0.000000    0.000000    0.000000  -94.029910   30.823561   -1.172059  155.384384
  0.029819639    0.000000    0.000000    0.000000    0.000000  -94.398142   27.478886   -1.201948  153.516754
  0.030020040    0.000000    0.000000    0.000000    0.000000  -94.189469   27.984310   -1.232744  151.628876
  0.030220441    0.000000    0.000000    0.000000    0.000000  -94.366174   29.768341   -1.264205  149.763763
  0.030420842    0.000000    0.000000    0.000000    0.000000  -93.923708   25.593210   -1.296629  147.894775
  0.030621242    0.000000    0.000000    0.000000    0.000000  -93.881853   26.058731   -1.330683  146.024948
  0.030821643    0.000000    0.000000    0.000000    0.000000  -93.989447   27.195387   -1.366605  144.145630
  0.031022044    0.000000    0.000000    0.000000    0.000000  -94.460682   19.456556   -1.400601  142.247314
  0.031222445    0.000000    0.000000    0.000000    0.000000  -94.437317   20.067984   -1.428125  140.380188
  0.031422846    0.000000    0.000000    0.000000    0.000000  -94.756337   24.196207   -1.462917  138.452164
  0.031623246    0.000000    0.000000    0.000000    0.000000  -94.288802   20.176989   -1.497325  136.540024
  0.031823647    0.000000    0.000000    0.000000    0.000000  -94.476291   18.767870   -1.530341  134.612381
  0.032024048    0.000000    0.000000    0.000000    0.000000  -95.255887   17.555147   -1.566533  132.691116
  0.032224449    0.000000    0.000000    0.000000    0.000000  -94.997209   18.385590   -1.601542  130.771240
  0.032424850    0.000000    0.000000    0.000000    0.000000  -95.707785   16.295763   -1.635262  128.820618
  0.032625250    0.000000    0.000000    0.000000    0.000000  -95.553422   19.091297   -1.668893  126.849892
  0.032825651    0.000000    0.000000    0.000000    0.000000  -95.616599   20.035801   -1.703711  124.844612
  0.033026052    0.000000    0.000000    0.000000    0.000000  -95.627680   23.801186   -1.738959  122.861542
  0.033226453    0.000000    0.000000    0.000000    0.000000  -97.177307   20.920263   -1.774967  120.839912
  0.033426854    0.000000    0.000000    0.000000    0.000000  -97.038879   22.673578   -1.809700  118.843010
  0.033627254    0.000000    0.000000    0.000000    0.000000  -96.147906   24.871664   -1.850032  116.840675
  0.033827655    0.000000    0.000000    0.000000    0.000000  -96.120203   23.353107   -1.887901  114.816750
  0.034028056    0.000000    0.000000    0.000000    0.000000  -96.150806   26.312405   -1.926820  112.794342
  0.034228457    0.000000    0.000000    0.000000    0.000000  -97.063103   26.170988   -1.969307  110.741425
  0.034428858    0.000000    0.000000    0.000000    0.000000  -96.243570   32.035690   -2.011643  108.687820
  0.034629258    0.000000    0.000000    0.000000    0.000000  -96.667432   26.228205   -2.054445  106.617546
  0.034829659    0.000000    0.000000    0.000000    0.000000  -95.925477   25.048128   -2.100170  104.548050
  0.035030060    0.000000    0.000000    0.000000    0.000000  -97.325292   27.896875   -2.145439  102.478790
  0.035230461    0.000000    0.000000    0.000000    0.000000  -95.887017   22.564356   -2.195086  100.410446
  0.035430862    0.000000    0.000000    0.000000    0.000000  -95.665184   23.602030   -2.244103   98.322746
  0.035631262    0.000000    0.000000    0.000000    0.000000  -95.719167   28.312408   -2.293073   96.240463
  0.035831663    0.000000    0.000000    0.000000    0.000000  -96.187976   25.250492   -2.341079   94.153458
  0.036032064    0.000000    0.000000    0.000000    0.000000  -96.150506   26.677502   -2.392270   92.058472
  0.036232465    0.000000    0.000000    0.000000    0.000000  -96.472997   26.399044   -2.442206   89.936111
  0.036432866    0.000000    0.000000    0.000000    0.000000  -96.680981   24.843868   -2.493583   87.845566
  0.036633266    0.000000    0.000000    0.000000    0.000000  -97.131002   21.173679   -2.548389   85.734901
  0.036833667    0.000000    0.000000    0.000000    0.000000  -97.121664   18.991579   -2.600184   83.603035
  0.037034068    0.000000    0.000000    0.000000    0.000000  -96.250327   23.878965   -2.658423   81.505432
  0.037234469    0.000000    0.000000    0.000000    0.000000  -97.334290   19.484150   -2.713327   79.375412
  0.037434870    0.000000    0.000000    0.000000    0.000000  -96.343117   27.116882   -2.766946   77.251434
  0.037635270    0.000000    0.000000    0.000000    0.000000  -96.429138   23.041229   -2.822265   75.142204
  0.037835671    0.000000    0.000000    0.000000    0.000000  -97.355654   20.330830   -2.885035   72.957077
  0.038036072    0.000000    0.000000    0.000000    0.000000  -96.863162   21.019712   -2.949600   70.808830
  0.038236473    0.000000    0.000000    0.000000    0.000000  -98.946367   24.771156   -3.018783   68.708679
  0.038436874    0.000000    0.000000    0.000000    0.000000  -97.029015   21.978746   -3.078100   66.641853
  0.038637274    0.000000    0.000000    0.000000    0.000000  -96.734982   26.155191   -3.136068   64.545380
  0.038837675    0.000000    0.000000    0.000000    0.000000  -98.788007   32.409355   -3.190627   62.417137
  0.039038076    0.000000    0.000000    0.000000    0.000000  -97.757870   19.240019   -3.246275   60.320160
  0.039238477    0.000000    0.000000    0.000000    0.000000  -98.062287   25.458275   -3.301243   58.225395
  0.039438878    0.000000    0.000000    0.000000    0.000000  -99.185562   26.986958   -3.361278   56.122944
  0.039639278    0.000000    0.000000    0.000000    0.000000  -98.140201   25.886580   -3.418175   53.998940
  0.039839679    0.000000    0.000000    0.000000    0.000000  -97.680893   26.726912   -3.475426   51.883327
  0.040040080    0.000000    0.000000    0.000000    0.000000  -97.110474   21.010447   -3.534016   49.764790
  0.040240481    0.000000    0.000000    0.000000    0.000000  -97.608351   27.076248   -3.590191   47.663380
  0.040440882    0.000000    0.000000    0.000000    0.000000  -97.550350   31.311909   -3.645250   45.561558
  0.040641283    0.000000    0.000000    0.000000    0.000000  -97.695606   31.090937   -3.701585   43.469364
  0.040841683    0.000000    0.000000    0.000000    0.000000  -97.919433   20.901705   -3.760908   41.391190
  0.041042084    0.000000    0.000000    0.000000    0.000000  -97.800452   33.067780   -3.817833   39.321686
  0.041242485    0.000000    0.000000    0.000000    0.000000  -96.782755   23.828167   -3.876814   37.219673
  0.041442886    0.000000    0.000000    0.000000    0.000000  -98.446805   28.843769   -3.932526   35.133255
  0.041643287    0.000000    0.000000    0.000000    0.000000  -98.098093   34.049843   -3.988199   33.036751
  0.041843687    0.000000    0.000000    0.000000    0.000000  -97.894061   26.371868   -4.044117   30.963837
  0.042044088    0.000000    0.000000    0.000000    0.000000  -97.727027   28.045364   -4.099735   28.880669
  0.042244489    0.000000    0.000000    0.000000    0.000000  -97.396269   24.741673   -4.155946   26.812592
  0.042444890    0.000000    0.000000    0.000000    0.000000  -99.746868   23.520226   -4.210970   24.757509
  0.042645291    0.000000    0.000000    0.000000    0.000000  -98.557191   32.958488   -4.266862   22.714909
  0.042845691    0.000000    0.000000    0.000000    0.000000  -98.682340   18.798813   -4.322278   20.669069
  0.043046092    0.000000    0.000000    0.000000    0.000000  -98.774250   29.895882   -4.376589   18.622944
  0.043246493    0.000000    0.000000    0.000000    0.000000  -98.231623   29.233135   -4.430489   16.565247
  0.043446894    0.000000    0.000000    0.000000    0.000000  -98.769451   25.893114   -4.478958   14.528188
  0.043647295    0.000000    0.000000    0.000000    0.000000  -98.480422   22.047037   -4.530579   12.499922
  0.043847695    0.000000    0.000000    0.000000    0.000000  -98.936615   28.739712   -4.582141   10.478167
  0.044048096    0.000000    0.000000    0.000000    0.000000  -99.170259   27.805193   -4.632219    8.481132
  0.044248497    0.000000    0.000000    0.000000    0.000000  -98.882919   24.771818   -4.682850    6.485616
  0.044448898    0.000000    0.000000    0.000000    0.000000  -99.284686   39.233681   -4.731438    4.505283
  0.044649299    0.000000    0.000000    0.000000    0.000000  -98.996767   27.046051   -4.779200    2.524069
  0.044849699    0.000000    0.000000    0.000000    0.000000 -100.134783   22.161671   -4.826796    0.560301
  0.045050100    0.000000    0.000000    0.000000    0.000000  -98.933048   30.657633   -4.872588   -1.403068
  0.045250501    0.000000    0.000000    0.000000    0.000000  -99.270491   34.843700   -4.917881   -3.336251
  0.045450902    0.000000    0.000000    0.000000    0.000000  -97.464225   28.993628   -4.962209   -5.272056
  0.045651303    0.000000    0.000000    0.000000    0.000000  -98.923772   22.655212   -5.006416   -7.209054
  0.045851703    0.000000    0.000000    0.000000    0.000000  -98.519947   35.553932   -5.047409   -9.125307
  0.046052104    0.000000    0.000000    0.000000    0.000000  -98.865725   27.188841   -5.087278  -11.031034
  0.046252505    0.000000    0.000000    0.000000    0.000000  -98.280714   24.226759   -5.128913  -12.894985
  0.046452906    0.000000    0.000000    0.000000    0.000000  -98.504362   32.146339   -5.166011  -14.790301
  0.046653307    0.000000    0.000000    0.000000    0.000000  -98.082851   33.192738   -5.203802  -16.669592
  0.046853707    0.000000    0.000000    0.000000    0.000000  -97.571225   26.407429   -5.238483  -18.531584
  0.047054108    0.000000    0.000000    0.000000    0.000000  -97.936250   34.829350   -5.272465  -20.423656
  0.047254509    0.000000    0.000000    0.000000    0.000000  -99.015774   27.522011   -5.306946  -22.280161
  0.047454910    0.000000    0.000000    0.000000    0.000000 -100.878847   28.572197   -5.337513  -24.109436
  0.047655311    0.000000    0.000000    0.000000    0.000000  -99.775974   25.820246   -5.369139  -25.948063
  0.047855711    0.000000    0.000000    0.000000    0.000000  -99.457567   28.598326   -5.399417  -27.739323
  0.048056112    0.000000    0.000000    0.000000    0.000000  -99.235206   30.736935   -5.429344  -29.550663
  0.048256513    0.000000    0.000000    0.000000    0.000000 -100.130860   35.372513   -5.460854  -31.345856
  0.048456914    0.000000    0.000000    0.000000    0.000000  -98.644815   28.180559   -5.487888  -33.140327
  0.048657315    0.000000    0.000000    0.000000    0.000000  -98.940044   30.353914   -5.512082  -34.924099
  0.048857715    0.000000    0.000000    0.000000    0.000000  -98.336204   33.616550   -5.536451  -36.728764
  0.049058116    0.000000    0.000000    0.000000    0.000000  -99.669858   21.442051   -5.561081  -38.507160
  0.049258517    0.000000    0.000000    0.000000    0.000000  -98.668881   30.600548   -5.584636  -40.243290
  0.049458918    0.000000    0.000000    0.000000    0.000000  -98.899706   27.896494   -5.604948  -41.979897
  0.049659319    0.000000    0.000000    0.000000    0.000000  -99.250823   33.059010   -5.630738  -43.674335
  0.049859719    0.000000    0.000000    0.000000    0.000000  -98.828955   39.870724   -5.653293  -45.401264
  0.050060120    0.000000    0.000000    0.000000    0.000000 -100.503528   32.397648   -5.673136  -47.113667
  0.050260521    0.000000    0.000000    0.000000    0.000000  -99.634418   37.572636   -5.693274  -48.802471
  0.050460922    0.000000    0.000000    0.000000    0.000000 -100.526963   35.786716   -5.708710  -50.523876
  0.050661323    0.000000    0.000000    0.000000    0.000000 -100.113639   41.452480   -5.724235  -52.186581
  0.050861723    0.000000    0.000000    0.000000    0.000000  -99.541148   35.964127   -5.743632  -53.849216
  0.051062124    0.000000    0.000000    0.000000    0.000000  -99.011636   43.104244   -5.762091  -55.516262
  0.051262525    0.000000    0.000000    0.000000    0.000000  -98.225899   36.327312   -5.780670  -57.153198
  0.051462926    0.000000    0.000000    0.000000    0.000000  -98.406549   24.289787   -5.794572  -58.786961
  0.051663327    0.000000    0.000000    0.000000    0.000000  -97.426400   31.006426   -5.807970  -60.421650
  0.051863727    0.000000    0.000000    0.000000    0.000000  -99.280644   41.907116   -5.822593  -62.044312
  0.052064128    0.000000    0.000000    0.000000    0.000000  -99.393664   30.607525   -5.833536  -63.658642
  0.052264529    0.000000    0.000000    0.000000    0.000000  -99.674973   29.807943   -5.842912  -65.279449
  0.052464930    0.000000    0.000000    0.000000    0.000000  -97.876721   40.072266   -5.854647  -66.870979
  0.052665331    0.000000    0.000000    0.000000    0.000000  -99.572243   29.535149   -5.868430  -68.439026
  0.052865731    0.000000    0.000000    0.000000    0.000000  -98.899099   34.241089   -5.880237  -69.996162
