! Anritsu VNA Master:                     Model: MS2036C/10/77
! SN:                                  1601066
! /bd0/18may09/b252.ew.m2.s2p
! Existing Calibration Information:
! TYPE:                         Current Settings,       Active Cal Settings
! TIME:             	   05/09/2018 09:26:19 PM,    05/09/2018 09:20:00 PM
! INTERNAL TEMP:    	                   50.5 C,                    51.0 C
! # POINTS:         	                      494,                       494
! START FREQ:       	               20.000 MHz,                20.000 MHz
! STOP FREQ:        	          118.797 594 MHz,           118.797 594 MHz
! SOURCE POWER:     	                     High,                      High
! IFBW:             	                    50 Hz,                     50 Hz
! AVG FACTOR:       	                       1 ,                        1 
! REF PLANE 1:      	                     0 mm,                      0 mm
! REF PLANE 2:      	                     0 mm,                      0 mm
! CAL TYPE:         	                 Full S22,                  Full S22
! CAL METHOD:       	                     SOLT,                      SOLT
! CAL LINE TYPE:    	                     Coax,                      Coax
! DUT PORT 1:       	                K-Conn(M),                 K-Conn(M)
! DUT PORT 2:       	                K-Conn(M),                 K-Conn(M)
! CAL STATUS:       	        OK: Accuracy High,                        --
# GHZ S DB R 50.0
! FREQ.GHZ       S11DB        S11A       S21DB        S21A       S12DB        S12A       S22DB        S22A
  0.020000000    0.000000    0.000000    0.000000    0.000000  -89.344440   36.004227   -0.612360 -125.609047
  0.020200401    0.000000    0.000000    0.000000    0.000000  -89.756652   34.062798   -0.614489 -127.045113
  0.020400802    0.000000    0.000000    0.000000    0.000000  -90.436184   34.585842   -0.617135 -128.522125
  0.020601202    0.000000    0.000000    0.000000    0.000000  -90.507978   31.271690   -0.620752 -130.007004
  0.020801603    0.000000    0.000000    0.000000    0.000000  -90.944036   30.110842   -0.624490 -131.510696
  0.021002004    0.000000    0.000000    0.000000    0.000000  -91.252912   32.582710   -0.625886 -133.040604
  0.021202405    0.000000    0.000000    0.000000    0.000000  -91.381088   37.594196   -0.630593 -134.567444
  0.021402806    0.000000    0.000000    0.000000    0.000000  -91.371463   34.903408   -0.632233 -136.085739
  0.021603206    0.000000    0.000000    0.000000    0.000000  -92.005598   40.354023   -0.633520 -137.605652
  0.021803607    0.000000    0.000000    0.000000    0.000000  -91.853730   40.981514   -0.636695 -139.129410
  0.022004008    0.000000    0.000000    0.000000    0.000000  -91.650608   40.278255   -0.642148 -140.672165
  0.022204409    0.000000    0.000000    0.000000    0.000000  -91.798952   41.305038   -0.646204 -142.226746
  0.022404810    0.000000    0.000000    0.000000    0.000000  -91.797619   44.585732   -0.653227 -143.790344
  0.022605210    0.000000    0.000000    0.000000    0.000000  -91.410061   44.026890   -0.659164 -145.371841
  0.022805611    0.000000    0.000000    0.000000    0.000000  -91.017140   44.665123   -0.659345 -146.970566
  0.023006012    0.000000    0.000000    0.000000    0.000000  -91.478878   44.120022   -0.663180 -148.550690
  0.023206413    0.000000    0.000000    0.000000    0.000000  -91.017881   42.437145   -0.667265 -150.153152
  0.023406814    0.000000    0.000000    0.000000    0.000000  -91.778873   39.490936   -0.673155 -151.740295
  0.023607214    0.000000    0.000000    0.000000    0.000000  -91.110998   40.694672   -0.681261 -153.326782
  0.023807615    0.000000    0.000000    0.000000    0.000000  -90.874441   39.640251   -0.691023 -154.950684
  0.024008016    0.000000    0.000000    0.000000    0.000000  -91.722037   39.200481   -0.699998 -156.587448
  0.024208417    0.000000    0.000000    0.000000    0.000000  -91.092347   37.938507   -0.706962 -158.242020
  0.024408818    0.000000    0.000000    0.000000    0.000000  -91.015392   35.641323   -0.713391 -159.912521
  0.024609218    0.000000    0.000000    0.000000    0.000000  -91.360098   33.177937   -0.721384 -161.568405
  0.024809619    0.000000    0.000000    0.000000    0.000000  -91.492279   30.838158   -0.730957 -163.229675
  0.025010020    0.000000    0.000000    0.000000    0.000000  -91.690158   29.713379   -0.741824 -164.903397
  0.025210421    0.000000    0.000000    0.000000    0.000000  -91.880613   29.228920   -0.753793 -166.585342
  0.025410822    0.000000    0.000000    0.000000    0.000000  -92.305803   29.874178   -0.765360 -168.266525
  0.025611222    0.000000    0.000000    0.000000    0.000000  -92.151171   23.442080   -0.777302 -169.977127
  0.025811623    0.000000    0.000000    0.000000    0.000000  -92.381581   25.653879   -0.789390 -171.705978
  0.026012024    0.000000    0.000000    0.000000    0.000000  -92.928046   24.918089   -0.799822 -173.425049
  0.026212425    0.000000    0.000000    0.000000    0.000000  -92.992518   21.539768   -0.812979 -175.163025
  0.026412826    0.000000    0.000000    0.000000    0.000000  -93.476544   25.781935   -0.827501 -176.908813
  0.026613226    0.000000    0.000000    0.000000    0.000000  -94.094739   25.229504   -0.841931 -178.661377
  0.026813627    0.000000    0.000000    0.000000    0.000000  -93.935710   27.140251   -0.858382  179.579895
  0.027014028    0.000000    0.000000    0.000000    0.000000  -93.842677   27.106979   -0.874057  177.814163
  0.027214429    0.000000    0.000000    0.000000    0.000000  -94.147983   29.687614   -0.890459  176.041748
  0.027414830    0.000000    0.000000    0.000000    0.000000  -94.013477   28.477819   -0.908677  174.253021
  0.027615230    0.000000    0.000000    0.000000    0.000000  -95.091782   29.699551   -0.926004  172.446930
  0.027815631    0.000000    0.000000    0.000000    0.000000  -94.316489   30.147961   -0.943487  170.649429
  0.028016032    0.000000    0.000000    0.000000    0.000000  -94.524079   34.230736   -0.963778  168.826813
  0.028216433    0.000000    0.000000    0.000000    0.000000  -94.508643   34.558044   -0.983886  166.989212
  0.028416834    0.000000    0.000000    0.000000    0.000000  -94.509109   34.826435   -1.005483  165.153870
  0.028617234    0.000000    0.000000    0.000000    0.000000  -93.780757   32.991432   -1.025736  163.316254
  0.028817635    0.000000    0.000000    0.000000    0.000000  -94.851843   28.957184   -1.047436  161.469864
  0.029018036    0.000000    0.000000    0.000000    0.000000  -94.360380   33.060947   -1.071052  159.613007
  0.029218437    0.000000    0.000000    0.000000    0.000000  -93.237322   34.718624   -1.096053  157.752914
  0.029418838    0.000000    0.000000    0.000000    0.000000  -94.365086   29.777866   -1.122566  155.858536
  0.029619238    0.000000    0.000000    0.000000    0.000000  -94.108315   29.936773   -1.147918  153.963959
  0.029819639    0.000000    0.000000    0.000000    0.000000  -93.789900   31.380867   -1.175330  152.055313
  0.030020040    0.000000    0.000000    0.000000    0.000000  -94.126678   29.234100   -1.203363  150.138672
  0.030220441    0.000000    0.000000    0.000000    0.000000  -93.953525   24.052748   -1.230275  148.222931
  0.030420842    0.000000    0.000000    0.000000    0.000000  -93.737263   26.878807   -1.260560  146.307373
  0.030621242    0.000000    0.000000    0.000000    0.000000  -93.543081   26.299999   -1.291760  144.393127
  0.030821643    0.000000    0.000000    0.000000    0.000000  -93.928314   26.891567   -1.324467  142.466385
  0.031022044    0.000000    0.000000    0.000000    0.000000  -93.871584   22.232147   -1.357860  140.499161
  0.031222445    0.000000    0.000000    0.000000    0.000000  -93.328114   23.760164   -1.382517  138.572021
  0.031422846    0.000000    0.000000    0.000000    0.000000  -94.361048   20.724812   -1.418700  136.589661
  0.031623246    0.000000    0.000000    0.000000    0.000000  -94.686957   19.968113   -1.455131  134.599899
  0.031823647    0.000000    0.000000    0.000000    0.000000  -95.091848   19.079870   -1.493414  132.616714
  0.032024048    0.000000    0.000000    0.000000    0.000000  -95.056617   12.795829   -1.531133  130.618530
  0.032224449    0.000000    0.000000    0.000000    0.000000  -96.103725   19.947851   -1.569396  128.628464
  0.032424850    0.000000    0.000000    0.000000    0.000000  -95.619066   19.206150   -1.611757  126.620148
  0.032625250    0.000000    0.000000    0.000000    0.000000  -95.011599   18.367767   -1.649286  124.601227
  0.032825651    0.000000    0.000000    0.000000    0.000000  -95.744599   12.169413   -1.693320  122.560982
  0.033026052    0.000000    0.000000    0.000000    0.000000  -96.742901   19.827436   -1.732348  120.515396
  0.033226453    0.000000    0.000000    0.000000    0.000000  -96.600313   20.433510   -1.776147  118.493622
  0.033426854    0.000000    0.000000    0.000000    0.000000  -96.898788   18.286930   -1.818742  116.434700
  0.033627254    0.000000    0.000000    0.000000    0.000000  -96.632019   28.060377   -1.860867  114.414490
  0.033827655    0.000000    0.000000    0.000000    0.000000  -96.172416   27.649527   -1.909618  112.381767
  0.034028056    0.000000    0.000000    0.000000    0.000000  -96.936341   17.054033   -1.955599  110.334656
  0.034228457    0.000000    0.000000    0.000000    0.000000  -96.521441   31.135553   -2.002057  108.268692
  0.034428858    0.000000    0.000000    0.000000    0.000000  -97.436518   23.958935   -2.050754  106.201103
  0.034629258    0.000000    0.000000    0.000000    0.000000  -95.678613   22.955732   -2.098908  104.120590
  0.034829659    0.000000    0.000000    0.000000    0.000000  -96.427358   29.548075   -2.150154  102.056747
  0.035030060    0.000000    0.000000    0.000000    0.000000  -96.993971   30.915024   -2.201166   99.964485
  0.035230461    0.000000    0.000000    0.000000    0.000000  -96.000934   27.666813   -2.252091   97.893410
  0.035430862    0.000000    0.000000    0.000000    0.000000  -96.112403   27.848694   -2.307429   95.827675
  0.035631262    0.000000    0.000000    0.000000    0.000000  -96.131778   27.523832   -2.360674   93.734207
  0.035831663    0.000000    0.000000    0.000000    0.000000  -96.435162   24.002884   -2.415020   91.670685
  0.036032064    0.000000    0.000000    0.000000    0.000000  -97.835258   32.734230   -2.470020   89.571999
  0.036232465    0.000000    0.000000    0.000000    0.000000  -96.602262   18.631214   -2.525576   87.489998
  0.036432866    0.000000    0.000000    0.000000    0.000000  -96.324911   25.488592   -2.579123   85.385971
  0.036633266    0.000000    0.000000    0.000000    0.000000  -96.895992   20.667906   -2.638204   83.297745
  0.036833667    0.000000    0.000000    0.000000    0.000000  -96.914287   24.084206   -2.695539   81.206123
  0.037034068    0.000000    0.000000    0.000000    0.000000  -96.255830   20.050743   -2.754694   79.100235
  0.037234469    0.000000    0.000000    0.000000    0.000000  -96.961270   28.147610   -2.813595   77.007133
  0.037434870    0.000000    0.000000    0.000000    0.000000  -96.837548   24.132666   -2.873695   74.911354
  0.037635270    0.000000    0.000000    0.000000    0.000000  -97.423537   10.866456   -2.931538   72.833191
  0.037835671    0.000000    0.000000    0.000000    0.000000  -97.943026   20.787365   -2.992301   70.748634
  0.038036072    0.000000    0.000000    0.000000    0.000000  -97.459601   23.280285   -3.051468   68.640213
  0.038236473    0.000000    0.000000    0.000000    0.000000  -98.018253   20.258368   -3.109195   66.486420
  0.038436874    0.000000    0.000000    0.000000    0.000000  -97.919921   25.796074   -3.173962   64.360695
  0.038637274    0.000000    0.000000    0.000000    0.000000  -98.554152   21.651783   -3.238942   62.250713
  0.038837675    0.000000    0.000000    0.000000    0.000000  -98.377973   24.864491   -3.299154   60.156590
  0.039038076    0.000000    0.000000    0.000000    0.000000  -98.507965   21.444611   -3.360961   58.065865
  0.039238477    0.000000    0.000000    0.000000    0.000000  -97.594344   20.843122   -3.422172   55.971401
  0.039438878    0.000000    0.000000    0.000000    0.000000  -98.085695   36.077583   -3.482176   53.891815
  0.039639278    0.000000    0.000000    0.000000    0.000000  -98.716614   22.392307   -3.546542   51.790543
  0.039839679    0.000000    0.000000    0.000000    0.000000  -97.403715   27.906103   -3.607337   49.708527
  0.040040080    0.000000    0.000000    0.000000    0.000000  -98.617659   19.119877   -3.667118   47.606857
  0.040240481    0.000000    0.000000    0.000000    0.000000  -98.750585   29.151831   -3.729904   45.510849
  0.040440882    0.000000    0.000000    0.000000    0.000000  -98.173819   26.289375   -3.789985   43.431629
  0.040641283    0.000000    0.000000    0.000000    0.000000  -97.302506   31.730169   -3.851642   41.369812
  0.040841683    0.000000    0.000000    0.000000    0.000000  -97.728844   30.500340   -3.912993   39.317127
  0.041042084    0.000000    0.000000    0.000000    0.000000  -97.212916   21.079302   -3.973148   37.283993
  0.041242485    0.000000    0.000000    0.000000    0.000000  -97.388454   27.086157   -4.034484   35.222416
  0.041442886    0.000000    0.000000    0.000000    0.000000  -97.912585   24.878687   -4.096586   33.160114
  0.041643287    0.000000    0.000000    0.000000    0.000000  -97.857137   31.121077   -4.156014   31.101526
  0.041843687    0.000000    0.000000    0.000000    0.000000  -98.567800   32.445950   -4.213384   29.047155
  0.042044088    0.000000    0.000000    0.000000    0.000000  -97.624989   24.250362   -4.272838   27.013496
  0.042244489    0.000000    0.000000    0.000000    0.000000  -99.113263   27.847092   -4.329862   24.988625
  0.042444890    0.000000    0.000000    0.000000    0.000000  -98.710035   29.181122   -4.388449   22.978636
  0.042645291    0.000000    0.000000    0.000000    0.000000  -97.720735   21.746166   -4.449105   20.956606
  0.042845691    0.000000    0.000000    0.000000    0.000000  -99.487477   23.221832   -4.505272   18.946980
  0.043046092    0.000000    0.000000    0.000000    0.000000  -98.740314   15.161579   -4.562884   16.938059
  0.043246493    0.000000    0.000000    0.000000    0.000000  -98.488133   29.483761   -4.618564   14.927472
  0.043446894    0.000000    0.000000    0.000000    0.000000  -99.022082   21.213934   -4.673839   12.937391
  0.043647295    0.000000    0.000000    0.000000    0.000000 -100.121901   22.238600   -4.727243   10.950145
  0.043847695    0.000000    0.000000    0.000000    0.000000 -100.492971   22.907961   -4.781285    8.990634
  0.044048096    0.000000    0.000000    0.000000    0.000000  -99.805769   25.134706   -4.835397    7.019543
  0.044248497    0.000000    0.000000    0.000000    0.000000  -97.667631   25.264013   -4.888913    5.082441
  0.044448898    0.000000    0.000000    0.000000    0.000000 -100.518761   32.569324   -4.939798    3.124000
  0.044649299    0.000000    0.000000    0.000000    0.000000  -98.535746   29.032774   -4.993638    1.209815
  0.044849699    0.000000    0.000000    0.000000    0.000000  -99.836248   37.400139   -5.043211   -0.724184
  0.045050100    0.000000    0.000000    0.000000    0.000000  -97.468431   33.349514   -5.095752   -2.646436
  0.045250501    0.000000    0.000000    0.000000    0.000000  -99.927115   39.859737   -5.137871   -4.554435
  0.045450902    0.000000    0.000000    0.000000    0.000000  -98.898556   27.178473   -5.186205   -6.456871
  0.045651303    0.000000    0.000000    0.000000    0.000000  -98.609853   36.147545   -5.232214   -8.341071
  0.045851703    0.000000    0.000000    0.000000    0.000000  -97.764931   29.432596   -5.278215  -10.200168
  0.046052104    0.000000    0.000000    0.000000    0.000000  -99.189853   37.122288   -5.324127  -12.060905
  0.046252505    0.000000    0.000000    0.000000    0.000000  -99.454669   34.538708   -5.368172  -13.900143
  0.046452906    0.000000    0.000000    0.000000    0.000000  -98.256984   26.747946   -5.412975  -15.730512
  0.046653307    0.000000    0.000000    0.000000    0.000000  -98.114148   35.798264   -5.456107  -17.579304
  0.046853707    0.000000    0.000000    0.000000    0.000000  -98.355697   20.399052   -5.498535  -19.392117
  0.047054108    0.000000    0.000000    0.000000    0.000000  -98.499397   33.916592   -5.538583  -21.203142
  0.047254509    0.000000    0.000000    0.000000    0.000000  -99.399415   29.890797   -5.577642  -23.024477
  0.047454910    0.000000    0.000000    0.000000    0.000000  -98.558402   27.707369   -5.613788  -24.812960
  0.047655311    0.000000    0.000000    0.000000    0.000000  -98.358452   17.642620   -5.648066  -26.598337
  0.047855711    0.000000    0.000000    0.000000    0.000000  -98.460437   33.839458   -5.682464  -28.354084
  0.048056112    0.000000    0.000000    0.000000    0.000000  -98.203507   33.264557   -5.719967  -30.092278
  0.048256513    0.000000    0.000000    0.000000    0.000000  -99.198915   31.130985   -5.754906  -31.830345
  0.048456914    0.000000    0.000000    0.000000    0.000000  -99.558230   34.941025   -5.785901  -33.572392
  0.048657315    0.000000    0.000000    0.000000    0.000000  -98.205843   37.179100   -5.815935  -35.322128
  0.048857715    0.000000    0.000000    0.000000    0.000000  -99.920264   29.535179   -5.842339  -37.052330
  0.049058116    0.000000    0.000000    0.000000    0.000000 -100.408946   26.466051   -5.869732  -38.767887
  0.049258517    0.000000    0.000000    0.000000    0.000000  -99.073599   34.311493   -5.895888  -40.440010
  0.049458918    0.000000    0.000000    0.000000    0.000000  -99.390274   29.860470   -5.919380  -42.127102
  0.049659319    0.000000    0.000000    0.000000    0.000000  -98.664261   32.444511   -5.945604  -43.814857
  0.049859719    0.000000    0.000000    0.000000    0.000000  -99.626357   31.297173   -5.969592  -45.484135
  0.050060120    0.000000    0.000000    0.000000    0.000000  -99.964805   34.940861   -5.991716  -47.123249
  0.050260521    0.000000    0.000000    0.000000    0.000000  -99.992650   27.040560   -6.011500  -48.793606
  0.050460922    0.000000    0.000000    0.000000    0.000000  -98.984172   36.558777   -6.029873  -50.450142
  0.050661323    0.000000    0.000000    0.000000    0.000000  -99.959344   26.685123   -6.045104  -52.078201
  0.050861723    0.000000    0.000000    0.000000    0.000000  -99.764226   37.955772   -6.062465  -53.698330
  0.051062124    0.000000    0.000000    0.000000    0.000000  -99.575494   35.827755   -6.081856  -55.332203
  0.051262525    0.000000    0.000000    0.000000    0.000000  -99.071880   31.946884   -6.096548  -56.925644
  0.051462926    0.000000    0.000000    0.000000    0.000000 -100.498210   34.105465   -6.110049  -58.503487
  0.051663327    0.000000    0.000000    0.000000    0.000000 -100.269458   39.377602   -6.126923  -60.091637
  0.051863727    0.000000    0.000000    0.000000    0.000000  -99.431688   38.790630   -6.136535  -61.690788
  0.052064128    0.000000    0.000000    0.000000    0.000000  -98.639992   28.206709   -6.147444  -63.273125
  0.052264529    0.000000    0.000000    0.000000    0.000000  -98.247680   28.471769   -6.154758  -64.838158
  0.052464930    0.000000    0.000000    0.000000    0.000000  -98.140295   29.953054   -6.164307  -66.391212
  0.052665331    0.000000    0.000000    0.000000    0.000000  -99.018648   32.558376   -6.173241  -67.935898
  0.052865731    0.000000    0.000000    0.000000    0.000000  -98.871093   30.031771   -6.183779  -69.467438
