! Anritsu VNA Master:                     Model: MS2036C/10/77
! SN:                                  1601066
! /card0/usr/18may27.balun/5a..m2.s2p
! Existing Calibration Information:
! TYPE:                         Current Settings,       Active Cal Settings
! TIME:             	   05/27/2018 05:03:26 PM,    05/27/2018 04:42:15 PM
! INTERNAL TEMP:    	                   53.5 C,                    52.0 C
! # POINTS:         	                      500,                       500
! START FREQ:       	               20.000 MHz,                20.000 MHz
! STOP FREQ:        	              120.000 MHz,               120.000 MHz
! SOURCE POWER:     	                     High,                      High
! IFBW:             	                    50 Hz,                     50 Hz
! AVG FACTOR:       	                       1 ,                        1 
! REF PLANE 1:      	                     0 mm,                      0 mm
! REF PLANE 2:      	                     0 mm,                      0 mm
! CAL TYPE:         	                 Full S11,                  Full S11
! CAL METHOD:       	                     SOLT,                      SOLT
! CAL LINE TYPE:    	                     Coax,                      Coax
! DUT PORT 1:       	                K-Conn(M),                 K-Conn(M)
! DUT PORT 2:       	                K-Conn(M),                 K-Conn(M)
! CAL STATUS:       	        OK: Accuracy High,                        --
# GHZ S DB R 50.0
! FREQ.GHZ       S11DB        S11A       S21DB        S21A       S12DB        S12A       S22DB        S22A
  0.020000000   -0.702861 -126.112640  -90.611935   30.577532    0.000000    0.000000    0.000000    0.000000
  0.020200401   -0.700789 -127.552170  -91.415055   29.464725    0.000000    0.000000    0.000000    0.000000
  0.020400802   -0.699352 -128.985123  -91.390361   27.754105    0.000000    0.000000    0.000000    0.000000
  0.020601202   -0.698675 -130.399582  -92.350282   29.460094    0.000000    0.000000    0.000000    0.000000
  0.020801603   -0.702798 -131.863464  -91.822773   30.021868    0.000000    0.000000    0.000000    0.000000
  0.021002004   -0.711763 -133.362152  -92.713262   30.118177    0.000000    0.000000    0.000000    0.000000
  0.021202405   -0.718786 -134.871887  -93.439437   26.214289    0.000000    0.000000    0.000000    0.000000
  0.021402806   -0.726637 -136.375839  -92.989118   31.632153    0.000000    0.000000    0.000000    0.000000
  0.021603206   -0.731813 -137.905487  -92.626895   33.416645    0.000000    0.000000    0.000000    0.000000
  0.021803607   -0.738311 -139.435272  -92.643365   33.322178    0.000000    0.000000    0.000000    0.000000
  0.022004008   -0.743740 -140.965179  -92.359672   38.610722    0.000000    0.000000    0.000000    0.000000
  0.022204409   -0.749470 -142.545746  -92.837109   33.861790    0.000000    0.000000    0.000000    0.000000
  0.022404810   -0.749239 -144.115143  -92.501820   34.865311    0.000000    0.000000    0.000000    0.000000
  0.022605210   -0.749964 -145.697433  -92.768527   31.865171    0.000000    0.000000    0.000000    0.000000
  0.022805611   -0.755677 -147.242386  -92.082703   33.709995    0.000000    0.000000    0.000000    0.000000
  0.023006012   -0.759666 -148.776917  -92.164475   35.579456    0.000000    0.000000    0.000000    0.000000
  0.023206413   -0.766511 -150.338837  -92.516553   31.808546    0.000000    0.000000    0.000000    0.000000
  0.023406814   -0.776042 -151.924042  -92.835436   28.814028    0.000000    0.000000    0.000000    0.000000
  0.023607214   -0.782208 -153.507950  -93.103750   27.730854    0.000000    0.000000    0.000000    0.000000
  0.023807615   -0.789376 -155.076706  -92.612050   27.371113    0.000000    0.000000    0.000000    0.000000
  0.024008016   -0.802073 -156.644745  -92.749885   25.810602    0.000000    0.000000    0.000000    0.000000
  0.024208417   -0.811865 -158.215393  -93.073710   25.995642    0.000000    0.000000    0.000000    0.000000
  0.024408818   -0.822875 -159.810837  -93.726393   22.587318    0.000000    0.000000    0.000000    0.000000
  0.024609218   -0.837492 -161.425125  -92.917069   23.312246    0.000000    0.000000    0.000000    0.000000
  0.024809619   -0.844759 -163.057419  -93.748418   17.951559    0.000000    0.000000    0.000000    0.000000
  0.025010020   -0.852882 -164.689865  -94.181320   17.667269    0.000000    0.000000    0.000000    0.000000
  0.025210421   -0.861842 -166.318146  -94.437869   18.512602    0.000000    0.000000    0.000000    0.000000
  0.025410822   -0.873395 -167.954987  -95.679740   19.487396    0.000000    0.000000    0.000000    0.000000
  0.025611222   -0.884603 -169.608109  -95.159260   22.337091    0.000000    0.000000    0.000000    0.000000
  0.025811623   -0.895828 -171.275375  -94.231848   19.131529    0.000000    0.000000    0.000000    0.000000
  0.026012024   -0.908717 -172.961838  -96.345076   20.424009    0.000000    0.000000    0.000000    0.000000
  0.026212425   -0.925639 -174.666489  -95.254026   22.880413    0.000000    0.000000    0.000000    0.000000
  0.026412826   -0.942747 -176.377029  -95.174265   25.975967    0.000000    0.000000    0.000000    0.000000
  0.026613226   -0.962822 -178.111908  -95.679132   27.552872    0.000000    0.000000    0.000000    0.000000
  0.026813627   -0.980617 -179.851181  -95.691155   29.529140    0.000000    0.000000    0.000000    0.000000
  0.027014028   -0.997003  178.409454  -95.318006   24.689745    0.000000    0.000000    0.000000    0.000000
  0.027214429   -1.013733  176.673904  -95.302102   26.220745    0.000000    0.000000    0.000000    0.000000
  0.027414830   -1.031349  174.929596  -94.765731   25.921314    0.000000    0.000000    0.000000    0.000000
  0.027615230   -1.049361  173.178497  -95.288238   22.951855    0.000000    0.000000    0.000000    0.000000
  0.027815631   -1.070484  171.402588  -94.672908   18.857605    0.000000    0.000000    0.000000    0.000000
  0.028016032   -1.091922  169.620224  -95.485321   28.786238    0.000000    0.000000    0.000000    0.000000
  0.028216433   -1.114370  167.824173  -95.819149   18.940622    0.000000    0.000000    0.000000    0.000000
  0.028416834   -1.137914  166.030670  -94.701205   16.982391    0.000000    0.000000    0.000000    0.000000
  0.028617234   -1.161995  164.249207  -96.316526   17.885958    0.000000    0.000000    0.000000    0.000000
  0.028817635   -1.190261  162.446838  -96.536156   12.576325    0.000000    0.000000    0.000000    0.000000
  0.029018036   -1.218882  160.625092  -96.557113   17.479874    0.000000    0.000000    0.000000    0.000000
  0.029218437   -1.245930  158.788208  -96.696319   16.075254    0.000000    0.000000    0.000000    0.000000
  0.029418838   -1.271946  156.945755  -96.308365    9.389498    0.000000    0.000000    0.000000    0.000000
  0.029619238   -1.296421  155.142197  -97.484144   15.632614    0.000000    0.000000    0.000000    0.000000
  0.029819639   -1.323061  153.335846  -97.397107   18.809227    0.000000    0.000000    0.000000    0.000000
  0.030020040   -1.350907  151.521698  -97.249073   17.041491    0.000000    0.000000    0.000000    0.000000
  0.030220441   -1.382500  149.703491  -97.160180   14.850069    0.000000    0.000000    0.000000    0.000000
  0.030420842   -1.420832  147.851730  -97.896667   12.899548    0.000000    0.000000    0.000000    0.000000
  0.030621242   -1.464207  145.968414  -98.398194   18.850128    0.000000    0.000000    0.000000    0.000000
  0.030821643   -1.502983  144.034760  -97.715901   13.063359    0.000000    0.000000    0.000000    0.000000
  0.031022044   -1.539275  142.066254  -97.305281   20.319315    0.000000    0.000000    0.000000    0.000000
  0.031222445   -1.572342  140.081131  -97.514750   18.751221    0.000000    0.000000    0.000000    0.000000
  0.031422846   -1.602672  138.093704  -97.066601   17.475628    0.000000    0.000000    0.000000    0.000000
  0.031623246   -1.635356  136.118683  -96.903106   11.710940    0.000000    0.000000    0.000000    0.000000
  0.031823647   -1.661157  134.133835  -98.727181   18.533943    0.000000    0.000000    0.000000    0.000000
  0.032024048   -1.685250  132.185440  -97.062103   20.649773    0.000000    0.000000    0.000000    0.000000
  0.032224449   -1.715977  130.231949  -98.675487   14.776718    0.000000    0.000000    0.000000    0.000000
  0.032424850   -1.748025  128.288773  -96.998242    9.275604    0.000000    0.000000    0.000000    0.000000
  0.032625251   -1.785127  126.327423  -97.038942   11.241373    0.000000    0.000000    0.000000    0.000000
  0.032825651   -1.825378  124.389832  -97.720911    5.885746    0.000000    0.000000    0.000000    0.000000
  0.033026052   -1.873362  122.430290  -97.783236    3.957837    0.000000    0.000000    0.000000    0.000000
  0.033226453   -1.917995  120.446411  -97.566589   11.366950    0.000000    0.000000    0.000000    0.000000
  0.033426854   -1.967869  118.470055  -97.463859   15.856238    0.000000    0.000000    0.000000    0.000000
  0.033627255   -2.015420  116.436569  -99.996677    2.207778    0.000000    0.000000    0.000000    0.000000
  0.033827655   -2.061918  114.398666  -97.730866    2.766998    0.000000    0.000000    0.000000    0.000000
  0.034028056   -2.112707  112.354355  -99.064019   17.269295    0.000000    0.000000    0.000000    0.000000
  0.034228457   -2.161900  110.299164  -99.255165    7.902292    0.000000    0.000000    0.000000    0.000000
  0.034428858   -2.213667  108.244133  -98.039493    9.387792    0.000000    0.000000    0.000000    0.000000
  0.034629259   -2.255180  106.191910 -100.490323   12.726876    0.000000    0.000000    0.000000    0.000000
  0.034829659   -2.299832  104.185204  -97.782581    9.392533    0.000000    0.000000    0.000000    0.000000
  0.035030060   -2.339065  102.164337  -99.750142    5.629495    0.000000    0.000000    0.000000    0.000000
  0.035230461   -2.392160  100.208908  -98.422694    8.964502    0.000000    0.000000    0.000000    0.000000
  0.035430862   -2.448950   98.203522  -98.956583    9.958840    0.000000    0.000000    0.000000    0.000000
  0.035631263   -2.515684   96.212814  -99.504017   14.663315    0.000000    0.000000    0.000000    0.000000
  0.035831663   -2.581195   94.145790  -99.287968   22.214964    0.000000    0.000000    0.000000    0.000000
  0.036032064   -2.650467   92.038788  -98.150925    2.337465    0.000000    0.000000    0.000000    0.000000
  0.036232465   -2.716440   89.872993 -100.495105    9.971861    0.000000    0.000000    0.000000    0.000000
  0.036432866   -2.782889   87.679039  -98.592834    7.060722    0.000000    0.000000    0.000000    0.000000
  0.036633267   -2.842274   85.460327  -98.187349   14.395230    0.000000    0.000000    0.000000    0.000000
  0.036833667   -2.896545   83.259270  -99.319860   12.216993    0.000000    0.000000    0.000000    0.000000
  0.037034068   -2.949753   81.039970  -98.252459    4.699323    0.000000    0.000000    0.000000    0.000000
  0.037234469   -2.999526   78.862274  -99.676171    1.875180    0.000000    0.000000    0.000000    0.000000
  0.037434870   -3.050151   76.716148  -98.758995   -2.789272    0.000000    0.000000    0.000000    0.000000
  0.037635271   -3.102598   74.582222  -99.500036    0.993846    0.000000    0.000000    0.000000    0.000000
  0.037835671   -3.152701   72.466965  -99.081185   10.018588    0.000000    0.000000    0.000000    0.000000
  0.038036072   -3.211940   70.338982 -100.900339    0.007633    0.000000    0.000000    0.000000    0.000000
  0.038236473   -3.271061   68.210922 -100.597431    6.727829    0.000000    0.000000    0.000000    0.000000
  0.038436874   -3.337098   66.070923  -99.175322    1.030652    0.000000    0.000000    0.000000    0.000000
  0.038637275   -3.400884   63.917660 -101.471576    2.111261    0.000000    0.000000    0.000000    0.000000
  0.038837675   -3.470740   61.734364 -102.433166    7.328189    0.000000    0.000000    0.000000    0.000000
  0.039038076   -3.537308   59.528610 -102.232719    5.921683    0.000000    0.000000    0.000000    0.000000
  0.039238477   -3.597958   57.318558  -99.454077   14.361888    0.000000    0.000000    0.000000    0.000000
  0.039438878   -3.653090   55.119209 -100.033647   -0.653098    0.000000    0.000000    0.000000    0.000000
  0.039639279   -3.704503   52.961094  -99.608328   18.205687    0.000000    0.000000    0.000000    0.000000
  0.039839679   -3.752969   50.859989  -99.028601   11.437941    0.000000    0.000000    0.000000    0.000000
  0.040040080   -3.807858   48.789268  -99.999307   13.676942    0.000000    0.000000    0.000000    0.000000
  0.040240481   -3.862379   46.774853  -98.433469   11.446539    0.000000    0.000000    0.000000    0.000000
  0.040440882   -3.928415   44.731319  -99.137746   13.471407    0.000000    0.000000    0.000000    0.000000
  0.040641283   -3.994891   42.669559  -98.925678   16.922270    0.000000    0.000000    0.000000    0.000000
  0.040841683   -4.064592   40.582211 -100.616310   10.876194    0.000000    0.000000    0.000000    0.000000
  0.041042084   -4.133284   38.514961 -101.801191    3.329787    0.000000    0.000000    0.000000    0.000000
  0.041242485   -4.200991   36.412659 -101.242411   -5.871079    0.000000    0.000000    0.000000    0.000000
  0.041442886   -4.269480   34.303291 -101.013341   -0.243862    0.000000    0.000000    0.000000    0.000000
  0.041643287   -4.337433   32.193424  -99.409019    7.047576    0.000000    0.000000    0.000000    0.000000
  0.041843687   -4.397981   30.059311  -99.488537    8.486158    0.000000    0.000000    0.000000    0.000000
  0.042044088   -4.461255   27.926640  -99.873311    2.116839    0.000000    0.000000    0.000000    0.000000
  0.042244489   -4.521749   25.817854 -103.085056   -2.877861    0.000000    0.000000    0.000000    0.000000
  0.042444890   -4.580662   23.709869 -101.156208    6.129192    0.000000    0.000000    0.000000    0.000000
  0.042645291   -4.640612   21.589417 -103.240775   -1.431306    0.000000    0.000000    0.000000    0.000000
  0.042845691   -4.701594   19.469572 -102.474579   -2.702060    0.000000    0.000000    0.000000    0.000000
  0.043046092   -4.754352   17.329769 -101.453638   14.357112    0.000000    0.000000    0.000000    0.000000
  0.043246493   -4.814240   15.204341 -100.427643    6.118223    0.000000    0.000000    0.000000    0.000000
  0.043446894   -4.871259   13.043362 -101.870461    1.828266    0.000000    0.000000    0.000000    0.000000
  0.043647295   -4.927994   10.906239 -102.173183   -6.703040    0.000000    0.000000    0.000000    0.000000
  0.043847695   -4.983996    8.762386 -100.437894   12.694160    0.000000    0.000000    0.000000    0.000000
  0.044048096   -5.036414    6.624514 -101.886804   12.188333    0.000000    0.000000    0.000000    0.000000
  0.044248497   -5.086995    4.489501 -101.814397   19.700335    0.000000    0.000000    0.000000    0.000000
  0.044448898   -5.128688    2.350642 -101.475378   26.607990    0.000000    0.000000    0.000000    0.000000
  0.044649299   -5.176650    0.247962 -101.997462   11.790242    0.000000    0.000000    0.000000    0.000000
  0.044849699   -5.214077   -1.830431 -101.090803   14.659773    0.000000    0.000000    0.000000    0.000000
  0.045050100   -5.260035   -3.884318 -101.261475    7.879471    0.000000    0.000000    0.000000    0.000000
  0.045250501   -5.303764   -5.934318 -101.925543    3.395746    0.000000    0.000000    0.000000    0.000000
  0.045450902   -5.341945   -7.931833 -100.584585    7.878682    0.000000    0.000000    0.000000    0.000000
  0.045651303   -5.385392   -9.963278 -102.077703   -0.437818    0.000000    0.000000    0.000000    0.000000
  0.045851703   -5.424096  -11.942270 -100.709289   -5.644401    0.000000    0.000000    0.000000    0.000000
  0.046052104   -5.459186  -13.913169 -100.833826    0.329724    0.000000    0.000000    0.000000    0.000000
  0.046252505   -5.494582  -15.845229 -102.193775    5.176839    0.000000    0.000000    0.000000    0.000000
  0.046452906   -5.530731  -17.749079 -101.040967   -2.461235    0.000000    0.000000    0.000000    0.000000
  0.046653307   -5.566500  -19.595869 -101.892229   -7.158162    0.000000    0.000000    0.000000    0.000000
  0.046853707   -5.607862  -21.455313 -101.799458  -15.347910    0.000000    0.000000    0.000000    0.000000
  0.047054108   -5.644194  -23.292030 -102.662446    4.187472    0.000000    0.000000    0.000000    0.000000
  0.047254509   -5.685412  -25.140474 -102.715104    5.508491    0.000000    0.000000    0.000000    0.000000
  0.047454910   -5.725252  -26.986883 -103.101461   11.779686    0.000000    0.000000    0.000000    0.000000
  0.047655311   -5.768708  -28.824448 -106.160777   15.153193    0.000000    0.000000    0.000000    0.000000
  0.047855711   -5.810717  -30.651375 -103.378266   10.309194    0.000000    0.000000    0.000000    0.000000
  0.048056112   -5.853246  -32.491718 -104.354282  -16.830141    0.000000    0.000000    0.000000    0.000000
  0.048256513   -5.898035  -34.311607 -103.169963    4.446517    0.000000    0.000000    0.000000    0.000000
  0.048456914   -5.934970  -36.208935 -101.272227   14.844835    0.000000    0.000000    0.000000    0.000000
  0.048657315   -5.971215  -38.065830 -101.416955   11.056411    0.000000    0.000000    0.000000    0.000000
  0.048857715   -6.003000  -39.905460 -102.969858   -9.987974    0.000000    0.000000    0.000000    0.000000
  0.049058116   -6.035953  -41.750332 -101.317877    4.987633    0.000000    0.000000    0.000000    0.000000
  0.049258517   -6.067086  -43.558762 -102.023116   13.294624    0.000000    0.000000    0.000000    0.000000
  0.049458918   -6.096158  -45.353352 -101.723649    5.900106    0.000000    0.000000    0.000000    0.000000
  0.049659319   -6.125763  -47.168434 -103.055757    2.576228    0.000000    0.000000    0.000000    0.000000
  0.049859719   -6.157737  -48.980888 -101.274546   18.735876    0.000000    0.000000    0.000000    0.000000
  0.050060120   -6.183224  -50.805882 -102.553855    9.410742    0.000000    0.000000    0.000000    0.000000
  0.050260521   -6.205587  -52.624241 -102.929506    5.710394    0.000000    0.000000    0.000000    0.000000
  0.050460922   -6.220869  -54.393986 -101.040993   -3.404510    0.000000    0.000000    0.000000    0.000000
  0.050661323   -6.238505  -56.166573 -102.014238    0.343595    0.000000    0.000000    0.000000    0.000000
  0.050861723   -6.238906  -57.942242 -103.513206   -7.072435    0.000000    0.000000    0.000000    0.000000
  0.051062124   -6.242098  -59.648956 -103.276753   -9.886562    0.000000    0.000000    0.000000    0.000000
  0.051262525   -6.242761  -61.290245 -102.448483    4.800426    0.000000    0.000000    0.000000    0.000000
  0.051462926   -6.238238  -62.896854 -102.625506   -0.116774    0.000000    0.000000    0.000000    0.000000
  0.051663327   -6.239778  -64.448921 -105.008986    5.256931    0.000000    0.000000    0.000000    0.000000
  0.051863727   -6.242138  -65.947220 -105.710774    7.803944    0.000000    0.000000    0.000000    0.000000
  0.052064128   -6.240144  -67.457001 -104.810607   -2.637172    0.000000    0.000000    0.000000    0.000000
  0.052264529   -6.247939  -68.945183 -103.713662   13.918676    0.000000    0.000000    0.000000    0.000000
  0.052464930   -6.251596  -70.429108 -102.848418   -2.607539    0.000000    0.000000    0.000000    0.000000
  0.052665331   -6.255267  -71.911469 -101.225431    4.549602    0.000000    0.000000    0.000000    0.000000
  0.052865731   -6.261796  -73.344559 -103.225217   22.535898    0.000000    0.000000    0.000000    0.000000
