! Anritsu VNA Master:                     Model: MS2036C/10/77
! SN:                                  1601066
! /bd0/18may12.cable.cal/bot.200.s2p
! Existing Calibration Information:
! TYPE:                         Current Settings,       Active Cal Settings
! TIME:             	   05/12/2018 01:48:22 PM,    05/12/2018 01:41:40 PM
! INTERNAL TEMP:    	                   49.0 C,                    49.0 C
! # POINTS:         	                      500,                       500
! START FREQ:       	               20.000 MHz,                20.000 MHz
! STOP FREQ:        	              120.000 MHz,               120.000 MHz
! SOURCE POWER:     	                     High,                      High
! IFBW:             	                    50 Hz,                     50 Hz
! AVG FACTOR:       	                       1 ,                        1 
! REF PLANE 1:      	                     0 mm,                      0 mm
! REF PLANE 2:      	                     0 mm,                      0 mm
! CAL TYPE:         	                 Full S22,                  Full S22
! CAL METHOD:       	                     SOLT,                      SOLT
! CAL LINE TYPE:    	                     Coax,                      Coax
! DUT PORT 1:       	                K-Conn(M),                 K-Conn(M)
! DUT PORT 2:       	                K-Conn(M),                 K-Conn(M)
! CAL STATUS:       	        OK: Accuracy High,                        --
# GHZ S DB R 50.0
! FREQ.GHZ       S11DB        S11A       S21DB        S21A       S12DB        S12A       S22DB        S22A
  0.020000000    0.000000    0.000000    0.000000    0.000000  -89.920548   38.378887   -4.540280  -22.392160
  0.020200401    0.000000    0.000000    0.000000    0.000000  -90.763892   41.054363   -4.542759  -22.624599
  0.020400802    0.000000    0.000000    0.000000    0.000000  -90.254358   39.839661   -4.540949  -22.845430
  0.020601202    0.000000    0.000000    0.000000    0.000000  -90.784190   33.796494   -4.541722  -23.069269
  0.020801603    0.000000    0.000000    0.000000    0.000000  -90.746434   36.483063   -4.541966  -23.309486
  0.021002004    0.000000    0.000000    0.000000    0.000000  -90.795111   34.681305   -4.543458  -23.527800
  0.021202405    0.000000    0.000000    0.000000    0.000000  -91.075893   35.190113   -4.543782  -23.760588
  0.021402806    0.000000    0.000000    0.000000    0.000000  -91.325042   37.017036   -4.544892  -23.985323
  0.021603206    0.000000    0.000000    0.000000    0.000000  -91.495733   39.281910   -4.544629  -24.211315
  0.021803607    0.000000    0.000000    0.000000    0.000000  -91.694148   36.748962   -4.544336  -24.439730
  0.022004008    0.000000    0.000000    0.000000    0.000000  -91.274043   35.850677   -4.545353  -24.659847
  0.022204409    0.000000    0.000000    0.000000    0.000000  -91.133165   34.736732   -4.546068  -24.883856
  0.022404810    0.000000    0.000000    0.000000    0.000000  -92.141581   35.878056   -4.545829  -25.119024
  0.022605210    0.000000    0.000000    0.000000    0.000000  -92.077313   34.902523   -4.546920  -25.340601
  0.022805611    0.000000    0.000000    0.000000    0.000000  -92.195679   34.178917   -4.548000  -25.565071
  0.023006012    0.000000    0.000000    0.000000    0.000000  -92.105615   35.368210   -4.549834  -25.793495
  0.023206413    0.000000    0.000000    0.000000    0.000000  -92.161924   31.966511   -4.549706  -26.012264
  0.023406814    0.000000    0.000000    0.000000    0.000000  -91.725077   33.270092   -4.549305  -26.237774
  0.023607214    0.000000    0.000000    0.000000    0.000000  -92.247008   28.643122   -4.549081  -26.469143
  0.023807615    0.000000    0.000000    0.000000    0.000000  -92.465233   34.921322   -4.549516  -26.697088
  0.024008016    0.000000    0.000000    0.000000    0.000000  -92.507855   34.434391   -4.552690  -26.915695
  0.024208417    0.000000    0.000000    0.000000    0.000000  -92.726638   33.984669   -4.551966  -27.137589
  0.024408818    0.000000    0.000000    0.000000    0.000000  -93.527010   30.101679   -4.551712  -27.364212
  0.024609218    0.000000    0.000000    0.000000    0.000000  -92.775425   35.792084   -4.552425  -27.592983
  0.024809619    0.000000    0.000000    0.000000    0.000000  -92.539540   32.800636   -4.553091  -27.816303
  0.025010020    0.000000    0.000000    0.000000    0.000000  -93.366018   33.994213   -4.555302  -28.038639
  0.025210421    0.000000    0.000000    0.000000    0.000000  -92.935518   29.457291   -4.554817  -28.257816
  0.025410822    0.000000    0.000000    0.000000    0.000000  -93.940642   27.226063   -4.556587  -28.486149
  0.025611222    0.000000    0.000000    0.000000    0.000000  -93.877605   33.660854   -4.557097  -28.706758
  0.025811623    0.000000    0.000000    0.000000    0.000000  -93.706275   30.090939   -4.559781  -28.940109
  0.026012024    0.000000    0.000000    0.000000    0.000000  -93.728721   30.822947   -4.560048  -29.163118
  0.026212425    0.000000    0.000000    0.000000    0.000000  -93.205077   31.809254   -4.560539  -29.402695
  0.026412826    0.000000    0.000000    0.000000    0.000000  -94.232689   27.193502   -4.560925  -29.618835
  0.026613226    0.000000    0.000000    0.000000    0.000000  -94.367989   32.372803   -4.561636  -29.849876
  0.026813627    0.000000    0.000000    0.000000    0.000000  -93.863049   29.527308   -4.561017  -30.078644
  0.027014028    0.000000    0.000000    0.000000    0.000000  -94.306105   31.807812   -4.562595  -30.302910
  0.027214429    0.000000    0.000000    0.000000    0.000000  -94.471104   34.767651   -4.563329  -30.530235
  0.027414830    0.000000    0.000000    0.000000    0.000000  -95.403082   32.847347   -4.564622  -30.748934
  0.027615230    0.000000    0.000000    0.000000    0.000000  -93.894080   38.013767   -4.563693  -30.989798
  0.027815631    0.000000    0.000000    0.000000    0.000000  -94.346992   30.807199   -4.565331  -31.211458
  0.028016032    0.000000    0.000000    0.000000    0.000000  -94.441725   32.817356   -4.565636  -31.446180
  0.028216433    0.000000    0.000000    0.000000    0.000000  -94.558140   31.458960   -4.565739  -31.658251
  0.028416834    0.000000    0.000000    0.000000    0.000000  -94.555978   29.614994   -4.566826  -31.899740
  0.028617234    0.000000    0.000000    0.000000    0.000000  -94.836137   28.135054   -4.565404  -32.121910
  0.028817635    0.000000    0.000000    0.000000    0.000000  -95.217207   31.559784   -4.567522  -32.352688
  0.029018036    0.000000    0.000000    0.000000    0.000000  -94.895333   28.825745   -4.567873  -32.579128
  0.029218437    0.000000    0.000000    0.000000    0.000000  -94.831355   31.064827   -4.567929  -32.801109
  0.029418838    0.000000    0.000000    0.000000    0.000000  -95.431024   24.337526   -4.569494  -33.031384
  0.029619238    0.000000    0.000000    0.000000    0.000000  -95.006477   28.163500   -4.569520  -33.265892
  0.029819639    0.000000    0.000000    0.000000    0.000000  -94.927375   28.861763   -4.570670  -33.495476
  0.030020040    0.000000    0.000000    0.000000    0.000000  -95.584153   37.062672   -4.569753  -33.724434
  0.030220441    0.000000    0.000000    0.000000    0.000000  -95.882077   31.576712   -4.571467  -33.943207
  0.030420842    0.000000    0.000000    0.000000    0.000000  -95.030566   30.193766   -4.571719  -34.177647
  0.030621242    0.000000    0.000000    0.000000    0.000000  -95.656549   28.753778   -4.572474  -34.411499
  0.030821643    0.000000    0.000000    0.000000    0.000000  -95.959406   28.958586   -4.573338  -34.634281
  0.031022044    0.000000    0.000000    0.000000    0.000000  -95.895415   28.190317   -4.573346  -34.853775
  0.031222445    0.000000    0.000000    0.000000    0.000000  -96.809180   21.581274   -4.560910  -35.032612
  0.031422846    0.000000    0.000000    0.000000    0.000000  -96.197115   26.906504   -4.562128  -35.258976
  0.031623246    0.000000    0.000000    0.000000    0.000000  -95.465182   29.602379   -4.562718  -35.494633
  0.031823647    0.000000    0.000000    0.000000    0.000000  -95.856542   22.384972   -4.563837  -35.731255
  0.032024048    0.000000    0.000000    0.000000    0.000000  -95.407241   25.578497   -4.565077  -35.962513
  0.032224449    0.000000    0.000000    0.000000    0.000000  -94.839918   24.207352   -4.565026  -36.180244
  0.032424850    0.000000    0.000000    0.000000    0.000000  -95.098453   29.299620   -4.565403  -36.422569
  0.032625251    0.000000    0.000000    0.000000    0.000000  -95.256896   26.306982   -4.567321  -36.642075
  0.032825651    0.000000    0.000000    0.000000    0.000000  -96.398074   22.968935   -4.567612  -36.868076
  0.033026052    0.000000    0.000000    0.000000    0.000000  -96.272515   27.217955   -4.568504  -37.103584
  0.033226453    0.000000    0.000000    0.000000    0.000000  -97.177310   26.608782   -4.569357  -37.327976
  0.033426854    0.000000    0.000000    0.000000    0.000000  -96.082089   27.546894   -4.569723  -37.563091
  0.033627255    0.000000    0.000000    0.000000    0.000000  -96.145514   30.611580   -4.570846  -37.787991
  0.033827655    0.000000    0.000000    0.000000    0.000000  -96.643776   28.937609   -4.571126  -38.023331
  0.034028056    0.000000    0.000000    0.000000    0.000000  -95.197663   29.503469   -4.572554  -38.249596
  0.034228457    0.000000    0.000000    0.000000    0.000000  -95.497966   23.154007   -4.571412  -38.477421
  0.034428858    0.000000    0.000000    0.000000    0.000000  -96.942303   21.791533   -4.570363  -38.704529
  0.034629259    0.000000    0.000000    0.000000    0.000000  -95.822925   25.307898   -4.571180  -38.923557
  0.034829659    0.000000    0.000000    0.000000    0.000000  -96.425685   30.893269   -4.572040  -39.162914
  0.035030060    0.000000    0.000000    0.000000    0.000000  -97.410485   30.308722   -4.573623  -39.384590
  0.035230461    0.000000    0.000000    0.000000    0.000000  -96.441111   23.402763   -4.572466  -39.608585
  0.035430862    0.000000    0.000000    0.000000    0.000000  -97.344513   29.582317   -4.574102  -39.837383
  0.035631263    0.000000    0.000000    0.000000    0.000000  -96.630781   22.749998   -4.573882  -40.072060
  0.035831663    0.000000    0.000000    0.000000    0.000000  -97.033631   33.099728   -4.575569  -40.294804
  0.036032064    0.000000    0.000000    0.000000    0.000000  -97.495690   19.880650   -4.573645  -40.518951
  0.036232465    0.000000    0.000000    0.000000    0.000000  -96.707108   29.978558   -4.575963  -40.742496
  0.036432866    0.000000    0.000000    0.000000    0.000000  -97.083824   26.564869   -4.577206  -40.975403
  0.036633267    0.000000    0.000000    0.000000    0.000000  -96.667389   22.307125   -4.574249  -41.192818
  0.036833667    0.000000    0.000000    0.000000    0.000000  -96.963361   27.018707   -4.577521  -41.421818
  0.037034068    0.000000    0.000000    0.000000    0.000000  -96.104361   23.644905   -4.575321  -41.645290
  0.037234469    0.000000    0.000000    0.000000    0.000000  -96.907269   24.010616   -4.575853  -41.878525
  0.037434870    0.000000    0.000000    0.000000    0.000000  -97.213079   28.218199   -4.575313  -42.103519
  0.037635271    0.000000    0.000000    0.000000    0.000000  -97.313351   28.946020   -4.577203  -42.336277
  0.037835671    0.000000    0.000000    0.000000    0.000000  -96.750100   26.584368   -4.577004  -42.554699
  0.038036072    0.000000    0.000000    0.000000    0.000000  -96.533467   26.733664   -4.576722  -42.775089
  0.038236473    0.000000    0.000000    0.000000    0.000000  -97.588895   25.502151   -4.578689  -42.996426
  0.038436874    0.000000    0.000000    0.000000    0.000000  -98.146477   20.101276   -4.577851  -43.224316
  0.038637275    0.000000    0.000000    0.000000    0.000000  -98.086928   23.316439   -4.578390  -43.445702
  0.038837675    0.000000    0.000000    0.000000    0.000000  -97.248848   28.745911   -4.577809  -43.673107
  0.039038076    0.000000    0.000000    0.000000    0.000000  -97.434159   27.446224   -4.579542  -43.901466
  0.039238477    0.000000    0.000000    0.000000    0.000000  -97.832003   24.692616   -4.581233  -44.122009
  0.039438878    0.000000    0.000000    0.000000    0.000000  -97.549650   32.256313   -4.581419  -44.366772
  0.039639279    0.000000    0.000000    0.000000    0.000000  -98.737391   24.816298   -4.580876  -44.582867
  0.039839679    0.000000    0.000000    0.000000    0.000000  -97.213955   26.744022   -4.581977  -44.814754
  0.040040080    0.000000    0.000000    0.000000    0.000000  -97.340625   25.983267   -4.581615  -45.034397
  0.040240481    0.000000    0.000000    0.000000    0.000000  -97.809701   26.634586   -4.582934  -45.243015
  0.040440882    0.000000    0.000000    0.000000    0.000000  -97.964397   30.222204   -4.584731  -45.484627
  0.040641283    0.000000    0.000000    0.000000    0.000000  -97.976304   34.123802   -4.585595  -45.720497
  0.040841683    0.000000    0.000000    0.000000    0.000000  -97.855430   40.310730   -4.585116  -45.942818
  0.041042084    0.000000    0.000000    0.000000    0.000000  -97.400215   29.799519   -4.586072  -46.163803
  0.041242485    0.000000    0.000000    0.000000    0.000000  -97.919974   32.275604   -4.586639  -46.384865
  0.041442886    0.000000    0.000000    0.000000    0.000000  -97.303942   28.468725   -4.588149  -46.615978
  0.041643287    0.000000    0.000000    0.000000    0.000000  -98.337079   29.426449   -4.586919  -46.835140
  0.041843687    0.000000    0.000000    0.000000    0.000000  -98.772475   25.785732   -4.589006  -47.074371
  0.042044088    0.000000    0.000000    0.000000    0.000000  -98.068702   32.477100   -4.588389  -47.294601
  0.042244489    0.000000    0.000000    0.000000    0.000000  -97.267885   33.603817   -4.590558  -47.518810
  0.042444890    0.000000    0.000000    0.000000    0.000000  -97.772175   34.595119   -4.592272  -47.745842
  0.042645291    0.000000    0.000000    0.000000    0.000000  -97.325719   28.372055   -4.591191  -47.981831
  0.042845691    0.000000    0.000000    0.000000    0.000000  -98.566240   22.962757   -4.593697  -48.210869
  0.043046092    0.000000    0.000000    0.000000    0.000000  -97.996931   24.917755   -4.592779  -48.434952
  0.043246493    0.000000    0.000000    0.000000    0.000000  -97.464539   30.536356   -4.593265  -48.659767
  0.043446894    0.000000    0.000000    0.000000    0.000000  -98.373144   33.639694   -4.595280  -48.889759
  0.043647295    0.000000    0.000000    0.000000    0.000000  -97.967641   29.931067   -4.594542  -49.126404
  0.043847695    0.000000    0.000000    0.000000    0.000000  -98.089468   24.022608   -4.596325  -49.351109
  0.044048096    0.000000    0.000000    0.000000    0.000000  -97.871425   23.468193   -4.596339  -49.571793
  0.044248497    0.000000    0.000000    0.000000    0.000000  -98.530631   30.207348   -4.596494  -49.810841
  0.044448898    0.000000    0.000000    0.000000    0.000000  -98.323483   25.823729   -4.597513  -50.034122
  0.044649299    0.000000    0.000000    0.000000    0.000000  -98.379214   29.599752   -4.598687  -50.272205
  0.044849699    0.000000    0.000000    0.000000    0.000000  -97.784983   32.908298   -4.600898  -50.502258
  0.045050100    0.000000    0.000000    0.000000    0.000000  -98.712704   33.190018   -4.601096  -50.730209
  0.045250501    0.000000    0.000000    0.000000    0.000000  -98.153276   25.710287   -4.603541  -50.956562
  0.045450902    0.000000    0.000000    0.000000    0.000000  -97.755698   26.923708   -4.604411  -51.180553
  0.045651303    0.000000    0.000000    0.000000    0.000000 -100.008565   33.914417   -4.604448  -51.409401
  0.045851703    0.000000    0.000000    0.000000    0.000000  -97.741915   32.531944   -4.604445  -51.643936
  0.046052104    0.000000    0.000000    0.000000    0.000000  -98.481267   25.734837   -4.603875  -51.872238
  0.046252505    0.000000    0.000000    0.000000    0.000000  -97.781635   32.519680   -4.604146  -52.105961
  0.046452906    0.000000    0.000000    0.000000    0.000000  -98.092480   31.845358   -4.605107  -52.337414
  0.046653307    0.000000    0.000000    0.000000    0.000000  -98.421352   28.655451   -4.606704  -52.575783
  0.046853707    0.000000    0.000000    0.000000    0.000000  -98.236353   32.094276   -4.607150  -52.800541
  0.047054108    0.000000    0.000000    0.000000    0.000000  -99.753472   39.461727   -4.608445  -53.031166
  0.047254509    0.000000    0.000000    0.000000    0.000000  -97.821535   28.938173   -4.610671  -53.266300
  0.047454910    0.000000    0.000000    0.000000    0.000000  -99.441457   24.145111   -4.609979  -53.501877
  0.047655311    0.000000    0.000000    0.000000    0.000000  -98.203981   27.826338   -4.610565  -53.733772
  0.047855711    0.000000    0.000000    0.000000    0.000000  -97.805194   24.408236   -4.610992  -53.962887
  0.048056112    0.000000    0.000000    0.000000    0.000000  -99.055576   32.778175   -4.612320  -54.197529
  0.048256513    0.000000    0.000000    0.000000    0.000000  -98.715570   28.361200   -4.612277  -54.424114
  0.048456914    0.000000    0.000000    0.000000    0.000000  -98.803441   31.800377   -4.613847  -54.650639
  0.048657315    0.000000    0.000000    0.000000    0.000000  -98.564027   21.425930   -4.614617  -54.879971
  0.048857715    0.000000    0.000000    0.000000    0.000000  -98.376948   23.579590   -4.614027  -55.105801
  0.049058116    0.000000    0.000000    0.000000    0.000000  -98.517851   31.598251   -4.616063  -55.337372
  0.049258517    0.000000    0.000000    0.000000    0.000000  -99.142885   16.942188   -4.616924  -55.577038
  0.049458918    0.000000    0.000000    0.000000    0.000000  -99.798802   29.042080   -4.617126  -55.808876
  0.049659319    0.000000    0.000000    0.000000    0.000000 -100.373845   22.014362   -4.617957  -56.020359
  0.049859719    0.000000    0.000000    0.000000    0.000000  -98.741493   31.731127   -4.618598  -56.258358
  0.050060120    0.000000    0.000000    0.000000    0.000000  -99.172676   25.065096   -4.620186  -56.493355
  0.050260521    0.000000    0.000000    0.000000    0.000000  -98.410097   21.603701   -4.621217  -56.720409
  0.050460922    0.000000    0.000000    0.000000    0.000000  -98.111241   29.444679   -4.619344  -56.954151
  0.050661323    0.000000    0.000000    0.000000    0.000000  -99.076050   25.753588   -4.623229  -57.184273
  0.050861723    0.000000    0.000000    0.000000    0.000000  -98.081655   28.838326   -4.622908  -57.398163
  0.051062124    0.000000    0.000000    0.000000    0.000000  -99.727802   26.911795   -4.625281  -57.647167
  0.051262525    0.000000    0.000000    0.000000    0.000000  -99.496356   26.181263   -4.625211  -57.869789
  0.051462926    0.000000    0.000000    0.000000    0.000000  -98.762585   25.997559   -4.624806  -58.098530
  0.051663327    0.000000    0.000000    0.000000    0.000000  -99.012199   35.236870   -4.626775  -58.332378
  0.051863727    0.000000    0.000000    0.000000    0.000000  -99.848987   32.720341   -4.627185  -58.563229
  0.052064128    0.000000    0.000000    0.000000    0.000000 -100.319341   35.196262   -4.627509  -58.798668
  0.052264529    0.000000    0.000000    0.000000    0.000000  -99.613356   28.807819   -4.627721  -59.014179
  0.052464930    0.000000    0.000000    0.000000    0.000000 -100.086343   35.871979   -4.627635  -59.262306
  0.052665331    0.000000    0.000000    0.000000    0.000000 -100.004281   33.884716   -4.629689  -59.483337
  0.052865731    0.000000    0.000000    0.000000    0.000000  -99.341460   26.244865   -4.630249  -59.718098
