! Anritsu VNA Master:                     Model: MS2036C/10/77
! SN:                                  1601066
! /bd0/18may12.cable.cal/test.bad.sma-f.key.via.sma-m.barrel.s2p
! Existing Calibration Information:
! TYPE:                         Current Settings,       Active Cal Settings
! TIME:             	   05/12/2018 01:13:12 PM,    05/12/2018 01:02:08 PM
! INTERNAL TEMP:    	                   49.8 C,                    50.0 C
! # POINTS:         	                      485,                       485
! START FREQ:       	           20.801 603 MHz,            20.801 603 MHz
! STOP FREQ:        	          117.795 590 MHz,           117.795 590 MHz
! SOURCE POWER:     	                     High,                      High
! IFBW:             	                    50 Hz,                     50 Hz
! AVG FACTOR:       	                       1 ,                        1 
! REF PLANE 1:      	                     0 mm,                      0 mm
! REF PLANE 2:      	                     0 mm,                      0 mm
! CAL TYPE:         	                 Full S22,                  Full S22
! CAL METHOD:       	                     SOLT,                      SOLT
! CAL LINE TYPE:    	                     Coax,                      Coax
! DUT PORT 1:       	                K-Conn(M),                 K-Conn(M)
! DUT PORT 2:       	                K-Conn(M),                 K-Conn(M)
! CAL STATUS:       	        OK: Accuracy High,                        --
# GHZ S DB R 50.0
! FREQ.GHZ       S11DB        S11A       S21DB        S21A       S12DB        S12A       S22DB        S22A
  0.020801603    0.000000    0.000000    0.000000    0.000000  -90.614445   32.954964    0.005575   -1.562357
  0.021002004    0.000000    0.000000    0.000000    0.000000  -90.416966   30.670019    0.004052   -1.572170
  0.021202405    0.000000    0.000000    0.000000    0.000000  -90.883096   33.440178    0.004752   -1.594224
  0.021402806    0.000000    0.000000    0.000000    0.000000  -90.713637   32.300037    0.004469   -1.609189
  0.021603206    0.000000    0.000000    0.000000    0.000000  -91.393919   31.878546    0.003338   -1.620915
  0.021803607    0.000000    0.000000    0.000000    0.000000  -91.677304   32.767765    0.004609   -1.641663
  0.022004008    0.000000    0.000000    0.000000    0.000000  -91.352649   33.560242    0.004331   -1.657774
  0.022204409    0.000000    0.000000    0.000000    0.000000  -91.647323   34.651478    0.004642   -1.669207
  0.022404810    0.000000    0.000000    0.000000    0.000000  -91.375981   31.205242    0.003196   -1.680062
  0.022605210    0.000000    0.000000    0.000000    0.000000  -91.508185   28.236362    0.003658   -1.692263
  0.022805611    0.000000    0.000000    0.000000    0.000000  -92.370399   32.396706    0.005906   -1.718810
  0.023006012    0.000000    0.000000    0.000000    0.000000  -91.875238   27.330793    0.007015   -1.733351
  0.023206413    0.000000    0.000000    0.000000    0.000000  -92.538490   26.831499    0.005440   -1.749637
  0.023406814    0.000000    0.000000    0.000000    0.000000  -92.402809   31.096188    0.004355   -1.759085
  0.023607214    0.000000    0.000000    0.000000    0.000000  -92.340058   27.993483    0.003229   -1.767370
  0.023807615    0.000000    0.000000    0.000000    0.000000  -92.598055   28.616018    0.004578   -1.787922
  0.024008016    0.000000    0.000000    0.000000    0.000000  -93.051335   31.000534    0.005462   -1.809543
  0.024208417    0.000000    0.000000    0.000000    0.000000  -94.279050   31.605055    0.005090   -1.822500
  0.024408818    0.000000    0.000000    0.000000    0.000000  -92.919831   27.545706    0.003952   -1.829855
  0.024609218    0.000000    0.000000    0.000000    0.000000  -92.664302   32.259075    0.004579   -1.842397
  0.024809619    0.000000    0.000000    0.000000    0.000000  -93.141050   28.024565    0.004317   -1.861767
  0.025010020    0.000000    0.000000    0.000000    0.000000  -93.766695   27.233711    0.003652   -1.876573
  0.025210421    0.000000    0.000000    0.000000    0.000000  -93.308157   25.407185    0.004555   -1.895550
  0.025410822    0.000000    0.000000    0.000000    0.000000  -93.966685   30.817120    0.003097   -1.903060
  0.025611222    0.000000    0.000000    0.000000    0.000000  -93.510352   30.424770    0.004673   -1.917228
  0.025811623    0.000000    0.000000    0.000000    0.000000  -94.100014   28.907413    0.004527   -1.936329
  0.026012024    0.000000    0.000000    0.000000    0.000000  -93.932310   22.224667    0.005100   -1.946509
  0.026212425    0.000000    0.000000    0.000000    0.000000  -94.074818   28.861603    0.003899   -1.962611
  0.026412826    0.000000    0.000000    0.000000    0.000000  -94.101471   28.939276    0.004070   -1.980519
  0.026613226    0.000000    0.000000    0.000000    0.000000  -94.311011   32.379520    0.004372   -1.990089
  0.026813627    0.000000    0.000000    0.000000    0.000000  -95.162890   29.983147    0.003772   -2.001636
  0.027014028    0.000000    0.000000    0.000000    0.000000  -94.068715   29.173527    0.004185   -2.022112
  0.027214429    0.000000    0.000000    0.000000    0.000000  -94.391775   26.087523    0.003984   -2.036359
  0.027414830    0.000000    0.000000    0.000000    0.000000  -94.826602   22.543152    0.004130   -2.056932
  0.027615230    0.000000    0.000000    0.000000    0.000000  -95.166743   22.262592    0.003834   -2.063192
  0.027815631    0.000000    0.000000    0.000000    0.000000  -95.109415   26.117313    0.003951   -2.082866
  0.028016032    0.000000    0.000000    0.000000    0.000000  -95.175581   31.146500    0.003879   -2.094935
  0.028216433    0.000000    0.000000    0.000000    0.000000  -95.013587   25.625650    0.003834   -2.107210
  0.028416834    0.000000    0.000000    0.000000    0.000000  -95.003562   24.937202    0.003878   -2.119699
  0.028617234    0.000000    0.000000    0.000000    0.000000  -95.936347   29.908245    0.003474   -2.138986
  0.028817635    0.000000    0.000000    0.000000    0.000000  -95.017801   25.984144    0.003763   -2.151632
  0.029018036    0.000000    0.000000    0.000000    0.000000  -95.685524   24.469992    0.002765   -2.168559
  0.029218437    0.000000    0.000000    0.000000    0.000000  -95.761771   28.517794    0.003976   -2.184252
  0.029418838    0.000000    0.000000    0.000000    0.000000  -95.257716   29.501879    0.004147   -2.195734
  0.029619238    0.000000    0.000000    0.000000    0.000000  -94.811596   26.417931    0.003695   -2.214899
  0.029819639    0.000000    0.000000    0.000000    0.000000  -94.954253   22.746782    0.003586   -2.227633
  0.030020040    0.000000    0.000000    0.000000    0.000000  -96.365284   30.017487    0.002832   -2.245493
  0.030220441    0.000000    0.000000    0.000000    0.000000  -95.796277   25.668409    0.004029   -2.261151
  0.030420842    0.000000    0.000000    0.000000    0.000000  -95.648661   27.170933    0.002796   -2.275786
  0.030621242    0.000000    0.000000    0.000000    0.000000  -96.886761   24.960476    0.002914   -2.292401
  0.030821643    0.000000    0.000000    0.000000    0.000000  -94.534416   27.872011    0.003136   -2.310187
  0.031022044    0.000000    0.000000    0.000000    0.000000  -95.467858   29.693710    0.003277   -2.327472
  0.031222445    0.000000    0.000000    0.000000    0.000000  -97.143404   17.435713    0.004121   -2.339024
  0.031422846    0.000000    0.000000    0.000000    0.000000  -95.863873   18.509249    0.005517   -2.351124
  0.031623246    0.000000    0.000000    0.000000    0.000000  -97.865846   26.777050    0.005157   -2.368546
  0.031823647    0.000000    0.000000    0.000000    0.000000  -96.366497   24.261103    0.005166   -2.384006
  0.032024048    0.000000    0.000000    0.000000    0.000000  -96.595223   18.088680    0.004870   -2.390696
  0.032224449    0.000000    0.000000    0.000000    0.000000  -95.655595   23.311125    0.004740   -2.409834
  0.032424850    0.000000    0.000000    0.000000    0.000000  -96.240004   24.186872    0.004338   -2.421782
  0.032625250    0.000000    0.000000    0.000000    0.000000  -96.914255   22.637209    0.005051   -2.435367
  0.032825651    0.000000    0.000000    0.000000    0.000000  -96.488580   17.985985    0.005121   -2.455391
  0.033026052    0.000000    0.000000    0.000000    0.000000  -96.403263   23.943859    0.004448   -2.478961
  0.033226453    0.000000    0.000000    0.000000    0.000000  -96.739745   17.238468    0.004334   -2.490739
  0.033426854    0.000000    0.000000    0.000000    0.000000  -96.988551   22.869301    0.005131   -2.504656
  0.033627254    0.000000    0.000000    0.000000    0.000000  -96.527110   28.372528    0.004477   -2.514870
  0.033827655    0.000000    0.000000    0.000000    0.000000  -96.522110   23.507669    0.004816   -2.531687
  0.034028056    0.000000    0.000000    0.000000    0.000000  -97.434971   24.515604    0.003513   -2.554993
  0.034228457    0.000000    0.000000    0.000000    0.000000  -96.755038   28.519804    0.003249   -2.563453
  0.034428858    0.000000    0.000000    0.000000    0.000000  -97.661995   21.313639    0.004532   -2.588572
  0.034629258    0.000000    0.000000    0.000000    0.000000  -96.544862   30.376072    0.004971   -2.604227
  0.034829659    0.000000    0.000000    0.000000    0.000000  -96.545262   29.100338    0.003868   -2.608090
  0.035030060    0.000000    0.000000    0.000000    0.000000  -96.606440   23.621798    0.005147   -2.628398
  0.035230461    0.000000    0.000000    0.000000    0.000000  -96.808557   32.006401    0.005162   -2.640569
  0.035430862    0.000000    0.000000    0.000000    0.000000  -96.218998   21.234186    0.004188   -2.650508
  0.035631262    0.000000    0.000000    0.000000    0.000000  -96.641368   23.916857    0.005662   -2.670946
  0.035831663    0.000000    0.000000    0.000000    0.000000  -97.194749   26.012434    0.005037   -2.688181
  0.036032064    0.000000    0.000000    0.000000    0.000000  -97.103175   31.679022    0.004994   -2.706424
  0.036232465    0.000000    0.000000    0.000000    0.000000  -98.686127   25.125870    0.005745   -2.713097
  0.036432866    0.000000    0.000000    0.000000    0.000000  -97.402192   29.271542    0.005962   -2.731194
  0.036633266    0.000000    0.000000    0.000000    0.000000  -96.388378   30.602985    0.004720   -2.738545
  0.036833667    0.000000    0.000000    0.000000    0.000000  -97.771669   19.380758    0.004471   -2.767502
  0.037034068    0.000000    0.000000    0.000000    0.000000  -97.731010   24.674467    0.006299   -2.778567
  0.037234469    0.000000    0.000000    0.000000    0.000000  -96.111535   29.803541    0.005861   -2.799149
  0.037434870    0.000000    0.000000    0.000000    0.000000  -97.337617   29.687042    0.006480   -2.807794
  0.037635270    0.000000    0.000000    0.000000    0.000000  -96.866036   29.949369    0.006416   -2.828267
  0.037835671    0.000000    0.000000    0.000000    0.000000  -97.557256   39.203789    0.006738   -2.843416
  0.038036072    0.000000    0.000000    0.000000    0.000000  -96.814644   30.589470    0.005687   -2.852664
  0.038236473    0.000000    0.000000    0.000000    0.000000  -98.300382   36.115578    0.006313   -2.865167
  0.038436874    0.000000    0.000000    0.000000    0.000000  -97.305579   34.064880    0.006523   -2.878064
  0.038637274    0.000000    0.000000    0.000000    0.000000  -96.473410   29.326643    0.006611   -2.898512
  0.038837675    0.000000    0.000000    0.000000    0.000000  -98.194482   29.745945    0.006544   -2.913651
  0.039038076    0.000000    0.000000    0.000000    0.000000  -97.805535   38.805836    0.007085   -2.930650
  0.039238477    0.000000    0.000000    0.000000    0.000000  -98.526858   32.031494    0.005911   -2.944037
  0.039438878    0.000000    0.000000    0.000000    0.000000  -97.878331   32.338810    0.005445   -2.960026
  0.039639278    0.000000    0.000000    0.000000    0.000000  -97.964035   27.398109    0.006141   -2.978960
  0.039839679    0.000000    0.000000    0.000000    0.000000  -97.739415   27.721998    0.007257   -2.989309
  0.040040080    0.000000    0.000000    0.000000    0.000000  -97.743825   30.048178    0.006996   -3.008965
  0.040240481    0.000000    0.000000    0.000000    0.000000  -97.503619   36.358406    0.006683   -3.023045
  0.040440882    0.000000    0.000000    0.000000    0.000000  -97.713422   29.626503    0.007290   -3.042285
  0.040641283    0.000000    0.000000    0.000000    0.000000  -97.418981   36.501144    0.006538   -3.059106
  0.040841683    0.000000    0.000000    0.000000    0.000000  -97.779771   33.677883    0.006919   -3.068552
  0.041042084    0.000000    0.000000    0.000000    0.000000  -97.086473   28.905617    0.006536   -3.093032
  0.041242485    0.000000    0.000000    0.000000    0.000000  -98.113026   28.950115    0.006872   -3.100991
  0.041442886    0.000000    0.000000    0.000000    0.000000  -97.181219   35.384636    0.006070   -3.119735
  0.041643287    0.000000    0.000000    0.000000    0.000000  -98.387716   31.403301    0.006285   -3.128970
  0.041843687    0.000000    0.000000    0.000000    0.000000  -97.817214   32.809505    0.006470   -3.143806
  0.042044088    0.000000    0.000000    0.000000    0.000000  -98.161448   37.486107    0.007106   -3.164950
  0.042244489    0.000000    0.000000    0.000000    0.000000  -98.256024   36.317471    0.007481   -3.177455
  0.042444890    0.000000    0.000000    0.000000    0.000000  -97.956955   29.598841    0.006133   -3.192767
  0.042645291    0.000000    0.000000    0.000000    0.000000  -97.293991   31.414257    0.006713   -3.206980
  0.042845691    0.000000    0.000000    0.000000    0.000000  -97.615109   34.407009    0.006566   -3.221267
  0.043046092    0.000000    0.000000    0.000000    0.000000  -97.420552   35.181759    0.007080   -3.242665
  0.043246493    0.000000    0.000000    0.000000    0.000000  -98.882311   38.525032    0.006557   -3.250711
  0.043446894    0.000000    0.000000    0.000000    0.000000  -98.811192   33.705509    0.006722   -3.262697
  0.043647295    0.000000    0.000000    0.000000    0.000000  -98.528813   30.508266    0.006855   -3.291101
  0.043847695    0.000000    0.000000    0.000000    0.000000  -96.929811   33.928555    0.007144   -3.294266
  0.044048096    0.000000    0.000000    0.000000    0.000000  -98.661651   33.972778    0.006032   -3.311394
  0.044248497    0.000000    0.000000    0.000000    0.000000  -98.824063   33.153461    0.005641   -3.323199
  0.044448898    0.000000    0.000000    0.000000    0.000000  -98.439967   27.132320    0.004249   -3.335072
  0.044649299    0.000000    0.000000    0.000000    0.000000  -98.919713   30.971169    0.004479   -3.344237
  0.044849699    0.000000    0.000000    0.000000    0.000000  -98.784080   34.283276    0.003631   -3.359320
  0.045050100    0.000000    0.000000    0.000000    0.000000  -98.789597   35.386620    0.005657   -3.380761
  0.045250501    0.000000    0.000000    0.000000    0.000000  -98.517191   39.138378    0.006811   -3.400780
  0.045450902    0.000000    0.000000    0.000000    0.000000  -97.129839   32.399967    0.007608   -3.414025
  0.045651303    0.000000    0.000000    0.000000    0.000000  -98.139659   28.907181    0.007662   -3.426728
  0.045851703    0.000000    0.000000    0.000000    0.000000  -98.553716   35.792805    0.004900   -3.436603
  0.046052104    0.000000    0.000000    0.000000    0.000000  -99.448313   31.050566    0.006066   -3.448083
  0.046252505    0.000000    0.000000    0.000000    0.000000  -98.329509   35.664169    0.003927   -3.468079
  0.046452906    0.000000    0.000000    0.000000    0.000000  -98.609409   33.968792    0.003555   -3.481557
  0.046653307    0.000000    0.000000    0.000000    0.000000  -97.706383   35.121605    0.004061   -3.492094
  0.046853707    0.000000    0.000000    0.000000    0.000000  -99.308582   33.919643    0.003470   -3.505294
  0.047054108    0.000000    0.000000    0.000000    0.000000  -98.376547   33.681423    0.003634   -3.522872
  0.047254509    0.000000    0.000000    0.000000    0.000000  -98.531600   35.631958    0.005244   -3.532275
  0.047454910    0.000000    0.000000    0.000000    0.000000  -97.750147   29.073246    0.005035   -3.547111
  0.047655311    0.000000    0.000000    0.000000    0.000000  -98.368875   33.831532    0.005860   -3.570914
  0.047855711    0.000000    0.000000    0.000000    0.000000  -98.404883   35.221848    0.005495   -3.589343
  0.048056112    0.000000    0.000000    0.000000    0.000000  -97.957011   38.188488    0.006115   -3.605195
  0.048256513    0.000000    0.000000    0.000000    0.000000  -99.550622   26.742817    0.005259   -3.621128
  0.048456914    0.000000    0.000000    0.000000    0.000000  -98.558451   30.232141    0.004820   -3.629746
  0.048657315    0.000000    0.000000    0.000000    0.000000  -98.061618   28.948671    0.004813   -3.645299
  0.048857715    0.000000    0.000000    0.000000    0.000000  -98.308516   33.073509    0.004811   -3.663891
  0.049058116    0.000000    0.000000    0.000000    0.000000  -99.789504   25.536335    0.004398   -3.668932
  0.049258517    0.000000    0.000000    0.000000    0.000000  -99.156805   30.781126    0.004629   -3.688041
  0.049458918    0.000000    0.000000    0.000000    0.000000  -97.625763   27.816931    0.004457   -3.700773
  0.049659319    0.000000    0.000000    0.000000    0.000000  -97.716726   35.013676    0.003841   -3.717731
  0.049859719    0.000000    0.000000    0.000000    0.000000  -98.773266   24.929075    0.003982   -3.729395
  0.050060120    0.000000    0.000000    0.000000    0.000000  -97.759675   34.179863    0.003935   -3.752631
  0.050260521    0.000000    0.000000    0.000000    0.000000  -96.943459   28.985161    0.003524   -3.764712
  0.050460922    0.000000    0.000000    0.000000    0.000000  -98.752143   31.057110    0.003011   -3.778683
  0.050661323    0.000000    0.000000    0.000000    0.000000  -97.868649   34.136002    0.004106   -3.792370
  0.050861723    0.000000    0.000000    0.000000    0.000000  -98.596209   32.984982    0.003369   -3.808242
  0.051062124    0.000000    0.000000    0.000000    0.000000  -99.552461   22.804214    0.003225   -3.823264
  0.051262525    0.000000    0.000000    0.000000    0.000000  -98.865363   31.541988    0.003514   -3.843130
  0.051462926    0.000000    0.000000    0.000000    0.000000  -99.030851   33.285553    0.004130   -3.855800
  0.051663327    0.000000    0.000000    0.000000    0.000000  -98.296708   33.805473    0.003802   -3.870537
  0.051863727    0.000000    0.000000    0.000000    0.000000  -99.564225   30.350018    0.004337   -3.881967
  0.052064128    0.000000    0.000000    0.000000    0.000000  -97.890521   34.560513    0.003792   -3.894955
  0.052264529    0.000000    0.000000    0.000000    0.000000  -99.450489   37.476616    0.002655   -3.912935
  0.052464930    0.000000    0.000000    0.000000    0.000000  -97.970015   37.764107    0.003358   -3.920317
  0.052665331    0.000000    0.000000    0.000000    0.000000  -98.114329   24.626852    0.002811   -3.942025
  0.052865731    0.000000    0.000000    0.000000    0.000000  -99.703280   32.614872    0.002257   -3.956493
  0.053066132    0.000000    0.000000    0.000000    0.000000  -98.263727   30.251966    0.002934   -3.973679
  0.053266533    0.000000    0.000000    0.000000    0.000000  -99.009315   25.965294    0.002374   -3.976691
  0.053466934    0.000000    0.000000    0.000000    0.000000  -98.875051   21.868055    0.002331   -3.998157
  0.053667335    0.000000    0.000000    0.000000    0.000000  -99.673155   18.306400    0.002608   -4.012775
