! Anritsu VNA Master:                     Model: MS2036C/10/77
! SN:                                  1601066
! /bd0/18may12.cable.cal/test.bad.sma-f.key.short.via.sma-m.barrel.s2p
! Existing Calibration Information:
! TYPE:                         Current Settings,       Active Cal Settings
! TIME:             	   05/12/2018 01:17:16 PM,    05/12/2018 01:02:08 PM
! INTERNAL TEMP:    	                   49.8 C,                    50.0 C
! # POINTS:         	                      485,                       485
! START FREQ:       	           20.801 603 MHz,            20.801 603 MHz
! STOP FREQ:        	          117.795 590 MHz,           117.795 590 MHz
! SOURCE POWER:     	                     High,                      High
! IFBW:             	                    50 Hz,                     50 Hz
! AVG FACTOR:       	                       1 ,                        1 
! REF PLANE 1:      	                     0 mm,                      0 mm
! REF PLANE 2:      	                     0 mm,                      0 mm
! CAL TYPE:         	                 Full S22,                  Full S22
! CAL METHOD:       	                     SOLT,                      SOLT
! CAL LINE TYPE:    	                     Coax,                      Coax
! DUT PORT 1:       	                K-Conn(M),                 K-Conn(M)
! DUT PORT 2:       	                K-Conn(M),                 K-Conn(M)
! CAL STATUS:       	        OK: Accuracy High,                        --
# GHZ S DB R 50.0
! FREQ.GHZ       S11DB        S11A       S21DB        S21A       S12DB        S12A       S22DB        S22A
  0.020801603    0.000000    0.000000    0.000000    0.000000  -89.401760   52.129097   -0.007449  178.352966
  0.021002004    0.000000    0.000000    0.000000    0.000000  -89.827946   45.662708   -0.007674  178.338745
  0.021202405    0.000000    0.000000    0.000000    0.000000  -89.844573   50.072521   -0.007978  178.324951
  0.021402806    0.000000    0.000000    0.000000    0.000000  -89.840419   48.075157   -0.009218  178.310349
  0.021603206    0.000000    0.000000    0.000000    0.000000  -90.212649   47.734158   -0.009086  178.294586
  0.021803607    0.000000    0.000000    0.000000    0.000000  -89.653494   45.542908   -0.010100  178.280426
  0.022004008    0.000000    0.000000    0.000000    0.000000  -90.378079   44.884914   -0.008880  178.262878
  0.022204409    0.000000    0.000000    0.000000    0.000000  -90.546588   47.174534   -0.009307  178.244003
  0.022404810    0.000000    0.000000    0.000000    0.000000  -90.494973   43.075451   -0.009632  178.235382
  0.022605210    0.000000    0.000000    0.000000    0.000000  -90.546741   41.577389   -0.013077  178.233307
  0.022805611    0.000000    0.000000    0.000000    0.000000  -90.642365   45.315773   -0.010315  178.208572
  0.023006012    0.000000    0.000000    0.000000    0.000000  -90.394221   44.040314   -0.009532  178.184998
  0.023206413    0.000000    0.000000    0.000000    0.000000  -90.646638   45.127804   -0.009545  178.174973
  0.023406814    0.000000    0.000000    0.000000    0.000000  -90.606756   42.301411   -0.010548  178.159393
  0.023607214    0.000000    0.000000    0.000000    0.000000  -91.034571   39.436260   -0.012431  178.145691
  0.023807615    0.000000    0.000000    0.000000    0.000000  -90.887703   41.108147   -0.012021  178.133209
  0.024008016    0.000000    0.000000    0.000000    0.000000  -90.941387   38.438774   -0.011566  178.111786
  0.024208417    0.000000    0.000000    0.000000    0.000000  -91.625278   41.205368   -0.012058  178.105804
  0.024408818    0.000000    0.000000    0.000000    0.000000  -91.040616   36.394695   -0.011837  178.087631
  0.024609218    0.000000    0.000000    0.000000    0.000000  -91.243036   37.631573   -0.012138  178.076752
  0.024809619    0.000000    0.000000    0.000000    0.000000  -91.138210   37.115448   -0.013449  178.064117
  0.025010020    0.000000    0.000000    0.000000    0.000000  -90.772718   37.383507   -0.013528  178.054138
  0.025210421    0.000000    0.000000    0.000000    0.000000  -91.671656   37.573105   -0.013765  178.025894
  0.025410822    0.000000    0.000000    0.000000    0.000000  -91.838502   34.473953   -0.014226  178.017731
  0.025611222    0.000000    0.000000    0.000000    0.000000  -91.982296   35.060089   -0.014742  178.006500
  0.025811623    0.000000    0.000000    0.000000    0.000000  -91.387556   35.323608   -0.014616  177.992554
  0.026012024    0.000000    0.000000    0.000000    0.000000  -91.639152   32.418411   -0.013766  177.973572
  0.026212425    0.000000    0.000000    0.000000    0.000000  -91.875258   32.548847   -0.014583  177.960510
  0.026412826    0.000000    0.000000    0.000000    0.000000  -92.711237   30.873196   -0.014679  177.949173
  0.026613226    0.000000    0.000000    0.000000    0.000000  -92.544899   34.553776   -0.016325  177.934906
  0.026813627    0.000000    0.000000    0.000000    0.000000  -92.255167   34.760075   -0.015769  177.916077
  0.027014028    0.000000    0.000000    0.000000    0.000000  -92.785512   33.984177   -0.015539  177.907471
  0.027214429    0.000000    0.000000    0.000000    0.000000  -92.905084   33.963612   -0.015306  177.890686
  0.027414830    0.000000    0.000000    0.000000    0.000000  -92.433917   31.899294   -0.016020  177.868942
  0.027615230    0.000000    0.000000    0.000000    0.000000  -92.902967   31.387299   -0.015705  177.857956
  0.027815631    0.000000    0.000000    0.000000    0.000000  -92.874952   30.301018   -0.016266  177.843277
  0.028016032    0.000000    0.000000    0.000000    0.000000  -92.321403   25.275425   -0.016900  177.829346
  0.028216433    0.000000    0.000000    0.000000    0.000000  -93.093479   28.204546   -0.016656  177.817261
  0.028416834    0.000000    0.000000    0.000000    0.000000  -92.770390   30.699709   -0.017215  177.799377
  0.028617234    0.000000    0.000000    0.000000    0.000000  -93.343053   27.825710   -0.017172  177.786118
  0.028817635    0.000000    0.000000    0.000000    0.000000  -93.149025   28.350079   -0.016881  177.778000
  0.029018036    0.000000    0.000000    0.000000    0.000000  -93.633932   29.113649   -0.017577  177.757401
  0.029218437    0.000000    0.000000    0.000000    0.000000  -93.360153   26.747845   -0.017753  177.742981
  0.029418838    0.000000    0.000000    0.000000    0.000000  -93.726359   29.261141   -0.017813  177.729813
  0.029619238    0.000000    0.000000    0.000000    0.000000  -93.795696   31.022778   -0.017484  177.714279
  0.029819639    0.000000    0.000000    0.000000    0.000000  -93.834388   22.650206   -0.018752  177.700516
  0.030020040    0.000000    0.000000    0.000000    0.000000  -94.350294   25.369896   -0.018091  177.682343
  0.030220441    0.000000    0.000000    0.000000    0.000000  -93.696679   24.577770   -0.018508  177.666519
  0.030420842    0.000000    0.000000    0.000000    0.000000  -93.792098   31.113247   -0.019056  177.656525
  0.030621242    0.000000    0.000000    0.000000    0.000000  -93.737908   20.791538   -0.018492  177.633087
  0.030821643    0.000000    0.000000    0.000000    0.000000  -93.621933   28.273815   -0.018541  177.620163
  0.031022044    0.000000    0.000000    0.000000    0.000000  -94.150576   24.655102   -0.019120  177.600143
  0.031222445    0.000000    0.000000    0.000000    0.000000  -94.249284   27.461428   -0.017342  177.586334
  0.031422846    0.000000    0.000000    0.000000    0.000000  -93.761222   26.303802   -0.017594  177.578033
  0.031623246    0.000000    0.000000    0.000000    0.000000  -94.604105   24.590897   -0.017056  177.560745
  0.031823647    0.000000    0.000000    0.000000    0.000000  -94.173191   25.937538   -0.016894  177.554459
  0.032024048    0.000000    0.000000    0.000000    0.000000  -93.603836   17.288683   -0.018194  177.534760
  0.032224449    0.000000    0.000000    0.000000    0.000000  -93.820183   25.273355   -0.017202  177.523041
  0.032424850    0.000000    0.000000    0.000000    0.000000  -93.648039   22.966799   -0.017995  177.501938
  0.032625250    0.000000    0.000000    0.000000    0.000000  -93.977032   23.804832   -0.017948  177.485641
  0.032825651    0.000000    0.000000    0.000000    0.000000  -93.865704   27.574968   -0.018211  177.479370
  0.033026052    0.000000    0.000000    0.000000    0.000000  -95.352768   25.305824   -0.019230  177.450607
  0.033226453    0.000000    0.000000    0.000000    0.000000  -94.986681   28.717056   -0.019322  177.446213
  0.033426854    0.000000    0.000000    0.000000    0.000000  -95.342389   16.610033   -0.017266  177.424393
  0.033627254    0.000000    0.000000    0.000000    0.000000  -95.196956   22.419018   -0.019147  177.414124
  0.033827655    0.000000    0.000000    0.000000    0.000000  -94.808697   18.285078   -0.019105  177.397812
  0.034028056    0.000000    0.000000    0.000000    0.000000  -95.164977   19.608110   -0.018554  177.374924
  0.034228457    0.000000    0.000000    0.000000    0.000000  -95.672215   29.922245   -0.019307  177.370468
  0.034428858    0.000000    0.000000    0.000000    0.000000  -95.406226   24.820330   -0.019081  177.353088
  0.034629258    0.000000    0.000000    0.000000    0.000000  -94.974700   19.799971   -0.018239  177.333588
  0.034829659    0.000000    0.000000    0.000000    0.000000  -95.155732   20.337021   -0.019953  177.319641
  0.035030060    0.000000    0.000000    0.000000    0.000000  -95.486058   22.844257   -0.019387  177.308807
  0.035230461    0.000000    0.000000    0.000000    0.000000  -96.476346   23.406897   -0.019064  177.290421
  0.035430862    0.000000    0.000000    0.000000    0.000000  -94.991174   23.047649   -0.018897  177.271957
  0.035631262    0.000000    0.000000    0.000000    0.000000  -95.133718   26.325020   -0.019016  177.265518
  0.035831663    0.000000    0.000000    0.000000    0.000000  -96.206020   21.548197   -0.019202  177.244431
  0.036032064    0.000000    0.000000    0.000000    0.000000  -95.796107   20.197926   -0.019644  177.234573
  0.036232465    0.000000    0.000000    0.000000    0.000000  -96.100324   19.637524   -0.019773  177.222443
  0.036432866    0.000000    0.000000    0.000000    0.000000  -95.833027   21.557390   -0.019821  177.207703
  0.036633266    0.000000    0.000000    0.000000    0.000000  -96.795846   20.833517   -0.018864  177.178696
  0.036833667    0.000000    0.000000    0.000000    0.000000  -96.429724   19.442060   -0.019405  177.171631
  0.037034068    0.000000    0.000000    0.000000    0.000000  -95.478596   17.279499   -0.018509  177.149887
  0.037234469    0.000000    0.000000    0.000000    0.000000  -97.052772   18.519156   -0.018319  177.137390
  0.037434870    0.000000    0.000000    0.000000    0.000000  -96.903966   15.547547   -0.018419  177.116119
  0.037635270    0.000000    0.000000    0.000000    0.000000  -96.199342   22.746964   -0.019510  177.103897
  0.037835671    0.000000    0.000000    0.000000    0.000000  -97.709650   21.355789   -0.019979  177.087845
  0.038036072    0.000000    0.000000    0.000000    0.000000  -97.200493   24.067493   -0.020006  177.072189
  0.038236473    0.000000    0.000000    0.000000    0.000000  -97.268887   24.274406   -0.019436  177.058258
  0.038436874    0.000000    0.000000    0.000000    0.000000  -96.224487   23.368410   -0.018214  177.047958
  0.038637274    0.000000    0.000000    0.000000    0.000000  -97.582314   20.545933   -0.019591  177.029099
  0.038837675    0.000000    0.000000    0.000000    0.000000  -98.357033   18.470055   -0.019337  177.016739
  0.039038076    0.000000    0.000000    0.000000    0.000000  -97.353720   24.653570   -0.019292  177.004379
  0.039238477    0.000000    0.000000    0.000000    0.000000  -97.124633   23.486284   -0.019440  176.983673
  0.039438878    0.000000    0.000000    0.000000    0.000000  -97.392948   27.664679   -0.018837  176.968170
  0.039639278    0.000000    0.000000    0.000000    0.000000  -97.725573   24.709192   -0.020009  176.954620
  0.039839679    0.000000    0.000000    0.000000    0.000000  -98.190435   16.108210   -0.020270  176.940399
  0.040040080    0.000000    0.000000    0.000000    0.000000  -97.918568   25.794863   -0.019466  176.915588
  0.040240481    0.000000    0.000000    0.000000    0.000000  -98.276693   19.305922   -0.019210  176.904633
  0.040440882    0.000000    0.000000    0.000000    0.000000  -98.458154   21.858917   -0.019149  176.883362
  0.040641283    0.000000    0.000000    0.000000    0.000000  -96.741042   22.653572   -0.019982  176.871277
  0.040841683    0.000000    0.000000    0.000000    0.000000  -98.530981   13.988533   -0.019780  176.855362
  0.041042084    0.000000    0.000000    0.000000    0.000000  -98.442172   17.031521   -0.019756  176.841064
  0.041242485    0.000000    0.000000    0.000000    0.000000  -99.861729   25.920067   -0.019989  176.827255
  0.041442886    0.000000    0.000000    0.000000    0.000000  -98.338961   27.322384   -0.019970  176.811554
  0.041643287    0.000000    0.000000    0.000000    0.000000  -97.836969   20.025721   -0.019919  176.794098
  0.041843687    0.000000    0.000000    0.000000    0.000000  -99.034952   24.131826   -0.020878  176.783829
  0.042044088    0.000000    0.000000    0.000000    0.000000  -98.436597   36.810474   -0.021764  176.771103
  0.042244489    0.000000    0.000000    0.000000    0.000000  -98.351634   25.492895   -0.021016  176.753082
  0.042444890    0.000000    0.000000    0.000000    0.000000  -99.241780   28.856897   -0.021372  176.737808
  0.042645291    0.000000    0.000000    0.000000    0.000000  -97.831133   15.527518   -0.020873  176.730408
  0.042845691    0.000000    0.000000    0.000000    0.000000  -99.597827   21.793274   -0.022511  176.710144
  0.043046092    0.000000    0.000000    0.000000    0.000000  -98.365119   27.246334   -0.021251  176.691772
  0.043246493    0.000000    0.000000    0.000000    0.000000 -100.810259   26.056957   -0.021423  176.680649
  0.043446894    0.000000    0.000000    0.000000    0.000000  -99.471775   29.218399   -0.020756  176.668198
  0.043647295    0.000000    0.000000    0.000000    0.000000  -98.457848   29.248817   -0.021353  176.652878
  0.043847695    0.000000    0.000000    0.000000    0.000000 -100.754739   25.839211   -0.022266  176.642715
  0.044048096    0.000000    0.000000    0.000000    0.000000 -100.458348   24.876022   -0.022802  176.624588
  0.044248497    0.000000    0.000000    0.000000    0.000000  -99.413883   35.181522   -0.023358  176.610718
  0.044448898    0.000000    0.000000    0.000000    0.000000  -99.051920   25.387835   -0.024894  176.602982
  0.044649299    0.000000    0.000000    0.000000    0.000000 -100.164059   23.514378   -0.024258  176.591446
  0.044849699    0.000000    0.000000    0.000000    0.000000  -98.758986   22.883194   -0.024870  176.578110
  0.045050100    0.000000    0.000000    0.000000    0.000000 -100.083146   26.901596   -0.024249  176.557800
  0.045250501    0.000000    0.000000    0.000000    0.000000 -100.735990   32.141975   -0.023947  176.543854
  0.045450902    0.000000    0.000000    0.000000    0.000000 -100.078002   21.972469   -0.021680  176.520233
  0.045651303    0.000000    0.000000    0.000000    0.000000 -100.310475   19.393717   -0.021721  176.501099
  0.045851703    0.000000    0.000000    0.000000    0.000000 -100.196138   35.609138   -0.021814  176.494141
  0.046052104    0.000000    0.000000    0.000000    0.000000  -99.524426   21.336702   -0.022952  176.483353
  0.046252505    0.000000    0.000000    0.000000    0.000000  -99.578371   27.017603   -0.024499  176.468643
  0.046452906    0.000000    0.000000    0.000000    0.000000  -99.704648   28.136332   -0.024808  176.452240
  0.046653307    0.000000    0.000000    0.000000    0.000000  -99.139583   18.876392   -0.025749  176.441879
  0.046853707    0.000000    0.000000    0.000000    0.000000  -99.719070   27.816637   -0.025983  176.428772
  0.047054108    0.000000    0.000000    0.000000    0.000000  -99.976773   27.748817   -0.025924  176.417007
  0.047254509    0.000000    0.000000    0.000000    0.000000  -99.878073   15.857003   -0.026197  176.406219
  0.047454910    0.000000    0.000000    0.000000    0.000000 -101.059897   38.319332   -0.026765  176.390854
  0.047655311    0.000000    0.000000    0.000000    0.000000  -99.027378   35.333370   -0.024792  176.371582
  0.047855711    0.000000    0.000000    0.000000    0.000000 -102.419788   20.231913   -0.024210  176.352921
  0.048056112    0.000000    0.000000    0.000000    0.000000 -100.036572   26.378422   -0.024247  176.330582
  0.048256513    0.000000    0.000000    0.000000    0.000000  -99.390822   25.742491   -0.025397  176.326752
  0.048456914    0.000000    0.000000    0.000000    0.000000  -99.265554   30.673847   -0.025426  176.309143
  0.048657315    0.000000    0.000000    0.000000    0.000000 -101.072896   37.329994   -0.026601  176.294586
  0.048857715    0.000000    0.000000    0.000000    0.000000  -99.263222   33.372154   -0.026304  176.282974
  0.049058116    0.000000    0.000000    0.000000    0.000000 -100.430706   35.812405   -0.025963  176.275879
  0.049258517    0.000000    0.000000    0.000000    0.000000 -101.035606   39.915245   -0.027018  176.253647
  0.049458918    0.000000    0.000000    0.000000    0.000000  -99.489892   25.701447   -0.026095  176.236374
  0.049659319    0.000000    0.000000    0.000000    0.000000  -99.605185   36.326431   -0.027235  176.218521
  0.049859719    0.000000    0.000000    0.000000    0.000000 -101.343609   25.654818   -0.026807  176.212448
  0.050060120    0.000000    0.000000    0.000000    0.000000  -98.661461   29.262608   -0.026597  176.195816
  0.050260521    0.000000    0.000000    0.000000    0.000000  -99.189877   34.770466   -0.026967  176.189285
  0.050460922    0.000000    0.000000    0.000000    0.000000 -102.047895   44.644531   -0.027565  176.167221
  0.050661323    0.000000    0.000000    0.000000    0.000000 -100.915922   31.920906   -0.027576  176.153671
  0.050861723    0.000000    0.000000    0.000000    0.000000  -99.963778   33.656662   -0.027382  176.137314
  0.051062124    0.000000    0.000000    0.000000    0.000000 -100.815024   27.974401   -0.028587  176.119415
  0.051262525    0.000000    0.000000    0.000000    0.000000  -99.387579   34.362774   -0.027480  176.106094
  0.051462926    0.000000    0.000000    0.000000    0.000000 -101.511935   30.895647   -0.028165  176.087860
  0.051663327    0.000000    0.000000    0.000000    0.000000 -100.005821   34.674332   -0.027721  176.082138
  0.051863727    0.000000    0.000000    0.000000    0.000000 -100.517657   46.264454   -0.027251  176.061264
  0.052064128    0.000000    0.000000    0.000000    0.000000  -99.438692   37.731869   -0.028056  176.042252
  0.052264529    0.000000    0.000000    0.000000    0.000000 -101.423330   38.756126   -0.029624  176.035126
  0.052464930    0.000000    0.000000    0.000000    0.000000  -98.939848   47.661594   -0.028390  176.012589
  0.052665331    0.000000    0.000000    0.000000    0.000000  -99.710062   42.000572   -0.028458  176.008179
  0.052865731    0.000000    0.000000    0.000000    0.000000 -101.134997   42.848167   -0.028650  175.993393
  0.053066132    0.000000    0.000000    0.000000    0.000000  -99.539843   39.957020   -0.029802  175.977661
  0.053266533    0.000000    0.000000    0.000000    0.000000 -100.987838   31.949163   -0.030070  175.969223
  0.053466934    0.000000    0.000000    0.000000    0.000000  -99.678638   44.335011   -0.030490  175.945572
  0.053667335    0.000000    0.000000    0.000000    0.000000  -99.630276   36.292583   -0.030040  175.932236
