! Anritsu VNA Master:                     Model: MS2036C/10/77
! SN:                                  1601066
! /bd0/18may12.cable.cal/uu.200.s2p
! Existing Calibration Information:
! TYPE:                         Current Settings,       Active Cal Settings
! TIME:             	   05/12/2018 01:56:09 PM,    05/12/2018 01:41:40 PM
! INTERNAL TEMP:    	                   49.0 C,                    49.0 C
! # POINTS:         	                      500,                       500
! START FREQ:       	               20.000 MHz,                20.000 MHz
! STOP FREQ:        	              120.000 MHz,               120.000 MHz
! SOURCE POWER:     	                     High,                      High
! IFBW:             	                    50 Hz,                     50 Hz
! AVG FACTOR:       	                       1 ,                        1 
! REF PLANE 1:      	                     0 mm,                      0 mm
! REF PLANE 2:      	                     0 mm,                      0 mm
! CAL TYPE:         	                 Full S22,                  Full S22
! CAL METHOD:       	                     SOLT,                      SOLT
! CAL LINE TYPE:    	                     Coax,                      Coax
! DUT PORT 1:       	                K-Conn(M),                 K-Conn(M)
! DUT PORT 2:       	                K-Conn(M),                 K-Conn(M)
! CAL STATUS:       	        OK: Accuracy High,                        --
# GHZ S DB R 50.0
! FREQ.GHZ       S11DB        S11A       S21DB        S21A       S12DB        S12A       S22DB        S22A
  0.020000000    0.000000    0.000000    0.000000    0.000000  -89.626892   36.343948   -4.533448  -22.288107
  0.020200401    0.000000    0.000000    0.000000    0.000000  -90.200045   39.168739   -4.534223  -22.527004
  0.020400802    0.000000    0.000000    0.000000    0.000000  -91.110391   42.748039   -4.534657  -22.741957
  0.020601202    0.000000    0.000000    0.000000    0.000000  -90.730911   40.127373   -4.536080  -22.958454
  0.020801603    0.000000    0.000000    0.000000    0.000000  -90.789009   40.249187   -4.536335  -23.189838
  0.021002004    0.000000    0.000000    0.000000    0.000000  -91.058420   37.214146   -4.538086  -23.416746
  0.021202405    0.000000    0.000000    0.000000    0.000000  -91.038683   34.823578   -4.538144  -23.639248
  0.021402806    0.000000    0.000000    0.000000    0.000000  -91.442908   39.324448   -4.538905  -23.868406
  0.021603206    0.000000    0.000000    0.000000    0.000000  -91.084532   38.579983   -4.538836  -24.091013
  0.021803607    0.000000    0.000000    0.000000    0.000000  -91.392068   39.412380   -4.540431  -24.314402
  0.022004008    0.000000    0.000000    0.000000    0.000000  -91.756329   38.001404   -4.540934  -24.531687
  0.022204409    0.000000    0.000000    0.000000    0.000000  -91.840898   38.264221   -4.541717  -24.763313
  0.022404810    0.000000    0.000000    0.000000    0.000000  -91.609732   35.341740   -4.541686  -24.986626
  0.022605210    0.000000    0.000000    0.000000    0.000000  -92.079590   34.913570   -4.542146  -25.213467
  0.022805611    0.000000    0.000000    0.000000    0.000000  -92.119920   30.939085   -4.544192  -25.420256
  0.023006012    0.000000    0.000000    0.000000    0.000000  -91.835886   35.317318   -4.545539  -25.652199
  0.023206413    0.000000    0.000000    0.000000    0.000000  -92.526618   30.681581   -4.546506  -25.869482
  0.023406814    0.000000    0.000000    0.000000    0.000000  -92.172688   33.303185   -4.544935  -26.096457
  0.023607214    0.000000    0.000000    0.000000    0.000000  -92.384303   32.075741   -4.545606  -26.333267
  0.023807615    0.000000    0.000000    0.000000    0.000000  -92.598575   35.047894   -4.546497  -26.564402
  0.024008016    0.000000    0.000000    0.000000    0.000000  -92.571748   38.495293   -4.548138  -26.772766
  0.024208417    0.000000    0.000000    0.000000    0.000000  -92.509916   33.393738   -4.548657  -27.002787
  0.024408818    0.000000    0.000000    0.000000    0.000000  -92.035344   35.775990   -4.548054  -27.220257
  0.024609218    0.000000    0.000000    0.000000    0.000000  -93.386178   31.025433   -4.549182  -27.448738
  0.024809619    0.000000    0.000000    0.000000    0.000000  -92.575999   36.811451   -4.550500  -27.668573
  0.025010020    0.000000    0.000000    0.000000    0.000000  -93.241537   32.755100   -4.551541  -27.891565
  0.025210421    0.000000    0.000000    0.000000    0.000000  -92.888079   36.503395   -4.551541  -28.118866
  0.025410822    0.000000    0.000000    0.000000    0.000000  -93.792431   33.057533   -4.553111  -28.342005
  0.025611222    0.000000    0.000000    0.000000    0.000000  -93.079226   31.955856   -4.553628  -28.561806
  0.025811623    0.000000    0.000000    0.000000    0.000000  -93.345682   31.122198   -4.556590  -28.791948
  0.026012024    0.000000    0.000000    0.000000    0.000000  -94.038972   33.575825   -4.556507  -29.010286
  0.026212425    0.000000    0.000000    0.000000    0.000000  -93.719127   33.215996   -4.556753  -29.236946
  0.026412826    0.000000    0.000000    0.000000    0.000000  -94.046437   28.030039   -4.558346  -29.470701
  0.026613226    0.000000    0.000000    0.000000    0.000000  -93.918271   27.520992   -4.558520  -29.688595
  0.026813627    0.000000    0.000000    0.000000    0.000000  -94.330974   32.453964   -4.558583  -29.919518
  0.027014028    0.000000    0.000000    0.000000    0.000000  -94.039352   28.544376   -4.559585  -30.149754
  0.027214429    0.000000    0.000000    0.000000    0.000000  -93.767746   30.377245   -4.560777  -30.370764
  0.027414830    0.000000    0.000000    0.000000    0.000000  -94.346676   33.392174   -4.561652  -30.587271
  0.027615230    0.000000    0.000000    0.000000    0.000000  -95.271067   23.768797   -4.560058  -30.823132
  0.027815631    0.000000    0.000000    0.000000    0.000000  -94.028621   30.554493   -4.563193  -31.046041
  0.028016032    0.000000    0.000000    0.000000    0.000000  -94.770801   28.699902   -4.563694  -31.277451
  0.028216433    0.000000    0.000000    0.000000    0.000000  -94.875785   24.435783   -4.562909  -31.498568
  0.028416834    0.000000    0.000000    0.000000    0.000000  -94.988194   31.101433   -4.564236  -31.733685
  0.028617234    0.000000    0.000000    0.000000    0.000000  -94.537310   23.139236   -4.562797  -31.952831
  0.028817635    0.000000    0.000000    0.000000    0.000000  -95.339293   32.124538   -4.565956  -32.177315
  0.029018036    0.000000    0.000000    0.000000    0.000000  -94.752554   32.181919   -4.565760  -32.405228
  0.029218437    0.000000    0.000000    0.000000    0.000000  -94.655052   34.364689   -4.566150  -32.626404
  0.029418838    0.000000    0.000000    0.000000    0.000000  -95.081877   32.625366   -4.567725  -32.858273
  0.029619238    0.000000    0.000000    0.000000    0.000000  -95.095157   33.672241   -4.566659  -33.084454
  0.029819639    0.000000    0.000000    0.000000    0.000000  -94.685664   34.579708   -4.568216  -33.308846
  0.030020040    0.000000    0.000000    0.000000    0.000000  -94.921118   30.221781   -4.567759  -33.549747
  0.030220441    0.000000    0.000000    0.000000    0.000000  -95.285308   32.270126   -4.568947  -33.768345
  0.030420842    0.000000    0.000000    0.000000    0.000000  -95.485674   31.564411   -4.569238  -33.991413
  0.030621242    0.000000    0.000000    0.000000    0.000000  -95.467120   32.234451   -4.569385  -34.229794
  0.030821643    0.000000    0.000000    0.000000    0.000000  -95.368852   29.696426   -4.571024  -34.448097
  0.031022044    0.000000    0.000000    0.000000    0.000000  -95.069346   28.811224   -4.570643  -34.672108
  0.031222445    0.000000    0.000000    0.000000    0.000000  -95.698108   24.916687   -4.557841  -34.848690
  0.031422846    0.000000    0.000000    0.000000    0.000000  -95.114668   26.145250   -4.558697  -35.064369
  0.031623246    0.000000    0.000000    0.000000    0.000000  -95.469440   23.027308   -4.559663  -35.302414
  0.031823647    0.000000    0.000000    0.000000    0.000000  -95.579313   30.140327   -4.562013  -35.539513
  0.032024048    0.000000    0.000000    0.000000    0.000000  -96.043722   17.421288   -4.561030  -35.766266
  0.032224449    0.000000    0.000000    0.000000    0.000000  -94.649794   26.951405   -4.563236  -35.987823
  0.032424850    0.000000    0.000000    0.000000    0.000000  -95.773057   19.436077   -4.563005  -36.228966
  0.032625251    0.000000    0.000000    0.000000    0.000000  -95.712211   22.791388   -4.564603  -36.450600
  0.032825651    0.000000    0.000000    0.000000    0.000000  -96.208999   25.964968   -4.564560  -36.672386
  0.033026052    0.000000    0.000000    0.000000    0.000000  -97.321457   19.867271   -4.566553  -36.900158
  0.033226453    0.000000    0.000000    0.000000    0.000000  -95.674519   26.426826   -4.566705  -37.127304
  0.033426854    0.000000    0.000000    0.000000    0.000000  -96.336525   23.767828   -4.567450  -37.362526
  0.033627255    0.000000    0.000000    0.000000    0.000000  -96.403069   26.019794   -4.568412  -37.584332
  0.033827655    0.000000    0.000000    0.000000    0.000000  -96.053946   27.189037   -4.566922  -37.812332
  0.034028056    0.000000    0.000000    0.000000    0.000000  -96.355419   28.954323   -4.569786  -38.035744
  0.034228457    0.000000    0.000000    0.000000    0.000000  -96.088489   26.667198   -4.568749  -38.264511
  0.034428858    0.000000    0.000000    0.000000    0.000000  -95.699053   25.620070   -4.567753  -38.489079
  0.034629259    0.000000    0.000000    0.000000    0.000000  -97.236562   23.113138   -4.569168  -38.708157
  0.034829659    0.000000    0.000000    0.000000    0.000000  -96.516419   29.931713   -4.569464  -38.956543
  0.035030060    0.000000    0.000000    0.000000    0.000000  -96.732198   27.625637   -4.569851  -39.172039
  0.035230461    0.000000    0.000000    0.000000    0.000000  -98.334331   25.199678   -4.568887  -39.393448
  0.035430862    0.000000    0.000000    0.000000    0.000000  -96.008711   27.778355   -4.570160  -39.629230
  0.035631263    0.000000    0.000000    0.000000    0.000000  -96.588315   28.336262   -4.570315  -39.850517
  0.035831663    0.000000    0.000000    0.000000    0.000000  -98.019236   33.307598   -4.572284  -40.074348
  0.036032064    0.000000    0.000000    0.000000    0.000000  -96.919148   18.056665   -4.572003  -40.297497
  0.036232465    0.000000    0.000000    0.000000    0.000000  -97.329268   26.775732   -4.572184  -40.521561
  0.036432866    0.000000    0.000000    0.000000    0.000000  -96.198419   28.061609   -4.573201  -40.752792
  0.036633267    0.000000    0.000000    0.000000    0.000000  -96.725750   29.128906   -4.572211  -40.975311
  0.036833667    0.000000    0.000000    0.000000    0.000000  -97.541098   26.497171   -4.573665  -41.204140
  0.037034068    0.000000    0.000000    0.000000    0.000000  -96.423166   26.334503   -4.571598  -41.426804
  0.037234469    0.000000    0.000000    0.000000    0.000000  -98.024756   36.452824   -4.572785  -41.656506
  0.037434870    0.000000    0.000000    0.000000    0.000000  -96.954349   25.520985   -4.572133  -41.882065
  0.037635271    0.000000    0.000000    0.000000    0.000000  -96.760483   26.231880   -4.573928  -42.107689
  0.037835671    0.000000    0.000000    0.000000    0.000000  -97.713759   23.050964   -4.573889  -42.329876
  0.038036072    0.000000    0.000000    0.000000    0.000000  -97.032737   37.072922   -4.572569  -42.546680
  0.038236473    0.000000    0.000000    0.000000    0.000000  -97.420780   30.330835   -4.574645  -42.774181
  0.038436874    0.000000    0.000000    0.000000    0.000000  -97.751829   27.152769   -4.574441  -42.998302
  0.038637275    0.000000    0.000000    0.000000    0.000000  -97.135474   29.910198   -4.576021  -43.218166
  0.038837675    0.000000    0.000000    0.000000    0.000000  -96.677010   33.770962   -4.576345  -43.454720
  0.039038076    0.000000    0.000000    0.000000    0.000000  -97.633074   22.844280   -4.576785  -43.674843
  0.039238477    0.000000    0.000000    0.000000    0.000000  -97.078025   28.277985   -4.578068  -43.892113
  0.039438878    0.000000    0.000000    0.000000    0.000000  -98.336516   31.788441   -4.576653  -44.121925
  0.039639279    0.000000    0.000000    0.000000    0.000000  -97.799694   30.574612   -4.578921  -44.348080
  0.039839679    0.000000    0.000000    0.000000    0.000000  -97.641103   25.011988   -4.579532  -44.581078
  0.040040080    0.000000    0.000000    0.000000    0.000000  -97.037728   27.839138   -4.578994  -44.800816
  0.040240481    0.000000    0.000000    0.000000    0.000000  -98.588489   29.686871   -4.579785  -45.016266
  0.040440882    0.000000    0.000000    0.000000    0.000000  -97.179022   24.128267   -4.580326  -45.251183
  0.040641283    0.000000    0.000000    0.000000    0.000000  -97.436442   26.935335   -4.582191  -45.476723
  0.040841683    0.000000    0.000000    0.000000    0.000000  -98.345251   20.336872   -4.582150  -45.702358
  0.041042084    0.000000    0.000000    0.000000    0.000000  -98.609299   29.021038   -4.582210  -45.917572
  0.041242485    0.000000    0.000000    0.000000    0.000000  -96.623575   24.836269   -4.582116  -46.143223
  0.041442886    0.000000    0.000000    0.000000    0.000000  -98.078089   26.007086   -4.584375  -46.371727
  0.041643287    0.000000    0.000000    0.000000    0.000000  -96.991680   30.376009   -4.583752  -46.596748
  0.041843687    0.000000    0.000000    0.000000    0.000000  -97.178110   26.601934   -4.584449  -46.824589
  0.042044088    0.000000    0.000000    0.000000    0.000000  -97.392553   31.026237   -4.584821  -47.041138
  0.042244489    0.000000    0.000000    0.000000    0.000000  -99.139721   28.425344   -4.587095  -47.275902
  0.042444890    0.000000    0.000000    0.000000    0.000000  -96.931999   28.282370   -4.587933  -47.499477
  0.042645291    0.000000    0.000000    0.000000    0.000000  -97.790719   35.405418   -4.587691  -47.733116
  0.042845691    0.000000    0.000000    0.000000    0.000000  -98.133672   31.434261   -4.589613  -47.960987
  0.043046092    0.000000    0.000000    0.000000    0.000000  -97.985678   26.686237   -4.588943  -48.180618
  0.043246493    0.000000    0.000000    0.000000    0.000000  -96.702882   29.595541   -4.589893  -48.405441
  0.043446894    0.000000    0.000000    0.000000    0.000000  -97.426958   33.607552   -4.592938  -48.638618
  0.043647295    0.000000    0.000000    0.000000    0.000000  -97.896770   28.188587   -4.590895  -48.866093
  0.043847695    0.000000    0.000000    0.000000    0.000000  -98.035738   26.683712   -4.592667  -49.091324
  0.044048096    0.000000    0.000000    0.000000    0.000000  -98.212048   34.509167   -4.593250  -49.331223
  0.044248497    0.000000    0.000000    0.000000    0.000000  -98.318952   32.727348   -4.594167  -49.547333
  0.044448898    0.000000    0.000000    0.000000    0.000000  -98.300906   23.737453   -4.594379  -49.770542
  0.044649299    0.000000    0.000000    0.000000    0.000000  -98.063876   31.841043   -4.594587  -50.013371
  0.044849699    0.000000    0.000000    0.000000    0.000000  -98.381441   27.952063   -4.594630  -50.238804
  0.045050100    0.000000    0.000000    0.000000    0.000000 -100.274715   39.486870   -4.596438  -50.462460
  0.045250501    0.000000    0.000000    0.000000    0.000000  -99.071769   30.375460   -4.599786  -50.687996
  0.045450902    0.000000    0.000000    0.000000    0.000000  -99.663971   27.927620   -4.602541  -50.912140
  0.045651303    0.000000    0.000000    0.000000    0.000000  -97.979637   31.444334   -4.601750  -51.129578
  0.045851703    0.000000    0.000000    0.000000    0.000000  -98.305839   32.298656   -4.602957  -51.371033
  0.046052104    0.000000    0.000000    0.000000    0.000000 -101.022181   30.788462   -4.601745  -51.596828
  0.046252505    0.000000    0.000000    0.000000    0.000000  -98.672407   27.313623   -4.603227  -51.832767
  0.046452906    0.000000    0.000000    0.000000    0.000000  -99.111357   32.715309   -4.601622  -52.065258
  0.046653307    0.000000    0.000000    0.000000    0.000000  -98.984125   23.186207   -4.603431  -52.296509
  0.046853707    0.000000    0.000000    0.000000    0.000000  -99.452444   25.552277   -4.603880  -52.534004
  0.047054108    0.000000    0.000000    0.000000    0.000000  -98.721513   22.272015   -4.605095  -52.750671
  0.047254509    0.000000    0.000000    0.000000    0.000000 -100.504599   30.586126   -4.606883  -52.988197
  0.047454910    0.000000    0.000000    0.000000    0.000000  -98.624004   31.709047   -4.607308  -53.217709
  0.047655311    0.000000    0.000000    0.000000    0.000000  -99.496466   29.135015   -4.608615  -53.448658
  0.047855711    0.000000    0.000000    0.000000    0.000000  -99.311529   24.451733   -4.609295  -53.677437
  0.048056112    0.000000    0.000000    0.000000    0.000000  -99.166838   28.366367   -4.610094  -53.907421
  0.048256513    0.000000    0.000000    0.000000    0.000000  -99.364935   29.816368   -4.609956  -54.128510
  0.048456914    0.000000    0.000000    0.000000    0.000000  -99.138282   24.277283   -4.611084  -54.358917
  0.048657315    0.000000    0.000000    0.000000    0.000000  -99.016332   22.725218   -4.611498  -54.589935
  0.048857715    0.000000    0.000000    0.000000    0.000000  -98.982315   35.897575   -4.611125  -54.810020
  0.049058116    0.000000    0.000000    0.000000    0.000000  -98.262289   31.648798   -4.614866  -55.046303
  0.049258517    0.000000    0.000000    0.000000    0.000000  -98.694568   34.602402   -4.614148  -55.282818
  0.049458918    0.000000    0.000000    0.000000    0.000000  -99.138266   17.878864   -4.613907  -55.514442
  0.049659319    0.000000    0.000000    0.000000    0.000000  -97.547375   30.866663   -4.616695  -55.723427
  0.049859719    0.000000    0.000000    0.000000    0.000000  -97.611820   33.084591   -4.615735  -55.964981
  0.050060120    0.000000    0.000000    0.000000    0.000000  -97.664713   26.324419   -4.617393  -56.199986
  0.050260521    0.000000    0.000000    0.000000    0.000000  -99.841492   26.627548   -4.617150  -56.421337
  0.050460922    0.000000    0.000000    0.000000    0.000000  -99.431680   30.848103   -4.616258  -56.656609
  0.050661323    0.000000    0.000000    0.000000    0.000000  -97.775764   35.837299   -4.619519  -56.881596
  0.050861723    0.000000    0.000000    0.000000    0.000000  -98.868521   24.733740   -4.621169  -57.096889
  0.051062124    0.000000    0.000000    0.000000    0.000000  -98.957885   23.785061   -4.621176  -57.341427
  0.051262525    0.000000    0.000000    0.000000    0.000000  -98.100630   24.416372   -4.621272  -57.567238
  0.051462926    0.000000    0.000000    0.000000    0.000000  -99.106714   31.798450   -4.622288  -57.780136
  0.051663327    0.000000    0.000000    0.000000    0.000000 -100.356206   33.718395   -4.624698  -58.016056
  0.051863727    0.000000    0.000000    0.000000    0.000000  -99.682580   24.854219   -4.624452  -58.245941
  0.052064128    0.000000    0.000000    0.000000    0.000000  -99.831821   21.510288   -4.625425  -58.481651
  0.052264529    0.000000    0.000000    0.000000    0.000000  -98.654626   25.371679   -4.625868  -58.707062
  0.052464930    0.000000    0.000000    0.000000    0.000000  -99.032415   22.330427   -4.624575  -58.932701
  0.052665331    0.000000    0.000000    0.000000    0.000000  -99.355085   16.901730   -4.625655  -59.166016
  0.052865731    0.000000    0.000000    0.000000    0.000000 -100.987115   23.101610   -4.627969  -59.391171
