! Anritsu VNA Master:                 Model: MS2034B/10/19/501
! SN:                                  1337062
! /bd0/ovro-jan-2016/d1-s11.s2p
! Existing Calibration Information:
! TYPE:                         Current Settings,       Active Cal Settings
! TIME:             	   01/08/2016 02:14:50 PM,    01/08/2016 02:08:01 PM
! INTERNAL TEMP:    	                   46.5 C,                    46.8 C
! # POINTS:         	                      401,                       401
! START FREQ:       	               10.000 MHz,                10.000 MHz
! STOP FREQ:        	              110.000 MHz,               110.000 MHz
! SOURCE POWER:     	                      Low,                       Low
! IFBW:             	                   100 Hz,                    100 Hz
! AVG FACTOR:       	                       1 ,                        1 
! REF PLANE 1:      	                     0 mm,                      0 mm
! REF PLANE 2:      	                     0 mm,                      0 mm
! CAL TYPE:         	                 Full S11,                  Full S11
! CAL METHOD:       	                     SOLT,                      SOLT
! CAL LINE TYPE:    	                     Coax,                      Coax
! DUT PORT 1:       	                K-Conn(M),                 K-Conn(M)
! DUT PORT 2:       	                N-Conn(M),                 N-Conn(M)
! CAL STATUS:       	        OK: Accuracy High,                        --
# GHZ S DB R 50.0
! FREQ.GHZ       S11DB        S11A       S21DB        S21A       S12DB        S12A       S22DB        S22A
  0.010000000  -22.831927  166.370956  -49.055976  -61.579449    0.000000    0.000000    0.000000    0.000000
  0.010250000  -22.985749  163.439789  -55.444253  -62.242935    0.000000    0.000000    0.000000    0.000000
  0.010500000  -22.843804  160.897736  -68.443888   -0.803893    0.000000    0.000000    0.000000    0.000000
  0.010750000  -23.144370  158.009018  -55.687525   95.562943    0.000000    0.000000    0.000000    0.000000
  0.011000000  -23.388931  154.328781  -48.820184   92.850838    0.000000    0.000000    0.000000    0.000000
  0.011250000  -23.497334  151.308685  -45.379111   87.916496    0.000000    0.000000    0.000000    0.000000
  0.011500000  -23.430959  148.231552  -42.736943   87.658478    0.000000    0.000000    0.000000    0.000000
  0.011750000  -23.679572  144.598724  -41.117361   80.055573    0.000000    0.000000    0.000000    0.000000
  0.012000000  -23.493086  141.380173  -39.822298   77.321426    0.000000    0.000000    0.000000    0.000000
  0.012250000  -23.603865  139.459839  -39.088913   71.929123    0.000000    0.000000    0.000000    0.000000
  0.012500000  -23.878209  136.509903  -38.521956   68.327690    0.000000    0.000000    0.000000    0.000000
  0.012750000  -23.891109  133.441360  -38.029404   65.308876    0.000000    0.000000    0.000000    0.000000
  0.013000000  -23.956007  129.686874  -38.395209   60.376900    0.000000    0.000000    0.000000    0.000000
  0.013250000  -24.122131  127.563934  -38.564964   56.063709    0.000000    0.000000    0.000000    0.000000
  0.013500000  -24.126391  123.329788  -39.030869   51.832344    0.000000    0.000000    0.000000    0.000000
  0.013750000  -24.269405  121.255791  -40.210699   50.096844    0.000000    0.000000    0.000000    0.000000
  0.014000000  -24.207786  118.468346  -41.654811   48.527885    0.000000    0.000000    0.000000    0.000000
  0.014250000  -24.399786  115.239868  -44.655032   47.121731    0.000000    0.000000    0.000000    0.000000
  0.014500000  -24.336477  111.144646  -49.231742   51.547112    0.000000    0.000000    0.000000    0.000000
  0.014750000  -24.577435  107.160515  -57.319405  117.675278    0.000000    0.000000    0.000000    0.000000
  0.015000000  -24.494917  106.156685  -48.020574  179.924164    0.000000    0.000000    0.000000    0.000000
  0.015250000  -24.522793  103.484718  -41.784321 -175.055695    0.000000    0.000000    0.000000    0.000000
  0.015500000  -24.442937   97.978783  -38.038731 -176.866119    0.000000    0.000000    0.000000    0.000000
  0.015750000  -24.649018   94.548309  -35.045598 -177.602463    0.000000    0.000000    0.000000    0.000000
  0.016000000  -24.524956   91.113556  -32.547818  179.110153    0.000000    0.000000    0.000000    0.000000
  0.016250000  -24.384411   87.877876  -30.642356  174.621002    0.000000    0.000000    0.000000    0.000000
  0.016500000  -24.507381   84.050972  -29.001774  170.491348    0.000000    0.000000    0.000000    0.000000
  0.016750000  -24.486865   80.716530  -27.602070  165.614685    0.000000    0.000000    0.000000    0.000000
  0.017000000  -24.226991   77.936203  -26.444331  161.544952    0.000000    0.000000    0.000000    0.000000
  0.017250000  -24.318545   74.845100  -25.479100  156.891388    0.000000    0.000000    0.000000    0.000000
  0.017500000  -24.341592   70.036987  -24.754817  152.436035    0.000000    0.000000    0.000000    0.000000
  0.017750000  -24.085326   67.153099  -24.096639  148.135788    0.000000    0.000000    0.000000    0.000000
  0.018000000  -24.068038   62.964825  -23.661668  143.538254    0.000000    0.000000    0.000000    0.000000
  0.018250000  -24.375515   59.791676  -23.451961  139.222717    0.000000    0.000000    0.000000    0.000000
  0.018500000  -24.013583   56.654686  -23.532269  134.635361    0.000000    0.000000    0.000000    0.000000
  0.018750000  -23.721217   52.333733  -23.938483  130.885132    0.000000    0.000000    0.000000    0.000000
  0.019000000  -23.664843   49.277500  -24.924679  128.400238    0.000000    0.000000    0.000000    0.000000
  0.019250000  -23.626836   46.622250  -26.701023  126.267342    0.000000    0.000000    0.000000    0.000000
  0.019500000  -23.318093   42.634445  -30.080316  129.538574    0.000000    0.000000    0.000000    0.000000
  0.019750000  -23.373357   38.066830  -37.454160  164.140778    0.000000    0.000000    0.000000    0.000000
  0.020000000  -23.123172   34.883995  -31.482345 -111.463165    0.000000    0.000000    0.000000    0.000000
  0.020250000  -23.148401   30.660763  -23.840508 -100.034767    0.000000    0.000000    0.000000    0.000000
  0.020500000  -22.804515   26.264706  -18.826639 -100.125504    0.000000    0.000000    0.000000    0.000000
  0.020750000  -22.630315   22.621130  -15.063219 -103.157303    0.000000    0.000000    0.000000    0.000000
  0.021000000  -22.293338   19.004644  -11.815304 -107.159248    0.000000    0.000000    0.000000    0.000000
  0.021250000  -22.094078   15.208940   -9.014531 -111.396393    0.000000    0.000000    0.000000    0.000000
  0.021500000  -21.914979   12.292284   -6.621082 -116.278015    0.000000    0.000000    0.000000    0.000000
  0.021750000  -21.904333    8.107614   -4.362584 -121.386284    0.000000    0.000000    0.000000    0.000000
  0.022000000  -21.688679    3.437274   -2.124023 -126.602554    0.000000    0.000000    0.000000    0.000000
  0.022250000  -21.431254    0.212683   -0.122774 -132.121307    0.000000    0.000000    0.000000    0.000000
  0.022500000  -21.230540   -4.705765    1.733162 -137.914322    0.000000    0.000000    0.000000    0.000000
  0.022750000  -21.053969   -8.714966    3.550277 -143.741898    0.000000    0.000000    0.000000    0.000000
  0.023000000  -20.986610  -12.548881    5.295179 -149.721466    0.000000    0.000000    0.000000    0.000000
  0.023250000  -20.818207  -15.752209    7.020042 -155.737823    0.000000    0.000000    0.000000    0.000000
  0.023500000  -20.476021  -20.921871    8.673125 -161.988174    0.000000    0.000000    0.000000    0.000000
  0.023750000  -19.964314  -23.853043    8.418576   11.937980    0.000000    0.000000    0.000000    0.000000
  0.024000000  -19.700730  -27.506971   10.090283    5.416642    0.000000    0.000000    0.000000    0.000000
  0.024250000  -19.459740  -32.697174   11.779530   -1.335023    0.000000    0.000000    0.000000    0.000000
  0.024500000  -19.237564  -36.924633   13.308960   -8.487558    0.000000    0.000000    0.000000    0.000000
  0.024750000  -18.960853  -42.172527   14.761732  -16.137848    0.000000    0.000000    0.000000    0.000000
  0.025000000  -18.776382  -47.063248   13.168152  -29.774843    0.000000    0.000000    0.000000    0.000000
  0.025250000  -18.653192  -51.204071   14.627091  -37.426369    0.000000    0.000000    0.000000    0.000000
  0.025500000  -18.270775  -56.715126   16.065434  -45.475487    0.000000    0.000000    0.000000    0.000000
  0.025750000  -18.277807  -62.923317   17.478201  -54.063309    0.000000    0.000000    0.000000    0.000000
  0.026000000  -18.182749  -69.244125   18.875021  -62.948910    0.000000    0.000000    0.000000    0.000000
  0.026250000  -18.149307  -74.516693   20.173551  -72.449913    0.000000    0.000000    0.000000    0.000000
  0.026500000  -18.220374  -80.667328   21.399026  -82.460678    0.000000    0.000000    0.000000    0.000000
  0.026750000  -18.246250  -88.242981   22.588389  -92.713745    0.000000    0.000000    0.000000    0.000000
  0.027000000  -18.486282  -95.028091   23.663605 -103.402794    0.000000    0.000000    0.000000    0.000000
  0.027250000  -18.575866 -102.511063   24.691099 -114.348915    0.000000    0.000000    0.000000    0.000000
  0.027500000  -19.287676 -109.633217   25.583249 -125.470222    0.000000    0.000000    0.000000    0.000000
  0.027750000  -19.690489 -116.434402   26.370278 -136.694427    0.000000    0.000000    0.000000    0.000000
  0.028000000  -20.386679 -121.754379   27.028656 -147.805237    0.000000    0.000000    0.000000    0.000000
  0.028250000  -21.186488 -127.229393   27.576681 -158.779953    0.000000    0.000000    0.000000    0.000000
  0.028500000  -22.086910 -133.349045   27.990645 -169.450485    0.000000    0.000000    0.000000    0.000000
  0.028750000  -23.173455 -136.461578   28.354195 -179.905365    0.000000    0.000000    0.000000    0.000000
  0.029000000  -24.483420 -137.151535   28.643482  170.102158    0.000000    0.000000    0.000000    0.000000
  0.029250000  -25.372846 -140.010864   28.901742  160.503677    0.000000    0.000000    0.000000    0.000000
  0.029500000  -26.636420 -138.096313   29.077076  151.318542    0.000000    0.000000    0.000000    0.000000
  0.029750000  -27.697863 -137.432571   29.238914  142.568283    0.000000    0.000000    0.000000    0.000000
  0.030000000  -28.241213 -134.824631   29.345398  134.132263    0.000000    0.000000    0.000000    0.000000
  0.030250000  -28.889603 -129.551285   29.501529  125.997086    0.000000    0.000000    0.000000    0.000000
  0.030500000  -29.341772 -127.218582   29.610000  118.159065    0.000000    0.000000    0.000000    0.000000
  0.030750000  -29.446860 -124.583008   29.702770  110.480843    0.000000    0.000000    0.000000    0.000000
  0.031000000  -30.058480 -119.230606   29.826471  103.222603    0.000000    0.000000    0.000000    0.000000
  0.031250000  -29.604811 -117.709694   29.894304   96.051750    0.000000    0.000000    0.000000    0.000000
  0.031500000  -29.520021 -115.346558   29.976090   89.230064    0.000000    0.000000    0.000000    0.000000
  0.031750000  -29.383404 -112.706757   30.031400   82.532059    0.000000    0.000000    0.000000    0.000000
  0.032000000  -28.959266 -115.326118   30.157897   75.931572    0.000000    0.000000    0.000000    0.000000
  0.032250000  -28.902861 -114.075073   30.271276   69.547356    0.000000    0.000000    0.000000    0.000000
  0.032500000  -29.219031 -112.235847   30.341214   63.130016    0.000000    0.000000    0.000000    0.000000
  0.032750000  -28.768134 -113.956825   30.444937   57.064713    0.000000    0.000000    0.000000    0.000000
  0.033000000  -28.872202 -113.422890   30.553223   51.048378    0.000000    0.000000    0.000000    0.000000
  0.033250000  -28.734665 -113.033859   30.598082   45.128563    0.000000    0.000000    0.000000    0.000000
  0.033500000  -28.380540 -116.917755   30.590367   39.194740    0.000000    0.000000    0.000000    0.000000
  0.033750000  -28.809782 -117.466331   30.631733   33.476341    0.000000    0.000000    0.000000    0.000000
  0.034000000  -28.982484 -117.591187   30.641160   27.704151    0.000000    0.000000    0.000000    0.000000
  0.034250000  -28.513093 -117.538567   30.653460   22.002008    0.000000    0.000000    0.000000    0.000000
  0.034500000  -28.849198 -119.707291   30.716798   16.498667    0.000000    0.000000    0.000000    0.000000
  0.034750000  -28.632493 -122.867943   30.775992   10.963339    0.000000    0.000000    0.000000    0.000000
  0.035000000  -28.914567 -122.569710   30.823390    5.589067    0.000000    0.000000    0.000000    0.000000
  0.035250000  -29.065940 -123.134216   30.861668    0.252852    0.000000    0.000000    0.000000    0.000000
  0.035500000  -29.062397 -124.264107   30.838700   -5.061623    0.000000    0.000000    0.000000    0.000000
  0.035750000  -29.495395 -123.602394   30.930088  -10.051234    0.000000    0.000000    0.000000    0.000000
  0.036000000  -29.811623 -125.163475   30.969256  -15.178938    0.000000    0.000000    0.000000    0.000000
  0.036250000  -29.555077 -123.714081   31.065418  -20.172741    0.000000    0.000000    0.000000    0.000000
  0.036500000  -29.999410 -125.580856   31.118763  -25.132420    0.000000    0.000000    0.000000    0.000000
  0.036750000  -29.779852 -125.975273   31.203719  -30.031370    0.000000    0.000000    0.000000    0.000000
  0.037000000  -30.499956 -124.667183   31.210611  -35.034527    0.000000    0.000000    0.000000    0.000000
  0.037250000  -30.083436 -124.458038   31.218078  -39.981232    0.000000    0.000000    0.000000    0.000000
  0.037500000  -31.297763 -126.012848   31.215371  -44.864998    0.000000    0.000000    0.000000    0.000000
  0.037750000  -31.205666 -126.953995   31.200623  -49.709518    0.000000    0.000000    0.000000    0.000000
  0.038000000  -30.661660 -127.520859   31.249877  -54.339626    0.000000    0.000000    0.000000    0.000000
  0.038250000  -30.730771 -126.668983   31.233702  -59.037403    0.000000    0.000000    0.000000    0.000000
  0.038500000  -31.262670 -123.457497   31.267840  -63.689484    0.000000    0.000000    0.000000    0.000000
  0.038750000  -31.465001 -124.138100   31.313032  -68.239693    0.000000    0.000000    0.000000    0.000000
  0.039000000  -31.373459 -119.988586   31.310729  -72.818192    0.000000    0.000000    0.000000    0.000000
  0.039250000  -31.484522 -121.436882   31.365896  -77.379715    0.000000    0.000000    0.000000    0.000000
  0.039500000  -31.743556 -116.965378   31.421717  -81.930115    0.000000    0.000000    0.000000    0.000000
  0.039750000  -32.226316 -119.259804   31.427172  -86.469528    0.000000    0.000000    0.000000    0.000000
  0.040000000  -31.991600 -117.276398   31.481914  -90.863998    0.000000    0.000000    0.000000    0.000000
  0.040250000  -32.141174 -117.658218   31.483919  -95.349991    0.000000    0.000000    0.000000    0.000000
  0.040500000  -32.232083 -119.897812   31.513097  -99.686646    0.000000    0.000000    0.000000    0.000000
  0.040750000  -31.994189 -112.780304   31.558343 -104.035728    0.000000    0.000000    0.000000    0.000000
  0.041000000  -32.322001 -113.523010   31.548462 -108.363663    0.000000    0.000000    0.000000    0.000000
  0.041250000  -31.751109 -112.982841   31.580665 -112.597359    0.000000    0.000000    0.000000    0.000000
  0.041500000  -31.887937 -115.689827   31.626685 -116.843880    0.000000    0.000000    0.000000    0.000000
  0.041750000  -31.777394 -109.893539   31.619784 -121.064476    0.000000    0.000000    0.000000    0.000000
  0.042000000  -31.424798 -108.602623   31.613122 -125.355415    0.000000    0.000000    0.000000    0.000000
  0.042250000  -31.606447 -107.828300   31.660934 -129.473114    0.000000    0.000000    0.000000    0.000000
  0.042500000  -31.467671 -106.439377   31.678189 -133.741669    0.000000    0.000000    0.000000    0.000000
  0.042750000  -30.724412 -106.541260   31.722214 -137.933792    0.000000    0.000000    0.000000    0.000000
  0.043000000  -31.242504 -110.892532   31.730032 -142.173203    0.000000    0.000000    0.000000    0.000000
  0.043250000  -31.408152 -105.970772   31.737872 -146.421860    0.000000    0.000000    0.000000    0.000000
  0.043500000  -31.004296 -105.656532   31.787907 -150.481262    0.000000    0.000000    0.000000    0.000000
  0.043750000  -30.716390 -106.291084   31.789494 -154.712158    0.000000    0.000000    0.000000    0.000000
  0.044000000  -30.962508 -105.019936   31.835024 -158.737808    0.000000    0.000000    0.000000    0.000000
  0.044250000  -31.401328 -102.944046   31.841045 -162.885101    0.000000    0.000000    0.000000    0.000000
  0.044500000  -30.862294 -108.982063   31.857722 -166.845184    0.000000    0.000000    0.000000    0.000000
  0.044750000  -30.869753 -104.409760   31.852057 -170.894638    0.000000    0.000000    0.000000    0.000000
  0.045000000  -30.535582 -103.345497   31.840583 -174.933548    0.000000    0.000000    0.000000    0.000000
  0.045250000  -30.285870 -105.140533   31.880511 -178.925507    0.000000    0.000000    0.000000    0.000000
  0.045500000  -29.720482 -103.344749   31.876775  177.069809    0.000000    0.000000    0.000000    0.000000
  0.045750000  -29.872423 -105.725243   31.927625  173.103226    0.000000    0.000000    0.000000    0.000000
  0.046000000  -29.914660 -104.507881   31.925761  169.060333    0.000000    0.000000    0.000000    0.000000
  0.046250000  -29.859804 -104.003059   31.979239  165.145081    0.000000    0.000000    0.000000    0.000000
  0.046500000  -29.806075 -105.392006   31.980848  161.109421    0.000000    0.000000    0.000000    0.000000
  0.046750000  -29.465202 -106.366142   31.980307  157.094086    0.000000    0.000000    0.000000    0.000000
  0.047000000  -29.389945 -104.255241   31.993813  153.071274    0.000000    0.000000    0.000000    0.000000
  0.047250000  -29.601488 -105.374756   31.989440  149.056335    0.000000    0.000000    0.000000    0.000000
  0.047500000  -29.293308 -110.018341   32.053621  145.076950    0.000000    0.000000    0.000000    0.000000
  0.047750000  -29.329776 -104.819550   32.046722  141.065765    0.000000    0.000000    0.000000    0.000000
  0.048000000  -29.029427 -106.920631   32.048992  137.105225    0.000000    0.000000    0.000000    0.000000
  0.048250000  -29.420753 -107.879440   32.094350  133.256363    0.000000    0.000000    0.000000    0.000000
  0.048500000  -28.934032 -108.042084   32.088281  129.345963    0.000000    0.000000    0.000000    0.000000
  0.048750000  -29.117288 -107.836967   32.140980  125.496010    0.000000    0.000000    0.000000    0.000000
  0.049000000  -28.759387 -107.396049   32.133392  121.676758    0.000000    0.000000    0.000000    0.000000
  0.049250000  -29.095719 -109.090515   32.113638  117.761475    0.000000    0.000000    0.000000    0.000000
  0.049500000  -28.675407 -109.493568   32.108980  113.907898    0.000000    0.000000    0.000000    0.000000
  0.049750000  -28.579237 -109.938515   32.092383  110.011887    0.000000    0.000000    0.000000    0.000000
  0.050000000  -28.572264 -108.075027   28.312809   99.097549    0.000000    0.000000    0.000000    0.000000
  0.050250000  -29.405941 -111.971085   28.350130   95.259224    0.000000    0.000000    0.000000    0.000000
  0.050500000  -29.116146 -111.155602   28.354696   91.329842    0.000000    0.000000    0.000000    0.000000
  0.050750000  -28.675245 -107.823051   28.373608   87.559807    0.000000    0.000000    0.000000    0.000000
  0.051000000  -28.932623 -112.738930   28.405779   83.751060    0.000000    0.000000    0.000000    0.000000
