! Anritsu VNA Master:                 Model: MS2034B/10/19/501
! SN:                                  1337062
! /bd0/ovro-jan-2016/dz1-s21-40db.s2p
! Existing Calibration Information:
! TYPE:                         Current Settings,       Active Cal Settings
! TIME:             	   01/08/2016 03:26:24 PM,    01/08/2016 03:05:41 PM
! INTERNAL TEMP:    	                   41.5 C,                    43.3 C
! # POINTS:         	                      401,                       401
! START FREQ:       	               10.000 MHz,                10.000 MHz
! STOP FREQ:        	              110.000 MHz,               110.000 MHz
! SOURCE POWER:     	                     High,                      High
! IFBW:             	                   100 Hz,                    100 Hz
! AVG FACTOR:       	                       1 ,                        1 
! REF PLANE 1:      	                     0 mm,                      0 mm
! REF PLANE 2:      	                     0 mm,                      0 mm
! CAL TYPE:         	             1P2P S11,S21,              1P2P S11,S21
! CAL METHOD:       	                     SOLT,                      SOLT
! CAL LINE TYPE:    	                     Coax,                      Coax
! DUT PORT 1:       	                K-Conn(M),                 K-Conn(M)
! DUT PORT 2:       	                N-Conn(M),                 N-Conn(M)
! CAL STATUS:       	        OK: Accuracy High,                        --
# GHZ S DB R 50.0
! FREQ.GHZ       S11DB        S11A       S21DB        S21A       S12DB        S12A       S22DB        S22A
  0.010000000  -21.436595   36.600075  -83.279492  -75.097038    0.000000    0.000000    0.000000    0.000000
  0.010250000  -21.418217   37.519440  -83.229878  -62.316216    0.000000    0.000000    0.000000    0.000000
  0.010500000  -22.063117   38.416332  -83.607399  -44.970299    0.000000    0.000000    0.000000    0.000000
  0.010750000  -22.519180   39.424400  -82.559193  -33.158112    0.000000    0.000000    0.000000    0.000000
  0.011000000  -22.637613   40.362709  -80.908959  -28.108948    0.000000    0.000000    0.000000    0.000000
  0.011250000  -22.681177   41.181553  -79.990882  -24.185219    0.000000    0.000000    0.000000    0.000000
  0.011500000  -22.676168   42.076153  -78.323882  -20.906195    0.000000    0.000000    0.000000    0.000000
  0.011750000  -22.662484   42.994732  -77.509430  -17.957916    0.000000    0.000000    0.000000    0.000000
  0.012000000  -22.670170   43.813988  -76.628037  -17.593414    0.000000    0.000000    0.000000    0.000000
  0.012250000  -22.664219   44.755707  -76.015415  -19.434465    0.000000    0.000000    0.000000    0.000000
  0.012500000  -22.655311   45.611351  -76.151586  -16.595121    0.000000    0.000000    0.000000    0.000000
  0.012750000  -22.588548   46.477703  -75.855652  -18.562429    0.000000    0.000000    0.000000    0.000000
  0.013000000  -22.180464   47.293167  -75.683126  -20.567892    0.000000    0.000000    0.000000    0.000000
  0.013250000  -22.075468   48.127571  -75.739272  -22.122940    0.000000    0.000000    0.000000    0.000000
  0.013500000  -22.060816   49.097157  -75.988094  -26.065514    0.000000    0.000000    0.000000    0.000000
  0.013750000  -22.054368   50.042950  -76.875266  -25.943733    0.000000    0.000000    0.000000    0.000000
  0.014000000  -22.080319   50.946468  -77.884343  -28.675095    0.000000    0.000000    0.000000    0.000000
  0.014250000  -22.099718   51.972961  -79.650595  -27.917448    0.000000    0.000000    0.000000    0.000000
  0.014500000  -22.104348   52.928223  -81.709126  -30.821495    0.000000    0.000000    0.000000    0.000000
  0.014750000  -22.083067   53.851749  -86.147050  -35.511551    0.000000    0.000000    0.000000    0.000000
  0.015000000  -22.122548   54.873711  -95.496532  -37.330803    0.000000    0.000000    0.000000    0.000000
  0.015250000  -22.205509   55.820263  -96.455772  130.702835    0.000000    0.000000    0.000000    0.000000
  0.015500000  -22.605679   57.109543  -85.228475  135.692184    0.000000    0.000000    0.000000    0.000000
  0.015750000  -22.306561   57.855873  -80.661931  137.621887    0.000000    0.000000    0.000000    0.000000
  0.016000000  -22.197770   58.739441  -76.999627  132.286835    0.000000    0.000000    0.000000    0.000000
  0.016250000  -22.174164   59.650188  -74.453105  129.849655    0.000000    0.000000    0.000000    0.000000
  0.016500000  -22.160047   60.641773  -72.384122  127.586639    0.000000    0.000000    0.000000    0.000000
  0.016750000  -22.136344   61.564396  -70.774484  124.194847    0.000000    0.000000    0.000000    0.000000
  0.017000000  -22.138621   62.486771  -69.680529  120.412918    0.000000    0.000000    0.000000    0.000000
  0.017250000  -22.129725   63.480236  -68.283263  118.286980    0.000000    0.000000    0.000000    0.000000
  0.017500000  -22.123378   64.524803  -67.546376  115.352798    0.000000    0.000000    0.000000    0.000000
  0.017750000  -22.116929   65.430153  -66.714718  112.303314    0.000000    0.000000    0.000000    0.000000
  0.018000000  -22.149736   66.391541  -66.376681  109.811798    0.000000    0.000000    0.000000    0.000000
  0.018250000  -22.218639   67.423294  -66.215255  107.176643    0.000000    0.000000    0.000000    0.000000
  0.018500000  -22.313711   68.479294  -66.305727  104.545975    0.000000    0.000000    0.000000    0.000000
  0.018750000  -22.323738   69.490265  -66.832619  103.397652    0.000000    0.000000    0.000000    0.000000
  0.019000000  -22.336664   70.463219  -67.923923  102.347923    0.000000    0.000000    0.000000    0.000000
  0.019250000  -22.337987   71.312698  -69.977805  100.826263    0.000000    0.000000    0.000000    0.000000
  0.019500000  -22.336044   72.287575  -73.927947  104.170982    0.000000    0.000000    0.000000    0.000000
  0.019750000  -22.343871   73.262428  -83.963350  147.662567    0.000000    0.000000    0.000000    0.000000
  0.020000000  -22.342709   74.166588  -73.843460 -114.535988    0.000000    0.000000    0.000000    0.000000
  0.020250000  -22.339877   75.180397  -66.297812 -109.204727    0.000000    0.000000    0.000000    0.000000
  0.020500000  -22.365174   76.178162  -61.518166 -110.112610    0.000000    0.000000    0.000000    0.000000
  0.020750000  -22.360362   77.067001  -57.767130 -111.368378    0.000000    0.000000    0.000000    0.000000
  0.021000000  -22.333031   78.097061  -54.629406 -113.965965    0.000000    0.000000    0.000000    0.000000
  0.021250000  -22.278415   78.972672  -51.979593 -116.676994    0.000000    0.000000    0.000000    0.000000
  0.021500000  -22.334389   80.069969  -49.495867 -119.187691    0.000000    0.000000    0.000000    0.000000
  0.021750000  -22.293444   80.995575  -47.286722 -122.591736    0.000000    0.000000    0.000000    0.000000
  0.022000000  -22.276072   81.961105  -45.120193 -125.783905    0.000000    0.000000    0.000000    0.000000
  0.022250000  -22.283300   82.914604  -43.189629 -129.702103    0.000000    0.000000    0.000000    0.000000
  0.022500000  -22.300230   83.939163  -41.211802 -133.609818    0.000000    0.000000    0.000000    0.000000
  0.022750000  -22.280631   84.933762  -39.359425 -137.552429    0.000000    0.000000    0.000000    0.000000
  0.023000000  -22.236151   85.849754  -37.581167 -141.750946    0.000000    0.000000    0.000000    0.000000
  0.023250000  -22.213822   86.832726  -35.866807 -145.560669    0.000000    0.000000    0.000000    0.000000
  0.023500000  -22.195705   87.789261  -34.188422 -149.772629    0.000000    0.000000    0.000000    0.000000
  0.023750000  -22.147973   88.607399  -32.824866 -154.173218    0.000000    0.000000    0.000000    0.000000
  0.024000000  -22.102742   89.526512  -31.241441 -158.860153    0.000000    0.000000    0.000000    0.000000
  0.024250000  -22.084064   90.537392  -29.775721 -163.921494    0.000000    0.000000    0.000000    0.000000
  0.024500000  -22.061630   91.482498  -28.219248 -169.039581    0.000000    0.000000    0.000000    0.000000
  0.024750000  -22.042656   92.416496  -26.774521 -174.575577    0.000000    0.000000    0.000000    0.000000
  0.025000000  -22.028753   93.473076  -25.273179  179.645203    0.000000    0.000000    0.000000    0.000000
  0.025250000  -21.997358   94.417931  -23.862008  173.772980    0.000000    0.000000    0.000000    0.000000
  0.025500000  -21.979967   95.310539  -22.450689  167.413986    0.000000    0.000000    0.000000    0.000000
  0.025750000  -21.973188   96.181717  -21.093592  160.678879    0.000000    0.000000    0.000000    0.000000
  0.026000000  -21.952066   97.121605  -19.781872  153.445663    0.000000    0.000000    0.000000    0.000000
  0.026250000  -21.933277   98.050049  -18.512592  145.879440    0.000000    0.000000    0.000000    0.000000
  0.026500000  -21.905665   98.951515  -17.309192  137.922775    0.000000    0.000000    0.000000    0.000000
  0.026750000  -21.874199   99.876732  -16.170519  129.487152    0.000000    0.000000    0.000000    0.000000
  0.027000000  -21.846047  100.748642  -15.125804  120.675697    0.000000    0.000000    0.000000    0.000000
  0.027250000  -21.828398  101.641312  -14.182507  111.547729    0.000000    0.000000    0.000000    0.000000
  0.027500000  -21.803298  102.564003  -13.361545  102.289360    0.000000    0.000000    0.000000    0.000000
  0.027750000  -21.794826  103.423393  -12.652635   92.949226    0.000000    0.000000    0.000000    0.000000
  0.028000000  -21.771616  104.375389  -12.065450   83.673981    0.000000    0.000000    0.000000    0.000000
  0.028250000  -21.764994  105.274658  -11.581586   74.531311    0.000000    0.000000    0.000000    0.000000
  0.028500000  -21.758720  106.257080  -11.190803   65.709465    0.000000    0.000000    0.000000    0.000000
  0.028750000  -21.727084  107.081001  -10.890006   57.236717    0.000000    0.000000    0.000000    0.000000
  0.029000000  -21.706404  108.058548  -10.660812   49.114376    0.000000    0.000000    0.000000    0.000000
  0.029250000  -21.688896  108.905785  -10.494855   41.360409    0.000000    0.000000    0.000000    0.000000
  0.029500000  -21.673905  109.800827  -10.355132   34.078552    0.000000    0.000000    0.000000    0.000000
  0.029750000  -21.659480  110.683601  -10.249664   27.112106    0.000000    0.000000    0.000000    0.000000
  0.030000000  -21.628382  111.606476  -10.169490   20.528950    0.000000    0.000000    0.000000    0.000000
  0.030250000  -21.602589  112.493782  -10.105048   14.231540    0.000000    0.000000    0.000000    0.000000
  0.030500000  -21.574266  113.308182  -10.053220    8.257097    0.000000    0.000000    0.000000    0.000000
  0.030750000  -21.543376  114.238113  -10.020962    2.538230    0.000000    0.000000    0.000000    0.000000
  0.031000000  -21.519654  115.095657   -9.995159   -2.949118    0.000000    0.000000    0.000000    0.000000
  0.031250000  -21.501763  116.004585   -9.969261   -8.219422    0.000000    0.000000    0.000000    0.000000
  0.031500000  -21.466908  116.810234   -9.946288  -13.293049    0.000000    0.000000    0.000000    0.000000
  0.031750000  -21.446245  117.637276   -9.923470  -18.206945    0.000000    0.000000    0.000000    0.000000
  0.032000000  -21.429894  118.593529   -9.899709  -22.999418    0.000000    0.000000    0.000000    0.000000
  0.032250000  -21.403258  119.455650   -9.882763  -27.607475    0.000000    0.000000    0.000000    0.000000
  0.032500000  -21.374045  120.424553   -9.872664  -32.057503    0.000000    0.000000    0.000000    0.000000
  0.032750000  -21.364757  121.182907   -9.865715  -36.402828    0.000000    0.000000    0.000000    0.000000
  0.033000000  -21.336893  121.996895   -9.854879  -40.606552    0.000000    0.000000    0.000000    0.000000
  0.033250000  -21.314958  122.923027   -9.855077  -44.641785    0.000000    0.000000    0.000000    0.000000
  0.033500000  -21.285045  123.799805   -9.841515  -48.690525    0.000000    0.000000    0.000000    0.000000
  0.033750000  -21.258074  124.606232   -9.837503  -52.609665    0.000000    0.000000    0.000000    0.000000
  0.034000000  -21.239768  125.470398   -9.830498  -56.459351    0.000000    0.000000    0.000000    0.000000
  0.034250000  -21.214065  126.276894   -9.821450  -60.193649    0.000000    0.000000    0.000000    0.000000
  0.034500000  -21.182716  127.124725   -9.823168  -63.872185    0.000000    0.000000    0.000000    0.000000
  0.034750000  -21.158355  127.952667   -9.820601  -67.446114    0.000000    0.000000    0.000000    0.000000
  0.035000000  -21.137177  128.808563   -9.829159  -70.930603    0.000000    0.000000    0.000000    0.000000
  0.035250000  -21.118110  129.669052   -9.832424  -74.371597    0.000000    0.000000    0.000000    0.000000
  0.035500000  -21.094784  130.442749   -9.834222  -77.813545    0.000000    0.000000    0.000000    0.000000
  0.035750000  -21.072210  131.264099   -9.832278  -81.197380    0.000000    0.000000    0.000000    0.000000
  0.036000000  -21.046761  132.170044   -9.834224  -84.431351    0.000000    0.000000    0.000000    0.000000
  0.036250000  -21.039505  133.039276   -9.830722  -87.663338    0.000000    0.000000    0.000000    0.000000
  0.036500000  -21.018160  133.813400   -9.826441  -90.844955    0.000000    0.000000    0.000000    0.000000
  0.036750000  -20.983714  134.671768   -9.828942  -93.963158    0.000000    0.000000    0.000000    0.000000
  0.037000000  -20.975766  135.470718   -9.831319  -97.018425    0.000000    0.000000    0.000000    0.000000
  0.037250000  -20.954105  136.359558   -9.832852 -100.035233    0.000000    0.000000    0.000000    0.000000
  0.037500000  -20.933110  137.093933   -9.839684 -102.988716    0.000000    0.000000    0.000000    0.000000
  0.037750000  -20.898620  137.963699   -9.838972 -105.902069    0.000000    0.000000    0.000000    0.000000
  0.038000000  -20.880503  138.778168   -9.840648 -108.779846    0.000000    0.000000    0.000000    0.000000
  0.038250000  -20.856335  139.660507   -9.840155 -111.591331    0.000000    0.000000    0.000000    0.000000
  0.038500000  -20.829070  140.415482   -9.842628 -114.408493    0.000000    0.000000    0.000000    0.000000
  0.038750000  -20.800635  141.265244   -9.839363 -117.181358    0.000000    0.000000    0.000000    0.000000
  0.039000000  -20.792914  142.122833   -9.836338 -119.901840    0.000000    0.000000    0.000000    0.000000
  0.039250000  -20.775986  142.815231   -9.829444 -122.603210    0.000000    0.000000    0.000000    0.000000
  0.039500000  -20.757546  143.601089   -9.835189 -125.244034    0.000000    0.000000    0.000000    0.000000
  0.039750000  -20.724890  144.401169   -9.834580 -127.872520    0.000000    0.000000    0.000000    0.000000
  0.040000000  -20.706116  145.152710   -9.832750 -130.442917    0.000000    0.000000    0.000000    0.000000
  0.040250000  -20.684801  146.002457   -9.835259 -132.996521    0.000000    0.000000    0.000000    0.000000
  0.040500000  -20.664055  146.752457   -9.838077 -135.546768    0.000000    0.000000    0.000000    0.000000
  0.040750000  -20.636026  147.601227   -9.836402 -138.019333    0.000000    0.000000    0.000000    0.000000
  0.041000000  -20.625143  148.443481   -9.841142 -140.452774    0.000000    0.000000    0.000000    0.000000
  0.041250000  -20.612389  149.111206   -9.837621 -142.895691    0.000000    0.000000    0.000000    0.000000
  0.041500000  -20.585253  149.908035   -9.833518 -145.341873    0.000000    0.000000    0.000000    0.000000
  0.041750000  -20.570348  150.667450   -9.828288 -147.729584    0.000000    0.000000    0.000000    0.000000
  0.042000000  -20.551338  151.440613   -9.825218 -150.104263    0.000000    0.000000    0.000000    0.000000
  0.042250000  -20.524724  152.260666   -9.821428 -152.459732    0.000000    0.000000    0.000000    0.000000
  0.042500000  -20.501678  153.116440   -9.815088 -154.795364    0.000000    0.000000    0.000000    0.000000
  0.042750000  -20.486417  153.969574   -9.808993 -157.149582    0.000000    0.000000    0.000000    0.000000
  0.043000000  -20.458579  154.738632   -9.813644 -159.438080    0.000000    0.000000    0.000000    0.000000
  0.043250000  -20.431490  155.483963   -9.812718 -161.699692    0.000000    0.000000    0.000000    0.000000
  0.043500000  -20.403403  156.226898   -9.815528 -163.962341    0.000000    0.000000    0.000000    0.000000
  0.043750000  -20.400240  156.931610   -9.816763 -166.171005    0.000000    0.000000    0.000000    0.000000
  0.044000000  -20.382717  157.782471   -9.822641 -168.402512    0.000000    0.000000    0.000000    0.000000
  0.044250000  -20.363212  158.645523   -9.819854 -170.580887    0.000000    0.000000    0.000000    0.000000
  0.044500000  -20.343523  159.553131   -9.822131 -172.764572    0.000000    0.000000    0.000000    0.000000
  0.044750000  -20.327745  160.326523   -9.823893 -174.907684    0.000000    0.000000    0.000000    0.000000
  0.045000000  -20.302026  161.161362   -9.820959 -177.091751    0.000000    0.000000    0.000000    0.000000
  0.045250000  -20.283760  161.964310   -9.819549 -179.256516    0.000000    0.000000    0.000000    0.000000
  0.045500000  -20.235975  162.828079   -9.816707  178.568146    0.000000    0.000000    0.000000    0.000000
  0.045750000  -20.195740  163.604935   -9.808724  176.389008    0.000000    0.000000    0.000000    0.000000
  0.046000000  -20.168940  164.340546   -9.812228  174.263199    0.000000    0.000000    0.000000    0.000000
  0.046250000  -20.149623  165.086456   -9.803464  172.148102    0.000000    0.000000    0.000000    0.000000
  0.046500000  -20.115794  165.812515   -9.803845  170.053726    0.000000    0.000000    0.000000    0.000000
  0.046750000  -20.098405  166.635757   -9.801007  167.961151    0.000000    0.000000    0.000000    0.000000
  0.047000000  -20.070952  167.328110   -9.804447  165.871811    0.000000    0.000000    0.000000    0.000000
  0.047250000  -20.034523  168.058929   -9.805093  163.800125    0.000000    0.000000    0.000000    0.000000
  0.047500000  -20.025057  168.740295   -9.803594  161.718643    0.000000    0.000000    0.000000    0.000000
  0.047750000  -19.989708  169.460281   -9.808181  159.681015    0.000000    0.000000    0.000000    0.000000
  0.048000000  -19.971855  170.105453   -9.815486  157.652039    0.000000    0.000000    0.000000    0.000000
  0.048250000  -19.967862  170.862900   -9.813881  155.621521    0.000000    0.000000    0.000000    0.000000
  0.048500000  -19.951645  171.575836   -9.815313  153.623505    0.000000    0.000000    0.000000    0.000000
  0.048750000  -19.942897  172.293793   -9.819612  151.629211    0.000000    0.000000    0.000000    0.000000
  0.049000000  -19.944523  173.131165   -9.819497  149.633987    0.000000    0.000000    0.000000    0.000000
  0.049250000  -19.934295  173.922424   -9.817858  147.678574    0.000000    0.000000    0.000000    0.000000
  0.049500000  -19.907942  174.636459   -9.817622  145.700836    0.000000    0.000000    0.000000    0.000000
  0.049750000  -19.893431  175.404266   -9.810526  143.677719    0.000000    0.000000    0.000000    0.000000
  0.050000000  -19.868755  176.214661   -9.801131  142.007462    0.000000    0.000000    0.000000    0.000000
  0.050250000  -19.835033  176.917984   -9.800627  140.011795    0.000000    0.000000    0.000000    0.000000
  0.050500000  -19.824301  177.669266   -9.802304  138.087646    0.000000    0.000000    0.000000    0.000000
  0.050750000  -19.787066  178.363693   -9.802826  136.153183    0.000000    0.000000    0.000000    0.000000
  0.051000000  -19.775521  179.157532   -9.803564  134.216400    0.000000    0.000000    0.000000    0.000000
