! Anritsu VNA Master:                 Model: MS2034B/10/19/501
! SN:                                  1337062
! /bd0/ovro-jan-2016/d2-s11.s2p
! Existing Calibration Information:
! TYPE:                         Current Settings,       Active Cal Settings
! TIME:             	   01/08/2016 02:15:55 PM,    01/08/2016 02:08:01 PM
! INTERNAL TEMP:    	                   46.3 C,                    46.8 C
! # POINTS:         	                      401,                       401
! START FREQ:       	               10.000 MHz,                10.000 MHz
! STOP FREQ:        	              110.000 MHz,               110.000 MHz
! SOURCE POWER:     	                      Low,                       Low
! IFBW:             	                   100 Hz,                    100 Hz
! AVG FACTOR:       	                       1 ,                        1 
! REF PLANE 1:      	                     0 mm,                      0 mm
! REF PLANE 2:      	                     0 mm,                      0 mm
! CAL TYPE:         	                 Full S11,                  Full S11
! CAL METHOD:       	                     SOLT,                      SOLT
! CAL LINE TYPE:    	                     Coax,                      Coax
! DUT PORT 1:       	                K-Conn(M),                 K-Conn(M)
! DUT PORT 2:       	                N-Conn(M),                 N-Conn(M)
! CAL STATUS:       	        OK: Accuracy High,                        --
# GHZ S DB R 50.0
! FREQ.GHZ       S11DB        S11A       S21DB        S21A       S12DB        S12A       S22DB        S22A
  0.010000000  -23.981504  165.628647  -55.851883  -56.015633    0.000000    0.000000    0.000000    0.000000
  0.010250000  -24.386002  161.316849  -63.652995   82.280792    0.000000    0.000000    0.000000    0.000000
  0.010500000  -24.211063  158.700790  -52.416537  104.334396    0.000000    0.000000    0.000000    0.000000
  0.010750000  -24.225044  155.265732  -46.609957   95.361839    0.000000    0.000000    0.000000    0.000000
  0.011000000  -24.690974  152.338470  -43.797833   92.146980    0.000000    0.000000    0.000000    0.000000
  0.011250000  -24.903215  149.647446  -41.129268   90.091187    0.000000    0.000000    0.000000    0.000000
  0.011500000  -24.767176  144.062103  -39.502916   85.833748    0.000000    0.000000    0.000000    0.000000
  0.011750000  -24.949435  141.004044  -38.360144   80.911308    0.000000    0.000000    0.000000    0.000000
  0.012000000  -24.830552  137.533264  -37.433383   75.324730    0.000000    0.000000    0.000000    0.000000
  0.012250000  -24.970956  136.661438  -36.818080   73.331001    0.000000    0.000000    0.000000    0.000000
  0.012500000  -24.836756  132.273254  -35.965423   68.282509    0.000000    0.000000    0.000000    0.000000
  0.012750000  -25.087700  128.668930  -35.642478   63.803623    0.000000    0.000000    0.000000    0.000000
  0.013000000  -25.223555  125.129639  -35.705973   59.341434    0.000000    0.000000    0.000000    0.000000
  0.013250000  -25.272277  120.948128  -35.846759   55.985847    0.000000    0.000000    0.000000    0.000000
  0.013500000  -25.365825  117.512192  -36.065956   51.063370    0.000000    0.000000    0.000000    0.000000
  0.013750000  -25.249432  114.404778  -36.919842   48.993916    0.000000    0.000000    0.000000    0.000000
  0.014000000  -25.089358  112.404633  -37.817440   44.168110    0.000000    0.000000    0.000000    0.000000
  0.014250000  -25.298441  105.822479  -39.058230   39.646000    0.000000    0.000000    0.000000    0.000000
  0.014500000  -25.033150  104.077545  -41.405309   39.852455    0.000000    0.000000    0.000000    0.000000
  0.014750000  -25.187101   98.666969  -45.294274   42.076477    0.000000    0.000000    0.000000    0.000000
  0.015000000  -25.355342   96.055542  -53.215693   59.376862    0.000000    0.000000    0.000000    0.000000
  0.015250000  -25.145697   94.953430  -50.378482  168.066132    0.000000    0.000000    0.000000    0.000000
  0.015500000  -25.106557   90.356911  -42.812324  179.376617    0.000000    0.000000    0.000000    0.000000
  0.015750000  -25.098483   87.192604  -37.986804  178.930969    0.000000    0.000000    0.000000    0.000000
  0.016000000  -24.669925   83.078293  -34.685202  176.830338    0.000000    0.000000    0.000000    0.000000
  0.016250000  -24.670043   80.500870  -32.234106  173.245804    0.000000    0.000000    0.000000    0.000000
  0.016500000  -24.561410   76.301659  -30.328988  170.114868    0.000000    0.000000    0.000000    0.000000
  0.016750000  -24.627335   73.772346  -28.690496  164.979645    0.000000    0.000000    0.000000    0.000000
  0.017000000  -24.453427   69.512337  -27.300769  160.920547    0.000000    0.000000    0.000000    0.000000
  0.017250000  -24.317827   66.083969  -26.038529  156.405853    0.000000    0.000000    0.000000    0.000000
  0.017500000  -24.249176   63.926517  -25.135025  152.226547    0.000000    0.000000    0.000000    0.000000
  0.017750000  -23.990960   60.473820  -24.331437  147.685898    0.000000    0.000000    0.000000    0.000000
  0.018000000  -23.944825   56.473480  -23.683147  143.194473    0.000000    0.000000    0.000000    0.000000
  0.018250000  -23.853470   52.250431  -23.309536  138.637970    0.000000    0.000000    0.000000    0.000000
  0.018500000  -23.802483   50.604744  -23.126369  133.809372    0.000000    0.000000    0.000000    0.000000
  0.018750000  -23.374073   46.879597  -23.261022  130.096191    0.000000    0.000000    0.000000    0.000000
  0.019000000  -23.223645   44.998180  -23.740108  126.552956    0.000000    0.000000    0.000000    0.000000
  0.019250000  -23.156778   40.967346  -24.770186  124.027245    0.000000    0.000000    0.000000    0.000000
  0.019500000  -22.939865   38.209904  -26.711002  122.797264    0.000000    0.000000    0.000000    0.000000
  0.019750000  -22.926408   34.183182  -30.586144  128.042404    0.000000    0.000000    0.000000    0.000000
  0.020000000  -22.661315   32.910816  -37.123251  176.917084    0.000000    0.000000    0.000000    0.000000
  0.020250000  -22.572138   28.286823  -29.651936 -113.407196    0.000000    0.000000    0.000000    0.000000
  0.020500000  -22.221794   24.666595  -22.649951 -104.510933    0.000000    0.000000    0.000000    0.000000
  0.020750000  -22.162021   22.219599  -18.003780 -105.209579    0.000000    0.000000    0.000000    0.000000
  0.021000000  -22.043824   20.039352  -14.281565 -108.083313    0.000000    0.000000    0.000000    0.000000
  0.021250000  -21.791354   16.264591  -11.158128 -111.867920    0.000000    0.000000    0.000000    0.000000
  0.021500000  -21.622336   13.130265   -8.556227 -116.309723    0.000000    0.000000    0.000000    0.000000
  0.021750000  -21.525212   10.744541   -6.130916 -121.113792    0.000000    0.000000    0.000000    0.000000
  0.022000000  -21.377994    6.997174   -3.785986 -126.064873    0.000000    0.000000    0.000000    0.000000
  0.022250000  -21.068525    4.458934   -1.683230 -131.374268    0.000000    0.000000    0.000000    0.000000
  0.022500000  -20.899645    0.256552    0.249631 -136.900452    0.000000    0.000000    0.000000    0.000000
  0.022750000  -20.764814   -3.359634    2.127354 -142.467987    0.000000    0.000000    0.000000    0.000000
  0.023000000  -20.633799   -5.549327    3.931871 -148.219696    0.000000    0.000000    0.000000    0.000000
  0.023250000  -20.518818   -9.213252    5.705939 -153.908493    0.000000    0.000000    0.000000    0.000000
  0.023500000  -20.290998  -14.236112    7.406836 -159.925232    0.000000    0.000000    0.000000    0.000000
  0.023750000  -20.210146  -16.605183    9.026095 -166.271255    0.000000    0.000000    0.000000    0.000000
  0.024000000  -19.623286  -19.029251    8.897671    7.695274    0.000000    0.000000    0.000000    0.000000
  0.024250000  -19.480156  -22.969223   10.597713    1.398892    0.000000    0.000000    0.000000    0.000000
  0.024500000  -19.215301  -26.470051   12.111876   -5.435055    0.000000    0.000000    0.000000    0.000000
  0.024750000  -19.049040  -30.884521   13.597577  -12.603214    0.000000    0.000000    0.000000    0.000000
  0.025000000  -18.899281  -34.935486   12.068554  -25.939558    0.000000    0.000000    0.000000    0.000000
  0.025250000  -18.760909  -37.906986   13.596696  -33.363510    0.000000    0.000000    0.000000    0.000000
  0.025500000  -18.513911  -43.224857   15.089720  -41.017818    0.000000    0.000000    0.000000    0.000000
  0.025750000  -18.617362  -48.276749   16.530355  -49.152534    0.000000    0.000000    0.000000    0.000000
  0.026000000  -18.356775  -52.565094   18.017104  -57.740341    0.000000    0.000000    0.000000    0.000000
  0.026250000  -18.205445  -57.481972   19.386067  -66.784988    0.000000    0.000000    0.000000    0.000000
  0.026500000  -18.346129  -62.773453   20.700906  -76.475601    0.000000    0.000000    0.000000    0.000000
  0.026750000  -18.367190  -69.516342   21.989346  -86.399246    0.000000    0.000000    0.000000    0.000000
  0.027000000  -18.600728  -74.668388   23.182949  -96.974579    0.000000    0.000000    0.000000    0.000000
  0.027250000  -18.504398  -82.192917   24.314774 -107.906105    0.000000    0.000000    0.000000    0.000000
  0.027500000  -19.128279  -87.991264   25.338132 -119.169518    0.000000    0.000000    0.000000    0.000000
  0.027750000  -19.554191  -95.522331   26.220824 -130.714050    0.000000    0.000000    0.000000    0.000000
  0.028000000  -20.132799  -99.243828   26.956166 -142.275513    0.000000    0.000000    0.000000    0.000000
  0.028250000  -20.814329 -103.801590   27.587645 -153.704620    0.000000    0.000000    0.000000    0.000000
  0.028500000  -21.854219 -109.900810   28.053472 -164.981705    0.000000    0.000000    0.000000    0.000000
  0.028750000  -22.778786 -110.835594   28.459740 -175.914276    0.000000    0.000000    0.000000    0.000000
  0.029000000  -23.725755 -113.887886   28.745151  173.516998    0.000000    0.000000    0.000000    0.000000
  0.029250000  -24.772234 -113.990883   29.015839  163.526199    0.000000    0.000000    0.000000    0.000000
  0.029500000  -25.317725 -113.869530   29.180643  154.010895    0.000000    0.000000    0.000000    0.000000
  0.029750000  -26.309182 -111.944748   29.342703  144.966461    0.000000    0.000000    0.000000    0.000000
  0.030000000  -26.683773 -107.327774   29.441154  136.220901    0.000000    0.000000    0.000000    0.000000
  0.030250000  -27.060448 -105.496498   29.569880  127.992470    0.000000    0.000000    0.000000    0.000000
  0.030500000  -28.052011 -106.682121   29.673239  119.877510    0.000000    0.000000    0.000000    0.000000
  0.030750000  -27.932680 -101.243881   29.747305  112.207306    0.000000    0.000000    0.000000    0.000000
  0.031000000  -27.872946 -100.642075   29.863882  104.735374    0.000000    0.000000    0.000000    0.000000
  0.031250000  -27.749527 -100.748764   29.922034   97.508049    0.000000    0.000000    0.000000    0.000000
  0.031500000  -27.706991  -99.940765   30.000425   90.709343    0.000000    0.000000    0.000000    0.000000
  0.031750000  -27.758522  -99.610130   30.053620   83.811897    0.000000    0.000000    0.000000    0.000000
  0.032000000  -27.799172  -99.570946   30.162844   77.288452    0.000000    0.000000    0.000000    0.000000
  0.032250000  -27.749321 -100.371567   30.274192   70.869705    0.000000    0.000000    0.000000    0.000000
  0.032500000  -28.285779  -97.546951   30.350022   64.454628    0.000000    0.000000    0.000000    0.000000
  0.032750000  -27.811436  -99.733215   30.447319   58.309818    0.000000    0.000000    0.000000    0.000000
  0.033000000  -28.222887 -100.400604   30.551711   52.242725    0.000000    0.000000    0.000000    0.000000
  0.033250000  -27.934331  -98.975174   30.600683   46.280560    0.000000    0.000000    0.000000    0.000000
  0.033500000  -28.319702  -99.886551   30.603394   40.334671    0.000000    0.000000    0.000000    0.000000
  0.033750000  -28.449859 -100.653923   30.646535   34.558296    0.000000    0.000000    0.000000    0.000000
  0.034000000  -28.472134 -102.451195   30.654841   28.760254    0.000000    0.000000    0.000000    0.000000
  0.034250000  -28.379250 -102.048187   30.677474   23.022367    0.000000    0.000000    0.000000    0.000000
  0.034500000  -28.790639 -103.290314   30.729722   17.445063    0.000000    0.000000    0.000000    0.000000
  0.034750000  -28.861812 -103.166229   30.790285   11.914309    0.000000    0.000000    0.000000    0.000000
  0.035000000  -28.677995 -104.939362   30.833330    6.481738    0.000000    0.000000    0.000000    0.000000
  0.035250000  -29.166851 -107.064621   30.878849    1.093982    0.000000    0.000000    0.000000    0.000000
  0.035500000  -29.179640 -107.419731   30.862286   -4.225312    0.000000    0.000000    0.000000    0.000000
  0.035750000  -29.917658 -105.346298   30.961331   -9.235823    0.000000    0.000000    0.000000    0.000000
  0.036000000  -30.071876 -107.437561   30.992347  -14.354850    0.000000    0.000000    0.000000    0.000000
  0.036250000  -30.114080 -105.431595   31.091373  -19.370260    0.000000    0.000000    0.000000    0.000000
  0.036500000  -29.884920 -103.884804   31.140117  -24.453987    0.000000    0.000000    0.000000    0.000000
  0.036750000  -30.092939 -104.322517   31.232056  -29.375387    0.000000    0.000000    0.000000    0.000000
  0.037000000  -30.632228 -102.426239   31.238439  -34.423439    0.000000    0.000000    0.000000    0.000000
  0.037250000  -30.386550 -102.919800   31.250300  -39.374794    0.000000    0.000000    0.000000    0.000000
  0.037500000  -31.065265  -98.694519   31.246283  -44.284637    0.000000    0.000000    0.000000    0.000000
  0.037750000  -31.356704  -99.389946   31.240661  -49.132507    0.000000    0.000000    0.000000    0.000000
  0.038000000  -30.841879  -98.942787   31.283086  -53.840866    0.000000    0.000000    0.000000    0.000000
  0.038250000  -30.843410 -100.943390   31.259661  -58.544529    0.000000    0.000000    0.000000    0.000000
  0.038500000  -30.767017  -94.884575   31.302209  -63.166004    0.000000    0.000000    0.000000    0.000000
  0.038750000  -31.125623  -96.009201   31.339425  -67.754463    0.000000    0.000000    0.000000    0.000000
  0.039000000  -31.257966  -94.357780   31.333581  -72.480240    0.000000    0.000000    0.000000    0.000000
  0.039250000  -31.512424  -94.202011   31.399987  -77.001900    0.000000    0.000000    0.000000    0.000000
  0.039500000  -30.940984  -88.748047   31.447503  -81.523529    0.000000    0.000000    0.000000    0.000000
  0.039750000  -31.120083  -89.221100   31.449580  -86.086937    0.000000    0.000000    0.000000    0.000000
  0.040000000  -31.067406  -94.542824   31.499609  -90.568558    0.000000    0.000000    0.000000    0.000000
  0.040250000  -31.040619  -90.618881   31.507639  -95.086006    0.000000    0.000000    0.000000    0.000000
  0.040500000  -30.889287  -89.132912   31.540419  -99.375053    0.000000    0.000000    0.000000    0.000000
  0.040750000  -30.538357  -85.592880   31.577544 -103.742020    0.000000    0.000000    0.000000    0.000000
  0.041000000  -30.620277  -88.421082   31.572920 -108.158829    0.000000    0.000000    0.000000    0.000000
  0.041250000  -30.438456  -88.499664   31.612954 -112.404045    0.000000    0.000000    0.000000    0.000000
  0.041500000  -30.319750  -89.578011   31.653675 -116.575630    0.000000    0.000000    0.000000    0.000000
  0.041750000  -30.193093  -87.586388   31.636191 -120.881081    0.000000    0.000000    0.000000    0.000000
  0.042000000  -29.764680  -85.117180   31.624158 -124.859398    0.000000    0.000000    0.000000    0.000000
  0.042250000  -30.046870  -85.640549   31.671423 -129.011459    0.000000    0.000000    0.000000    0.000000
  0.042500000  -29.579048  -86.689690   31.677367 -133.329407    0.000000    0.000000    0.000000    0.000000
  0.042750000  -29.185250  -88.723755   31.738992 -137.490433    0.000000    0.000000    0.000000    0.000000
  0.043000000  -29.511618  -89.463066   31.750054 -141.728973    0.000000    0.000000    0.000000    0.000000
  0.043250000  -29.509231  -85.837502   31.742550 -146.003784    0.000000    0.000000    0.000000    0.000000
  0.043500000  -29.488413  -87.673027   31.805893 -150.162094    0.000000    0.000000    0.000000    0.000000
  0.043750000  -29.175513  -88.296120   31.804479 -154.236435    0.000000    0.000000    0.000000    0.000000
  0.044000000  -29.285725  -85.476295   31.856076 -158.363907    0.000000    0.000000    0.000000    0.000000
  0.044250000  -29.027860  -86.223053   31.842035 -162.460602    0.000000    0.000000    0.000000    0.000000
  0.044500000  -29.047084  -88.704224   31.872785 -166.461823    0.000000    0.000000    0.000000    0.000000
  0.044750000  -28.907156  -88.617958   31.861877 -170.521378    0.000000    0.000000    0.000000    0.000000
  0.045000000  -28.701138  -90.465919   31.849684 -174.563660    0.000000    0.000000    0.000000    0.000000
  0.045250000  -28.413593  -90.681747   31.893809 -178.569077    0.000000    0.000000    0.000000    0.000000
  0.045500000  -28.043101  -89.543602   31.886050  177.412781    0.000000    0.000000    0.000000    0.000000
  0.045750000  -28.251266  -90.547821   31.944313  173.403152    0.000000    0.000000    0.000000    0.000000
  0.046000000  -28.286058  -90.101646   31.937127  169.429764    0.000000    0.000000    0.000000    0.000000
  0.046250000  -28.274250  -92.418549   31.993297  165.398987    0.000000    0.000000    0.000000    0.000000
  0.046500000  -28.244039  -93.710976   31.998837  161.376160    0.000000    0.000000    0.000000    0.000000
  0.046750000  -28.028074  -94.187859   32.003741  157.321533    0.000000    0.000000    0.000000    0.000000
  0.047000000  -28.050080  -94.645729   32.014753  153.313370    0.000000    0.000000    0.000000    0.000000
  0.047250000  -28.344594  -95.733772   32.011891  149.311737    0.000000    0.000000    0.000000    0.000000
  0.047500000  -28.136831  -97.726418   32.074187  145.336136    0.000000    0.000000    0.000000    0.000000
  0.047750000  -28.059824  -94.641502   32.071054  141.308441    0.000000    0.000000    0.000000    0.000000
  0.048000000  -27.795090  -96.846489   32.067528  137.426437    0.000000    0.000000    0.000000    0.000000
  0.048250000  -28.119855  -96.717407   32.118511  133.468201    0.000000    0.000000    0.000000    0.000000
  0.048500000  -28.047427  -98.817444   32.111943  129.550659    0.000000    0.000000    0.000000    0.000000
  0.048750000  -27.916644 -100.572083   32.162595  125.693283    0.000000    0.000000    0.000000    0.000000
  0.049000000  -27.608496  -98.650711   32.158124  121.847252    0.000000    0.000000    0.000000    0.000000
  0.049250000  -28.115826 -101.783638   32.144013  117.975685    0.000000    0.000000    0.000000    0.000000
  0.049500000  -27.686816 -101.928673   32.132715  114.103859    0.000000    0.000000    0.000000    0.000000
  0.049750000  -27.718168 -102.873344   32.132904  110.235916    0.000000    0.000000    0.000000    0.000000
  0.050000000  -27.641979 -103.531265   28.339301   99.290375    0.000000    0.000000    0.000000    0.000000
  0.050250000  -28.196908 -101.389183   28.390113   95.412956    0.000000    0.000000    0.000000    0.000000
  0.050500000  -28.573916 -103.489609   28.374829   91.490181    0.000000    0.000000    0.000000    0.000000
  0.050750000  -28.434946 -103.050179   28.413169   87.751083    0.000000    0.000000    0.000000    0.000000
  0.051000000  -28.060249 -104.497284   28.442778   83.855759    0.000000    0.000000    0.000000    0.000000
