! Anritsu VNA Master:                 Model: MS2034B/10/19/501
! SN:                                  1337062
! /bd0/ovro-jan-2016/dz2-s21-40db.s2p
! Existing Calibration Information:
! TYPE:                         Current Settings,       Active Cal Settings
! TIME:             	   01/08/2016 03:27:50 PM,    01/08/2016 03:05:41 PM
! INTERNAL TEMP:    	                   41.3 C,                    43.3 C
! # POINTS:         	                      401,                       401
! START FREQ:       	               10.000 MHz,                10.000 MHz
! STOP FREQ:        	              110.000 MHz,               110.000 MHz
! SOURCE POWER:     	                     High,                      High
! IFBW:             	                   100 Hz,                    100 Hz
! AVG FACTOR:       	                       1 ,                        1 
! REF PLANE 1:      	                     0 mm,                      0 mm
! REF PLANE 2:      	                     0 mm,                      0 mm
! CAL TYPE:         	             1P2P S11,S21,              1P2P S11,S21
! CAL METHOD:       	                     SOLT,                      SOLT
! CAL LINE TYPE:    	                     Coax,                      Coax
! DUT PORT 1:       	                K-Conn(M),                 K-Conn(M)
! DUT PORT 2:       	                N-Conn(M),                 N-Conn(M)
! CAL STATUS:       	        OK: Accuracy High,                        --
# GHZ S DB R 50.0
! FREQ.GHZ       S11DB        S11A       S21DB        S21A       S12DB        S12A       S22DB        S22A
  0.010000000  -41.778754 -158.174652  -97.608577 -137.053909    0.000000    0.000000    0.000000    0.000000
  0.010250000  -41.473223 -158.934097  -96.980332   -6.322060    0.000000    0.000000    0.000000    0.000000
  0.010500000  -41.598755 -159.317734  -91.036239   11.621673    0.000000    0.000000    0.000000    0.000000
  0.010750000  -41.357280 -159.523911  -86.869560    5.244506    0.000000    0.000000    0.000000    0.000000
  0.011000000  -41.279858 -160.146530  -83.872773    6.735001    0.000000    0.000000    0.000000    0.000000
  0.011250000  -41.086407 -160.792328  -81.648617    3.195632    0.000000    0.000000    0.000000    0.000000
  0.011500000  -40.985520 -161.163239  -79.868834    1.753841    0.000000    0.000000    0.000000    0.000000
  0.011750000  -40.826707 -161.625671  -78.467919    1.920563    0.000000    0.000000    0.000000    0.000000
  0.012000000  -40.852392 -161.393860  -77.610002   -1.867829    0.000000    0.000000    0.000000    0.000000
  0.012250000  -40.694311 -161.862457  -76.610531   -1.627652    0.000000    0.000000    0.000000    0.000000
  0.012500000  -40.645923 -162.391129  -76.320958   -2.893628    0.000000    0.000000    0.000000    0.000000
  0.012750000  -40.502949 -162.496323  -75.540654   -6.301201    0.000000    0.000000    0.000000    0.000000
  0.013000000  -40.358556 -163.305786  -75.821013   -8.483258    0.000000    0.000000    0.000000    0.000000
  0.013250000  -40.264119 -163.322510  -75.803172   -9.944505    0.000000    0.000000    0.000000    0.000000
  0.013500000  -40.216349 -163.724976  -76.066974  -13.594130    0.000000    0.000000    0.000000    0.000000
  0.013750000  -40.086437 -164.346878  -76.742347  -13.047628    0.000000    0.000000    0.000000    0.000000
  0.014000000  -40.014145 -163.712982  -77.927317  -16.469091    0.000000    0.000000    0.000000    0.000000
  0.014250000  -39.876416 -164.720688  -79.427861  -15.421909    0.000000    0.000000    0.000000    0.000000
  0.014500000  -39.758027 -164.237411  -81.425973  -17.253592    0.000000    0.000000    0.000000    0.000000
  0.014750000  -39.723450 -164.692215  -85.473723  -18.882631    0.000000    0.000000    0.000000    0.000000
  0.015000000  -39.665203 -165.176910  -91.385967    0.129163    0.000000    0.000000    0.000000    0.000000
  0.015250000  -39.549575 -165.116592  -93.229529  111.517456    0.000000    0.000000    0.000000    0.000000
  0.015500000  -39.367074 -165.307892  -84.056424  131.469269    0.000000    0.000000    0.000000    0.000000
  0.015750000  -39.269660 -165.168518  -79.093228  132.763855    0.000000    0.000000    0.000000    0.000000
  0.016000000  -39.236400 -165.851318  -76.246098  134.091919    0.000000    0.000000    0.000000    0.000000
  0.016250000  -39.096988 -165.766922  -73.556426  130.560181    0.000000    0.000000    0.000000    0.000000
  0.016500000  -39.026148 -166.017517  -71.322345  129.480286    0.000000    0.000000    0.000000    0.000000
  0.016750000  -38.869254 -166.355560  -69.782414  126.422447    0.000000    0.000000    0.000000    0.000000
  0.017000000  -38.863612 -166.079285  -68.491208  123.645927    0.000000    0.000000    0.000000    0.000000
  0.017250000  -38.678102 -165.795349  -67.161233  120.063660    0.000000    0.000000    0.000000    0.000000
  0.017500000  -38.559211 -166.180878  -66.320639  116.920952    0.000000    0.000000    0.000000    0.000000
  0.017750000  -38.443182 -166.447113  -65.554349  114.321831    0.000000    0.000000    0.000000    0.000000
  0.018000000  -38.410638 -166.537903  -65.015911  112.397293    0.000000    0.000000    0.000000    0.000000
  0.018250000  -38.286452 -166.779160  -64.660060  110.108620    0.000000    0.000000    0.000000    0.000000
  0.018500000  -38.193342 -166.635483  -64.657590  107.990089    0.000000    0.000000    0.000000    0.000000
  0.018750000  -38.078196 -166.392181  -64.741023  105.553337    0.000000    0.000000    0.000000    0.000000
  0.019000000  -37.981996 -167.031433  -65.289449  104.701340    0.000000    0.000000    0.000000    0.000000
  0.019250000  -37.918389 -166.775604  -66.469535  103.492546    0.000000    0.000000    0.000000    0.000000
  0.019500000  -37.847704 -166.813126  -68.402948  104.777733    0.000000    0.000000    0.000000    0.000000
  0.019750000  -37.744564 -166.945374  -72.456098  111.218689    0.000000    0.000000    0.000000    0.000000
  0.020000000  -37.647656 -166.618530  -79.180333  161.062439    0.000000    0.000000    0.000000    0.000000
  0.020250000  -37.585585 -167.280075  -71.402380 -127.774178    0.000000    0.000000    0.000000    0.000000
  0.020500000  -37.472180 -167.045456  -64.622740 -117.758347    0.000000    0.000000    0.000000    0.000000
  0.020750000  -37.428506 -166.565308  -60.003579 -115.546898    0.000000    0.000000    0.000000    0.000000
  0.021000000  -37.335233 -167.231323  -56.313198 -116.243713    0.000000    0.000000    0.000000    0.000000
  0.021250000  -37.202186 -167.367493  -53.327192 -118.045723    0.000000    0.000000    0.000000    0.000000
  0.021500000  -37.137744 -167.330215  -50.623891 -120.140335    0.000000    0.000000    0.000000    0.000000
  0.021750000  -36.988792 -167.043030  -48.262815 -123.051079    0.000000    0.000000    0.000000    0.000000
  0.022000000  -36.926994 -167.278030  -45.973812 -125.846588    0.000000    0.000000    0.000000    0.000000
  0.022250000  -36.788164 -166.939682  -43.953148 -129.507736    0.000000    0.000000    0.000000    0.000000
  0.022500000  -36.762954 -166.905075  -41.900106 -133.086365    0.000000    0.000000    0.000000    0.000000
  0.022750000  -36.649933 -166.933044  -39.986296 -136.798203    0.000000    0.000000    0.000000    0.000000
  0.023000000  -36.497109 -166.877625  -38.152168 -140.706024    0.000000    0.000000    0.000000    0.000000
  0.023250000  -36.480179 -167.049713  -36.397232 -144.309082    0.000000    0.000000    0.000000    0.000000
  0.023500000  -36.377987 -166.896149  -34.684803 -148.223114    0.000000    0.000000    0.000000    0.000000
  0.023750000  -36.284680 -166.935486  -33.037975 -152.084427    0.000000    0.000000    0.000000    0.000000
  0.024000000  -36.248752 -166.851364  -31.697910 -156.812668    0.000000    0.000000    0.000000    0.000000
  0.024250000  -36.174004 -166.437439  -30.109718 -161.490738    0.000000    0.000000    0.000000    0.000000
  0.024500000  -36.068863 -166.540222  -28.608050 -166.327820    0.000000    0.000000    0.000000    0.000000
  0.024750000  -35.985262 -166.470718  -27.072765 -171.456619    0.000000    0.000000    0.000000    0.000000
  0.025000000  -35.886994 -166.499451  -25.568467 -176.725113    0.000000    0.000000    0.000000    0.000000
  0.025250000  -35.829245 -166.223602  -24.095290  177.468292    0.000000    0.000000    0.000000    0.000000
  0.025500000  -35.766304 -166.077026  -22.646019  171.637589    0.000000    0.000000    0.000000    0.000000
  0.025750000  -35.707833 -165.637253  -21.234075  165.213181    0.000000    0.000000    0.000000    0.000000
  0.026000000  -35.602047 -165.791580  -19.858296  158.454330    0.000000    0.000000    0.000000    0.000000
  0.026250000  -35.515115 -165.455780  -18.515264  151.264832    0.000000    0.000000    0.000000    0.000000
  0.026500000  -35.451008 -165.683624  -17.217971  143.528137    0.000000    0.000000    0.000000    0.000000
  0.026750000  -35.339486 -165.395279  -15.979034  135.359314    0.000000    0.000000    0.000000    0.000000
  0.027000000  -35.257453 -165.431778  -14.832706  126.645943    0.000000    0.000000    0.000000    0.000000
  0.027250000  -35.195966 -165.378174  -13.771908  117.506699    0.000000    0.000000    0.000000    0.000000
  0.027500000  -35.085403 -165.320190  -12.831736  108.096306    0.000000    0.000000    0.000000    0.000000
  0.027750000  -35.029112 -165.015182  -12.021658   98.473457    0.000000    0.000000    0.000000    0.000000
  0.028000000  -34.947901 -164.960495  -11.337442   88.764832    0.000000    0.000000    0.000000    0.000000
  0.028250000  -34.851185 -164.722458  -10.784921   79.140930    0.000000    0.000000    0.000000    0.000000
  0.028500000  -34.748939 -164.388199  -10.342342   69.777092    0.000000    0.000000    0.000000    0.000000
  0.028750000  -34.718175 -164.494614  -10.010143   60.763569    0.000000    0.000000    0.000000    0.000000
  0.029000000  -34.607761 -164.401062   -9.765854   52.132347    0.000000    0.000000    0.000000    0.000000
  0.029250000  -34.593899 -163.964249   -9.596019   43.976093    0.000000    0.000000    0.000000    0.000000
  0.029500000  -34.549258 -163.763062   -9.465939   36.297649    0.000000    0.000000    0.000000    0.000000
  0.029750000  -34.444224 -163.516510   -9.375654   29.040882    0.000000    0.000000    0.000000    0.000000
  0.030000000  -34.349153 -163.449554   -9.302877   22.205101    0.000000    0.000000    0.000000    0.000000
  0.030250000  -34.275198 -163.098389   -9.255169   15.710004    0.000000    0.000000    0.000000    0.000000
  0.030500000  -34.236445 -162.973969   -9.217097    9.565015    0.000000    0.000000    0.000000    0.000000
  0.030750000  -34.122425 -162.731750   -9.197417    3.702635    0.000000    0.000000    0.000000    0.000000
  0.031000000  -34.057447 -162.576935   -9.181574   -1.870677    0.000000    0.000000    0.000000    0.000000
  0.031250000  -33.990012 -162.403442   -9.166821   -7.200370    0.000000    0.000000    0.000000    0.000000
  0.031500000  -33.917309 -162.365417   -9.153752  -12.371820    0.000000    0.000000    0.000000    0.000000
  0.031750000  -33.869620 -162.068222   -9.132144  -17.337523    0.000000    0.000000    0.000000    0.000000
  0.032000000  -33.786613 -161.898453   -9.116657  -22.182951    0.000000    0.000000    0.000000    0.000000
  0.032250000  -33.735783 -161.702423   -9.102200  -26.845209    0.000000    0.000000    0.000000    0.000000
  0.032500000  -33.674286 -161.455093   -9.093139  -31.319429    0.000000    0.000000    0.000000    0.000000
  0.032750000  -33.631845 -161.144348   -9.087319  -35.672039    0.000000    0.000000    0.000000    0.000000
  0.033000000  -33.569434 -160.935287   -9.077508  -39.921661    0.000000    0.000000    0.000000    0.000000
  0.033250000  -33.456064 -160.722183   -9.073635  -44.032063    0.000000    0.000000    0.000000    0.000000
  0.033500000  -33.420712 -160.429169   -9.063716  -48.099144    0.000000    0.000000    0.000000    0.000000
  0.033750000  -33.344769 -160.415024   -9.053687  -52.051510    0.000000    0.000000    0.000000    0.000000
  0.034000000  -33.274167 -160.118195   -9.046615  -55.918728    0.000000    0.000000    0.000000    0.000000
  0.034250000  -33.162418 -159.815720   -9.039230  -59.717743    0.000000    0.000000    0.000000    0.000000
  0.034500000  -33.134258 -159.630676   -9.034629  -63.418633    0.000000    0.000000    0.000000    0.000000
  0.034750000  -33.079440 -159.413391   -9.028657  -67.021294    0.000000    0.000000    0.000000    0.000000
  0.035000000  -33.012844 -159.153732   -9.034688  -70.567245    0.000000    0.000000    0.000000    0.000000
  0.035250000  -32.993813 -158.981049   -9.037397  -74.037575    0.000000    0.000000    0.000000    0.000000
  0.035500000  -32.942066 -158.528122   -9.039452  -77.519463    0.000000    0.000000    0.000000    0.000000
  0.035750000  -32.868504 -158.302139   -9.034212  -80.930359    0.000000    0.000000    0.000000    0.000000
  0.036000000  -32.825641 -158.216339   -9.032603  -84.204071    0.000000    0.000000    0.000000    0.000000
  0.036250000  -32.718437 -157.692184   -9.028327  -87.468452    0.000000    0.000000    0.000000    0.000000
  0.036500000  -32.677031 -157.542404   -9.026524  -90.702232    0.000000    0.000000    0.000000    0.000000
  0.036750000  -32.609851 -157.392181   -9.027536  -93.872002    0.000000    0.000000    0.000000    0.000000
  0.037000000  -32.594165 -156.937943   -9.028659  -96.971497    0.000000    0.000000    0.000000    0.000000
  0.037250000  -32.520887 -156.548721   -9.034825 -100.004478    0.000000    0.000000    0.000000    0.000000
  0.037500000  -32.507235 -156.623306   -9.037971 -102.999649    0.000000    0.000000    0.000000    0.000000
  0.037750000  -32.436617 -156.246872   -9.040096 -105.942627    0.000000    0.000000    0.000000    0.000000
  0.038000000  -32.428767 -156.065063   -9.038933 -108.843567    0.000000    0.000000    0.000000    0.000000
  0.038250000  -32.323473 -155.855713   -9.042392 -111.699409    0.000000    0.000000    0.000000    0.000000
  0.038500000  -32.273398 -155.647751   -9.040604 -114.545212    0.000000    0.000000    0.000000    0.000000
  0.038750000  -32.178454 -155.272049   -9.039153 -117.325905    0.000000    0.000000    0.000000    0.000000
  0.039000000  -32.146332 -154.871307   -9.037400 -120.098839    0.000000    0.000000    0.000000    0.000000
  0.039250000  -32.115732 -154.739777   -9.033478 -122.817947    0.000000    0.000000    0.000000    0.000000
  0.039500000  -32.090758 -154.385910   -9.036353 -125.484543    0.000000    0.000000    0.000000    0.000000
  0.039750000  -32.033605 -154.273972   -9.037660 -128.136810    0.000000    0.000000    0.000000    0.000000
  0.040000000  -31.997958 -153.917953   -9.038007 -130.729523    0.000000    0.000000    0.000000    0.000000
  0.040250000  -31.951192 -153.791702   -9.042503 -133.308762    0.000000    0.000000    0.000000    0.000000
  0.040500000  -31.898650 -153.462280   -9.043273 -135.852524    0.000000    0.000000    0.000000    0.000000
  0.040750000  -31.816028 -153.311203   -9.040299 -138.382751    0.000000    0.000000    0.000000    0.000000
  0.041000000  -31.783831 -152.860825   -9.039515 -140.811630    0.000000    0.000000    0.000000    0.000000
  0.041250000  -31.749007 -152.568054   -9.042727 -143.273468    0.000000    0.000000    0.000000    0.000000
  0.041500000  -31.702418 -152.535919   -9.039517 -145.727295    0.000000    0.000000    0.000000    0.000000
  0.041750000  -31.689008 -152.273514   -9.036463 -148.145554    0.000000    0.000000    0.000000    0.000000
  0.042000000  -31.643425 -152.030945   -9.030939 -150.545837    0.000000    0.000000    0.000000    0.000000
  0.042250000  -31.614591 -151.896500   -9.028063 -152.906204    0.000000    0.000000    0.000000    0.000000
  0.042500000  -31.529336 -151.451736   -9.021688 -155.259735    0.000000    0.000000    0.000000    0.000000
  0.042750000  -31.493934 -150.947739   -9.022208 -157.600983    0.000000    0.000000    0.000000    0.000000
  0.043000000  -31.459652 -150.617752   -9.024838 -159.908600    0.000000    0.000000    0.000000    0.000000
  0.043250000  -31.448821 -150.332520   -9.021025 -162.181732    0.000000    0.000000    0.000000    0.000000
  0.043500000  -31.370519 -150.222992   -9.024280 -164.433746    0.000000    0.000000    0.000000    0.000000
  0.043750000  -31.339639 -149.867416   -9.026758 -166.686066    0.000000    0.000000    0.000000    0.000000
  0.044000000  -31.306992 -149.648834   -9.029683 -168.905121    0.000000    0.000000    0.000000    0.000000
  0.044250000  -31.273075 -149.315659   -9.031483 -171.112473    0.000000    0.000000    0.000000    0.000000
  0.044500000  -31.219218 -148.947144   -9.028100 -173.322159    0.000000    0.000000    0.000000    0.000000
  0.044750000  -31.180882 -148.552841   -9.033882 -175.484497    0.000000    0.000000    0.000000    0.000000
  0.045000000  -31.137764 -148.210526   -9.031656 -177.672684    0.000000    0.000000    0.000000    0.000000
  0.045250000  -31.089069 -147.970154   -9.031929 -179.831741    0.000000    0.000000    0.000000    0.000000
  0.045500000  -31.061928 -147.672150   -9.022860  177.966705    0.000000    0.000000    0.000000    0.000000
  0.045750000  -30.972190 -147.604507   -9.021634  175.792801    0.000000    0.000000    0.000000    0.000000
  0.046000000  -30.985045 -147.119125   -9.020127  173.677368    0.000000    0.000000    0.000000    0.000000
  0.046250000  -30.951821 -146.754257   -9.013751  171.532913    0.000000    0.000000    0.000000    0.000000
  0.046500000  -30.909473 -146.595901   -9.013545  169.420959    0.000000    0.000000    0.000000    0.000000
  0.046750000  -30.884481 -146.105682   -9.011990  167.324860    0.000000    0.000000    0.000000    0.000000
  0.047000000  -30.841336 -145.862488   -9.013922  165.233902    0.000000    0.000000    0.000000    0.000000
  0.047250000  -30.821752 -145.465851   -9.013007  163.158936    0.000000    0.000000    0.000000    0.000000
  0.047500000  -30.786530 -145.134506   -9.010543  161.090225    0.000000    0.000000    0.000000    0.000000
  0.047750000  -30.750154 -144.853333   -9.013315  159.042252    0.000000    0.000000    0.000000    0.000000
  0.048000000  -30.724618 -144.665161   -9.015226  157.013489    0.000000    0.000000    0.000000    0.000000
  0.048250000  -30.697431 -144.278290   -9.014500  154.978668    0.000000    0.000000    0.000000    0.000000
  0.048500000  -30.659153 -144.096436   -9.014109  152.969040    0.000000    0.000000    0.000000    0.000000
  0.048750000  -30.620748 -143.942703   -9.014017  150.935547    0.000000    0.000000    0.000000    0.000000
  0.049000000  -30.610195 -143.401215   -9.012275  148.936661    0.000000    0.000000    0.000000    0.000000
  0.049250000  -30.587163 -143.197067   -9.010642  146.932632    0.000000    0.000000    0.000000    0.000000
  0.049500000  -30.545127 -143.028946   -9.007006  144.938126    0.000000    0.000000    0.000000    0.000000
  0.049750000  -30.553195 -142.701508   -9.008309  142.931946    0.000000    0.000000    0.000000    0.000000
  0.050000000  -30.514788 -142.274643   -8.994869  141.201828    0.000000    0.000000    0.000000    0.000000
  0.050250000  -30.450472 -142.073944   -8.991198  139.235245    0.000000    0.000000    0.000000    0.000000
  0.050500000  -30.446251 -141.781921   -8.994436  137.256790    0.000000    0.000000    0.000000    0.000000
  0.050750000  -30.406292 -141.496429   -8.995351  135.314407    0.000000    0.000000    0.000000    0.000000
  0.051000000  -30.404514 -141.211212   -8.995510  133.353394    0.000000    0.000000    0.000000    0.000000
