! Anritsu VNA Master:                 Model: MS2034B/10/19/501
! SN:                                  1337062
! /bd0/ovro-jan-2016/dcp-d1-s21.s2p
! Existing Calibration Information:
! TYPE:                         Current Settings,       Active Cal Settings
! TIME:             	   01/08/2016 09:45:32 PM,    01/08/2016 08:43:08 PM
! INTERNAL TEMP:    	                   42.8 C,                    45.0 C
! # POINTS:         	                      500,                       500
! START FREQ:       	               10.000 MHz,                10.000 MHz
! STOP FREQ:        	              110.000 MHz,               110.000 MHz
! SOURCE POWER:     	                      Low,                       Low
! IFBW:             	                   100 Hz,                    100 Hz
! AVG FACTOR:       	                       3 ,                        3 
! REF PLANE 1:      	                 2.2245 m,                  2.2245 m
! REF PLANE 2:      	                     0 mm,                      0 mm
! CAL TYPE:         	             1P2P S11,S21,              1P2P S11,S21
! CAL METHOD:       	                     SOLT,                      SOLT
! CAL LINE TYPE:    	                     Coax,                      Coax
! DUT PORT 1:       	                K-Conn(M),                 K-Conn(M)
! DUT PORT 2:       	                N-Conn(M),                 N-Conn(M)
! CAL STATUS:       	        OK: Accuracy High,                        --
# GHZ S DB R 50.0
! FREQ.GHZ       S11DB        S11A       S21DB        S21A       S12DB        S12A       S22DB        S22A
  0.010000000  -25.182573 -167.937271  -49.502168 -139.383652    0.000000    0.000000    0.000000    0.000000
  0.010200401  -25.351461 -170.606064  -54.367040 -139.570969    0.000000    0.000000    0.000000    0.000000
  0.010400802  -25.122799 -172.292572  -64.058913 -129.863708    0.000000    0.000000    0.000000    0.000000
  0.010601202  -25.355927 -175.914459  -59.261254   27.356440    0.000000    0.000000    0.000000    0.000000
  0.010801603  -25.658274 -178.633331  -52.938207   23.488493    0.000000    0.000000    0.000000    0.000000
  0.011002004  -25.507400 -179.563858  -48.754770   28.115679    0.000000    0.000000    0.000000    0.000000
  0.011202405  -25.354100  177.185486  -46.185133   22.969217    0.000000    0.000000    0.000000    0.000000
  0.011402806  -25.540649  174.270538  -44.081774   24.099203    0.000000    0.000000    0.000000    0.000000
  0.011603206  -25.736433  171.739105  -42.885354   23.005920    0.000000    0.000000    0.000000    0.000000
  0.011803607  -25.972869  172.292389  -41.726383   20.550442    0.000000    0.000000    0.000000    0.000000
  0.012004008  -26.208260  169.859039  -41.014391   18.662712    0.000000    0.000000    0.000000    0.000000
  0.012204409  -25.921799  165.332382  -40.245232   18.067101    0.000000    0.000000    0.000000    0.000000
  0.012404810  -26.030299  163.055145  -39.649715   15.715990    0.000000    0.000000    0.000000    0.000000
  0.012605210  -25.825696  160.788940  -39.531960   15.241982    0.000000    0.000000    0.000000    0.000000
  0.012805611  -25.886752  158.562241  -39.388445   13.147838    0.000000    0.000000    0.000000    0.000000
  0.013006012  -25.835610  157.424042  -39.571072   11.175493    0.000000    0.000000    0.000000    0.000000
  0.013206413  -25.807581  154.369598  -39.744774    9.735295    0.000000    0.000000    0.000000    0.000000
  0.013406814  -26.053815  150.945999  -40.060731    8.852206    0.000000    0.000000    0.000000    0.000000
  0.013607214  -25.937555  150.393799  -40.849188    8.388443    0.000000    0.000000    0.000000    0.000000
  0.013807615  -25.786719  147.278580  -41.687848    6.286877    0.000000    0.000000    0.000000    0.000000
  0.014008016  -25.675088  147.074463  -43.178222    6.551211    0.000000    0.000000    0.000000    0.000000
  0.014208417  -25.770191  143.066574  -45.238040    9.288739    0.000000    0.000000    0.000000    0.000000
  0.014408818  -25.799681  141.069672  -48.145669   13.783879    0.000000    0.000000    0.000000    0.000000
  0.014609218  -25.419356  139.444839  -53.336454   30.691145    0.000000    0.000000    0.000000    0.000000
  0.014809619  -25.236784  137.554306  -57.916760  112.697701    0.000000    0.000000    0.000000    0.000000
  0.015010020  -25.543430  135.920181  -49.489785  147.282700    0.000000    0.000000    0.000000    0.000000
  0.015210421  -25.341420  132.334686  -44.285350  154.621307    0.000000    0.000000    0.000000    0.000000
  0.015410822  -25.275327  130.313065  -41.051227  156.852722    0.000000    0.000000    0.000000    0.000000
  0.015611222  -25.145514  129.051804  -38.223651  157.970917    0.000000    0.000000    0.000000    0.000000
  0.015811623  -25.037861  126.612160  -36.168450  157.361023    0.000000    0.000000    0.000000    0.000000
  0.016012024  -25.032711  125.100533  -34.310982  155.915497    0.000000    0.000000    0.000000    0.000000
  0.016212425  -24.875344  122.315681  -32.880674  154.376694    0.000000    0.000000    0.000000    0.000000
  0.016412826  -24.941002  121.827667  -31.440265  153.439835    0.000000    0.000000    0.000000    0.000000
  0.016613226  -24.604373  118.720070  -30.404336  151.833130    0.000000    0.000000    0.000000    0.000000
  0.016813627  -24.451946  116.606544  -29.332337  149.733459    0.000000    0.000000    0.000000    0.000000
  0.017014028  -24.369716  115.717239  -28.439224  148.142502    0.000000    0.000000    0.000000    0.000000
  0.017214429  -24.397359  112.918297  -27.667631  146.584854    0.000000    0.000000    0.000000    0.000000
  0.017414830  -24.088745  111.602974  -27.018899  144.769043    0.000000    0.000000    0.000000    0.000000
  0.017615230  -24.006940  109.296829  -26.467852  142.599579    0.000000    0.000000    0.000000    0.000000
  0.017815631  -23.818309  107.063477  -26.098050  140.694641    0.000000    0.000000    0.000000    0.000000
  0.018016032  -23.836272  105.943108  -25.794329  139.348511    0.000000    0.000000    0.000000    0.000000
  0.018216433  -23.465870  104.116493  -25.603083  137.417572    0.000000    0.000000    0.000000    0.000000
  0.018416834  -23.390131  103.088852  -25.677966  136.112473    0.000000    0.000000    0.000000    0.000000
  0.018617234  -23.291321  100.712227  -25.907474  134.798462    0.000000    0.000000    0.000000    0.000000
  0.018817635  -23.147207   98.726570  -26.553149  133.379532    0.000000    0.000000    0.000000    0.000000
  0.019018036  -23.105509   96.697121  -27.399080  132.901962    0.000000    0.000000    0.000000    0.000000
  0.019218437  -22.853130   95.915596  -28.788558  133.645111    0.000000    0.000000    0.000000    0.000000
  0.019418838  -22.715241   93.204475  -31.160369  136.136505    0.000000    0.000000    0.000000    0.000000
  0.019619238  -22.718254   91.172493  -35.575382  148.701096    0.000000    0.000000    0.000000    0.000000
  0.019819639  -22.536701   89.949730  -40.618830 -150.163605    0.000000    0.000000    0.000000    0.000000
  0.020020040  -22.474728   89.078606  -32.980799  -94.847542    0.000000    0.000000    0.000000    0.000000
  0.020220441  -22.180264   86.239677  -26.845245  -83.796814    0.000000    0.000000    0.000000    0.000000
  0.020420842  -22.111405   84.419121  -22.669340  -81.201591    0.000000    0.000000    0.000000    0.000000
  0.020621242  -21.932149   83.043419  -19.436298  -81.650208    0.000000    0.000000    0.000000    0.000000
  0.020821643  -21.862174   81.339394  -16.619989  -81.873573    0.000000    0.000000    0.000000    0.000000
  0.021022044  -21.749696   79.346642  -14.229776  -83.684769    0.000000    0.000000    0.000000    0.000000
  0.021222445  -21.518255   77.175896  -12.006675  -85.558685    0.000000    0.000000    0.000000    0.000000
  0.021422846  -21.380127   75.021996  -10.020662  -87.491089    0.000000    0.000000    0.000000    0.000000
  0.021623246  -21.339380   74.208832   -8.166021  -90.022171    0.000000    0.000000    0.000000    0.000000
  0.021823647  -21.195843   72.167328   -6.441481  -91.783371    0.000000    0.000000    0.000000    0.000000
  0.022024048  -21.032926   69.765617   -4.716156  -94.771347    0.000000    0.000000    0.000000    0.000000
  0.022224449  -20.945926   68.028831   -3.173375  -97.380180    0.000000    0.000000    0.000000    0.000000
  0.022424850  -20.715397   64.896301   -1.598393  -99.731911    0.000000    0.000000    0.000000    0.000000
  0.022625251  -20.714136   63.091324   -0.116717 -102.417290    0.000000    0.000000    0.000000    0.000000
  0.022825651  -20.583610   60.481789    1.316147 -105.531265    0.000000    0.000000    0.000000    0.000000
  0.023026052  -20.426419   58.383392    2.727569 -108.355736    0.000000    0.000000    0.000000    0.000000
  0.023226453  -20.386999   56.781109    4.039262 -111.193825    0.000000    0.000000    0.000000    0.000000
  0.023426854  -20.285960   53.847763    5.363081 -115.245728    0.000000    0.000000    0.000000    0.000000
  0.023627255  -20.190295   50.960560    6.675838 -118.315964    0.000000    0.000000    0.000000    0.000000
  0.023827655  -19.654985   51.020607    7.752679 -119.750290    0.000000    0.000000    0.000000    0.000000
  0.024028056  -19.631724   48.223545    9.009684 -122.949318    0.000000    0.000000    0.000000    0.000000
  0.024228457  -19.587086   45.090672   10.183650 -126.672562    0.000000    0.000000    0.000000    0.000000
  0.024428858  -19.440967   42.337807   11.430993 -130.432877    0.000000    0.000000    0.000000    0.000000
  0.024629259  -19.341212   39.909592   12.643484 -134.883484    0.000000    0.000000    0.000000    0.000000
  0.024829659  -19.185573   36.413319   13.690094 -138.584045    0.000000    0.000000    0.000000    0.000000
  0.025030060  -19.096806   33.566669   14.816092 -143.809509    0.000000    0.000000    0.000000    0.000000
  0.025230461  -19.250592   30.600780   15.958675 -148.757797    0.000000    0.000000    0.000000    0.000000
  0.025430862  -18.965245   26.526066   17.129764 -153.441574    0.000000    0.000000    0.000000    0.000000
  0.025631263  -19.075990   23.662962   18.287302 -158.538589    0.000000    0.000000    0.000000    0.000000
  0.025831663  -19.077540   19.702923   19.405605 -164.000488    0.000000    0.000000    0.000000    0.000000
  0.026032064  -19.035761   15.142709   20.448246 -169.958038    0.000000    0.000000    0.000000    0.000000
  0.026232465  -19.144436   11.266249   21.482900 -175.139969    0.000000    0.000000    0.000000    0.000000
  0.026432866  -19.362648    6.998116   22.484459  178.917618    0.000000    0.000000    0.000000    0.000000
  0.026633267  -19.494783    1.317207   23.412724  172.352005    0.000000    0.000000    0.000000    0.000000
  0.026833667  -19.787538   -3.061140   24.360343  165.780228    0.000000    0.000000    0.000000    0.000000
  0.027034068  -20.016308   -7.041484   25.165890  159.299408    0.000000    0.000000    0.000000    0.000000
  0.027234469  -20.471972  -13.258796   25.950398  152.064636    0.000000    0.000000    0.000000    0.000000
  0.027434870  -21.172141  -17.943596   26.607647  145.213974    0.000000    0.000000    0.000000    0.000000
  0.027635271  -21.679207  -22.923986   27.154941  137.848892    0.000000    0.000000    0.000000    0.000000
  0.027835671  -22.524156  -27.425913   27.695887  131.027679    0.000000    0.000000    0.000000    0.000000
  0.028036072  -23.345614  -32.012737   28.104329  123.952103    0.000000    0.000000    0.000000    0.000000
  0.028236473  -24.172868  -34.572205   28.527340  116.422485    0.000000    0.000000    0.000000    0.000000
  0.028436874  -25.400102  -40.209743   28.823003  109.423721    0.000000    0.000000    0.000000    0.000000
  0.028637275  -26.460081  -41.140854   29.025597  102.347069    0.000000    0.000000    0.000000    0.000000
  0.028837675  -27.856942  -39.957523   29.238000   96.041191    0.000000    0.000000    0.000000    0.000000
  0.029038076  -29.095983  -41.488937   29.394615   89.985313    0.000000    0.000000    0.000000    0.000000
  0.029238477  -30.679293  -41.582989   29.478515   83.748764    0.000000    0.000000    0.000000    0.000000
  0.029438878  -31.931641  -37.696186   29.551546   78.004074    0.000000    0.000000    0.000000    0.000000
  0.029639279  -32.909727  -34.131302   29.693907   72.572746    0.000000    0.000000    0.000000    0.000000
  0.029839679  -33.678796  -26.729626   29.777927   67.199562    0.000000    0.000000    0.000000    0.000000
  0.030040080  -34.737331  -17.409988   29.758451   62.484879    0.000000    0.000000    0.000000    0.000000
  0.030240481  -35.181281  -11.152856   29.824580   57.667103    0.000000    0.000000    0.000000    0.000000
  0.030440882  -35.480643   -1.710233   29.835221   53.815376    0.000000    0.000000    0.000000    0.000000
  0.030641283  -34.511506    5.207891   29.831908   49.173496    0.000000    0.000000    0.000000    0.000000
  0.030841683  -34.541162   10.555335   29.896042   45.421268    0.000000    0.000000    0.000000    0.000000
  0.031042084  -34.563029   15.480233   29.896932   41.289776    0.000000    0.000000    0.000000    0.000000
  0.031242485  -34.197735   17.726681   29.876177   37.441780    0.000000    0.000000    0.000000    0.000000
  0.031442886  -33.615815   22.206461   29.917994   33.433636    0.000000    0.000000    0.000000    0.000000
  0.031643287  -33.232314   16.687737   29.969754   29.552719    0.000000    0.000000    0.000000    0.000000
  0.031843687  -33.354910   21.179167   29.967879   25.708710    0.000000    0.000000    0.000000    0.000000
  0.032044088  -32.861637   19.068064   29.997556   22.155157    0.000000    0.000000    0.000000    0.000000
  0.032244489  -33.152661   22.751469   30.060551   18.563480    0.000000    0.000000    0.000000    0.000000
  0.032444890  -32.947349   23.651663   30.065393   15.714264    0.000000    0.000000    0.000000    0.000000
  0.032645291  -32.623429   19.804945   30.092805   12.244220    0.000000    0.000000    0.000000    0.000000
  0.032845691  -32.811634   19.867781   30.119121    8.993627    0.000000    0.000000    0.000000    0.000000
  0.033046092  -32.311647   23.473015   30.124292    6.130347    0.000000    0.000000    0.000000    0.000000
  0.033246493  -32.617592   22.402712   30.153984    3.009233    0.000000    0.000000    0.000000    0.000000
  0.033446894  -33.235491   22.657942   30.166760    0.546547    0.000000    0.000000    0.000000    0.000000
  0.033647295  -33.279102   20.037521   30.170802   -2.377965    0.000000    0.000000    0.000000    0.000000
  0.033847695  -33.278926   23.882841   30.189343   -4.639298    0.000000    0.000000    0.000000    0.000000
  0.034048096  -33.418826   21.811535   30.170662   -7.595283    0.000000    0.000000    0.000000    0.000000
  0.034248497  -33.663092   22.649508   30.223259   -9.983751    0.000000    0.000000    0.000000    0.000000
  0.034448898  -33.658983   25.289181   30.219584  -12.819456    0.000000    0.000000    0.000000    0.000000
  0.034649299  -34.739359   22.065651   30.269891  -15.695929    0.000000    0.000000    0.000000    0.000000
  0.034849699  -34.155092   19.974525   30.291763  -18.426805    0.000000    0.000000    0.000000    0.000000
  0.035050100  -34.223382   23.479870   30.323508  -20.887230    0.000000    0.000000    0.000000    0.000000
  0.035250501  -34.768513   24.434919   30.280406  -23.097998    0.000000    0.000000    0.000000    0.000000
  0.035450902  -35.054191   20.751736   30.300777  -25.925724    0.000000    0.000000    0.000000    0.000000
  0.035651303  -35.761650   25.847412   30.268136  -28.126337    0.000000    0.000000    0.000000    0.000000
  0.035851703  -35.103003   25.267843   30.253566  -30.279642    0.000000    0.000000    0.000000    0.000000
  0.036052104  -35.994807   25.360054   30.224642  -32.619255    0.000000    0.000000    0.000000    0.000000
  0.036252505  -36.476376   30.871281   30.230838  -35.023731    0.000000    0.000000    0.000000    0.000000
  0.036452906  -36.494755   32.894218   30.174306  -37.093159    0.000000    0.000000    0.000000    0.000000
  0.036653307  -36.767594   39.145134   30.109452  -39.700790    0.000000    0.000000    0.000000    0.000000
  0.036853707  -36.521566   37.227360   30.141770  -42.090809    0.000000    0.000000    0.000000    0.000000
  0.037054108  -37.523264   36.366756   30.100397  -44.212246    0.000000    0.000000    0.000000    0.000000
  0.037254509  -37.216124   44.006870   30.096545  -46.603863    0.000000    0.000000    0.000000    0.000000
  0.037454910  -37.893310   41.915512   30.109064  -48.587505    0.000000    0.000000    0.000000    0.000000
  0.037655311  -38.307947   47.515408   30.088249  -50.797035    0.000000    0.000000    0.000000    0.000000
  0.037855711  -38.059727   52.613041   30.102750  -52.625843    0.000000    0.000000    0.000000    0.000000
  0.038056112  -37.792756   53.828320   30.148663  -55.032814    0.000000    0.000000    0.000000    0.000000
  0.038256513  -37.982744   59.356747   30.223814  -56.532322    0.000000    0.000000    0.000000    0.000000
  0.038456914  -37.770926   59.752037   30.233105  -58.259274    0.000000    0.000000    0.000000    0.000000
  0.038657315  -38.246359   63.314964   30.286261  -59.823658    0.000000    0.000000    0.000000    0.000000
  0.038857715  -37.296437   69.066772   30.284042  -61.465630    0.000000    0.000000    0.000000    0.000000
  0.039058116  -37.270610   65.646072   30.317575  -63.086926    0.000000    0.000000    0.000000    0.000000
  0.039258517  -37.613332   72.082779   30.339181  -64.875084    0.000000    0.000000    0.000000    0.000000
  0.039458918  -37.657163   75.009193   30.304651  -66.385818    0.000000    0.000000    0.000000    0.000000
  0.039659319  -37.522402   72.836037   30.260950  -68.725952    0.000000    0.000000    0.000000    0.000000
  0.039859719  -36.873464   77.106796   30.252483  -70.422394    0.000000    0.000000    0.000000    0.000000
  0.040060120  -36.919837   78.861534   30.217060  -72.596336    0.000000    0.000000    0.000000    0.000000
  0.040260521  -36.543680   80.074959   30.209091  -74.638115    0.000000    0.000000    0.000000    0.000000
  0.040460922  -36.615801   83.476227   30.160350  -76.473618    0.000000    0.000000    0.000000    0.000000
  0.040661323  -35.925945   83.209404   30.152826  -78.476921    0.000000    0.000000    0.000000    0.000000
  0.040861723  -35.990125   83.862007   30.164389  -80.409988    0.000000    0.000000    0.000000    0.000000
  0.041062124  -35.455233   88.399055   30.194109  -81.616745    0.000000    0.000000    0.000000    0.000000
  0.041262525  -36.130486   87.761322   30.280876  -82.912445    0.000000    0.000000    0.000000    0.000000
  0.041462926  -35.512528   82.501900   30.269363  -84.419144    0.000000    0.000000    0.000000    0.000000
  0.041663327  -34.958725   88.644897   30.316447  -85.484146    0.000000    0.000000    0.000000    0.000000
  0.041863727  -35.160977   89.853233   30.332369  -87.113594    0.000000    0.000000    0.000000    0.000000
  0.042064128  -35.124317   91.719025   30.340089  -88.644661    0.000000    0.000000    0.000000    0.000000
  0.042264529  -34.885146   90.269211   30.416954  -90.204384    0.000000    0.000000    0.000000    0.000000
  0.042464930  -34.695326   87.929077   30.378595  -92.129562    0.000000    0.000000    0.000000    0.000000
  0.042665331  -34.511213   91.649010   30.386779  -93.909737    0.000000    0.000000    0.000000    0.000000
  0.042865731  -34.441332   91.241455   30.407624  -95.972374    0.000000    0.000000    0.000000    0.000000
