! Anritsu VNA Master:                 Model: MS2034B/10/19/501
! SN:                                  1337062
! /bd0/ovro-jan-2016/dcp-z2-s21-40db.s2p
! Existing Calibration Information:
! TYPE:                         Current Settings,       Active Cal Settings
! TIME:             	   01/08/2016 09:27:31 PM,    01/08/2016 08:43:08 PM
! INTERNAL TEMP:    	                   42.5 C,                    45.0 C
! # POINTS:         	                      500,                       500
! START FREQ:       	               10.000 MHz,                10.000 MHz
! STOP FREQ:        	              110.000 MHz,               110.000 MHz
! SOURCE POWER:     	                      Low,                       Low
! IFBW:             	                   100 Hz,                    100 Hz
! AVG FACTOR:       	                       3 ,                        3 
! REF PLANE 1:      	                 2.2245 m,                  2.2245 m
! REF PLANE 2:      	                     0 mm,                      0 mm
! CAL TYPE:         	             1P2P S11,S21,              1P2P S11,S21
! CAL METHOD:       	                     SOLT,                      SOLT
! CAL LINE TYPE:    	                     Coax,                      Coax
! DUT PORT 1:       	                K-Conn(M),                 K-Conn(M)
! DUT PORT 2:       	                N-Conn(M),                 N-Conn(M)
! CAL STATUS:       	        OK: Accuracy High,                        --
# GHZ S DB R 50.0
! FREQ.GHZ       S11DB        S11A       S21DB        S21A       S12DB        S12A       S22DB        S22A
  0.010000000  -39.502806 -108.707092  -65.398736   87.797050    0.000000    0.000000    0.000000    0.000000
  0.010200401  -40.316406 -104.914719  -63.395304  100.013069    0.000000    0.000000    0.000000    0.000000
  0.010400802  -39.825089 -109.232986  -64.566176  108.135529    0.000000    0.000000    0.000000    0.000000
  0.010601202  -40.352262 -109.445389  -65.359694  107.994553    0.000000    0.000000    0.000000    0.000000
  0.010801603  -41.629115 -107.351990  -65.272470  104.715576    0.000000    0.000000    0.000000    0.000000
  0.011002004  -40.120894 -110.424980  -64.050269  104.940964    0.000000    0.000000    0.000000    0.000000
  0.011202405  -40.574503 -115.061356  -66.121414  102.927238    0.000000    0.000000    0.000000    0.000000
  0.011402806  -40.948774 -107.594940  -64.415173  118.180443    0.000000    0.000000    0.000000    0.000000
  0.011603206  -42.265774 -107.672096  -64.832400  104.086517    0.000000    0.000000    0.000000    0.000000
  0.011803607  -38.747197  -94.014702  -64.020627   99.906136    0.000000    0.000000    0.000000    0.000000
  0.012004008  -39.469720  -93.365189  -65.071227  108.037064    0.000000    0.000000    0.000000    0.000000
  0.012204409  -41.154118 -103.885170  -64.942157  116.758148    0.000000    0.000000    0.000000    0.000000
  0.012404810  -41.207641  -91.918427  -64.197628  119.255257    0.000000    0.000000    0.000000    0.000000
  0.012605210  -41.561156  -97.894264  -65.296827  112.137489    0.000000    0.000000    0.000000    0.000000
  0.012805611  -40.873812  -96.882576  -65.163452  117.516426    0.000000    0.000000    0.000000    0.000000
  0.013006012  -40.485965  -94.937927  -66.252456  112.896530    0.000000    0.000000    0.000000    0.000000
  0.013206413  -40.975887  -94.226624  -65.463939  116.284149    0.000000    0.000000    0.000000    0.000000
  0.013406814  -41.874000  -85.763588  -64.669187  122.694733    0.000000    0.000000    0.000000    0.000000
  0.013607214  -39.574932  -91.311096  -64.550020  132.312424    0.000000    0.000000    0.000000    0.000000
  0.013807615  -41.228692  -84.045143  -63.114301  122.213120    0.000000    0.000000    0.000000    0.000000
  0.014008016  -40.255943  -92.016548  -65.684703  127.642700    0.000000    0.000000    0.000000    0.000000
  0.014208417  -40.688266  -78.165794  -64.782564  138.596817    0.000000    0.000000    0.000000    0.000000
  0.014408818  -39.905295  -83.868713  -64.427789  135.815521    0.000000    0.000000    0.000000    0.000000
  0.014609218  -40.255513  -86.152557  -64.329417  142.726608    0.000000    0.000000    0.000000    0.000000
  0.014809619  -41.117592  -95.490593  -62.668891  135.388412    0.000000    0.000000    0.000000    0.000000
  0.015010020  -39.929832  -84.154976  -64.264107  141.909225    0.000000    0.000000    0.000000    0.000000
  0.015210421  -41.029652  -78.466904  -63.258868  145.335190    0.000000    0.000000    0.000000    0.000000
  0.015410822  -39.693096  -76.302048  -62.178478  142.529755    0.000000    0.000000    0.000000    0.000000
  0.015611222  -40.540091  -78.501976  -62.379041  148.717514    0.000000    0.000000    0.000000    0.000000
  0.015811623  -40.353126  -80.909256  -61.440593  151.078613    0.000000    0.000000    0.000000    0.000000
  0.016012024  -40.462973  -75.154778  -61.037142  142.306152    0.000000    0.000000    0.000000    0.000000
  0.016212425  -40.620711  -74.712708  -61.136782  145.233612    0.000000    0.000000    0.000000    0.000000
  0.016412826  -39.242538  -75.224350  -60.243757  152.180084    0.000000    0.000000    0.000000    0.000000
  0.016613226  -40.902667  -72.675117  -60.075241  145.334335    0.000000    0.000000    0.000000    0.000000
  0.016813627  -40.982748  -71.729904  -59.986988  146.287918    0.000000    0.000000    0.000000    0.000000
  0.017014028  -40.936316  -70.459038  -59.696460  144.452225    0.000000    0.000000    0.000000    0.000000
  0.017214429  -40.219686  -70.133469  -59.813384  142.243835    0.000000    0.000000    0.000000    0.000000
  0.017414830  -40.163659  -68.939873  -58.457398  144.467178    0.000000    0.000000    0.000000    0.000000
  0.017615230  -40.702857  -66.983452  -58.071300  143.709366    0.000000    0.000000    0.000000    0.000000
  0.017815631  -40.304126  -61.896252  -58.409853  144.047455    0.000000    0.000000    0.000000    0.000000
  0.018016032  -40.609010  -62.840092  -58.095502  142.394882    0.000000    0.000000    0.000000    0.000000
  0.018216433  -41.037222  -60.460396  -58.344009  142.254974    0.000000    0.000000    0.000000    0.000000
  0.018416834  -40.654110  -60.968483  -57.860594  140.179901    0.000000    0.000000    0.000000    0.000000
  0.018617234  -41.100095  -57.183769  -58.904070  143.317276    0.000000    0.000000    0.000000    0.000000
  0.018817635  -40.312503  -56.148083  -58.976753  141.253510    0.000000    0.000000    0.000000    0.000000
  0.019018036  -40.404333  -55.795628  -59.152713  141.125671    0.000000    0.000000    0.000000    0.000000
  0.019218437  -40.703727  -58.199837  -59.751265  140.529694    0.000000    0.000000    0.000000    0.000000
  0.019418838  -40.057726  -54.232704  -60.789531  139.708862    0.000000    0.000000    0.000000    0.000000
  0.019619238  -39.913169  -51.339996  -60.952597  143.217712    0.000000    0.000000    0.000000    0.000000
  0.019819639  -40.679850  -48.157429  -61.338701  150.914307    0.000000    0.000000    0.000000    0.000000
  0.020020040  -39.753319  -54.501259  -63.493043  159.729507    0.000000    0.000000    0.000000    0.000000
  0.020220441  -40.320177  -50.736671  -63.472411 -172.854553    0.000000    0.000000    0.000000    0.000000
  0.020420842  -39.823086  -48.872051  -63.976473 -154.212173    0.000000    0.000000    0.000000    0.000000
  0.020621242  -40.491245  -48.475590  -62.805336 -133.263855    0.000000    0.000000    0.000000    0.000000
  0.020821643  -40.269654  -50.069389  -59.098373 -112.334221    0.000000    0.000000    0.000000    0.000000
  0.021022044  -39.821593  -45.722187  -56.329559 -104.536369    0.000000    0.000000    0.000000    0.000000
  0.021222445  -40.901640  -46.294819  -53.512736  -99.531128    0.000000    0.000000    0.000000    0.000000
  0.021422846  -39.954002  -43.184532  -50.943231  -99.248001    0.000000    0.000000    0.000000    0.000000
  0.021623246  -41.198795  -46.914246  -48.494943 -100.020287    0.000000    0.000000    0.000000    0.000000
  0.021823647  -40.923090  -44.794674  -46.458962 -101.495987    0.000000    0.000000    0.000000    0.000000
  0.022024048  -39.992559  -37.396080  -44.169749 -104.500984    0.000000    0.000000    0.000000    0.000000
  0.022224449  -41.287362  -43.837326  -42.707002 -106.205803    0.000000    0.000000    0.000000    0.000000
  0.022424850  -40.065880  -32.987968  -41.319220 -106.464539    0.000000    0.000000    0.000000    0.000000
  0.022625251  -40.218378  -36.542599  -40.001660 -108.172905    0.000000    0.000000    0.000000    0.000000
  0.022825651  -40.388994  -37.956627  -38.187026 -111.971481    0.000000    0.000000    0.000000    0.000000
  0.023026052  -39.850630  -33.552925  -36.780818 -113.748314    0.000000    0.000000    0.000000    0.000000
  0.023226453  -41.024410  -35.373585  -35.408340 -116.196243    0.000000    0.000000    0.000000    0.000000
  0.023426854  -40.269227  -36.955662  -33.955942 -119.826118    0.000000    0.000000    0.000000    0.000000
  0.023627255  -39.997894  -29.028677  -32.515667 -122.108757    0.000000    0.000000    0.000000    0.000000
  0.023827655  -40.486157  -22.530325  -31.413238 -125.019264    0.000000    0.000000    0.000000    0.000000
  0.024028056  -41.361817  -25.284355  -30.003850 -128.940689    0.000000    0.000000    0.000000    0.000000
  0.024228457  -40.528567  -29.210817  -28.712760 -131.972046    0.000000    0.000000    0.000000    0.000000
  0.024428858  -40.092902  -25.838099  -27.457811 -135.498322    0.000000    0.000000    0.000000    0.000000
  0.024629259  -40.647863  -23.726423  -26.225777 -139.315872    0.000000    0.000000    0.000000    0.000000
  0.024829659  -39.652409  -18.605562  -24.922681 -141.953400    0.000000    0.000000    0.000000    0.000000
  0.025030060  -39.517186  -20.711039  -23.828617 -147.049545    0.000000    0.000000    0.000000    0.000000
  0.025230461  -41.599052  -20.612797  -22.601190 -151.363419    0.000000    0.000000    0.000000    0.000000
  0.025430862  -40.326299  -18.231174  -21.474644 -156.605484    0.000000    0.000000    0.000000    0.000000
  0.025631263  -40.731367  -11.687245  -20.375214 -161.709656    0.000000    0.000000    0.000000    0.000000
  0.025831663  -40.791562   -7.412648  -19.233440 -167.677216    0.000000    0.000000    0.000000    0.000000
  0.026032064  -40.125644  -17.039339  -18.170837 -173.788696    0.000000    0.000000    0.000000    0.000000
  0.026232465  -40.777137   -6.853305  -17.170999 -179.616592    0.000000    0.000000    0.000000    0.000000
  0.026432866  -41.026502   -6.036455  -16.196146  174.072723    0.000000    0.000000    0.000000    0.000000
  0.026633267  -39.576926  -13.865609  -15.299465  166.884628    0.000000    0.000000    0.000000    0.000000
  0.026833667  -40.616821  -13.647228  -14.382547  160.223282    0.000000    0.000000    0.000000    0.000000
  0.027034068  -39.139003   -9.506868  -13.662834  152.571259    0.000000    0.000000    0.000000    0.000000
  0.027234469  -40.236537  -10.962278  -12.886969  144.336304    0.000000    0.000000    0.000000    0.000000
  0.027434870  -41.819476   -6.444667  -12.314511  137.230835    0.000000    0.000000    0.000000    0.000000
  0.027635271  -41.155822   -6.217838  -11.811822  130.032608    0.000000    0.000000    0.000000    0.000000
  0.027835671  -41.984630   -4.541983  -11.316577  122.324753    0.000000    0.000000    0.000000    0.000000
  0.028036072  -41.012960   -4.499826  -10.996730  114.971329    0.000000    0.000000    0.000000    0.000000
  0.028236473  -40.153753   -3.460293  -10.620308  107.552032    0.000000    0.000000    0.000000    0.000000
  0.028436874  -42.340334   -1.991619  -10.407254  101.174980    0.000000    0.000000    0.000000    0.000000
  0.028637275  -41.049654   -3.099693  -10.250833   93.731323    0.000000    0.000000    0.000000    0.000000
  0.028837675  -39.890739    3.927847  -10.042577   87.975357    0.000000    0.000000    0.000000    0.000000
  0.029038076  -39.556013    6.882924   -9.954528   81.740067    0.000000    0.000000    0.000000    0.000000
  0.029238477  -40.783178    8.364787   -9.915292   75.770126    0.000000    0.000000    0.000000    0.000000
  0.029438878  -41.183422    5.608641   -9.844196   70.563713    0.000000    0.000000    0.000000    0.000000
  0.029639279  -41.007199    6.315045   -9.727626   65.273819    0.000000    0.000000    0.000000    0.000000
  0.029839679  -40.489582    4.692277   -9.662306   59.612499    0.000000    0.000000    0.000000    0.000000
  0.030040080  -40.590796   15.501094   -9.701967   55.558788    0.000000    0.000000    0.000000    0.000000
  0.030240481  -39.823644    6.801155   -9.649540   50.798946    0.000000    0.000000    0.000000    0.000000
  0.030440882  -40.146147   14.602072   -9.616408   47.121403    0.000000    0.000000    0.000000    0.000000
  0.030641283  -39.798914   16.587530   -9.697819   42.144581    0.000000    0.000000    0.000000    0.000000
  0.030841683  -39.458568   14.436952   -9.573076   38.688717    0.000000    0.000000    0.000000    0.000000
  0.031042084  -39.902284   19.077585   -9.549432   34.784824    0.000000    0.000000    0.000000    0.000000
  0.031242485  -39.571689   18.651638   -9.622332   30.781029    0.000000    0.000000    0.000000    0.000000
  0.031442886  -39.335881   23.855446   -9.591638   27.071188    0.000000    0.000000    0.000000    0.000000
  0.031643287  -39.349806   16.279190   -9.518000   23.781473    0.000000    0.000000    0.000000    0.000000
  0.031843687  -39.832097   23.414413   -9.465568   20.190311    0.000000    0.000000    0.000000    0.000000
  0.032044088  -39.457512   21.485743   -9.518026   16.501593    0.000000    0.000000    0.000000    0.000000
  0.032244489  -40.858564   29.536573   -9.458634   13.329201    0.000000    0.000000    0.000000    0.000000
  0.032444890  -39.960898   28.751955   -9.488484   10.636325    0.000000    0.000000    0.000000    0.000000
  0.032645291  -38.974546   24.047918   -9.475831    7.131821    0.000000    0.000000    0.000000    0.000000
  0.032845691  -39.018467   29.856058   -9.451528    3.927234    0.000000    0.000000    0.000000    0.000000
  0.033046092  -38.771842   32.297543   -9.404486    0.904158    0.000000    0.000000    0.000000    0.000000
  0.033246493  -39.237573   33.449944   -9.419169   -2.081917    0.000000    0.000000    0.000000    0.000000
  0.033446894  -40.020103   33.811707   -9.442581   -4.756145    0.000000    0.000000    0.000000    0.000000
  0.033647295  -40.100273   32.261257   -9.452318   -7.649518    0.000000    0.000000    0.000000    0.000000
  0.033847695  -39.367004   39.478600   -9.409437  -10.122085    0.000000    0.000000    0.000000    0.000000
  0.034048096  -39.001133   34.918964   -9.400569  -12.968405    0.000000    0.000000    0.000000    0.000000
  0.034248497  -39.283976   36.792244   -9.388672  -15.513067    0.000000    0.000000    0.000000    0.000000
  0.034448898  -39.270873   41.005047   -9.386297  -18.407883    0.000000    0.000000    0.000000    0.000000
  0.034649299  -40.013772   42.433811   -9.405200  -21.312187    0.000000    0.000000    0.000000    0.000000
  0.034849699  -39.366388   36.356194   -9.387598  -23.858818    0.000000    0.000000    0.000000    0.000000
  0.035050100  -38.734513   41.836067   -9.402826  -26.283728    0.000000    0.000000    0.000000    0.000000
  0.035250501  -39.537212   46.974812   -9.370473  -28.317602    0.000000    0.000000    0.000000    0.000000
  0.035450902  -39.602445   38.085114   -9.335276  -31.226234    0.000000    0.000000    0.000000    0.000000
  0.035651303  -40.609136   46.658607   -9.414122  -33.394085    0.000000    0.000000    0.000000    0.000000
  0.035851703  -38.920157   43.819347   -9.373685  -35.517220    0.000000    0.000000    0.000000    0.000000
  0.036052104  -39.683359   46.754322   -9.356619  -37.944973    0.000000    0.000000    0.000000    0.000000
  0.036252505  -39.430612   49.917866   -9.326845  -40.317471    0.000000    0.000000    0.000000    0.000000
  0.036452906  -39.889046   51.118179   -9.325727  -42.245903    0.000000    0.000000    0.000000    0.000000
  0.036653307  -39.226276   53.680473   -9.388411  -44.805008    0.000000    0.000000    0.000000    0.000000
  0.036853707  -39.201352   53.722141   -9.303132  -46.870178    0.000000    0.000000    0.000000    0.000000
  0.037054108  -39.682458   51.253586   -9.366013  -48.844780    0.000000    0.000000    0.000000    0.000000
  0.037254509  -39.678786   57.285957   -9.340896  -51.125774    0.000000    0.000000    0.000000    0.000000
  0.037454910  -39.914295   51.692467   -9.316328  -52.784206    0.000000    0.000000    0.000000    0.000000
  0.037655311  -39.675327   59.023899   -9.415773  -55.198578    0.000000    0.000000    0.000000    0.000000
  0.037855711  -39.297166   58.306625   -9.402681  -56.993504    0.000000    0.000000    0.000000    0.000000
  0.038056112  -39.492792   56.649044   -9.421889  -59.378250    0.000000    0.000000    0.000000    0.000000
  0.038256513  -39.664040   61.850307   -9.357769  -60.733101    0.000000    0.000000    0.000000    0.000000
  0.038456914  -39.668883   62.796799   -9.381604  -63.141403    0.000000    0.000000    0.000000    0.000000
  0.038657315  -39.821896   64.157951   -9.363226  -64.871613    0.000000    0.000000    0.000000    0.000000
  0.038857715  -39.497686   66.018707   -9.359019  -66.877647    0.000000    0.000000    0.000000    0.000000
  0.039058116  -39.237520   61.645374   -9.364980  -68.932785    0.000000    0.000000    0.000000    0.000000
  0.039258517  -39.562993   68.017746   -9.312699  -70.665619    0.000000    0.000000    0.000000    0.000000
  0.039458918  -40.475715   69.702736   -9.342303  -72.460274    0.000000    0.000000    0.000000    0.000000
  0.039659319  -40.450861   67.749237   -9.351286  -74.735176    0.000000    0.000000    0.000000    0.000000
  0.039859719  -40.010618   70.404678   -9.386374  -76.069786    0.000000    0.000000    0.000000    0.000000
  0.040060120  -40.381487   68.537811   -9.353302  -78.106972    0.000000    0.000000    0.000000    0.000000
  0.040260521  -39.346128   70.865845   -9.392776  -79.659370    0.000000    0.000000    0.000000    0.000000
  0.040460922  -40.326864   74.326111   -9.359308  -81.066986    0.000000    0.000000    0.000000    0.000000
  0.040661323  -39.319217   76.385048   -9.429993  -83.240593    0.000000    0.000000    0.000000    0.000000
  0.040861723  -39.679910   72.416313   -9.414531  -85.063492    0.000000    0.000000    0.000000    0.000000
  0.041062124  -38.916669   78.568016   -9.410621  -86.662254    0.000000    0.000000    0.000000    0.000000
  0.041262525  -40.241768   78.991127   -9.346060  -87.909325    0.000000    0.000000    0.000000    0.000000
  0.041462926  -39.742105   75.689995   -9.416059  -89.791336    0.000000    0.000000    0.000000    0.000000
  0.041663327  -39.024440   82.843773   -9.414197  -91.391579    0.000000    0.000000    0.000000    0.000000
  0.041863727  -40.229797   86.016769   -9.434827  -93.160248    0.000000    0.000000    0.000000    0.000000
  0.042064128  -40.270561   86.268776   -9.447038  -94.765762    0.000000    0.000000    0.000000    0.000000
  0.042264529  -39.780313   83.848763   -9.372055  -96.384171    0.000000    0.000000    0.000000    0.000000
  0.042464930  -39.569663   82.672157   -9.407754  -98.049889    0.000000    0.000000    0.000000    0.000000
  0.042665331  -39.472406   85.024513   -9.377343  -99.494873    0.000000    0.000000    0.000000    0.000000
  0.042865731  -40.010351   85.953491   -9.344619 -101.540062    0.000000    0.000000    0.000000    0.000000
