! Anritsu VNA Master:                 Model: MS2034B/10/19/501
! SN:                                  1337062
! /bd0/ovro-jan-2016/dcp-a1-s21-40db.s2p
! Existing Calibration Information:
! TYPE:                         Current Settings,       Active Cal Settings
! TIME:             	   01/10/2016 03:29:58 PM,    01/10/2016 03:13:30 PM
! INTERNAL TEMP:    	                   43.3 C,                    45.8 C
! # POINTS:         	                      500,                       500
! START FREQ:       	               10.000 MHz,                10.000 MHz
! STOP FREQ:        	              110.000 MHz,               110.000 MHz
! SOURCE POWER:     	                      Low,                       Low
! IFBW:             	                   100 Hz,                    100 Hz
! AVG FACTOR:       	                       3 ,                        3 
! REF PLANE 1:      	                 2.2245 m,                  2.2245 m
! REF PLANE 2:      	                     0 mm,                      0 mm
! CAL TYPE:         	             1P2P S11,S21,              1P2P S11,S21
! CAL METHOD:       	                     SOLT,                      SOLT
! CAL LINE TYPE:    	                     Coax,                      Coax
! DUT PORT 1:       	                K-Conn(M),                 K-Conn(M)
! DUT PORT 2:       	                N-Conn(M),                 N-Conn(M)
! CAL STATUS:       	        OK: Accuracy High,                        --
# GHZ S DB R 50.0
! FREQ.GHZ       S11DB        S11A       S21DB        S21A       S12DB        S12A       S22DB        S22A
  0.010000000  -43.273512 -130.688019  -63.717038   99.853958    0.000000    0.000000    0.000000    0.000000
  0.010200401  -41.576049 -135.798828  -64.457050  102.507645    0.000000    0.000000    0.000000    0.000000
  0.010400802  -42.300947 -125.621948  -65.601314  103.012764    0.000000    0.000000    0.000000    0.000000
  0.010601202  -43.577203 -136.423584  -62.640098  102.571121    0.000000    0.000000    0.000000    0.000000
  0.010801603  -41.776667 -132.118759  -64.540065  105.618744    0.000000    0.000000    0.000000    0.000000
  0.011002004  -43.279604 -118.831619  -64.714674  102.962494    0.000000    0.000000    0.000000    0.000000
  0.011202405  -43.213911 -124.899925  -63.864581  115.117744    0.000000    0.000000    0.000000    0.000000
  0.011402806  -42.536462 -117.805153  -64.614616  105.213554    0.000000    0.000000    0.000000    0.000000
  0.011603206  -42.165430 -123.715286  -63.374837  105.071854    0.000000    0.000000    0.000000    0.000000
  0.011803607  -42.687119 -116.889122  -64.876027  106.537041    0.000000    0.000000    0.000000    0.000000
  0.012004008  -40.696076 -127.356895  -65.115884  103.441048    0.000000    0.000000    0.000000    0.000000
  0.012204409  -42.522037 -118.348885  -64.318543  110.833038    0.000000    0.000000    0.000000    0.000000
  0.012404810  -41.421233 -121.207497  -65.378522  106.747589    0.000000    0.000000    0.000000    0.000000
  0.012605210  -42.191864 -118.743767  -64.258397  105.162949    0.000000    0.000000    0.000000    0.000000
  0.012805611  -40.740574 -121.527756  -64.488903  111.041359    0.000000    0.000000    0.000000    0.000000
  0.013006012  -41.272255 -114.014587  -65.452813  113.941330    0.000000    0.000000    0.000000    0.000000
  0.013206413  -42.219611 -115.998276  -65.465444  110.702835    0.000000    0.000000    0.000000    0.000000
  0.013406814  -42.218397 -115.570663  -64.123164  114.352539    0.000000    0.000000    0.000000    0.000000
  0.013607214  -41.103139 -110.848404  -65.452603  113.682602    0.000000    0.000000    0.000000    0.000000
  0.013807615  -41.168972 -110.869995  -63.312507  118.568398    0.000000    0.000000    0.000000    0.000000
  0.014008016  -40.635804 -112.595467  -65.868147  121.758247    0.000000    0.000000    0.000000    0.000000
  0.014208417  -41.268757 -112.065941  -65.198109  125.504166    0.000000    0.000000    0.000000    0.000000
  0.014408818  -41.063858 -108.559174  -64.090040  120.999916    0.000000    0.000000    0.000000    0.000000
  0.014609218  -41.393359 -110.210518  -64.800575  137.946915    0.000000    0.000000    0.000000    0.000000
  0.014809619  -40.422603 -105.833519  -63.346107  135.674408    0.000000    0.000000    0.000000    0.000000
  0.015010020  -40.468759 -107.995804  -63.791242  136.885986    0.000000    0.000000    0.000000    0.000000
  0.015210421  -40.375209  -99.773262  -63.629021  134.443115    0.000000    0.000000    0.000000    0.000000
  0.015410822  -39.878333 -103.029968  -63.043865  142.636658    0.000000    0.000000    0.000000    0.000000
  0.015611222  -40.709928 -101.827782  -63.227226  135.382141    0.000000    0.000000    0.000000    0.000000
  0.015811623  -40.283105  -99.173134  -61.869367  139.890289    0.000000    0.000000    0.000000    0.000000
  0.016012024  -39.567643  -97.531189  -60.809050  150.555832    0.000000    0.000000    0.000000    0.000000
  0.016212425  -40.202859  -96.561806  -61.395058  145.618805    0.000000    0.000000    0.000000    0.000000
  0.016412826  -40.535804  -91.930023  -60.360339  144.281677    0.000000    0.000000    0.000000    0.000000
  0.016613226  -40.994488  -94.721779  -60.704985  149.176926    0.000000    0.000000    0.000000    0.000000
  0.016813627  -39.646652  -86.585007  -59.023481  143.035355    0.000000    0.000000    0.000000    0.000000
  0.017014028  -39.539076  -90.493484  -59.340417  152.475342    0.000000    0.000000    0.000000    0.000000
  0.017214429  -38.892585  -88.479080  -57.823589  146.007111    0.000000    0.000000    0.000000    0.000000
  0.017414830  -38.844802  -86.628754  -58.604787  152.300644    0.000000    0.000000    0.000000    0.000000
  0.017615230  -39.212611  -85.773621  -57.873164  148.005615    0.000000    0.000000    0.000000    0.000000
  0.017815631  -39.801916  -86.708939  -58.432067  146.444153    0.000000    0.000000    0.000000    0.000000
  0.018016032  -40.235043  -90.948952  -57.791236  148.125092    0.000000    0.000000    0.000000    0.000000
  0.018216433  -39.537295  -79.442291  -57.796631  145.802399    0.000000    0.000000    0.000000    0.000000
  0.018416834  -40.278727  -88.209671  -57.547209  142.094604    0.000000    0.000000    0.000000    0.000000
  0.018617234  -39.292912  -81.497833  -57.824711  140.509399    0.000000    0.000000    0.000000    0.000000
  0.018817635  -40.025012  -81.075890  -58.762058  147.217377    0.000000    0.000000    0.000000    0.000000
  0.019018036  -40.030837  -79.720833  -58.402043  145.056152    0.000000    0.000000    0.000000    0.000000
  0.019218437  -39.800820  -85.643524  -59.408944  148.247238    0.000000    0.000000    0.000000    0.000000
  0.019418838  -39.480370  -75.200340  -59.869128  150.806458    0.000000    0.000000    0.000000    0.000000
  0.019619238  -39.128879  -76.203850  -60.690010  153.997040    0.000000    0.000000    0.000000    0.000000
  0.019819639  -39.458540  -79.586121  -62.859957  158.524078    0.000000    0.000000    0.000000    0.000000
  0.020020040  -39.671131  -68.814560  -63.429058  176.945969    0.000000    0.000000    0.000000    0.000000
  0.020220441  -38.389318  -63.167843  -64.085328 -153.912491    0.000000    0.000000    0.000000    0.000000
  0.020420842  -39.421591  -67.381218  -62.697049 -129.483475    0.000000    0.000000    0.000000    0.000000
  0.020621242  -39.707104  -62.657875  -58.096998 -107.134338    0.000000    0.000000    0.000000    0.000000
  0.020821643  -39.117753  -67.479500  -55.794035  -99.471481    0.000000    0.000000    0.000000    0.000000
  0.021022044  -38.684026  -65.552452  -52.753274  -95.898605    0.000000    0.000000    0.000000    0.000000
  0.021222445  -38.440718  -60.654606  -50.262410  -95.582291    0.000000    0.000000    0.000000    0.000000
  0.021422846  -39.196835  -54.417843  -48.044095  -94.321754    0.000000    0.000000    0.000000    0.000000
  0.021623246  -39.503523  -57.823997  -46.085235  -97.391548    0.000000    0.000000    0.000000    0.000000
  0.021823647  -39.611171  -60.309971  -44.176649  -99.225365    0.000000    0.000000    0.000000    0.000000
  0.022024048  -38.316373  -54.825336  -42.398859 -101.108002    0.000000    0.000000    0.000000    0.000000
  0.022224449  -38.989471  -55.754902  -40.773313 -102.106873    0.000000    0.000000    0.000000    0.000000
  0.022424850  -38.698130  -52.430672  -39.485815 -103.711189    0.000000    0.000000    0.000000    0.000000
  0.022625251  -39.048335  -51.333599  -37.736919 -107.030014    0.000000    0.000000    0.000000    0.000000
  0.022825651  -38.724406  -52.636513  -36.310331 -109.546074    0.000000    0.000000    0.000000    0.000000
  0.023026052  -38.243007  -52.371635  -34.763296 -112.201843    0.000000    0.000000    0.000000    0.000000
  0.023226453  -38.530159  -47.839901  -33.452857 -114.884026    0.000000    0.000000    0.000000    0.000000
  0.023426854  -38.501917  -48.893383  -31.976966 -118.317360    0.000000    0.000000    0.000000    0.000000
  0.023627255  -38.550401  -41.996742  -30.822953 -120.777031    0.000000    0.000000    0.000000    0.000000
  0.023827655  -39.154678  -43.134945  -29.560287 -123.741989    0.000000    0.000000    0.000000    0.000000
  0.024028056  -38.171024  -35.828621  -28.231691 -127.340477    0.000000    0.000000    0.000000    0.000000
  0.024228457  -38.581458  -48.984032  -26.928664 -130.764511    0.000000    0.000000    0.000000    0.000000
  0.024428858  -38.487686  -41.547733  -25.733454 -134.818756    0.000000    0.000000    0.000000    0.000000
  0.024629259  -37.593865  -30.720148  -24.568112 -138.461121    0.000000    0.000000    0.000000    0.000000
  0.024829659  -38.270331  -36.849453  -23.303464 -141.775681    0.000000    0.000000    0.000000    0.000000
  0.025030060  -38.464569  -36.978600  -22.091586 -145.239929    0.000000    0.000000    0.000000    0.000000
  0.025230461  -37.787557  -29.702536  -21.020684 -150.617813    0.000000    0.000000    0.000000    0.000000
  0.025430862  -38.498082  -43.995819  -19.835810 -155.453018    0.000000    0.000000    0.000000    0.000000
  0.025631263  -38.299234  -29.979353  -18.730571 -160.661850    0.000000    0.000000    0.000000    0.000000
  0.025831663  -38.999389  -27.152910  -17.680895 -165.570969    0.000000    0.000000    0.000000    0.000000
  0.026032064  -38.922719  -30.389704  -16.661940 -171.760803    0.000000    0.000000    0.000000    0.000000
  0.026232465  -37.944956  -22.522388  -15.671852 -177.192902    0.000000    0.000000    0.000000    0.000000
  0.026432866  -38.176891  -29.487181  -14.804000  176.458710    0.000000    0.000000    0.000000    0.000000
  0.026633267  -38.775800  -28.418772  -13.793330  170.046280    0.000000    0.000000    0.000000    0.000000
  0.026833667  -37.963708  -27.338200  -12.971262  163.615906    0.000000    0.000000    0.000000    0.000000
  0.027034068  -38.171164  -22.425861  -12.185010  156.417511    0.000000    0.000000    0.000000    0.000000
  0.027234469  -38.518921  -20.245277  -11.455369  149.463364    0.000000    0.000000    0.000000    0.000000
  0.027434870  -37.461641  -19.741564  -10.819358  142.337662    0.000000    0.000000    0.000000    0.000000
  0.027635271  -37.626062  -18.172787  -10.207379  135.096832    0.000000    0.000000    0.000000    0.000000
  0.027835671  -38.351247  -13.243013   -9.690884  127.339584    0.000000    0.000000    0.000000    0.000000
  0.028036072  -37.827036  -14.850389   -9.307407  120.620743    0.000000    0.000000    0.000000    0.000000
  0.028236473  -38.975462  -16.854343   -8.917146  113.511589    0.000000    0.000000    0.000000    0.000000
  0.028436874  -38.607792   -3.381624   -8.616380  106.620430    0.000000    0.000000    0.000000    0.000000
  0.028637275  -37.481738   -3.418694   -8.338069   99.666725    0.000000    0.000000    0.000000    0.000000
  0.028837675  -37.546910   -4.274289   -8.178633   93.147629    0.000000    0.000000    0.000000    0.000000
  0.029038076  -37.999052   -1.859261   -7.982602   87.524063    0.000000    0.000000    0.000000    0.000000
  0.029238477  -38.187732   -4.902740   -7.887012   81.129738    0.000000    0.000000    0.000000    0.000000
  0.029438878  -37.982465   -1.367759   -7.722205   76.000252    0.000000    0.000000    0.000000    0.000000
  0.029639279  -38.184293    2.481257   -7.696655   70.382149    0.000000    0.000000    0.000000    0.000000
  0.029839679  -38.170759    6.121042   -7.602545   65.233849    0.000000    0.000000    0.000000    0.000000
  0.030040080  -37.949369    7.364322   -7.561129   60.543385    0.000000    0.000000    0.000000    0.000000
  0.030240481  -37.503013    9.291184   -7.490203   55.389606    0.000000    0.000000    0.000000    0.000000
  0.030440882  -37.319908    4.955519   -7.493102   51.167690    0.000000    0.000000    0.000000    0.000000
  0.030641283  -37.451116   12.753952   -7.468680   46.781219    0.000000    0.000000    0.000000    0.000000
  0.030841683  -37.425249   16.398905   -7.394812   42.527477    0.000000    0.000000    0.000000    0.000000
  0.031042084  -37.567249   18.021416   -7.366346   38.345123    0.000000    0.000000    0.000000    0.000000
  0.031242485  -37.387032   14.854281   -7.351994   34.489563    0.000000    0.000000    0.000000    0.000000
  0.031442886  -37.814773   18.424242   -7.426286   30.480267    0.000000    0.000000    0.000000    0.000000
  0.031643287  -37.340823   18.104881   -7.368384   27.095978    0.000000    0.000000    0.000000    0.000000
  0.031843687  -37.255166   14.721040   -7.289044   23.979078    0.000000    0.000000    0.000000    0.000000
  0.032044088  -37.502241   25.068962   -7.414125   19.897995    0.000000    0.000000    0.000000    0.000000
  0.032244489  -37.172280   26.539110   -7.352126   17.032257    0.000000    0.000000    0.000000    0.000000
  0.032444890  -37.475993   27.112551   -7.262083   13.618332    0.000000    0.000000    0.000000    0.000000
  0.032645291  -36.451949   24.747627   -7.305538   10.319678    0.000000    0.000000    0.000000    0.000000
  0.032845691  -37.235308   30.264690   -7.289354    7.065936    0.000000    0.000000    0.000000    0.000000
  0.033046092  -36.751034   27.977539   -7.236272    4.268449    0.000000    0.000000    0.000000    0.000000
  0.033246493  -37.065276   28.666410   -7.340555    1.393203    0.000000    0.000000    0.000000    0.000000
  0.033446894  -37.218478   35.853333   -7.355389   -1.968677    0.000000    0.000000    0.000000    0.000000
  0.033647295  -37.098075   35.428379   -7.351274   -4.567309    0.000000    0.000000    0.000000    0.000000
  0.033847695  -37.223300   32.644211   -7.302843   -7.675396    0.000000    0.000000    0.000000    0.000000
  0.034048096  -37.071289   34.871105   -7.260901  -10.120745    0.000000    0.000000    0.000000    0.000000
  0.034248497  -36.455490   38.854935   -7.273757  -12.748409    0.000000    0.000000    0.000000    0.000000
  0.034448898  -36.475223   39.902313   -7.249953  -15.635148    0.000000    0.000000    0.000000    0.000000
  0.034649299  -36.910014   38.170280   -7.237958  -17.671560    0.000000    0.000000    0.000000    0.000000
  0.034849699  -36.882942   42.977184   -7.219401  -20.394562    0.000000    0.000000    0.000000    0.000000
  0.035050100  -36.941548   43.004135   -7.288712  -22.993200    0.000000    0.000000    0.000000    0.000000
  0.035250501  -36.474359   45.316956   -7.278746  -25.334597    0.000000    0.000000    0.000000    0.000000
  0.035450902  -36.200862   39.220943   -7.248649  -27.452717    0.000000    0.000000    0.000000    0.000000
  0.035651303  -37.044959   44.373726   -7.246070  -30.077232    0.000000    0.000000    0.000000    0.000000
  0.035851703  -36.966185   47.297398   -7.282137  -32.414997    0.000000    0.000000    0.000000    0.000000
  0.036052104  -37.533026   50.571728   -7.329866  -34.726456    0.000000    0.000000    0.000000    0.000000
  0.036252505  -36.950271   51.699940   -7.235440  -36.875988    0.000000    0.000000    0.000000    0.000000
  0.036452906  -36.522638   49.730797   -7.288124  -39.225349    0.000000    0.000000    0.000000    0.000000
  0.036653307  -36.737467   50.790104   -7.231399  -41.486740    0.000000    0.000000    0.000000    0.000000
  0.036853707  -36.821919   54.391399   -7.281402  -43.840549    0.000000    0.000000    0.000000    0.000000
  0.037054108  -36.690622   53.470333   -7.309197  -45.713661    0.000000    0.000000    0.000000    0.000000
  0.037254509  -37.435286   59.620926   -7.309794  -47.603859    0.000000    0.000000    0.000000    0.000000
  0.037454910  -36.642940   56.891712   -7.272957  -49.891068    0.000000    0.000000    0.000000    0.000000
  0.037655311  -36.506460   63.758209   -7.284055  -52.162933    0.000000    0.000000    0.000000    0.000000
  0.037855711  -36.812296   63.198769   -7.298073  -53.860046    0.000000    0.000000    0.000000    0.000000
  0.038056112  -36.704137   62.350147   -7.309004  -55.818863    0.000000    0.000000    0.000000    0.000000
  0.038256513  -37.116114   64.466057   -7.378008  -58.198490    0.000000    0.000000    0.000000    0.000000
  0.038456914  -37.223974   66.773293   -7.327681  -60.200829    0.000000    0.000000    0.000000    0.000000
  0.038657315  -37.156301   66.932526   -7.311515  -62.146500    0.000000    0.000000    0.000000    0.000000
  0.038857715  -36.706361   67.924286   -7.283136  -63.873158    0.000000    0.000000    0.000000    0.000000
  0.039058116  -36.900784   68.111832   -7.334759  -65.656563    0.000000    0.000000    0.000000    0.000000
  0.039258517  -36.990367   72.555885   -7.318936  -67.322815    0.000000    0.000000    0.000000    0.000000
  0.039458918  -37.271907   73.743721   -7.300252  -69.257507    0.000000    0.000000    0.000000    0.000000
  0.039659319  -37.521754   76.352707   -7.301517  -71.024063    0.000000    0.000000    0.000000    0.000000
  0.039859719  -37.289530   76.858566   -7.320017  -73.059349    0.000000    0.000000    0.000000    0.000000
  0.040060120  -37.297995   78.504753   -7.338890  -74.273895    0.000000    0.000000    0.000000    0.000000
  0.040260521  -37.646563   78.902382   -7.289469  -76.414925    0.000000    0.000000    0.000000    0.000000
  0.040460922  -37.320815   81.380119   -7.303914  -78.155487    0.000000    0.000000    0.000000    0.000000
  0.040661323  -37.386281   83.304329   -7.327190  -79.561508    0.000000    0.000000    0.000000    0.000000
  0.040861723  -37.785271   84.951591   -7.322005  -81.842430    0.000000    0.000000    0.000000    0.000000
  0.041062124  -37.465789   85.205734   -7.324399  -83.133316    0.000000    0.000000    0.000000    0.000000
  0.041262525  -37.882311   83.831116   -7.329273  -85.034172    0.000000    0.000000    0.000000    0.000000
  0.041462926  -37.549312   89.361908   -7.327893  -86.073692    0.000000    0.000000    0.000000    0.000000
  0.041663327  -37.272508   88.235481   -7.337098  -88.579948    0.000000    0.000000    0.000000    0.000000
  0.041863727  -37.690394   89.051170   -7.341958  -89.799988    0.000000    0.000000    0.000000    0.000000
  0.042064128  -36.972216   93.000809   -7.295001  -91.482437    0.000000    0.000000    0.000000    0.000000
  0.042264529  -37.376963   94.293320   -7.328125  -92.866226    0.000000    0.000000    0.000000    0.000000
  0.042464930  -37.415353   94.214127   -7.304188  -94.996605    0.000000    0.000000    0.000000    0.000000
  0.042665331  -37.958816   97.660446   -7.290587  -96.150955    0.000000    0.000000    0.000000    0.000000
  0.042865731  -37.831321  102.168991   -7.312530  -98.029160    0.000000    0.000000    0.000000    0.000000
