! Anritsu VNA Master:                 Model: MS2034B/10/19/501
! SN:                                  1337062
! /bd0/ovro-jan-2016/dcp-d2-s22.s2p
! Existing Calibration Information:
! TYPE:                         Current Settings,       Active Cal Settings
! TIME:             	   01/08/2016 09:02:06 PM,    01/08/2016 08:43:08 PM
! INTERNAL TEMP:    	                   42.8 C,                    45.0 C
! # POINTS:         	                      500,                       500
! START FREQ:       	               10.000 MHz,                10.000 MHz
! STOP FREQ:        	              110.000 MHz,               110.000 MHz
! SOURCE POWER:     	                      Low,                       Low
! IFBW:             	                   100 Hz,                    100 Hz
! AVG FACTOR:       	                       3 ,                        3 
! REF PLANE 1:      	                 2.2245 m,                  2.2245 m
! REF PLANE 2:      	                     0 mm,                      0 mm
! CAL TYPE:         	             1P2P S11,S21,              1P2P S11,S21
! CAL METHOD:       	                     SOLT,                      SOLT
! CAL LINE TYPE:    	                     Coax,                      Coax
! DUT PORT 1:       	                K-Conn(M),                 K-Conn(M)
! DUT PORT 2:       	                N-Conn(M),                 N-Conn(M)
! CAL STATUS:       	        OK: Accuracy High,                        --
# GHZ S DB R 50.0
! FREQ.GHZ       S11DB        S11A       S21DB        S21A       S12DB        S12A       S22DB        S22A
  0.010000000  -22.734880  159.481979  -67.210042  103.912842    0.000000    0.000000    0.000000    0.000000
  0.010200401  -22.921780  161.703842  -67.103997   93.005913    0.000000    0.000000    0.000000    0.000000
  0.010400802  -22.938182  164.009109  -65.867067  107.364861    0.000000    0.000000    0.000000    0.000000
  0.010601202  -23.156592  164.722824  -66.941460   96.890686    0.000000    0.000000    0.000000    0.000000
  0.010801603  -23.415444  166.467346  -66.285817   99.205292    0.000000    0.000000    0.000000    0.000000
  0.011002004  -23.496663  169.693695  -66.681563  102.301926    0.000000    0.000000    0.000000    0.000000
  0.011202405  -23.582448  171.591782  -68.119296  112.465279    0.000000    0.000000    0.000000    0.000000
  0.011402806  -23.820423  173.107758  -67.292101  100.899635    0.000000    0.000000    0.000000    0.000000
  0.011603206  -24.034206  175.313232  -67.303289  102.153984    0.000000    0.000000    0.000000    0.000000
  0.011803607  -24.329740 -179.298981  -66.769868  113.881149    0.000000    0.000000    0.000000    0.000000
  0.012004008  -24.476918 -179.319412  -67.070864  115.033142    0.000000    0.000000    0.000000    0.000000
  0.012204409  -24.349161 -177.890594  -67.514689  112.053535    0.000000    0.000000    0.000000    0.000000
  0.012404810  -24.655658 -175.272476  -67.596722  114.857414    0.000000    0.000000    0.000000    0.000000
  0.012605210  -24.502769 -173.674438  -66.675415   99.959435    0.000000    0.000000    0.000000    0.000000
  0.012805611  -24.704038 -171.240326  -66.734368  110.310219    0.000000    0.000000    0.000000    0.000000
  0.013006012  -24.443779 -168.698502  -68.328799  125.745789    0.000000    0.000000    0.000000    0.000000
  0.013206413  -24.572602 -166.338562  -66.418362  117.842140    0.000000    0.000000    0.000000    0.000000
  0.013406814  -24.916341 -165.246857  -66.282813  115.591316    0.000000    0.000000    0.000000    0.000000
  0.013607214  -24.650354 -161.775406  -67.551978  108.581177    0.000000    0.000000    0.000000    0.000000
  0.013807615  -24.876294 -160.663788  -67.897089  122.028679    0.000000    0.000000    0.000000    0.000000
  0.014008016  -24.492835 -157.839661  -66.511196  122.049194    0.000000    0.000000    0.000000    0.000000
  0.014208417  -24.785496 -157.399506  -66.409704  119.725853    0.000000    0.000000    0.000000    0.000000
  0.014408818  -24.707669 -154.321381  -67.636608  124.170151    0.000000    0.000000    0.000000    0.000000
  0.014609218  -24.591145 -154.001556  -67.866182  125.968376    0.000000    0.000000    0.000000    0.000000
  0.014809619  -24.508453 -152.789398  -67.106085  137.497147    0.000000    0.000000    0.000000    0.000000
  0.015010020  -24.486070 -150.095108  -66.717939  123.352013    0.000000    0.000000    0.000000    0.000000
  0.015210421  -24.600747 -149.173859  -68.286517  123.363609    0.000000    0.000000    0.000000    0.000000
  0.015410822  -24.394247 -147.688248  -67.360026  122.168304    0.000000    0.000000    0.000000    0.000000
  0.015611222  -24.447377 -146.599091  -69.352735  130.971100    0.000000    0.000000    0.000000    0.000000
  0.015811623  -24.398355 -145.142563  -67.310625  135.019363    0.000000    0.000000    0.000000    0.000000
  0.016012024  -24.273134 -143.941803  -67.568047  136.115448    0.000000    0.000000    0.000000    0.000000
  0.016212425  -24.282644 -143.575531  -67.878190  128.252441    0.000000    0.000000    0.000000    0.000000
  0.016412826  -24.177003 -141.528061  -67.758457  143.891632    0.000000    0.000000    0.000000    0.000000
  0.016613226  -24.090652 -140.982376  -66.931383  135.148651    0.000000    0.000000    0.000000    0.000000
  0.016813627  -24.176520 -139.525879  -67.852860  136.453491    0.000000    0.000000    0.000000    0.000000
  0.017014028  -24.047619 -139.027832  -67.127494  147.840561    0.000000    0.000000    0.000000    0.000000
  0.017214429  -24.097695 -137.942627  -67.028302  138.180771    0.000000    0.000000    0.000000    0.000000
  0.017414830  -24.029383 -136.909821  -67.802711  145.524368    0.000000    0.000000    0.000000    0.000000
  0.017615230  -24.034399 -135.939682  -67.352604  154.960297    0.000000    0.000000    0.000000    0.000000
  0.017815631  -24.072082 -135.084106  -68.585265  139.869003    0.000000    0.000000    0.000000    0.000000
  0.018016032  -23.810765 -134.649857  -68.392874  140.739166    0.000000    0.000000    0.000000    0.000000
  0.018216433  -23.984520 -135.033203  -67.570313  148.784927    0.000000    0.000000    0.000000    0.000000
  0.018416834  -23.869582 -133.260498  -67.771449  148.272568    0.000000    0.000000    0.000000    0.000000
  0.018617234  -23.820730 -133.463882  -68.104307  152.636230    0.000000    0.000000    0.000000    0.000000
  0.018817635  -23.970597 -131.805634  -68.399999  160.948593    0.000000    0.000000    0.000000    0.000000
  0.019018036  -23.909267 -131.557114  -68.507798  158.844025    0.000000    0.000000    0.000000    0.000000
  0.019218437  -23.791440 -131.675385  -68.309651  166.465439    0.000000    0.000000    0.000000    0.000000
  0.019418838  -23.895776 -130.528366  -68.665067  157.554855    0.000000    0.000000    0.000000    0.000000
  0.019619238  -23.860202 -128.903610  -68.087973  162.588959    0.000000    0.000000    0.000000    0.000000
  0.019819639  -23.854332 -129.837982  -67.430593  154.767532    0.000000    0.000000    0.000000    0.000000
  0.020020040  -23.689200 -129.284698  -67.267570  155.408157    0.000000    0.000000    0.000000    0.000000
  0.020220441  -23.848748 -129.265610  -67.765205  172.459015    0.000000    0.000000    0.000000    0.000000
  0.020420842  -23.834751 -128.481064  -68.636126  169.020035    0.000000    0.000000    0.000000    0.000000
  0.020621242  -23.822919 -128.887360  -67.868170  178.929520    0.000000    0.000000    0.000000    0.000000
  0.020821643  -23.813541 -128.589310  -67.408695  178.891891    0.000000    0.000000    0.000000    0.000000
  0.021022044  -23.903322 -128.263260  -67.119233  170.876709    0.000000    0.000000    0.000000    0.000000
  0.021222445  -23.892932 -128.202179  -67.599130 -174.369904    0.000000    0.000000    0.000000    0.000000
  0.021422846  -24.004901 -127.523392  -66.461749 -175.727783    0.000000    0.000000    0.000000    0.000000
  0.021623246  -24.006876 -128.298172  -67.660124  173.190063    0.000000    0.000000    0.000000    0.000000
  0.021823647  -23.950198 -128.023636  -68.350739  179.496826    0.000000    0.000000    0.000000    0.000000
  0.022024048  -24.218770 -127.446846  -68.680079 -178.276093    0.000000    0.000000    0.000000    0.000000
  0.022224449  -24.275068 -127.876862  -68.200932 -172.229050    0.000000    0.000000    0.000000    0.000000
  0.022424850  -24.384994 -126.616997  -67.695138 -179.933090    0.000000    0.000000    0.000000    0.000000
  0.022625251  -24.393768 -126.905144  -67.955135 -168.349197    0.000000    0.000000    0.000000    0.000000
  0.022825651  -24.408604 -126.719803  -68.189039 -171.782608    0.000000    0.000000    0.000000    0.000000
  0.023026052  -24.562423 -126.295959  -67.449260 -167.472778    0.000000    0.000000    0.000000    0.000000
  0.023226453  -24.556435 -127.290054  -67.803029 -173.241074    0.000000    0.000000    0.000000    0.000000
  0.023426854  -24.571334 -127.053635  -67.727236 -174.920486    0.000000    0.000000    0.000000    0.000000
  0.023627255  -24.822212 -126.812500  -67.196837 -166.898987    0.000000    0.000000    0.000000    0.000000
  0.023827655  -25.180595 -127.644707  -68.349324 -163.944122    0.000000    0.000000    0.000000    0.000000
  0.024028056  -25.170679 -128.150192  -68.699965 -173.943970    0.000000    0.000000    0.000000    0.000000
  0.024228457  -25.271580 -127.671303  -67.865452 -169.945099    0.000000    0.000000    0.000000    0.000000
  0.024428858  -25.469312 -128.009842  -67.445008 -165.218262    0.000000    0.000000    0.000000    0.000000
  0.024629259  -25.782785 -128.860336  -68.518943 -159.259430    0.000000    0.000000    0.000000    0.000000
  0.024829659  -25.957783 -128.004471  -65.775542 -135.350784    0.000000    0.000000    0.000000    0.000000
  0.025030060  -26.215912 -128.966278  -66.596180 -127.883995    0.000000    0.000000    0.000000    0.000000
  0.025230461  -26.200118 -130.043152  -67.566314 -145.013306    0.000000    0.000000    0.000000    0.000000
  0.025430862  -26.755469 -128.184921  -66.862057 -133.090683    0.000000    0.000000    0.000000    0.000000
  0.025631263  -27.040402 -130.442154  -65.482116 -124.421486    0.000000    0.000000    0.000000    0.000000
  0.025831663  -27.584070 -130.273407  -66.698265 -122.388031    0.000000    0.000000    0.000000    0.000000
  0.026032064  -28.031882 -129.217056  -68.008044 -125.808479    0.000000    0.000000    0.000000    0.000000
  0.026232465  -28.492936 -131.004608  -66.469921 -121.893944    0.000000    0.000000    0.000000    0.000000
  0.026432866  -29.161887 -130.821228  -66.430254 -118.167351    0.000000    0.000000    0.000000    0.000000
  0.026633267  -29.366429 -128.688507  -66.485342 -123.430618    0.000000    0.000000    0.000000    0.000000
  0.026833667  -30.092771 -126.885025  -66.466237 -116.995430    0.000000    0.000000    0.000000    0.000000
  0.027034068  -30.744684 -123.880714  -67.489182 -115.620895    0.000000    0.000000    0.000000    0.000000
  0.027234469  -31.571880 -121.569099  -66.198430 -107.654472    0.000000    0.000000    0.000000    0.000000
  0.027434870  -32.034277 -121.063820  -66.050157 -103.390388    0.000000    0.000000    0.000000    0.000000
  0.027635271  -32.707739 -114.767830  -65.274404 -101.849487    0.000000    0.000000    0.000000    0.000000
  0.027835671  -32.835968 -110.676033  -66.516348 -109.516838    0.000000    0.000000    0.000000    0.000000
  0.028036072  -33.055822 -102.846710  -66.290312 -102.993973    0.000000    0.000000    0.000000    0.000000
  0.028236473  -32.925685  -95.113747  -66.336172 -104.480202    0.000000    0.000000    0.000000    0.000000
  0.028436874  -32.627701  -93.061241  -67.219547  -92.188164    0.000000    0.000000    0.000000    0.000000
  0.028637275  -32.271141  -89.518272  -67.103763  -93.988838    0.000000    0.000000    0.000000    0.000000
  0.028837675  -32.384959  -84.724030  -65.952910 -104.361763    0.000000    0.000000    0.000000    0.000000
  0.029038076  -31.969183  -80.662117  -67.481756  -98.350494    0.000000    0.000000    0.000000    0.000000
  0.029238477  -31.637131  -81.607216  -67.737605  -92.427544    0.000000    0.000000    0.000000    0.000000
  0.029438878  -31.335430  -81.658272  -65.201238  -98.456276    0.000000    0.000000    0.000000    0.000000
  0.029639279  -31.106397  -79.252136  -65.476495 -101.253616    0.000000    0.000000    0.000000    0.000000
  0.029839679  -31.048330  -77.617859  -66.851932 -101.262291    0.000000    0.000000    0.000000    0.000000
  0.030040080  -31.145833  -76.195816  -66.184162  -91.749374    0.000000    0.000000    0.000000    0.000000
  0.030240481  -31.103255  -75.519241  -65.743013 -102.929832    0.000000    0.000000    0.000000    0.000000
  0.030440882  -30.921756  -75.690186  -65.533504  -97.737251    0.000000    0.000000    0.000000    0.000000
  0.030641283  -30.880994  -74.263435  -66.807762 -101.277565    0.000000    0.000000    0.000000    0.000000
  0.030841683  -31.097550  -73.092888  -65.945620  -97.059967    0.000000    0.000000    0.000000    0.000000
  0.031042084  -31.235289  -73.221230  -66.186951 -102.125908    0.000000    0.000000    0.000000    0.000000
  0.031242485  -31.253079  -71.149139  -66.718642  -99.612213    0.000000    0.000000    0.000000    0.000000
  0.031442886  -31.548260  -70.411125  -65.392080  -90.306366    0.000000    0.000000    0.000000    0.000000
  0.031643287  -31.236589  -68.722786  -67.027011  -90.661766    0.000000    0.000000    0.000000    0.000000
  0.031843687  -31.560473  -67.941307  -66.537945  -94.089973    0.000000    0.000000    0.000000    0.000000
  0.032044088  -31.485889  -65.806976  -66.500857  -90.223221    0.000000    0.000000    0.000000    0.000000
  0.032244489  -31.459523  -67.336372  -66.180248  -89.019615    0.000000    0.000000    0.000000    0.000000
  0.032444890  -31.900911  -66.910576  -67.175739  -78.958702    0.000000    0.000000    0.000000    0.000000
  0.032645291  -31.316008  -61.955750  -66.602401  -86.894058    0.000000    0.000000    0.000000    0.000000
  0.032845691  -31.628443  -62.588219  -65.907971  -83.323853    0.000000    0.000000    0.000000    0.000000
  0.033046092  -32.250759  -58.075775  -66.357580  -87.876404    0.000000    0.000000    0.000000    0.000000
  0.033246493  -32.512839  -58.182728  -67.290657  -69.854424    0.000000    0.000000    0.000000    0.000000
  0.033446894  -32.219848  -58.774372  -68.164171  -73.132156    0.000000    0.000000    0.000000    0.000000
  0.033647295  -32.033151  -57.117043  -68.123716  -76.427132    0.000000    0.000000    0.000000    0.000000
  0.033847695  -32.259775  -56.162617  -67.957856  -77.017578    0.000000    0.000000    0.000000    0.000000
  0.034048096  -32.297071  -53.170132  -67.415685  -67.718643    0.000000    0.000000    0.000000    0.000000
  0.034248497  -32.521034  -51.778744  -67.816745  -65.861923    0.000000    0.000000    0.000000    0.000000
  0.034448898  -32.760735  -48.507061  -66.824043  -75.028770    0.000000    0.000000    0.000000    0.000000
  0.034649299  -32.654678  -53.150417  -68.779242  -64.552338    0.000000    0.000000    0.000000    0.000000
  0.034849699  -32.190750  -47.597782  -68.739311  -67.804840    0.000000    0.000000    0.000000    0.000000
  0.035050100  -32.212262  -42.707115  -69.813465  -52.344303    0.000000    0.000000    0.000000    0.000000
  0.035250501  -32.360604  -44.065002  -67.668123  -69.202034    0.000000    0.000000    0.000000    0.000000
  0.035450902  -32.038109  -43.677483  -68.752972  -64.246323    0.000000    0.000000    0.000000    0.000000
  0.035651303  -32.394608  -44.364674  -68.113846  -63.417274    0.000000    0.000000    0.000000    0.000000
  0.035851703  -32.510998  -40.169773  -67.322527  -57.619167    0.000000    0.000000    0.000000    0.000000
  0.036052104  -32.436657  -39.818443  -67.196603  -44.515888    0.000000    0.000000    0.000000    0.000000
  0.036252505  -32.334685  -38.618526  -69.554233  -44.606030    0.000000    0.000000    0.000000    0.000000
  0.036452906  -32.769306  -37.834087  -66.691344  -56.360435    0.000000    0.000000    0.000000    0.000000
  0.036653307  -32.695947  -35.058746  -68.433201  -59.493599    0.000000    0.000000    0.000000    0.000000
  0.036853707  -32.451741  -34.000481  -67.936595  -38.705997    0.000000    0.000000    0.000000    0.000000
  0.037054108  -32.403241  -35.556679  -67.823717  -40.279678    0.000000    0.000000    0.000000    0.000000
  0.037254509  -32.834712  -31.864100  -69.727544  -48.502525    0.000000    0.000000    0.000000    0.000000
  0.037454910  -32.321500  -31.072468  -69.254208  -45.908195    0.000000    0.000000    0.000000    0.000000
  0.037655311  -32.727073  -30.698343  -69.985158  -41.105564    0.000000    0.000000    0.000000    0.000000
  0.037855711  -32.771742  -28.038071  -69.915509  -32.975716    0.000000    0.000000    0.000000    0.000000
  0.038056112  -32.628576  -27.076204  -68.675252  -46.148308    0.000000    0.000000    0.000000    0.000000
  0.038256513  -33.148064  -26.303587  -69.754578  -34.561909    0.000000    0.000000    0.000000    0.000000
  0.038456914  -33.055529  -26.569820  -69.154106  -40.716824    0.000000    0.000000    0.000000    0.000000
  0.038657315  -32.832317  -25.555019  -70.129935  -31.116354    0.000000    0.000000    0.000000    0.000000
  0.038857715  -33.123399  -23.020178  -69.336148  -33.257481    0.000000    0.000000    0.000000    0.000000
  0.039058116  -32.793649  -22.248127  -68.005475  -29.478195    0.000000    0.000000    0.000000    0.000000
  0.039258517  -32.852611  -21.317469  -68.676099  -22.451824    0.000000    0.000000    0.000000    0.000000
  0.039458918  -33.057598  -23.084478  -68.120561  -29.061296    0.000000    0.000000    0.000000    0.000000
  0.039659319  -32.959718  -20.263403  -69.229102  -23.359865    0.000000    0.000000    0.000000    0.000000
  0.039859719  -33.123379  -19.707155  -68.552298  -14.404642    0.000000    0.000000    0.000000    0.000000
  0.040060120  -33.126118  -18.725264  -69.825343  -27.255108    0.000000    0.000000    0.000000    0.000000
  0.040260521  -33.343344  -16.779423  -68.322791   -0.346111    0.000000    0.000000    0.000000    0.000000
  0.040460922  -33.507592  -18.246113  -67.192730  -14.297801    0.000000    0.000000    0.000000    0.000000
  0.040661323  -33.192976  -15.100276  -67.651366   -3.773485    0.000000    0.000000    0.000000    0.000000
  0.040861723  -33.381399  -12.426718  -69.092690    0.414609    0.000000    0.000000    0.000000    0.000000
  0.041062124  -33.756112  -10.231233  -69.057590   -5.460754    0.000000    0.000000    0.000000    0.000000
  0.041262525  -33.616864  -13.864536  -67.902304   -1.967008    0.000000    0.000000    0.000000    0.000000
  0.041462926  -33.098910  -10.352575  -68.498705   -0.900557    0.000000    0.000000    0.000000    0.000000
  0.041663327  -33.815233   -6.705076  -69.829938    2.009067    0.000000    0.000000    0.000000    0.000000
  0.041863727  -33.971203   -8.908375  -71.506445    1.626816    0.000000    0.000000    0.000000    0.000000
  0.042064128  -33.899347   -7.614235  -70.296439   16.168665    0.000000    0.000000    0.000000    0.000000
  0.042264529  -33.716031   -5.755255  -69.570114    4.746334    0.000000    0.000000    0.000000    0.000000
  0.042464930  -33.933918   -4.980214  -69.308192   10.541594    0.000000    0.000000    0.000000    0.000000
  0.042665331  -34.141439   -4.467767  -69.383090    4.553273    0.000000    0.000000    0.000000    0.000000
  0.042865731  -34.072434   -2.149453  -68.287248    9.655265    0.000000    0.000000    0.000000    0.000000
