! Anritsu VNA Master:                 Model: MS2034B/10/19/501
! SN:                                  1337062
! /bd0/ovro-jan-2016/dcp-b2-s11.s2p
! Existing Calibration Information:
! TYPE:                         Current Settings,       Active Cal Settings
! TIME:             	   01/09/2016 05:35:07 PM,    01/09/2016 12:40:35 PM
! INTERNAL TEMP:    	                   41.5 C,                    41.8 C
! # POINTS:         	                      500,                       500
! START FREQ:       	               10.000 MHz,                10.000 MHz
! STOP FREQ:        	              110.000 MHz,               110.000 MHz
! SOURCE POWER:     	                      Low,                       Low
! IFBW:             	                   100 Hz,                    100 Hz
! AVG FACTOR:       	                       3 ,                        3 
! REF PLANE 1:      	                 2.2245 m,                  2.2245 m
! REF PLANE 2:      	                     0 mm,                      0 mm
! CAL TYPE:         	             1P2P S11,S21,              1P2P S11,S21
! CAL METHOD:       	                     SOLT,                      SOLT
! CAL LINE TYPE:    	                     Coax,                      Coax
! DUT PORT 1:       	                K-Conn(M),                 K-Conn(M)
! DUT PORT 2:       	                N-Conn(M),                 N-Conn(M)
! CAL STATUS:       	        OK: Accuracy High,                        --
# GHZ S DB R 50.0
! FREQ.GHZ       S11DB        S11A       S21DB        S21A       S12DB        S12A       S22DB        S22A
  0.010000000  -23.783207 -169.322479  -44.394548 -137.354691    0.000000    0.000000    0.000000    0.000000
  0.010200401  -23.707143 -170.174744  -47.016854 -139.228760    0.000000    0.000000    0.000000    0.000000
  0.010400802  -24.066070 -171.581421  -51.657636 -140.325317    0.000000    0.000000    0.000000    0.000000
  0.010601202  -23.826707 -174.203552  -61.269282 -120.206261    0.000000    0.000000    0.000000    0.000000
  0.010801603  -24.066939 -176.957489  -58.009961    3.839616    0.000000    0.000000    0.000000    0.000000
  0.011002004  -24.146392 -177.332397  -51.057482   15.173145    0.000000    0.000000    0.000000    0.000000
  0.011202405  -24.072385 -179.487747  -46.811423   21.790571    0.000000    0.000000    0.000000    0.000000
  0.011402806  -24.318465  178.813263  -44.726352   19.862749    0.000000    0.000000    0.000000    0.000000
  0.011603206  -24.386890  177.967285  -43.062487   20.603281    0.000000    0.000000    0.000000    0.000000
  0.011803607  -24.539397  175.494339  -41.673065   18.968672    0.000000    0.000000    0.000000    0.000000
  0.012004008  -24.513485  172.757553  -40.758611   19.618336    0.000000    0.000000    0.000000    0.000000
  0.012204409  -24.469461  171.421722  -40.033343   16.303453    0.000000    0.000000    0.000000    0.000000
  0.012404810  -24.431420  169.944824  -39.304021   16.134750    0.000000    0.000000    0.000000    0.000000
  0.012605210  -24.641626  168.291122  -39.045343   15.674150    0.000000    0.000000    0.000000    0.000000
  0.012805611  -24.792321  165.015396  -38.926458   12.099808    0.000000    0.000000    0.000000    0.000000
  0.013006012  -24.836162  164.500488  -39.125300   10.747151    0.000000    0.000000    0.000000    0.000000
  0.013206413  -24.744380  161.902405  -39.416330   10.540423    0.000000    0.000000    0.000000    0.000000
  0.013406814  -24.845564  159.958923  -40.018823    9.656508    0.000000    0.000000    0.000000    0.000000
  0.013607214  -24.880226  158.325729  -40.951857    8.692263    0.000000    0.000000    0.000000    0.000000
  0.013807615  -24.855385  157.197662  -41.941446    8.888682    0.000000    0.000000    0.000000    0.000000
  0.014008016  -24.720910  156.032013  -44.113524    9.369545    0.000000    0.000000    0.000000    0.000000
  0.014208417  -24.891533  152.226059  -47.594003   12.374363    0.000000    0.000000    0.000000    0.000000
  0.014408818  -25.143735  150.239075  -53.533340   34.495136    0.000000    0.000000    0.000000    0.000000
  0.014609218  -25.019908  148.717606  -55.167920  118.638763    0.000000    0.000000    0.000000    0.000000
  0.014809619  -24.846170  146.311432  -47.685109  150.336685    0.000000    0.000000    0.000000    0.000000
  0.015010020  -24.881079  146.075394  -42.655168  158.129257    0.000000    0.000000    0.000000    0.000000
  0.015210421  -24.974070  143.258453  -39.077469  159.939758    0.000000    0.000000    0.000000    0.000000
  0.015410822  -24.970136  140.799652  -36.387194  159.639420    0.000000    0.000000    0.000000    0.000000
  0.015611222  -24.968015  138.612030  -34.279949  159.129593    0.000000    0.000000    0.000000    0.000000
  0.015811623  -24.919864  137.328690  -32.453216  158.264923    0.000000    0.000000    0.000000    0.000000
  0.016012024  -25.006172  135.720184  -30.848325  157.110382    0.000000    0.000000    0.000000    0.000000
  0.016212425  -25.008364  133.703842  -29.372462  155.607864    0.000000    0.000000    0.000000    0.000000
  0.016412826  -24.689612  131.387741  -28.119741  153.435669    0.000000    0.000000    0.000000    0.000000
  0.016613226  -24.746316  128.664856  -27.112891  151.748230    0.000000    0.000000    0.000000    0.000000
  0.016813627  -24.737851  127.204010  -25.997026  150.523102    0.000000    0.000000    0.000000    0.000000
  0.017014028  -24.789303  124.143295  -25.182989  148.175446    0.000000    0.000000    0.000000    0.000000
  0.017214429  -24.660632  124.016594  -24.246950  146.620026    0.000000    0.000000    0.000000    0.000000
  0.017414830  -24.581709  121.272575  -23.695071  144.879288    0.000000    0.000000    0.000000    0.000000
  0.017615230  -24.373207  119.311836  -23.151477  143.416794    0.000000    0.000000    0.000000    0.000000
  0.017815631  -24.312807  117.035263  -22.669480  141.120575    0.000000    0.000000    0.000000    0.000000
  0.018016032  -24.431027  114.420906  -22.348314  139.090759    0.000000    0.000000    0.000000    0.000000
  0.018216433  -24.093630  113.569870  -22.015676  137.506927    0.000000    0.000000    0.000000    0.000000
  0.018416834  -24.067612  112.063278  -21.943118  135.953186    0.000000    0.000000    0.000000    0.000000
  0.018617234  -24.211556  109.985687  -21.908297  134.423172    0.000000    0.000000    0.000000    0.000000
  0.018817635  -23.960266  107.648438  -22.190617  132.863800    0.000000    0.000000    0.000000    0.000000
  0.019018036  -23.934866  104.384293  -22.700014  131.967972    0.000000    0.000000    0.000000    0.000000
  0.019218437  -23.709187  102.926460  -23.551259  130.889938    0.000000    0.000000    0.000000    0.000000
  0.019418838  -23.573222  100.254730  -24.790323  130.524597    0.000000    0.000000    0.000000    0.000000
  0.019619238  -23.382630   98.508766  -26.870074  133.377045    0.000000    0.000000    0.000000    0.000000
  0.019819639  -23.360587   97.533806  -30.581381  142.221283    0.000000    0.000000    0.000000    0.000000
  0.020020040  -23.233786   95.792801  -36.337866 -176.406525    0.000000    0.000000    0.000000    0.000000
  0.020220441  -23.165418   94.117661  -31.506107 -105.273697    0.000000    0.000000    0.000000    0.000000
  0.020420842  -23.034507   91.693100  -24.909422  -88.897316    0.000000    0.000000    0.000000    0.000000
  0.020621242  -22.986118   89.894531  -20.332771  -84.959465    0.000000    0.000000    0.000000    0.000000
  0.020821643  -22.838136   86.458595  -16.945975  -84.372314    0.000000    0.000000    0.000000    0.000000
  0.021022044  -22.753598   85.092094  -14.144739  -85.586319    0.000000    0.000000    0.000000    0.000000
  0.021222445  -22.503540   83.447464  -11.647362  -86.697403    0.000000    0.000000    0.000000    0.000000
  0.021422846  -22.557709   81.485962   -9.397410  -88.649094    0.000000    0.000000    0.000000    0.000000
  0.021623246  -22.470536   78.582893   -7.394161  -90.516998    0.000000    0.000000    0.000000    0.000000
  0.021823647  -22.283328   76.508362   -5.399014  -92.278854    0.000000    0.000000    0.000000    0.000000
  0.022024048  -22.213416   74.468536   -3.662239  -94.711006    0.000000    0.000000    0.000000    0.000000
  0.022224449  -21.875588   72.873146   -1.914263  -97.113426    0.000000    0.000000    0.000000    0.000000
  0.022424850  -21.819412   69.532486   -0.367974  -99.875031    0.000000    0.000000    0.000000    0.000000
  0.022625251  -21.814269   67.698647    1.271247 -102.807320    0.000000    0.000000    0.000000    0.000000
  0.022825651  -21.632302   65.575081    2.572382 -105.250092    0.000000    0.000000    0.000000    0.000000
  0.023026052  -21.533423   63.099792    4.074574 -108.317421    0.000000    0.000000    0.000000    0.000000
  0.023226453  -21.319525   60.597778    5.486224 -111.326668    0.000000    0.000000    0.000000    0.000000
  0.023426854  -21.318896   58.272060    6.822679 -114.437759    0.000000    0.000000    0.000000    0.000000
  0.023627255  -20.895110   58.106441    8.032657 -116.265854    0.000000    0.000000    0.000000    0.000000
  0.023827655  -20.688663   55.093178    9.313688 -119.051865    0.000000    0.000000    0.000000    0.000000
  0.024028056  -20.516866   52.854347   10.520640 -122.614189    0.000000    0.000000    0.000000    0.000000
  0.024228457  -20.375025   50.468063   11.714609 -126.201950    0.000000    0.000000    0.000000    0.000000
  0.024428858  -20.330888   46.519279   12.967248 -129.897873    0.000000    0.000000    0.000000    0.000000
  0.024629259  -20.108285   44.445656   14.160541 -133.879257    0.000000    0.000000    0.000000    0.000000
  0.024829659  -20.079177   42.576294   15.208805 -138.477921    0.000000    0.000000    0.000000    0.000000
  0.025030060  -19.922992   38.752953   16.432541 -143.068848    0.000000    0.000000    0.000000    0.000000
  0.025230461  -19.782640   35.392990   17.663874 -147.090378    0.000000    0.000000    0.000000    0.000000
  0.025430862  -19.812979   32.114727   18.817093 -152.497742    0.000000    0.000000    0.000000    0.000000
  0.025631263  -19.620431   29.470808   19.980376 -157.203308    0.000000    0.000000    0.000000    0.000000
  0.025831663  -19.533399   25.773293   21.055288 -163.242340    0.000000    0.000000    0.000000    0.000000
  0.026032064  -19.641915   21.410656   22.198506 -168.237335    0.000000    0.000000    0.000000    0.000000
  0.026232465  -19.533538   17.086252   23.196205 -174.576355    0.000000    0.000000    0.000000    0.000000
  0.026432866  -19.687724   12.982321   24.256342  179.577881    0.000000    0.000000    0.000000    0.000000
  0.026633267  -19.665421    8.050241   25.173047  173.402588    0.000000    0.000000    0.000000    0.000000
  0.026833667  -20.001724    4.347301   26.172411  167.000076    0.000000    0.000000    0.000000    0.000000
  0.027034068  -20.190385   -1.194553   27.028369  160.261826    0.000000    0.000000    0.000000    0.000000
  0.027234469  -20.606293   -5.112670   27.803035  153.690384    0.000000    0.000000    0.000000    0.000000
  0.027434870  -20.997729   -9.923224   28.601687  145.979187    0.000000    0.000000    0.000000    0.000000
  0.027635271  -21.368787  -15.491259   29.172686  138.529190    0.000000    0.000000    0.000000    0.000000
  0.027835671  -22.054696  -20.243677   29.716183  131.008774    0.000000    0.000000    0.000000    0.000000
  0.028036072  -22.850310  -24.183178   30.174596  124.066887    0.000000    0.000000    0.000000    0.000000
  0.028236473  -23.546437  -27.506962   30.597844  116.327766    0.000000    0.000000    0.000000    0.000000
  0.028436874  -24.316912  -32.462162   30.859157  109.999397    0.000000    0.000000    0.000000    0.000000
  0.028637275  -25.174054  -34.059242   31.161331  102.439125    0.000000    0.000000    0.000000    0.000000
  0.028837675  -26.351076  -36.882374   31.407674   95.349495    0.000000    0.000000    0.000000    0.000000
  0.029038076  -27.864359  -35.524452   31.527530   88.838005    0.000000    0.000000    0.000000    0.000000
  0.029238477  -28.965294  -36.345078   31.667394   83.274292    0.000000    0.000000    0.000000    0.000000
  0.029438878  -29.631878  -37.083401   31.762949   77.561996    0.000000    0.000000    0.000000    0.000000
  0.029639279  -30.911089  -33.036362   31.830358   71.484543    0.000000    0.000000    0.000000    0.000000
  0.029839679  -32.024371  -28.773643   31.923975   66.207657    0.000000    0.000000    0.000000    0.000000
  0.030040080  -32.866043  -25.759935   31.917695   61.474174    0.000000    0.000000    0.000000    0.000000
  0.030240481  -33.892994  -19.068079   31.965195   57.038864    0.000000    0.000000    0.000000    0.000000
  0.030440882  -34.731971  -13.265807   32.017684   52.481754    0.000000    0.000000    0.000000    0.000000
  0.030641283  -34.119910   -4.451603   31.965966   48.546326    0.000000    0.000000    0.000000    0.000000
  0.030841683  -34.285703   -1.586572   32.000593   44.529457    0.000000    0.000000    0.000000    0.000000
  0.031042084  -34.375023    2.754443   32.052267   40.694160    0.000000    0.000000    0.000000    0.000000
  0.031242485  -35.304837    8.010261   32.038337   36.672073    0.000000    0.000000    0.000000    0.000000
  0.031442886  -33.928559   15.805584   32.069114   32.873447    0.000000    0.000000    0.000000    0.000000
  0.031643287  -34.345836   11.406425   32.130157   29.204433    0.000000    0.000000    0.000000    0.000000
  0.031843687  -33.790484   16.949509   32.087261   25.187359    0.000000    0.000000    0.000000    0.000000
  0.032044088  -33.819247   19.106657   32.114201   21.652622    0.000000    0.000000    0.000000    0.000000
  0.032244489  -34.032983   22.900763   32.137602   18.327347    0.000000    0.000000    0.000000    0.000000
  0.032444890  -33.799005   22.896006   32.105917   14.720536    0.000000    0.000000    0.000000    0.000000
  0.032645291  -33.619050   24.530029   32.171212   11.300163    0.000000    0.000000    0.000000    0.000000
  0.032845691  -33.817142   26.127602   32.204402    8.138371    0.000000    0.000000    0.000000    0.000000
  0.033046092  -33.533327   25.785418   32.182179    5.347371    0.000000    0.000000    0.000000    0.000000
  0.033246493  -33.464454   28.693871   32.178885    2.270834    0.000000    0.000000    0.000000    0.000000
  0.033446894  -33.736811   26.606737   32.239204   -0.055337    0.000000    0.000000    0.000000    0.000000
  0.033647295  -33.752140   25.918478   32.205085   -3.134441    0.000000    0.000000    0.000000    0.000000
  0.033847695  -34.256632   27.842854   32.198079   -5.492815    0.000000    0.000000    0.000000    0.000000
  0.034048096  -33.626055   28.478064   32.188906   -8.032041    0.000000    0.000000    0.000000    0.000000
  0.034248497  -34.374609   32.413635   32.222132  -11.073861    0.000000    0.000000    0.000000    0.000000
  0.034448898  -34.153127   31.870123   32.192275  -13.433632    0.000000    0.000000    0.000000    0.000000
  0.034649299  -33.898382   31.905651   32.179947  -16.094864    0.000000    0.000000    0.000000    0.000000
  0.034849699  -34.317874   30.059755   32.179403  -18.871536    0.000000    0.000000    0.000000    0.000000
  0.035050100  -34.841118   32.852875   32.149369  -21.561960    0.000000    0.000000    0.000000    0.000000
  0.035250501  -34.458498   33.833725   32.194373  -24.361900    0.000000    0.000000    0.000000    0.000000
  0.035450902  -35.036730   38.252617   32.178058  -26.901903    0.000000    0.000000    0.000000    0.000000
  0.035651303  -35.101840   36.706638   32.142647  -29.796581    0.000000    0.000000    0.000000    0.000000
  0.035851703  -35.370643   40.245995   32.151424  -32.031574    0.000000    0.000000    0.000000    0.000000
  0.036052104  -34.729117   38.112652   32.075092  -34.207527    0.000000    0.000000    0.000000    0.000000
  0.036252505  -35.341955   41.309856   32.072379  -36.785545    0.000000    0.000000    0.000000    0.000000
  0.036452906  -34.776826   42.859394   32.038405  -38.853909    0.000000    0.000000    0.000000    0.000000
  0.036653307  -34.856484   49.165783   32.053531  -41.211197    0.000000    0.000000    0.000000    0.000000
  0.036853707  -35.628982   47.623714   32.009724  -43.259121    0.000000    0.000000    0.000000    0.000000
  0.037054108  -35.314033   47.199711   31.998584  -45.211201    0.000000    0.000000    0.000000    0.000000
  0.037254509  -35.643313   49.194695   32.059479  -47.426163    0.000000    0.000000    0.000000    0.000000
  0.037454910  -35.387087   53.995865   32.085610  -49.603344    0.000000    0.000000    0.000000    0.000000
  0.037655311  -35.944160   51.267490   32.111125  -51.485035    0.000000    0.000000    0.000000    0.000000
  0.037855711  -35.319720   55.248642   32.141399  -53.234573    0.000000    0.000000    0.000000    0.000000
  0.038056112  -36.076953   57.878353   32.207850  -54.798363    0.000000    0.000000    0.000000    0.000000
  0.038256513  -35.321952   59.123695   32.265985  -56.638798    0.000000    0.000000    0.000000    0.000000
  0.038456914  -36.178120   64.687935   32.323934  -58.654926    0.000000    0.000000    0.000000    0.000000
  0.038657315  -35.565074   63.911755   32.284914  -60.340878    0.000000    0.000000    0.000000    0.000000
  0.038857715  -36.043268   62.299889   32.284587  -62.272255    0.000000    0.000000    0.000000    0.000000
  0.039058116  -36.003120   66.639122   32.277533  -63.853813    0.000000    0.000000    0.000000    0.000000
  0.039258517  -35.635522   65.791992   32.271044  -66.379105    0.000000    0.000000    0.000000    0.000000
  0.039458918  -35.255558   68.775002   32.243283  -67.972626    0.000000    0.000000    0.000000    0.000000
  0.039659319  -35.638190   69.186508   32.227793  -70.358826    0.000000    0.000000    0.000000    0.000000
  0.039859719  -35.300586   70.529755   32.130145  -71.986595    0.000000    0.000000    0.000000    0.000000
  0.040060120  -35.142159   72.839333   32.155155  -74.287460    0.000000    0.000000    0.000000    0.000000
  0.040260521  -35.375285   74.678185   32.144002  -75.969490    0.000000    0.000000    0.000000    0.000000
  0.040460922  -35.075096   73.514709   32.122953  -77.952286    0.000000    0.000000    0.000000    0.000000
  0.040661323  -34.873134   77.681587   32.117920  -79.592102    0.000000    0.000000    0.000000    0.000000
  0.040861723  -34.853363   77.522629   32.172500  -80.753654    0.000000    0.000000    0.000000    0.000000
  0.041062124  -35.372286   82.963684   32.187119  -82.265617    0.000000    0.000000    0.000000    0.000000
  0.041262525  -35.455820   80.181519   32.194464  -83.821625    0.000000    0.000000    0.000000    0.000000
  0.041462926  -35.206459   78.462296   32.267246  -84.926506    0.000000    0.000000    0.000000    0.000000
  0.041663327  -34.797882   80.845276   32.260668  -86.213257    0.000000    0.000000    0.000000    0.000000
  0.041863727  -35.164137   84.847641   32.287211  -87.885437    0.000000    0.000000    0.000000    0.000000
  0.042064128  -34.967453   81.651352   32.290122  -89.306549    0.000000    0.000000    0.000000    0.000000
  0.042264529  -34.981939   83.700180   32.302418  -91.294617    0.000000    0.000000    0.000000    0.000000
  0.042464930  -34.694458   83.088020   32.277478  -93.359474    0.000000    0.000000    0.000000    0.000000
  0.042665331  -34.742575   87.409988   32.294560  -95.757469    0.000000    0.000000    0.000000    0.000000
  0.042865731  -35.122626   89.275520   32.310493  -97.171356    0.000000    0.000000    0.000000    0.000000
