! Anritsu VNA Master:                 Model: MS2034B/10/19/501
! SN:                                  1337062
! /bd0/ovro-jan-2016/dcp-d2-s21-40db.s2p
! Existing Calibration Information:
! TYPE:                         Current Settings,       Active Cal Settings
! TIME:             	   01/08/2016 08:52:46 PM,    01/08/2016 08:43:08 PM
! INTERNAL TEMP:    	                   44.8 C,                    45.0 C
! # POINTS:         	                      500,                       500
! START FREQ:       	               10.000 MHz,                10.000 MHz
! STOP FREQ:        	              110.000 MHz,               110.000 MHz
! SOURCE POWER:     	                      Low,                       Low
! IFBW:             	                   100 Hz,                    100 Hz
! AVG FACTOR:       	                       3 ,                        3 
! REF PLANE 1:      	                 2.2245 m,                  2.2245 m
! REF PLANE 2:      	                     0 mm,                      0 mm
! CAL TYPE:         	             1P2P S11,S21,              1P2P S11,S21
! CAL METHOD:       	                     SOLT,                      SOLT
! CAL LINE TYPE:    	                     Coax,                      Coax
! DUT PORT 1:       	                K-Conn(M),                 K-Conn(M)
! DUT PORT 2:       	                N-Conn(M),                 N-Conn(M)
! CAL STATUS:       	        OK: Accuracy High,                        --
# GHZ S DB R 50.0
! FREQ.GHZ       S11DB        S11A       S21DB        S21A       S12DB        S12A       S22DB        S22A
  0.010000000  -39.863285 -112.190742  -64.488361  114.983437    0.000000    0.000000    0.000000    0.000000
  0.010200401  -40.678182 -106.822250  -64.004222   90.651283    0.000000    0.000000    0.000000    0.000000
  0.010400802  -38.659617 -113.679344  -64.581374   83.885841    0.000000    0.000000    0.000000    0.000000
  0.010601202  -40.905506 -120.406235  -63.195464  101.079910    0.000000    0.000000    0.000000    0.000000
  0.010801603  -40.138572 -106.768730  -64.741681  100.083641    0.000000    0.000000    0.000000    0.000000
  0.011002004  -39.707365 -115.020470  -66.163581  101.741730    0.000000    0.000000    0.000000    0.000000
  0.011202405  -39.616868 -118.475655  -64.233417  108.813850    0.000000    0.000000    0.000000    0.000000
  0.011402806  -40.215573 -118.178215  -63.206485  103.301727    0.000000    0.000000    0.000000    0.000000
  0.011603206  -40.947850 -108.402107  -64.064145  103.942276    0.000000    0.000000    0.000000    0.000000
  0.011803607  -38.977571  -97.018570  -64.495834   95.892555    0.000000    0.000000    0.000000    0.000000
  0.012004008  -39.273109  -95.113853  -65.210344   89.373482    0.000000    0.000000    0.000000    0.000000
  0.012204409  -41.308507 -100.070038  -63.986896   99.858978    0.000000    0.000000    0.000000    0.000000
  0.012404810  -40.286032  -98.931969  -66.324273   93.971100    0.000000    0.000000    0.000000    0.000000
  0.012605210  -40.689764 -104.912834  -65.361306  103.711319    0.000000    0.000000    0.000000    0.000000
  0.012805611  -40.802361  -98.201477  -66.091145   93.105927    0.000000    0.000000    0.000000    0.000000
  0.013006012  -39.922558  -97.700508  -67.228476   93.014595    0.000000    0.000000    0.000000    0.000000
  0.013206413  -40.572776 -105.144814  -65.126581  105.640381    0.000000    0.000000    0.000000    0.000000
  0.013406814  -40.768152  -83.729073  -65.932966  103.001625    0.000000    0.000000    0.000000    0.000000
  0.013607214  -39.142362  -88.161163  -65.461578  103.183182    0.000000    0.000000    0.000000    0.000000
  0.013807615  -41.180784  -89.860733  -65.365112  126.112015    0.000000    0.000000    0.000000    0.000000
  0.014008016  -39.685934  -96.135918  -64.615198  106.786865    0.000000    0.000000    0.000000    0.000000
  0.014208417  -41.078313  -86.136284  -66.432582  126.563087    0.000000    0.000000    0.000000    0.000000
  0.014408818  -39.408282  -79.730865  -64.817016  139.893356    0.000000    0.000000    0.000000    0.000000
  0.014609218  -40.266418  -89.306381  -64.420820  114.099335    0.000000    0.000000    0.000000    0.000000
  0.014809619  -40.990866  -94.980560  -65.429229  115.285469    0.000000    0.000000    0.000000    0.000000
  0.015010020  -39.837125  -86.134003  -64.982681  133.964844    0.000000    0.000000    0.000000    0.000000
  0.015210421  -40.862780  -83.215805  -65.205165  134.706696    0.000000    0.000000    0.000000    0.000000
  0.015410822  -39.743566  -82.875168  -64.451843  131.807114    0.000000    0.000000    0.000000    0.000000
  0.015611222  -39.648579  -81.514648  -65.002654  141.456696    0.000000    0.000000    0.000000    0.000000
  0.015811623  -41.163684  -79.139709  -63.544003  142.794189    0.000000    0.000000    0.000000    0.000000
  0.016012024  -40.042524  -79.487091  -63.389618  136.427765    0.000000    0.000000    0.000000    0.000000
  0.016212425  -40.702813  -72.428833  -61.920023  147.153854    0.000000    0.000000    0.000000    0.000000
  0.016412826  -39.554530  -76.854210  -62.708360  146.989365    0.000000    0.000000    0.000000    0.000000
  0.016613226  -41.016415  -77.251282  -62.991924  146.383255    0.000000    0.000000    0.000000    0.000000
  0.016813627  -40.609604  -69.852440  -63.042541  146.649612    0.000000    0.000000    0.000000    0.000000
  0.017014028  -40.670369  -77.402122  -62.325152  148.776062    0.000000    0.000000    0.000000    0.000000
  0.017214429  -39.217850  -66.647232  -59.941750  151.693878    0.000000    0.000000    0.000000    0.000000
  0.017414830  -40.468856  -71.937782  -59.991984  151.721573    0.000000    0.000000    0.000000    0.000000
  0.017615230  -40.781443  -66.313065  -60.610484  146.388489    0.000000    0.000000    0.000000    0.000000
  0.017815631  -39.996958  -63.039436  -60.137699  151.719162    0.000000    0.000000    0.000000    0.000000
  0.018016032  -40.125489  -72.074646  -59.967556  144.446350    0.000000    0.000000    0.000000    0.000000
  0.018216433  -42.042405  -65.364929  -60.191453  147.667297    0.000000    0.000000    0.000000    0.000000
  0.018416834  -41.120129  -67.397537  -60.867455  143.181473    0.000000    0.000000    0.000000    0.000000
  0.018617234  -40.883967  -61.518360  -59.167149  141.109024    0.000000    0.000000    0.000000    0.000000
  0.018817635  -39.995203  -55.431675  -60.552804  145.726639    0.000000    0.000000    0.000000    0.000000
  0.019018036  -39.406882  -54.911003  -61.141617  144.263367    0.000000    0.000000    0.000000    0.000000
  0.019218437  -40.609903  -63.058949  -61.235453  145.651886    0.000000    0.000000    0.000000    0.000000
  0.019418838  -39.988426  -55.360222  -62.260476  150.226974    0.000000    0.000000    0.000000    0.000000
  0.019619238  -39.317724  -52.901630  -62.217989  150.668167    0.000000    0.000000    0.000000    0.000000
  0.019819639  -41.274844  -55.825905  -64.110933  173.231094    0.000000    0.000000    0.000000    0.000000
  0.020020040  -39.674576  -55.029808  -65.504528 -179.758087    0.000000    0.000000    0.000000    0.000000
  0.020220441  -39.796997  -51.710400  -65.113826 -166.487244    0.000000    0.000000    0.000000    0.000000
  0.020420842  -41.294407  -50.527931  -63.275319 -142.806183    0.000000    0.000000    0.000000    0.000000
  0.020621242  -39.934137  -53.208244  -61.375094 -114.273979    0.000000    0.000000    0.000000    0.000000
  0.020821643  -40.134358  -49.061401  -59.119910 -109.247192    0.000000    0.000000    0.000000    0.000000
  0.021022044  -40.564173  -50.309357  -57.046508 -104.000008    0.000000    0.000000    0.000000    0.000000
  0.021222445  -40.341587  -50.470020  -54.134330  -99.128532    0.000000    0.000000    0.000000    0.000000
  0.021422846  -40.372376  -41.889900  -52.103757 -100.738869    0.000000    0.000000    0.000000    0.000000
  0.021623246  -40.921655  -50.514103  -49.426550  -97.875298    0.000000    0.000000    0.000000    0.000000
  0.021823647  -40.153338  -53.449501  -47.489256  -99.129387    0.000000    0.000000    0.000000    0.000000
  0.022024048  -40.480499  -38.488655  -45.350552 -101.309074    0.000000    0.000000    0.000000    0.000000
  0.022224449  -40.452056  -47.905357  -43.727774 -104.313660    0.000000    0.000000    0.000000    0.000000
  0.022424850  -39.524739  -36.130928  -42.301744 -105.672180    0.000000    0.000000    0.000000    0.000000
  0.022625251  -39.778865  -33.882164  -41.095136 -105.321213    0.000000    0.000000    0.000000    0.000000
  0.022825651  -39.283180  -36.087154  -39.472459 -107.610207    0.000000    0.000000    0.000000    0.000000
  0.023026052  -39.641869  -34.115005  -37.857619 -111.367088    0.000000    0.000000    0.000000    0.000000
  0.023226453  -40.414443  -37.109184  -36.744580 -112.295326    0.000000    0.000000    0.000000    0.000000
  0.023426854  -40.559166  -40.911152  -35.266775 -116.623894    0.000000    0.000000    0.000000    0.000000
  0.023627255  -40.103343  -29.269064  -33.985468 -118.586807    0.000000    0.000000    0.000000    0.000000
  0.023827655  -39.654809  -21.276592  -32.492194 -121.704834    0.000000    0.000000    0.000000    0.000000
  0.024028056  -40.853310  -24.391644  -31.396385 -124.138359    0.000000    0.000000    0.000000    0.000000
  0.024228457  -40.559344  -26.730904  -30.161942 -127.700043    0.000000    0.000000    0.000000    0.000000
  0.024428858  -39.735550  -29.421911  -28.869010 -130.825378    0.000000    0.000000    0.000000    0.000000
  0.024629259  -40.556483  -24.017771  -27.556628 -134.489792    0.000000    0.000000    0.000000    0.000000
  0.024829659  -40.167900  -18.139172  -26.392685 -136.714920    0.000000    0.000000    0.000000    0.000000
  0.025030060  -39.810926  -21.576023  -25.157459 -140.558899    0.000000    0.000000    0.000000    0.000000
  0.025230461  -41.750560  -22.872742  -24.006798 -145.101578    0.000000    0.000000    0.000000    0.000000
  0.025430862  -38.747075  -16.606319  -22.772703 -149.269806    0.000000    0.000000    0.000000    0.000000
  0.025631263  -41.157356  -20.366217  -21.712105 -154.343933    0.000000    0.000000    0.000000    0.000000
  0.025831663  -41.209324   -7.161398  -20.600223 -159.783630    0.000000    0.000000    0.000000    0.000000
  0.026032064  -39.333068  -13.728359  -19.421571 -165.087036    0.000000    0.000000    0.000000    0.000000
  0.026232465  -39.925515  -12.085950  -18.427852 -170.206192    0.000000    0.000000    0.000000    0.000000
  0.026432866  -41.751293   -9.423314  -17.419735 -176.035004    0.000000    0.000000    0.000000    0.000000
  0.026633267  -39.806899  -11.013103  -16.423116  177.623260    0.000000    0.000000    0.000000    0.000000
  0.026833667  -40.755175  -10.403481  -15.431665  171.493561    0.000000    0.000000    0.000000    0.000000
  0.027034068  -39.652202  -13.308924  -14.593654  164.568588    0.000000    0.000000    0.000000    0.000000
  0.027234469  -40.761632   -8.167899  -13.722382  156.819870    0.000000    0.000000    0.000000    0.000000
  0.027434870  -41.796871   -9.930432  -12.988883  149.907990    0.000000    0.000000    0.000000    0.000000
  0.027635271  -40.740492   -6.011440  -12.328886  142.938919    0.000000    0.000000    0.000000    0.000000
  0.027835671  -43.471065  -16.209503  -11.691685  135.242065    0.000000    0.000000    0.000000    0.000000
  0.028036072  -42.020307   -1.540088  -11.216143  127.782555    0.000000    0.000000    0.000000    0.000000
  0.028236473  -39.951159   -2.678669  -10.711942  120.063850    0.000000    0.000000    0.000000    0.000000
  0.028436874  -41.301507   -4.286877  -10.372522  113.460236    0.000000    0.000000    0.000000    0.000000
  0.028637275  -41.550685   -3.390966  -10.113962  105.566299    0.000000    0.000000    0.000000    0.000000
  0.028837675  -39.919592    8.743500   -9.814961   99.150269    0.000000    0.000000    0.000000    0.000000
  0.029038076  -42.144883    2.143336   -9.670048   92.534866    0.000000    0.000000    0.000000    0.000000
  0.029238477  -42.280701    8.439703   -9.586840   85.959625    0.000000    0.000000    0.000000    0.000000
  0.029438878  -42.030300    5.599453   -9.463857   80.095497    0.000000    0.000000    0.000000    0.000000
  0.029639279  -41.304491    9.374023   -9.308742   74.459229    0.000000    0.000000    0.000000    0.000000
  0.029839679  -40.004854   -0.096040   -9.233923   68.274124    0.000000    0.000000    0.000000    0.000000
  0.030040080  -40.857640   19.223427   -9.275272   63.935059    0.000000    0.000000    0.000000    0.000000
  0.030240481  -39.510985    8.807618   -9.209027   58.746319    0.000000    0.000000    0.000000    0.000000
  0.030440882  -40.391971   18.983662   -9.166531   54.725224    0.000000    0.000000    0.000000    0.000000
  0.030641283  -40.229796   21.313009   -9.266408   49.465492    0.000000    0.000000    0.000000    0.000000
  0.030841683  -39.864837   14.750885   -9.129642   45.711884    0.000000    0.000000    0.000000    0.000000
  0.031042084  -40.696938   28.758928   -9.095613   41.599777    0.000000    0.000000    0.000000    0.000000
  0.031242485  -39.409790   20.291355   -9.172650   37.408554    0.000000    0.000000    0.000000    0.000000
  0.031442886  -40.179991   30.470253   -9.153470   33.414730    0.000000    0.000000    0.000000    0.000000
  0.031643287  -39.886480   16.772646   -9.077240   29.924007    0.000000    0.000000    0.000000    0.000000
  0.031843687  -40.116735   23.471958   -9.036512   26.295998    0.000000    0.000000    0.000000    0.000000
  0.032044088  -39.503024   27.872950   -9.105656   22.376463    0.000000    0.000000    0.000000    0.000000
  0.032244489  -40.938959   30.642643   -9.058603   19.149626    0.000000    0.000000    0.000000    0.000000
  0.032444890  -40.758877   32.841640   -9.089452   16.232187    0.000000    0.000000    0.000000    0.000000
  0.032645291  -40.000694   26.188917   -9.067367   12.631374    0.000000    0.000000    0.000000    0.000000
  0.032845691  -40.333205   29.225922   -9.047681    9.332874    0.000000    0.000000    0.000000    0.000000
  0.033046092  -38.646499   33.445915   -8.988963    6.178434    0.000000    0.000000    0.000000    0.000000
  0.033246493  -40.294567   41.689560   -9.002059    3.037266    0.000000    0.000000    0.000000    0.000000
  0.033446894  -39.642335   38.990570   -9.050789    0.227277    0.000000    0.000000    0.000000    0.000000
  0.033647295  -39.468991   28.359108   -9.059978   -2.603640    0.000000    0.000000    0.000000    0.000000
  0.033847695  -39.367450   38.550056   -9.029077   -5.184238    0.000000    0.000000    0.000000    0.000000
  0.034048096  -39.095167   40.157097   -9.037830   -8.090879    0.000000    0.000000    0.000000    0.000000
  0.034248497  -39.169794   37.170120   -9.012184  -10.641904    0.000000    0.000000    0.000000    0.000000
  0.034448898  -39.713782   45.322861   -9.027651  -13.560452    0.000000    0.000000    0.000000    0.000000
  0.034649299  -40.094007   38.456310   -9.046272  -16.548256    0.000000    0.000000    0.000000    0.000000
  0.034849699  -39.639150   34.871193   -9.022272  -19.177979    0.000000    0.000000    0.000000    0.000000
  0.035050100  -38.363360   40.876015   -9.057857  -21.610600    0.000000    0.000000    0.000000    0.000000
  0.035250501  -39.389005   42.824635   -9.006793  -23.683245    0.000000    0.000000    0.000000    0.000000
  0.035450902  -39.388079   35.412876   -8.981612  -26.728275    0.000000    0.000000    0.000000    0.000000
  0.035651303  -40.409604   49.323444   -9.057594  -28.989571    0.000000    0.000000    0.000000    0.000000
  0.035851703  -39.506634   40.350735   -9.010946  -31.092609    0.000000    0.000000    0.000000    0.000000
  0.036052104  -39.766827   48.423393   -9.015533  -33.511497    0.000000    0.000000    0.000000    0.000000
  0.036252505  -39.848561   53.570675   -8.984375  -35.982151    0.000000    0.000000    0.000000    0.000000
  0.036452906  -40.080687   53.552917   -9.009224  -37.864307    0.000000    0.000000    0.000000    0.000000
  0.036653307  -38.958323   50.160988   -9.063111  -40.423542    0.000000    0.000000    0.000000    0.000000
  0.036853707  -39.332448   49.350540   -8.987860  -42.551704    0.000000    0.000000    0.000000    0.000000
  0.037054108  -40.242605   52.439560   -9.049732  -44.634922    0.000000    0.000000    0.000000    0.000000
  0.037254509  -39.106316   51.456234   -9.022999  -46.836231    0.000000    0.000000    0.000000    0.000000
  0.037454910  -40.558853   52.241379   -9.000100  -48.557922    0.000000    0.000000    0.000000    0.000000
  0.037655311  -40.670013   55.897701   -9.090242  -51.018986    0.000000    0.000000    0.000000    0.000000
  0.037855711  -40.080096   59.900894   -9.085420  -52.904041    0.000000    0.000000    0.000000    0.000000
  0.038056112  -39.234287   61.414955   -9.097560  -55.238197    0.000000    0.000000    0.000000    0.000000
  0.038256513  -40.411301   61.267502   -9.045625  -56.651836    0.000000    0.000000    0.000000    0.000000
  0.038456914  -40.791227   64.778481   -9.064987  -59.121067    0.000000    0.000000    0.000000    0.000000
  0.038657315  -40.092730   59.464153   -9.060456  -60.760967    0.000000    0.000000    0.000000    0.000000
  0.038857715  -39.723124   65.483421   -9.049247  -62.762840    0.000000    0.000000    0.000000    0.000000
  0.039058116  -39.362251   67.002632   -9.066630  -64.864502    0.000000    0.000000    0.000000    0.000000
  0.039258517  -39.797742   71.121750   -9.026152  -66.556534    0.000000    0.000000    0.000000    0.000000
  0.039458918  -39.971828   67.670296   -9.054490  -68.442406    0.000000    0.000000    0.000000    0.000000
  0.039659319  -40.650831   64.630058   -9.051432  -70.587677    0.000000    0.000000    0.000000    0.000000
  0.039859719  -40.299502   76.567818   -9.096069  -71.907845    0.000000    0.000000    0.000000    0.000000
  0.040060120  -39.829228   66.694817   -9.067417  -73.997925    0.000000    0.000000    0.000000    0.000000
  0.040260521  -38.943145   66.877464   -9.107704  -75.640038    0.000000    0.000000    0.000000    0.000000
  0.040460922  -40.406493   73.100815   -9.067481  -76.989120    0.000000    0.000000    0.000000    0.000000
  0.040661323  -39.671196   76.395340   -9.124131  -79.147469    0.000000    0.000000    0.000000    0.000000
  0.040861723  -39.951816   73.472443   -9.122890  -80.985603    0.000000    0.000000    0.000000    0.000000
  0.041062124  -38.924809   76.277863   -9.110100  -82.700623    0.000000    0.000000    0.000000    0.000000
  0.041262525  -40.937032   72.425117   -9.051973  -83.986725    0.000000    0.000000    0.000000    0.000000
  0.041462926  -39.933743   72.984932   -9.114497  -85.852646    0.000000    0.000000    0.000000    0.000000
  0.041663327  -39.096891   80.829582   -9.121408  -87.384651    0.000000    0.000000    0.000000    0.000000
  0.041863727  -40.473973   80.998398   -9.144884  -89.153931    0.000000    0.000000    0.000000    0.000000
  0.042064128  -40.850703   87.109367   -9.158887  -90.799980    0.000000    0.000000    0.000000    0.000000
  0.042264529  -40.332867   81.172707   -9.086024  -92.398209    0.000000    0.000000    0.000000    0.000000
  0.042464930  -39.390935   80.799980   -9.136000  -93.979378    0.000000    0.000000    0.000000    0.000000
  0.042665331  -40.993298   82.345924   -9.084155  -95.392754    0.000000    0.000000    0.000000    0.000000
  0.042865731  -40.022586   86.390961   -9.069017  -97.502251    0.000000    0.000000    0.000000    0.000000
