! Anritsu VNA Master:                 Model: MS2034B/10/19/501
! SN:                                  1337062
! /bd0/ovro-jan-2016/dcp-d1-s21-40db.s2p
! Existing Calibration Information:
! TYPE:                         Current Settings,       Active Cal Settings
! TIME:             	   01/08/2016 09:13:18 PM,    01/08/2016 08:43:08 PM
! INTERNAL TEMP:    	                   41.8 C,                    45.0 C
! # POINTS:         	                      500,                       500
! START FREQ:       	               10.000 MHz,                10.000 MHz
! STOP FREQ:        	              110.000 MHz,               110.000 MHz
! SOURCE POWER:     	                      Low,                       Low
! IFBW:             	                   100 Hz,                    100 Hz
! AVG FACTOR:       	                       3 ,                        3 
! REF PLANE 1:      	                 2.2245 m,                  2.2245 m
! REF PLANE 2:      	                     0 mm,                      0 mm
! CAL TYPE:         	             1P2P S11,S21,              1P2P S11,S21
! CAL METHOD:       	                     SOLT,                      SOLT
! CAL LINE TYPE:    	                     Coax,                      Coax
! DUT PORT 1:       	                K-Conn(M),                 K-Conn(M)
! DUT PORT 2:       	                N-Conn(M),                 N-Conn(M)
! CAL STATUS:       	        OK: Accuracy High,                        --
# GHZ S DB R 50.0
! FREQ.GHZ       S11DB        S11A       S21DB        S21A       S12DB        S12A       S22DB        S22A
  0.010000000  -40.508218 -109.381790  -65.354180   98.002434    0.000000    0.000000    0.000000    0.000000
  0.010200401  -40.397596 -101.842697  -64.286789   96.119568    0.000000    0.000000    0.000000    0.000000
  0.010400802  -39.093629 -111.070992  -65.194855  105.032265    0.000000    0.000000    0.000000    0.000000
  0.010601202  -40.894979 -113.316620  -64.510654   97.716896    0.000000    0.000000    0.000000    0.000000
  0.010801603  -40.668431 -108.104897  -64.068553  103.407852    0.000000    0.000000    0.000000    0.000000
  0.011002004  -40.274798 -108.476295  -64.859993  103.295815    0.000000    0.000000    0.000000    0.000000
  0.011202405  -40.191564 -117.586189  -65.228787   95.516319    0.000000    0.000000    0.000000    0.000000
  0.011402806  -41.358088 -111.476463  -65.242035  102.688057    0.000000    0.000000    0.000000    0.000000
  0.011603206  -41.247014 -103.825439  -64.705455   99.216850    0.000000    0.000000    0.000000    0.000000
  0.011803607  -39.230498  -96.574326  -64.907786  104.549492    0.000000    0.000000    0.000000    0.000000
  0.012004008  -39.474449  -88.306122  -66.424462   93.495659    0.000000    0.000000    0.000000    0.000000
  0.012204409  -40.592665 -104.366440  -64.991063  102.332802    0.000000    0.000000    0.000000    0.000000
  0.012404810  -40.702207  -90.009850  -66.322379  103.105125    0.000000    0.000000    0.000000    0.000000
  0.012605210  -41.728455  -96.574425  -65.757993  103.632034    0.000000    0.000000    0.000000    0.000000
  0.012805611  -40.515752  -96.170937  -66.749159  119.423676    0.000000    0.000000    0.000000    0.000000
  0.013006012  -41.155909  -96.081169  -65.285264  101.627823    0.000000    0.000000    0.000000    0.000000
  0.013206413  -40.869250 -100.456848  -65.518251  116.060188    0.000000    0.000000    0.000000    0.000000
  0.013406814  -41.192872  -84.164825  -65.751969  106.137161    0.000000    0.000000    0.000000    0.000000
  0.013607214  -39.844165  -90.139267  -66.613865  114.914192    0.000000    0.000000    0.000000    0.000000
  0.013807615  -40.836876  -86.589767  -67.054989  114.265068    0.000000    0.000000    0.000000    0.000000
  0.014008016  -40.151676  -91.858994  -65.135388  109.803055    0.000000    0.000000    0.000000    0.000000
  0.014208417  -40.158525  -85.781944  -65.857839  122.237244    0.000000    0.000000    0.000000    0.000000
  0.014408818  -39.878947  -77.783386  -66.011450  124.459641    0.000000    0.000000    0.000000    0.000000
  0.014609218  -41.079477  -88.382156  -66.051099  127.896652    0.000000    0.000000    0.000000    0.000000
  0.014809619  -40.791315  -87.512581  -64.993968  133.113663    0.000000    0.000000    0.000000    0.000000
  0.015010020  -39.777736  -80.530716  -65.576726  128.149292    0.000000    0.000000    0.000000    0.000000
  0.015210421  -40.830251  -80.212875  -64.736948  133.163712    0.000000    0.000000    0.000000    0.000000
  0.015410822  -40.167239  -82.954880  -64.299571  140.427521    0.000000    0.000000    0.000000    0.000000
  0.015611222  -40.309163  -73.122894  -63.342007  142.097641    0.000000    0.000000    0.000000    0.000000
  0.015811623  -40.254379  -79.590584  -62.971432  139.752075    0.000000    0.000000    0.000000    0.000000
  0.016012024  -40.179624  -77.043747  -63.423767  137.701950    0.000000    0.000000    0.000000    0.000000
  0.016212425  -41.061053  -72.805626  -63.631326  140.159286    0.000000    0.000000    0.000000    0.000000
  0.016412826  -39.473372  -79.395691  -62.500417  143.527527    0.000000    0.000000    0.000000    0.000000
  0.016613226  -40.740154  -73.977104  -61.720735  146.952896    0.000000    0.000000    0.000000    0.000000
  0.016813627  -40.276268  -70.713554  -61.779861  146.631683    0.000000    0.000000    0.000000    0.000000
  0.017014028  -40.638890  -72.058868  -61.733311  146.294479    0.000000    0.000000    0.000000    0.000000
  0.017214429  -39.887744  -65.831635  -61.627187  143.171875    0.000000    0.000000    0.000000    0.000000
  0.017414830  -41.005994  -68.283302  -61.286843  145.387405    0.000000    0.000000    0.000000    0.000000
  0.017615230  -40.472420  -68.477684  -60.988167  146.269272    0.000000    0.000000    0.000000    0.000000
  0.017815631  -40.189085  -58.042320  -60.694633  147.106506    0.000000    0.000000    0.000000    0.000000
  0.018016032  -40.253202  -66.726227  -59.810902  143.816711    0.000000    0.000000    0.000000    0.000000
  0.018216433  -41.147484  -57.282215  -60.227761  143.072388    0.000000    0.000000    0.000000    0.000000
  0.018416834  -40.440330  -61.322769  -60.568966  143.022202    0.000000    0.000000    0.000000    0.000000
  0.018617234  -40.692475  -62.228821  -61.356398  149.754745    0.000000    0.000000    0.000000    0.000000
  0.018817635  -40.064433  -55.182674  -61.506831  148.631165    0.000000    0.000000    0.000000    0.000000
  0.019018036  -40.441138  -57.613049  -60.995506  155.597412    0.000000    0.000000    0.000000    0.000000
  0.019218437  -41.012276  -55.799053  -62.330606  155.971298    0.000000    0.000000    0.000000    0.000000
  0.019418838  -40.125302  -48.822903  -64.077219  146.699112    0.000000    0.000000    0.000000    0.000000
  0.019619238  -39.255983  -54.056095  -65.157988  166.123856    0.000000    0.000000    0.000000    0.000000
  0.019819639  -40.270640  -50.662476  -63.752257 -175.248734    0.000000    0.000000    0.000000    0.000000
  0.020020040  -40.450065  -55.675541  -65.324814 -160.525848    0.000000    0.000000    0.000000    0.000000
  0.020220441  -40.498522  -51.360199  -65.919142 -132.807388    0.000000    0.000000    0.000000    0.000000
  0.020420842  -40.138156  -50.860287  -62.978247 -117.723694    0.000000    0.000000    0.000000    0.000000
  0.020621242  -40.619307  -50.902386  -59.570412 -105.914543    0.000000    0.000000    0.000000    0.000000
  0.020821643  -40.458841  -49.804962  -56.421605  -99.303741    0.000000    0.000000    0.000000    0.000000
  0.021022044  -39.989971  -48.720810  -54.414786  -95.856850    0.000000    0.000000    0.000000    0.000000
  0.021222445  -40.603113  -46.000137  -51.893635  -94.783112    0.000000    0.000000    0.000000    0.000000
  0.021422846  -39.798602  -40.166679  -49.770479  -95.109695    0.000000    0.000000    0.000000    0.000000
  0.021623246  -40.772364  -46.787285  -47.654366  -96.357147    0.000000    0.000000    0.000000    0.000000
  0.021823647  -41.193523  -45.304550  -45.888669  -98.224823    0.000000    0.000000    0.000000    0.000000
  0.022024048  -40.193512  -37.628838  -43.790492 -101.676292    0.000000    0.000000    0.000000    0.000000
  0.022224449  -41.054548  -36.460617  -42.482569 -104.261345    0.000000    0.000000    0.000000    0.000000
  0.022424850  -39.945548  -35.270035  -41.075612 -104.137566    0.000000    0.000000    0.000000    0.000000
  0.022625251  -40.320045  -32.761715  -39.788929 -106.156868    0.000000    0.000000    0.000000    0.000000
  0.022825651  -39.854862  -35.117695  -38.076692 -109.703018    0.000000    0.000000    0.000000    0.000000
  0.023026052  -39.364155  -31.997561  -36.773372 -112.222923    0.000000    0.000000    0.000000    0.000000
  0.023226453  -41.004686  -33.483646  -35.423681 -114.625221    0.000000    0.000000    0.000000    0.000000
  0.023426854  -40.367460  -36.835972  -33.998504 -118.482101    0.000000    0.000000    0.000000    0.000000
  0.023627255  -40.089633  -29.803814  -32.697238 -121.007034    0.000000    0.000000    0.000000    0.000000
  0.023827655  -40.740517  -22.717518  -31.563757 -123.694221    0.000000    0.000000    0.000000    0.000000
  0.024028056  -41.051208  -30.632854  -30.163038 -126.866806    0.000000    0.000000    0.000000    0.000000
  0.024228457  -40.195749  -35.234795  -28.982312 -130.646484    0.000000    0.000000    0.000000    0.000000
  0.024428858  -40.658383  -27.841267  -27.762236 -133.686783    0.000000    0.000000    0.000000    0.000000
  0.024629259  -40.602351  -21.266254  -26.604571 -137.516129    0.000000    0.000000    0.000000    0.000000
  0.024829659  -40.308707  -21.003067  -25.288117 -140.074020    0.000000    0.000000    0.000000    0.000000
  0.025030060  -40.443526  -17.551640  -24.252967 -144.934952    0.000000    0.000000    0.000000    0.000000
  0.025230461  -41.588547  -21.531822  -23.071688 -149.049133    0.000000    0.000000    0.000000    0.000000
  0.025430862  -39.302352  -17.374647  -21.932255 -154.035355    0.000000    0.000000    0.000000    0.000000
  0.025631263  -40.880238  -17.969843  -20.850552 -159.392059    0.000000    0.000000    0.000000    0.000000
  0.025831663  -42.231891   -9.508774  -19.788068 -165.015152    0.000000    0.000000    0.000000    0.000000
  0.026032064  -40.258810  -17.364756  -18.719312 -170.691864    0.000000    0.000000    0.000000    0.000000
  0.026232465  -39.989275   -9.180249  -17.774816 -176.254166    0.000000    0.000000    0.000000    0.000000
  0.026432866  -41.616541   -7.192327  -16.836712  177.969818    0.000000    0.000000    0.000000    0.000000
  0.026633267  -40.057735  -15.201183  -15.917248  171.351181    0.000000    0.000000    0.000000    0.000000
  0.026833667  -40.057476  -10.814653  -15.000973  165.100723    0.000000    0.000000    0.000000    0.000000
  0.027034068  -39.033074  -12.827085  -14.270673  158.030518    0.000000    0.000000    0.000000    0.000000
  0.027234469  -40.278839  -12.844164  -13.467684  150.152817    0.000000    0.000000    0.000000    0.000000
  0.027434870  -42.034799   -4.280858  -12.848318  143.458405    0.000000    0.000000    0.000000    0.000000
  0.027635271  -40.268164   -2.400937  -12.271163  136.661118    0.000000    0.000000    0.000000    0.000000
  0.027835671  -41.351710   -6.622159  -11.715531  129.215347    0.000000    0.000000    0.000000    0.000000
  0.028036072  -41.605783   -5.692541  -11.324163  122.125900    0.000000    0.000000    0.000000    0.000000
  0.028236473  -40.259099    5.236275  -10.874707  114.820900    0.000000    0.000000    0.000000    0.000000
  0.028436874  -41.828284   -3.869537  -10.586962  108.596039    0.000000    0.000000    0.000000    0.000000
  0.028637275  -40.838545    2.045709  -10.357126  101.064697    0.000000    0.000000    0.000000    0.000000
  0.028837675  -39.863381    5.739776  -10.077352   95.086197    0.000000    0.000000    0.000000    0.000000
  0.029038076  -40.464114    1.350294   -9.950215   88.873421    0.000000    0.000000    0.000000    0.000000
  0.029238477  -41.369197   11.917909   -9.850415   82.649445    0.000000    0.000000    0.000000    0.000000
  0.029438878  -40.495744   10.316837   -9.738485   77.181053    0.000000    0.000000    0.000000    0.000000
  0.029639279  -41.004626    9.826855   -9.585816   71.758324    0.000000    0.000000    0.000000    0.000000
  0.029839679  -39.542554    6.846649   -9.496648   65.879097    0.000000    0.000000    0.000000    0.000000
  0.030040080  -40.796677    9.680700   -9.511927   61.648098    0.000000    0.000000    0.000000    0.000000
  0.030240481  -40.209048   14.690744   -9.430555   56.689827    0.000000    0.000000    0.000000    0.000000
  0.030440882  -40.680778   13.479852   -9.376719   52.779400    0.000000    0.000000    0.000000    0.000000
  0.030641283  -39.618800   16.009600   -9.450479   47.553783    0.000000    0.000000    0.000000    0.000000
  0.030841683  -39.580288   15.146232   -9.322961   43.956696    0.000000    0.000000    0.000000    0.000000
  0.031042084  -39.968110   23.355740   -9.286883   39.967579    0.000000    0.000000    0.000000    0.000000
  0.031242485  -40.166844   22.415831   -9.353255   35.801228    0.000000    0.000000    0.000000    0.000000
  0.031442886  -39.768675   29.971140   -9.322838   31.866053    0.000000    0.000000    0.000000    0.000000
  0.031643287  -40.000782   15.728568   -9.239166   28.423500    0.000000    0.000000    0.000000    0.000000
  0.031843687  -40.179844   25.366257   -9.189606   24.860441    0.000000    0.000000    0.000000    0.000000
  0.032044088  -39.551351   21.268984   -9.247300   20.924643    0.000000    0.000000    0.000000    0.000000
  0.032244489  -40.278999   24.308104   -9.203261   17.650921    0.000000    0.000000    0.000000    0.000000
  0.032444890  -39.864835   29.557877   -9.222336   14.893975    0.000000    0.000000    0.000000    0.000000
  0.032645291  -39.147472   24.271650   -9.210767   11.303377    0.000000    0.000000    0.000000    0.000000
  0.032845691  -40.143626   23.634428   -9.195570    7.990001    0.000000    0.000000    0.000000    0.000000
  0.033046092  -38.594453   35.755463   -9.138250    4.871874    0.000000    0.000000    0.000000    0.000000
  0.033246493  -39.518211   35.941349   -9.155227    1.825139    0.000000    0.000000    0.000000    0.000000
  0.033446894  -39.998606   33.989105   -9.189827   -0.924555    0.000000    0.000000    0.000000    0.000000
  0.033647295  -39.958092   33.179726   -9.198965   -3.826769    0.000000    0.000000    0.000000    0.000000
  0.033847695  -39.916054   40.441132   -9.163911   -6.425931    0.000000    0.000000    0.000000    0.000000
  0.034048096  -39.541577   38.204472   -9.167080   -9.249531    0.000000    0.000000    0.000000    0.000000
  0.034248497  -38.781147   41.109661   -9.152962  -11.859686    0.000000    0.000000    0.000000    0.000000
  0.034448898  -39.015521   43.559151   -9.161342  -14.765590    0.000000    0.000000    0.000000    0.000000
  0.034649299  -40.882439   43.586830   -9.174697  -17.765730    0.000000    0.000000    0.000000    0.000000
  0.034849699  -39.747899   35.540314   -9.155399  -20.309874    0.000000    0.000000    0.000000    0.000000
  0.035050100  -39.031154   37.355564   -9.176868  -22.717924    0.000000    0.000000    0.000000    0.000000
  0.035250501  -39.688488   44.422401   -9.133688  -24.768738    0.000000    0.000000    0.000000    0.000000
  0.035450902  -39.502144   38.862118   -9.129559  -27.729753    0.000000    0.000000    0.000000    0.000000
  0.035651303  -39.764773   43.507538   -9.208386  -29.920555    0.000000    0.000000    0.000000    0.000000
  0.035851703  -39.591389   43.451820   -9.158501  -32.011726    0.000000    0.000000    0.000000    0.000000
  0.036052104  -39.770499   44.642429   -9.148512  -34.395115    0.000000    0.000000    0.000000    0.000000
  0.036252505  -39.729516   48.056225   -9.129538  -36.831875    0.000000    0.000000    0.000000    0.000000
  0.036452906  -39.177513   51.748981   -9.134523  -38.792919    0.000000    0.000000    0.000000    0.000000
  0.036653307  -39.545956   55.432533   -9.194509  -41.361435    0.000000    0.000000    0.000000    0.000000
  0.036853707  -39.489162   53.722324   -9.110623  -43.430920    0.000000    0.000000    0.000000    0.000000
  0.037054108  -39.909570   46.575356   -9.173646  -45.447449    0.000000    0.000000    0.000000    0.000000
  0.037254509  -39.287156   60.078377   -9.153009  -47.654461    0.000000    0.000000    0.000000    0.000000
  0.037454910  -39.949072   52.977390   -9.128760  -49.356327    0.000000    0.000000    0.000000    0.000000
  0.037655311  -39.556953   54.620941   -9.224666  -51.786911    0.000000    0.000000    0.000000    0.000000
  0.037855711  -39.363464   58.874214   -9.218710  -53.582191    0.000000    0.000000    0.000000    0.000000
  0.038056112  -39.042976   55.521580   -9.239935  -55.955414    0.000000    0.000000    0.000000    0.000000
  0.038256513  -39.187622   61.817554   -9.183810  -57.335995    0.000000    0.000000    0.000000    0.000000
  0.038456914  -39.882243   62.732365   -9.193349  -59.716896    0.000000    0.000000    0.000000    0.000000
  0.038657315  -40.268289   65.355034   -9.190502  -61.393742    0.000000    0.000000    0.000000    0.000000
  0.038857715  -39.345597   67.002739   -9.182260  -63.384872    0.000000    0.000000    0.000000    0.000000
  0.039058116  -39.695404   62.735962   -9.190997  -65.510620    0.000000    0.000000    0.000000    0.000000
  0.039258517  -39.807301   68.493134   -9.144033  -67.180855    0.000000    0.000000    0.000000    0.000000
  0.039458918  -40.605470   68.048828   -9.170733  -68.966789    0.000000    0.000000    0.000000    0.000000
  0.039659319  -40.554643   68.811050   -9.176817  -71.214104    0.000000    0.000000    0.000000    0.000000
  0.039859719  -39.802600   69.820793   -9.213094  -72.492485    0.000000    0.000000    0.000000    0.000000
  0.040060120  -39.898333   67.656334   -9.183068  -74.585930    0.000000    0.000000    0.000000    0.000000
  0.040260521  -39.275375   70.210678   -9.225916  -76.139091    0.000000    0.000000    0.000000    0.000000
  0.040460922  -40.568726   76.778831   -9.185273  -77.524239    0.000000    0.000000    0.000000    0.000000
  0.040661323  -39.797605   73.988091   -9.257480  -79.636894    0.000000    0.000000    0.000000    0.000000
  0.040861723  -40.061073   75.550514   -9.238592  -81.465248    0.000000    0.000000    0.000000    0.000000
  0.041062124  -39.181347   80.793404   -9.235932  -83.082787    0.000000    0.000000    0.000000    0.000000
  0.041262525  -40.507090   76.939911   -9.174655  -84.390854    0.000000    0.000000    0.000000    0.000000
  0.041462926  -39.946639   72.256393   -9.244831  -86.249374    0.000000    0.000000    0.000000    0.000000
  0.041663327  -39.449450   78.430779   -9.245913  -87.801559    0.000000    0.000000    0.000000    0.000000
  0.041863727  -40.276978   87.609718   -9.267428  -89.571877    0.000000    0.000000    0.000000    0.000000
  0.042064128  -40.518577   86.505127   -9.277113  -91.132584    0.000000    0.000000    0.000000    0.000000
  0.042264529  -39.243968   83.367203   -9.195016  -92.712936    0.000000    0.000000    0.000000    0.000000
  0.042464930  -39.332047   84.514832   -9.236882  -94.358826    0.000000    0.000000    0.000000    0.000000
  0.042665331  -39.718789   83.917221   -9.197092  -95.800522    0.000000    0.000000    0.000000    0.000000
  0.042865731  -40.332087   87.412010   -9.177957  -97.838402    0.000000    0.000000    0.000000    0.000000
