! Anritsu VNA Master:                 Model: MS2034B/10/19/501
! SN:                                  1337062
! /bd0/ovro-jan-2016/dcp-d2-s22-v2.s2p
! Existing Calibration Information:
! TYPE:                         Current Settings,       Active Cal Settings
! TIME:             	   01/09/2016 02:28:27 PM,    01/09/2016 12:40:35 PM
! INTERNAL TEMP:    	                   41.0 C,                    41.8 C
! # POINTS:         	                      500,                       500
! START FREQ:       	               10.000 MHz,                10.000 MHz
! STOP FREQ:        	              110.000 MHz,               110.000 MHz
! SOURCE POWER:     	                      Low,                       Low
! IFBW:             	                   100 Hz,                    100 Hz
! AVG FACTOR:       	                       3 ,                        3 
! REF PLANE 1:      	                 2.2245 m,                  2.2245 m
! REF PLANE 2:      	                     0 mm,                      0 mm
! CAL TYPE:         	             1P2P S11,S21,              1P2P S11,S21
! CAL METHOD:       	                     SOLT,                      SOLT
! CAL LINE TYPE:    	                     Coax,                      Coax
! DUT PORT 1:       	                K-Conn(M),                 K-Conn(M)
! DUT PORT 2:       	                N-Conn(M),                 N-Conn(M)
! CAL STATUS:       	        OK: Accuracy High,                        --
# GHZ S DB R 50.0
! FREQ.GHZ       S11DB        S11A       S21DB        S21A       S12DB        S12A       S22DB        S22A
  0.010000000  -23.311261  154.852844  -65.991829   79.321236    0.000000    0.000000    0.000000    0.000000
  0.010200401  -23.440450  157.944656  -68.119515   78.273888    0.000000    0.000000    0.000000    0.000000
  0.010400802  -23.937357  159.171463  -66.709890   87.639580    0.000000    0.000000    0.000000    0.000000
  0.010601202  -23.800982  162.324417  -66.300988   81.815964    0.000000    0.000000    0.000000    0.000000
  0.010801603  -24.163850  162.562378  -67.121028   86.760971    0.000000    0.000000    0.000000    0.000000
  0.011002004  -24.203853  166.906403  -65.869423   79.344131    0.000000    0.000000    0.000000    0.000000
  0.011202405  -24.451278  167.809219  -65.576573   82.813568    0.000000    0.000000    0.000000    0.000000
  0.011402806  -24.687116  170.991806  -65.988826   95.196335    0.000000    0.000000    0.000000    0.000000
  0.011603206  -24.781540  173.961929  -66.925701   98.994484    0.000000    0.000000    0.000000    0.000000
  0.011803607  -25.006293  175.726898  -65.880246  107.833458    0.000000    0.000000    0.000000    0.000000
  0.012004008  -25.062313  176.739990  -65.776130   98.594398    0.000000    0.000000    0.000000    0.000000
  0.012204409  -25.097199  179.291275  -66.525485   91.613319    0.000000    0.000000    0.000000    0.000000
  0.012404810  -25.191565 -178.539047  -65.641166   97.179268    0.000000    0.000000    0.000000    0.000000
  0.012605210  -25.235961 -176.758911  -66.782247  112.234871    0.000000    0.000000    0.000000    0.000000
  0.012805611  -25.481280 -173.681458  -67.200515  108.856483    0.000000    0.000000    0.000000    0.000000
  0.013006012  -25.500839 -172.342987  -66.875652  104.489517    0.000000    0.000000    0.000000    0.000000
  0.013206413  -25.428337 -170.695557  -66.284204   97.712387    0.000000    0.000000    0.000000    0.000000
  0.013406814  -25.579688 -168.730179  -65.626225  103.008308    0.000000    0.000000    0.000000    0.000000
  0.013607214  -25.456408 -165.412994  -66.568272  102.592163    0.000000    0.000000    0.000000    0.000000
  0.013807615  -25.421697 -163.049896  -66.194774  111.470657    0.000000    0.000000    0.000000    0.000000
  0.014008016  -25.171543 -161.799789  -65.557576  108.034904    0.000000    0.000000    0.000000    0.000000
  0.014208417  -25.533139 -160.895569  -65.881517  116.800415    0.000000    0.000000    0.000000    0.000000
  0.014408818  -25.605972 -158.410309  -67.560263  104.645554    0.000000    0.000000    0.000000    0.000000
  0.014609218  -25.430491 -155.365921  -66.462208  109.805367    0.000000    0.000000    0.000000    0.000000
  0.014809619  -25.384200 -156.281128  -66.696766  107.620644    0.000000    0.000000    0.000000    0.000000
  0.015010020  -25.130913 -152.632156  -66.904898  114.127029    0.000000    0.000000    0.000000    0.000000
  0.015210421  -25.323360 -152.506241  -66.857967  127.669937    0.000000    0.000000    0.000000    0.000000
  0.015410822  -25.328692 -149.761490  -66.998277  125.576607    0.000000    0.000000    0.000000    0.000000
  0.015611222  -25.263382 -149.044556  -67.158966  124.944870    0.000000    0.000000    0.000000    0.000000
  0.015811623  -25.238108 -147.531967  -66.759456  133.709549    0.000000    0.000000    0.000000    0.000000
  0.016012024  -25.125248 -146.521133  -65.668425  125.668747    0.000000    0.000000    0.000000    0.000000
  0.016212425  -25.097694 -144.636948  -65.500801  121.029289    0.000000    0.000000    0.000000    0.000000
  0.016412826  -24.902385 -146.104095  -67.435408  125.771103    0.000000    0.000000    0.000000    0.000000
  0.016613226  -25.052382 -143.455902  -67.702607  125.901871    0.000000    0.000000    0.000000    0.000000
  0.016813627  -25.007625 -141.679291  -66.437371  137.507111    0.000000    0.000000    0.000000    0.000000
  0.017014028  -24.974009 -141.126083  -67.780840  133.348068    0.000000    0.000000    0.000000    0.000000
  0.017214429  -24.618293 -139.986130  -67.475539  136.067429    0.000000    0.000000    0.000000    0.000000
  0.017414830  -24.850719 -139.144699  -66.122893  134.468216    0.000000    0.000000    0.000000    0.000000
  0.017615230  -24.731221 -138.940918  -66.754706  138.964584    0.000000    0.000000    0.000000    0.000000
  0.017815631  -24.679641 -137.930466  -66.711842  137.090607    0.000000    0.000000    0.000000    0.000000
  0.018016032  -24.721866 -136.744370  -68.813163  137.726501    0.000000    0.000000    0.000000    0.000000
  0.018216433  -24.713226 -137.297501  -68.022116  139.890976    0.000000    0.000000    0.000000    0.000000
  0.018416834  -24.669662 -136.704712  -67.959286  145.139725    0.000000    0.000000    0.000000    0.000000
  0.018617234  -24.434847 -135.086884  -66.162949  150.952377    0.000000    0.000000    0.000000    0.000000
  0.018817635  -24.478168 -134.546448  -67.912529  143.203964    0.000000    0.000000    0.000000    0.000000
  0.019018036  -24.566414 -132.823822  -67.164111  152.536423    0.000000    0.000000    0.000000    0.000000
  0.019218437  -24.484732 -132.744858  -67.628892  154.132294    0.000000    0.000000    0.000000    0.000000
  0.019418838  -24.705074 -133.257401  -66.974198  150.445450    0.000000    0.000000    0.000000    0.000000
  0.019619238  -24.674329 -132.765289  -66.557376  154.897980    0.000000    0.000000    0.000000    0.000000
  0.019819639  -24.520197 -132.582596  -65.467391  149.256195    0.000000    0.000000    0.000000    0.000000
  0.020020040  -24.650645 -132.782028  -67.373011  147.619034    0.000000    0.000000    0.000000    0.000000
  0.020220441  -24.450591 -132.102600  -68.886346  168.038452    0.000000    0.000000    0.000000    0.000000
  0.020420842  -24.553383 -131.537827  -67.415643  164.727524    0.000000    0.000000    0.000000    0.000000
  0.020621242  -24.599626 -130.773773  -66.731183  164.959579    0.000000    0.000000    0.000000    0.000000
  0.020821643  -24.605035 -130.506561  -65.740312  171.492783    0.000000    0.000000    0.000000    0.000000
  0.021022044  -24.579817 -130.201157  -67.741363  173.314682    0.000000    0.000000    0.000000    0.000000
  0.021222445  -24.678571 -130.485199  -68.330944  172.177521    0.000000    0.000000    0.000000    0.000000
  0.021422846  -24.553826 -130.032623  -67.703924 -178.318497    0.000000    0.000000    0.000000    0.000000
  0.021623246  -24.602970 -129.070465  -66.470070  172.033981    0.000000    0.000000    0.000000    0.000000
  0.021823647  -24.733015 -129.223648  -68.631727  168.167740    0.000000    0.000000    0.000000    0.000000
  0.022024048  -24.854855 -128.979858  -67.156263 -179.743210    0.000000    0.000000    0.000000    0.000000
  0.022224449  -24.962439 -130.112457  -66.896234  175.063354    0.000000    0.000000    0.000000    0.000000
  0.022424850  -25.089232 -129.482758  -68.486332  169.807678    0.000000    0.000000    0.000000    0.000000
  0.022625251  -24.816419 -129.134109  -67.836028  179.780319    0.000000    0.000000    0.000000    0.000000
  0.022825651  -25.120582 -129.767273  -65.281624 -176.870468    0.000000    0.000000    0.000000    0.000000
  0.023026052  -25.132564 -130.000778  -67.526559  176.269043    0.000000    0.000000    0.000000    0.000000
  0.023226453  -25.463136 -130.455734  -66.501955 -175.548859    0.000000    0.000000    0.000000    0.000000
  0.023426854  -25.433422 -130.180496  -66.078297 -178.280426    0.000000    0.000000    0.000000    0.000000
  0.023627255  -25.341005 -130.864822  -67.325107 -168.186508    0.000000    0.000000    0.000000    0.000000
  0.023827655  -25.602943 -130.049698  -67.043263 -174.736374    0.000000    0.000000    0.000000    0.000000
  0.024028056  -25.823284 -131.149551  -70.386452 -165.510345    0.000000    0.000000    0.000000    0.000000
  0.024228457  -26.006184 -130.725235  -67.958410 -167.692093    0.000000    0.000000    0.000000    0.000000
  0.024428858  -25.887645 -129.263504  -67.770780 -175.140961    0.000000    0.000000    0.000000    0.000000
  0.024629259  -26.292430 -130.976410  -66.415823 -167.032532    0.000000    0.000000    0.000000    0.000000
  0.024829659  -26.245721 -133.937454  -65.412200 -129.876144    0.000000    0.000000    0.000000    0.000000
  0.025030060  -26.754195 -131.669998  -66.256374 -140.027832    0.000000    0.000000    0.000000    0.000000
  0.025230461  -27.057821 -132.944366  -65.527003 -133.950409    0.000000    0.000000    0.000000    0.000000
  0.025430862  -26.873026 -132.932373  -67.028554 -132.417038    0.000000    0.000000    0.000000    0.000000
  0.025631263  -27.707912 -133.996643  -65.934389 -131.060989    0.000000    0.000000    0.000000    0.000000
  0.025831663  -27.770608 -136.019547  -64.672572 -137.395844    0.000000    0.000000    0.000000    0.000000
  0.026032064  -27.832191 -135.447205  -66.919000 -132.858093    0.000000    0.000000    0.000000    0.000000
  0.026232465  -28.701321 -133.322159  -64.871562 -138.650543    0.000000    0.000000    0.000000    0.000000
  0.026432866  -28.606272 -136.100693  -66.202535 -142.174561    0.000000    0.000000    0.000000    0.000000
  0.026633267  -29.547692 -132.619034  -66.303106 -121.774483    0.000000    0.000000    0.000000    0.000000
  0.026833667  -29.841495 -136.896667  -67.069384 -113.446922    0.000000    0.000000    0.000000    0.000000
  0.027034068  -30.466659 -133.690979  -65.391718 -128.002686    0.000000    0.000000    0.000000    0.000000
  0.027234469  -31.135662 -137.186188  -66.354653 -132.783066    0.000000    0.000000    0.000000    0.000000
  0.027434870  -32.229482 -134.118423  -66.266442 -128.956924    0.000000    0.000000    0.000000    0.000000
  0.027635271  -32.454248 -128.629059  -65.532034 -119.739426    0.000000    0.000000    0.000000    0.000000
  0.027835671  -33.031339 -127.167961  -65.537847 -123.612808    0.000000    0.000000    0.000000    0.000000
  0.028036072  -33.744316 -125.604584  -66.309457 -112.953888    0.000000    0.000000    0.000000    0.000000
  0.028236473  -34.175329 -116.437965  -65.932267 -125.380775    0.000000    0.000000    0.000000    0.000000
  0.028436874  -33.910760 -109.863754  -66.076494 -117.685646    0.000000    0.000000    0.000000    0.000000
  0.028637275  -34.931964 -104.826523  -66.292271 -114.956276    0.000000    0.000000    0.000000    0.000000
  0.028837675  -34.038664 -102.190361  -65.927893 -113.854935    0.000000    0.000000    0.000000    0.000000
  0.029038076  -35.397315 -103.334549  -64.624845 -109.319702    0.000000    0.000000    0.000000    0.000000
  0.029238477  -35.115093  -94.664246  -68.667527  -99.634720    0.000000    0.000000    0.000000    0.000000
  0.029438878  -33.733509  -89.502647  -66.994910 -103.929474    0.000000    0.000000    0.000000    0.000000
  0.029639279  -34.134053  -88.662781  -65.812227 -118.628777    0.000000    0.000000    0.000000    0.000000
  0.029839679  -33.982319  -83.798935  -66.117339  -96.990028    0.000000    0.000000    0.000000    0.000000
  0.030040080  -33.758841  -84.945930  -65.864088 -104.909431    0.000000    0.000000    0.000000    0.000000
  0.030240481  -33.744737  -83.300690  -65.303745 -103.197266    0.000000    0.000000    0.000000    0.000000
  0.030440882  -33.859955  -82.577003  -65.000471  -85.685097    0.000000    0.000000    0.000000    0.000000
  0.030641283  -33.618391  -76.909683  -66.170474  -91.427635    0.000000    0.000000    0.000000    0.000000
  0.030841683  -33.759602  -74.646690  -65.975202 -101.323669    0.000000    0.000000    0.000000    0.000000
  0.031042084  -33.206230  -75.994194  -65.611635  -96.092209    0.000000    0.000000    0.000000    0.000000
  0.031242485  -33.605712  -77.867874  -66.862842  -96.315681    0.000000    0.000000    0.000000    0.000000
  0.031442886  -33.509930  -71.282112  -67.566151  -91.676300    0.000000    0.000000    0.000000    0.000000
  0.031643287  -33.193863  -75.543617  -67.899204  -86.554634    0.000000    0.000000    0.000000    0.000000
  0.031843687  -33.488492  -71.739639  -66.838160  -88.329292    0.000000    0.000000    0.000000    0.000000
  0.032044088  -33.524208  -71.352058  -67.239467  -93.744995    0.000000    0.000000    0.000000    0.000000
  0.032244489  -33.555449  -73.118164  -66.898283  -93.643089    0.000000    0.000000    0.000000    0.000000
  0.032444890  -33.616377  -69.560555  -68.045135  -80.524307    0.000000    0.000000    0.000000    0.000000
  0.032645291  -33.633310  -68.734283  -67.048504  -84.699852    0.000000    0.000000    0.000000    0.000000
  0.032845691  -33.941871  -69.270226  -65.756058  -85.314621    0.000000    0.000000    0.000000    0.000000
  0.033046092  -33.856747  -68.384827  -68.144785  -82.258797    0.000000    0.000000    0.000000    0.000000
  0.033246493  -34.300164  -66.346695  -67.251977  -75.200119    0.000000    0.000000    0.000000    0.000000
  0.033446894  -33.729048  -68.473434  -66.633905  -72.041245    0.000000    0.000000    0.000000    0.000000
  0.033647295  -33.642315  -65.897827  -65.779534  -84.772369    0.000000    0.000000    0.000000    0.000000
  0.033847695  -33.954817  -68.120529  -67.176834  -66.610458    0.000000    0.000000    0.000000    0.000000
  0.034048096  -34.166878  -62.750130  -67.647571  -68.737999    0.000000    0.000000    0.000000    0.000000
  0.034248497  -34.757168  -69.207741  -67.669669  -61.005024    0.000000    0.000000    0.000000    0.000000
  0.034448898  -34.581768  -63.497429  -66.452193  -66.160744    0.000000    0.000000    0.000000    0.000000
  0.034649299  -34.373149  -62.914661  -65.876785  -66.909760    0.000000    0.000000    0.000000    0.000000
  0.034849699  -33.996541  -62.711845  -67.944708  -67.107185    0.000000    0.000000    0.000000    0.000000
  0.035050100  -34.408143  -64.905045  -67.006216  -62.907333    0.000000    0.000000    0.000000    0.000000
  0.035250501  -34.599812  -57.826595  -65.907815  -58.230663    0.000000    0.000000    0.000000    0.000000
  0.035450902  -34.752291  -60.548985  -66.631715  -63.777546    0.000000    0.000000    0.000000    0.000000
  0.035651303  -34.795075  -59.140648  -66.898965  -63.975765    0.000000    0.000000    0.000000    0.000000
  0.035851703  -34.899610  -57.156597  -66.974931  -67.621429    0.000000    0.000000    0.000000    0.000000
  0.036052104  -35.273199  -50.452625  -66.594487  -56.594967    0.000000    0.000000    0.000000    0.000000
  0.036252505  -35.677311  -55.353325  -67.450919  -46.123634    0.000000    0.000000    0.000000    0.000000
  0.036452906  -35.608537  -51.102016  -67.653906  -60.196724    0.000000    0.000000    0.000000    0.000000
  0.036653307  -36.318975  -50.169403  -66.486051  -56.566147    0.000000    0.000000    0.000000    0.000000
  0.036853707  -35.597114  -50.893734  -65.760531  -59.421669    0.000000    0.000000    0.000000    0.000000
  0.037054108  -35.710825  -48.182846  -67.117623  -47.605370    0.000000    0.000000    0.000000    0.000000
  0.037254509  -36.278113  -48.051327  -67.026974  -39.620880    0.000000    0.000000    0.000000    0.000000
  0.037454910  -36.188376  -46.248528  -66.968185  -44.966385    0.000000    0.000000    0.000000    0.000000
  0.037655311  -35.774520  -47.778301  -66.132224  -55.696095    0.000000    0.000000    0.000000    0.000000
  0.037855711  -36.342284  -46.046383  -68.338958  -37.947277    0.000000    0.000000    0.000000    0.000000
  0.038056112  -36.570389  -46.235867  -67.089121  -41.147949    0.000000    0.000000    0.000000    0.000000
  0.038256513  -36.915252  -41.125237  -67.927382  -39.414730    0.000000    0.000000    0.000000    0.000000
  0.038456914  -37.202040  -45.331238  -66.748733  -43.411194    0.000000    0.000000    0.000000    0.000000
  0.038657315  -37.574156  -40.939835  -68.496963  -44.745579    0.000000    0.000000    0.000000    0.000000
  0.038857715  -36.256702  -43.626522  -67.882269  -46.793789    0.000000    0.000000    0.000000    0.000000
  0.039058116  -36.719149  -39.653316  -68.219682  -34.486595    0.000000    0.000000    0.000000    0.000000
  0.039258517  -36.995135  -34.696438  -67.563020  -30.248104    0.000000    0.000000    0.000000    0.000000
  0.039458918  -37.042413  -35.604252  -67.087900  -38.909744    0.000000    0.000000    0.000000    0.000000
  0.039659319  -36.909133  -36.259014  -67.203648  -28.464611    0.000000    0.000000    0.000000    0.000000
  0.039859719  -37.346171  -33.228592  -67.614370  -20.904816    0.000000    0.000000    0.000000    0.000000
  0.040060120  -37.713821  -29.858007  -67.294052  -34.664295    0.000000    0.000000    0.000000    0.000000
  0.040260521  -37.671414  -31.244537  -68.029551  -20.684111    0.000000    0.000000    0.000000    0.000000
  0.040460922  -37.928574  -32.189022  -67.254734  -27.070114    0.000000    0.000000    0.000000    0.000000
  0.040661323  -38.328263  -32.518356  -68.332010  -24.206377    0.000000    0.000000    0.000000    0.000000
  0.040861723  -38.289011  -27.825911  -67.095136  -24.475937    0.000000    0.000000    0.000000    0.000000
  0.041062124  -38.801704  -30.030249  -67.119220  -19.092928    0.000000    0.000000    0.000000    0.000000
  0.041262525  -38.033377  -28.912054  -67.217126  -21.225971    0.000000    0.000000    0.000000    0.000000
  0.041462926  -37.962523  -24.839481  -67.886909  -13.570747    0.000000    0.000000    0.000000    0.000000
  0.041663327  -38.284728  -27.239006  -68.003711  -20.263376    0.000000    0.000000    0.000000    0.000000
  0.041863727  -39.007090  -27.196793  -67.461020  -11.413839    0.000000    0.000000    0.000000    0.000000
  0.042064128  -38.431438  -23.121122  -67.630337  -13.807287    0.000000    0.000000    0.000000    0.000000
  0.042264529  -38.780456  -24.569397  -66.380091  -13.953746    0.000000    0.000000    0.000000    0.000000
  0.042464930  -38.321321  -20.152592  -66.960045   -9.437755    0.000000    0.000000    0.000000    0.000000
  0.042665331  -39.810441  -18.305946  -66.673684   -5.441579    0.000000    0.000000    0.000000    0.000000
  0.042865731  -39.870766  -24.134867  -66.838400   -1.991436    0.000000    0.000000    0.000000    0.000000
