! Anritsu VNA Master:                 Model: MS2034B/10/19/501
! SN:                                  1337062
! /bd0/ovro-jan-2016/dcp-a2-s21-40db.s2p
! Existing Calibration Information:
! TYPE:                         Current Settings,       Active Cal Settings
! TIME:             	   01/10/2016 03:52:21 PM,    01/10/2016 03:13:30 PM
! INTERNAL TEMP:    	                   42.8 C,                    45.8 C
! # POINTS:         	                      500,                       500
! START FREQ:       	               10.000 MHz,                10.000 MHz
! STOP FREQ:        	              110.000 MHz,               110.000 MHz
! SOURCE POWER:     	                      Low,                       Low
! IFBW:             	                   100 Hz,                    100 Hz
! AVG FACTOR:       	                       3 ,                        3 
! REF PLANE 1:      	                 2.2245 m,                  2.2245 m
! REF PLANE 2:      	                     0 mm,                      0 mm
! CAL TYPE:         	             1P2P S11,S21,              1P2P S11,S21
! CAL METHOD:       	                     SOLT,                      SOLT
! CAL LINE TYPE:    	                     Coax,                      Coax
! DUT PORT 1:       	                K-Conn(M),                 K-Conn(M)
! DUT PORT 2:       	                N-Conn(M),                 N-Conn(M)
! CAL STATUS:       	        OK: Accuracy High,                        --
# GHZ S DB R 50.0
! FREQ.GHZ       S11DB        S11A       S21DB        S21A       S12DB        S12A       S22DB        S22A
  0.010000000  -41.581324 -114.249664  -62.590882   79.957924    0.000000    0.000000    0.000000    0.000000
  0.010200401  -39.804842 -116.634758  -62.683004   85.104256    0.000000    0.000000    0.000000    0.000000
  0.010400802  -41.076804 -106.652351  -64.511431   99.696602    0.000000    0.000000    0.000000    0.000000
  0.010601202  -40.514462 -111.938698  -63.015519  100.844818    0.000000    0.000000    0.000000    0.000000
  0.010801603  -41.126109 -107.802940  -62.394358  105.260773    0.000000    0.000000    0.000000    0.000000
  0.011002004  -41.154636  -98.370819  -63.736938   97.456696    0.000000    0.000000    0.000000    0.000000
  0.011202405  -40.655803 -102.153107  -64.919282   96.654221    0.000000    0.000000    0.000000    0.000000
  0.011402806  -40.758628  -96.457184  -63.546677  105.441788    0.000000    0.000000    0.000000    0.000000
  0.011603206  -40.734236 -103.871506  -63.242662   95.397324    0.000000    0.000000    0.000000    0.000000
  0.011803607  -40.820128  -94.727707  -63.317666   97.268150    0.000000    0.000000    0.000000    0.000000
  0.012004008  -40.678633 -105.890823  -64.890932  101.485985    0.000000    0.000000    0.000000    0.000000
  0.012204409  -41.181077 -103.434875  -64.783909   94.426949    0.000000    0.000000    0.000000    0.000000
  0.012404810  -40.184946 -101.857361  -63.984306   95.488937    0.000000    0.000000    0.000000    0.000000
  0.012605210  -41.166460  -97.223450  -64.252710   93.787476    0.000000    0.000000    0.000000    0.000000
  0.012805611  -40.047439 -100.968742  -65.764210   98.761978    0.000000    0.000000    0.000000    0.000000
  0.013006012  -42.321653  -95.788383  -65.588062   98.363808    0.000000    0.000000    0.000000    0.000000
  0.013206413  -40.500055  -92.084824  -64.171604  105.684486    0.000000    0.000000    0.000000    0.000000
  0.013406814  -40.757696  -93.551994  -64.887030  109.044983    0.000000    0.000000    0.000000    0.000000
  0.013607214  -39.968015  -95.388954  -65.224305  105.334274    0.000000    0.000000    0.000000    0.000000
  0.013807615  -40.537859  -88.689148  -64.426667   93.047424    0.000000    0.000000    0.000000    0.000000
  0.014008016  -40.152439  -95.261429  -66.831615  112.334435    0.000000    0.000000    0.000000    0.000000
  0.014208417  -41.649093  -94.432671  -66.369325  117.995522    0.000000    0.000000    0.000000    0.000000
  0.014408818  -40.091874  -87.454491  -67.139287  120.122154    0.000000    0.000000    0.000000    0.000000
  0.014609218  -40.832259  -87.083427  -66.015136  124.538872    0.000000    0.000000    0.000000    0.000000
  0.014809619  -39.857167  -82.156693  -64.380295  120.709465    0.000000    0.000000    0.000000    0.000000
  0.015010020  -40.554461  -86.857162  -65.979101  127.272430    0.000000    0.000000    0.000000    0.000000
  0.015210421  -40.203673  -81.617691  -65.640832  134.140732    0.000000    0.000000    0.000000    0.000000
  0.015410822  -39.321919  -84.054916  -64.561618  137.638443    0.000000    0.000000    0.000000    0.000000
  0.015611222  -40.937170  -82.880684  -65.634593  141.636810    0.000000    0.000000    0.000000    0.000000
  0.015811623  -40.453845  -80.586113  -65.020304  138.025452    0.000000    0.000000    0.000000    0.000000
  0.016012024  -40.126622  -79.701920  -64.161812  131.050262    0.000000    0.000000    0.000000    0.000000
  0.016212425  -40.292061  -78.238754  -63.360613  137.008774    0.000000    0.000000    0.000000    0.000000
  0.016412826  -40.149242  -71.511452  -62.744475  149.777954    0.000000    0.000000    0.000000    0.000000
  0.016613226  -40.460477  -73.773308  -63.369162  149.464951    0.000000    0.000000    0.000000    0.000000
  0.016813627  -38.534894  -65.608185  -62.280723  143.904434    0.000000    0.000000    0.000000    0.000000
  0.017014028  -40.188265  -73.781044  -62.255043  147.153870    0.000000    0.000000    0.000000    0.000000
  0.017214429  -39.428663  -74.938278  -61.821557  143.106018    0.000000    0.000000    0.000000    0.000000
  0.017414830  -39.404826  -70.959183  -61.937134  145.050446    0.000000    0.000000    0.000000    0.000000
  0.017615230  -39.894481  -71.434029  -59.951874  146.115021    0.000000    0.000000    0.000000    0.000000
  0.017815631  -40.309710  -71.217575  -61.082060  152.730179    0.000000    0.000000    0.000000    0.000000
  0.018016032  -39.845841  -66.341751  -59.960411  147.365402    0.000000    0.000000    0.000000    0.000000
  0.018216433  -40.205971  -61.250343  -60.843191  150.835678    0.000000    0.000000    0.000000    0.000000
  0.018416834  -40.998235  -70.526802  -60.426804  150.071625    0.000000    0.000000    0.000000    0.000000
  0.018617234  -39.943334  -62.972008  -60.272201  145.922699    0.000000    0.000000    0.000000    0.000000
  0.018817635  -40.977854  -65.461189  -60.567311  145.785110    0.000000    0.000000    0.000000    0.000000
  0.019018036  -40.930501  -61.748013  -60.701809  151.962769    0.000000    0.000000    0.000000    0.000000
  0.019218437  -40.418387  -64.193291  -60.227206  155.209854    0.000000    0.000000    0.000000    0.000000
  0.019418838  -39.781329  -56.136734  -62.427922  151.081619    0.000000    0.000000    0.000000    0.000000
  0.019619238  -40.025379  -56.306332  -62.493247  162.067200    0.000000    0.000000    0.000000    0.000000
  0.019819639  -40.374837  -60.169342  -63.389883  165.502716    0.000000    0.000000    0.000000    0.000000
  0.020020040  -40.418844  -48.116241  -63.274618  177.961441    0.000000    0.000000    0.000000    0.000000
  0.020220441  -39.090616  -51.435089  -63.766155 -159.808533    0.000000    0.000000    0.000000    0.000000
  0.020420842  -40.290279  -51.491161  -63.599524 -134.797470    0.000000    0.000000    0.000000    0.000000
  0.020621242  -39.849003  -41.843304  -61.279209 -119.365944    0.000000    0.000000    0.000000    0.000000
  0.020821643  -39.559830  -48.747414  -59.010728 -102.445572    0.000000    0.000000    0.000000    0.000000
  0.021022044  -39.538331  -50.090229  -56.084499  -99.500916    0.000000    0.000000    0.000000    0.000000
  0.021222445  -39.061481  -44.614384  -53.013818  -95.468430    0.000000    0.000000    0.000000    0.000000
  0.021422846  -39.909891  -38.959805  -50.916110  -93.074249    0.000000    0.000000    0.000000    0.000000
  0.021623246  -40.456679  -45.865589  -48.935306  -90.742249    0.000000    0.000000    0.000000    0.000000
  0.021823647  -40.459721  -42.209564  -46.946529  -93.739464    0.000000    0.000000    0.000000    0.000000
  0.022024048  -39.018804  -39.872864  -45.014788  -96.266899    0.000000    0.000000    0.000000    0.000000
  0.022224449  -39.542653  -37.771130  -43.101465  -98.217880    0.000000    0.000000    0.000000    0.000000
  0.022424850  -39.609863  -40.811447  -41.662373 -100.111771    0.000000    0.000000    0.000000    0.000000
  0.022625251  -40.374304  -40.998672  -40.316767 -101.124504    0.000000    0.000000    0.000000    0.000000
  0.022825651  -39.750714  -34.902756  -38.882877 -102.915283    0.000000    0.000000    0.000000    0.000000
  0.023026052  -39.724272  -37.224491  -37.017237 -105.546410    0.000000    0.000000    0.000000    0.000000
  0.023226453  -39.508666  -33.486931  -35.809720 -107.309372    0.000000    0.000000    0.000000    0.000000
  0.023426854  -39.948351  -38.185974  -34.215112 -111.110809    0.000000    0.000000    0.000000    0.000000
  0.023627255  -40.278123  -34.049816  -33.069611 -112.854591    0.000000    0.000000    0.000000    0.000000
  0.023827655  -40.362691  -33.048218  -31.696002 -115.909622    0.000000    0.000000    0.000000    0.000000
  0.024028056  -39.515881  -25.712454  -30.383193 -119.218956    0.000000    0.000000    0.000000    0.000000
  0.024228457  -40.528811  -31.709700  -29.075724 -121.919670    0.000000    0.000000    0.000000    0.000000
  0.024428858  -40.107669  -21.838627  -27.772472 -125.535339    0.000000    0.000000    0.000000    0.000000
  0.024629259  -38.690297  -22.778807  -26.586059 -128.835556    0.000000    0.000000    0.000000    0.000000
  0.024829659  -39.413708  -24.342947  -25.322540 -131.061310    0.000000    0.000000    0.000000    0.000000
  0.025030060  -40.230443  -22.904539  -23.982383 -134.553558    0.000000    0.000000    0.000000    0.000000
  0.025230461  -39.310986  -19.432192  -22.905845 -139.130173    0.000000    0.000000    0.000000    0.000000
  0.025430862  -40.571495  -33.659840  -21.750311 -143.527710    0.000000    0.000000    0.000000    0.000000
  0.025631263  -40.342597  -16.225632  -20.533646 -148.227585    0.000000    0.000000    0.000000    0.000000
  0.025831663  -40.460213  -14.831587  -19.413529 -152.900757    0.000000    0.000000    0.000000    0.000000
  0.026032064  -39.741757  -18.749542  -18.277591 -158.817123    0.000000    0.000000    0.000000    0.000000
  0.026232465  -39.408059  -12.467761  -17.231302 -163.539871    0.000000    0.000000    0.000000    0.000000
  0.026432866  -39.805635  -17.329445  -16.250251 -169.276428    0.000000    0.000000    0.000000    0.000000
  0.026633267  -40.527396  -16.225035  -15.139480 -175.289169    0.000000    0.000000    0.000000    0.000000
  0.026833667  -39.680151  -15.291296  -14.197308  178.349655    0.000000    0.000000    0.000000    0.000000
  0.027034068  -39.742604  -15.108423  -13.257526  171.582825    0.000000    0.000000    0.000000    0.000000
  0.027234469  -40.227115  -10.383963  -12.411210  164.702011    0.000000    0.000000    0.000000    0.000000
  0.027434870  -39.095745   -9.268573  -11.611830  157.491272    0.000000    0.000000    0.000000    0.000000
  0.027635271  -38.873080   -7.186500  -10.855023  150.073151    0.000000    0.000000    0.000000    0.000000
  0.027835671  -39.775483   -1.780289  -10.194170  142.089142    0.000000    0.000000    0.000000    0.000000
  0.028036072  -39.579863  -12.953537   -9.689550  134.886261    0.000000    0.000000    0.000000    0.000000
  0.028236473  -41.297576   -9.735991   -9.176109  127.261017    0.000000    0.000000    0.000000    0.000000
  0.028436874  -39.804571    2.826954   -8.778506  119.819702    0.000000    0.000000    0.000000    0.000000
  0.028637275  -39.371933    6.829374   -8.420009  112.343559    0.000000    0.000000    0.000000    0.000000
  0.028837675  -39.694841    4.682611   -8.201737  105.156647    0.000000    0.000000    0.000000    0.000000
  0.029038076  -39.591021   10.571478   -7.972683   98.892433    0.000000    0.000000    0.000000    0.000000
  0.029238477  -39.595657    2.756440   -7.842876   91.980980    0.000000    0.000000    0.000000    0.000000
  0.029438878  -39.642712   10.047966   -7.678981   86.244759    0.000000    0.000000    0.000000    0.000000
  0.029639279  -40.398335    7.029938   -7.641980   80.210739    0.000000    0.000000    0.000000    0.000000
  0.029839679  -39.309921   13.763783   -7.532408   74.569450    0.000000    0.000000    0.000000    0.000000
  0.030040080  -39.982193   15.524815   -7.493222   69.491959    0.000000    0.000000    0.000000    0.000000
  0.030240481  -39.523737   16.729843   -7.432538   64.029984    0.000000    0.000000    0.000000    0.000000
  0.030440882  -38.901330    4.761834   -7.435929   59.502621    0.000000    0.000000    0.000000    0.000000
  0.030641283  -38.839540   20.176781   -7.416299   54.855186    0.000000    0.000000    0.000000    0.000000
  0.030841683  -39.142270   21.536190   -7.343800   50.417850    0.000000    0.000000    0.000000    0.000000
  0.031042084  -39.575461   26.054548   -7.330277   46.067806    0.000000    0.000000    0.000000    0.000000
  0.031242485  -39.269138   21.645306   -7.323090   41.996586    0.000000    0.000000    0.000000    0.000000
  0.031442886  -39.846799   23.419762   -7.406694   37.892742    0.000000    0.000000    0.000000    0.000000
  0.031643287  -39.186748   25.143072   -7.334259   34.278217    0.000000    0.000000    0.000000    0.000000
  0.031843687  -39.096043   22.138477   -7.266520   31.026070    0.000000    0.000000    0.000000    0.000000
  0.032044088  -39.084592   36.735138   -7.385244   26.893002    0.000000    0.000000    0.000000    0.000000
  0.032244489  -39.028619   34.961517   -7.315611   23.806133    0.000000    0.000000    0.000000    0.000000
  0.032444890  -39.473796   31.758427   -7.229657   20.235319    0.000000    0.000000    0.000000    0.000000
  0.032645291  -38.004465   32.809818   -7.280692   16.884119    0.000000    0.000000    0.000000    0.000000
  0.032845691  -38.884214   33.171299   -7.254280   13.610217    0.000000    0.000000    0.000000    0.000000
  0.033046092  -38.707434   30.964611   -7.202629   10.677501    0.000000    0.000000    0.000000    0.000000
  0.033246493  -38.923710   38.116646   -7.312973    7.682046    0.000000    0.000000    0.000000    0.000000
  0.033446894  -39.428012   44.909191   -7.326106    4.285837    0.000000    0.000000    0.000000    0.000000
  0.033647295  -39.144119   42.263546   -7.307399    1.611877    0.000000    0.000000    0.000000    0.000000
  0.033847695  -38.832107   41.790524   -7.260798   -1.586086    0.000000    0.000000    0.000000    0.000000
  0.034048096  -38.819392   39.587959   -7.209481   -4.146964    0.000000    0.000000    0.000000    0.000000
  0.034248497  -37.763402   40.711414   -7.233627   -6.833720    0.000000    0.000000    0.000000    0.000000
  0.034448898  -38.694020   41.751781   -7.195750   -9.798962    0.000000    0.000000    0.000000    0.000000
  0.034649299  -38.850941   40.112976   -7.179747  -11.884595    0.000000    0.000000    0.000000    0.000000
  0.034849699  -38.588713   46.002281   -7.146775  -14.721553    0.000000    0.000000    0.000000    0.000000
  0.035050100  -38.994540   46.021889   -7.228536  -17.392424    0.000000    0.000000    0.000000    0.000000
  0.035250501  -38.538151   50.102222   -7.199587  -19.745256    0.000000    0.000000    0.000000    0.000000
  0.035450902  -37.974815   43.623531   -7.172428  -21.901026    0.000000    0.000000    0.000000    0.000000
  0.035651303  -39.760364   50.030079   -7.180039  -24.626759    0.000000    0.000000    0.000000    0.000000
  0.035851703  -38.949940   50.080559   -7.205911  -26.967834    0.000000    0.000000    0.000000    0.000000
  0.036052104  -39.268306   54.723038   -7.242796  -29.329918    0.000000    0.000000    0.000000    0.000000
  0.036252505  -39.005157   56.922001   -7.159035  -31.648565    0.000000    0.000000    0.000000    0.000000
  0.036452906  -38.282019   48.169804   -7.194529  -34.030960    0.000000    0.000000    0.000000    0.000000
  0.036653307  -38.858378   50.976620   -7.134894  -36.379662    0.000000    0.000000    0.000000    0.000000
  0.036853707  -39.048661   54.560493   -7.188181  -38.768734    0.000000    0.000000    0.000000    0.000000
  0.037054108  -39.639149   56.351822   -7.210752  -40.738121    0.000000    0.000000    0.000000    0.000000
  0.037254509  -39.102394   62.008987   -7.211003  -42.651081    0.000000    0.000000    0.000000    0.000000
  0.037454910  -38.105704   56.680561   -7.174830  -44.980011    0.000000    0.000000    0.000000    0.000000
  0.037655311  -38.775100   64.657455   -7.186597  -47.302067    0.000000    0.000000    0.000000    0.000000
  0.037855711  -38.828898   63.459721   -7.200658  -49.057110    0.000000    0.000000    0.000000    0.000000
  0.038056112  -38.158898   59.667229   -7.215438  -51.055386    0.000000    0.000000    0.000000    0.000000
  0.038256513  -38.671639   66.187317   -7.281866  -53.468483    0.000000    0.000000    0.000000    0.000000
  0.038456914  -39.065463   65.612236   -7.222048  -55.476280    0.000000    0.000000    0.000000    0.000000
  0.038657315  -39.018131   67.680092   -7.216077  -57.553162    0.000000    0.000000    0.000000    0.000000
  0.038857715  -38.967808   66.186958   -7.176989  -59.294411    0.000000    0.000000    0.000000    0.000000
  0.039058116  -38.891884   64.646614   -7.232366  -61.144802    0.000000    0.000000    0.000000    0.000000
  0.039258517  -38.755215   71.181923   -7.207138  -62.841873    0.000000    0.000000    0.000000    0.000000
  0.039458918  -39.565962   73.567368   -7.193506  -64.816727    0.000000    0.000000    0.000000    0.000000
  0.039659319  -39.743329   78.193245   -7.191262  -66.614975    0.000000    0.000000    0.000000    0.000000
  0.039859719  -39.298439   76.287186   -7.208698  -68.726822    0.000000    0.000000    0.000000    0.000000
  0.040060120  -39.046556   77.182236   -7.225065  -69.954742    0.000000    0.000000    0.000000    0.000000
  0.040260521  -39.573551   76.792542   -7.187636  -72.088173    0.000000    0.000000    0.000000    0.000000
  0.040460922  -38.743468   78.036560   -7.195182  -73.915619    0.000000    0.000000    0.000000    0.000000
  0.040661323  -39.264740   78.754341   -7.217351  -75.298409    0.000000    0.000000    0.000000    0.000000
  0.040861723  -40.013009   80.060669   -7.224797  -77.578224    0.000000    0.000000    0.000000    0.000000
  0.041062124  -40.282272   87.484695   -7.223070  -79.001923    0.000000    0.000000    0.000000    0.000000
  0.041262525  -40.264204   79.910851   -7.232900  -80.899788    0.000000    0.000000    0.000000    0.000000
  0.041462926  -40.011022   88.102112   -7.225442  -82.009079    0.000000    0.000000    0.000000    0.000000
  0.041663327  -39.737444   85.216904   -7.228943  -84.518227    0.000000    0.000000    0.000000    0.000000
  0.041863727  -38.892344   85.429947   -7.232153  -85.732124    0.000000    0.000000    0.000000    0.000000
  0.042064128  -38.628635   90.242310   -7.195389  -87.455559    0.000000    0.000000    0.000000    0.000000
  0.042264529  -39.228442   88.790268   -7.229090  -88.955261    0.000000    0.000000    0.000000    0.000000
  0.042464930  -39.184478   87.759895   -7.210156  -91.089020    0.000000    0.000000    0.000000    0.000000
  0.042665331  -39.898425   92.930267   -7.185057  -92.220932    0.000000    0.000000    0.000000    0.000000
  0.042865731  -39.801829   99.927078   -7.207296  -94.134972    0.000000    0.000000    0.000000    0.000000
