! Anritsu VNA Master:                 Model: MS2034B/10/19/501
! SN:                                  1337062
! /bd0/ovro-jan-2016/dcp-b2-s22.s2p
! Existing Calibration Information:
! TYPE:                         Current Settings,       Active Cal Settings
! TIME:             	   01/09/2016 05:33:02 PM,    01/09/2016 12:40:35 PM
! INTERNAL TEMP:    	                   41.0 C,                    41.8 C
! # POINTS:         	                      500,                       500
! START FREQ:       	               10.000 MHz,                10.000 MHz
! STOP FREQ:        	              110.000 MHz,               110.000 MHz
! SOURCE POWER:     	                      Low,                       Low
! IFBW:             	                   100 Hz,                    100 Hz
! AVG FACTOR:       	                       3 ,                        3 
! REF PLANE 1:      	                 2.2245 m,                  2.2245 m
! REF PLANE 2:      	                     0 mm,                      0 mm
! CAL TYPE:         	             1P2P S11,S21,              1P2P S11,S21
! CAL METHOD:       	                     SOLT,                      SOLT
! CAL LINE TYPE:    	                     Coax,                      Coax
! DUT PORT 1:       	                K-Conn(M),                 K-Conn(M)
! DUT PORT 2:       	                N-Conn(M),                 N-Conn(M)
! CAL STATUS:       	        OK: Accuracy High,                        --
# GHZ S DB R 50.0
! FREQ.GHZ       S11DB        S11A       S21DB        S21A       S12DB        S12A       S22DB        S22A
  0.010000000  -24.185647  163.033371  -67.044770  106.629433    0.000000    0.000000    0.000000    0.000000
  0.010200401  -24.330402  166.207947  -65.781840   96.000381    0.000000    0.000000    0.000000    0.000000
  0.010400802  -24.891625  169.516586  -66.770116   80.453781    0.000000    0.000000    0.000000    0.000000
  0.010601202  -24.711615  172.262848  -66.946815   98.583710    0.000000    0.000000    0.000000    0.000000
  0.010801603  -24.952104  174.551392  -66.892693   84.287079    0.000000    0.000000    0.000000    0.000000
  0.011002004  -25.068518  179.031219  -67.689287   86.795662    0.000000    0.000000    0.000000    0.000000
  0.011202405  -25.103420 -178.735138  -66.968808  100.459152    0.000000    0.000000    0.000000    0.000000
  0.011402806  -25.391444 -174.948334  -66.969946   97.320778    0.000000    0.000000    0.000000    0.000000
  0.011603206  -25.319683 -171.316681  -67.482368   91.131699    0.000000    0.000000    0.000000    0.000000
  0.011803607  -25.268737 -169.117294  -66.210543   92.879616    0.000000    0.000000    0.000000    0.000000
  0.012004008  -25.342115 -167.685577  -66.852001   98.081184    0.000000    0.000000    0.000000    0.000000
  0.012204409  -25.323706 -163.895782  -67.147055  106.566925    0.000000    0.000000    0.000000    0.000000
  0.012404810  -25.101114 -160.806107  -66.145483  110.126862    0.000000    0.000000    0.000000    0.000000
  0.012605210  -25.146961 -158.388245  -67.947106  107.112785    0.000000    0.000000    0.000000    0.000000
  0.012805611  -25.320094 -155.082092  -66.997312  104.634842    0.000000    0.000000    0.000000    0.000000
  0.013006012  -25.256174 -153.065933  -66.655272  107.002960    0.000000    0.000000    0.000000    0.000000
  0.013206413  -24.917813 -151.864365  -66.100414  100.198471    0.000000    0.000000    0.000000    0.000000
  0.013406814  -25.070686 -148.688126  -66.482438  104.348335    0.000000    0.000000    0.000000    0.000000
  0.013607214  -24.872047 -146.726898  -68.861070  111.774704    0.000000    0.000000    0.000000    0.000000
  0.013807615  -24.651422 -145.001831  -68.090645  120.924744    0.000000    0.000000    0.000000    0.000000
  0.014008016  -24.323563 -143.086075  -67.928118  115.559509    0.000000    0.000000    0.000000    0.000000
  0.014208417  -24.485036 -141.416504  -67.419049  112.653465    0.000000    0.000000    0.000000    0.000000
  0.014408818  -24.408232 -138.560944  -67.921669  118.096786    0.000000    0.000000    0.000000    0.000000
  0.014609218  -24.084924 -138.343002  -66.995697  124.511551    0.000000    0.000000    0.000000    0.000000
  0.014809619  -24.096870 -137.715973  -66.645124  127.415665    0.000000    0.000000    0.000000    0.000000
  0.015010020  -23.769062 -135.713440  -67.165895  123.559746    0.000000    0.000000    0.000000    0.000000
  0.015210421  -23.950845 -134.101105  -68.352288  128.656998    0.000000    0.000000    0.000000    0.000000
  0.015410822  -23.714152 -133.135208  -66.437386  129.337280    0.000000    0.000000    0.000000    0.000000
  0.015611222  -23.581387 -131.918350  -67.965253  122.015511    0.000000    0.000000    0.000000    0.000000
  0.015811623  -23.381616 -130.802185  -66.224683  127.096161    0.000000    0.000000    0.000000    0.000000
  0.016012024  -23.276146 -129.076782  -68.344891  130.343262    0.000000    0.000000    0.000000    0.000000
  0.016212425  -23.155627 -128.718079  -67.490512  124.564156    0.000000    0.000000    0.000000    0.000000
  0.016412826  -23.247012 -129.381165  -67.013806  130.638153    0.000000    0.000000    0.000000    0.000000
  0.016613226  -23.037599 -127.520851  -67.430405  130.342041    0.000000    0.000000    0.000000    0.000000
  0.016813627  -22.918470 -126.859833  -68.337166  139.524368    0.000000    0.000000    0.000000    0.000000
  0.017014028  -22.887213 -125.238106  -67.139590  138.523468    0.000000    0.000000    0.000000    0.000000
  0.017214429  -22.659829 -125.573837  -66.943696  136.766510    0.000000    0.000000    0.000000    0.000000
  0.017414830  -22.759744 -124.992165  -67.322573  137.775894    0.000000    0.000000    0.000000    0.000000
  0.017615230  -22.614979 -124.592087  -68.494804  143.692978    0.000000    0.000000    0.000000    0.000000
  0.017815631  -22.642273 -124.722221  -66.743434  147.345261    0.000000    0.000000    0.000000    0.000000
  0.018016032  -22.577037 -123.487648  -68.218583  157.249603    0.000000    0.000000    0.000000    0.000000
  0.018216433  -22.474544 -123.647751  -68.323157  142.643585    0.000000    0.000000    0.000000    0.000000
  0.018416834  -22.471584 -123.898773  -67.497308  148.360199    0.000000    0.000000    0.000000    0.000000
  0.018617234  -22.291253 -122.896439  -67.347139  132.560303    0.000000    0.000000    0.000000    0.000000
  0.018817635  -22.257442 -122.077843  -68.008296  160.506424    0.000000    0.000000    0.000000    0.000000
  0.019018036  -22.295634 -121.784119  -67.958068  168.060745    0.000000    0.000000    0.000000    0.000000
  0.019218437  -22.326204 -121.398567  -68.016637  154.219391    0.000000    0.000000    0.000000    0.000000
  0.019418838  -22.390882 -121.441612  -68.069903  155.384674    0.000000    0.000000    0.000000    0.000000
  0.019619238  -22.434598 -122.124832  -68.036280  163.408676    0.000000    0.000000    0.000000    0.000000
  0.019819639  -22.218833 -122.126526  -68.434673  172.587265    0.000000    0.000000    0.000000    0.000000
  0.020020040  -22.325157 -121.971786  -68.785347  168.907852    0.000000    0.000000    0.000000    0.000000
  0.020220441  -22.209349 -122.073936  -68.925326  167.500854    0.000000    0.000000    0.000000    0.000000
  0.020420842  -22.304544 -122.482422  -68.884138  161.445175    0.000000    0.000000    0.000000    0.000000
  0.020621242  -22.333665 -121.724678  -69.126584  175.755600    0.000000    0.000000    0.000000    0.000000
  0.020821643  -22.373639 -121.534225  -67.794013  167.420410    0.000000    0.000000    0.000000    0.000000
  0.021022044  -22.240577 -121.622650  -68.930223  168.014526    0.000000    0.000000    0.000000    0.000000
  0.021222445  -22.394644 -122.458313  -68.505293  171.051727    0.000000    0.000000    0.000000    0.000000
  0.021422846  -22.301089 -122.088921  -69.357638  174.183975    0.000000    0.000000    0.000000    0.000000
  0.021623246  -22.393715 -121.068604  -67.248158  172.197144    0.000000    0.000000    0.000000    0.000000
  0.021823647  -22.459227 -122.082802  -66.975159 -175.399963    0.000000    0.000000    0.000000    0.000000
  0.022024048  -22.618938 -122.552155  -68.103560  173.315964    0.000000    0.000000    0.000000    0.000000
  0.022224449  -22.868583 -123.109283  -70.029093  166.643890    0.000000    0.000000    0.000000    0.000000
  0.022424850  -22.874858 -123.146385  -67.390971  176.248108    0.000000    0.000000    0.000000    0.000000
  0.022625251  -22.830807 -123.631508  -67.233884  176.458633    0.000000    0.000000    0.000000    0.000000
  0.022825651  -23.034417 -124.239403  -69.069035 -171.004425    0.000000    0.000000    0.000000    0.000000
  0.023026052  -23.166007 -124.200539  -66.712615  176.384506    0.000000    0.000000    0.000000    0.000000
  0.023226453  -23.417067 -124.603302  -67.178019  177.565704    0.000000    0.000000    0.000000    0.000000
  0.023426854  -23.357242 -125.711296  -68.109682 -175.478119    0.000000    0.000000    0.000000    0.000000
  0.023627255  -23.380902 -126.712181  -68.387064 -174.284241    0.000000    0.000000    0.000000    0.000000
  0.023827655  -23.766672 -125.751907  -69.261041 -171.085907    0.000000    0.000000    0.000000    0.000000
  0.024028056  -23.972540 -127.079727  -67.733184 -169.065567    0.000000    0.000000    0.000000    0.000000
  0.024228457  -24.181809 -128.155182  -68.672480 -161.701614    0.000000    0.000000    0.000000    0.000000
  0.024428858  -24.228417 -126.307289  -69.275045 -165.906586    0.000000    0.000000    0.000000    0.000000
  0.024629259  -24.629655 -129.182358  -67.491599 -167.622253    0.000000    0.000000    0.000000    0.000000
  0.024829659  -24.917559 -130.898788  -66.739925 -128.269577    0.000000    0.000000    0.000000    0.000000
  0.025030060  -25.241275 -130.302841  -65.994973 -132.576889    0.000000    0.000000    0.000000    0.000000
  0.025230461  -25.668157 -131.799255  -65.451010 -130.283707    0.000000    0.000000    0.000000    0.000000
  0.025430862  -25.803072 -131.831955  -65.838630 -133.959839    0.000000    0.000000    0.000000    0.000000
  0.025631263  -26.520200 -133.306503  -66.307559 -127.327003    0.000000    0.000000    0.000000    0.000000
  0.025831663  -27.158192 -135.610184  -65.888319 -121.684914    0.000000    0.000000    0.000000    0.000000
  0.026032064  -27.327158 -135.657303  -65.834605 -123.619980    0.000000    0.000000    0.000000    0.000000
  0.026232465  -28.499152 -134.349167  -65.844802 -124.519432    0.000000    0.000000    0.000000    0.000000
  0.026432866  -28.928734 -136.097824  -66.911364 -126.701363    0.000000    0.000000    0.000000    0.000000
  0.026633267  -30.010095 -132.985291  -67.689419 -107.203621    0.000000    0.000000    0.000000    0.000000
  0.026833667  -30.685745 -137.269608  -67.100688 -108.955688    0.000000    0.000000    0.000000    0.000000
  0.027034068  -31.540767 -132.493149  -66.771468 -119.187759    0.000000    0.000000    0.000000    0.000000
  0.027234469  -33.486000 -132.175735  -68.713653 -114.383591    0.000000    0.000000    0.000000    0.000000
  0.027434870  -34.598086 -126.651840  -66.327335 -124.771599    0.000000    0.000000    0.000000    0.000000
  0.027635271  -35.150721 -114.612694  -66.764026 -118.368149    0.000000    0.000000    0.000000    0.000000
  0.027835671  -35.700263 -108.113403  -65.477229 -115.285454    0.000000    0.000000    0.000000    0.000000
  0.028036072  -36.311419  -96.850357  -67.110086 -110.048157    0.000000    0.000000    0.000000    0.000000
  0.028236473  -35.284146  -85.077858  -66.716169 -106.142830    0.000000    0.000000    0.000000    0.000000
  0.028436874  -34.344518  -80.536018  -65.408455 -113.517990    0.000000    0.000000    0.000000    0.000000
  0.028637275  -34.098232  -71.082069  -67.955071  -91.317230    0.000000    0.000000    0.000000    0.000000
  0.028837675  -33.454243  -72.849838  -66.848857 -115.640472    0.000000    0.000000    0.000000    0.000000
  0.029038076  -34.374044  -66.490112  -68.402630 -104.606201    0.000000    0.000000    0.000000    0.000000
  0.029238477  -33.424425  -66.604416  -67.925312 -100.804337    0.000000    0.000000    0.000000    0.000000
  0.029438878  -32.312352  -65.723709  -66.515695  -93.988777    0.000000    0.000000    0.000000    0.000000
  0.029639279  -32.514712  -62.648483  -67.541620 -103.370079    0.000000    0.000000    0.000000    0.000000
  0.029839679  -32.541671  -63.361225  -67.107199  -95.846039    0.000000    0.000000    0.000000    0.000000
  0.030040080  -32.139565  -62.082458  -66.155231  -99.548569    0.000000    0.000000    0.000000    0.000000
  0.030240481  -32.201510  -61.108833  -66.170110  -93.753342    0.000000    0.000000    0.000000    0.000000
  0.030440882  -32.355091  -60.431042  -65.668034  -99.166595    0.000000    0.000000    0.000000    0.000000
  0.030641283  -32.156311  -55.833092  -67.070904  -99.437859    0.000000    0.000000    0.000000    0.000000
  0.030841683  -32.187413  -55.851608  -66.854394  -91.668991    0.000000    0.000000    0.000000    0.000000
  0.031042084  -32.143448  -56.184193  -67.341171  -95.734764    0.000000    0.000000    0.000000    0.000000
  0.031242485  -32.558407  -56.115772  -67.955045  -90.627220    0.000000    0.000000    0.000000    0.000000
  0.031442886  -32.830081  -50.723518  -67.305560  -89.028992    0.000000    0.000000    0.000000    0.000000
  0.031643287  -32.296583  -52.030788  -65.925590  -79.138809    0.000000    0.000000    0.000000    0.000000
  0.031843687  -32.239185  -48.000240  -67.211590  -96.000778    0.000000    0.000000    0.000000    0.000000
  0.032044088  -32.469850  -46.007111  -65.964875  -79.081734    0.000000    0.000000    0.000000    0.000000
  0.032244489  -32.879184  -47.689110  -68.224907  -84.596062    0.000000    0.000000    0.000000    0.000000
  0.032444890  -32.770535  -44.084682  -66.480259  -81.546852    0.000000    0.000000    0.000000    0.000000
  0.032645291  -32.702555  -41.611687  -66.956282  -88.003555    0.000000    0.000000    0.000000    0.000000
  0.032845691  -33.002540  -40.027023  -66.617260  -76.128708    0.000000    0.000000    0.000000    0.000000
  0.033046092  -32.754243  -39.712555  -67.817901  -74.255684    0.000000    0.000000    0.000000    0.000000
  0.033246493  -32.829334  -33.646637  -66.039747  -75.591599    0.000000    0.000000    0.000000    0.000000
  0.033446894  -32.532179  -37.634850  -66.698914  -67.047539    0.000000    0.000000    0.000000    0.000000
  0.033647295  -32.333780  -35.581268  -68.371419  -59.288773    0.000000    0.000000    0.000000    0.000000
  0.033847695  -32.701888  -33.813801  -66.663659  -64.967178    0.000000    0.000000    0.000000    0.000000
  0.034048096  -32.630193  -28.907478  -68.535542  -68.623238    0.000000    0.000000    0.000000    0.000000
  0.034248497  -33.053519  -30.980055  -66.757457  -56.686272    0.000000    0.000000    0.000000    0.000000
  0.034448898  -33.103199  -25.255945  -67.406267  -69.849815    0.000000    0.000000    0.000000    0.000000
  0.034649299  -32.451057  -25.722965  -67.487907  -56.451687    0.000000    0.000000    0.000000    0.000000
  0.034849699  -32.081909  -26.344992  -67.554032  -69.717827    0.000000    0.000000    0.000000    0.000000
  0.035050100  -32.537399  -26.760170  -66.971892  -63.558456    0.000000    0.000000    0.000000    0.000000
  0.035250501  -32.239266  -23.525389  -67.386478  -55.954838    0.000000    0.000000    0.000000    0.000000
  0.035450902  -32.663080  -22.427402  -68.260492  -55.289242    0.000000    0.000000    0.000000    0.000000
  0.035651303  -32.166546  -22.126858  -67.159131  -46.132153    0.000000    0.000000    0.000000    0.000000
  0.035851703  -32.519315  -20.828402  -66.283622  -60.141346    0.000000    0.000000    0.000000    0.000000
  0.036052104  -32.128077  -17.709208  -68.381811  -50.683960    0.000000    0.000000    0.000000    0.000000
  0.036252505  -32.757771  -16.877373  -67.407668  -54.531601    0.000000    0.000000    0.000000    0.000000
  0.036452906  -32.166900  -15.146580  -68.091957  -49.894634    0.000000    0.000000    0.000000    0.000000
  0.036653307  -32.577420  -11.232482  -67.610354  -50.436775    0.000000    0.000000    0.000000    0.000000
  0.036853707  -32.164161  -14.071062  -66.809020  -43.627075    0.000000    0.000000    0.000000    0.000000
  0.037054108  -32.225128  -13.634708  -68.905115  -41.289452    0.000000    0.000000    0.000000    0.000000
  0.037254509  -32.280016  -11.507389  -68.068171  -50.968510    0.000000    0.000000    0.000000    0.000000
  0.037454910  -32.333655  -11.568695  -67.142101  -46.522339    0.000000    0.000000    0.000000    0.000000
  0.037655311  -32.367893  -12.510329  -68.174281  -41.330330    0.000000    0.000000    0.000000    0.000000
  0.037855711  -32.466723   -8.825790  -68.036934  -33.589008    0.000000    0.000000    0.000000    0.000000
  0.038056112  -32.640154  -10.480261  -67.731392  -40.359695    0.000000    0.000000    0.000000    0.000000
  0.038256513  -32.651372   -5.263139  -69.116911  -33.949581    0.000000    0.000000    0.000000    0.000000
  0.038456914  -33.059579   -8.841036  -66.622612  -42.743389    0.000000    0.000000    0.000000    0.000000
  0.038657315  -32.673102   -5.692199  -66.655211  -27.659307    0.000000    0.000000    0.000000    0.000000
  0.038857715  -32.554636   -6.260683  -66.782060  -30.304430    0.000000    0.000000    0.000000    0.000000
  0.039058116  -32.898182   -6.785964  -67.194579  -29.336622    0.000000    0.000000    0.000000    0.000000
  0.039258517  -32.733363   -3.082639  -67.587168  -25.667948    0.000000    0.000000    0.000000    0.000000
  0.039458918  -32.744171   -0.754118  -66.863229  -28.616051    0.000000    0.000000    0.000000    0.000000
  0.039659319  -32.789371   -1.744131  -69.124460  -24.264322    0.000000    0.000000    0.000000    0.000000
  0.039859719  -33.095490   -0.917905  -67.619678  -28.934036    0.000000    0.000000    0.000000    0.000000
  0.040060120  -33.287277    1.536462  -68.214496  -20.724232    0.000000    0.000000    0.000000    0.000000
  0.040260521  -33.292017    1.083713  -68.566726   -5.411442    0.000000    0.000000    0.000000    0.000000
  0.040460922  -33.368086    0.080652  -67.188967  -20.576942    0.000000    0.000000    0.000000    0.000000
  0.040661323  -33.643958    3.728215  -69.144703  -15.027311    0.000000    0.000000    0.000000    0.000000
  0.040861723  -33.532917    4.890362  -67.478722   -9.965260    0.000000    0.000000    0.000000    0.000000
  0.041062124  -33.930110    5.693218  -65.689092  -17.496738    0.000000    0.000000    0.000000    0.000000
  0.041262525  -34.011686    4.327075  -67.793685  -10.931605    0.000000    0.000000    0.000000    0.000000
  0.041462926  -33.711248    5.008901  -68.373403   -7.157055    0.000000    0.000000    0.000000    0.000000
  0.041663327  -33.618083    8.252829  -67.307381   -1.285812    0.000000    0.000000    0.000000    0.000000
  0.041863727  -34.427803    7.391006  -68.171368  -13.207565    0.000000    0.000000    0.000000    0.000000
  0.042064128  -34.216690    9.241786  -67.826678   -4.641603    0.000000    0.000000    0.000000    0.000000
  0.042264529  -34.622743   10.430162  -67.935208   -9.645404    0.000000    0.000000    0.000000    0.000000
  0.042464930  -34.397286   13.237592  -67.046555   -3.327055    0.000000    0.000000    0.000000    0.000000
  0.042665331  -34.860154   14.326790  -68.228725    5.774491    0.000000    0.000000    0.000000    0.000000
  0.042865731  -35.491921   13.429360  -68.993338   -2.838361    0.000000    0.000000    0.000000    0.000000
