! Anritsu VNA Master:                 Model: MS2034B/10/19/501
! SN:                                  1337062
! /bd0/ovro-jan-2016/dcp-b2-s21.s2p
! Existing Calibration Information:
! TYPE:                         Current Settings,       Active Cal Settings
! TIME:             	   01/09/2016 05:35:34 PM,    01/09/2016 12:40:35 PM
! INTERNAL TEMP:    	                   41.8 C,                    41.8 C
! # POINTS:         	                      500,                       500
! START FREQ:       	               10.000 MHz,                10.000 MHz
! STOP FREQ:        	              110.000 MHz,               110.000 MHz
! SOURCE POWER:     	                      Low,                       Low
! IFBW:             	                   100 Hz,                    100 Hz
! AVG FACTOR:       	                       3 ,                        3 
! REF PLANE 1:      	                 2.2245 m,                  2.2245 m
! REF PLANE 2:      	                     0 mm,                      0 mm
! CAL TYPE:         	             1P2P S11,S21,              1P2P S11,S21
! CAL METHOD:       	                     SOLT,                      SOLT
! CAL LINE TYPE:    	                     Coax,                      Coax
! DUT PORT 1:       	                K-Conn(M),                 K-Conn(M)
! DUT PORT 2:       	                N-Conn(M),                 N-Conn(M)
! CAL STATUS:       	        OK: Accuracy High,                        --
# GHZ S DB R 50.0
! FREQ.GHZ       S11DB        S11A       S21DB        S21A       S12DB        S12A       S22DB        S22A
  0.010000000  -23.738502 -169.061111  -44.153023 -136.940750    0.000000    0.000000    0.000000    0.000000
  0.010200401  -23.728698 -170.305496  -47.213498 -139.241409    0.000000    0.000000    0.000000    0.000000
  0.010400802  -24.024542 -171.628403  -52.131893 -139.341614    0.000000    0.000000    0.000000    0.000000
  0.010601202  -23.846584 -174.314041  -61.172185 -110.458199    0.000000    0.000000    0.000000    0.000000
  0.010801603  -24.041326 -176.564529  -59.008076   -0.387851    0.000000    0.000000    0.000000    0.000000
  0.011002004  -24.112519 -177.211411  -51.055698   19.105921    0.000000    0.000000    0.000000    0.000000
  0.011202405  -24.133126 -179.460281  -47.131478   22.210722    0.000000    0.000000    0.000000    0.000000
  0.011402806  -24.352531  179.088531  -44.564070   20.733027    0.000000    0.000000    0.000000    0.000000
  0.011603206  -24.403470  178.016464  -43.012859   20.627422    0.000000    0.000000    0.000000    0.000000
  0.011803607  -24.491575  175.672134  -41.671074   18.839806    0.000000    0.000000    0.000000    0.000000
  0.012004008  -24.570222  172.678970  -40.658611   20.088614    0.000000    0.000000    0.000000    0.000000
  0.012204409  -24.463273  171.456329  -39.962653   16.602179    0.000000    0.000000    0.000000    0.000000
  0.012404810  -24.468109  170.174545  -39.367405   15.915329    0.000000    0.000000    0.000000    0.000000
  0.012605210  -24.676607  168.133194  -39.100214   15.102303    0.000000    0.000000    0.000000    0.000000
  0.012805611  -24.805072  165.008545  -38.893121   11.994587    0.000000    0.000000    0.000000    0.000000
  0.013006012  -24.874069  163.841034  -39.107908   11.418986    0.000000    0.000000    0.000000    0.000000
  0.013206413  -24.676424  161.538513  -39.397013   10.037923    0.000000    0.000000    0.000000    0.000000
  0.013406814  -24.846195  160.010971  -40.004305    9.571971    0.000000    0.000000    0.000000    0.000000
  0.013607214  -24.905062  158.484482  -40.877072    8.232532    0.000000    0.000000    0.000000    0.000000
  0.013807615  -24.898050  157.178360  -42.070482    8.349203    0.000000    0.000000    0.000000    0.000000
  0.014008016  -24.736261  155.897324  -44.196231    9.466598    0.000000    0.000000    0.000000    0.000000
  0.014208417  -24.851961  152.012192  -47.590249   12.157319    0.000000    0.000000    0.000000    0.000000
  0.014408818  -25.145061  150.081299  -53.100524   33.172894    0.000000    0.000000    0.000000    0.000000
  0.014609218  -24.969118  148.846710  -54.673210  118.717033    0.000000    0.000000    0.000000    0.000000
  0.014809619  -24.826108  146.181610  -47.653822  150.977203    0.000000    0.000000    0.000000    0.000000
  0.015010020  -24.910399  145.841949  -42.552307  157.915970    0.000000    0.000000    0.000000    0.000000
  0.015210421  -24.987981  143.238266  -39.057280  159.857361    0.000000    0.000000    0.000000    0.000000
  0.015410822  -24.954734  140.998428  -36.349434  159.931168    0.000000    0.000000    0.000000    0.000000
  0.015611222  -24.984859  138.588715  -34.278989  159.173798    0.000000    0.000000    0.000000    0.000000
  0.015811623  -24.975412  137.418137  -32.447246  158.215515    0.000000    0.000000    0.000000    0.000000
  0.016012024  -24.971341  135.340302  -30.804303  157.075409    0.000000    0.000000    0.000000    0.000000
  0.016212425  -24.983097  133.726379  -29.362150  155.506653    0.000000    0.000000    0.000000    0.000000
  0.016412826  -24.707620  131.387360  -28.110906  153.376923    0.000000    0.000000    0.000000    0.000000
  0.016613226  -24.728253  128.424957  -27.122315  151.679642    0.000000    0.000000    0.000000    0.000000
  0.016813627  -24.694774  127.204338  -25.986676  150.643158    0.000000    0.000000    0.000000    0.000000
  0.017014028  -24.735480  124.272835  -25.199237  148.139160    0.000000    0.000000    0.000000    0.000000
  0.017214429  -24.687680  123.848969  -24.281681  146.607162    0.000000    0.000000    0.000000    0.000000
  0.017414830  -24.539034  120.765022  -23.692385  144.948608    0.000000    0.000000    0.000000    0.000000
  0.017615230  -24.351957  119.666443  -23.158499  143.416565    0.000000    0.000000    0.000000    0.000000
  0.017815631  -24.273220  117.033089  -22.661229  141.145645    0.000000    0.000000    0.000000    0.000000
  0.018016032  -24.416178  114.651321  -22.319751  139.079269    0.000000    0.000000    0.000000    0.000000
  0.018216433  -24.108931  113.303307  -22.012179  137.547653    0.000000    0.000000    0.000000    0.000000
  0.018416834  -24.046961  111.688156  -21.954056  135.983658    0.000000    0.000000    0.000000    0.000000
  0.018617234  -24.157456  109.682541  -21.913196  134.454056    0.000000    0.000000    0.000000    0.000000
  0.018817635  -23.988925  107.368477  -22.189969  132.880859    0.000000    0.000000    0.000000    0.000000
  0.019018036  -23.956892  104.755867  -22.688888  131.873917    0.000000    0.000000    0.000000    0.000000
  0.019218437  -23.727683  103.154327  -23.511366  131.034393    0.000000    0.000000    0.000000    0.000000
  0.019418838  -23.557083  100.470055  -24.803283  130.607498    0.000000    0.000000    0.000000    0.000000
  0.019619238  -23.338298   98.377625  -26.874794  133.653763    0.000000    0.000000    0.000000    0.000000
  0.019819639  -23.373829   97.555916  -30.574071  142.421478    0.000000    0.000000    0.000000    0.000000
  0.020020040  -23.213586   95.815987  -36.346320 -176.134674    0.000000    0.000000    0.000000    0.000000
  0.020220441  -23.168452   94.037712  -31.479688 -105.185654    0.000000    0.000000    0.000000    0.000000
  0.020420842  -23.005678   91.943962  -24.909229  -88.853012    0.000000    0.000000    0.000000    0.000000
  0.020621242  -22.981287   89.881088  -20.339433  -84.994072    0.000000    0.000000    0.000000    0.000000
  0.020821643  -22.863577   86.620323  -16.946698  -84.379662    0.000000    0.000000    0.000000    0.000000
  0.021022044  -22.768990   85.126015  -14.142708  -85.594826    0.000000    0.000000    0.000000    0.000000
  0.021222445  -22.514374   83.371597  -11.645759  -86.700363    0.000000    0.000000    0.000000    0.000000
  0.021422846  -22.537392   81.496681   -9.399424  -88.631760    0.000000    0.000000    0.000000    0.000000
  0.021623246  -22.459670   78.586258   -7.395478  -90.506294    0.000000    0.000000    0.000000    0.000000
  0.021823647  -22.270317   76.322487   -5.401471  -92.271423    0.000000    0.000000    0.000000    0.000000
  0.022024048  -22.190313   74.291138   -3.663281  -94.704163    0.000000    0.000000    0.000000    0.000000
  0.022224449  -21.873011   72.685715   -1.917116  -97.113243    0.000000    0.000000    0.000000    0.000000
  0.022424850  -21.817683   69.718483   -0.368116  -99.861603    0.000000    0.000000    0.000000    0.000000
  0.022625251  -21.810730   67.767014    1.269605 -102.802116    0.000000    0.000000    0.000000    0.000000
  0.022825651  -21.631048   65.771461    2.572779 -105.250000    0.000000    0.000000    0.000000    0.000000
  0.023026052  -21.543252   63.082310    4.077042 -108.307312    0.000000    0.000000    0.000000    0.000000
  0.023226453  -21.311971   60.757366    5.484565 -111.329628    0.000000    0.000000    0.000000    0.000000
  0.023426854  -21.311562   58.257854    6.822281 -114.429451    0.000000    0.000000    0.000000    0.000000
  0.023627255  -20.909408   58.108696    8.038790 -116.226662    0.000000    0.000000    0.000000    0.000000
  0.023827655  -20.660782   55.092468    9.320245 -119.055855    0.000000    0.000000    0.000000    0.000000
  0.024028056  -20.487767   52.926334   10.524314 -122.614082    0.000000    0.000000    0.000000    0.000000
  0.024228457  -20.396166   50.507240   11.709105 -126.220596    0.000000    0.000000    0.000000    0.000000
  0.024428858  -20.322380   46.645199   12.966890 -129.866119    0.000000    0.000000    0.000000    0.000000
  0.024629259  -20.113195   44.636456   14.160166 -133.884293    0.000000    0.000000    0.000000    0.000000
  0.024829659  -20.062470   42.516464   15.201498 -138.459549    0.000000    0.000000    0.000000    0.000000
  0.025030060  -19.900401   38.720730   16.431268 -143.091400    0.000000    0.000000    0.000000    0.000000
  0.025230461  -19.768465   35.502766   17.661154 -147.088135    0.000000    0.000000    0.000000    0.000000
  0.025430862  -19.844671   32.200706   18.818074 -152.507614    0.000000    0.000000    0.000000    0.000000
  0.025631263  -19.635052   29.576208   19.978870 -157.197571    0.000000    0.000000    0.000000    0.000000
  0.025831663  -19.556978   26.032036   21.052680 -163.255493    0.000000    0.000000    0.000000    0.000000
  0.026032064  -19.692852   21.320229   22.196309 -168.254593    0.000000    0.000000    0.000000    0.000000
  0.026232465  -19.541090   17.109077   23.198902 -174.540085    0.000000    0.000000    0.000000    0.000000
  0.026432866  -19.699700   13.124015   24.259149  179.588791    0.000000    0.000000    0.000000    0.000000
  0.026633267  -19.661603    8.322097   25.172536  173.404221    0.000000    0.000000    0.000000    0.000000
  0.026833667  -20.024702    4.495108   26.173822  167.012299    0.000000    0.000000    0.000000    0.000000
  0.027034068  -20.178729   -1.284856   27.027896  160.259155    0.000000    0.000000    0.000000    0.000000
  0.027234469  -20.612799   -5.303420   27.799553  153.710022    0.000000    0.000000    0.000000    0.000000
  0.027434870  -21.017942   -9.806581   28.601629  145.963776    0.000000    0.000000    0.000000    0.000000
  0.027635271  -21.333766  -15.530655   29.171142  138.526566    0.000000    0.000000    0.000000    0.000000
  0.027835671  -22.058963  -20.206541   29.716646  131.014297    0.000000    0.000000    0.000000    0.000000
  0.028036072  -22.829430  -24.393167   30.176713  124.062820    0.000000    0.000000    0.000000    0.000000
  0.028236473  -23.568999  -27.406023   30.596595  116.345062    0.000000    0.000000    0.000000    0.000000
  0.028436874  -24.307311  -32.289936   30.857842  110.008675    0.000000    0.000000    0.000000    0.000000
  0.028637275  -25.186805  -33.748909   31.161367  102.437981    0.000000    0.000000    0.000000    0.000000
  0.028837675  -26.457392  -36.550663   31.408873   95.354622    0.000000    0.000000    0.000000    0.000000
  0.029038076  -27.869795  -35.237007   31.528709   88.837189    0.000000    0.000000    0.000000    0.000000
  0.029238477  -29.016143  -35.657028   31.667305   83.293381    0.000000    0.000000    0.000000    0.000000
  0.029438878  -29.635505  -37.361168   31.762378   77.562614    0.000000    0.000000    0.000000    0.000000
  0.029639279  -30.915163  -32.310688   31.831950   71.477676    0.000000    0.000000    0.000000    0.000000
  0.029839679  -32.072260  -28.867081   31.923271   66.207039    0.000000    0.000000    0.000000    0.000000
  0.030040080  -32.879634  -25.730789   31.915376   61.482235    0.000000    0.000000    0.000000    0.000000
  0.030240481  -33.973013  -18.511950   31.964010   57.038445    0.000000    0.000000    0.000000    0.000000
  0.030440882  -34.669861  -12.358027   32.016113   52.494080    0.000000    0.000000    0.000000    0.000000
  0.030641283  -33.989077   -4.613602   31.965186   48.567223    0.000000    0.000000    0.000000    0.000000
  0.030841683  -34.281518   -0.045210   31.998093   44.555378    0.000000    0.000000    0.000000    0.000000
  0.031042084  -34.451728    3.057645   32.044277   40.697403    0.000000    0.000000    0.000000    0.000000
  0.031242485  -35.081514    8.884909   32.040019   36.677383    0.000000    0.000000    0.000000    0.000000
  0.031442886  -33.965648   16.004129   32.068952   32.887573    0.000000    0.000000    0.000000    0.000000
  0.031643287  -34.316956   11.816234   32.126895   29.203136    0.000000    0.000000    0.000000    0.000000
  0.031843687  -33.810562   16.626097   32.087298   25.190554    0.000000    0.000000    0.000000    0.000000
  0.032044088  -33.849276   20.249559   32.111663   21.661259    0.000000    0.000000    0.000000    0.000000
  0.032244489  -34.032939   23.419601   32.137116   18.344231    0.000000    0.000000    0.000000    0.000000
  0.032444890  -33.802749   23.223471   32.105913   14.743330    0.000000    0.000000    0.000000    0.000000
  0.032645291  -33.697577   23.990797   32.167898   11.300257    0.000000    0.000000    0.000000    0.000000
  0.032845691  -33.630428   26.617825   32.201894    8.151746    0.000000    0.000000    0.000000    0.000000
  0.033046092  -33.660015   25.676664   32.182541    5.360778    0.000000    0.000000    0.000000    0.000000
  0.033246493  -33.315962   28.795317   32.178546    2.274902    0.000000    0.000000    0.000000    0.000000
  0.033446894  -33.556627   27.083761   32.239926   -0.048451    0.000000    0.000000    0.000000    0.000000
  0.033647295  -33.739558   25.335802   32.205332   -3.136027    0.000000    0.000000    0.000000    0.000000
  0.033847695  -34.168030   27.823572   32.197501   -5.463320    0.000000    0.000000    0.000000    0.000000
  0.034048096  -33.742104   27.748625   32.185706   -8.012526    0.000000    0.000000    0.000000    0.000000
  0.034248497  -34.384514   32.617516   32.219061  -11.085791    0.000000    0.000000    0.000000    0.000000
  0.034448898  -34.108331   32.066101   32.190963  -13.425278    0.000000    0.000000    0.000000    0.000000
  0.034649299  -33.997967   31.134853   32.177826  -16.074835    0.000000    0.000000    0.000000    0.000000
  0.034849699  -34.222012   29.409725   32.178429  -18.864941    0.000000    0.000000    0.000000    0.000000
  0.035050100  -34.806020   32.606380   32.147065  -21.558533    0.000000    0.000000    0.000000    0.000000
  0.035250501  -34.454266   33.774239   32.192259  -24.341015    0.000000    0.000000    0.000000    0.000000
  0.035450902  -35.054484   38.207581   32.175149  -26.899622    0.000000    0.000000    0.000000    0.000000
  0.035651303  -35.004624   36.668285   32.143738  -29.796047    0.000000    0.000000    0.000000    0.000000
  0.035851703  -35.292282   40.118774   32.149682  -32.024410    0.000000    0.000000    0.000000    0.000000
  0.036052104  -34.692145   38.041931   32.076162  -34.204971    0.000000    0.000000    0.000000    0.000000
  0.036252505  -35.370657   41.917610   32.069160  -36.763809    0.000000    0.000000    0.000000    0.000000
  0.036452906  -34.996593   43.645054   32.035678  -38.842087    0.000000    0.000000    0.000000    0.000000
  0.036653307  -34.870791   49.581707   32.051121  -41.198689    0.000000    0.000000    0.000000    0.000000
  0.036853707  -35.720760   47.432568   32.006723  -43.257809    0.000000    0.000000    0.000000    0.000000
  0.037054108  -35.458622   48.312019   31.995116  -45.188683    0.000000    0.000000    0.000000    0.000000
  0.037254509  -35.715864   50.083824   32.059084  -47.424355    0.000000    0.000000    0.000000    0.000000
  0.037454910  -35.391801   53.929779   32.085912  -49.584076    0.000000    0.000000    0.000000    0.000000
  0.037655311  -35.888531   52.809433   32.108407  -51.474934    0.000000    0.000000    0.000000    0.000000
  0.037855711  -35.442509   55.811035   32.137028  -53.220631    0.000000    0.000000    0.000000    0.000000
  0.038056112  -36.072593   57.674076   32.206913  -54.790051    0.000000    0.000000    0.000000    0.000000
  0.038256513  -35.299061   60.170292   32.264059  -56.631939    0.000000    0.000000    0.000000    0.000000
  0.038456914  -36.248983   65.095169   32.321006  -58.625610    0.000000    0.000000    0.000000    0.000000
  0.038657315  -35.647211   63.544331   32.281400  -60.339054    0.000000    0.000000    0.000000    0.000000
  0.038857715  -36.170687   63.037319   32.282915  -62.248043    0.000000    0.000000    0.000000    0.000000
  0.039058116  -35.966815   66.323975   32.274637  -63.850960    0.000000    0.000000    0.000000    0.000000
  0.039258517  -35.609223   66.451881   32.266349  -66.355202    0.000000    0.000000    0.000000    0.000000
  0.039458918  -35.352192   69.043343   32.241310  -67.969330    0.000000    0.000000    0.000000    0.000000
  0.039659319  -35.638417   70.205902   32.225862  -70.357407    0.000000    0.000000    0.000000    0.000000
  0.039859719  -35.332696   69.579391   32.129418  -71.986671    0.000000    0.000000    0.000000    0.000000
  0.040060120  -35.126217   73.027489   32.153294  -74.272102    0.000000    0.000000    0.000000    0.000000
  0.040260521  -35.357839   74.773476   32.141139  -75.963898    0.000000    0.000000    0.000000    0.000000
  0.040460922  -35.106150   74.003716   32.118120  -77.930313    0.000000    0.000000    0.000000    0.000000
  0.040661323  -34.991900   77.777145   32.119482  -79.570610    0.000000    0.000000    0.000000    0.000000
  0.040861723  -34.936380   77.826309   32.170847  -80.748604    0.000000    0.000000    0.000000    0.000000
  0.041062124  -35.446578   80.782547   32.186536  -82.254166    0.000000    0.000000    0.000000    0.000000
  0.041262525  -35.303610   80.192749   32.194879  -83.805458    0.000000    0.000000    0.000000    0.000000
  0.041462926  -35.175097   77.970604   32.266826  -84.912041    0.000000    0.000000    0.000000    0.000000
  0.041663327  -34.914448   80.953018   32.259659  -86.210197    0.000000    0.000000    0.000000    0.000000
  0.041863727  -35.167202   85.881210   32.286041  -87.879280    0.000000    0.000000    0.000000    0.000000
  0.042064128  -34.950457   81.448845   32.287387  -89.301682    0.000000    0.000000    0.000000    0.000000
  0.042264529  -34.974940   83.765549   32.300131  -91.279366    0.000000    0.000000    0.000000    0.000000
  0.042464930  -34.666733   82.855881   32.275637  -93.345314    0.000000    0.000000    0.000000    0.000000
  0.042665331  -34.756148   86.955635   32.292745  -95.763489    0.000000    0.000000    0.000000    0.000000
  0.042865731  -35.103507   89.347198   32.310836  -97.158211    0.000000    0.000000    0.000000    0.000000
