! Anritsu VNA Master:                 Model: MS2034B/10/19/501
! SN:                                  1337062
! /bd0/ovro-jan-2016/dcp-c1-s22-2.s2p
! Existing Calibration Information:
! TYPE:                         Current Settings,       Active Cal Settings
! TIME:             	   01/11/2016 04:55:18 PM,    01/11/2016 04:43:35 PM
! INTERNAL TEMP:    	                   44.0 C,                    44.8 C
! # POINTS:         	                      500,                       500
! START FREQ:       	               10.000 MHz,                10.000 MHz
! STOP FREQ:        	              110.000 MHz,               110.000 MHz
! SOURCE POWER:     	                      Low,                       Low
! IFBW:             	                   100 Hz,                    100 Hz
! AVG FACTOR:       	                       3 ,                        3 
! REF PLANE 1:      	                 2.2245 m,                  2.2245 m
! REF PLANE 2:      	                     0 mm,                      0 mm
! CAL TYPE:         	             1P2P S11,S21,              1P2P S11,S21
! CAL METHOD:       	                     SOLT,                      SOLT
! CAL LINE TYPE:    	                     Coax,                      Coax
! DUT PORT 1:       	                K-Conn(M),                 K-Conn(M)
! DUT PORT 2:       	                N-Conn(M),                 N-Conn(M)
! CAL STATUS:       	        OK: Accuracy High,                        --
# GHZ S DB R 50.0
! FREQ.GHZ       S11DB        S11A       S21DB        S21A       S12DB        S12A       S22DB        S22A
  0.010000000  -24.573291  174.322784  -65.571590   92.973434    0.000000    0.000000    0.000000    0.000000
  0.010200401  -24.714918  177.990601  -66.009582   85.577499    0.000000    0.000000    0.000000    0.000000
  0.010400802  -25.145643  179.697327  -66.562758  103.549461    0.000000    0.000000    0.000000    0.000000
  0.010601202  -25.399660 -176.527954  -67.403829  100.860725    0.000000    0.000000    0.000000    0.000000
  0.010801603  -25.359596 -172.660416  -65.584198   99.705505    0.000000    0.000000    0.000000    0.000000
  0.011002004  -25.300756 -170.186646  -65.381558  107.450691    0.000000    0.000000    0.000000    0.000000
  0.011202405  -25.559885 -165.506470  -68.860945  108.631798    0.000000    0.000000    0.000000    0.000000
  0.011402806  -25.580232 -162.696259  -66.365386  108.009224    0.000000    0.000000    0.000000    0.000000
  0.011603206  -25.691781 -159.426193  -66.056028  105.925720    0.000000    0.000000    0.000000    0.000000
  0.011803607  -25.755416 -159.584244  -65.622139  109.949486    0.000000    0.000000    0.000000    0.000000
  0.012004008  -25.295164 -153.325668  -66.713473  104.230507    0.000000    0.000000    0.000000    0.000000
  0.012204409  -25.706999 -151.088516  -67.423849  109.043755    0.000000    0.000000    0.000000    0.000000
  0.012404810  -25.261685 -148.424164  -66.952810  118.698471    0.000000    0.000000    0.000000    0.000000
  0.012605210  -25.549692 -146.623596  -66.177384  115.753769    0.000000    0.000000    0.000000    0.000000
  0.012805611  -25.456873 -143.422745  -66.608023  113.995117    0.000000    0.000000    0.000000    0.000000
  0.013006012  -25.237578 -141.956879  -66.280542  120.602127    0.000000    0.000000    0.000000    0.000000
  0.013206413  -25.102305 -139.747681  -66.610894  114.714828    0.000000    0.000000    0.000000    0.000000
  0.013406814  -25.052232 -137.162170  -66.466755  109.261665    0.000000    0.000000    0.000000    0.000000
  0.013607214  -24.715210 -135.455566  -67.257323  105.589767    0.000000    0.000000    0.000000    0.000000
  0.013807615  -24.585536 -132.488007  -66.920194  122.048103    0.000000    0.000000    0.000000    0.000000
  0.014008016  -24.528087 -131.948074  -66.821940  120.828926    0.000000    0.000000    0.000000    0.000000
  0.014208417  -24.596947 -132.282974  -67.501963  122.292992    0.000000    0.000000    0.000000    0.000000
  0.014408818  -24.463410 -129.433212  -68.455856  133.861023    0.000000    0.000000    0.000000    0.000000
  0.014609218  -24.092323 -127.431160  -66.541150  130.774353    0.000000    0.000000    0.000000    0.000000
  0.014809619  -23.985797 -126.793678  -67.736824  128.978043    0.000000    0.000000    0.000000    0.000000
  0.015010020  -23.914150 -125.411560  -67.941921  129.023407    0.000000    0.000000    0.000000    0.000000
  0.015210421  -23.890047 -124.763298  -67.420515  131.222809    0.000000    0.000000    0.000000    0.000000
  0.015410822  -23.765102 -122.624229  -67.326029  128.024048    0.000000    0.000000    0.000000    0.000000
  0.015611222  -23.715768 -122.215210  -69.030550  135.618439    0.000000    0.000000    0.000000    0.000000
  0.015811623  -23.599122 -120.890739  -67.331556  131.131973    0.000000    0.000000    0.000000    0.000000
  0.016012024  -23.440875 -120.133270  -66.014775  133.640640    0.000000    0.000000    0.000000    0.000000
  0.016212425  -23.400578 -119.690063  -68.255303  135.003250    0.000000    0.000000    0.000000    0.000000
  0.016412826  -23.296344 -118.919647  -66.345006  137.055801    0.000000    0.000000    0.000000    0.000000
  0.016613226  -23.224605 -117.392906  -68.211923  144.121002    0.000000    0.000000    0.000000    0.000000
  0.016813627  -23.276352 -117.232803  -66.177927  135.488373    0.000000    0.000000    0.000000    0.000000
  0.017014028  -23.073942 -116.989624  -66.829844  137.576218    0.000000    0.000000    0.000000    0.000000
  0.017214429  -23.170008 -116.045395  -68.009264  145.749100    0.000000    0.000000    0.000000    0.000000
  0.017414830  -22.877324 -116.144882  -68.179503  144.592957    0.000000    0.000000    0.000000    0.000000
  0.017615230  -22.893425 -115.858093  -66.758653  152.953629    0.000000    0.000000    0.000000    0.000000
  0.017815631  -22.680934 -115.576744  -66.636233  147.002106    0.000000    0.000000    0.000000    0.000000
  0.018016032  -22.693469 -116.587448  -67.564673  150.716629    0.000000    0.000000    0.000000    0.000000
  0.018216433  -22.708396 -114.303482  -68.469607  150.489853    0.000000    0.000000    0.000000    0.000000
  0.018416834  -22.714484 -114.433228  -68.970708  151.367920    0.000000    0.000000    0.000000    0.000000
  0.018617234  -22.689666 -113.761093  -68.029361  159.896423    0.000000    0.000000    0.000000    0.000000
  0.018817635  -22.709201 -113.381874  -67.051557  163.089539    0.000000    0.000000    0.000000    0.000000
  0.019018036  -22.801350 -113.395645  -67.878195  150.770279    0.000000    0.000000    0.000000    0.000000
  0.019218437  -22.777510 -113.211197  -67.748553  152.141418    0.000000    0.000000    0.000000    0.000000
  0.019418838  -22.731717 -113.721123  -69.359610  166.661316    0.000000    0.000000    0.000000    0.000000
  0.019619238  -22.691718 -112.995804  -68.202881  158.316879    0.000000    0.000000    0.000000    0.000000
  0.019819639  -22.793109 -112.972504  -68.522215  174.782272    0.000000    0.000000    0.000000    0.000000
  0.020020040  -22.717249 -113.163895  -68.142017  171.104385    0.000000    0.000000    0.000000    0.000000
  0.020220441  -22.802625 -112.463448  -68.466399  170.065628    0.000000    0.000000    0.000000    0.000000
  0.020420842  -22.687351 -112.885162  -68.021651  179.099304    0.000000    0.000000    0.000000    0.000000
  0.020621242  -22.675390 -113.014664  -68.217345  174.482285    0.000000    0.000000    0.000000    0.000000
  0.020821643  -22.718532 -113.647095  -67.726845  173.374298    0.000000    0.000000    0.000000    0.000000
  0.021022044  -22.767318 -112.827911  -67.313912  166.308990    0.000000    0.000000    0.000000    0.000000
  0.021222445  -23.021467 -113.699661  -67.832649  178.741699    0.000000    0.000000    0.000000    0.000000
  0.021422846  -23.030302 -113.815689  -68.838150  179.674988    0.000000    0.000000    0.000000    0.000000
  0.021623246  -23.016008 -113.520607  -68.336070 -177.450867    0.000000    0.000000    0.000000    0.000000
  0.021823647  -23.060250 -114.314041  -66.703920  177.541519    0.000000    0.000000    0.000000    0.000000
  0.022024048  -23.192726 -114.683098  -66.637315  174.063004    0.000000    0.000000    0.000000    0.000000
  0.022224449  -23.125550 -113.837479  -67.672381 -168.048111    0.000000    0.000000    0.000000    0.000000
  0.022424850  -23.515479 -115.060249  -68.301066 -174.633438    0.000000    0.000000    0.000000    0.000000
  0.022625251  -23.366645 -115.533386  -68.756685  178.209183    0.000000    0.000000    0.000000    0.000000
  0.022825651  -23.461700 -116.127274  -67.907810  179.971176    0.000000    0.000000    0.000000    0.000000
  0.023026052  -23.354112 -117.772339  -68.048065 -168.131821    0.000000    0.000000    0.000000    0.000000
  0.023226453  -23.745428 -117.077187  -69.818564 -166.827713    0.000000    0.000000    0.000000    0.000000
  0.023426854  -24.054825 -117.902893  -67.479536 -165.706894    0.000000    0.000000    0.000000    0.000000
  0.023627255  -24.069776 -117.280128  -67.617713 -167.001495    0.000000    0.000000    0.000000    0.000000
  0.023827655  -24.352012 -117.833183  -67.937371 -167.699585    0.000000    0.000000    0.000000    0.000000
  0.024028056  -24.581174 -119.443054  -67.983909 -164.705292    0.000000    0.000000    0.000000    0.000000
  0.024228457  -24.537802 -121.410194  -67.269511 -154.694519    0.000000    0.000000    0.000000    0.000000
  0.024428858  -24.732764 -120.643501  -69.022221 -164.516724    0.000000    0.000000    0.000000    0.000000
  0.024629259  -25.001761 -121.949532  -67.364760 -161.016586    0.000000    0.000000    0.000000    0.000000
  0.024829659  -25.453151 -124.065498  -66.883019 -120.847832    0.000000    0.000000    0.000000    0.000000
  0.025030060  -25.670783 -123.924919  -66.232507 -120.337959    0.000000    0.000000    0.000000    0.000000
  0.025230461  -25.925958 -125.589363  -67.084277 -123.191208    0.000000    0.000000    0.000000    0.000000
  0.025430862  -26.036914 -126.344582  -66.054775 -110.246208    0.000000    0.000000    0.000000    0.000000
  0.025631263  -26.892442 -128.305222  -67.309115 -129.455582    0.000000    0.000000    0.000000    0.000000
  0.025831663  -27.246817 -128.214294  -65.420572 -112.025749    0.000000    0.000000    0.000000    0.000000
  0.026032064  -27.607345 -128.606964  -64.964635 -122.895569    0.000000    0.000000    0.000000    0.000000
  0.026232465  -28.252115 -132.099411  -65.781974 -126.673508    0.000000    0.000000    0.000000    0.000000
  0.026432866  -29.070721 -132.006943  -66.122752 -103.332878    0.000000    0.000000    0.000000    0.000000
  0.026633267  -29.612545 -133.091766  -66.384003 -112.180206    0.000000    0.000000    0.000000    0.000000
  0.026833667  -30.657819 -133.962494  -66.925997 -114.871407    0.000000    0.000000    0.000000    0.000000
  0.027034068  -31.802423 -132.990341  -67.984547 -113.834023    0.000000    0.000000    0.000000    0.000000
  0.027234469  -32.834557 -132.075623  -66.959058 -105.664749    0.000000    0.000000    0.000000    0.000000
  0.027434870  -34.262821 -129.931488  -67.217621 -105.416847    0.000000    0.000000    0.000000    0.000000
  0.027635271  -35.495072 -119.054024  -66.636163 -100.687386    0.000000    0.000000    0.000000    0.000000
  0.027835671  -36.338619 -111.452858  -66.257765 -112.627159    0.000000    0.000000    0.000000    0.000000
  0.028036072  -37.111885 -103.745972  -66.091461 -101.389008    0.000000    0.000000    0.000000    0.000000
  0.028236473  -37.263155  -90.257500  -65.811450 -104.479195    0.000000    0.000000    0.000000    0.000000
  0.028436874  -37.715552  -81.280197  -65.734998  -99.493584    0.000000    0.000000    0.000000    0.000000
  0.028637275  -36.497030  -73.468918  -67.568766 -100.717537    0.000000    0.000000    0.000000    0.000000
  0.028837675  -35.921738  -67.763290  -66.481955 -105.406204    0.000000    0.000000    0.000000    0.000000
  0.029038076  -35.777818  -60.419868  -65.231341 -111.164009    0.000000    0.000000    0.000000    0.000000
  0.029238477  -35.306130  -56.458977  -66.303949  -99.197693    0.000000    0.000000    0.000000    0.000000
  0.029438878  -34.440597  -57.533997  -65.886332 -101.936180    0.000000    0.000000    0.000000    0.000000
  0.029639279  -33.793397  -56.219017  -65.525210  -95.694031    0.000000    0.000000    0.000000    0.000000
  0.029839679  -33.767197  -53.941036  -65.704789 -101.589317    0.000000    0.000000    0.000000    0.000000
  0.030040080  -33.402319  -49.602673  -65.803660  -83.256706    0.000000    0.000000    0.000000    0.000000
  0.030240481  -33.210318  -51.410053  -64.701690 -100.066833    0.000000    0.000000    0.000000    0.000000
  0.030440882  -32.351549  -53.251762  -65.895399  -94.378357    0.000000    0.000000    0.000000    0.000000
  0.030641283  -32.836090  -48.504383  -65.828941  -98.784767    0.000000    0.000000    0.000000    0.000000
  0.030841683  -32.968696  -47.142338  -66.068126  -90.440170    0.000000    0.000000    0.000000    0.000000
  0.031042084  -32.986411  -43.577667  -66.661809  -89.672836    0.000000    0.000000    0.000000    0.000000
  0.031242485  -32.785526  -45.680996  -66.999687  -92.157722    0.000000    0.000000    0.000000    0.000000
  0.031442886  -32.726634  -42.248367  -66.636071  -97.274040    0.000000    0.000000    0.000000    0.000000
  0.031643287  -32.527412  -42.796619  -65.749103  -91.073151    0.000000    0.000000    0.000000    0.000000
  0.031843687  -33.144091  -42.604389  -66.054369  -94.646469    0.000000    0.000000    0.000000    0.000000
  0.032044088  -32.577104  -41.779114  -66.070132  -80.963226    0.000000    0.000000    0.000000    0.000000
  0.032244489  -32.822631  -38.590805  -67.325161  -89.409492    0.000000    0.000000    0.000000    0.000000
  0.032444890  -32.709264  -37.097801  -67.119514  -81.942451    0.000000    0.000000    0.000000    0.000000
  0.032645291  -32.735980  -36.333679  -67.905675  -91.296410    0.000000    0.000000    0.000000    0.000000
  0.032845691  -32.492620  -35.612633  -66.253114  -88.394943    0.000000    0.000000    0.000000    0.000000
  0.033046092  -32.212790  -33.625366  -67.166271  -78.833382    0.000000    0.000000    0.000000    0.000000
  0.033246493  -31.838860  -35.450142  -67.550151  -82.366310    0.000000    0.000000    0.000000    0.000000
  0.033446894  -32.325678  -31.226891  -67.807431  -76.375992    0.000000    0.000000    0.000000    0.000000
  0.033647295  -32.341340  -30.214615  -67.502782  -78.056786    0.000000    0.000000    0.000000    0.000000
  0.033847695  -32.541401  -29.319757  -66.905716  -71.469315    0.000000    0.000000    0.000000    0.000000
  0.034048096  -32.358013  -29.654810  -68.710351  -70.086296    0.000000    0.000000    0.000000    0.000000
  0.034248497  -32.035077  -27.529293  -68.671988  -56.937572    0.000000    0.000000    0.000000    0.000000
  0.034448898  -32.306509  -24.062559  -66.877556  -70.826492    0.000000    0.000000    0.000000    0.000000
  0.034649299  -32.168887  -23.123484  -68.981931  -61.684471    0.000000    0.000000    0.000000    0.000000
  0.034849699  -32.005702  -23.158735  -67.346671  -70.867661    0.000000    0.000000    0.000000    0.000000
  0.035050100  -31.974455  -23.486052  -67.369989  -52.458984    0.000000    0.000000    0.000000    0.000000
  0.035250501  -32.101453  -22.579609  -68.981914  -55.908535    0.000000    0.000000    0.000000    0.000000
  0.035450902  -31.213727  -21.293604  -66.380590  -66.323441    0.000000    0.000000    0.000000    0.000000
  0.035651303  -31.545148  -19.287943  -68.611257  -51.684948    0.000000    0.000000    0.000000    0.000000
  0.035851703  -31.976980  -16.717897  -69.218736  -61.173504    0.000000    0.000000    0.000000    0.000000
  0.036052104  -31.383776  -18.564064  -68.905335  -60.705357    0.000000    0.000000    0.000000    0.000000
  0.036252505  -31.957590  -15.493852  -67.394820  -51.888554    0.000000    0.000000    0.000000    0.000000
  0.036452906  -31.798371  -16.550800  -68.370356  -49.239452    0.000000    0.000000    0.000000    0.000000
  0.036653307  -31.597762  -12.750268  -67.352712  -45.178055    0.000000    0.000000    0.000000    0.000000
  0.036853707  -31.782011  -13.106273  -71.954080  -38.300671    0.000000    0.000000    0.000000    0.000000
  0.037054108  -31.621588  -11.813067  -68.026919  -45.488575    0.000000    0.000000    0.000000    0.000000
  0.037254509  -31.753574  -12.293034  -67.118358  -30.955193    0.000000    0.000000    0.000000    0.000000
  0.037454910  -31.487413  -11.982017  -68.620320  -35.145451    0.000000    0.000000    0.000000    0.000000
  0.037655311  -31.761046   -9.951766  -69.240950  -34.320461    0.000000    0.000000    0.000000    0.000000
  0.037855711  -32.242455  -10.079288  -69.082753  -27.469660    0.000000    0.000000    0.000000    0.000000
  0.038056112  -31.763835   -6.677712  -68.263374  -28.055653    0.000000    0.000000    0.000000    0.000000
  0.038256513  -32.011718   -6.058323  -68.809471  -33.990204    0.000000    0.000000    0.000000    0.000000
  0.038456914  -31.748194   -7.304084  -69.027785  -31.065081    0.000000    0.000000    0.000000    0.000000
  0.038657315  -32.119541   -5.870452  -68.612620  -13.666469    0.000000    0.000000    0.000000    0.000000
  0.038857715  -31.965971   -6.009177  -67.882225  -22.042654    0.000000    0.000000    0.000000    0.000000
  0.039058116  -31.892802   -4.421703  -69.346434  -31.863604    0.000000    0.000000    0.000000    0.000000
  0.039258517  -32.701012   -5.494123  -69.020658  -22.340895    0.000000    0.000000    0.000000    0.000000
  0.039458918  -32.289281   -0.765210  -69.123267  -13.930504    0.000000    0.000000    0.000000    0.000000
  0.039659319  -32.092988   -1.996521  -69.356505  -12.749319    0.000000    0.000000    0.000000    0.000000
  0.039859719  -32.484472    0.614951  -69.519555  -19.111212    0.000000    0.000000    0.000000    0.000000
  0.040060120  -32.314020    3.467941  -67.873153  -20.812241    0.000000    0.000000    0.000000    0.000000
  0.040260521  -32.446256    4.017105  -68.845468  -15.370302    0.000000    0.000000    0.000000    0.000000
  0.040460922  -32.932374   -1.543990  -67.393652  -16.844282    0.000000    0.000000    0.000000    0.000000
  0.040661323  -32.484157    6.491838  -69.328266    0.146797    0.000000    0.000000    0.000000    0.000000
  0.040861723  -32.636072    7.054635  -68.670198   -2.318273    0.000000    0.000000    0.000000    0.000000
  0.041062124  -32.783391    9.907914  -68.327012   -1.957102    0.000000    0.000000    0.000000    0.000000
  0.041262525  -32.797470    9.078382  -68.968078  -10.651219    0.000000    0.000000    0.000000    0.000000
  0.041462926  -33.022103   10.121438  -67.466095   -0.744783    0.000000    0.000000    0.000000    0.000000
  0.041663327  -32.720166   14.060683  -68.482785   -0.660428    0.000000    0.000000    0.000000    0.000000
  0.041863727  -33.162054   13.891788  -68.324095   -1.727966    0.000000    0.000000    0.000000    0.000000
  0.042064128  -32.924936   18.356247  -68.077082   13.273160    0.000000    0.000000    0.000000    0.000000
  0.042264529  -32.818442   17.249510  -69.103192   13.817112    0.000000    0.000000    0.000000    0.000000
  0.042464930  -33.060858   18.893879  -67.225224    0.388382    0.000000    0.000000    0.000000    0.000000
  0.042665331  -33.327387   20.245857  -69.262393    5.773094    0.000000    0.000000    0.000000    0.000000
  0.042865731  -33.741717   20.509144  -66.953018   13.834965    0.000000    0.000000    0.000000    0.000000
