! Anritsu VNA Master:                 Model: MS2034B/10/19/501
! SN:                                  1337062
! /bd0/ovro-jan-2016/dcp-c1-s22.s2p
! Existing Calibration Information:
! TYPE:                         Current Settings,       Active Cal Settings
! TIME:             	   01/10/2016 05:24:46 PM,    01/10/2016 03:13:30 PM
! INTERNAL TEMP:    	                   41.8 C,                    45.8 C
! # POINTS:         	                      500,                       500
! START FREQ:       	               10.000 MHz,                10.000 MHz
! STOP FREQ:        	              110.000 MHz,               110.000 MHz
! SOURCE POWER:     	                      Low,                       Low
! IFBW:             	                   100 Hz,                    100 Hz
! AVG FACTOR:       	                       3 ,                        3 
! REF PLANE 1:      	                 2.2245 m,                  2.2245 m
! REF PLANE 2:      	                     0 mm,                      0 mm
! CAL TYPE:         	             1P2P S11,S21,              1P2P S11,S21
! CAL METHOD:       	                     SOLT,                      SOLT
! CAL LINE TYPE:    	                     Coax,                      Coax
! DUT PORT 1:       	                K-Conn(M),                 K-Conn(M)
! DUT PORT 2:       	                N-Conn(M),                 N-Conn(M)
! CAL STATUS:       	        OK: Accuracy High,                        --
# GHZ S DB R 50.0
! FREQ.GHZ       S11DB        S11A       S21DB        S21A       S12DB        S12A       S22DB        S22A
  0.010000000  -16.100633  165.206985  -66.082814   84.054306    0.000000    0.000000    0.000000    0.000000
  0.010200401  -16.274033  167.734863  -65.044187   85.299347    0.000000    0.000000    0.000000    0.000000
  0.010400802  -16.559607  169.183212  -67.329690   86.569527    0.000000    0.000000    0.000000    0.000000
  0.010601202  -16.733342  170.066681  -65.747018   89.739647    0.000000    0.000000    0.000000    0.000000
  0.010801603  -16.838578  172.241165  -65.317631   89.608192    0.000000    0.000000    0.000000    0.000000
  0.011002004  -17.091545  174.350830  -66.056330   95.838928    0.000000    0.000000    0.000000    0.000000
  0.011202405  -17.216374  176.476486  -66.178284   95.261490    0.000000    0.000000    0.000000    0.000000
  0.011402806  -17.469123  178.312668  -65.947361   93.046822    0.000000    0.000000    0.000000    0.000000
  0.011603206  -17.520145 -179.899826  -66.228276   97.966171    0.000000    0.000000    0.000000    0.000000
  0.011803607  -17.800930 -178.913101  -65.730731   98.557022    0.000000    0.000000    0.000000    0.000000
  0.012004008  -17.714122 -175.863190  -67.807799   95.233360    0.000000    0.000000    0.000000    0.000000
  0.012204409  -17.919769 -173.945297  -65.692790  106.659630    0.000000    0.000000    0.000000    0.000000
  0.012404810  -17.979657 -172.059937  -65.509474  112.030533    0.000000    0.000000    0.000000    0.000000
  0.012605210  -18.099058 -170.353287  -66.737392  107.968758    0.000000    0.000000    0.000000    0.000000
  0.012805611  -18.104493 -168.144974  -65.927954  104.865738    0.000000    0.000000    0.000000    0.000000
  0.013006012  -18.324685 -167.574890  -66.077006  100.198997    0.000000    0.000000    0.000000    0.000000
  0.013206413  -18.326879 -164.487122  -65.642578  101.626968    0.000000    0.000000    0.000000    0.000000
  0.013406814  -18.373731 -162.699707  -66.273923  111.444557    0.000000    0.000000    0.000000    0.000000
  0.013607214  -18.436829 -160.698959  -66.634992  107.491592    0.000000    0.000000    0.000000    0.000000
  0.013807615  -18.502637 -158.646820  -65.498974  106.215561    0.000000    0.000000    0.000000    0.000000
  0.014008016  -18.454505 -157.247055  -67.194420  113.369881    0.000000    0.000000    0.000000    0.000000
  0.014208417  -18.532152 -156.357086  -67.261607  116.756294    0.000000    0.000000    0.000000    0.000000
  0.014408818  -18.508982 -154.040253  -67.272283  119.255417    0.000000    0.000000    0.000000    0.000000
  0.014609218  -18.627773 -152.057220  -67.487816  110.099487    0.000000    0.000000    0.000000    0.000000
  0.014809619  -18.551683 -150.317047  -66.968457  118.975105    0.000000    0.000000    0.000000    0.000000
  0.015010020  -18.568737 -149.174500  -67.023139  118.130104    0.000000    0.000000    0.000000    0.000000
  0.015210421  -18.618779 -147.359711  -67.455301  124.162331    0.000000    0.000000    0.000000    0.000000
  0.015410822  -18.533720 -145.917587  -65.501695  120.312798    0.000000    0.000000    0.000000    0.000000
  0.015611222  -18.568157 -146.110718  -66.045710  122.096161    0.000000    0.000000    0.000000    0.000000
  0.015811623  -18.551484 -143.229568  -66.349184  123.626724    0.000000    0.000000    0.000000    0.000000
  0.016012024  -18.547881 -141.524200  -66.654552  126.743637    0.000000    0.000000    0.000000    0.000000
  0.016212425  -18.501531 -140.276001  -67.669247  123.560730    0.000000    0.000000    0.000000    0.000000
  0.016412826  -18.533160 -139.393585  -67.105684  130.472427    0.000000    0.000000    0.000000    0.000000
  0.016613226  -18.502626 -138.345627  -65.547644  121.566452    0.000000    0.000000    0.000000    0.000000
  0.016813627  -18.428164 -137.243805  -66.034261  124.864967    0.000000    0.000000    0.000000    0.000000
  0.017014028  -18.445929 -135.566879  -66.781257  130.624908    0.000000    0.000000    0.000000    0.000000
  0.017214429  -18.348540 -134.585373  -66.999182  135.672043    0.000000    0.000000    0.000000    0.000000
  0.017414830  -18.398207 -132.970581  -66.436817  135.343079    0.000000    0.000000    0.000000    0.000000
  0.017615230  -18.394689 -132.387833  -66.700335  135.988541    0.000000    0.000000    0.000000    0.000000
  0.017815631  -18.361863 -131.779846  -66.654265  132.873566    0.000000    0.000000    0.000000    0.000000
  0.018016032  -18.311403 -132.308960  -65.928225  138.253738    0.000000    0.000000    0.000000    0.000000
  0.018216433  -18.351236 -129.799271  -66.808389  137.483017    0.000000    0.000000    0.000000    0.000000
  0.018416834  -18.312473 -129.543472  -67.347688  139.260056    0.000000    0.000000    0.000000    0.000000
  0.018617234  -18.291622 -128.187943  -67.551569  153.076813    0.000000    0.000000    0.000000    0.000000
  0.018817635  -18.355628 -127.879051  -67.576520  148.614105    0.000000    0.000000    0.000000    0.000000
  0.019018036  -18.310746 -126.880013  -66.880828  145.168747    0.000000    0.000000    0.000000    0.000000
  0.019218437  -18.134600 -126.910286  -67.303653  147.677567    0.000000    0.000000    0.000000    0.000000
  0.019418838  -18.278994 -125.125938  -67.827919  146.888931    0.000000    0.000000    0.000000    0.000000
  0.019619238  -18.302460 -124.792763  -67.125894  154.316040    0.000000    0.000000    0.000000    0.000000
  0.019819639  -18.265025 -124.297752  -66.902015  163.980667    0.000000    0.000000    0.000000    0.000000
  0.020020040  -18.400388 -123.721489  -68.111562  154.810242    0.000000    0.000000    0.000000    0.000000
  0.020220441  -18.330092 -122.147537  -66.973845  163.711761    0.000000    0.000000    0.000000    0.000000
  0.020420842  -18.339002 -122.545372  -66.492714  164.530548    0.000000    0.000000    0.000000    0.000000
  0.020621242  -18.374148 -121.807343  -68.547525  168.265747    0.000000    0.000000    0.000000    0.000000
  0.020821643  -18.332699 -120.941902  -67.690173  171.915680    0.000000    0.000000    0.000000    0.000000
  0.021022044  -18.401174 -120.629921  -67.657721  170.540283    0.000000    0.000000    0.000000    0.000000
  0.021222445  -18.395715 -119.874519  -67.673815  163.521881    0.000000    0.000000    0.000000    0.000000
  0.021422846  -18.527705 -119.885216  -67.977555  176.272766    0.000000    0.000000    0.000000    0.000000
  0.021623246  -18.505502 -119.932518  -66.721287  172.533249    0.000000    0.000000    0.000000    0.000000
  0.021823647  -18.462466 -119.865364  -66.514861  173.264114    0.000000    0.000000    0.000000    0.000000
  0.022024048  -18.594731 -118.314217  -66.611755  175.146957    0.000000    0.000000    0.000000    0.000000
  0.022224449  -18.623311 -118.697433  -67.931216  171.515762    0.000000    0.000000    0.000000    0.000000
  0.022424850  -18.740894 -118.172806  -68.483004 -179.359039    0.000000    0.000000    0.000000    0.000000
  0.022625251  -18.776360 -118.210480  -67.466958  173.126099    0.000000    0.000000    0.000000    0.000000
  0.022825651  -18.831818 -117.869858  -67.897890 -178.643539    0.000000    0.000000    0.000000    0.000000
  0.023026052  -18.817170 -118.031662  -67.260232  178.939102    0.000000    0.000000    0.000000    0.000000
  0.023226453  -19.023692 -117.256874  -67.024298 -171.363541    0.000000    0.000000    0.000000    0.000000
  0.023426854  -19.095117 -117.213547  -67.530364 -173.927536    0.000000    0.000000    0.000000    0.000000
  0.023627255  -19.234662 -117.266563  -68.543857 -170.535278    0.000000    0.000000    0.000000    0.000000
  0.023827655  -19.297476 -117.613129  -68.156014 -160.035217    0.000000    0.000000    0.000000    0.000000
  0.024028056  -19.499787 -116.698944  -69.936248 -161.388397    0.000000    0.000000    0.000000    0.000000
  0.024228457  -19.490667 -117.672180  -67.339173 -174.367126    0.000000    0.000000    0.000000    0.000000
  0.024428858  -19.797792 -116.840698  -67.616676 -164.473953    0.000000    0.000000    0.000000    0.000000
  0.024629259  -20.037164 -115.511978  -67.267632 -165.647675    0.000000    0.000000    0.000000    0.000000
  0.024829659  -20.073444 -116.424553  -66.556857 -135.652634    0.000000    0.000000    0.000000    0.000000
  0.025030060  -20.364023 -116.854904  -67.652483 -139.090698    0.000000    0.000000    0.000000    0.000000
  0.025230461  -20.530038 -116.175873  -66.110935 -142.167725    0.000000    0.000000    0.000000    0.000000
  0.025430862  -20.563052 -117.059250  -68.125434 -123.825645    0.000000    0.000000    0.000000    0.000000
  0.025631263  -21.094029 -116.213852  -66.031594 -127.379379    0.000000    0.000000    0.000000    0.000000
  0.025831663  -21.394785 -116.470764  -64.993468 -137.268982    0.000000    0.000000    0.000000    0.000000
  0.026032064  -21.664737 -115.827415  -65.812934 -131.153656    0.000000    0.000000    0.000000    0.000000
  0.026232465  -22.062472 -115.209007  -67.239677 -131.324371    0.000000    0.000000    0.000000    0.000000
  0.026432866  -22.336240 -114.994141  -66.285841 -128.914978    0.000000    0.000000    0.000000    0.000000
  0.026633267  -22.762815 -114.243866  -67.031332 -105.450287    0.000000    0.000000    0.000000    0.000000
  0.026833667  -23.153961 -112.603180  -66.719458 -129.163406    0.000000    0.000000    0.000000    0.000000
  0.027034068  -23.717122 -110.382584  -65.505955 -118.685181    0.000000    0.000000    0.000000    0.000000
  0.027234469  -24.312208 -108.481415  -66.165721 -118.644974    0.000000    0.000000    0.000000    0.000000
  0.027434870  -24.575801 -105.575974  -66.702828 -115.722092    0.000000    0.000000    0.000000    0.000000
  0.027635271  -24.845264 -102.048317  -67.269688 -107.112930    0.000000    0.000000    0.000000    0.000000
  0.027835671  -25.306261  -98.542747  -65.950133 -108.236786    0.000000    0.000000    0.000000    0.000000
  0.028036072  -25.283505  -94.937767  -65.739498 -114.222725    0.000000    0.000000    0.000000    0.000000
  0.028236473  -25.562488  -91.843788  -64.534809 -109.462112    0.000000    0.000000    0.000000    0.000000
  0.028436874  -25.900695  -87.091179  -66.289855 -106.529335    0.000000    0.000000    0.000000    0.000000
  0.028637275  -25.917006  -82.739677  -64.951143 -108.497971    0.000000    0.000000    0.000000    0.000000
  0.028837675  -25.581519  -80.595192  -65.183994 -107.253677    0.000000    0.000000    0.000000    0.000000
  0.029038076  -25.655936  -77.743774  -66.491589 -110.150307    0.000000    0.000000    0.000000    0.000000
  0.029238477  -25.061189  -75.326187  -65.009947 -110.279121    0.000000    0.000000    0.000000    0.000000
  0.029438878  -25.344921  -73.077774  -65.247094 -104.520462    0.000000    0.000000    0.000000    0.000000
  0.029639279  -25.218838  -72.623444  -65.711163  -93.584579    0.000000    0.000000    0.000000    0.000000
  0.029839679  -25.220625  -70.254959  -64.584745 -105.062973    0.000000    0.000000    0.000000    0.000000
  0.030040080  -25.191016  -68.975754  -65.593761  -96.098854    0.000000    0.000000    0.000000    0.000000
  0.030240481  -25.179938  -67.190079  -64.771208  -95.268929    0.000000    0.000000    0.000000    0.000000
  0.030440882  -24.679936  -65.729927  -65.435049 -108.261887    0.000000    0.000000    0.000000    0.000000
  0.030641283  -24.937633  -64.423622  -65.822829  -96.158730    0.000000    0.000000    0.000000    0.000000
  0.030841683  -25.061686  -62.605083  -66.475374 -100.968201    0.000000    0.000000    0.000000    0.000000
  0.031042084  -25.171975  -62.058083  -64.917834  -91.966049    0.000000    0.000000    0.000000    0.000000
  0.031242485  -24.996803  -60.792728  -65.918939  -99.656235    0.000000    0.000000    0.000000    0.000000
  0.031442886  -25.002270  -60.267151  -65.935153  -96.383804    0.000000    0.000000    0.000000    0.000000
  0.031643287  -25.077960  -57.793541  -66.860698  -85.287987    0.000000    0.000000    0.000000    0.000000
  0.031843687  -24.805382  -56.479790  -66.470723  -97.760170    0.000000    0.000000    0.000000    0.000000
  0.032044088  -25.335061  -56.176208  -66.569257  -86.254494    0.000000    0.000000    0.000000    0.000000
  0.032244489  -25.288148  -54.073200  -65.037185  -84.283150    0.000000    0.000000    0.000000    0.000000
  0.032444890  -25.147604  -53.390369  -65.900058  -98.349197    0.000000    0.000000    0.000000    0.000000
  0.032645291  -25.124278  -50.263664  -65.661490 -104.101578    0.000000    0.000000    0.000000    0.000000
  0.032845691  -25.322254  -50.261772  -66.440206  -86.787529    0.000000    0.000000    0.000000    0.000000
  0.033046092  -24.997998  -47.935745  -66.642511  -87.251297    0.000000    0.000000    0.000000    0.000000
  0.033246493  -25.434258  -47.844566  -65.896666  -87.038467    0.000000    0.000000    0.000000    0.000000
  0.033446894  -25.539729  -45.902916  -66.490485  -82.600220    0.000000    0.000000    0.000000    0.000000
  0.033647295  -25.535448  -44.859314  -66.870232  -85.559143    0.000000    0.000000    0.000000    0.000000
  0.033847695  -25.306502  -44.052113  -68.465662  -78.895752    0.000000    0.000000    0.000000    0.000000
  0.034048096  -25.242361  -42.138786  -66.539451  -78.020813    0.000000    0.000000    0.000000    0.000000
  0.034248497  -25.362810  -39.711800  -68.442671  -79.399849    0.000000    0.000000    0.000000    0.000000
  0.034448898  -25.305166  -39.813866  -66.147870  -79.526604    0.000000    0.000000    0.000000    0.000000
  0.034649299  -25.323217  -38.240410  -66.026406  -70.634842    0.000000    0.000000    0.000000    0.000000
  0.034849699  -25.551083  -36.394131  -66.370160  -72.447098    0.000000    0.000000    0.000000    0.000000
  0.035050100  -25.565278  -36.224693  -66.611916  -65.057289    0.000000    0.000000    0.000000    0.000000
  0.035250501  -25.411287  -34.054863  -68.600093  -66.208374    0.000000    0.000000    0.000000    0.000000
  0.035450902  -25.528112  -33.275017  -66.896801  -60.857121    0.000000    0.000000    0.000000    0.000000
  0.035651303  -25.638911  -33.072861  -66.499756  -65.144875    0.000000    0.000000    0.000000    0.000000
  0.035851703  -25.610987  -31.683062  -68.721557  -66.912460    0.000000    0.000000    0.000000    0.000000
  0.036052104  -25.725827  -30.714521  -67.740832  -58.680130    0.000000    0.000000    0.000000    0.000000
  0.036252505  -25.648025  -28.300980  -66.888457  -56.849583    0.000000    0.000000    0.000000    0.000000
  0.036452906  -25.510584  -26.863890  -67.369645  -56.834698    0.000000    0.000000    0.000000    0.000000
  0.036653307  -25.483866  -25.738274  -67.865496  -58.011024    0.000000    0.000000    0.000000    0.000000
  0.036853707  -25.810526  -26.764841  -68.458569  -50.717331    0.000000    0.000000    0.000000    0.000000
  0.037054108  -25.656634  -23.881550  -69.254036  -56.456120    0.000000    0.000000    0.000000    0.000000
  0.037254509  -25.827712  -23.354700  -67.708040  -44.747204    0.000000    0.000000    0.000000    0.000000
  0.037454910  -25.685495  -20.825193  -68.173670  -43.986744    0.000000    0.000000    0.000000    0.000000
  0.037655311  -26.038686  -20.320202  -66.644911  -47.652401    0.000000    0.000000    0.000000    0.000000
  0.037855711  -25.864869  -19.255541  -67.946536  -33.067490    0.000000    0.000000    0.000000    0.000000
  0.038056112  -25.939375  -19.015314  -69.319036  -51.694279    0.000000    0.000000    0.000000    0.000000
  0.038256513  -26.040101  -17.089371  -69.751438  -30.800455    0.000000    0.000000    0.000000    0.000000
  0.038456914  -25.991311  -16.321377  -68.409094  -34.357826    0.000000    0.000000    0.000000    0.000000
  0.038657315  -26.146173  -15.233980  -69.900534  -44.382656    0.000000    0.000000    0.000000    0.000000
  0.038857715  -26.133014  -13.477226  -70.151235  -21.703972    0.000000    0.000000    0.000000    0.000000
  0.039058116  -26.134270  -12.541413  -68.835774  -33.055622    0.000000    0.000000    0.000000    0.000000
  0.039258517  -26.250383  -10.810615  -69.985602  -29.469589    0.000000    0.000000    0.000000    0.000000
  0.039458918  -26.342887  -11.019819  -68.415251  -28.021034    0.000000    0.000000    0.000000    0.000000
  0.039659319  -26.519685  -10.012723  -66.840759  -19.795952    0.000000    0.000000    0.000000    0.000000
  0.039859719  -26.634342   -8.586201  -68.095534  -18.780338    0.000000    0.000000    0.000000    0.000000
  0.040060120  -26.612768   -6.680479  -67.736440  -20.112282    0.000000    0.000000    0.000000    0.000000
  0.040260521  -26.617605   -6.075806  -70.427698  -19.269978    0.000000    0.000000    0.000000    0.000000
  0.040460922  -26.723107   -5.725514  -69.210035  -16.548426    0.000000    0.000000    0.000000    0.000000
  0.040661323  -26.755626   -3.508898  -68.283543  -20.463284    0.000000    0.000000    0.000000    0.000000
  0.040861723  -26.693819   -3.019036  -69.423154   -4.699461    0.000000    0.000000    0.000000    0.000000
  0.041062124  -26.966757   -1.105214  -67.406048   -9.636150    0.000000    0.000000    0.000000    0.000000
  0.041262525  -26.857894   -0.598258  -67.675515   -5.187750    0.000000    0.000000    0.000000    0.000000
  0.041462926  -27.098633    0.861688  -66.808125  -11.722678    0.000000    0.000000    0.000000    0.000000
  0.041663327  -27.089033    2.167444  -66.820985  -16.572248    0.000000    0.000000    0.000000    0.000000
  0.041863727  -27.137238    2.582094  -68.175609    2.258761    0.000000    0.000000    0.000000    0.000000
  0.042064128  -27.177954    7.023824  -68.900607   -7.203604    0.000000    0.000000    0.000000    0.000000
  0.042264529  -27.225398    6.175016  -67.603275   -7.358781    0.000000    0.000000    0.000000    0.000000
  0.042464930  -27.357706    7.908242  -67.411651    3.836571    0.000000    0.000000    0.000000    0.000000
  0.042665331  -27.427177    8.310946  -65.606844    1.108139    0.000000    0.000000    0.000000    0.000000
  0.042865731  -27.728840    9.663859  -66.670159   13.776870    0.000000    0.000000    0.000000    0.000000
