! Anritsu VNA Master:                 Model: MS2034B/10/19/501
! SN:                                  1337062
! /bd0/ovro-jan-2016/dcp-b1-s11.s2p
! Existing Calibration Information:
! TYPE:                         Current Settings,       Active Cal Settings
! TIME:             	   01/09/2016 05:46:23 PM,    01/09/2016 12:40:35 PM
! INTERNAL TEMP:    	                   41.8 C,                    41.8 C
! # POINTS:         	                      500,                       500
! START FREQ:       	               10.000 MHz,                10.000 MHz
! STOP FREQ:        	              110.000 MHz,               110.000 MHz
! SOURCE POWER:     	                      Low,                       Low
! IFBW:             	                   100 Hz,                    100 Hz
! AVG FACTOR:       	                       3 ,                        3 
! REF PLANE 1:      	                 2.2245 m,                  2.2245 m
! REF PLANE 2:      	                     0 mm,                      0 mm
! CAL TYPE:         	             1P2P S11,S21,              1P2P S11,S21
! CAL METHOD:       	                     SOLT,                      SOLT
! CAL LINE TYPE:    	                     Coax,                      Coax
! DUT PORT 1:       	                K-Conn(M),                 K-Conn(M)
! DUT PORT 2:       	                N-Conn(M),                 N-Conn(M)
! CAL STATUS:       	        OK: Accuracy High,                        --
# GHZ S DB R 50.0
! FREQ.GHZ       S11DB        S11A       S21DB        S21A       S12DB        S12A       S22DB        S22A
  0.010000000  -25.731660 -165.275665  -52.042621 -123.168938    0.000000    0.000000    0.000000    0.000000
  0.010200401  -25.679234 -167.715179  -60.775328 -113.371437    0.000000    0.000000    0.000000    0.000000
  0.010400802  -25.994341 -169.438736  -59.185523   41.783459    0.000000    0.000000    0.000000    0.000000
  0.010601202  -26.007253 -171.986481  -50.822571   46.662182    0.000000    0.000000    0.000000    0.000000
  0.010801603  -26.050814 -175.778610  -46.184390   45.373966    0.000000    0.000000    0.000000    0.000000
  0.011002004  -26.032691 -176.606659  -43.521577   41.323956    0.000000    0.000000    0.000000    0.000000
  0.011202405  -26.066355  179.768661  -41.490555   40.351673    0.000000    0.000000    0.000000    0.000000
  0.011402806  -26.392321  178.540359  -39.969643   37.265266    0.000000    0.000000    0.000000    0.000000
  0.011603206  -26.340832  176.905518  -38.604680   36.583237    0.000000    0.000000    0.000000    0.000000
  0.011803607  -26.398815  173.242569  -37.429591   35.039921    0.000000    0.000000    0.000000    0.000000
  0.012004008  -26.478151  169.334229  -36.582865   34.458279    0.000000    0.000000    0.000000    0.000000
  0.012204409  -26.400212  168.218765  -35.892743   31.679552    0.000000    0.000000    0.000000    0.000000
  0.012404810  -26.350208  165.480255  -35.347833   29.623035    0.000000    0.000000    0.000000    0.000000
  0.012605210  -26.405234  163.055176  -34.904205   28.231268    0.000000    0.000000    0.000000    0.000000
  0.012805611  -26.667571  159.820190  -34.412379   26.311338    0.000000    0.000000    0.000000    0.000000
  0.013006012  -26.689149  156.968338  -34.332862   24.501406    0.000000    0.000000    0.000000    0.000000
  0.013206413  -26.280431  155.907532  -34.354845   23.581610    0.000000    0.000000    0.000000    0.000000
  0.013406814  -26.612222  151.065582  -34.400753   21.178564    0.000000    0.000000    0.000000    0.000000
  0.013607214  -26.499533  151.080353  -34.497610   19.458454    0.000000    0.000000    0.000000    0.000000
  0.013807615  -26.443671  147.815277  -34.812321   18.627689    0.000000    0.000000    0.000000    0.000000
  0.014008016  -26.272913  148.945084  -35.344169   16.484600    0.000000    0.000000    0.000000    0.000000
  0.014208417  -26.337895  143.523804  -36.032177   15.076731    0.000000    0.000000    0.000000    0.000000
  0.014408818  -26.413325  140.675888  -36.800610   13.418824    0.000000    0.000000    0.000000    0.000000
  0.014609218  -26.283328  139.565353  -37.947422   12.696272    0.000000    0.000000    0.000000    0.000000
  0.014809619  -26.036968  136.202866  -39.538170   12.437227    0.000000    0.000000    0.000000    0.000000
  0.015010020  -26.040930  135.343643  -42.058308   11.547649    0.000000    0.000000    0.000000    0.000000
  0.015210421  -25.873027  131.906357  -45.356880   17.868793    0.000000    0.000000    0.000000    0.000000
  0.015410822  -25.928778  129.646210  -51.823588   35.173996    0.000000    0.000000    0.000000    0.000000
  0.015611222  -25.869377  127.766571  -53.338633  129.302567    0.000000    0.000000    0.000000    0.000000
  0.015811623  -25.834419  126.007179  -45.468910  157.105087    0.000000    0.000000    0.000000    0.000000
  0.016012024  -25.687175  124.506317  -40.792109  162.606400    0.000000    0.000000    0.000000    0.000000
  0.016212425  -25.432212  122.585884  -37.607501  163.750046    0.000000    0.000000    0.000000    0.000000
  0.016412826  -25.274713  120.169777  -35.105478  162.520126    0.000000    0.000000    0.000000    0.000000
  0.016613226  -25.183413  117.484543  -33.318326  161.317261    0.000000    0.000000    0.000000    0.000000
  0.016813627  -24.985256  116.071991  -31.497282  160.712311    0.000000    0.000000    0.000000    0.000000
  0.017014028  -25.031584  113.517159  -30.263320  158.420090    0.000000    0.000000    0.000000    0.000000
  0.017214429  -24.858503  113.065468  -28.971473  156.657684    0.000000    0.000000    0.000000    0.000000
  0.017414830  -24.491820  110.249886  -28.068623  155.030457    0.000000    0.000000    0.000000    0.000000
  0.017615230  -24.498268  109.513191  -27.255848  153.822983    0.000000    0.000000    0.000000    0.000000
  0.017815631  -24.276907  106.308090  -26.605487  151.613464    0.000000    0.000000    0.000000    0.000000
  0.018016032  -24.331390  104.375862  -26.044340  149.414139    0.000000    0.000000    0.000000    0.000000
  0.018216433  -24.001768  103.473930  -25.614543  148.096832    0.000000    0.000000    0.000000    0.000000
  0.018416834  -23.870620  101.822792  -25.516799  146.406921    0.000000    0.000000    0.000000    0.000000
  0.018617234  -23.832652  100.402115  -25.382210  145.005630    0.000000    0.000000    0.000000    0.000000
  0.018817635  -23.655141   98.784187  -25.695570  143.661255    0.000000    0.000000    0.000000    0.000000
  0.019018036  -23.530630   96.337753  -26.320967  142.927734    0.000000    0.000000    0.000000    0.000000
  0.019218437  -23.380241   94.458656  -27.318927  142.601120    0.000000    0.000000    0.000000    0.000000
  0.019418838  -23.070685   92.646629  -28.783875  143.180222    0.000000    0.000000    0.000000    0.000000
  0.019619238  -22.879763   91.073219  -31.501602  148.586578    0.000000    0.000000    0.000000    0.000000
  0.019819639  -22.817874   90.281021  -36.417296  167.777435    0.000000    0.000000    0.000000    0.000000
  0.020020040  -22.731175   88.874245  -38.005767 -117.850967    0.000000    0.000000    0.000000    0.000000
  0.020220441  -22.591580   87.482323  -30.282569  -82.257225    0.000000    0.000000    0.000000    0.000000
  0.020420842  -22.428410   85.521660  -24.933057  -75.135162    0.000000    0.000000    0.000000    0.000000
  0.020621242  -22.242933   83.626709  -20.940842  -73.265770    0.000000    0.000000    0.000000    0.000000
  0.020821643  -22.127819   81.606567  -17.856306  -73.486153    0.000000    0.000000    0.000000    0.000000
  0.021022044  -22.037444   79.786339  -15.203300  -75.051186    0.000000    0.000000    0.000000    0.000000
  0.021222445  -21.788779   78.415062  -12.854926  -76.383087    0.000000    0.000000    0.000000    0.000000
  0.021422846  -21.854462   76.822617  -10.686504  -78.524170    0.000000    0.000000    0.000000    0.000000
  0.021623246  -21.678308   75.053688   -8.742599  -80.445068    0.000000    0.000000    0.000000    0.000000
  0.021823647  -21.564930   73.119911   -6.788371  -82.287338    0.000000    0.000000    0.000000    0.000000
  0.022024048  -21.342077   71.330902   -5.065206  -84.672958    0.000000    0.000000    0.000000    0.000000
  0.022224449  -21.059508   69.820839   -3.327613  -87.070480    0.000000    0.000000    0.000000    0.000000
  0.022424850  -21.062563   68.045197   -1.810100  -89.801353    0.000000    0.000000    0.000000    0.000000
  0.022625251  -20.977608   66.053200   -0.184038  -92.706123    0.000000    0.000000    0.000000    0.000000
  0.022825651  -20.721881   64.358437    1.108124  -95.114311    0.000000    0.000000    0.000000    0.000000
  0.023026052  -20.657517   62.308006    2.596240  -98.050720    0.000000    0.000000    0.000000    0.000000
  0.023226453  -20.476586   60.045601    3.997970 -100.939331    0.000000    0.000000    0.000000    0.000000
  0.023426854  -20.429711   57.718445    5.347032 -103.852165    0.000000    0.000000    0.000000    0.000000
  0.023627255  -20.467140   55.644241    6.677216 -107.798584    0.000000    0.000000    0.000000    0.000000
  0.023827655  -19.917871   55.329948    7.774517 -108.580154    0.000000    0.000000    0.000000    0.000000
  0.024028056  -19.814247   53.847744    9.013986 -111.751617    0.000000    0.000000    0.000000    0.000000
  0.024228457  -19.721094   51.670315   10.208985 -115.401688    0.000000    0.000000    0.000000    0.000000
  0.024428858  -19.696795   48.519142   11.431592 -118.966415    0.000000    0.000000    0.000000    0.000000
  0.024629259  -19.474036   47.062645   12.683954 -122.724548    0.000000    0.000000    0.000000    0.000000
  0.024829659  -19.524533   45.229065   13.745016 -126.919228    0.000000    0.000000    0.000000    0.000000
  0.025030060  -19.294331   42.249622   14.901873 -131.335281    0.000000    0.000000    0.000000    0.000000
  0.025230461  -19.158710   39.251862   16.129573 -135.322052    0.000000    0.000000    0.000000    0.000000
  0.025430862  -19.271907   36.841053   17.318914 -140.457809    0.000000    0.000000    0.000000    0.000000
  0.025631263  -19.059037   34.369259   18.504263 -144.821930    0.000000    0.000000    0.000000    0.000000
  0.025831663  -19.027730   31.581545   19.603083 -150.324326    0.000000    0.000000    0.000000    0.000000
  0.026032064  -19.095042   27.868563   20.753692 -155.073456    0.000000    0.000000    0.000000    0.000000
  0.026232465  -18.944624   24.018784   21.792430 -161.008804    0.000000    0.000000    0.000000    0.000000
  0.026432866  -19.014469   20.823889   22.880859 -166.431854    0.000000    0.000000    0.000000    0.000000
  0.026633267  -19.043195   16.390648   23.849984 -172.161453    0.000000    0.000000    0.000000    0.000000
  0.026833667  -19.328331   13.499035   24.904146 -178.074554    0.000000    0.000000    0.000000    0.000000
  0.027034068  -19.530636    8.620414   25.835956  175.553558    0.000000    0.000000    0.000000    0.000000
  0.027234469  -19.793480    5.228758   26.697297  169.273804    0.000000    0.000000    0.000000    0.000000
  0.027434870  -20.117060    1.313969   27.603781  161.730835    0.000000    0.000000    0.000000    0.000000
  0.027635271  -20.455160   -3.974464   28.271735  154.458374    0.000000    0.000000    0.000000    0.000000
  0.027835671  -21.013773   -8.290384   28.931987  147.020737    0.000000    0.000000    0.000000    0.000000
  0.028036072  -21.708793  -11.653513   29.503477  139.976089    0.000000    0.000000    0.000000    0.000000
  0.028236473  -22.224669  -15.006456   30.024686  132.112442    0.000000    0.000000    0.000000    0.000000
  0.028436874  -23.008164  -19.476959   30.390589  125.550102    0.000000    0.000000    0.000000    0.000000
  0.028637275  -23.849868  -20.706490   30.782224  117.595070    0.000000    0.000000    0.000000    0.000000
  0.028837675  -24.902642  -23.359276   31.100787  110.208450    0.000000    0.000000    0.000000    0.000000
  0.029038076  -26.101008  -22.100157   31.287694  103.258736    0.000000    0.000000    0.000000    0.000000
  0.029238477  -27.148289  -21.897429   31.475920   97.273445    0.000000    0.000000    0.000000    0.000000
  0.029438878  -27.885156  -22.027807   31.618368   91.076279    0.000000    0.000000    0.000000    0.000000
  0.029639279  -28.692298  -19.135145   31.709269   84.601959    0.000000    0.000000    0.000000    0.000000
  0.029839679  -29.640466  -13.965293   31.830019   78.942894    0.000000    0.000000    0.000000    0.000000
  0.030040080  -30.497869  -11.370102   31.841497   73.824867    0.000000    0.000000    0.000000    0.000000
  0.030240481  -30.857417   -6.059904   31.904580   69.086494    0.000000    0.000000    0.000000    0.000000
  0.030440882  -31.580227   -0.635922   31.968920   64.165138    0.000000    0.000000    0.000000    0.000000
  0.030641283  -31.009646    4.065650   31.919819   59.943714    0.000000    0.000000    0.000000    0.000000
  0.030841683  -31.341552    7.483049   31.956620   55.646080    0.000000    0.000000    0.000000    0.000000
  0.031042084  -31.512802   10.702562   32.010785   51.529099    0.000000    0.000000    0.000000    0.000000
  0.031242485  -31.947351   14.937463   32.007451   47.214222    0.000000    0.000000    0.000000    0.000000
  0.031442886  -31.250978   17.430506   32.042996   43.235081    0.000000    0.000000    0.000000    0.000000
  0.031643287  -31.648125   16.697691   32.100492   39.432175    0.000000    0.000000    0.000000    0.000000
  0.031843687  -31.239087   19.058445   32.056275   35.179096    0.000000    0.000000    0.000000    0.000000
  0.032044088  -31.316204   20.058723   32.085800   31.490414    0.000000    0.000000    0.000000    0.000000
  0.032244489  -31.328171   22.076546   32.118533   27.945984    0.000000    0.000000    0.000000    0.000000
  0.032444890  -31.282439   24.145977   32.082124   24.164900    0.000000    0.000000    0.000000    0.000000
  0.032645291  -31.174625   24.705965   32.144235   20.632502    0.000000    0.000000    0.000000    0.000000
  0.032845691  -31.327728   24.507956   32.172573   17.317774    0.000000    0.000000    0.000000    0.000000
  0.033046092  -31.582825   23.231848   32.159341   14.372105    0.000000    0.000000    0.000000    0.000000
  0.033246493  -31.347327   25.833963   32.148703   11.190278    0.000000    0.000000    0.000000    0.000000
  0.033446894  -31.514977   25.715805   32.212030    8.721345    0.000000    0.000000    0.000000    0.000000
  0.033647295  -32.014991   23.145546   32.180105    5.494174    0.000000    0.000000    0.000000    0.000000
  0.033847695  -32.216675   24.025133   32.169150    3.057774    0.000000    0.000000    0.000000    0.000000
  0.034048096  -32.075893   25.392275   32.158699    0.417832    0.000000    0.000000    0.000000    0.000000
  0.034248497  -32.791304   28.215433   32.188028   -2.781116    0.000000    0.000000    0.000000    0.000000
  0.034448898  -32.557596   31.739626   32.166095   -5.221921    0.000000    0.000000    0.000000    0.000000
  0.034649299  -32.702106   30.190180   32.150654   -7.945242    0.000000    0.000000    0.000000    0.000000
  0.034849699  -33.231326   24.868277   32.150269  -10.899847    0.000000    0.000000    0.000000    0.000000
  0.035050100  -33.876887   29.107080   32.118199  -13.625482    0.000000    0.000000    0.000000    0.000000
  0.035250501  -33.359863   30.920618   32.162779  -16.508469    0.000000    0.000000    0.000000    0.000000
  0.035450902  -34.427117   33.447708   32.145813  -19.171888    0.000000    0.000000    0.000000    0.000000
  0.035651303  -34.040060   34.873684   32.116788  -22.083288    0.000000    0.000000    0.000000    0.000000
  0.035851703  -34.550079   37.297413   32.121407  -24.372776    0.000000    0.000000    0.000000    0.000000
  0.036052104  -34.280751   37.382477   32.045562  -26.700018    0.000000    0.000000    0.000000    0.000000
  0.036252505  -35.361595   42.591148   32.042891  -29.356325    0.000000    0.000000    0.000000    0.000000
  0.036452906  -34.707535   42.328297   31.999679  -31.495487    0.000000    0.000000    0.000000    0.000000
  0.036653307  -34.747418   48.209846   32.015452  -33.939701    0.000000    0.000000    0.000000    0.000000
  0.036853707  -35.341855   44.968960   31.972174  -36.037647    0.000000    0.000000    0.000000    0.000000
  0.037054108  -35.495447   48.318134   31.952402  -38.028507    0.000000    0.000000    0.000000    0.000000
  0.037254509  -35.469645   51.126987   32.016397  -40.305428    0.000000    0.000000    0.000000    0.000000
  0.037454910  -35.763692   52.470066   32.045295  -42.617493    0.000000    0.000000    0.000000    0.000000
  0.037655311  -36.090597   54.678543   32.065817  -44.531563    0.000000    0.000000    0.000000    0.000000
  0.037855711  -35.808782   59.770267   32.088068  -46.354984    0.000000    0.000000    0.000000    0.000000
  0.038056112  -36.148806   62.716770   32.159039  -47.952663    0.000000    0.000000    0.000000    0.000000
  0.038256513  -35.497457   68.860718   32.221194  -49.891254    0.000000    0.000000    0.000000    0.000000
  0.038456914  -36.579371   71.567261   32.269360  -51.938915    0.000000    0.000000    0.000000    0.000000
  0.038657315  -35.758385   72.534386   32.234354  -53.692570    0.000000    0.000000    0.000000    0.000000
  0.038857715  -36.692274   70.600479   32.234770  -55.645592    0.000000    0.000000    0.000000    0.000000
  0.039058116  -35.954103   76.497307   32.225855  -57.277725    0.000000    0.000000    0.000000    0.000000
  0.039258517  -35.492347   75.071381   32.218880  -59.890617    0.000000    0.000000    0.000000    0.000000
  0.039458918  -35.161985   78.596977   32.187061  -61.527519    0.000000    0.000000    0.000000    0.000000
  0.039659319  -36.091010   77.273033   32.171172  -63.935463    0.000000    0.000000    0.000000    0.000000
  0.039859719  -35.216526   80.245186   32.074178  -65.669136    0.000000    0.000000    0.000000    0.000000
  0.040060120  -35.496397   85.302864   32.098937  -68.020874    0.000000    0.000000    0.000000    0.000000
  0.040260521  -35.356310   83.749191   32.082045  -69.708267    0.000000    0.000000    0.000000    0.000000
  0.040460922  -35.233553   84.527283   32.063427  -71.712158    0.000000    0.000000    0.000000    0.000000
  0.040661323  -34.817363   89.752251   32.061413  -73.382935    0.000000    0.000000    0.000000    0.000000
  0.040861723  -34.606345   91.199051   32.110896  -74.648224    0.000000    0.000000    0.000000    0.000000
  0.041062124  -35.081055   94.703125   32.123849  -76.153305    0.000000    0.000000    0.000000    0.000000
  0.041262525  -34.991903   93.787666   32.138503  -77.738655    0.000000    0.000000    0.000000    0.000000
  0.041462926  -34.671392   91.871239   32.205906  -78.932022    0.000000    0.000000    0.000000    0.000000
  0.041663327  -34.225464   93.962120   32.198339  -80.277176    0.000000    0.000000    0.000000    0.000000
  0.041863727  -34.076239   97.246155   32.227410  -81.987190    0.000000    0.000000    0.000000    0.000000
  0.042064128  -34.079711   95.981949   32.227910  -83.422134    0.000000    0.000000    0.000000    0.000000
  0.042264529  -34.198585   97.280312   32.243362  -85.441505    0.000000    0.000000    0.000000    0.000000
  0.042464930  -33.436826   96.981926   32.219317  -87.566238    0.000000    0.000000    0.000000    0.000000
  0.042665331  -33.632738  100.833481   32.230239  -90.001205    0.000000    0.000000    0.000000    0.000000
  0.042865731  -33.848420  101.716980   32.248993  -91.396080    0.000000    0.000000    0.000000    0.000000
