! Anritsu VNA Master:                 Model: MS2034B/10/19/501
! SN:                                  1337062
! /bd0/ovro-jan-2016/dcp-a1-s22.s2p
! Existing Calibration Information:
! TYPE:                         Current Settings,       Active Cal Settings
! TIME:             	   01/10/2016 03:27:44 PM,    01/10/2016 03:13:30 PM
! INTERNAL TEMP:    	                   43.3 C,                    45.8 C
! # POINTS:         	                      500,                       500
! START FREQ:       	               10.000 MHz,                10.000 MHz
! STOP FREQ:        	              110.000 MHz,               110.000 MHz
! SOURCE POWER:     	                      Low,                       Low
! IFBW:             	                   100 Hz,                    100 Hz
! AVG FACTOR:       	                       3 ,                        3 
! REF PLANE 1:      	                 2.2245 m,                  2.2245 m
! REF PLANE 2:      	                     0 mm,                      0 mm
! CAL TYPE:         	             1P2P S11,S21,              1P2P S11,S21
! CAL METHOD:       	                     SOLT,                      SOLT
! CAL LINE TYPE:    	                     Coax,                      Coax
! DUT PORT 1:       	                K-Conn(M),                 K-Conn(M)
! DUT PORT 2:       	                N-Conn(M),                 N-Conn(M)
! CAL STATUS:       	        OK: Accuracy High,                        --
# GHZ S DB R 50.0
! FREQ.GHZ       S11DB        S11A       S21DB        S21A       S12DB        S12A       S22DB        S22A
  0.010000000  -24.211851  154.595535  -66.898556   87.442741    0.000000    0.000000    0.000000    0.000000
  0.010200401  -24.405272  158.848785  -65.218371   86.948051    0.000000    0.000000    0.000000    0.000000
  0.010400802  -24.967251  160.178192  -65.083635   80.794746    0.000000    0.000000    0.000000    0.000000
  0.010601202  -25.131474  161.866547  -65.414756   90.807640    0.000000    0.000000    0.000000    0.000000
  0.010801603  -25.221052  165.938614  -66.351796   86.382942    0.000000    0.000000    0.000000    0.000000
  0.011002004  -25.713066  169.049545  -65.228410   90.807198    0.000000    0.000000    0.000000    0.000000
  0.011202405  -25.753339  172.531845  -67.173967   98.527374    0.000000    0.000000    0.000000    0.000000
  0.011402806  -26.095471  176.188278  -66.484857   89.390175    0.000000    0.000000    0.000000    0.000000
  0.011603206  -26.017081  178.811386  -65.649014   90.849464    0.000000    0.000000    0.000000    0.000000
  0.011803607  -26.412351  179.797745  -66.107222  106.777527    0.000000    0.000000    0.000000    0.000000
  0.012004008  -26.083391 -174.325546  -65.345790   89.890358    0.000000    0.000000    0.000000    0.000000
  0.012204409  -26.225797 -172.274490  -66.044068  102.182213    0.000000    0.000000    0.000000    0.000000
  0.012404810  -26.130921 -169.059082  -66.171043   99.017319    0.000000    0.000000    0.000000    0.000000
  0.012605210  -26.244395 -165.622696  -66.685911   98.333916    0.000000    0.000000    0.000000    0.000000
  0.012805611  -26.047681 -162.659729  -66.532590   99.844093    0.000000    0.000000    0.000000    0.000000
  0.013006012  -26.252864 -163.337860  -66.302939  103.632912    0.000000    0.000000    0.000000    0.000000
  0.013206413  -25.926276 -158.131195  -67.750407  120.344955    0.000000    0.000000    0.000000    0.000000
  0.013406814  -25.936271 -155.154877  -66.375204  108.213791    0.000000    0.000000    0.000000    0.000000
  0.013607214  -25.806017 -152.987823  -66.519107  108.422050    0.000000    0.000000    0.000000    0.000000
  0.013807615  -25.737746 -150.437103  -66.780876  104.496124    0.000000    0.000000    0.000000    0.000000
  0.014008016  -25.535351 -148.668213  -68.707214  118.656013    0.000000    0.000000    0.000000    0.000000
  0.014208417  -25.550717 -149.307739  -65.580296  107.848564    0.000000    0.000000    0.000000    0.000000
  0.014408818  -25.346195 -144.946747  -68.328536  118.976036    0.000000    0.000000    0.000000    0.000000
  0.014609218  -25.245147 -143.362946  -66.703756  127.722214    0.000000    0.000000    0.000000    0.000000
  0.014809619  -25.084031 -140.892120  -67.168484  121.673492    0.000000    0.000000    0.000000    0.000000
  0.015010020  -24.831408 -140.601929  -67.247721  123.520554    0.000000    0.000000    0.000000    0.000000
  0.015210421  -24.765294 -138.337936  -66.534256  134.669037    0.000000    0.000000    0.000000    0.000000
  0.015410822  -24.613124 -136.839233  -67.898440  124.984810    0.000000    0.000000    0.000000    0.000000
  0.015611222  -24.546702 -137.997330  -65.683816  121.909584    0.000000    0.000000    0.000000    0.000000
  0.015811623  -24.262992 -135.014282  -66.830644  136.251953    0.000000    0.000000    0.000000    0.000000
  0.016012024  -24.217259 -133.971832  -67.196996  124.831856    0.000000    0.000000    0.000000    0.000000
  0.016212425  -24.181791 -133.359970  -65.827712  126.372421    0.000000    0.000000    0.000000    0.000000
  0.016412826  -24.126945 -131.774445  -66.206287  136.651917    0.000000    0.000000    0.000000    0.000000
  0.016613226  -23.994704 -131.698792  -66.137015  134.275101    0.000000    0.000000    0.000000    0.000000
  0.016813627  -23.713723 -130.547775  -67.529876  141.528717    0.000000    0.000000    0.000000    0.000000
  0.017014028  -23.677117 -129.713837  -65.787036  136.481827    0.000000    0.000000    0.000000    0.000000
  0.017214429  -23.391398 -128.798264  -67.419123  144.976318    0.000000    0.000000    0.000000    0.000000
  0.017414830  -23.308856 -127.975533  -67.168446  147.943848    0.000000    0.000000    0.000000    0.000000
  0.017615230  -23.272741 -127.792198  -67.598943  144.325211    0.000000    0.000000    0.000000    0.000000
  0.017815631  -23.226750 -128.070343  -69.421441  147.214737    0.000000    0.000000    0.000000    0.000000
  0.018016032  -23.150146 -129.561523  -68.301977  152.611710    0.000000    0.000000    0.000000    0.000000
  0.018216433  -23.170808 -127.043839  -66.995624  143.370300    0.000000    0.000000    0.000000    0.000000
  0.018416834  -22.979264 -127.638725  -67.375720  157.693542    0.000000    0.000000    0.000000    0.000000
  0.018617234  -22.902072 -125.990883  -66.418627  153.166702    0.000000    0.000000    0.000000    0.000000
  0.018817635  -22.984835 -126.766685  -68.161594  152.948395    0.000000    0.000000    0.000000    0.000000
  0.019018036  -23.004163 -126.608406  -66.541560  153.464828    0.000000    0.000000    0.000000    0.000000
  0.019218437  -22.759070 -127.550453  -67.379805  154.093201    0.000000    0.000000    0.000000    0.000000
  0.019418838  -22.876222 -125.818298  -66.736481  164.121307    0.000000    0.000000    0.000000    0.000000
  0.019619238  -22.738945 -125.207886  -67.460770  166.367294    0.000000    0.000000    0.000000    0.000000
  0.019819639  -22.728595 -125.417793  -67.564570  150.546280    0.000000    0.000000    0.000000    0.000000
  0.020020040  -22.776281 -125.574394  -66.851416  166.683472    0.000000    0.000000    0.000000    0.000000
  0.020220441  -22.730701 -124.918068  -67.156132  156.842270    0.000000    0.000000    0.000000    0.000000
  0.020420842  -22.761091 -125.658104  -67.879505  164.199982    0.000000    0.000000    0.000000    0.000000
  0.020621242  -22.826367 -126.202446  -68.553636  178.816147    0.000000    0.000000    0.000000    0.000000
  0.020821643  -22.733568 -124.897003  -67.785871  164.533051    0.000000    0.000000    0.000000    0.000000
  0.021022044  -22.754935 -124.942215  -67.771056  167.337646    0.000000    0.000000    0.000000    0.000000
  0.021222445  -22.740867 -125.281952  -67.638553  173.103073    0.000000    0.000000    0.000000    0.000000
  0.021422846  -23.027563 -126.348228  -67.307266  175.750610    0.000000    0.000000    0.000000    0.000000
  0.021623246  -22.867055 -126.771347  -68.042345  170.834595    0.000000    0.000000    0.000000    0.000000
  0.021823647  -22.728769 -127.866936  -65.542769  178.534485    0.000000    0.000000    0.000000    0.000000
  0.022024048  -22.806655 -126.299500  -67.381977  177.833496    0.000000    0.000000    0.000000    0.000000
  0.022224449  -22.952951 -127.209694  -67.025916  174.352295    0.000000    0.000000    0.000000    0.000000
  0.022424850  -23.066346 -127.396378  -67.248567 -174.429550    0.000000    0.000000    0.000000    0.000000
  0.022625251  -23.064289 -128.287918  -67.231232 -173.147476    0.000000    0.000000    0.000000    0.000000
  0.022825651  -23.117183 -128.345779  -67.984573  176.731201    0.000000    0.000000    0.000000    0.000000
  0.023026052  -23.008852 -129.322235  -67.211111 -179.544144    0.000000    0.000000    0.000000    0.000000
  0.023226453  -23.484272 -128.527130  -67.652805 -179.627792    0.000000    0.000000    0.000000    0.000000
  0.023426854  -23.479976 -129.927277  -68.665154 -175.848251    0.000000    0.000000    0.000000    0.000000
  0.023627255  -23.601123 -131.069122  -67.720818 -167.109970    0.000000    0.000000    0.000000    0.000000
  0.023827655  -23.775022 -131.731567  -66.364291 -166.861801    0.000000    0.000000    0.000000    0.000000
  0.024028056  -24.060209 -132.223175  -68.351328 -168.418716    0.000000    0.000000    0.000000    0.000000
  0.024228457  -23.901512 -133.434921  -67.851049 -162.542526    0.000000    0.000000    0.000000    0.000000
  0.024428858  -24.335199 -133.994553  -65.583829 -165.750656    0.000000    0.000000    0.000000    0.000000
  0.024629259  -24.761695 -133.795029  -68.180777 -170.738220    0.000000    0.000000    0.000000    0.000000
  0.024829659  -24.822967 -135.201401  -66.118894 -135.271423    0.000000    0.000000    0.000000    0.000000
  0.025030060  -25.047519 -136.947372  -65.601408 -137.131668    0.000000    0.000000    0.000000    0.000000
  0.025230461  -25.454978 -136.713928  -65.814175 -130.539948    0.000000    0.000000    0.000000    0.000000
  0.025430862  -25.509139 -139.051697  -68.347999 -141.337616    0.000000    0.000000    0.000000    0.000000
  0.025631263  -26.037511 -141.520676  -65.775446 -123.237816    0.000000    0.000000    0.000000    0.000000
  0.025831663  -26.571863 -141.667023  -64.460174 -131.782700    0.000000    0.000000    0.000000    0.000000
  0.026032064  -27.046946 -143.190613  -65.243456 -122.676659    0.000000    0.000000    0.000000    0.000000
  0.026232465  -27.681411 -143.382584  -65.957107 -127.761009    0.000000    0.000000    0.000000    0.000000
  0.026432866  -28.057559 -143.319778  -65.525245 -129.588852    0.000000    0.000000    0.000000    0.000000
  0.026633267  -28.630979 -145.241318  -65.961435 -125.675224    0.000000    0.000000    0.000000    0.000000
  0.026833667  -29.751218 -143.816742  -65.738249 -117.928200    0.000000    0.000000    0.000000    0.000000
  0.027034068  -30.547486 -142.208694  -66.244543 -125.070274    0.000000    0.000000    0.000000    0.000000
  0.027234469  -31.600341 -142.853180  -65.534863 -120.770531    0.000000    0.000000    0.000000    0.000000
  0.027434870  -32.667126 -135.629105  -66.370875 -113.389290    0.000000    0.000000    0.000000    0.000000
  0.027635271  -33.606584 -131.694489  -64.734517 -115.132576    0.000000    0.000000    0.000000    0.000000
  0.027835671  -34.627121 -127.415115  -65.152811 -106.112961    0.000000    0.000000    0.000000    0.000000
  0.028036072  -35.402635 -120.348206  -65.860536 -115.574425    0.000000    0.000000    0.000000    0.000000
  0.028236473  -34.948257 -113.987831  -65.374746 -106.050575    0.000000    0.000000    0.000000    0.000000
  0.028436874  -35.968212 -103.597313  -65.939858 -117.849152    0.000000    0.000000    0.000000    0.000000
  0.028637275  -35.894986  -95.002762  -65.641231 -107.343727    0.000000    0.000000    0.000000    0.000000
  0.028837675  -34.986989  -89.048836  -66.297584 -109.495354    0.000000    0.000000    0.000000    0.000000
  0.029038076  -34.901264  -85.642509  -65.902150 -101.732803    0.000000    0.000000    0.000000    0.000000
  0.029238477  -34.193623  -81.794403  -65.631673 -104.729187    0.000000    0.000000    0.000000    0.000000
  0.029438878  -33.966246  -79.589806  -66.038553 -103.127037    0.000000    0.000000    0.000000    0.000000
  0.029639279  -33.872650  -77.648941  -65.787171 -101.077377    0.000000    0.000000    0.000000    0.000000
  0.029839679  -33.861190  -77.590759  -67.371628  -99.714821    0.000000    0.000000    0.000000    0.000000
  0.030040080  -33.733350  -75.858002  -65.274647  -96.764999    0.000000    0.000000    0.000000    0.000000
  0.030240481  -33.607552  -73.718140  -65.799726 -100.971588    0.000000    0.000000    0.000000    0.000000
  0.030440882  -33.062113  -72.468094  -66.075319  -97.146515    0.000000    0.000000    0.000000    0.000000
  0.030641283  -33.228056  -70.624397  -65.841287  -91.885612    0.000000    0.000000    0.000000    0.000000
  0.030841683  -33.195588  -69.283844  -65.016937  -96.803215    0.000000    0.000000    0.000000    0.000000
  0.031042084  -33.639314  -68.839348  -66.594416  -85.335793    0.000000    0.000000    0.000000    0.000000
  0.031242485  -33.424739  -66.917099  -67.448465  -89.204002    0.000000    0.000000    0.000000    0.000000
  0.031442886  -33.137217  -67.003700  -66.418030  -87.782761    0.000000    0.000000    0.000000    0.000000
  0.031643287  -33.144068  -63.370735  -65.691007  -80.346741    0.000000    0.000000    0.000000    0.000000
  0.031843687  -33.011523  -63.080238  -66.284603  -86.863945    0.000000    0.000000    0.000000    0.000000
  0.032044088  -33.569847  -60.805882  -66.724585  -89.730347    0.000000    0.000000    0.000000    0.000000
  0.032244489  -33.658341  -59.001728  -65.757172  -82.134872    0.000000    0.000000    0.000000    0.000000
  0.032444890  -33.716283  -59.747940  -65.472859  -84.094826    0.000000    0.000000    0.000000    0.000000
  0.032645291  -33.324070  -54.821484  -67.174935  -77.297676    0.000000    0.000000    0.000000    0.000000
  0.032845691  -33.348089  -55.920258  -66.003227  -73.807724    0.000000    0.000000    0.000000    0.000000
  0.033046092  -33.396491  -53.795113  -66.810890  -79.424446    0.000000    0.000000    0.000000    0.000000
  0.033246493  -33.886205  -51.757023  -66.804592  -79.038177    0.000000    0.000000    0.000000    0.000000
  0.033446894  -34.011696  -51.027729  -66.605726  -80.052635    0.000000    0.000000    0.000000    0.000000
  0.033647295  -33.788911  -48.904930  -66.687614  -61.988720    0.000000    0.000000    0.000000    0.000000
  0.033847695  -33.370085  -47.219704  -66.283177  -69.924408    0.000000    0.000000    0.000000    0.000000
  0.034048096  -33.403185  -46.550480  -66.225608  -67.059059    0.000000    0.000000    0.000000    0.000000
  0.034248497  -33.690349  -41.464355  -67.162177  -61.384441    0.000000    0.000000    0.000000    0.000000
  0.034448898  -33.553381  -43.719395  -65.930478  -67.745575    0.000000    0.000000    0.000000    0.000000
  0.034649299  -33.263739  -42.605873  -66.101834  -68.163170    0.000000    0.000000    0.000000    0.000000
  0.034849699  -33.798419  -41.324810  -68.009772  -55.928261    0.000000    0.000000    0.000000    0.000000
  0.035050100  -33.413648  -42.221798  -68.226265  -61.987312    0.000000    0.000000    0.000000    0.000000
  0.035250501  -33.716924  -37.217228  -66.557047  -58.503071    0.000000    0.000000    0.000000    0.000000
  0.035450902  -33.518295  -37.952232  -65.885985  -61.975471    0.000000    0.000000    0.000000    0.000000
  0.035651303  -33.397462  -37.342823  -66.510678  -65.691528    0.000000    0.000000    0.000000    0.000000
  0.035851703  -33.535860  -36.042767  -64.828302  -59.499622    0.000000    0.000000    0.000000    0.000000
  0.036052104  -33.863429  -37.752060  -65.789685  -59.054787    0.000000    0.000000    0.000000    0.000000
  0.036252505  -33.785292  -33.465050  -66.552365  -56.880768    0.000000    0.000000    0.000000    0.000000
  0.036452906  -33.219620  -31.363317  -65.867213  -49.518257    0.000000    0.000000    0.000000    0.000000
  0.036653307  -33.320510  -31.014400  -66.445706  -44.085979    0.000000    0.000000    0.000000    0.000000
  0.036853707  -34.302254  -35.124016  -66.726243  -54.928619    0.000000    0.000000    0.000000    0.000000
  0.037054108  -33.624476  -30.825331  -67.281944  -51.918663    0.000000    0.000000    0.000000    0.000000
  0.037254509  -34.227747  -30.940550  -67.315494  -38.777031    0.000000    0.000000    0.000000    0.000000
  0.037454910  -33.465723  -26.406832  -65.899468  -42.031513    0.000000    0.000000    0.000000    0.000000
  0.037655311  -34.370354  -26.525679  -66.955617  -45.206284    0.000000    0.000000    0.000000    0.000000
  0.037855711  -33.890363  -24.956474  -67.774246  -43.164406    0.000000    0.000000    0.000000    0.000000
  0.038056112  -34.154321  -28.887939  -66.997325  -31.062563    0.000000    0.000000    0.000000    0.000000
  0.038256513  -34.416881  -25.840212  -67.239983  -37.550613    0.000000    0.000000    0.000000    0.000000
  0.038456914  -34.512646  -25.363121  -66.460984  -32.357533    0.000000    0.000000    0.000000    0.000000
  0.038657315  -34.382326  -23.960184  -65.428561  -31.874083    0.000000    0.000000    0.000000    0.000000
  0.038857715  -34.320671  -21.334368  -65.690505  -32.199009    0.000000    0.000000    0.000000    0.000000
  0.039058116  -34.188146  -21.285776  -66.481456  -34.843422    0.000000    0.000000    0.000000    0.000000
  0.039258517  -34.991296  -25.014034  -67.836466  -23.984804    0.000000    0.000000    0.000000    0.000000
  0.039458918  -34.760335  -21.066616  -68.293896  -29.402178    0.000000    0.000000    0.000000    0.000000
  0.039659319  -35.217026  -23.428391  -66.060883  -25.093857    0.000000    0.000000    0.000000    0.000000
  0.039859719  -35.362781  -19.657324  -66.046471  -29.786896    0.000000    0.000000    0.000000    0.000000
  0.040060120  -35.303909  -17.236338  -66.057723  -30.563478    0.000000    0.000000    0.000000    0.000000
  0.040260521  -35.319131  -18.671879  -67.418043  -21.801134    0.000000    0.000000    0.000000    0.000000
  0.040460922  -35.754146  -19.157866  -66.082567  -14.505835    0.000000    0.000000    0.000000    0.000000
  0.040661323  -35.719319  -16.409180  -66.632429  -17.565952    0.000000    0.000000    0.000000    0.000000
  0.040861723  -35.642862  -17.975447  -66.409536  -20.560673    0.000000    0.000000    0.000000    0.000000
  0.041062124  -36.402467  -17.929213  -67.591751  -18.356529    0.000000    0.000000    0.000000    0.000000
  0.041262525  -35.786230  -16.439135  -67.874811  -11.642482    0.000000    0.000000    0.000000    0.000000
  0.041462926  -36.641905  -14.719637  -67.030547  -12.443602    0.000000    0.000000    0.000000    0.000000
  0.041663327  -36.333810  -11.231541  -67.014978  -11.740577    0.000000    0.000000    0.000000    0.000000
  0.041863727  -36.771761  -14.024668  -66.245838   -9.618465    0.000000    0.000000    0.000000    0.000000
  0.042064128  -36.872003   -6.148869  -68.174653    0.909028    0.000000    0.000000    0.000000    0.000000
  0.042264529  -37.094712   -7.190620  -67.787933   -5.096147    0.000000    0.000000    0.000000    0.000000
  0.042464930  -36.831091   -7.032411  -66.664290   -5.152277    0.000000    0.000000    0.000000    0.000000
  0.042665331  -37.354353   -9.314676  -67.108487   -3.058107    0.000000    0.000000    0.000000    0.000000
  0.042865731  -37.763605   -9.101813  -66.569366    4.581290    0.000000    0.000000    0.000000    0.000000
