! Anritsu VNA Master:                 Model: MS2034B/10/19/501
! SN:                                  1337062
! /bd0/ovro-jan-2016/dcp-d1-s11.s2p
! Existing Calibration Information:
! TYPE:                         Current Settings,       Active Cal Settings
! TIME:             	   01/08/2016 09:10:38 PM,    01/08/2016 08:43:08 PM
! INTERNAL TEMP:    	                   41.5 C,                    45.0 C
! # POINTS:         	                      500,                       500
! START FREQ:       	               10.000 MHz,                10.000 MHz
! STOP FREQ:        	              110.000 MHz,               110.000 MHz
! SOURCE POWER:     	                      Low,                       Low
! IFBW:             	                   100 Hz,                    100 Hz
! AVG FACTOR:       	                       3 ,                        3 
! REF PLANE 1:      	                 2.2245 m,                  2.2245 m
! REF PLANE 2:      	                     0 mm,                      0 mm
! CAL TYPE:         	             1P2P S11,S21,              1P2P S11,S21
! CAL METHOD:       	                     SOLT,                      SOLT
! CAL LINE TYPE:    	                     Coax,                      Coax
! DUT PORT 1:       	                K-Conn(M),                 K-Conn(M)
! DUT PORT 2:       	                N-Conn(M),                 N-Conn(M)
! CAL STATUS:       	        OK: Accuracy High,                        --
# GHZ S DB R 50.0
! FREQ.GHZ       S11DB        S11A       S21DB        S21A       S12DB        S12A       S22DB        S22A
  0.010000000  -25.370120 -168.201874  -49.547570 -145.575363    0.000000    0.000000    0.000000    0.000000
  0.010200401  -25.433742 -171.130692  -54.017113 -141.850082    0.000000    0.000000    0.000000    0.000000
  0.010400802  -25.272313 -173.145126  -64.648646 -124.022408    0.000000    0.000000    0.000000    0.000000
  0.010601202  -25.526301 -175.976730  -61.994457   28.864199    0.000000    0.000000    0.000000    0.000000
  0.010801603  -25.697164 -177.570557  -53.563067   20.615440    0.000000    0.000000    0.000000    0.000000
  0.011002004  -25.632734  179.532486  -48.973463   25.913542    0.000000    0.000000    0.000000    0.000000
  0.011202405  -25.466166  176.938980  -45.886775   21.512875    0.000000    0.000000    0.000000    0.000000
  0.011402806  -25.637026  174.060791  -44.048120   23.122503    0.000000    0.000000    0.000000    0.000000
  0.011603206  -25.834389  171.103348  -43.088798   21.689417    0.000000    0.000000    0.000000    0.000000
  0.011803607  -26.121959  172.326797  -41.675769   21.968975    0.000000    0.000000    0.000000    0.000000
  0.012004008  -26.133381  168.849030  -41.009735   18.572611    0.000000    0.000000    0.000000    0.000000
  0.012204409  -25.907706  164.240341  -40.157925   17.281429    0.000000    0.000000    0.000000    0.000000
  0.012404810  -26.184979  162.272736  -39.821644   17.088751    0.000000    0.000000    0.000000    0.000000
  0.012605210  -25.801631  159.939468  -39.522236   14.383026    0.000000    0.000000    0.000000    0.000000
  0.012805611  -26.000262  158.141525  -39.394595   12.972939    0.000000    0.000000    0.000000    0.000000
  0.013006012  -25.826092  156.547836  -39.425291   11.790995    0.000000    0.000000    0.000000    0.000000
  0.013206413  -25.816651  153.578323  -39.734406    9.843905    0.000000    0.000000    0.000000    0.000000
  0.013406814  -26.084476  150.127914  -40.165104    8.936449    0.000000    0.000000    0.000000    0.000000
  0.013607214  -25.985734  149.851425  -40.795617    8.144444    0.000000    0.000000    0.000000    0.000000
  0.013807615  -26.080636  146.301712  -41.789579    7.634301    0.000000    0.000000    0.000000    0.000000
  0.014008016  -25.750324  145.489075  -43.394456    8.584251    0.000000    0.000000    0.000000    0.000000
  0.014208417  -25.921435  142.519653  -45.304726    9.558981    0.000000    0.000000    0.000000    0.000000
  0.014408818  -25.918076  140.238617  -48.695520   11.892764    0.000000    0.000000    0.000000    0.000000
  0.014609218  -25.509604  137.504242  -54.447340   23.920593    0.000000    0.000000    0.000000    0.000000
  0.014809619  -25.404857  136.328857  -58.373513  101.163132    0.000000    0.000000    0.000000    0.000000
  0.015010020  -25.557076  134.313004  -49.409970  149.421021    0.000000    0.000000    0.000000    0.000000
  0.015210421  -25.346926  131.770416  -44.423007  157.107147    0.000000    0.000000    0.000000    0.000000
  0.015410822  -25.319709  130.187210  -40.978064  157.372543    0.000000    0.000000    0.000000    0.000000
  0.015611222  -25.157463  127.475861  -38.296604  158.529160    0.000000    0.000000    0.000000    0.000000
  0.015811623  -25.035069  125.631233  -36.211791  156.494324    0.000000    0.000000    0.000000    0.000000
  0.016012024  -25.042933  123.794640  -34.309858  155.659546    0.000000    0.000000    0.000000    0.000000
  0.016212425  -24.880666  121.276894  -32.894985  154.007233    0.000000    0.000000    0.000000    0.000000
  0.016412826  -24.896816  121.100319  -31.478512  153.227264    0.000000    0.000000    0.000000    0.000000
  0.016613226  -24.603551  117.630051  -30.429688  151.941635    0.000000    0.000000    0.000000    0.000000
  0.016813627  -24.462626  116.279610  -29.376320  149.864105    0.000000    0.000000    0.000000    0.000000
  0.017014028  -24.427159  114.844154  -28.445861  148.308670    0.000000    0.000000    0.000000    0.000000
  0.017214429  -24.271924  111.978592  -27.723817  146.510025    0.000000    0.000000    0.000000    0.000000
  0.017414830  -24.099895  110.981186  -27.043040  144.626160    0.000000    0.000000    0.000000    0.000000
  0.017615230  -23.956363  108.075691  -26.520988  142.784821    0.000000    0.000000    0.000000    0.000000
  0.017815631  -23.776583  105.133377  -26.125173  140.734848    0.000000    0.000000    0.000000    0.000000
  0.018016032  -23.685832  105.170471  -25.780633  138.738113    0.000000    0.000000    0.000000    0.000000
  0.018216433  -23.467350  103.776711  -25.673469  137.449722    0.000000    0.000000    0.000000    0.000000
  0.018416834  -23.354731  101.446701  -25.729728  136.300186    0.000000    0.000000    0.000000    0.000000
  0.018617234  -23.155365   99.932732  -25.952974  134.427383    0.000000    0.000000    0.000000    0.000000
  0.018817635  -23.144555   97.372673  -26.601101  133.510330    0.000000    0.000000    0.000000    0.000000
  0.019018036  -22.982839   95.566322  -27.435717  132.959686    0.000000    0.000000    0.000000    0.000000
  0.019218437  -22.793472   94.742958  -28.783786  134.637680    0.000000    0.000000    0.000000    0.000000
  0.019418838  -22.640313   92.102341  -31.227789  136.882599    0.000000    0.000000    0.000000    0.000000
  0.019619238  -22.623179   90.072014  -35.694959  149.164642    0.000000    0.000000    0.000000    0.000000
  0.019819639  -22.420569   89.431015  -40.552495 -148.652359    0.000000    0.000000    0.000000    0.000000
  0.020020040  -22.293485   87.815048  -32.904605  -94.663727    0.000000    0.000000    0.000000    0.000000
  0.020220441  -22.137567   85.504074  -26.804214  -84.110596    0.000000    0.000000    0.000000    0.000000
  0.020420842  -21.980969   83.962563  -22.677932  -81.272514    0.000000    0.000000    0.000000    0.000000
  0.020621242  -21.831059   82.088448  -19.432787  -81.714409    0.000000    0.000000    0.000000    0.000000
  0.020821643  -21.773736   80.481758  -16.631985  -81.991653    0.000000    0.000000    0.000000    0.000000
  0.021022044  -21.601279   78.628609  -14.244104  -83.704460    0.000000    0.000000    0.000000    0.000000
  0.021222445  -21.408395   77.018837  -12.014919  -85.631279    0.000000    0.000000    0.000000    0.000000
  0.021422846  -21.282977   74.455467  -10.032773  -87.597733    0.000000    0.000000    0.000000    0.000000
  0.021623246  -21.187537   73.491173   -8.175203  -90.079666    0.000000    0.000000    0.000000    0.000000
  0.021823647  -21.058546   71.585312   -6.455550  -91.868271    0.000000    0.000000    0.000000    0.000000
  0.022024048  -20.917346   69.250023   -4.728317  -94.854774    0.000000    0.000000    0.000000    0.000000
  0.022224449  -20.805829   67.576691   -3.189372  -97.433823    0.000000    0.000000    0.000000    0.000000
  0.022424850  -20.636384   64.524712   -1.617177  -99.789604    0.000000    0.000000    0.000000    0.000000
  0.022625251  -20.525111   62.763901   -0.138705 -102.446472    0.000000    0.000000    0.000000    0.000000
  0.022825651  -20.500402   60.545547    1.302425 -105.588287    0.000000    0.000000    0.000000    0.000000
  0.023026052  -20.416010   57.631763    2.714501 -108.380562    0.000000    0.000000    0.000000    0.000000
  0.023226453  -20.258946   56.203762    4.022060 -111.236984    0.000000    0.000000    0.000000    0.000000
  0.023426854  -20.197757   53.413990    5.342738 -115.287567    0.000000    0.000000    0.000000    0.000000
  0.023627255  -20.099450   50.886707    6.650938 -118.362831    0.000000    0.000000    0.000000    0.000000
  0.023827655  -19.580726   50.686275    7.745373 -119.730782    0.000000    0.000000    0.000000    0.000000
  0.024028056  -19.519804   47.844337    8.986203 -123.068840    0.000000    0.000000    0.000000    0.000000
  0.024228457  -19.467418   45.086845   10.169475 -126.699501    0.000000    0.000000    0.000000    0.000000
  0.024428858  -19.298228   42.691051   11.406267 -130.503448    0.000000    0.000000    0.000000    0.000000
  0.024629259  -19.188916   39.910980   12.623775 -134.892685    0.000000    0.000000    0.000000    0.000000
  0.024829659  -19.048984   36.883751   13.666482 -138.713242    0.000000    0.000000    0.000000    0.000000
  0.025030060  -19.054186   33.909073   14.807486 -143.920456    0.000000    0.000000    0.000000    0.000000
  0.025230461  -19.136121   30.683395   15.949208 -148.868011    0.000000    0.000000    0.000000    0.000000
  0.025430862  -18.801004   26.996048   17.113348 -153.526505    0.000000    0.000000    0.000000    0.000000
  0.025631263  -18.985731   23.764530   18.268115 -158.685913    0.000000    0.000000    0.000000    0.000000
  0.025831663  -18.885704   19.897810   19.391230 -164.132690    0.000000    0.000000    0.000000    0.000000
  0.026032064  -18.975378   15.501978   20.427476 -170.066956    0.000000    0.000000    0.000000    0.000000
  0.026232465  -19.100854   11.962676   21.468252 -175.315308    0.000000    0.000000    0.000000    0.000000
  0.026432866  -19.231680    7.427320   22.471763  178.796082    0.000000    0.000000    0.000000    0.000000
  0.026633267  -19.480287    2.110943   23.388989  172.269745    0.000000    0.000000    0.000000    0.000000
  0.026833667  -19.727789   -2.758537   24.351346  165.609909    0.000000    0.000000    0.000000    0.000000
  0.027034068  -19.949904   -7.343216   25.142302  159.135773    0.000000    0.000000    0.000000    0.000000
  0.027234469  -20.501411  -12.085503   25.930396  151.918030    0.000000    0.000000    0.000000    0.000000
  0.027434870  -21.133815  -16.417892   26.591665  145.061493    0.000000    0.000000    0.000000    0.000000
  0.027635271  -21.678661  -21.309675   27.128430  137.757614    0.000000    0.000000    0.000000    0.000000
  0.027835671  -22.522174  -26.304663   27.669937  130.849823    0.000000    0.000000    0.000000    0.000000
  0.028036072  -23.378776  -30.150887   28.089477  123.822807    0.000000    0.000000    0.000000    0.000000
  0.028236473  -24.273428  -33.340824   28.502912  116.293861    0.000000    0.000000    0.000000    0.000000
  0.028436874  -25.529483  -37.494972   28.799893  109.317085    0.000000    0.000000    0.000000    0.000000
  0.028637275  -26.595549  -39.151852   29.002017  102.232864    0.000000    0.000000    0.000000    0.000000
  0.028837675  -27.939332  -38.926109   29.209779   95.931923    0.000000    0.000000    0.000000    0.000000
  0.029038076  -29.212654  -38.286846   29.369964   89.948074    0.000000    0.000000    0.000000    0.000000
  0.029238477  -30.984597  -36.419666   29.453446   83.610596    0.000000    0.000000    0.000000    0.000000
  0.029438878  -32.066633  -32.150696   29.523193   77.903465    0.000000    0.000000    0.000000    0.000000
  0.029639279  -33.227661  -28.403465   29.668736   72.494232    0.000000    0.000000    0.000000    0.000000
  0.029839679  -33.736687  -20.787645   29.749847   67.113655    0.000000    0.000000    0.000000    0.000000
  0.030040080  -34.743894   -8.312950   29.723662   62.405357    0.000000    0.000000    0.000000    0.000000
  0.030240481  -34.980125   -3.613275   29.799194   57.577148    0.000000    0.000000    0.000000    0.000000
  0.030440882  -34.917043    5.159633   29.808271   53.711918    0.000000    0.000000    0.000000    0.000000
  0.030641283  -34.125931   10.284061   29.799903   49.091660    0.000000    0.000000    0.000000    0.000000
  0.030841683  -33.925596   15.991673   29.869360   45.289253    0.000000    0.000000    0.000000    0.000000
  0.031042084  -34.085225   19.744627   29.863201   41.193146    0.000000    0.000000    0.000000    0.000000
  0.031242485  -33.387860   22.750586   29.850219   37.324993    0.000000    0.000000    0.000000    0.000000
  0.031442886  -33.004913   27.263760   29.890456   33.402489    0.000000    0.000000    0.000000    0.000000
  0.031643287  -32.870626   22.600346   29.944076   29.493792    0.000000    0.000000    0.000000    0.000000
  0.031843687  -32.821844   26.455389   29.941950   25.669519    0.000000    0.000000    0.000000    0.000000
  0.032044088  -32.355932   23.001133   29.972018   22.101788    0.000000    0.000000    0.000000    0.000000
  0.032244489  -32.617919   27.002079   30.033505   18.508690    0.000000    0.000000    0.000000    0.000000
  0.032444890  -32.336781   28.928648   30.036551   15.622907    0.000000    0.000000    0.000000    0.000000
  0.032645291  -32.195963   22.232677   30.060127   12.203465    0.000000    0.000000    0.000000    0.000000
  0.032845691  -32.473417   25.519432   30.087257    8.908901    0.000000    0.000000    0.000000    0.000000
  0.033046092  -32.203948   28.466698   30.096045    6.029562    0.000000    0.000000    0.000000    0.000000
  0.033246493  -32.018538   28.570946   30.128696    2.976970    0.000000    0.000000    0.000000    0.000000
  0.033446894  -32.628346   27.073776   30.132026    0.498251    0.000000    0.000000    0.000000    0.000000
  0.033647295  -32.842611   25.221540   30.138791   -2.481502    0.000000    0.000000    0.000000    0.000000
  0.033847695  -32.998914   28.134926   30.159555   -4.639476    0.000000    0.000000    0.000000    0.000000
  0.034048096  -33.068049   26.545258   30.146120   -7.654399    0.000000    0.000000    0.000000    0.000000
  0.034248497  -33.257116   28.221462   30.194631  -10.050533    0.000000    0.000000    0.000000    0.000000
  0.034448898  -33.273489   31.299128   30.187815  -12.880420    0.000000    0.000000    0.000000    0.000000
  0.034649299  -34.285136   28.207155   30.240970  -15.682940    0.000000    0.000000    0.000000    0.000000
  0.034849699  -34.147015   26.582371   30.267658  -18.439116    0.000000    0.000000    0.000000    0.000000
  0.035050100  -33.878904   29.833467   30.292066  -20.923025    0.000000    0.000000    0.000000    0.000000
  0.035250501  -34.755293   33.645760   30.255320  -23.149361    0.000000    0.000000    0.000000    0.000000
  0.035450902  -34.611577   27.739347   30.274451  -25.927710    0.000000    0.000000    0.000000    0.000000
  0.035651303  -35.493268   32.563213   30.237685  -28.148542    0.000000    0.000000    0.000000    0.000000
  0.035851703  -35.220580   31.980097   30.220537  -30.303394    0.000000    0.000000    0.000000    0.000000
  0.036052104  -35.467493   34.994194   30.194373  -32.658718    0.000000    0.000000    0.000000    0.000000
  0.036252505  -36.091208   37.509968   30.202536  -35.077637    0.000000    0.000000    0.000000    0.000000
  0.036452906  -36.045307   41.068703   30.142449  -37.121178    0.000000    0.000000    0.000000    0.000000
  0.036653307  -36.452866   43.182400   30.082809  -39.717476    0.000000    0.000000    0.000000    0.000000
  0.036853707  -36.387856   46.404274   30.106924  -42.130043    0.000000    0.000000    0.000000    0.000000
  0.037054108  -36.835043   44.820454   30.065875  -44.253361    0.000000    0.000000    0.000000    0.000000
  0.037254509  -36.734684   50.883457   30.065591  -46.599033    0.000000    0.000000    0.000000    0.000000
  0.037454910  -37.505731   50.541302   30.078119  -48.613041    0.000000    0.000000    0.000000    0.000000
  0.037655311  -37.360426   54.304848   30.054682  -50.788719    0.000000    0.000000    0.000000    0.000000
  0.037855711  -37.078884   58.439125   30.070768  -52.715820    0.000000    0.000000    0.000000    0.000000
  0.038056112  -36.670853   61.110741   30.116893  -55.045441    0.000000    0.000000    0.000000    0.000000
  0.038256513  -36.651070   67.209869   30.190057  -56.567997    0.000000    0.000000    0.000000    0.000000
  0.038456914  -37.489003   67.764549   30.198957  -58.324947    0.000000    0.000000    0.000000    0.000000
  0.038657315  -37.391649   71.366203   30.254271  -59.847687    0.000000    0.000000    0.000000    0.000000
  0.038857715  -36.561025   75.542366   30.250395  -61.468143    0.000000    0.000000    0.000000    0.000000
  0.039058116  -36.380516   72.768181   30.281841  -63.144245    0.000000    0.000000    0.000000    0.000000
  0.039258517  -36.709426   79.223022   30.309265  -64.920258    0.000000    0.000000    0.000000    0.000000
  0.039458918  -36.792713   79.653572   30.265340  -66.375763    0.000000    0.000000    0.000000    0.000000
  0.039659319  -36.159787   82.825233   30.228792  -68.757202    0.000000    0.000000    0.000000    0.000000
  0.039859719  -36.029871   85.237900   30.219822  -70.436752    0.000000    0.000000    0.000000    0.000000
  0.040060120  -35.978718   83.475143   30.181555  -72.605286    0.000000    0.000000    0.000000    0.000000
  0.040260521  -35.338568   86.388130   30.169663  -74.643265    0.000000    0.000000    0.000000    0.000000
  0.040460922  -35.760257   87.502274   30.126211  -76.486977    0.000000    0.000000    0.000000    0.000000
  0.040661323  -34.925968   87.947266   30.120125  -78.505569    0.000000    0.000000    0.000000    0.000000
  0.040861723  -35.208760   87.626671   30.133106  -80.413658    0.000000    0.000000    0.000000    0.000000
  0.041062124  -34.384786   92.354393   30.162668  -81.684006    0.000000    0.000000    0.000000    0.000000
  0.041262525  -34.877393   91.747780   30.254962  -82.954735    0.000000    0.000000    0.000000    0.000000
  0.041462926  -34.469304   89.551895   30.235929  -84.426865    0.000000    0.000000    0.000000    0.000000
  0.041663327  -33.968644   93.187614   30.282538  -85.497238    0.000000    0.000000    0.000000    0.000000
  0.041863727  -34.218161   95.694450   30.299543  -87.119949    0.000000    0.000000    0.000000    0.000000
  0.042064128  -34.359682   95.733253   30.302222  -88.660912    0.000000    0.000000    0.000000    0.000000
  0.042264529  -34.036699   94.405373   30.389957  -90.171036    0.000000    0.000000    0.000000    0.000000
  0.042464930  -33.857212   93.195457   30.346402  -92.133202    0.000000    0.000000    0.000000    0.000000
  0.042665331  -33.717738   94.722229   30.352662  -93.906891    0.000000    0.000000    0.000000    0.000000
  0.042865731  -33.763150   95.947937   30.378041  -95.997711    0.000000    0.000000    0.000000    0.000000
