! Anritsu VNA Master:                 Model: MS2034B/10/19/501
! SN:                                  1337062
! /bd0/ovro-jan-2016/dcp2-c1-s21-40db.s2p
! Existing Calibration Information:
! TYPE:                         Current Settings,       Active Cal Settings
! TIME:             	   01/12/2016 06:25:47 PM,    01/12/2016 05:57:47 PM
! INTERNAL TEMP:    	                   43.3 C,                    46.0 C
! # POINTS:         	                      500,                       500
! START FREQ:       	               10.000 MHz,                10.000 MHz
! STOP FREQ:        	              110.000 MHz,               110.000 MHz
! SOURCE POWER:     	                      Low,                       Low
! IFBW:             	                   100 Hz,                     1 kHz
! AVG FACTOR:       	                       3 ,                        3 
! REF PLANE 1:      	                     0 mm,                      0 mm
! REF PLANE 2:      	                     0 mm,                      0 mm
! CAL TYPE:         	             1P2P S11,S21,              1P2P S11,S21
! CAL METHOD:       	                     SOLT,                      SOLT
! CAL LINE TYPE:    	                     Coax,                      Coax
! DUT PORT 1:       	                K-Conn(M),                 K-Conn(M)
! DUT PORT 2:       	                N-Conn(M),                 N-Conn(M)
! CAL STATUS:       	        OK: Accuracy High,                        --
# GHZ S DB R 50.0
! FREQ.GHZ       S11DB        S11A       S21DB        S21A       S12DB        S12A       S22DB        S22A
  0.010000000  -40.259199 -177.077469  -64.433963   78.683983    0.000000    0.000000    0.000000    0.000000
  0.010200401  -39.535495 -179.706528  -62.805197   68.575325    0.000000    0.000000    0.000000    0.000000
  0.010400802  -41.732171 -174.284302  -66.005341   57.831036    0.000000    0.000000    0.000000    0.000000
  0.010601202  -40.739930 -175.531876  -63.992575   72.904518    0.000000    0.000000    0.000000    0.000000
  0.010801603  -39.797283 -178.582809  -65.227190   71.524467    0.000000    0.000000    0.000000    0.000000
  0.011002004  -40.876785 -175.449951  -63.790550   58.815792    0.000000    0.000000    0.000000    0.000000
  0.011202405  -40.603700 -175.660034  -62.827246   65.880600    0.000000    0.000000    0.000000    0.000000
  0.011402806  -40.863009 -176.222748  -64.419595   69.699318    0.000000    0.000000    0.000000    0.000000
  0.011603206  -40.756886 -177.205414  -63.407986   63.103737    0.000000    0.000000    0.000000    0.000000
  0.011803607  -39.929865 -176.835312  -62.859955   70.822258    0.000000    0.000000    0.000000    0.000000
  0.012004008  -40.687866 -173.111420  -65.077077   68.058937    0.000000    0.000000    0.000000    0.000000
  0.012204409  -41.054924  178.314713  -65.231170   53.963642    0.000000    0.000000    0.000000    0.000000
  0.012404810  -41.260960 -175.461975  -65.774983   71.007996    0.000000    0.000000    0.000000    0.000000
  0.012605210  -40.893424 -175.767242  -64.366964   68.727203    0.000000    0.000000    0.000000    0.000000
  0.012805611  -40.841848  178.513672  -66.534726   75.309151    0.000000    0.000000    0.000000    0.000000
  0.013006012  -40.760399 -178.520493  -65.517593   48.951088    0.000000    0.000000    0.000000    0.000000
  0.013206413  -40.779644 -176.483017  -65.938840   69.027306    0.000000    0.000000    0.000000    0.000000
  0.013406814  -40.134985 -175.642212  -65.184423   71.934586    0.000000    0.000000    0.000000    0.000000
  0.013607214  -40.349242 -176.556152  -65.542804   65.849808    0.000000    0.000000    0.000000    0.000000
  0.013807615  -40.241404 -177.677216  -65.145906   63.747589    0.000000    0.000000    0.000000    0.000000
  0.014008016  -39.978393 -176.875061  -66.029379   65.833511    0.000000    0.000000    0.000000    0.000000
  0.014208417  -41.207374  175.786209  -65.739555   73.133049    0.000000    0.000000    0.000000    0.000000
  0.014408818  -40.624690 -170.761093  -65.573303   75.414970    0.000000    0.000000    0.000000    0.000000
  0.014609218  -40.094459 -174.453720  -65.953016   90.421806    0.000000    0.000000    0.000000    0.000000
  0.014809619  -39.942083 -176.830139  -66.144826   79.724861    0.000000    0.000000    0.000000    0.000000
  0.015010020  -40.957990 -176.649307  -67.649322   91.307495    0.000000    0.000000    0.000000    0.000000
  0.015210421  -39.926152 -170.728577  -65.503906  103.128204    0.000000    0.000000    0.000000    0.000000
  0.015410822  -40.521374 -175.482544  -66.702761   87.169159    0.000000    0.000000    0.000000    0.000000
  0.015611222  -40.473799 -173.675522  -66.189146   89.374588    0.000000    0.000000    0.000000    0.000000
  0.015811623  -40.835957 -174.807556  -63.946018   91.670448    0.000000    0.000000    0.000000    0.000000
  0.016012024  -40.726849 -177.148148  -63.557789   96.298141    0.000000    0.000000    0.000000    0.000000
  0.016212425  -40.049543 -178.065903  -65.551092   93.792603    0.000000    0.000000    0.000000    0.000000
  0.016412826  -39.724877 -171.353271  -63.339166   95.979919    0.000000    0.000000    0.000000    0.000000
  0.016613226  -40.731054 -175.859848  -64.115782   97.513435    0.000000    0.000000    0.000000    0.000000
  0.016813627  -40.362409 -171.660217  -62.675800  105.921066    0.000000    0.000000    0.000000    0.000000
  0.017014028  -40.200640 -171.202515  -63.529730  102.264076    0.000000    0.000000    0.000000    0.000000
  0.017214429  -39.483875 -174.451599  -62.295927   92.810509    0.000000    0.000000    0.000000    0.000000
  0.017414830  -39.935870  179.737427  -61.693664   90.144051    0.000000    0.000000    0.000000    0.000000
  0.017615230  -40.058897 -172.651840  -60.873772   97.792053    0.000000    0.000000    0.000000    0.000000
  0.017815631  -40.202715 -173.649841  -61.580254  104.210556    0.000000    0.000000    0.000000    0.000000
  0.018016032  -41.192408  178.183243  -62.579390   99.476379    0.000000    0.000000    0.000000    0.000000
  0.018216433  -40.070390 -176.153244  -61.653220   94.573280    0.000000    0.000000    0.000000    0.000000
  0.018416834  -40.485182 -175.106018  -60.983204  100.709549    0.000000    0.000000    0.000000    0.000000
  0.018617234  -40.210376 -178.230438  -62.133758   94.049347    0.000000    0.000000    0.000000    0.000000
  0.018817635  -40.513904  179.780502  -62.231146  102.364883    0.000000    0.000000    0.000000    0.000000
  0.019018036  -40.315351 -177.824570  -63.563413   95.188240    0.000000    0.000000    0.000000    0.000000
  0.019218437  -39.811451 -175.807388  -64.445322  109.497597    0.000000    0.000000    0.000000    0.000000
  0.019418838  -39.458859 -179.624664  -63.621830  105.783813    0.000000    0.000000    0.000000    0.000000
  0.019619238  -39.841390  179.335464  -65.943521  120.346268    0.000000    0.000000    0.000000    0.000000
  0.019819639  -40.607007 -176.959457  -66.979676  147.334946    0.000000    0.000000    0.000000    0.000000
  0.020020040  -40.370355 -176.389847  -63.878942  172.575836    0.000000    0.000000    0.000000    0.000000
  0.020220441  -40.401919 -170.025467  -62.423700  178.641586    0.000000    0.000000    0.000000    0.000000
  0.020420842  -40.845525 -179.906738  -59.197012 -164.646622    0.000000    0.000000    0.000000    0.000000
  0.020621242  -40.596372 -174.988464  -57.169594 -163.158142    0.000000    0.000000    0.000000    0.000000
  0.020821643  -41.074260 -174.277542  -53.860564 -161.828369    0.000000    0.000000    0.000000    0.000000
  0.021022044  -39.586666 -176.037308  -51.602060 -155.963089    0.000000    0.000000    0.000000    0.000000
  0.021222445  -40.548908  179.110809  -49.721773 -158.127686    0.000000    0.000000    0.000000    0.000000
  0.021422846  -40.370963  179.058167  -47.779826 -159.854675    0.000000    0.000000    0.000000    0.000000
  0.021623246  -40.701807  175.874100  -45.930176 -160.389893    0.000000    0.000000    0.000000    0.000000
  0.021823647  -39.572195 -169.332092  -44.032925 -163.878632    0.000000    0.000000    0.000000    0.000000
  0.022024048  -39.965910 -176.229965  -42.474579 -167.123505    0.000000    0.000000    0.000000    0.000000
  0.022224449  -40.343848 -176.798233  -40.823902 -169.295624    0.000000    0.000000    0.000000    0.000000
  0.022424850  -40.124550 -179.635437  -39.623610 -171.369019    0.000000    0.000000    0.000000    0.000000
  0.022625251  -41.445217  178.822662  -38.091535 -174.113800    0.000000    0.000000    0.000000    0.000000
  0.022825651  -40.536680 -174.691116  -36.553440 -177.550781    0.000000    0.000000    0.000000    0.000000
  0.023026052  -41.256316  176.766235  -35.287743  179.589752    0.000000    0.000000    0.000000    0.000000
  0.023226453  -40.978038  172.511642  -33.812588  175.879028    0.000000    0.000000    0.000000    0.000000
  0.023426854  -39.949697 -176.001617  -32.589556  172.388672    0.000000    0.000000    0.000000    0.000000
  0.023627255  -40.496022 -179.336487  -31.374085  169.004639    0.000000    0.000000    0.000000    0.000000
  0.023827655  -40.362343 -174.178909  -30.037636  164.749008    0.000000    0.000000    0.000000    0.000000
  0.024028056  -40.241573 -175.594086  -28.789097  161.212585    0.000000    0.000000    0.000000    0.000000
  0.024228457  -40.429707  179.751938  -27.498708  157.099503    0.000000    0.000000    0.000000    0.000000
  0.024428858  -40.498866  176.203415  -26.291364  152.929031    0.000000    0.000000    0.000000    0.000000
  0.024629259  -40.232012  177.518265  -25.144364  148.671814    0.000000    0.000000    0.000000    0.000000
  0.024829659  -40.354551 -176.891357  -23.857931  145.563995    0.000000    0.000000    0.000000    0.000000
  0.025030060  -40.244360  178.703110  -22.712265  140.565216    0.000000    0.000000    0.000000    0.000000
  0.025230461  -41.477525 -174.375610  -21.692665  135.168869    0.000000    0.000000    0.000000    0.000000
  0.025430862  -40.637726  177.495514  -20.541128  130.127563    0.000000    0.000000    0.000000    0.000000
  0.025631263  -40.092681 -179.356522  -19.439470  124.747162    0.000000    0.000000    0.000000    0.000000
  0.025831663  -40.522339  179.186646  -18.363623  118.893837    0.000000    0.000000    0.000000    0.000000
  0.026032064  -40.083244  179.922928  -17.370673  112.904083    0.000000    0.000000    0.000000    0.000000
  0.026232465  -40.503740  173.303665  -16.344187  106.830200    0.000000    0.000000    0.000000    0.000000
  0.026432866  -40.976422 -179.550400  -15.381057  100.368378    0.000000    0.000000    0.000000    0.000000
  0.026633267  -40.261053  174.806183  -14.469551   93.252029    0.000000    0.000000    0.000000    0.000000
  0.026833667  -40.544100 -174.875839  -13.569631   86.177673    0.000000    0.000000    0.000000    0.000000
  0.027034068  -41.122958 -174.435883  -12.721116   78.980003    0.000000    0.000000    0.000000    0.000000
  0.027234469  -40.092730 -177.056015  -11.993695   71.534416    0.000000    0.000000    0.000000    0.000000
  0.027434870  -40.953949 -174.969116  -11.306381   63.959164    0.000000    0.000000    0.000000    0.000000
  0.027635271  -40.490535 -179.686264  -10.569616   56.362305    0.000000    0.000000    0.000000    0.000000
  0.027835671  -41.065359 -170.833328  -10.097294   48.364285    0.000000    0.000000    0.000000    0.000000
  0.028036072  -40.371743  178.391739   -9.575659   40.437183    0.000000    0.000000    0.000000    0.000000
  0.028236473  -40.421059  179.418625   -9.177027   33.013054    0.000000    0.000000    0.000000    0.000000
  0.028436874  -40.693201  176.061203   -8.797111   25.426590    0.000000    0.000000    0.000000    0.000000
  0.028637275  -40.656828 -179.772919   -8.487046   18.103189    0.000000    0.000000    0.000000    0.000000
  0.028837675  -40.167192 -170.336334   -8.270370   10.400904    0.000000    0.000000    0.000000    0.000000
  0.029038076  -40.896843 -176.145721   -8.077636    3.874248    0.000000    0.000000    0.000000    0.000000
  0.029238477  -41.360908 -157.592636   -7.951092   -2.892629    0.000000    0.000000    0.000000    0.000000
  0.029438878  -40.564639 -173.488205   -7.779596   -9.443089    0.000000    0.000000    0.000000    0.000000
  0.029639279  -41.274326 -179.148056   -7.672235  -15.472550    0.000000    0.000000    0.000000    0.000000
  0.029839679  -39.996181 -175.867783   -7.626262  -21.407143    0.000000    0.000000    0.000000    0.000000
  0.030040080  -40.710681 -172.937851   -7.550608  -27.308876    0.000000    0.000000    0.000000    0.000000
  0.030240481  -40.233028 -174.477066   -7.477780  -33.008297    0.000000    0.000000    0.000000    0.000000
  0.030440882  -40.164250  172.190994   -7.439441  -38.201683    0.000000    0.000000    0.000000    0.000000
  0.030641283  -39.822175 -170.269547   -7.400968  -42.828117    0.000000    0.000000    0.000000    0.000000
  0.030841683  -40.544648 -165.315933   -7.341671  -48.041218    0.000000    0.000000    0.000000    0.000000
  0.031042084  -39.924180 -166.559525   -7.364831  -52.893482    0.000000    0.000000    0.000000    0.000000
  0.031242485  -40.070027 -165.274338   -7.343348  -57.595802    0.000000    0.000000    0.000000    0.000000
  0.031442886  -39.976004 -172.505844   -7.295709  -62.067623    0.000000    0.000000    0.000000    0.000000
  0.031643287  -40.574424  177.569046   -7.299078  -66.485390    0.000000    0.000000    0.000000    0.000000
  0.031843687  -39.110514 -175.468597   -7.270277  -70.709137    0.000000    0.000000    0.000000    0.000000
  0.032044088  -39.705239 -169.416794   -7.246119  -74.834137    0.000000    0.000000    0.000000    0.000000
  0.032244489  -40.101882 -172.193283   -7.213883  -79.012085    0.000000    0.000000    0.000000    0.000000
  0.032444890  -39.883182 -173.936676   -7.212665  -83.078300    0.000000    0.000000    0.000000    0.000000
  0.032645291  -39.877407 -174.544434   -7.222706  -86.827515    0.000000    0.000000    0.000000    0.000000
  0.032845691  -40.301139 -175.183334   -7.195856  -90.650650    0.000000    0.000000    0.000000    0.000000
  0.033046092  -39.444524 -172.149673   -7.247300  -94.609520    0.000000    0.000000    0.000000    0.000000
  0.033246493  -39.853176  177.566330   -7.194721  -98.077408    0.000000    0.000000    0.000000    0.000000
  0.033446894  -39.215435 -177.739929   -7.126673 -101.737854    0.000000    0.000000    0.000000    0.000000
  0.033647295  -39.553161  179.945999   -7.195916 -105.344490    0.000000    0.000000    0.000000    0.000000
  0.033847695  -39.315279 -174.374069   -7.148974 -108.623116    0.000000    0.000000    0.000000    0.000000
  0.034048096  -40.292519 -178.167877   -7.194431 -112.247292    0.000000    0.000000    0.000000    0.000000
  0.034248497  -39.770218 -172.002090   -7.158086 -115.548073    0.000000    0.000000    0.000000    0.000000
  0.034448898  -39.467562 -176.176132   -7.155158 -118.866249    0.000000    0.000000    0.000000    0.000000
  0.034649299  -40.121426  179.436813   -7.105445 -122.264938    0.000000    0.000000    0.000000    0.000000
  0.034849699  -39.463020 -175.204987   -7.161035 -125.146111    0.000000    0.000000    0.000000    0.000000
  0.035050100  -39.207314 -179.205750   -7.134519 -128.377625    0.000000    0.000000    0.000000    0.000000
  0.035250501  -40.036873 -179.274475   -7.148718 -131.780426    0.000000    0.000000    0.000000    0.000000
  0.035450902  -39.258377  176.387909   -7.184842 -134.279892    0.000000    0.000000    0.000000    0.000000
  0.035651303  -38.488123  177.192444   -7.166512 -137.840286    0.000000    0.000000    0.000000    0.000000
  0.035851703  -39.051411 -177.529160   -7.188350 -140.514755    0.000000    0.000000    0.000000    0.000000
  0.036052104  -39.469264  179.348816   -7.200820 -143.635910    0.000000    0.000000    0.000000    0.000000
  0.036252505  -39.812369 -176.426407   -7.168887 -146.618774    0.000000    0.000000    0.000000    0.000000
  0.036452906  -39.561199  179.797714   -7.184057 -149.353226    0.000000    0.000000    0.000000    0.000000
  0.036653307  -39.288627  177.790237   -7.170792 -152.364761    0.000000    0.000000    0.000000    0.000000
  0.036853707  -38.613721  175.615433   -7.157120 -154.881714    0.000000    0.000000    0.000000    0.000000
  0.037054108  -40.060353  179.572327   -7.138112 -158.073349    0.000000    0.000000    0.000000    0.000000
  0.037254509  -40.021727 -173.802505   -7.183737 -160.440796    0.000000    0.000000    0.000000    0.000000
  0.037454910  -40.673347 -176.597137   -7.199049 -163.236420    0.000000    0.000000    0.000000    0.000000
  0.037655311  -39.836101 -176.357422   -7.180686 -166.039398    0.000000    0.000000    0.000000    0.000000
  0.037855711  -39.258090 -179.656494   -7.169547 -168.387054    0.000000    0.000000    0.000000    0.000000
  0.038056112  -39.008820  173.103607   -7.232369 -171.262436    0.000000    0.000000    0.000000    0.000000
  0.038256513  -40.113908 -179.392212   -7.190044 -173.833649    0.000000    0.000000    0.000000    0.000000
  0.038456914  -39.974320  177.667587   -7.224116 -176.267136    0.000000    0.000000    0.000000    0.000000
  0.038657315  -39.608303 -179.396561   -7.191108 -179.075043    0.000000    0.000000    0.000000    0.000000
  0.038857715  -39.043358  173.004272   -7.201869  178.513290    0.000000    0.000000    0.000000    0.000000
  0.039058116  -39.599894  178.580414   -7.173482  176.018921    0.000000    0.000000    0.000000    0.000000
  0.039258517  -39.579163  178.353226   -7.191741  173.415482    0.000000    0.000000    0.000000    0.000000
  0.039458918  -40.151577  176.303497   -7.195691  171.188522    0.000000    0.000000    0.000000    0.000000
  0.039659319  -39.271730  177.579239   -7.173556  168.432007    0.000000    0.000000    0.000000    0.000000
  0.039859719  -39.038444  178.479599   -7.199845  166.028229    0.000000    0.000000    0.000000    0.000000
  0.040060120  -40.231763  174.826782   -7.185394  163.755508    0.000000    0.000000    0.000000    0.000000
  0.040260521  -40.620398 -179.758087   -7.246014  161.396271    0.000000    0.000000    0.000000    0.000000
  0.040460922  -39.073985  173.531662   -7.216464  158.943222    0.000000    0.000000    0.000000    0.000000
  0.040661323  -39.656909 -179.957611   -7.185102  156.464722    0.000000    0.000000    0.000000    0.000000
  0.040861723  -40.133256  178.815567   -7.223366  154.251877    0.000000    0.000000    0.000000    0.000000
  0.041062124  -40.565477  177.329025   -7.225824  152.018402    0.000000    0.000000    0.000000    0.000000
  0.041262525  -39.821466  176.724976   -7.235513  149.684845    0.000000    0.000000    0.000000    0.000000
  0.041462926  -40.242270  177.303207   -7.268076  147.253983    0.000000    0.000000    0.000000    0.000000
  0.041663327  -39.994250  179.068604   -7.211074  145.015747    0.000000    0.000000    0.000000    0.000000
  0.041863727  -41.041686  179.499695   -7.205396  142.698883    0.000000    0.000000    0.000000    0.000000
  0.042064128  -39.926108  174.405746   -7.250750  140.555023    0.000000    0.000000    0.000000    0.000000
  0.042264529  -40.391780  177.305573   -7.201849  138.357254    0.000000    0.000000    0.000000    0.000000
  0.042464930  -40.061486  179.600372   -7.213706  136.103210    0.000000    0.000000    0.000000    0.000000
  0.042665331  -39.907491  173.435028   -7.226464  133.923370    0.000000    0.000000    0.000000    0.000000
  0.042865731  -40.083394  177.086853   -7.179392  131.615982    0.000000    0.000000    0.000000    0.000000
