! Anritsu VNA Master:                 Model: MS2034B/10/19/501
! SN:                                  1337062
! /bd0/ovro-jan-2016/dcp2-c1-s21.s2p
! Existing Calibration Information:
! TYPE:                         Current Settings,       Active Cal Settings
! TIME:             	   01/12/2016 06:17:13 PM,    01/12/2016 05:57:47 PM
! INTERNAL TEMP:    	                   44.3 C,                    46.0 C
! # POINTS:         	                      500,                       500
! START FREQ:       	               10.000 MHz,                10.000 MHz
! STOP FREQ:        	              110.000 MHz,               110.000 MHz
! SOURCE POWER:     	                      Low,                       Low
! IFBW:             	                   100 Hz,                     1 kHz
! AVG FACTOR:       	                       3 ,                        3 
! REF PLANE 1:      	                     0 mm,                      0 mm
! REF PLANE 2:      	                     0 mm,                      0 mm
! CAL TYPE:         	             1P2P S11,S21,              1P2P S11,S21
! CAL METHOD:       	                     SOLT,                      SOLT
! CAL LINE TYPE:    	                     Coax,                      Coax
! DUT PORT 1:       	                K-Conn(M),                 K-Conn(M)
! DUT PORT 2:       	                N-Conn(M),                 N-Conn(M)
! CAL STATUS:       	        OK: Accuracy High,                        --
# GHZ S DB R 50.0
! FREQ.GHZ       S11DB        S11A       S21DB        S21A       S12DB        S12A       S22DB        S22A
  0.010000000  -29.729815  117.075058  -59.683554 -157.046249    0.000000    0.000000    0.000000    0.000000
  0.010200401  -29.663979  111.119743  -57.897905  -10.335884    0.000000    0.000000    0.000000    0.000000
  0.010400802  -29.934905  103.151596  -50.651282   -0.828257    0.000000    0.000000    0.000000    0.000000
  0.010601202  -29.718133   99.619453  -46.041261   -7.412092    0.000000    0.000000    0.000000    0.000000
  0.010801603  -29.655224   95.727371  -42.656268   -6.324481    0.000000    0.000000    0.000000    0.000000
  0.011002004  -29.770141   87.806412  -40.720925   -8.630973    0.000000    0.000000    0.000000    0.000000
  0.011202405  -29.395703   84.224579  -39.013492   -8.793143    0.000000    0.000000    0.000000    0.000000
  0.011402806  -29.192403   79.671684  -37.705642  -11.853472    0.000000    0.000000    0.000000    0.000000
  0.011603206  -29.163313   74.057625  -36.678150  -14.546594    0.000000    0.000000    0.000000    0.000000
  0.011803607  -28.903640   72.076637  -35.660605  -16.189987    0.000000    0.000000    0.000000    0.000000
  0.012004008  -28.512221   64.699532  -35.048331  -18.126421    0.000000    0.000000    0.000000    0.000000
  0.012204409  -28.303605   62.562832  -34.265667  -20.394873    0.000000    0.000000    0.000000    0.000000
  0.012404810  -28.181430   56.341766  -33.838820  -22.672338    0.000000    0.000000    0.000000    0.000000
  0.012605210  -27.902893   53.440929  -33.436388  -25.474106    0.000000    0.000000    0.000000    0.000000
  0.012805611  -27.649514   49.618252  -33.131225  -27.445635    0.000000    0.000000    0.000000    0.000000
  0.013006012  -27.494442   45.881435  -33.091905  -29.145899    0.000000    0.000000    0.000000    0.000000
  0.013206413  -27.083658   43.319855  -32.946438  -31.978718    0.000000    0.000000    0.000000    0.000000
  0.013406814  -27.119206   39.761383  -32.935708  -34.489944    0.000000    0.000000    0.000000    0.000000
  0.013607214  -26.779945   34.795670  -33.069336  -36.537411    0.000000    0.000000    0.000000    0.000000
  0.013807615  -26.434944   32.238415  -33.351477  -38.810600    0.000000    0.000000    0.000000    0.000000
  0.014008016  -26.292031   29.687677  -33.731236  -40.595921    0.000000    0.000000    0.000000    0.000000
  0.014208417  -25.598934   26.932659  -34.266886  -42.292652    0.000000    0.000000    0.000000    0.000000
  0.014408818  -25.747068   21.471207  -35.011173  -44.365353    0.000000    0.000000    0.000000    0.000000
  0.014609218  -25.625460   20.823275  -35.925968  -46.628181    0.000000    0.000000    0.000000    0.000000
  0.014809619  -25.353844   17.083418  -37.038988  -47.269657    0.000000    0.000000    0.000000    0.000000
  0.015010020  -25.025425   14.355289  -38.791327  -47.323620    0.000000    0.000000    0.000000    0.000000
  0.015210421  -25.004301   11.857736  -41.007713  -48.801239    0.000000    0.000000    0.000000    0.000000
  0.015410822  -24.679312    8.205382  -44.281614  -43.334499    0.000000    0.000000    0.000000    0.000000
  0.015611222  -24.194775    5.495729  -50.449204  -33.778282    0.000000    0.000000    0.000000    0.000000
  0.015811623  -24.138296    3.134110  -55.082471   45.491062    0.000000    0.000000    0.000000    0.000000
  0.016012024  -23.959962    1.074665  -46.878235   92.445694    0.000000    0.000000    0.000000    0.000000
  0.016212425  -23.800161   -1.194416  -41.702430   97.815056    0.000000    0.000000    0.000000    0.000000
  0.016412826  -23.571954   -4.446757  -38.342720   99.566216    0.000000    0.000000    0.000000    0.000000
  0.016613226  -23.285202   -5.743198  -35.923701   99.970238    0.000000    0.000000    0.000000    0.000000
  0.016813627  -23.104899   -8.905243  -34.044847   98.028770    0.000000    0.000000    0.000000    0.000000
  0.017014028  -22.852027  -11.302458  -32.460654   95.741447    0.000000    0.000000    0.000000    0.000000
  0.017214429  -22.801050  -13.732380  -31.313396   94.108261    0.000000    0.000000    0.000000    0.000000
  0.017414830  -22.673640  -15.924376  -30.234382   91.908348    0.000000    0.000000    0.000000    0.000000
  0.017615230  -22.338739  -18.393753  -29.501083   89.411240    0.000000    0.000000    0.000000    0.000000
  0.017815631  -22.142925  -21.090193  -28.970736   87.764999    0.000000    0.000000    0.000000    0.000000
  0.018016032  -21.900278  -21.635187  -28.466161   86.264793    0.000000    0.000000    0.000000    0.000000
  0.018216433  -21.913858  -25.451628  -28.411919   83.354324    0.000000    0.000000    0.000000    0.000000
  0.018416834  -21.590665  -27.432085  -28.605534   81.972183    0.000000    0.000000    0.000000    0.000000
  0.018617234  -21.510311  -29.906483  -29.013115   80.709702    0.000000    0.000000    0.000000    0.000000
  0.018817635  -21.311443  -32.300999  -29.970597   79.712341    0.000000    0.000000    0.000000    0.000000
  0.019018036  -21.192543  -35.094475  -31.576523   81.045074    0.000000    0.000000    0.000000    0.000000
  0.019218437  -21.054292  -36.198002  -34.631783   88.180222    0.000000    0.000000    0.000000    0.000000
  0.019418838  -20.914307  -39.403881  -40.183762  112.037018    0.000000    0.000000    0.000000    0.000000
  0.019619238  -20.739570  -41.195202  -38.849957 -166.221725    0.000000    0.000000    0.000000    0.000000
  0.019819639  -20.538373  -43.627712  -31.047220 -143.829330    0.000000    0.000000    0.000000    0.000000
  0.020020040  -20.373095  -46.598946  -25.956659 -139.475815    0.000000    0.000000    0.000000    0.000000
  0.020220441  -20.172661  -49.288109  -22.156056 -138.681702    0.000000    0.000000    0.000000    0.000000
  0.020420842  -20.087287  -51.050758  -19.106930 -139.632446    0.000000    0.000000    0.000000    0.000000
  0.020621242  -19.974021  -52.366310  -16.414774 -141.572388    0.000000    0.000000    0.000000    0.000000
  0.020821643  -19.827328  -56.203594  -14.048785 -143.667236    0.000000    0.000000    0.000000    0.000000
  0.021022044  -19.706495  -59.160652  -11.935997 -146.089188    0.000000    0.000000    0.000000    0.000000
  0.021222445  -19.561209  -60.703690   -9.947302 -148.663986    0.000000    0.000000    0.000000    0.000000
  0.021422846  -19.447691  -62.929974   -8.091699 -151.373383    0.000000    0.000000    0.000000    0.000000
  0.021623246  -19.382485  -66.150612   -6.262399 -154.197388    0.000000    0.000000    0.000000    0.000000
  0.021823647  -19.159305  -68.809570   -4.626858 -157.166183    0.000000    0.000000    0.000000    0.000000
  0.022024048  -19.101733  -71.288376   -2.971618 -160.557541    0.000000    0.000000    0.000000    0.000000
  0.022224449  -18.979664  -74.335846   -1.418650 -163.706100    0.000000    0.000000    0.000000    0.000000
  0.022424850  -18.911203  -76.945045    0.023162 -166.850266    0.000000    0.000000    0.000000    0.000000
  0.022625251  -18.792814  -79.285454    1.489852 -169.972366    0.000000    0.000000    0.000000    0.000000
  0.022825651  -18.648999  -82.631325    2.865067 -173.939194    0.000000    0.000000    0.000000    0.000000
  0.023026052  -18.730031  -84.704544    4.260013 -177.389771    0.000000    0.000000    0.000000    0.000000
  0.023226453  -18.638213  -87.702843    5.593093  179.059982    0.000000    0.000000    0.000000    0.000000
  0.023426854  -18.424122  -91.404526    6.862069  174.736572    0.000000    0.000000    0.000000    0.000000
  0.023627255  -18.160734  -92.431763    7.996759  173.518463    0.000000    0.000000    0.000000    0.000000
  0.023827655  -18.008096  -95.765526    9.187089  169.375595    0.000000    0.000000    0.000000    0.000000
  0.024028056  -17.992662  -98.649300   10.413793  165.180328    0.000000    0.000000    0.000000    0.000000
  0.024228457  -17.976379 -101.696739   11.658556  160.772003    0.000000    0.000000    0.000000    0.000000
  0.024428858  -17.927710 -105.078514   12.883850  156.264313    0.000000    0.000000    0.000000    0.000000
  0.024629259  -17.903395 -108.467514   14.039484  151.597778    0.000000    0.000000    0.000000    0.000000
  0.024829659  -17.733531 -112.240265   15.112855  146.892883    0.000000    0.000000    0.000000    0.000000
  0.025030060  -17.702734 -115.528496   16.291412  141.356750    0.000000    0.000000    0.000000    0.000000
  0.025230461  -17.704555 -118.814148   17.445102  136.140961    0.000000    0.000000    0.000000    0.000000
  0.025430862  -17.813672 -123.349052   18.583077  130.914261    0.000000    0.000000    0.000000    0.000000
  0.025631263  -17.737557 -127.265167   19.738356  125.565720    0.000000    0.000000    0.000000    0.000000
  0.025831663  -17.869827 -131.347763   20.839837  119.757561    0.000000    0.000000    0.000000    0.000000
  0.026032064  -17.925670 -135.522522   21.907463  113.559425    0.000000    0.000000    0.000000    0.000000
  0.026232465  -18.087049 -140.555603   22.949662  107.692490    0.000000    0.000000    0.000000    0.000000
  0.026432866  -18.257784 -144.623062   23.966581  101.283562    0.000000    0.000000    0.000000    0.000000
  0.026633267  -18.468822 -149.534988   24.911303   94.427429    0.000000    0.000000    0.000000    0.000000
  0.026833667  -18.792295 -154.834869   25.840445   87.680565    0.000000    0.000000    0.000000    0.000000
  0.027034068  -19.132718 -158.278168   26.682981   80.557640    0.000000    0.000000    0.000000    0.000000
  0.027234469  -19.548887 -163.775513   27.450123   73.098236    0.000000    0.000000    0.000000    0.000000
  0.027434870  -20.118662 -168.429855   28.160418   65.555344    0.000000    0.000000    0.000000    0.000000
  0.027635271  -20.838630 -173.143417   28.804514   57.864010    0.000000    0.000000    0.000000    0.000000
  0.027835671  -21.573844 -176.657532   29.306162   49.884281    0.000000    0.000000    0.000000    0.000000
  0.028036072  -22.301173  177.780029   29.822786   41.867439    0.000000    0.000000    0.000000    0.000000
  0.028236473  -23.400700  175.904297   30.209760   34.159996    0.000000    0.000000    0.000000    0.000000
  0.028436874  -24.415812  173.514008   30.579878   26.189329    0.000000    0.000000    0.000000    0.000000
  0.028637275  -25.432367  171.510590   30.833797   18.566639    0.000000    0.000000    0.000000    0.000000
  0.028837675  -26.600102  174.159897   31.046470   10.977132    0.000000    0.000000    0.000000    0.000000
  0.029038076  -27.842598  173.572327   31.217076    4.140591    0.000000    0.000000    0.000000    0.000000
  0.029238477  -29.032143 -178.618210   31.363945   -2.587300    0.000000    0.000000    0.000000    0.000000
  0.029438878  -29.693893 -175.714355   31.483392   -8.890140    0.000000    0.000000    0.000000    0.000000
  0.029639279  -30.522638 -170.900574   31.597060  -14.815686    0.000000    0.000000    0.000000    0.000000
  0.029839679  -30.618039 -165.780945   31.633787  -20.746679    0.000000    0.000000    0.000000    0.000000
  0.030040080  -30.791321 -159.372147   31.674808  -26.276993    0.000000    0.000000    0.000000    0.000000
  0.030240481  -30.390084 -154.946136   31.721380  -31.862913    0.000000    0.000000    0.000000    0.000000
  0.030440882  -30.656511 -156.919327   31.751022  -36.983555    0.000000    0.000000    0.000000    0.000000
  0.030641283  -29.946891 -148.442093   31.788191  -41.793095    0.000000    0.000000    0.000000    0.000000
  0.030841683  -29.972253 -146.215851   31.830712  -46.797592    0.000000    0.000000    0.000000    0.000000
  0.031042084  -29.533437 -147.397400   31.825081  -51.837082    0.000000    0.000000    0.000000    0.000000
  0.031242485  -29.070362 -144.763092   31.839549  -56.513069    0.000000    0.000000    0.000000    0.000000
  0.031442886  -29.078071 -145.184097   31.903130  -61.233303    0.000000    0.000000    0.000000    0.000000
  0.031643287  -29.192397 -145.681671   31.928388  -65.659821    0.000000    0.000000    0.000000    0.000000
  0.031843687  -28.794396 -147.526855   31.950861  -69.994537    0.000000    0.000000    0.000000    0.000000
  0.032044088  -28.602496 -146.714157   31.989440  -74.326210    0.000000    0.000000    0.000000    0.000000
  0.032244489  -28.600830 -145.156586   32.033159  -78.431007    0.000000    0.000000    0.000000    0.000000
  0.032444890  -28.672152 -147.446930   32.021962  -82.466476    0.000000    0.000000    0.000000    0.000000
  0.032645291  -28.614078 -146.838120   32.042578  -86.157196    0.000000    0.000000    0.000000    0.000000
  0.032845691  -28.757996 -147.775986   32.060204  -89.955788    0.000000    0.000000    0.000000    0.000000
  0.033046092  -28.390210 -150.805557   32.040133  -93.459557    0.000000    0.000000    0.000000    0.000000
  0.033246493  -28.871092 -150.255630   32.075000  -96.865753    0.000000    0.000000    0.000000    0.000000
  0.033446894  -28.563637 -151.174301   32.130959 -100.188469    0.000000    0.000000    0.000000    0.000000
  0.033647295  -28.900770 -151.861176   32.114296 -103.760345    0.000000    0.000000    0.000000    0.000000
  0.033847695  -28.725027 -150.269684   32.163854 -107.063095    0.000000    0.000000    0.000000    0.000000
  0.034048096  -28.899065 -152.107834   32.162554 -110.533958    0.000000    0.000000    0.000000    0.000000
  0.034248497  -28.888791 -150.724121   32.206483 -113.954437    0.000000    0.000000    0.000000    0.000000
  0.034448898  -28.840550 -151.327026   32.240957 -117.325066    0.000000    0.000000    0.000000    0.000000
  0.034649299  -29.055219 -152.382019   32.284880 -120.613617    0.000000    0.000000    0.000000    0.000000
  0.034849699  -29.003045 -150.900513   32.264850 -123.692352    0.000000    0.000000    0.000000    0.000000
  0.035050100  -29.060215 -152.432098   32.278209 -126.735168    0.000000    0.000000    0.000000    0.000000
  0.035250501  -29.216473 -151.061096   32.289560 -130.069641    0.000000    0.000000    0.000000    0.000000
  0.035450902  -29.091693 -153.099304   32.238055 -132.795364    0.000000    0.000000    0.000000    0.000000
  0.035651303  -29.080438 -152.248978   32.217621 -135.987091    0.000000    0.000000    0.000000    0.000000
  0.035851703  -28.998524 -151.952286   32.180078 -138.822739    0.000000    0.000000    0.000000    0.000000
  0.036052104  -29.278236 -150.881363   32.135090 -141.857986    0.000000    0.000000    0.000000    0.000000
  0.036252505  -29.270459 -150.838974   32.134787 -144.867722    0.000000    0.000000    0.000000    0.000000
  0.036452906  -29.290025 -151.975922   32.111600 -147.794983    0.000000    0.000000    0.000000    0.000000
  0.036653307  -29.166367 -152.175034   32.090099 -150.815750    0.000000    0.000000    0.000000    0.000000
  0.036853707  -28.989194 -154.689835   32.096948 -153.734222    0.000000    0.000000    0.000000    0.000000
  0.037054108  -29.269287 -149.487244   32.109465 -156.854904    0.000000    0.000000    0.000000    0.000000
  0.037254509  -29.191566 -149.455200   32.104460 -159.727524    0.000000    0.000000    0.000000    0.000000
  0.037454910  -29.197675 -148.675949   32.109341 -162.642654    0.000000    0.000000    0.000000    0.000000
  0.037655311  -29.045672 -150.337448   32.151541 -165.375702    0.000000    0.000000    0.000000    0.000000
  0.037855711  -28.875949 -151.394638   32.163748 -167.697784    0.000000    0.000000    0.000000    0.000000
  0.038056112  -28.860424 -153.921051   32.170364 -170.247894    0.000000    0.000000    0.000000    0.000000
  0.038256513  -28.931681 -150.512543   32.220862 -172.576340    0.000000    0.000000    0.000000    0.000000
  0.038456914  -29.030311 -151.180435   32.242638 -174.795197    0.000000    0.000000    0.000000    0.000000
  0.038657315  -28.764802 -151.396454   32.254130 -177.147217    0.000000    0.000000    0.000000    0.000000
  0.038857715  -28.702682 -153.070251   32.264201 -179.373260    0.000000    0.000000    0.000000    0.000000
  0.039058116  -28.644370 -153.078781   32.286834  178.445953    0.000000    0.000000    0.000000    0.000000
  0.039258517  -28.358287 -153.552994   32.278375  176.003113    0.000000    0.000000    0.000000    0.000000
  0.039458918  -28.690299 -151.627731   32.235300  173.403046    0.000000    0.000000    0.000000    0.000000
  0.039659319  -28.419216 -153.323288   32.215307  170.710739    0.000000    0.000000    0.000000    0.000000
  0.039859719  -28.056661 -154.003708   32.196969  168.038589    0.000000    0.000000    0.000000    0.000000
  0.040060120  -28.433412 -155.445572   32.180408  165.290543    0.000000    0.000000    0.000000    0.000000
  0.040260521  -28.358687 -154.651474   32.171423  162.729370    0.000000    0.000000    0.000000    0.000000
  0.040460922  -27.915748 -158.741516   32.161075  160.120728    0.000000    0.000000    0.000000    0.000000
  0.040661323  -27.920968 -156.198074   32.216472  157.629944    0.000000    0.000000    0.000000    0.000000
  0.040861723  -28.028242 -157.023666   32.205861  155.392288    0.000000    0.000000    0.000000    0.000000
  0.041062124  -28.071929 -157.514862   32.235904  153.285858    0.000000    0.000000    0.000000    0.000000
  0.041262525  -28.011334 -158.172913   32.276031  151.224716    0.000000    0.000000    0.000000    0.000000
  0.041462926  -27.923114 -159.321365   32.301246  149.356186    0.000000    0.000000    0.000000    0.000000
  0.041663327  -27.798128 -158.992844   32.376732  147.524765    0.000000    0.000000    0.000000    0.000000
  0.041863727  -27.731951 -159.942093   32.396604  145.306595    0.000000    0.000000    0.000000    0.000000
  0.042064128  -27.711503 -161.891586   32.410665  143.223022    0.000000    0.000000    0.000000    0.000000
  0.042264529  -27.869446 -162.085388   32.403393  140.855927    0.000000    0.000000    0.000000    0.000000
  0.042464930  -27.716906 -161.983810   32.397950  138.343399    0.000000    0.000000    0.000000    0.000000
  0.042665331  -27.662348 -163.433929   32.384172  135.761703    0.000000    0.000000    0.000000    0.000000
  0.042865731  -27.685446 -164.785278   32.408122  133.015549    0.000000    0.000000    0.000000    0.000000
