! Anritsu VNA Master:                 Model: MS2034B/10/19/501
! SN:                                  1337062
! /bd0/ovro-jan-2016/spec3-vna-coax-thru.s2p
! Existing Calibration Information:
! TYPE:                         Current Settings,       Active Cal Settings
! TIME:             	   01/10/2016 07:48:14 PM,    01/10/2016 03:13:30 PM
! INTERNAL TEMP:    	                   42.3 C,                    45.8 C
! # POINTS:         	                      500,                       500
! START FREQ:       	               10.000 MHz,                10.000 MHz
! STOP FREQ:        	              110.000 MHz,               110.000 MHz
! SOURCE POWER:     	                      Low,                       Low
! IFBW:             	                   100 Hz,                    100 Hz
! AVG FACTOR:       	                       1 ,                        3 
! REF PLANE 1:      	                 2.2245 m,                  2.2245 m
! REF PLANE 2:      	                     0 mm,                      0 mm
! CAL TYPE:         	             1P2P S11,S21,              1P2P S11,S21
! CAL METHOD:       	                     SOLT,                      SOLT
! CAL LINE TYPE:    	                     Coax,                      Coax
! DUT PORT 1:       	                K-Conn(M),                 K-Conn(M)
! DUT PORT 2:       	                N-Conn(M),                 N-Conn(M)
! CAL STATUS:       	        OK: Accuracy High,                        --
# GHZ S DB R 50.0
! FREQ.GHZ       S11DB        S11A       S21DB        S21A       S12DB        S12A       S22DB        S22A
  0.010000000  -22.791978  -84.654602   -0.070467  -67.304947    0.000000    0.000000    0.000000    0.000000
  0.010200401  -22.989402  -90.217117   -0.080792  -68.340042    0.000000    0.000000    0.000000    0.000000
  0.010400802  -23.282166  -91.223648   -0.054285  -69.334305    0.000000    0.000000    0.000000    0.000000
  0.010601202  -23.751492  -94.804283   -0.123903  -69.145866    0.000000    0.000000    0.000000    0.000000
  0.010801603  -23.818931  -97.614922   -0.167961  -69.819366    0.000000    0.000000    0.000000    0.000000
  0.011002004  -24.246819 -100.442375   -0.093554  -70.843323    0.000000    0.000000    0.000000    0.000000
  0.011202405  -24.484279 -105.538750   -0.078045  -72.321693    0.000000    0.000000    0.000000    0.000000
  0.011402806  -24.625677 -106.375969   -0.099467  -73.327568    0.000000    0.000000    0.000000    0.000000
  0.011603206  -25.098953 -112.026840   -0.118936  -74.664017    0.000000    0.000000    0.000000    0.000000
  0.011803607  -25.490245 -114.868919   -0.050320  -75.568962    0.000000    0.000000    0.000000    0.000000
  0.012004008  -25.542530 -119.970871   -0.018508  -77.330856    0.000000    0.000000    0.000000    0.000000
  0.012204409  -26.071343 -122.807907   -0.128119  -78.289375    0.000000    0.000000    0.000000    0.000000
  0.012404810  -26.209871 -126.785690   -0.138695  -80.374962    0.000000    0.000000    0.000000    0.000000
  0.012605210  -26.780453 -130.817230   -0.071656  -82.582146    0.000000    0.000000    0.000000    0.000000
  0.012805611  -26.692153 -134.839630   -0.141235  -84.286240    0.000000    0.000000    0.000000    0.000000
  0.013006012  -27.499908 -140.119644   -0.279912  -86.683525    0.000000    0.000000    0.000000    0.000000
  0.013206413  -27.641025 -143.377075   -0.385890  -87.928413    0.000000    0.000000    0.000000    0.000000
  0.013406814  -27.889960 -147.632507   -0.473463  -89.093033    0.000000    0.000000    0.000000    0.000000
  0.013607214  -28.057917 -152.614563   -0.484508  -90.189667    0.000000    0.000000    0.000000    0.000000
  0.013807615  -28.546138 -156.878967   -0.415517  -90.747025    0.000000    0.000000    0.000000    0.000000
  0.014008016  -28.747813 -162.207916   -0.365276  -91.710129    0.000000    0.000000    0.000000    0.000000
  0.014208417  -29.452256 -166.068375   -0.331316  -91.738571    0.000000    0.000000    0.000000    0.000000
  0.014408818  -29.609202 -169.951080   -0.374550  -92.714706    0.000000    0.000000    0.000000    0.000000
  0.014609218  -29.927066 -175.822418   -0.451057  -95.033577    0.000000    0.000000    0.000000    0.000000
  0.014809619  -29.608330 -179.328354   -0.592366  -97.121506    0.000000    0.000000    0.000000    0.000000
  0.015010020  -29.848433  172.087921   -0.613962  -98.697746    0.000000    0.000000    0.000000    0.000000
  0.015210421  -30.419678  169.235886   -0.604361  -99.077690    0.000000    0.000000    0.000000    0.000000
  0.015410822  -30.672435  164.967102   -0.606173  -99.713669    0.000000    0.000000    0.000000    0.000000
  0.015611222  -30.864004  157.928223   -0.506116 -101.333206    0.000000    0.000000    0.000000    0.000000
  0.015811623  -30.677742  153.162415   -0.637356 -103.549026    0.000000    0.000000    0.000000    0.000000
  0.016012024  -31.085922  149.883774   -0.640556 -106.953110    0.000000    0.000000    0.000000    0.000000
  0.016212425  -30.945469  142.053757   -0.529516 -108.168602    0.000000    0.000000    0.000000    0.000000
  0.016412826  -31.227003  135.798599   -0.593480 -108.275131    0.000000    0.000000    0.000000    0.000000
  0.016613226  -30.672347  127.941277   -0.635390 -107.741974    0.000000    0.000000    0.000000    0.000000
  0.016813627  -31.578318  123.908226   -0.657260 -108.583748    0.000000    0.000000    0.000000    0.000000
  0.017014028  -31.106451  121.102493   -0.770245 -110.118614    0.000000    0.000000    0.000000    0.000000
  0.017214429  -31.288901  116.939133   -0.757080 -112.580391    0.000000    0.000000    0.000000    0.000000
  0.017414830  -30.808288  112.526291   -0.737996 -112.993568    0.000000    0.000000    0.000000    0.000000
  0.017615230  -30.779390  107.791222   -0.876269 -113.208046    0.000000    0.000000    0.000000    0.000000
  0.017815631  -30.481554  103.557930   -0.913054 -113.984856    0.000000    0.000000    0.000000    0.000000
  0.018016032  -30.443251   97.862831   -0.845607 -116.400673    0.000000    0.000000    0.000000    0.000000
  0.018216433  -30.360680   92.532951   -0.663923 -118.713783    0.000000    0.000000    0.000000    0.000000
  0.018416834  -30.125248   92.631088   -0.672610 -120.919212    0.000000    0.000000    0.000000    0.000000
  0.018617234  -30.263874   85.604301   -0.580726 -121.692070    0.000000    0.000000    0.000000    0.000000
  0.018817635  -30.164244   83.194565   -0.716317 -122.624107    0.000000    0.000000    0.000000    0.000000
  0.019018036  -29.900619   77.879242   -0.763986 -123.474792    0.000000    0.000000    0.000000    0.000000
  0.019218437  -30.090222   72.370613   -0.897872 -125.294983    0.000000    0.000000    0.000000    0.000000
  0.019418838  -30.115600   70.246666   -0.800686 -127.422493    0.000000    0.000000    0.000000    0.000000
  0.019619238  -29.991665   68.693275   -0.747110 -128.583527    0.000000    0.000000    0.000000    0.000000
  0.019819639  -30.077760   65.694077   -0.717283 -129.642883    0.000000    0.000000    0.000000    0.000000
  0.020020040  -29.743723   60.766430   -0.851390 -130.189331    0.000000    0.000000    0.000000    0.000000
  0.020220441  -29.869447   55.252064   -0.974927 -131.004791    0.000000    0.000000    0.000000    0.000000
  0.020420842  -29.605851   54.593597   -1.098627 -133.081940    0.000000    0.000000    0.000000    0.000000
  0.020621242  -29.126890   48.586975   -1.251131 -134.835297    0.000000    0.000000    0.000000    0.000000
  0.020821643  -29.765985   46.128838   -1.249334 -136.354919    0.000000    0.000000    0.000000    0.000000
  0.021022044  -29.697149   45.439484   -1.197266 -137.276413    0.000000    0.000000    0.000000    0.000000
  0.021222445  -29.617792   40.480991   -1.127776 -138.821915    0.000000    0.000000    0.000000    0.000000
  0.021422846  -29.374866   38.590816   -0.982062 -141.024170    0.000000    0.000000    0.000000    0.000000
  0.021623246  -29.842915   37.175171   -1.025570 -142.749039    0.000000    0.000000    0.000000    0.000000
  0.021823647  -29.665312   34.087719   -0.893242 -145.020187    0.000000    0.000000    0.000000    0.000000
  0.022024048  -29.782195   28.154860   -0.851846 -145.915497    0.000000    0.000000    0.000000    0.000000
  0.022224449  -29.830267   27.758474   -0.797656 -147.191559    0.000000    0.000000    0.000000    0.000000
  0.022424850  -29.676472   24.156479   -0.874253 -147.464447    0.000000    0.000000    0.000000    0.000000
  0.022625251  -30.110151   22.789658   -0.905558 -149.122955    0.000000    0.000000    0.000000    0.000000
  0.022825651  -29.918417   19.899576   -0.958168 -150.817780    0.000000    0.000000    0.000000    0.000000
  0.023026052  -30.189296   16.726027   -0.981388 -151.407288    0.000000    0.000000    0.000000    0.000000
  0.023226453  -30.291535   12.873292   -1.103341 -152.926224    0.000000    0.000000    0.000000    0.000000
  0.023426854  -30.524989   12.026431   -1.165478 -153.511703    0.000000    0.000000    0.000000    0.000000
  0.023627255  -30.433211   10.554254   -1.273159 -155.460724    0.000000    0.000000    0.000000    0.000000
  0.023827655  -30.654418    6.113147   -1.294693 -156.662216    0.000000    0.000000    0.000000    0.000000
  0.024028056  -30.530531    5.224145   -1.341748 -158.740005    0.000000    0.000000    0.000000    0.000000
  0.024228457  -31.358808    0.217175   -1.334621 -159.964081    0.000000    0.000000    0.000000    0.000000
  0.024428858  -31.181906   -0.493079   -1.290746 -161.413025    0.000000    0.000000    0.000000    0.000000
  0.024629259  -30.655441   -3.491138   -1.270158 -162.377701    0.000000    0.000000    0.000000    0.000000
  0.024829659  -31.250263   -6.347503   -1.277100 -164.449371    0.000000    0.000000    0.000000    0.000000
  0.025030060  -31.569749   -8.612706   -1.272030 -165.393967    0.000000    0.000000    0.000000    0.000000
  0.025230461  -31.863589  -11.575386   -1.379832 -167.805817    0.000000    0.000000    0.000000    0.000000
  0.025430862  -32.417030  -15.430061   -1.403589 -169.991074    0.000000    0.000000    0.000000    0.000000
  0.025631263  -32.750069  -16.321505   -1.460556 -172.407211    0.000000    0.000000    0.000000    0.000000
  0.025831663  -33.257229  -19.716942   -1.363201 -174.866364    0.000000    0.000000    0.000000    0.000000
  0.026032064  -32.918543  -22.183620   -1.213174 -176.091553    0.000000    0.000000    0.000000    0.000000
  0.026232465  -33.256155  -21.630827   -1.111317 -176.896301    0.000000    0.000000    0.000000    0.000000
  0.026432866  -34.282691  -31.405828   -1.093319 -176.611145    0.000000    0.000000    0.000000    0.000000
  0.026633267  -34.614484  -35.846092   -0.854707 -177.641495    0.000000    0.000000    0.000000    0.000000
  0.026833667  -34.195373  -39.635078   -0.968512 -178.154907    0.000000    0.000000    0.000000    0.000000
  0.027034068  -34.881265  -38.567387   -1.027467  179.385651    0.000000    0.000000    0.000000    0.000000
  0.027234469  -35.635356  -46.261234   -0.959433  177.336823    0.000000    0.000000    0.000000    0.000000
  0.027434870  -35.372462  -43.394569   -0.898254  175.189529    0.000000    0.000000    0.000000    0.000000
  0.027635271  -36.382381  -47.580570   -0.951856  175.154678    0.000000    0.000000    0.000000    0.000000
  0.027835671  -37.446877  -47.457813   -0.927468  174.415543    0.000000    0.000000    0.000000    0.000000
  0.028036072  -38.300235  -51.946331   -1.025023  174.212418    0.000000    0.000000    0.000000    0.000000
  0.028236473  -38.332405  -62.881050   -0.905817  172.637878    0.000000    0.000000    0.000000    0.000000
  0.028436874  -39.727056  -61.527668   -0.891929  170.417953    0.000000    0.000000    0.000000    0.000000
  0.028637275  -41.350734  -58.099079   -0.836588  167.518448    0.000000    0.000000    0.000000    0.000000
  0.028837675  -40.627990  -57.986732   -0.879534  165.923096    0.000000    0.000000    0.000000    0.000000
  0.029038076  -42.304771  -79.372993   -0.917251  165.668015    0.000000    0.000000    0.000000    0.000000
  0.029238477  -43.254900  -86.508621   -0.980990  164.841095    0.000000    0.000000    0.000000    0.000000
  0.029438878  -43.135219  -91.792572   -0.966770  164.486938    0.000000    0.000000    0.000000    0.000000
  0.029639279  -43.643604 -110.730278   -0.980545  162.564499    0.000000    0.000000    0.000000    0.000000
  0.029839679  -45.335622 -120.251312   -0.889749  160.785736    0.000000    0.000000    0.000000    0.000000
  0.030040080  -45.812970 -124.143784   -0.812465  158.665558    0.000000    0.000000    0.000000    0.000000
  0.030240481  -47.270959 -153.044342   -0.845879  156.847916    0.000000    0.000000    0.000000    0.000000
  0.030440882  -45.783830 -165.143631   -0.997307  156.732986    0.000000    0.000000    0.000000    0.000000
  0.030641283  -46.257550 -166.392380   -1.165004  155.832214    0.000000    0.000000    0.000000    0.000000
  0.030841683  -46.165378  179.584656   -1.159682  154.687836    0.000000    0.000000    0.000000    0.000000
  0.031042084  -42.824114  158.329208   -1.152046  153.309814    0.000000    0.000000    0.000000    0.000000
  0.031242485  -43.386304  162.766663   -1.058384  151.744080    0.000000    0.000000    0.000000    0.000000
  0.031442886  -41.381501  155.134857   -0.957806  150.216766    0.000000    0.000000    0.000000    0.000000
  0.031643287  -42.345739  144.698792   -0.825759  148.739670    0.000000    0.000000    0.000000    0.000000
  0.031843687  -40.664420  145.122116   -0.665018  147.132675    0.000000    0.000000    0.000000    0.000000
  0.032044088  -38.783987  135.856659   -0.846671  145.792664    0.000000    0.000000    0.000000    0.000000
  0.032244489  -38.263094  128.071289   -0.910103  144.088043    0.000000    0.000000    0.000000    0.000000
  0.032444890  -37.836540  131.450668   -0.925662  142.748291    0.000000    0.000000    0.000000    0.000000
  0.032645291  -38.615257  124.288681   -0.976912  141.895798    0.000000    0.000000    0.000000    0.000000
  0.032845691  -37.332579  125.930954   -0.944797  140.841202    0.000000    0.000000    0.000000    0.000000
  0.033046092  -36.892194  119.243042   -0.976956  140.304733    0.000000    0.000000    0.000000    0.000000
  0.033246493  -36.227149  118.724632   -1.077990  139.559189    0.000000    0.000000    0.000000    0.000000
  0.033446894  -35.820516  114.291039   -1.019644  137.571991    0.000000    0.000000    0.000000    0.000000
  0.033647295  -35.396591  108.359901   -0.970016  136.637817    0.000000    0.000000    0.000000    0.000000
  0.033847695  -35.183538  107.374168   -0.964253  135.164780    0.000000    0.000000    0.000000    0.000000
  0.034048096  -35.371884  108.893021   -0.878420  134.335846    0.000000    0.000000    0.000000    0.000000
  0.034248497  -34.100900  102.144554   -0.888827  133.610657    0.000000    0.000000    0.000000    0.000000
  0.034448898  -34.877458  101.886963   -0.785909  131.931488    0.000000    0.000000    0.000000    0.000000
  0.034649299  -34.803848   99.878067   -0.827099  130.726746    0.000000    0.000000    0.000000    0.000000
  0.034849699  -34.138549   99.478348   -0.739812  129.129776    0.000000    0.000000    0.000000    0.000000
  0.035050100  -34.059820   92.573257   -0.816604  127.911263    0.000000    0.000000    0.000000    0.000000
  0.035250501  -33.376814   94.735252   -0.905492  126.867775    0.000000    0.000000    0.000000    0.000000
  0.035450902  -33.833254   92.069099   -0.830041  125.948143    0.000000    0.000000    0.000000    0.000000
  0.035651303  -33.882199   86.747917   -0.928328  124.634972    0.000000    0.000000    0.000000    0.000000
  0.035851703  -33.828645   88.556786   -0.804676  123.119148    0.000000    0.000000    0.000000    0.000000
  0.036052104  -33.591133   90.251205   -0.782788  121.757835    0.000000    0.000000    0.000000    0.000000
  0.036252505  -33.349959   86.765831   -0.742592  120.481316    0.000000    0.000000    0.000000    0.000000
  0.036452906  -33.553167   80.230553   -0.746735  119.511971    0.000000    0.000000    0.000000    0.000000
  0.036653307  -33.824696   78.745537   -0.808950  118.650970    0.000000    0.000000    0.000000    0.000000
  0.036853707  -33.595214   78.123695   -0.930026  116.880165    0.000000    0.000000    0.000000    0.000000
  0.037054108  -33.509581   71.455399   -1.047585  114.212234    0.000000    0.000000    0.000000    0.000000
  0.037254509  -33.612814   75.170715   -1.131788  112.452095    0.000000    0.000000    0.000000    0.000000
  0.037454910  -33.692775   70.763008   -1.021614  111.340927    0.000000    0.000000    0.000000    0.000000
  0.037655311  -33.377028   74.418060   -0.899602  110.472641    0.000000    0.000000    0.000000    0.000000
  0.037855711  -33.821811   65.872192   -0.889785  110.188759    0.000000    0.000000    0.000000    0.000000
  0.038056112  -34.198575   64.107681   -0.919180  108.844635    0.000000    0.000000    0.000000    0.000000
  0.038256513  -33.940904   61.995209   -1.001104  106.889076    0.000000    0.000000    0.000000    0.000000
  0.038456914  -34.854595   62.963287   -1.016542  104.685768    0.000000    0.000000    0.000000    0.000000
  0.038657315  -34.451084   59.141182   -0.975626  103.963135    0.000000    0.000000    0.000000    0.000000
  0.038857715  -34.509721   56.788475   -0.850045  103.805191    0.000000    0.000000    0.000000    0.000000
  0.039058116  -34.837168   53.076664   -0.911435  103.654839    0.000000    0.000000    0.000000    0.000000
  0.039258517  -35.781612   52.269234   -0.927246  102.456223    0.000000    0.000000    0.000000    0.000000
  0.039458918  -36.033753   48.668365   -0.866596   99.843224    0.000000    0.000000    0.000000    0.000000
  0.039659319  -36.723850   52.993172   -0.937822   97.748871    0.000000    0.000000    0.000000    0.000000
  0.039859719  -36.653943   46.718178   -0.944877   97.406761    0.000000    0.000000    0.000000    0.000000
  0.040060120  -36.840866   45.493671   -1.044580   97.012230    0.000000    0.000000    0.000000    0.000000
  0.040260521  -37.532707   43.218380   -1.045247   95.662415    0.000000    0.000000    0.000000    0.000000
  0.040460922  -38.778582   43.336269   -0.992412   92.711685    0.000000    0.000000    0.000000    0.000000
  0.040661323  -38.753300   37.705318   -1.036215   90.757896    0.000000    0.000000    0.000000    0.000000
  0.040861723  -39.475807   31.376257   -1.082669   89.423691    0.000000    0.000000    0.000000    0.000000
  0.041062124  -40.488945   30.787352   -1.089743   89.829964    0.000000    0.000000    0.000000    0.000000
  0.041262525  -40.590676   22.398109   -1.114319   89.062775    0.000000    0.000000    0.000000    0.000000
  0.041462926  -41.856011   30.876945   -1.169103   87.580475    0.000000    0.000000    0.000000    0.000000
  0.041663327  -41.979944   17.692724   -1.007643   85.378571    0.000000    0.000000    0.000000    0.000000
  0.041863727  -43.197910   17.541447   -1.030607   84.039795    0.000000    0.000000    0.000000    0.000000
  0.042064128  -44.423906   20.943987   -0.954949   83.360435    0.000000    0.000000    0.000000    0.000000
  0.042264529  -46.442623   18.301197   -1.045595   83.037079    0.000000    0.000000    0.000000    0.000000
  0.042464930  -47.979370  -17.612524   -1.060688   81.666290    0.000000    0.000000    0.000000    0.000000
  0.042665331  -48.999407  -38.578732   -1.081951   79.976990    0.000000    0.000000    0.000000    0.000000
  0.042865731  -49.857625  -55.265121   -1.003982   76.437218    0.000000    0.000000    0.000000    0.000000
