! Anritsu VNA Master:                 Model: MS2034B/10/19/501
! SN:                                  1337062
! /bd0/ovro-jan-2016/spec3-vna-coax-short.s2p
! Existing Calibration Information:
! TYPE:                         Current Settings,       Active Cal Settings
! TIME:             	   01/10/2016 07:44:49 PM,    01/10/2016 03:13:30 PM
! INTERNAL TEMP:    	                   41.8 C,                    45.8 C
! # POINTS:         	                      500,                       500
! START FREQ:       	               10.000 MHz,                10.000 MHz
! STOP FREQ:        	              110.000 MHz,               110.000 MHz
! SOURCE POWER:     	                      Low,                       Low
! IFBW:             	                   100 Hz,                    100 Hz
! AVG FACTOR:       	                       1 ,                        3 
! REF PLANE 1:      	                 2.2245 m,                  2.2245 m
! REF PLANE 2:      	                     0 mm,                      0 mm
! CAL TYPE:         	             1P2P S11,S21,              1P2P S11,S21
! CAL METHOD:       	                     SOLT,                      SOLT
! CAL LINE TYPE:    	                     Coax,                      Coax
! DUT PORT 1:       	                K-Conn(M),                 K-Conn(M)
! DUT PORT 2:       	                N-Conn(M),                 N-Conn(M)
! CAL STATUS:       	        OK: Accuracy High,                        --
# GHZ S DB R 50.0
! FREQ.GHZ       S11DB        S11A       S21DB        S21A       S12DB        S12A       S22DB        S22A
  0.010000000   -0.928720   45.375206  -65.395626   56.453312    0.000000    0.000000    0.000000    0.000000
  0.010200401   -0.897057   42.646137  -65.375850   78.536919    0.000000    0.000000    0.000000    0.000000
  0.010400802   -0.881590   39.860786  -67.363113   89.879120    0.000000    0.000000    0.000000    0.000000
  0.010601202   -0.888465   37.373783  -66.783055   80.662949    0.000000    0.000000    0.000000    0.000000
  0.010801603   -0.876567   34.741371  -67.183990   93.083572    0.000000    0.000000    0.000000    0.000000
  0.011002004   -0.861943   31.959139  -67.240086  103.139694    0.000000    0.000000    0.000000    0.000000
  0.011202405   -0.845075   29.309277  -67.794497  103.590820    0.000000    0.000000    0.000000    0.000000
  0.011402806   -0.820720   26.534580  -64.387241   99.804901    0.000000    0.000000    0.000000    0.000000
  0.011603206   -0.855094   24.037186  -62.703952   99.294739    0.000000    0.000000    0.000000    0.000000
  0.011803607   -0.841200   21.314001  -64.844282  106.897911    0.000000    0.000000    0.000000    0.000000
  0.012004008   -0.869922   18.626928  -64.690783  105.139366    0.000000    0.000000    0.000000    0.000000
  0.012204409   -0.854615   16.035744  -65.753987  116.780838    0.000000    0.000000    0.000000    0.000000
  0.012404810   -0.859398   13.411432  -65.361366  109.761505    0.000000    0.000000    0.000000    0.000000
  0.012605210   -0.857304   10.690700  -65.804546  112.203796    0.000000    0.000000    0.000000    0.000000
  0.012805611   -0.853370    7.954435  -66.939467  125.516502    0.000000    0.000000    0.000000    0.000000
  0.013006012   -0.868031    5.656083  -67.121210  113.867531    0.000000    0.000000    0.000000    0.000000
  0.013206413   -0.849490    2.697912  -67.246909  120.032104    0.000000    0.000000    0.000000    0.000000
  0.013406814   -0.848962    0.100060  -68.974519  111.162498    0.000000    0.000000    0.000000    0.000000
  0.013607214   -0.873207   -2.798395  -67.454546   99.950005    0.000000    0.000000    0.000000    0.000000
  0.013807615   -0.875391   -5.322356  -64.265093  118.684769    0.000000    0.000000    0.000000    0.000000
  0.014008016   -0.894084   -8.142658  -64.824744  126.876785    0.000000    0.000000    0.000000    0.000000
  0.014208417   -0.896668  -10.303113  -64.873465  129.912582    0.000000    0.000000    0.000000    0.000000
  0.014408818   -0.907984  -13.328131  -67.522680  107.779762    0.000000    0.000000    0.000000    0.000000
  0.014609218   -0.906919  -15.859727  -64.213976  125.727844    0.000000    0.000000    0.000000    0.000000
  0.014809619   -0.944918  -18.472239  -65.538362  139.634933    0.000000    0.000000    0.000000    0.000000
  0.015010020   -0.968709  -21.278040  -67.898022  132.331863    0.000000    0.000000    0.000000    0.000000
  0.015210421   -0.962321  -23.808695  -66.317063  106.001717    0.000000    0.000000    0.000000    0.000000
  0.015410822   -0.994393  -26.457508  -64.958169  145.179520    0.000000    0.000000    0.000000    0.000000
  0.015611222   -1.019915  -28.753092  -66.402132  136.484207    0.000000    0.000000    0.000000    0.000000
  0.015811623   -1.020129  -31.733704  -65.370259  119.902328    0.000000    0.000000    0.000000    0.000000
  0.016012024   -1.033875  -34.355164  -64.732033  144.114471    0.000000    0.000000    0.000000    0.000000
  0.016212425   -1.048549  -37.066036  -67.248676  128.771393    0.000000    0.000000    0.000000    0.000000
  0.016412826   -1.054908  -39.711529  -68.306867  128.407883    0.000000    0.000000    0.000000    0.000000
  0.016613226   -1.073649  -42.243526  -63.522796  134.094849    0.000000    0.000000    0.000000    0.000000
  0.016813627   -1.106744  -44.968895  -65.867955  139.719681    0.000000    0.000000    0.000000    0.000000
  0.017014028   -1.118336  -47.526669  -65.855435  133.057159    0.000000    0.000000    0.000000    0.000000
  0.017214429   -1.110617  -50.223045  -66.554563  134.605804    0.000000    0.000000    0.000000    0.000000
  0.017414830   -1.157251  -52.851421  -64.783845  145.418503    0.000000    0.000000    0.000000    0.000000
  0.017615230   -1.154472  -55.492832  -66.460287  140.011093    0.000000    0.000000    0.000000    0.000000
  0.017815631   -1.174859  -58.110710  -66.086907  140.034622    0.000000    0.000000    0.000000    0.000000
  0.018016032   -1.220960  -60.594002  -65.589151  152.613159    0.000000    0.000000    0.000000    0.000000
  0.018216433   -1.225341  -63.136997  -67.606459  154.728287    0.000000    0.000000    0.000000    0.000000
  0.018416834   -1.244000  -65.773682  -65.110662  151.439529    0.000000    0.000000    0.000000    0.000000
  0.018617234   -1.243551  -68.284943  -66.125566  151.915924    0.000000    0.000000    0.000000    0.000000
  0.018817635   -1.274941  -70.909164  -65.270087  148.109116    0.000000    0.000000    0.000000    0.000000
  0.019018036   -1.294678  -73.542953  -66.150556  136.140396    0.000000    0.000000    0.000000    0.000000
  0.019218437   -1.267303  -76.197502  -66.782631  153.408264    0.000000    0.000000    0.000000    0.000000
  0.019418838   -1.304729  -78.701874  -66.812918  156.332016    0.000000    0.000000    0.000000    0.000000
  0.019619238   -1.318338  -81.349442  -67.916562  151.498688    0.000000    0.000000    0.000000    0.000000
  0.019819639   -1.345036  -83.957993  -67.452125  146.790909    0.000000    0.000000    0.000000    0.000000
  0.020020040   -1.375163  -86.390312  -66.618778  152.362015    0.000000    0.000000    0.000000    0.000000
  0.020220441   -1.371521  -89.014305  -66.497267  169.797318    0.000000    0.000000    0.000000    0.000000
  0.020420842   -1.398546  -91.733414  -65.910743  152.660599    0.000000    0.000000    0.000000    0.000000
  0.020621242   -1.399763  -94.229805  -66.664257  165.111313    0.000000    0.000000    0.000000    0.000000
  0.020821643   -1.402767  -96.858658  -67.333840  155.878571    0.000000    0.000000    0.000000    0.000000
  0.021022044   -1.426537  -99.512817  -70.751039  164.466019    0.000000    0.000000    0.000000    0.000000
  0.021222445   -1.436176 -102.057846  -67.841532  168.465500    0.000000    0.000000    0.000000    0.000000
  0.021422846   -1.462502 -104.653290  -67.845910  159.922760    0.000000    0.000000    0.000000    0.000000
  0.021623246   -1.462122 -107.358719  -66.024343  162.636993    0.000000    0.000000    0.000000    0.000000
  0.021823647   -1.448800 -110.074913  -67.311039  167.740433    0.000000    0.000000    0.000000    0.000000
  0.022024048   -1.494746 -112.387726  -68.521636  172.558731    0.000000    0.000000    0.000000    0.000000
  0.022224449   -1.480242 -115.113342  -67.443369  162.210602    0.000000    0.000000    0.000000    0.000000
  0.022424850   -1.496786 -117.716644  -67.979507 -176.186554    0.000000    0.000000    0.000000    0.000000
  0.022625251   -1.501061 -120.463486  -68.779822  163.153152    0.000000    0.000000    0.000000    0.000000
  0.022825651   -1.498429 -123.000366  -68.521920  178.899536    0.000000    0.000000    0.000000    0.000000
  0.023026052   -1.475655 -125.712555  -66.533447 -177.672653    0.000000    0.000000    0.000000    0.000000
  0.023226453   -1.523436 -128.270782  -67.060326  174.938187    0.000000    0.000000    0.000000    0.000000
  0.023426854   -1.521689 -131.089951  -65.825420 -163.775803    0.000000    0.000000    0.000000    0.000000
  0.023627255   -1.528399 -133.554672  -66.806983 -171.367599    0.000000    0.000000    0.000000    0.000000
  0.023827655   -1.520087 -136.404922  -64.693153 -169.075546    0.000000    0.000000    0.000000    0.000000
  0.024028056   -1.540080 -138.947723  -65.759431 -163.662582    0.000000    0.000000    0.000000    0.000000
  0.024228457   -1.497953 -141.741028  -63.859716 -170.748199    0.000000    0.000000    0.000000    0.000000
  0.024428858   -1.509325 -144.088516  -64.744674 -168.367233    0.000000    0.000000    0.000000    0.000000
  0.024629259   -1.538766 -146.809845  -64.232782 -174.924789    0.000000    0.000000    0.000000    0.000000
  0.024829659   -1.485978 -149.674881  -64.141439 -137.114807    0.000000    0.000000    0.000000    0.000000
  0.025030060   -1.516816 -152.390686  -66.170920 -132.922806    0.000000    0.000000    0.000000    0.000000
  0.025230461   -1.521027 -154.896484  -65.611292 -131.299301    0.000000    0.000000    0.000000    0.000000
  0.025430862   -1.503439 -157.675644  -64.157658 -139.166000    0.000000    0.000000    0.000000    0.000000
  0.025631263   -1.507306 -160.237289  -66.275892 -149.940582    0.000000    0.000000    0.000000    0.000000
  0.025831663   -1.502129 -163.047134  -63.155140 -146.804810    0.000000    0.000000    0.000000    0.000000
  0.026032064   -1.499932 -165.812225  -66.039540 -127.162659    0.000000    0.000000    0.000000    0.000000
  0.026232465   -1.516961 -168.321564  -65.603410 -141.304352    0.000000    0.000000    0.000000    0.000000
  0.026432866   -1.499147 -170.976151  -63.918518 -121.605400    0.000000    0.000000    0.000000    0.000000
  0.026633267   -1.507389 -173.701431  -68.197832 -142.322510    0.000000    0.000000    0.000000    0.000000
  0.026833667   -1.469946 -176.253387  -64.659793 -123.956253    0.000000    0.000000    0.000000    0.000000
  0.027034068   -1.479726 -179.124969  -63.612570 -122.698654    0.000000    0.000000    0.000000    0.000000
  0.027234469   -1.474682  178.342041  -64.872729 -113.073265    0.000000    0.000000    0.000000    0.000000
  0.027434870   -1.469359  175.679504  -64.740513 -113.578636    0.000000    0.000000    0.000000    0.000000
  0.027635271   -1.492688  172.881088  -62.401127 -129.583069    0.000000    0.000000    0.000000    0.000000
  0.027835671   -1.472013  170.331589  -63.312169 -114.898506    0.000000    0.000000    0.000000    0.000000
  0.028036072   -1.481632  167.598099  -66.304376 -119.555000    0.000000    0.000000    0.000000    0.000000
  0.028236473   -1.459616  165.057251  -64.681962 -116.600891    0.000000    0.000000    0.000000    0.000000
  0.028436874   -1.426771  162.262482  -64.261461 -114.548569    0.000000    0.000000    0.000000    0.000000
  0.028637275   -1.428870  159.451080  -64.643675 -119.474144    0.000000    0.000000    0.000000    0.000000
  0.028837675   -1.439587  156.836655  -65.847327 -101.957352    0.000000    0.000000    0.000000    0.000000
  0.029038076   -1.415239  154.181366  -64.621020 -107.389305    0.000000    0.000000    0.000000    0.000000
  0.029238477   -1.432134  151.558746  -65.207085 -111.899780    0.000000    0.000000    0.000000    0.000000
  0.029438878   -1.414545  148.862152  -66.200613 -104.365646    0.000000    0.000000    0.000000    0.000000
  0.029639279   -1.440085  146.256805  -68.386020 -100.494400    0.000000    0.000000    0.000000    0.000000
  0.029839679   -1.413478  143.554871  -63.242097 -121.274513    0.000000    0.000000    0.000000    0.000000
  0.030040080   -1.422888  140.815811  -65.033170  -97.387383    0.000000    0.000000    0.000000    0.000000
  0.030240481   -1.422971  138.150894  -63.280908 -103.724281    0.000000    0.000000    0.000000    0.000000
  0.030440882   -1.446559  135.413055  -65.016464  -96.737778    0.000000    0.000000    0.000000    0.000000
  0.030641283   -1.411333  132.815674  -67.042913  -86.476593    0.000000    0.000000    0.000000    0.000000
  0.030841683   -1.390581  129.914246  -65.841259  -89.128754    0.000000    0.000000    0.000000    0.000000
  0.031042084   -1.410985  127.472725  -65.083895  -94.123878    0.000000    0.000000    0.000000    0.000000
  0.031242485   -1.397092  124.838219  -67.316526  -97.417145    0.000000    0.000000    0.000000    0.000000
  0.031442886   -1.408251  122.023354  -66.701204  -85.685867    0.000000    0.000000    0.000000    0.000000
  0.031643287   -1.407319  119.460968  -67.126306  -92.494431    0.000000    0.000000    0.000000    0.000000
  0.031843687   -1.442964  116.661652  -65.459027  -90.884842    0.000000    0.000000    0.000000    0.000000
  0.032044088   -1.394897  114.274956  -65.558728  -86.861115    0.000000    0.000000    0.000000    0.000000
  0.032244489   -1.387811  111.559319  -64.668023 -110.830078    0.000000    0.000000    0.000000    0.000000
  0.032444890   -1.420847  108.905388  -68.575628  -90.055870    0.000000    0.000000    0.000000    0.000000
  0.032645291   -1.396242  106.111542  -66.157053  -88.175629    0.000000    0.000000    0.000000    0.000000
  0.032845691   -1.413110  103.676140  -67.007142  -88.463684    0.000000    0.000000    0.000000    0.000000
  0.033046092   -1.444702  100.816696  -65.016001  -92.036034    0.000000    0.000000    0.000000    0.000000
  0.033246493   -1.422199   98.332779  -67.235853  -86.515396    0.000000    0.000000    0.000000    0.000000
  0.033446894   -1.408800   95.722397  -65.207389  -92.680122    0.000000    0.000000    0.000000    0.000000
  0.033647295   -1.419236   93.086845  -68.133813  -71.532372    0.000000    0.000000    0.000000    0.000000
  0.033847695   -1.455726   90.542114  -66.219649  -79.990494    0.000000    0.000000    0.000000    0.000000
  0.034048096   -1.455015   87.935272  -67.951366  -75.830849    0.000000    0.000000    0.000000    0.000000
  0.034248497   -1.466683   85.085808  -67.035126  -69.549156    0.000000    0.000000    0.000000    0.000000
  0.034448898   -1.468588   82.605652  -69.208759  -71.454529    0.000000    0.000000    0.000000    0.000000
  0.034649299   -1.488473   80.116661  -69.716882  -80.004356    0.000000    0.000000    0.000000    0.000000
  0.034849699   -1.480699   77.577126  -67.102505  -78.535187    0.000000    0.000000    0.000000    0.000000
  0.035050100   -1.510639   75.068001  -67.582924  -76.306320    0.000000    0.000000    0.000000    0.000000
  0.035250501   -1.509468   72.309532  -71.130988  -57.744633    0.000000    0.000000    0.000000    0.000000
  0.035450902   -1.539175   69.610657  -67.411617  -55.252285    0.000000    0.000000    0.000000    0.000000
  0.035651303   -1.545216   67.245644  -67.774115  -71.772224    0.000000    0.000000    0.000000    0.000000
  0.035851703   -1.552980   64.716537  -68.394502  -59.837093    0.000000    0.000000    0.000000    0.000000
  0.036052104   -1.558905   62.147762  -67.489877  -49.549660    0.000000    0.000000    0.000000    0.000000
  0.036252505   -1.583060   59.527374  -68.819051  -50.472130    0.000000    0.000000    0.000000    0.000000
  0.036452906   -1.581719   56.970036  -65.890340  -53.771984    0.000000    0.000000    0.000000    0.000000
  0.036653307   -1.620314   54.467793  -68.532582  -60.526588    0.000000    0.000000    0.000000    0.000000
  0.036853707   -1.613087   51.767975  -65.461699  -57.274292    0.000000    0.000000    0.000000    0.000000
  0.037054108   -1.634211   49.293224  -68.600410  -60.180382    0.000000    0.000000    0.000000    0.000000
  0.037254509   -1.660260   46.649563  -66.484187  -54.215469    0.000000    0.000000    0.000000    0.000000
  0.037454910   -1.667484   44.168556  -68.685746  -64.613800    0.000000    0.000000    0.000000    0.000000
  0.037655311   -1.672002   41.467133  -67.493358  -67.764076    0.000000    0.000000    0.000000    0.000000
  0.037855711   -1.684824   38.934517  -67.266788  -54.441227    0.000000    0.000000    0.000000    0.000000
  0.038056112   -1.686800   36.368160  -67.243991  -56.457130    0.000000    0.000000    0.000000    0.000000
  0.038256513   -1.729868   33.865341  -65.173204  -52.176075    0.000000    0.000000    0.000000    0.000000
  0.038456914   -1.738575   31.248255  -67.035840  -54.585125    0.000000    0.000000    0.000000    0.000000
  0.038657315   -1.734224   28.619598  -68.335013  -36.383667    0.000000    0.000000    0.000000    0.000000
  0.038857715   -1.739389   26.228056  -66.070844  -38.558487    0.000000    0.000000    0.000000    0.000000
  0.039058116   -1.762646   23.631147  -67.512705  -44.948910    0.000000    0.000000    0.000000    0.000000
  0.039258517   -1.756709   21.048328  -69.110410  -28.586784    0.000000    0.000000    0.000000    0.000000
  0.039458918   -1.774899   18.369358  -66.966712  -27.114674    0.000000    0.000000    0.000000    0.000000
  0.039659319   -1.787429   15.797642  -67.249820  -20.749134    0.000000    0.000000    0.000000    0.000000
  0.039859719   -1.810653   13.176076  -67.960334  -40.368938    0.000000    0.000000    0.000000    0.000000
  0.040060120   -1.806339   10.773062  -65.803835  -23.340593    0.000000    0.000000    0.000000    0.000000
  0.040260521   -1.823910    8.086079  -67.924077  -25.514349    0.000000    0.000000    0.000000    0.000000
  0.040460922   -1.824952    5.834626  -67.171540  -19.263231    0.000000    0.000000    0.000000    0.000000
  0.040661323   -1.837809    3.015995  -67.858143  -21.638657    0.000000    0.000000    0.000000    0.000000
  0.040861723   -1.841812    0.372537  -66.025988  -22.124693    0.000000    0.000000    0.000000    0.000000
  0.041062124   -1.860594   -2.227266  -68.497012  -12.541324    0.000000    0.000000    0.000000    0.000000
  0.041262525   -1.858400   -4.930667  -68.025741   -5.156024    0.000000    0.000000    0.000000    0.000000
  0.041462926   -1.866477   -7.481174  -67.061462   -9.888304    0.000000    0.000000    0.000000    0.000000
  0.041663327   -1.890026   -9.978653  -67.798345    0.682346    0.000000    0.000000    0.000000    0.000000
  0.041863727   -1.887669  -12.359353  -66.828324   -4.449395    0.000000    0.000000    0.000000    0.000000
  0.042064128   -1.910020  -15.104670  -66.598202  -14.627325    0.000000    0.000000    0.000000    0.000000
  0.042264529   -1.903373  -17.650463  -68.441552   17.986259    0.000000    0.000000    0.000000    0.000000
  0.042464930   -1.920983  -20.490934  -68.312976   -5.648521    0.000000    0.000000    0.000000    0.000000
  0.042665331   -1.916042  -23.141445  -66.669586   17.303648    0.000000    0.000000    0.000000    0.000000
  0.042865731   -1.943596  -25.816584  -69.353122  -14.072977    0.000000    0.000000    0.000000    0.000000
