! Anritsu VNA Master:                 Model: MS2034B/10/19/501
! SN:                                  1337062
! /bd0/ovro-jan-2016/spec3-vna-coax-open.s2p
! Existing Calibration Information:
! TYPE:                         Current Settings,       Active Cal Settings
! TIME:             	   01/10/2016 07:43:45 PM,    01/10/2016 03:13:30 PM
! INTERNAL TEMP:    	                   42.3 C,                    45.8 C
! # POINTS:         	                      500,                       500
! START FREQ:       	               10.000 MHz,                10.000 MHz
! STOP FREQ:        	              110.000 MHz,               110.000 MHz
! SOURCE POWER:     	                      Low,                       Low
! IFBW:             	                   100 Hz,                    100 Hz
! AVG FACTOR:       	                       1 ,                        3 
! REF PLANE 1:      	                 2.2245 m,                  2.2245 m
! REF PLANE 2:      	                     0 mm,                      0 mm
! CAL TYPE:         	             1P2P S11,S21,              1P2P S11,S21
! CAL METHOD:       	                     SOLT,                      SOLT
! CAL LINE TYPE:    	                     Coax,                      Coax
! DUT PORT 1:       	                K-Conn(M),                 K-Conn(M)
! DUT PORT 2:       	                N-Conn(M),                 N-Conn(M)
! CAL STATUS:       	        OK: Accuracy High,                        --
# GHZ S DB R 50.0
! FREQ.GHZ       S11DB        S11A       S21DB        S21A       S12DB        S12A       S22DB        S22A
  0.010000000   -1.081630 -134.218018  -63.682645   79.867050    0.000000    0.000000    0.000000    0.000000
  0.010200401   -1.082697 -136.702087  -65.991090   90.244644    0.000000    0.000000    0.000000    0.000000
  0.010400802   -1.096452 -139.449829  -64.672112   87.138420    0.000000    0.000000    0.000000    0.000000
  0.010601202   -1.153260 -142.189484  -64.594583   87.805801    0.000000    0.000000    0.000000    0.000000
  0.010801603   -1.141283 -144.572021  -64.728912  101.132484    0.000000    0.000000    0.000000    0.000000
  0.011002004   -1.192915 -147.262619  -65.678543  101.126785    0.000000    0.000000    0.000000    0.000000
  0.011202405   -1.178300 -149.713257  -63.771430   86.892601    0.000000    0.000000    0.000000    0.000000
  0.011402806   -1.217692 -152.388824  -65.554576   83.820656    0.000000    0.000000    0.000000    0.000000
  0.011603206   -1.237656 -155.161118  -65.167541   92.351051    0.000000    0.000000    0.000000    0.000000
  0.011803607   -1.255136 -157.937592  -67.607651   92.165031    0.000000    0.000000    0.000000    0.000000
  0.012004008   -1.240951 -160.138138  -66.073264  100.467476    0.000000    0.000000    0.000000    0.000000
  0.012204409   -1.268922 -162.845840  -65.684165  104.944847    0.000000    0.000000    0.000000    0.000000
  0.012404810   -1.268267 -165.418396  -67.677114  104.927933    0.000000    0.000000    0.000000    0.000000
  0.012605210   -1.288305 -168.044281  -67.034148  103.118752    0.000000    0.000000    0.000000    0.000000
  0.012805611   -1.255731 -170.622025  -64.566730   99.534470    0.000000    0.000000    0.000000    0.000000
  0.013006012   -1.313667 -173.625336  -66.725649  105.212128    0.000000    0.000000    0.000000    0.000000
  0.013206413   -1.317238 -176.064987  -65.410241  109.715149    0.000000    0.000000    0.000000    0.000000
  0.013406814   -1.314666 -178.550110  -66.606429  119.037331    0.000000    0.000000    0.000000    0.000000
  0.013607214   -1.330061  178.747421  -68.007463   93.812462    0.000000    0.000000    0.000000    0.000000
  0.013807615   -1.316202  176.085236  -65.177014   99.281082    0.000000    0.000000    0.000000    0.000000
  0.014008016   -1.320494  173.531235  -68.105122  113.293945    0.000000    0.000000    0.000000    0.000000
  0.014208417   -1.328090  170.676422  -65.479089  101.922073    0.000000    0.000000    0.000000    0.000000
  0.014408818   -1.344291  168.232071  -65.603707  120.746460    0.000000    0.000000    0.000000    0.000000
  0.014609218   -1.350001  165.523712  -67.618525  113.272636    0.000000    0.000000    0.000000    0.000000
  0.014809619   -1.345683  163.001297  -69.130966  105.541862    0.000000    0.000000    0.000000    0.000000
  0.015010020   -1.329939  160.368439  -68.319862  110.762581    0.000000    0.000000    0.000000    0.000000
  0.015210421   -1.349394  157.705688  -67.374891  117.102913    0.000000    0.000000    0.000000    0.000000
  0.015410822   -1.343377  155.093979  -66.385531  113.043045    0.000000    0.000000    0.000000    0.000000
  0.015611222   -1.323604  152.242401  -70.573389  118.652596    0.000000    0.000000    0.000000    0.000000
  0.015811623   -1.317004  149.722824  -66.902695  133.035324    0.000000    0.000000    0.000000    0.000000
  0.016012024   -1.320805  147.088959  -66.602925  130.360519    0.000000    0.000000    0.000000    0.000000
  0.016212425   -1.326588  144.405624  -67.410971  123.924423    0.000000    0.000000    0.000000    0.000000
  0.016412826   -1.338448  141.670441  -66.530952  135.970657    0.000000    0.000000    0.000000    0.000000
  0.016613226   -1.291110  138.953842  -67.327966  143.581696    0.000000    0.000000    0.000000    0.000000
  0.016813627   -1.294029  136.295074  -66.619092  121.853523    0.000000    0.000000    0.000000    0.000000
  0.017014028   -1.307234  133.654480  -66.011469  127.731972    0.000000    0.000000    0.000000    0.000000
  0.017214429   -1.275030  131.044083  -65.248783  133.102890    0.000000    0.000000    0.000000    0.000000
  0.017414830   -1.286169  128.384003  -64.595560  133.921738    0.000000    0.000000    0.000000    0.000000
  0.017615230   -1.258355  125.640404  -66.662086  140.705017    0.000000    0.000000    0.000000    0.000000
  0.017815631   -1.255023  122.984184  -66.996885  141.094467    0.000000    0.000000    0.000000    0.000000
  0.018016032   -1.238681  120.229034  -68.587656 -173.200836    0.000000    0.000000    0.000000    0.000000
  0.018216433   -1.224513  117.598976  -67.258938  135.372757    0.000000    0.000000    0.000000    0.000000
  0.018416834   -1.224288  115.041481  -66.934065  137.370132    0.000000    0.000000    0.000000    0.000000
  0.018617234   -1.222053  112.128288  -64.917857  172.495300    0.000000    0.000000    0.000000    0.000000
  0.018817635   -1.220020  109.575958  -65.835926  158.257156    0.000000    0.000000    0.000000    0.000000
  0.019018036   -1.213087  106.899803  -66.915516  149.957260    0.000000    0.000000    0.000000    0.000000
  0.019218437   -1.208141  104.298874  -66.264169  150.473663    0.000000    0.000000    0.000000    0.000000
  0.019418838   -1.169396  101.466148  -65.754029  169.927887    0.000000    0.000000    0.000000    0.000000
  0.019619238   -1.202990   98.841942  -66.275950  150.074158    0.000000    0.000000    0.000000    0.000000
  0.019819639   -1.204250   96.105881  -66.846626  154.108978    0.000000    0.000000    0.000000    0.000000
  0.020020040   -1.187476   93.455025  -67.445622  170.310303    0.000000    0.000000    0.000000    0.000000
  0.020220441   -1.172593   90.741409  -65.136747  156.001816    0.000000    0.000000    0.000000    0.000000
  0.020420842   -1.189111   88.142616  -66.614283  174.265823    0.000000    0.000000    0.000000    0.000000
  0.020621242   -1.186930   85.505753  -65.303368  162.390472    0.000000    0.000000    0.000000    0.000000
  0.020821643   -1.181935   82.722504  -67.257760 -171.883347    0.000000    0.000000    0.000000    0.000000
  0.021022044   -1.169068   80.101410  -65.374911  168.814285    0.000000    0.000000    0.000000    0.000000
  0.021222445   -1.175967   77.269508  -67.813392 -176.978012    0.000000    0.000000    0.000000    0.000000
  0.021422846   -1.139184   74.815010  -65.973931 -170.249435    0.000000    0.000000    0.000000    0.000000
  0.021623246   -1.181486   72.359512  -67.311176 -159.896881    0.000000    0.000000    0.000000    0.000000
  0.021823647   -1.183271   69.635017  -66.517147 -169.816467    0.000000    0.000000    0.000000    0.000000
  0.022024048   -1.204672   66.727623  -67.812885 -161.801254    0.000000    0.000000    0.000000    0.000000
  0.022224449   -1.172144   64.174446  -66.632802 -154.154724    0.000000    0.000000    0.000000    0.000000
  0.022424850   -1.196966   61.454128  -65.755860 -166.815643    0.000000    0.000000    0.000000    0.000000
  0.022625251   -1.186169   58.753197  -67.490285 -160.648773    0.000000    0.000000    0.000000    0.000000
  0.022825651   -1.196296   56.084461  -66.079125 -159.562653    0.000000    0.000000    0.000000    0.000000
  0.023026052   -1.233750   53.569462  -66.127839 -154.750687    0.000000    0.000000    0.000000    0.000000
  0.023226453   -1.209227   50.863197  -64.910388 -155.985397    0.000000    0.000000    0.000000    0.000000
  0.023426854   -1.204419   48.201168  -62.653891 -170.145432    0.000000    0.000000    0.000000    0.000000
  0.023627255   -1.212393   45.562962  -62.721131 -163.832947    0.000000    0.000000    0.000000    0.000000
  0.023827655   -1.231259   42.766201  -62.391200 -171.019012    0.000000    0.000000    0.000000    0.000000
  0.024028056   -1.210008   40.052990  -62.512660 -179.838181    0.000000    0.000000    0.000000    0.000000
  0.024228457   -1.249258   37.800171  -63.093883  179.904968    0.000000    0.000000    0.000000    0.000000
  0.024428858   -1.239833   34.976166  -62.529992  177.882385    0.000000    0.000000    0.000000    0.000000
  0.024629259   -1.225550   32.163780  -65.836244  179.849319    0.000000    0.000000    0.000000    0.000000
  0.024829659   -1.263241   29.352430  -65.439306 -142.917221    0.000000    0.000000    0.000000    0.000000
  0.025030060   -1.256956   26.952158  -67.507426 -142.966354    0.000000    0.000000    0.000000    0.000000
  0.025230461   -1.266715   24.137493  -64.527120 -150.324753    0.000000    0.000000    0.000000    0.000000
  0.025430862   -1.330972   21.730658  -66.871863 -150.736664    0.000000    0.000000    0.000000    0.000000
  0.025631263   -1.287080   19.225145  -64.768410 -155.481857    0.000000    0.000000    0.000000    0.000000
  0.025831663   -1.309398   16.495554  -66.152872 -144.094284    0.000000    0.000000    0.000000    0.000000
  0.026032064   -1.335301   13.908334  -70.286832 -134.640076    0.000000    0.000000    0.000000    0.000000
  0.026232465   -1.338125   11.179415  -67.931927 -131.768372    0.000000    0.000000    0.000000    0.000000
  0.026432866   -1.353019    8.727766  -66.709122 -122.688560    0.000000    0.000000    0.000000    0.000000
  0.026633267   -1.374365    6.161826  -64.319297 -125.987221    0.000000    0.000000    0.000000    0.000000
  0.026833667   -1.388663    3.383612  -65.616123 -146.303741    0.000000    0.000000    0.000000    0.000000
  0.027034068   -1.380905    0.989742  -67.836812 -131.305542    0.000000    0.000000    0.000000    0.000000
  0.027234469   -1.403669   -1.584981  -67.257036 -135.622223    0.000000    0.000000    0.000000    0.000000
  0.027434870   -1.419430   -4.274484  -67.380309 -133.959320    0.000000    0.000000    0.000000    0.000000
  0.027635271   -1.437239   -6.894172  -67.287311 -131.330078    0.000000    0.000000    0.000000    0.000000
  0.027835671   -1.454958   -9.427252  -65.459570 -129.536407    0.000000    0.000000    0.000000    0.000000
  0.028036072   -1.448288  -12.065927  -67.621692 -120.267052    0.000000    0.000000    0.000000    0.000000
  0.028236473   -1.469193  -14.602910  -65.967959 -133.810837    0.000000    0.000000    0.000000    0.000000
  0.028436874   -1.496890  -17.241236  -66.581161 -124.509445    0.000000    0.000000    0.000000    0.000000
  0.028637275   -1.495386  -19.658293  -67.615836 -123.946732    0.000000    0.000000    0.000000    0.000000
  0.028837675   -1.512929  -22.270691  -65.799946 -121.136986    0.000000    0.000000    0.000000    0.000000
  0.029038076   -1.533079  -24.760742  -68.111563 -113.947464    0.000000    0.000000    0.000000    0.000000
  0.029238477   -1.522998  -27.545523  -65.661332 -122.914238    0.000000    0.000000    0.000000    0.000000
  0.029438878   -1.545472  -30.218723  -68.210790 -115.035889    0.000000    0.000000    0.000000    0.000000
  0.029639279   -1.578080  -32.665485  -67.334751 -118.349937    0.000000    0.000000    0.000000    0.000000
  0.029839679   -1.592447  -35.255810  -65.806748 -125.167122    0.000000    0.000000    0.000000    0.000000
  0.030040080   -1.581730  -37.981232  -65.979398 -117.853386    0.000000    0.000000    0.000000    0.000000
  0.030240481   -1.605428  -40.423733  -65.888141 -110.508018    0.000000    0.000000    0.000000    0.000000
  0.030440882   -1.579136  -42.965076  -65.699312 -100.607399    0.000000    0.000000    0.000000    0.000000
  0.030641283   -1.601105  -45.704872  -63.934589 -114.059166    0.000000    0.000000    0.000000    0.000000
  0.030841683   -1.610863  -48.310429  -66.302147 -105.037003    0.000000    0.000000    0.000000    0.000000
  0.031042084   -1.654696  -50.990284  -67.791125 -101.528236    0.000000    0.000000    0.000000    0.000000
  0.031242485   -1.645233  -53.503471  -65.800162 -104.973999    0.000000    0.000000    0.000000    0.000000
  0.031442886   -1.627187  -56.119259  -64.908592  -79.498642    0.000000    0.000000    0.000000    0.000000
  0.031643287   -1.654329  -58.588448  -67.751954  -93.357101    0.000000    0.000000    0.000000    0.000000
  0.031843687   -1.630214  -61.214184  -68.429597  -91.070419    0.000000    0.000000    0.000000    0.000000
  0.032044088   -1.685930  -64.032562  -64.511711  -75.744400    0.000000    0.000000    0.000000    0.000000
  0.032244489   -1.675066  -66.601341  -66.021672  -86.536171    0.000000    0.000000    0.000000    0.000000
  0.032444890   -1.686627  -69.271652  -66.334487  -76.979088    0.000000    0.000000    0.000000    0.000000
  0.032645291   -1.665956  -71.729012  -64.258086  -78.112526    0.000000    0.000000    0.000000    0.000000
  0.032845691   -1.689363  -74.417938  -65.107362  -76.624016    0.000000    0.000000    0.000000    0.000000
  0.033046092   -1.632391  -76.876976  -67.422364  -54.865711    0.000000    0.000000    0.000000    0.000000
  0.033246493   -1.690366  -79.726875  -65.291698  -68.873390    0.000000    0.000000    0.000000    0.000000
  0.033446894   -1.705706  -82.329399  -67.304367  -68.552216    0.000000    0.000000    0.000000    0.000000
  0.033647295   -1.713574  -85.032410  -64.548746  -71.108536    0.000000    0.000000    0.000000    0.000000
  0.033847695   -1.699679  -87.555801  -65.006296  -72.561867    0.000000    0.000000    0.000000    0.000000
  0.034048096   -1.690214  -90.210190  -65.872815  -83.007278    0.000000    0.000000    0.000000    0.000000
  0.034248497   -1.691059  -92.695114  -66.063734  -65.680908    0.000000    0.000000    0.000000    0.000000
  0.034448898   -1.704813  -95.585747  -64.549839  -83.081047    0.000000    0.000000    0.000000    0.000000
  0.034649299   -1.686136  -98.130562  -63.588568  -84.069595    0.000000    0.000000    0.000000    0.000000
  0.034849699   -1.706949 -100.923439  -65.297103  -65.839424    0.000000    0.000000    0.000000    0.000000
  0.035050100   -1.710306 -103.485641  -67.291670  -92.397552    0.000000    0.000000    0.000000    0.000000
  0.035250501   -1.716305 -106.241646  -64.755620  -71.315231    0.000000    0.000000    0.000000    0.000000
  0.035450902   -1.681471 -108.733131  -65.791787  -79.604309    0.000000    0.000000    0.000000    0.000000
  0.035651303   -1.693151 -111.493439  -64.816820  -79.555161    0.000000    0.000000    0.000000    0.000000
  0.035851703   -1.701885 -114.204811  -67.366780  -58.331509    0.000000    0.000000    0.000000    0.000000
  0.036052104   -1.696710 -116.838936  -67.767561  -59.717957    0.000000    0.000000    0.000000    0.000000
  0.036252505   -1.713598 -119.501427  -68.333435  -46.469769    0.000000    0.000000    0.000000    0.000000
  0.036452906   -1.699041 -122.181808  -67.410209  -66.515015    0.000000    0.000000    0.000000    0.000000
  0.036653307   -1.688458 -124.880119  -69.537202  -48.026974    0.000000    0.000000    0.000000    0.000000
  0.036853707   -1.701235 -127.646889  -68.563757  -48.148018    0.000000    0.000000    0.000000    0.000000
  0.037054108   -1.705724 -130.351974  -66.574767  -45.311268    0.000000    0.000000    0.000000    0.000000
  0.037254509   -1.687555 -132.957382  -67.771554  -60.941761    0.000000    0.000000    0.000000    0.000000
  0.037454910   -1.687736 -135.555466  -67.763041  -18.606827    0.000000    0.000000    0.000000    0.000000
  0.037655311   -1.684256 -138.406509  -67.554945  -43.879265    0.000000    0.000000    0.000000    0.000000
  0.037855711   -1.673929 -141.004700  -69.900540  -41.746803    0.000000    0.000000    0.000000    0.000000
  0.038056112   -1.678942 -143.662308  -68.428641  -40.746536    0.000000    0.000000    0.000000    0.000000
  0.038256513   -1.675545 -146.401596  -65.141480  -35.713829    0.000000    0.000000    0.000000    0.000000
  0.038456914   -1.665204 -149.065735  -67.888569  -26.628023    0.000000    0.000000    0.000000    0.000000
  0.038657315   -1.662084 -151.758987  -67.497002  -39.596783    0.000000    0.000000    0.000000    0.000000
  0.038857715   -1.645507 -154.524658  -69.031563  -26.381315    0.000000    0.000000    0.000000    0.000000
  0.039058116   -1.658659 -157.081009  -65.938014  -40.791225    0.000000    0.000000    0.000000    0.000000
  0.039258517   -1.666746 -159.950516  -69.477674  -29.488358    0.000000    0.000000    0.000000    0.000000
  0.039458918   -1.654165 -162.494064  -68.219118  -28.477974    0.000000    0.000000    0.000000    0.000000
  0.039659319   -1.624660 -165.082870  -67.116982  -15.716776    0.000000    0.000000    0.000000    0.000000
  0.039859719   -1.625512 -167.856735  -66.931656  -22.899954    0.000000    0.000000    0.000000    0.000000
  0.040060120   -1.629045 -170.532318  -66.799067  -24.005148    0.000000    0.000000    0.000000    0.000000
  0.040260521   -1.648902 -173.104813  -67.951714  -44.674530    0.000000    0.000000    0.000000    0.000000
  0.040460922   -1.620479 -176.046188  -67.603735  -21.239178    0.000000    0.000000    0.000000    0.000000
  0.040661323   -1.629135 -178.404282  -67.322697  -27.298721    0.000000    0.000000    0.000000    0.000000
  0.040861723   -1.628105  178.970734  -67.042879  -21.543800    0.000000    0.000000    0.000000    0.000000
  0.041062124   -1.611678  176.322617  -67.303724  -26.356955    0.000000    0.000000    0.000000    0.000000
  0.041262525   -1.654057  173.712372  -67.215039  -12.187820    0.000000    0.000000    0.000000    0.000000
  0.041462926   -1.632108  171.090103  -65.960709  -25.118570    0.000000    0.000000    0.000000    0.000000
  0.041663327   -1.646861  168.419189  -67.211748  -13.004131    0.000000    0.000000    0.000000    0.000000
  0.041863727   -1.649143  165.643784  -66.842950   -8.978874    0.000000    0.000000    0.000000    0.000000
  0.042064128   -1.647659  162.949326  -66.600626   -7.286958    0.000000    0.000000    0.000000    0.000000
  0.042264529   -1.650592  160.395950  -67.973449   -5.610455    0.000000    0.000000    0.000000    0.000000
  0.042464930   -1.665992  157.955963  -66.541354  -17.970152    0.000000    0.000000    0.000000    0.000000
  0.042665331   -1.673996  155.285873  -68.183352    5.309629    0.000000    0.000000    0.000000    0.000000
  0.042865731   -1.660371  152.792831  -67.533918   -7.395175    0.000000    0.000000    0.000000    0.000000
