! Anritsu VNA Master:                 Model: MS2034B/10/19/501
! SN:                                  1337062
! /bd0/ovro-jan-2016/y1-s11.s2p
! Existing Calibration Information:
! TYPE:                         Current Settings,       Active Cal Settings
! TIME:             	   01/08/2016 02:17:22 PM,    01/08/2016 02:08:01 PM
! INTERNAL TEMP:    	                   46.5 C,                    46.8 C
! # POINTS:         	                      401,                       401
! START FREQ:       	               10.000 MHz,                10.000 MHz
! STOP FREQ:        	              110.000 MHz,               110.000 MHz
! SOURCE POWER:     	                      Low,                       Low
! IFBW:             	                   100 Hz,                    100 Hz
! AVG FACTOR:       	                       1 ,                        1 
! REF PLANE 1:      	                     0 mm,                      0 mm
! REF PLANE 2:      	                     0 mm,                      0 mm
! CAL TYPE:         	                 Full S11,                  Full S11
! CAL METHOD:       	                     SOLT,                      SOLT
! CAL LINE TYPE:    	                     Coax,                      Coax
! DUT PORT 1:       	                K-Conn(M),                 K-Conn(M)
! DUT PORT 2:       	                N-Conn(M),                 N-Conn(M)
! CAL STATUS:       	        OK: Accuracy High,                        --
# GHZ S DB R 50.0
! FREQ.GHZ       S11DB        S11A       S21DB        S21A       S12DB        S12A       S22DB        S22A
  0.010000000  -18.594856  154.666534  -48.400922  107.483246    0.000000    0.000000    0.000000    0.000000
  0.010250000  -18.600446  152.306976  -43.582035  107.378479    0.000000    0.000000    0.000000    0.000000
  0.010500000  -18.502593  149.512115  -40.123501  104.374443    0.000000    0.000000    0.000000    0.000000
  0.010750000  -18.542273  148.159103  -37.388349   98.156364    0.000000    0.000000    0.000000    0.000000
  0.011000000  -18.758511  143.155212  -35.391903   93.487236    0.000000    0.000000    0.000000    0.000000
  0.011250000  -18.753033  141.289185  -33.853928   91.124413    0.000000    0.000000    0.000000    0.000000
  0.011500000  -18.850263  138.268784  -32.647926   86.067238    0.000000    0.000000    0.000000    0.000000
  0.011750000  -18.772915  136.028946  -31.382993   82.231590    0.000000    0.000000    0.000000    0.000000
  0.012000000  -18.735812  133.517960  -30.571020   77.767151    0.000000    0.000000    0.000000    0.000000
  0.012250000  -18.787639  130.867325  -29.895484   73.885162    0.000000    0.000000    0.000000    0.000000
  0.012500000  -18.744588  128.906418  -29.220066   69.867638    0.000000    0.000000    0.000000    0.000000
  0.012750000  -18.812092  126.106438  -28.816889   65.488106    0.000000    0.000000    0.000000    0.000000
  0.013000000  -18.866413  123.344460  -28.417019   61.268921    0.000000    0.000000    0.000000    0.000000
  0.013250000  -18.888630  120.889755  -28.114726   56.624413    0.000000    0.000000    0.000000    0.000000
  0.013500000  -18.904282  117.477097  -27.930000   52.884346    0.000000    0.000000    0.000000    0.000000
  0.013750000  -18.836272  115.032486  -27.934269   48.155926    0.000000    0.000000    0.000000    0.000000
  0.014000000  -18.806300  112.577713  -28.129466   43.611160    0.000000    0.000000    0.000000    0.000000
  0.014250000  -18.752532  110.110550  -28.202258   39.515690    0.000000    0.000000    0.000000    0.000000
  0.014500000  -18.705926  107.119690  -28.480843   35.987885    0.000000    0.000000    0.000000    0.000000
  0.014750000  -18.783604  104.267899  -29.147715   31.043333    0.000000    0.000000    0.000000    0.000000
  0.015000000  -18.904896  102.279190  -29.908076   26.908926    0.000000    0.000000    0.000000    0.000000
  0.015250000  -18.701587  100.492249  -31.243806   23.199139    0.000000    0.000000    0.000000    0.000000
  0.015500000  -18.702154   96.990067  -32.509213   18.662106    0.000000    0.000000    0.000000    0.000000
  0.015750000  -18.654054   93.726395  -34.531985   15.250115    0.000000    0.000000    0.000000    0.000000
  0.016000000  -18.606054   90.881248  -37.775434   12.441498    0.000000    0.000000    0.000000    0.000000
  0.016250000  -18.606603   88.983414  -42.628773   17.904474    0.000000    0.000000    0.000000    0.000000
  0.016500000  -18.510731   85.949661  -54.141694   68.671989    0.000000    0.000000    0.000000    0.000000
  0.016750000  -18.534120   82.701149  -42.882123  155.342728    0.000000    0.000000    0.000000    0.000000
  0.017000000  -18.412085   80.711288  -36.881618  158.892670    0.000000    0.000000    0.000000    0.000000
  0.017250000  -18.417091   77.584412  -33.541768  157.726563    0.000000    0.000000    0.000000    0.000000
  0.017500000  -18.335382   75.071465  -30.999044  154.198044    0.000000    0.000000    0.000000    0.000000
  0.017750000  -18.274702   72.293358  -29.109846  150.274612    0.000000    0.000000    0.000000    0.000000
  0.018000000  -18.219739   69.058990  -27.846451  146.887604    0.000000    0.000000    0.000000    0.000000
  0.018250000  -18.137757   66.597107  -26.951108  142.078506    0.000000    0.000000    0.000000    0.000000
  0.018500000  -18.180139   64.106239  -26.476923  138.219711    0.000000    0.000000    0.000000    0.000000
  0.018750000  -17.974853   60.484352  -26.458118  135.225479    0.000000    0.000000    0.000000    0.000000
  0.019000000  -17.944243   58.311573  -27.002333  131.921600    0.000000    0.000000    0.000000    0.000000
  0.019250000  -17.869290   55.494888  -28.306987  131.033798    0.000000    0.000000    0.000000    0.000000
  0.019500000  -17.836967   52.946419  -31.352447  133.189346    0.000000    0.000000    0.000000    0.000000
  0.019750000  -17.720204   49.516323  -37.642031  165.542572    0.000000    0.000000    0.000000    0.000000
  0.020000000  -17.684598   46.266163  -32.841121 -110.733192    0.000000    0.000000    0.000000    0.000000
  0.020250000  -17.529224   43.082241  -25.083272  -97.141434    0.000000    0.000000    0.000000    0.000000
  0.020500000  -17.454730   40.181511  -19.788188  -96.449760    0.000000    0.000000    0.000000    0.000000
  0.020750000  -17.358637   37.298355  -15.826622  -99.148476    0.000000    0.000000    0.000000    0.000000
  0.021000000  -17.234968   34.712807  -12.426678 -102.802879    0.000000    0.000000    0.000000    0.000000
  0.021250000  -17.149130   30.923029   -9.481685 -106.845901    0.000000    0.000000    0.000000    0.000000
  0.021500000  -17.092845   28.938015   -6.952609 -111.526085    0.000000    0.000000    0.000000    0.000000
  0.021750000  -17.080251   25.459120   -4.558913 -116.385399    0.000000    0.000000    0.000000    0.000000
  0.022000000  -16.938047   21.203253   -2.235813 -121.442810    0.000000    0.000000    0.000000    0.000000
  0.022250000  -16.681129   18.328327   -0.130416 -126.875313    0.000000    0.000000    0.000000    0.000000
  0.022500000  -16.611429   14.703450    1.821660 -132.397644    0.000000    0.000000    0.000000    0.000000
  0.022750000  -16.564235   11.256594    3.721096 -138.101837    0.000000    0.000000    0.000000    0.000000
  0.023000000  -16.470116    7.970041    5.550221 -143.883331    0.000000    0.000000    0.000000    0.000000
  0.023250000  -16.357624    4.694955    7.362380 -149.787720    0.000000    0.000000    0.000000    0.000000
  0.023500000  -16.312399   -0.317223    9.094125 -155.942520    0.000000    0.000000    0.000000    0.000000
  0.023750000  -15.909226   -2.432822    9.007847   18.206821    0.000000    0.000000    0.000000    0.000000
  0.024000000  -15.823074   -6.546740   10.669221   11.804418    0.000000    0.000000    0.000000    0.000000
  0.024250000  -15.713000  -10.898537   12.465428    5.361170    0.000000    0.000000    0.000000    0.000000
  0.024500000  -15.482264  -14.951855   13.994028   -1.666315    0.000000    0.000000    0.000000    0.000000
  0.024750000  -15.478019  -19.250668   15.567696   -8.852264    0.000000    0.000000    0.000000    0.000000
  0.025000000  -15.407237  -23.631289   14.096402  -22.081917    0.000000    0.000000    0.000000    0.000000
  0.025250000  -15.260037  -28.260384   15.622698  -29.754658    0.000000    0.000000    0.000000    0.000000
  0.025500000  -15.127319  -33.731754   17.137551  -37.676090    0.000000    0.000000    0.000000    0.000000
  0.025750000  -15.092211  -39.496620   18.635323  -46.160789    0.000000    0.000000    0.000000    0.000000
  0.026000000  -15.026552  -45.044563   20.135396  -54.991631    0.000000    0.000000    0.000000    0.000000
  0.026250000  -15.064252  -50.449440   21.542674  -64.291550    0.000000    0.000000    0.000000    0.000000
  0.026500000  -15.165125  -56.750858   22.911342  -74.251785    0.000000    0.000000    0.000000    0.000000
  0.026750000  -15.298540  -63.318687   24.230928  -84.561996    0.000000    0.000000    0.000000    0.000000
  0.027000000  -15.609906  -71.027443   25.421322  -95.610962    0.000000    0.000000    0.000000    0.000000
  0.027250000  -15.895838  -79.264549   26.566037 -106.962631    0.000000    0.000000    0.000000    0.000000
  0.027500000  -16.447846  -86.519241   27.572413 -118.686256    0.000000    0.000000    0.000000    0.000000
  0.027750000  -17.039537  -93.618073   28.443959 -130.616974    0.000000    0.000000    0.000000    0.000000
  0.028000000  -17.991451 -100.194595   29.161979 -142.436050    0.000000    0.000000    0.000000    0.000000
  0.028250000  -18.992278 -106.259430   29.746616 -154.241882    0.000000    0.000000    0.000000    0.000000
  0.028500000  -20.101097 -111.961700   30.183013 -165.676529    0.000000    0.000000    0.000000    0.000000
  0.028750000  -21.429367 -113.985023   30.546821 -176.608170    0.000000    0.000000    0.000000    0.000000
  0.029000000  -22.937369 -116.355553   30.827422  172.679474    0.000000    0.000000    0.000000    0.000000
  0.029250000  -24.309054 -118.527863   31.068146  162.671906    0.000000    0.000000    0.000000    0.000000
  0.029500000  -25.422088 -113.718636   31.212992  153.103897    0.000000    0.000000    0.000000    0.000000
  0.029750000  -26.926923 -112.130333   31.374848  143.996262    0.000000    0.000000    0.000000    0.000000
  0.030000000  -27.717419 -105.340797   31.448979  135.281372    0.000000    0.000000    0.000000    0.000000
  0.030250000  -28.191908 -100.405182   31.579784  127.033333    0.000000    0.000000    0.000000    0.000000
  0.030500000  -28.786047  -94.915977   31.664309  118.932434    0.000000    0.000000    0.000000    0.000000
  0.030750000  -28.607866  -90.478149   31.747274  111.193825    0.000000    0.000000    0.000000    0.000000
  0.031000000  -28.700019  -85.527351   31.861512  103.810524    0.000000    0.000000    0.000000    0.000000
  0.031250000  -28.231382  -84.541153   31.915872   96.672852    0.000000    0.000000    0.000000    0.000000
  0.031500000  -28.205094  -84.256302   31.989161   89.788338    0.000000    0.000000    0.000000    0.000000
  0.031750000  -27.867737  -82.057335   32.049762   82.967163    0.000000    0.000000    0.000000    0.000000
  0.032000000  -27.642732  -83.956436   32.153211   76.393051    0.000000    0.000000    0.000000    0.000000
  0.032250000  -27.444120  -83.701118   32.267776   69.923019    0.000000    0.000000    0.000000    0.000000
  0.032500000  -27.676393  -81.058998   32.344452   63.521553    0.000000    0.000000    0.000000    0.000000
  0.032750000  -27.277891  -85.264366   32.437336   57.343536    0.000000    0.000000    0.000000    0.000000
  0.033000000  -27.370970  -85.338730   32.543890   51.299362    0.000000    0.000000    0.000000    0.000000
  0.033250000  -27.282830  -85.809502   32.595846   45.392437    0.000000    0.000000    0.000000    0.000000
  0.033500000  -27.164441  -86.792709   32.600179   39.398331    0.000000    0.000000    0.000000    0.000000
  0.033750000  -27.574866  -86.536934   32.642552   33.581898    0.000000    0.000000    0.000000    0.000000
  0.034000000  -27.611520  -88.856850   32.649057   27.834156    0.000000    0.000000    0.000000    0.000000
  0.034250000  -27.462994  -89.202919   32.668906   22.113834    0.000000    0.000000    0.000000    0.000000
  0.034500000  -27.911459  -89.372459   32.729607   16.515247    0.000000    0.000000    0.000000    0.000000
  0.034750000  -27.906359  -92.332169   32.801424   11.082272    0.000000    0.000000    0.000000    0.000000
  0.035000000  -28.003814  -93.598114   32.826781    5.642809    0.000000    0.000000    0.000000    0.000000
  0.035250000  -28.059394  -93.458656   32.880840    0.258364    0.000000    0.000000    0.000000    0.000000
  0.035500000  -28.011427  -93.266037   32.875899   -5.043461    0.000000    0.000000    0.000000    0.000000
  0.035750000  -28.585153  -92.356979   32.963723  -10.185987    0.000000    0.000000    0.000000    0.000000
  0.036000000  -28.896303  -91.626869   33.008272  -15.264257    0.000000    0.000000    0.000000    0.000000
  0.036250000  -28.614891  -93.242561   33.106663  -20.316044    0.000000    0.000000    0.000000    0.000000
  0.036500000  -28.694542  -92.743179   33.160923  -25.372810    0.000000    0.000000    0.000000    0.000000
  0.036750000  -29.191375  -93.521385   33.263034  -30.317833    0.000000    0.000000    0.000000    0.000000
  0.037000000  -29.126221  -91.578018   33.269882  -35.356617    0.000000    0.000000    0.000000    0.000000
  0.037250000  -28.704102  -88.965347   33.276689  -40.421680    0.000000    0.000000    0.000000    0.000000
  0.037500000  -29.507499  -90.161858   33.278956  -45.304081    0.000000    0.000000    0.000000    0.000000
  0.037750000  -29.481282  -89.855019   33.279699  -50.082474    0.000000    0.000000    0.000000    0.000000
  0.038000000  -29.224036  -91.800072   33.320487  -54.822201    0.000000    0.000000    0.000000    0.000000
  0.038250000  -29.156319  -91.681122   33.312483  -59.629967    0.000000    0.000000    0.000000    0.000000
  0.038500000  -28.805579  -86.774162   33.357569  -64.228416    0.000000    0.000000    0.000000    0.000000
  0.038750000  -29.043503  -89.493492   33.395315  -68.831062    0.000000    0.000000    0.000000    0.000000
  0.039000000  -29.460870  -87.349945   33.390348  -73.496727    0.000000    0.000000    0.000000    0.000000
  0.039250000  -29.387031  -87.053886   33.455413  -78.084541    0.000000    0.000000    0.000000    0.000000
  0.039500000  -29.003105  -84.388779   33.503377  -82.637756    0.000000    0.000000    0.000000    0.000000
  0.039750000  -29.049990  -86.727615   33.519225  -87.268707    0.000000    0.000000    0.000000    0.000000
  0.040000000  -29.023223  -86.468315   33.576823  -91.746048    0.000000    0.000000    0.000000    0.000000
  0.040250000  -28.709699  -86.068344   33.578127  -96.246292    0.000000    0.000000    0.000000    0.000000
  0.040500000  -28.661918  -86.352737   33.610682 -100.580070    0.000000    0.000000    0.000000    0.000000
  0.040750000  -28.355047  -84.323318   33.646355 -104.980713    0.000000    0.000000    0.000000    0.000000
  0.041000000  -28.575520  -87.221992   33.636910 -109.365967    0.000000    0.000000    0.000000    0.000000
  0.041250000  -28.490333  -86.319801   33.681983 -113.682549    0.000000    0.000000    0.000000    0.000000
  0.041500000  -28.446294  -89.722984   33.729979 -117.950180    0.000000    0.000000    0.000000    0.000000
  0.041750000  -28.135917  -88.201622   33.723784 -122.192413    0.000000    0.000000    0.000000    0.000000
  0.042000000  -27.944623  -87.829567   33.712471 -126.527695    0.000000    0.000000    0.000000    0.000000
  0.042250000  -27.798831  -88.164299   33.759020 -130.719894    0.000000    0.000000    0.000000    0.000000
  0.042500000  -27.787122  -88.853279   33.768570 -135.008469    0.000000    0.000000    0.000000    0.000000
  0.042750000  -27.539550  -89.895622   33.818152 -139.288010    0.000000    0.000000    0.000000    0.000000
  0.043000000  -27.841245  -91.969109   33.833376 -143.537277    0.000000    0.000000    0.000000    0.000000
  0.043250000  -27.510855  -91.655449   33.831499 -147.731339    0.000000    0.000000    0.000000    0.000000
  0.043500000  -27.604714  -91.675987   33.884691 -151.930191    0.000000    0.000000    0.000000    0.000000
  0.043750000  -27.430962  -93.676178   33.893788 -156.169098    0.000000    0.000000    0.000000    0.000000
  0.044000000  -27.658463  -93.936600   33.937900 -160.225159    0.000000    0.000000    0.000000    0.000000
  0.044250000  -27.222349  -91.934448   33.930493 -164.348541    0.000000    0.000000    0.000000    0.000000
  0.044500000  -27.434822  -97.022964   33.953005 -168.394012    0.000000    0.000000    0.000000    0.000000
  0.044750000  -27.567359  -96.394028   33.934566 -172.487473    0.000000    0.000000    0.000000    0.000000
  0.045000000  -27.222531  -97.262543   33.923575 -176.585785    0.000000    0.000000    0.000000    0.000000
  0.045250000  -26.935851  -98.414276   33.973059  179.437439    0.000000    0.000000    0.000000    0.000000
  0.045500000  -26.953263  -98.934090   33.959919  175.427399    0.000000    0.000000    0.000000    0.000000
  0.045750000  -26.979075 -100.160484   34.011899  171.420319    0.000000    0.000000    0.000000    0.000000
  0.046000000  -27.324662 -100.290596   34.002066  167.371033    0.000000    0.000000    0.000000    0.000000
  0.046250000  -27.212880 -102.997505   34.051083  163.391205    0.000000    0.000000    0.000000    0.000000
  0.046500000  -27.212346 -102.850044   34.057543  159.351181    0.000000    0.000000    0.000000    0.000000
  0.046750000  -26.929308 -102.564590   34.055156  155.323853    0.000000    0.000000    0.000000    0.000000
  0.047000000  -26.866950 -105.589607   34.056957  151.277374    0.000000    0.000000    0.000000    0.000000
  0.047250000  -27.115847 -105.918678   34.057602  147.174164    0.000000    0.000000    0.000000    0.000000
  0.047500000  -27.115579 -108.428291   34.120250  143.250290    0.000000    0.000000    0.000000    0.000000
  0.047750000  -27.273921 -104.636002   34.114571  139.243561    0.000000    0.000000    0.000000    0.000000
  0.048000000  -27.223613 -107.759148   34.105482  135.249893    0.000000    0.000000    0.000000    0.000000
  0.048250000  -27.294987 -110.539474   34.154936  131.356552    0.000000    0.000000    0.000000    0.000000
  0.048500000  -27.173896 -110.409332   34.144734  127.413597    0.000000    0.000000    0.000000    0.000000
  0.048750000  -27.406910 -111.880966   34.193447  123.595551    0.000000    0.000000    0.000000    0.000000
  0.049000000  -27.218217 -111.169228   34.186255  119.731194    0.000000    0.000000    0.000000    0.000000
  0.049250000  -27.754616 -113.319107   34.166714  115.871964    0.000000    0.000000    0.000000    0.000000
  0.049500000  -27.418348 -112.670494   34.155055  112.013359    0.000000    0.000000    0.000000    0.000000
  0.049750000  -27.490616 -115.901367   34.141304  108.093750    0.000000    0.000000    0.000000    0.000000
  0.050000000  -27.639966 -117.195282   30.301340   96.817970    0.000000    0.000000    0.000000    0.000000
  0.050250000  -28.731638 -115.202835   30.345300   93.041039    0.000000    0.000000    0.000000    0.000000
  0.050500000  -28.890500 -118.239548   30.338650   89.015533    0.000000    0.000000    0.000000    0.000000
  0.050750000  -28.442186 -114.372406   30.358837   85.202583    0.000000    0.000000    0.000000    0.000000
  0.051000000  -28.483559 -119.050674   30.390695   81.409897    0.000000    0.000000    0.000000    0.000000
