! Anritsu VNA Master:                 Model: MS2034B/10/19/501
! SN:                                  1337062
! /bd0/ovro-jan-2016/y1-s21-40db.s2p
! Existing Calibration Information:
! TYPE:                         Current Settings,       Active Cal Settings
! TIME:             	   01/08/2016 03:12:54 PM,    01/08/2016 03:05:41 PM
! INTERNAL TEMP:    	                   42.0 C,                    43.3 C
! # POINTS:         	                      401,                       401
! START FREQ:       	               10.000 MHz,                10.000 MHz
! STOP FREQ:        	              110.000 MHz,               110.000 MHz
! SOURCE POWER:     	                     High,                      High
! IFBW:             	                   100 Hz,                    100 Hz
! AVG FACTOR:       	                       1 ,                        1 
! REF PLANE 1:      	                     0 mm,                      0 mm
! REF PLANE 2:      	                     0 mm,                      0 mm
! CAL TYPE:         	             1P2P S11,S21,              1P2P S11,S21
! CAL METHOD:       	                     SOLT,                      SOLT
! CAL LINE TYPE:    	                     Coax,                      Coax
! DUT PORT 1:       	                K-Conn(M),                 K-Conn(M)
! DUT PORT 2:       	                N-Conn(M),                 N-Conn(M)
! CAL STATUS:       	        OK: Accuracy High,                        --
# GHZ S DB R 50.0
! FREQ.GHZ       S11DB        S11A       S21DB        S21A       S12DB        S12A       S22DB        S22A
  0.010000000  -42.125920 -162.432953  -88.823456    7.091428    0.000000    0.000000    0.000000    0.000000
  0.010250000  -41.906149 -162.618774  -83.362900    8.585147    0.000000    0.000000    0.000000    0.000000
  0.010500000  -41.861015 -162.930588  -79.806709    8.684376    0.000000    0.000000    0.000000    0.000000
  0.010750000  -41.634848 -163.919342  -77.865946   10.754422    0.000000    0.000000    0.000000    0.000000
  0.011000000  -41.661446 -163.653214  -76.190256    7.872978    0.000000    0.000000    0.000000    0.000000
  0.011250000  -41.467569 -163.814621  -74.249389    4.139986    0.000000    0.000000    0.000000    0.000000
  0.011500000  -41.338019 -164.842819  -73.725220    2.443088    0.000000    0.000000    0.000000    0.000000
  0.011750000  -41.263535 -165.148209  -72.686337    1.956243    0.000000    0.000000    0.000000    0.000000
  0.012000000  -41.063990 -165.044754  -71.772809    0.196490    0.000000    0.000000    0.000000    0.000000
  0.012250000  -41.029072 -165.451080  -70.927564   -1.276090    0.000000    0.000000    0.000000    0.000000
  0.012500000  -40.944300 -165.496048  -70.409255   -1.089932    0.000000    0.000000    0.000000    0.000000
  0.012750000  -40.751290 -165.507568  -70.078325   -3.707820    0.000000    0.000000    0.000000    0.000000
  0.013000000  -40.593501 -166.302322  -69.805254   -8.022490    0.000000    0.000000    0.000000    0.000000
  0.013250000  -40.484252 -166.296402  -69.557754  -10.358958    0.000000    0.000000    0.000000    0.000000
  0.013500000  -40.414456 -166.896820  -69.331678  -12.348387    0.000000    0.000000    0.000000    0.000000
  0.013750000  -40.286008 -167.078781  -69.203613  -14.325891    0.000000    0.000000    0.000000    0.000000
  0.014000000  -40.201020 -166.922821  -69.444916  -16.689117    0.000000    0.000000    0.000000    0.000000
  0.014250000  -40.097837 -167.388367  -69.790470  -20.072474    0.000000    0.000000    0.000000    0.000000
  0.014500000  -39.927503 -166.925781  -70.291687  -22.016787    0.000000    0.000000    0.000000    0.000000
  0.014750000  -39.854385 -167.552673  -71.014720  -25.258816    0.000000    0.000000    0.000000    0.000000
  0.015000000  -39.741825 -167.649811  -71.942997  -27.945759    0.000000    0.000000    0.000000    0.000000
  0.015250000  -39.677093 -167.940247  -72.824859  -31.280094    0.000000    0.000000    0.000000    0.000000
  0.015500000  -39.552336 -167.656143  -74.520451  -32.699635    0.000000    0.000000    0.000000    0.000000
  0.015750000  -39.435944 -167.939240  -76.829598  -32.636288    0.000000    0.000000    0.000000    0.000000
  0.016000000  -39.376575 -168.625381  -79.909757  -35.747948    0.000000    0.000000    0.000000    0.000000
  0.016250000  -39.280781 -168.313751  -84.406650  -33.598038    0.000000    0.000000    0.000000    0.000000
  0.016500000  -39.140891 -168.701416 -103.437006   21.413967    0.000000    0.000000    0.000000    0.000000
  0.016750000  -39.030137 -168.661667  -86.253519  131.018875    0.000000    0.000000    0.000000    0.000000
  0.017000000  -38.986243 -168.419357  -79.488709  122.795967    0.000000    0.000000    0.000000    0.000000
  0.017250000  -38.858068 -168.187347  -76.071234  124.097282    0.000000    0.000000    0.000000    0.000000
  0.017500000  -38.711487 -168.585052  -73.332881  120.703758    0.000000    0.000000    0.000000    0.000000
  0.017750000  -38.613329 -168.656433  -71.387109  119.864944    0.000000    0.000000    0.000000    0.000000
  0.018000000  -38.600469 -168.810150  -70.559090  117.052353    0.000000    0.000000    0.000000    0.000000
  0.018250000  -38.453184 -168.994659  -69.700759  115.722763    0.000000    0.000000    0.000000    0.000000
  0.018500000  -38.346789 -169.067871  -68.974910  112.525276    0.000000    0.000000    0.000000    0.000000
  0.018750000  -38.214045 -168.838821  -69.200589  112.027786    0.000000    0.000000    0.000000    0.000000
  0.019000000  -38.125152 -168.794556  -69.718655  111.722000    0.000000    0.000000    0.000000    0.000000
  0.019250000  -38.051447 -169.077667  -71.281971  111.533936    0.000000    0.000000    0.000000    0.000000
  0.019500000  -37.983212 -168.996155  -74.273745  115.123779    0.000000    0.000000    0.000000    0.000000
  0.019750000  -37.891241 -169.114487  -80.563726  151.785614    0.000000    0.000000    0.000000    0.000000
  0.020000000  -37.805909 -168.911545  -75.301710 -126.209641    0.000000    0.000000    0.000000    0.000000
  0.020250000  -37.706666 -168.823257  -67.761501 -110.576958    0.000000    0.000000    0.000000    0.000000
  0.020500000  -37.639132 -168.626495  -62.869599 -107.861702    0.000000    0.000000    0.000000    0.000000
  0.020750000  -37.559576 -168.457047  -58.912440 -108.046486    0.000000    0.000000    0.000000    0.000000
  0.021000000  -37.458237 -168.747391  -55.564354 -110.060699    0.000000    0.000000    0.000000    0.000000
  0.021250000  -37.365233 -168.824097  -52.752890 -112.111748    0.000000    0.000000    0.000000    0.000000
  0.021500000  -37.254886 -168.747330  -50.132708 -114.403969    0.000000    0.000000    0.000000    0.000000
  0.021750000  -37.124716 -168.581238  -47.802238 -117.330612    0.000000    0.000000    0.000000    0.000000
  0.022000000  -37.084934 -168.894699  -45.511508 -120.303726    0.000000    0.000000    0.000000    0.000000
  0.022250000  -36.972901 -168.625275  -43.480407 -124.087624    0.000000    0.000000    0.000000    0.000000
  0.022500000  -36.864576 -168.455887  -41.414414 -127.785027    0.000000    0.000000    0.000000    0.000000
  0.022750000  -36.810088 -168.316742  -39.465682 -131.513565    0.000000    0.000000    0.000000    0.000000
  0.023000000  -36.649902 -168.290497  -37.595778 -135.506851    0.000000    0.000000    0.000000    0.000000
  0.023250000  -36.581757 -168.274887  -35.802113 -139.148468    0.000000    0.000000    0.000000    0.000000
  0.023500000  -36.504228 -168.545288  -34.047897 -143.148300    0.000000    0.000000    0.000000    0.000000
  0.023750000  -36.425936 -168.368576  -32.600793 -147.324722    0.000000    0.000000    0.000000    0.000000
  0.024000000  -36.399186 -168.206543  -30.971559 -151.932053    0.000000    0.000000    0.000000    0.000000
  0.024250000  -36.287338 -167.979462  -29.335349 -156.758942    0.000000    0.000000    0.000000    0.000000
  0.024500000  -36.197469 -168.031555  -27.762652 -161.628815    0.000000    0.000000    0.000000    0.000000
  0.024750000  -36.126388 -167.939270  -26.221847 -166.773071    0.000000    0.000000    0.000000    0.000000
  0.025000000  -36.048431 -167.959930  -24.618417 -172.298386    0.000000    0.000000    0.000000    0.000000
  0.025250000  -35.970722 -167.767593  -23.117914 -178.196075    0.000000    0.000000    0.000000    0.000000
  0.025500000  -35.847101 -167.347641  -21.629995  175.652191    0.000000    0.000000    0.000000    0.000000
  0.025750000  -35.813516 -166.944122  -20.173591  169.022186    0.000000    0.000000    0.000000    0.000000
  0.026000000  -35.732893 -167.128494  -18.744794  162.022278    0.000000    0.000000    0.000000    0.000000
  0.026250000  -35.656737 -166.809265  -17.373044  154.534607    0.000000    0.000000    0.000000    0.000000
  0.026500000  -35.570696 -166.899948  -16.042101  146.556686    0.000000    0.000000    0.000000    0.000000
  0.026750000  -35.460067 -166.780685  -14.778623  138.017670    0.000000    0.000000    0.000000    0.000000
  0.027000000  -35.402529 -166.656982  -13.603927  128.917709    0.000000    0.000000    0.000000    0.000000
  0.027250000  -35.338542 -166.665085  -12.536467  119.435951    0.000000    0.000000    0.000000    0.000000
  0.027500000  -35.236094 -166.697403  -11.597795  109.623543    0.000000    0.000000    0.000000    0.000000
  0.027750000  -35.197600 -166.360626  -10.794733   99.643761    0.000000    0.000000    0.000000    0.000000
  0.028000000  -35.105327 -166.457581  -10.131197   89.670341    0.000000    0.000000    0.000000    0.000000
  0.028250000  -34.982383 -165.992020   -9.597857   79.818375    0.000000    0.000000    0.000000    0.000000
  0.028500000  -34.869658 -165.781937   -9.185602   70.268150    0.000000    0.000000    0.000000    0.000000
  0.028750000  -34.887768 -165.620270   -8.881780   61.159645    0.000000    0.000000    0.000000    0.000000
  0.029000000  -34.767174 -165.528854   -8.657508   52.462376    0.000000    0.000000    0.000000    0.000000
  0.029250000  -34.744112 -165.218872   -8.508015   44.253441    0.000000    0.000000    0.000000    0.000000
  0.029500000  -34.687820 -164.937164   -8.388692   36.556393    0.000000    0.000000    0.000000    0.000000
  0.029750000  -34.578275 -164.800598   -8.309995   29.287174    0.000000    0.000000    0.000000    0.000000
  0.030000000  -34.513865 -164.535767   -8.250197   22.464218    0.000000    0.000000    0.000000    0.000000
  0.030250000  -34.414057 -164.460526   -8.212630   15.991323    0.000000    0.000000    0.000000    0.000000
  0.030500000  -34.405561 -164.542313   -8.179336    9.841599    0.000000    0.000000    0.000000    0.000000
  0.030750000  -34.303063 -164.244278   -8.160040    3.983268    0.000000    0.000000    0.000000    0.000000
  0.031000000  -34.216870 -163.889893   -8.151955   -1.586941    0.000000    0.000000    0.000000    0.000000
  0.031250000  -34.164819 -163.676392   -8.140644   -6.926500    0.000000    0.000000    0.000000    0.000000
  0.031500000  -34.096852 -163.781097   -8.124968  -12.081231    0.000000    0.000000    0.000000    0.000000
  0.031750000  -34.051115 -163.530365   -8.106634  -17.051495    0.000000    0.000000    0.000000    0.000000
  0.032000000  -33.993597 -163.287399   -8.086118  -21.894962    0.000000    0.000000    0.000000    0.000000
  0.032250000  -33.924819 -163.055023   -8.080406  -26.541599    0.000000    0.000000    0.000000    0.000000
  0.032500000  -33.842590 -162.820221   -8.066017  -31.021008    0.000000    0.000000    0.000000    0.000000
  0.032750000  -33.766279 -162.494934   -8.061796  -35.412430    0.000000    0.000000    0.000000    0.000000
  0.033000000  -33.694887 -162.536179   -8.047212  -39.647442    0.000000    0.000000    0.000000    0.000000
  0.033250000  -33.627593 -162.169342   -8.048556  -43.755886    0.000000    0.000000    0.000000    0.000000
  0.033500000  -33.548582 -161.998581   -8.033055  -47.821850    0.000000    0.000000    0.000000    0.000000
  0.033750000  -33.483360 -161.959610   -8.029273  -51.786308    0.000000    0.000000    0.000000    0.000000
  0.034000000  -33.462913 -161.473831   -8.021838  -55.641197    0.000000    0.000000    0.000000    0.000000
  0.034250000  -33.386520 -161.357254   -8.010632  -59.431328    0.000000    0.000000    0.000000    0.000000
  0.034500000  -33.338405 -161.187332   -8.009926  -63.124363    0.000000    0.000000    0.000000    0.000000
  0.034750000  -33.257488 -160.955231   -8.004004  -66.728203    0.000000    0.000000    0.000000    0.000000
  0.035000000  -33.212421 -160.601776   -8.004915  -70.280289    0.000000    0.000000    0.000000    0.000000
  0.035250000  -33.124983 -160.554260   -8.006229  -73.764565    0.000000    0.000000    0.000000    0.000000
  0.035500000  -33.060802 -160.059998   -8.001144  -77.247643    0.000000    0.000000    0.000000    0.000000
  0.035750000  -33.041409 -159.923874   -7.998867  -80.648880    0.000000    0.000000    0.000000    0.000000
  0.036000000  -32.965267 -159.806458   -7.996137  -83.926880    0.000000    0.000000    0.000000    0.000000
  0.036250000  -32.907879 -159.300186   -7.989971  -87.184555    0.000000    0.000000    0.000000    0.000000
  0.036500000  -32.843783 -159.115646   -7.985771  -90.423080    0.000000    0.000000    0.000000    0.000000
  0.036750000  -32.775166 -159.059052   -7.985994  -93.599564    0.000000    0.000000    0.000000    0.000000
  0.037000000  -32.761335 -158.707306   -7.986129  -96.680618    0.000000    0.000000    0.000000    0.000000
  0.037250000  -32.679000 -158.222824   -7.987199  -99.729263    0.000000    0.000000    0.000000    0.000000
  0.037500000  -32.648745 -158.268768   -7.987409 -102.738953    0.000000    0.000000    0.000000    0.000000
  0.037750000  -32.570187 -157.912109   -7.984988 -105.710846    0.000000    0.000000    0.000000    0.000000
  0.038000000  -32.524300 -157.668823   -7.984107 -108.639328    0.000000    0.000000    0.000000    0.000000
  0.038250000  -32.459451 -157.524826   -7.983059 -111.503143    0.000000    0.000000    0.000000    0.000000
  0.038500000  -32.431266 -157.399399   -7.978501 -114.336739    0.000000    0.000000    0.000000    0.000000
  0.038750000  -32.361370 -157.187561   -7.977846 -117.165512    0.000000    0.000000    0.000000    0.000000
  0.039000000  -32.325396 -157.019699   -7.979057 -119.930214    0.000000    0.000000    0.000000    0.000000
  0.039250000  -32.276668 -156.723465   -7.973828 -122.671425    0.000000    0.000000    0.000000    0.000000
  0.039500000  -32.242888 -156.494263   -7.973753 -125.360420    0.000000    0.000000    0.000000    0.000000
  0.039750000  -32.180594 -156.150253   -7.972575 -128.020691    0.000000    0.000000    0.000000    0.000000
  0.040000000  -32.143231 -155.867355   -7.969227 -130.624481    0.000000    0.000000    0.000000    0.000000
  0.040250000  -32.068199 -155.651642   -7.969816 -133.240387    0.000000    0.000000    0.000000    0.000000
  0.040500000  -32.029442 -155.501953   -7.969654 -135.820969    0.000000    0.000000    0.000000    0.000000
  0.040750000  -31.976705 -155.290314   -7.965263 -138.344376    0.000000    0.000000    0.000000    0.000000
  0.041000000  -31.908197 -154.815781   -7.961150 -140.846268    0.000000    0.000000    0.000000    0.000000
  0.041250000  -31.880456 -154.662445   -7.961876 -143.344208    0.000000    0.000000    0.000000    0.000000
  0.041500000  -31.847908 -154.498932   -7.957727 -145.806076    0.000000    0.000000    0.000000    0.000000
  0.041750000  -31.809556 -154.111389   -7.953694 -148.238617    0.000000    0.000000    0.000000    0.000000
  0.042000000  -31.738798 -153.979675   -7.950873 -150.670410    0.000000    0.000000    0.000000    0.000000
  0.042250000  -31.731013 -153.621262   -7.948311 -153.043121    0.000000    0.000000    0.000000    0.000000
  0.042500000  -31.659540 -153.418182   -7.944457 -155.428696    0.000000    0.000000    0.000000    0.000000
  0.042750000  -31.609660 -153.222244   -7.946115 -157.804352    0.000000    0.000000    0.000000    0.000000
  0.043000000  -31.569930 -152.806824   -7.947615 -160.128632    0.000000    0.000000    0.000000    0.000000
  0.043250000  -31.533941 -152.574173   -7.945809 -162.438858    0.000000    0.000000    0.000000    0.000000
  0.043500000  -31.478106 -152.320587   -7.948063 -164.742233    0.000000    0.000000    0.000000    0.000000
  0.043750000  -31.435875 -151.858780   -7.947619 -166.981522    0.000000    0.000000    0.000000    0.000000
  0.044000000  -31.394706 -151.562973   -7.949129 -169.269989    0.000000    0.000000    0.000000    0.000000
  0.044250000  -31.345264 -151.394226   -7.948883 -171.511337    0.000000    0.000000    0.000000    0.000000
  0.044500000  -31.288399 -151.106781   -7.953796 -173.738586    0.000000    0.000000    0.000000    0.000000
  0.044750000  -31.250752 -150.910416   -7.955470 -175.943695    0.000000    0.000000    0.000000    0.000000
  0.045000000  -31.202689 -150.531021   -7.957167 -178.160217    0.000000    0.000000    0.000000    0.000000
  0.045250000  -31.159914 -150.326904   -7.957179  179.645767    0.000000    0.000000    0.000000    0.000000
  0.045500000  -31.119531 -149.910980   -7.960631  177.438095    0.000000    0.000000    0.000000    0.000000
  0.045750000  -31.048399 -149.640564   -7.958111  175.264145    0.000000    0.000000    0.000000    0.000000
  0.046000000  -31.034486 -149.309586   -7.962779  173.110687    0.000000    0.000000    0.000000    0.000000
  0.046250000  -31.006970 -148.890045   -7.962048  170.982941    0.000000    0.000000    0.000000    0.000000
  0.046500000  -30.964817 -148.821167   -7.962633  168.866638    0.000000    0.000000    0.000000    0.000000
  0.046750000  -30.924007 -148.467880   -7.962857  166.740067    0.000000    0.000000    0.000000    0.000000
  0.047000000  -30.881082 -148.289063   -7.967031  164.653061    0.000000    0.000000    0.000000    0.000000
  0.047250000  -30.844849 -147.932938   -7.967244  162.576874    0.000000    0.000000    0.000000    0.000000
  0.047500000  -30.809148 -147.441681   -7.969663  160.478363    0.000000    0.000000    0.000000    0.000000
  0.047750000  -30.770558 -147.297653   -7.976286  158.425888    0.000000    0.000000    0.000000    0.000000
  0.048000000  -30.741313 -146.982239   -7.978919  156.380264    0.000000    0.000000    0.000000    0.000000
  0.048250000  -30.722976 -146.676498   -7.978812  154.362198    0.000000    0.000000    0.000000    0.000000
  0.048500000  -30.690557 -146.476639   -7.977303  152.330338    0.000000    0.000000    0.000000    0.000000
  0.048750000  -30.647386 -146.358719   -7.979344  150.306152    0.000000    0.000000    0.000000    0.000000
  0.049000000  -30.625011 -145.985443   -7.979388  148.296799    0.000000    0.000000    0.000000    0.000000
  0.049250000  -30.585924 -145.725357   -7.979757  146.293091    0.000000    0.000000    0.000000    0.000000
  0.049500000  -30.521404 -145.568787   -7.979803  144.284042    0.000000    0.000000    0.000000    0.000000
  0.049750000  -30.512973 -145.173218   -7.982105  142.286987    0.000000    0.000000    0.000000    0.000000
  0.050000000  -30.481490 -144.657898   -7.954675  140.504852    0.000000    0.000000    0.000000    0.000000
  0.050250000  -30.430540 -144.590912   -7.954399  138.525482    0.000000    0.000000    0.000000    0.000000
  0.050500000  -30.400545 -144.239594   -7.959450  136.576416    0.000000    0.000000    0.000000    0.000000
  0.050750000  -30.377388 -143.936600   -7.961849  134.629059    0.000000    0.000000    0.000000    0.000000
  0.051000000  -30.324817 -143.442703   -7.964763  132.667892    0.000000    0.000000    0.000000    0.000000
