! Anritsu VNA Master:                 Model: MS2034B/10/19/501
! SN:                                  1337062
! /bd0/ovro-jan-2016/y2-s21-40db.s2p
! Existing Calibration Information:
! TYPE:                         Current Settings,       Active Cal Settings
! TIME:             	   01/08/2016 03:15:47 PM,    01/08/2016 03:05:41 PM
! INTERNAL TEMP:    	                   41.8 C,                    43.3 C
! # POINTS:         	                      401,                       401
! START FREQ:       	               10.000 MHz,                10.000 MHz
! STOP FREQ:        	              110.000 MHz,               110.000 MHz
! SOURCE POWER:     	                     High,                      High
! IFBW:             	                   100 Hz,                    100 Hz
! AVG FACTOR:       	                       1 ,                        1 
! REF PLANE 1:      	                     0 mm,                      0 mm
! REF PLANE 2:      	                     0 mm,                      0 mm
! CAL TYPE:         	             1P2P S11,S21,              1P2P S11,S21
! CAL METHOD:       	                     SOLT,                      SOLT
! CAL LINE TYPE:    	                     Coax,                      Coax
! DUT PORT 1:       	                K-Conn(M),                 K-Conn(M)
! DUT PORT 2:       	                N-Conn(M),                 N-Conn(M)
! CAL STATUS:       	        OK: Accuracy High,                        --
# GHZ S DB R 50.0
! FREQ.GHZ       S11DB        S11A       S21DB        S21A       S12DB        S12A       S22DB        S22A
  0.010000000  -41.726781 -158.866318  -95.085680  -58.473900    0.000000    0.000000    0.000000    0.000000
  0.010250000  -41.437669 -159.768204  -89.163418    4.065666    0.000000    0.000000    0.000000    0.000000
  0.010500000  -41.348166 -160.197891  -83.872263   12.872906    0.000000    0.000000    0.000000    0.000000
  0.010750000  -41.204533 -160.234161  -81.252493    5.965240    0.000000    0.000000    0.000000    0.000000
  0.011000000  -41.197408 -161.089264  -78.379499    6.436227    0.000000    0.000000    0.000000    0.000000
  0.011250000  -40.940252 -161.472000  -76.836867    3.783966    0.000000    0.000000    0.000000    0.000000
  0.011500000  -40.920131 -162.274521  -75.193107    1.812809    0.000000    0.000000    0.000000    0.000000
  0.011750000  -40.727652 -162.399094  -74.155722    1.097555    0.000000    0.000000    0.000000    0.000000
  0.012000000  -40.707137 -162.252945  -73.323436   -0.058110    0.000000    0.000000    0.000000    0.000000
  0.012250000  -40.623637 -162.865326  -72.398217   -1.456801    0.000000    0.000000    0.000000    0.000000
  0.012500000  -40.525647 -162.985413  -71.711726   -1.916067    0.000000    0.000000    0.000000    0.000000
  0.012750000  -40.403455 -163.081757  -71.420382   -6.243321    0.000000    0.000000    0.000000    0.000000
  0.013000000  -40.233740 -164.141388  -71.292745   -8.510670    0.000000    0.000000    0.000000    0.000000
  0.013250000  -40.170093 -163.953506  -70.845315  -10.616866    0.000000    0.000000    0.000000    0.000000
  0.013500000  -40.131409 -164.362717  -70.973076  -12.642307    0.000000    0.000000    0.000000    0.000000
  0.013750000  -40.022447 -164.539963  -70.898672  -15.201554    0.000000    0.000000    0.000000    0.000000
  0.014000000  -39.898377 -164.518478  -71.330167  -17.124851    0.000000    0.000000    0.000000    0.000000
  0.014250000  -39.813498 -164.852448  -71.714536  -17.175547    0.000000    0.000000    0.000000    0.000000
  0.014500000  -39.691255 -164.710510  -72.703433  -22.913763    0.000000    0.000000    0.000000    0.000000
  0.014750000  -39.615830 -165.028229  -73.453761  -24.856415    0.000000    0.000000    0.000000    0.000000
  0.015000000  -39.505178 -165.456207  -75.253245  -25.339077    0.000000    0.000000    0.000000    0.000000
  0.015250000  -39.403609 -165.545380  -76.771815  -31.521599    0.000000    0.000000    0.000000    0.000000
  0.015500000  -39.290546 -166.009811  -79.752152  -36.969402    0.000000    0.000000    0.000000    0.000000
  0.015750000  -39.146378 -165.523575  -85.706227  -27.220196    0.000000    0.000000    0.000000    0.000000
  0.016000000  -39.107230 -166.236572  -99.461284   56.102585    0.000000    0.000000    0.000000    0.000000
  0.016250000  -39.056427 -166.431427  -85.476408  132.205978    0.000000    0.000000    0.000000    0.000000
  0.016500000  -38.925091 -166.217316  -78.776837  137.259857    0.000000    0.000000    0.000000    0.000000
  0.016750000  -38.799047 -166.312607  -75.276334  131.307266    0.000000    0.000000    0.000000    0.000000
  0.017000000  -38.748369 -166.264847  -72.979756  128.595047    0.000000    0.000000    0.000000    0.000000
  0.017250000  -38.579675 -166.305176  -70.893970  125.296143    0.000000    0.000000    0.000000    0.000000
  0.017500000  -38.474902 -166.306198  -69.421116  122.057968    0.000000    0.000000    0.000000    0.000000
  0.017750000  -38.416144 -166.707123  -68.165796  120.471161    0.000000    0.000000    0.000000    0.000000
  0.018000000  -38.340036 -166.705429  -67.367423  117.997047    0.000000    0.000000    0.000000    0.000000
  0.018250000  -38.221101 -166.723038  -66.855118  116.805206    0.000000    0.000000    0.000000    0.000000
  0.018500000  -38.135029 -166.812836  -66.873374  114.598824    0.000000    0.000000    0.000000    0.000000
  0.018750000  -38.019126 -166.824509  -66.923097  112.588165    0.000000    0.000000    0.000000    0.000000
  0.019000000  -37.926912 -166.881241  -67.895249  111.746567    0.000000    0.000000    0.000000    0.000000
  0.019250000  -37.888911 -166.871109  -69.386174  113.271362    0.000000    0.000000    0.000000    0.000000
  0.019500000  -37.782560 -167.145889  -72.912446  120.623055    0.000000    0.000000    0.000000    0.000000
  0.019750000  -37.684768 -166.870804  -78.771883  162.075897    0.000000    0.000000    0.000000    0.000000
  0.020000000  -37.611038 -166.730240  -72.863541 -125.236542    0.000000    0.000000    0.000000    0.000000
  0.020250000  -37.554694 -167.178558  -65.664946 -110.506187    0.000000    0.000000    0.000000    0.000000
  0.020500000  -37.423327 -166.950150  -60.863643 -109.223434    0.000000    0.000000    0.000000    0.000000
  0.020750000  -37.379457 -166.840561  -57.051000 -108.975090    0.000000    0.000000    0.000000    0.000000
  0.021000000  -37.275966 -167.136017  -53.834195 -110.766624    0.000000    0.000000    0.000000    0.000000
  0.021250000  -37.176590 -167.113663  -51.071035 -112.813301    0.000000    0.000000    0.000000    0.000000
  0.021500000  -37.107981 -167.366608  -48.500866 -115.256149    0.000000    0.000000    0.000000    0.000000
  0.021750000  -36.957004 -166.950882  -46.205347 -118.294754    0.000000    0.000000    0.000000    0.000000
  0.022000000  -36.906243 -167.193863  -43.970670 -121.279541    0.000000    0.000000    0.000000    0.000000
  0.022250000  -36.795709 -166.982559  -41.972363 -125.028099    0.000000    0.000000    0.000000    0.000000
  0.022500000  -36.729234 -166.967758  -39.936853 -128.847397    0.000000    0.000000    0.000000    0.000000
  0.022750000  -36.661110 -166.974899  -38.023229 -132.672867    0.000000    0.000000    0.000000    0.000000
  0.023000000  -36.491623 -166.972137  -36.180358 -136.827240    0.000000    0.000000    0.000000    0.000000
  0.023250000  -36.440595 -166.865051  -34.420879 -140.566849    0.000000    0.000000    0.000000    0.000000
  0.023500000  -36.325392 -167.043304  -32.690968 -144.720490    0.000000    0.000000    0.000000    0.000000
  0.023750000  -36.283286 -166.741959  -31.294106 -148.987167    0.000000    0.000000    0.000000    0.000000
  0.024000000  -36.234634 -166.731110  -29.682125 -153.775787    0.000000    0.000000    0.000000    0.000000
  0.024250000  -36.129880 -166.632721  -28.101800 -158.760147    0.000000    0.000000    0.000000    0.000000
  0.024500000  -36.075926 -166.572067  -26.581854 -163.769165    0.000000    0.000000    0.000000    0.000000
  0.024750000  -35.992465 -166.393661  -25.018308 -169.126328    0.000000    0.000000    0.000000    0.000000
  0.025000000  -35.895179 -166.339798  -23.495296 -174.834274    0.000000    0.000000    0.000000    0.000000
  0.025250000  -35.847035 -166.010712  -22.057312  179.359894    0.000000    0.000000    0.000000    0.000000
  0.025500000  -35.805149 -165.829620  -20.629649  173.113419    0.000000    0.000000    0.000000    0.000000
  0.025750000  -35.731378 -165.549683  -19.224940  166.487549    0.000000    0.000000    0.000000    0.000000
  0.026000000  -35.602080 -165.772766  -17.861089  159.394028    0.000000    0.000000    0.000000    0.000000
  0.026250000  -35.499456 -165.581741  -16.557675  151.971725    0.000000    0.000000    0.000000    0.000000
  0.026500000  -35.420239 -165.546799  -15.301467  144.096451    0.000000    0.000000    0.000000    0.000000
  0.026750000  -35.330202 -165.284241  -14.111339  135.748871    0.000000    0.000000    0.000000    0.000000
  0.027000000  -35.290457 -165.419418  -13.002277  127.026520    0.000000    0.000000    0.000000    0.000000
  0.027250000  -35.215076 -165.181519  -11.991331  117.905144    0.000000    0.000000    0.000000    0.000000
  0.027500000  -35.089018 -165.486664  -11.099122  108.624123    0.000000    0.000000    0.000000    0.000000
  0.027750000  -35.077421 -164.911880  -10.321099   99.217270    0.000000    0.000000    0.000000    0.000000
  0.028000000  -34.951134 -165.014008   -9.661022   89.719833    0.000000    0.000000    0.000000    0.000000
  0.028250000  -34.885461 -164.514175   -9.115258   80.379486    0.000000    0.000000    0.000000    0.000000
  0.028500000  -34.784114 -164.443726   -8.676060   71.254578    0.000000    0.000000    0.000000    0.000000
  0.028750000  -34.771678 -164.273071   -8.329915   62.450127    0.000000    0.000000    0.000000    0.000000
  0.029000000  -34.644890 -163.986969   -8.064026   54.050335    0.000000    0.000000    0.000000    0.000000
  0.029250000  -34.617775 -163.957123   -7.871374   45.999855    0.000000    0.000000    0.000000    0.000000
  0.029500000  -34.590218 -163.662262   -7.718393   38.406048    0.000000    0.000000    0.000000    0.000000
  0.029750000  -34.457754 -163.532471   -7.602260   31.157352    0.000000    0.000000    0.000000    0.000000
  0.030000000  -34.390903 -163.211823   -7.509716   24.326397    0.000000    0.000000    0.000000    0.000000
  0.030250000  -34.299335 -163.238235   -7.441882   17.841526    0.000000    0.000000    0.000000    0.000000
  0.030500000  -34.278552 -162.887939   -7.385589   11.638378    0.000000    0.000000    0.000000    0.000000
  0.030750000  -34.190168 -162.882172   -7.352620    5.730970    0.000000    0.000000    0.000000    0.000000
  0.031000000  -34.095394 -162.646301   -7.328502    0.079260    0.000000    0.000000    0.000000    0.000000
  0.031250000  -34.026539 -162.499985   -7.302667   -5.320524    0.000000    0.000000    0.000000    0.000000
  0.031500000  -33.974470 -162.383545   -7.282413  -10.514691    0.000000    0.000000    0.000000    0.000000
  0.031750000  -33.931018 -161.986374   -7.255552  -15.551950    0.000000    0.000000    0.000000    0.000000
  0.032000000  -33.874319 -161.751190   -7.233536  -20.437698    0.000000    0.000000    0.000000    0.000000
  0.032250000  -33.817804 -161.855682   -7.221725  -25.145460    0.000000    0.000000    0.000000    0.000000
  0.032500000  -33.715444 -161.493927   -7.208002  -29.663191    0.000000    0.000000    0.000000    0.000000
  0.032750000  -33.687150 -161.232224   -7.205969  -34.077530    0.000000    0.000000    0.000000    0.000000
  0.033000000  -33.607857 -161.106308   -7.191255  -38.335613    0.000000    0.000000    0.000000    0.000000
  0.033250000  -33.510903 -160.811920   -7.193765  -42.449566    0.000000    0.000000    0.000000    0.000000
  0.033500000  -33.472367 -160.611176   -7.175907  -46.556332    0.000000    0.000000    0.000000    0.000000
  0.033750000  -33.374908 -160.563965   -7.171192  -50.527908    0.000000    0.000000    0.000000    0.000000
  0.034000000  -33.308062 -160.290817   -7.163330  -54.390347    0.000000    0.000000    0.000000    0.000000
  0.034250000  -33.249294 -159.874924   -7.152836  -58.182022    0.000000    0.000000    0.000000    0.000000
  0.034500000  -33.242828 -159.869476   -7.149841  -61.887703    0.000000    0.000000    0.000000    0.000000
  0.034750000  -33.141645 -159.482971   -7.145493  -65.505981    0.000000    0.000000    0.000000    0.000000
  0.035000000  -33.118379 -159.377914   -7.147962  -69.053421    0.000000    0.000000    0.000000    0.000000
  0.035250000  -33.024135 -159.216141   -7.148194  -72.532562    0.000000    0.000000    0.000000    0.000000
  0.035500000  -33.008181 -158.781738   -7.147967  -75.983086    0.000000    0.000000    0.000000    0.000000
  0.035750000  -32.949169 -158.610596   -7.143127  -79.406731    0.000000    0.000000    0.000000    0.000000
  0.036000000  -32.858385 -158.420166   -7.142290  -82.677544    0.000000    0.000000    0.000000    0.000000
  0.036250000  -32.802058 -158.009201   -7.133314  -85.941452    0.000000    0.000000    0.000000    0.000000
  0.036500000  -32.767947 -157.793488   -7.126588  -89.173019    0.000000    0.000000    0.000000    0.000000
  0.036750000  -32.694893 -157.642960   -7.126465  -92.324005    0.000000    0.000000    0.000000    0.000000
  0.037000000  -32.660047 -157.162552   -7.127423  -95.434471    0.000000    0.000000    0.000000    0.000000
  0.037250000  -32.593778 -157.009354   -7.128155  -98.460167    0.000000    0.000000    0.000000    0.000000
  0.037500000  -32.571470 -156.930649   -7.132527 -101.447899    0.000000    0.000000    0.000000    0.000000
  0.037750000  -32.495663 -156.658676   -7.130112 -104.414909    0.000000    0.000000    0.000000    0.000000
  0.038000000  -32.482679 -156.382172   -7.129389 -107.325859    0.000000    0.000000    0.000000    0.000000
  0.038250000  -32.397477 -156.111816   -7.125449 -110.196754    0.000000    0.000000    0.000000    0.000000
  0.038500000  -32.340493 -156.016449   -7.120222 -113.015816    0.000000    0.000000    0.000000    0.000000
  0.038750000  -32.273541 -155.709854   -7.115865 -115.859283    0.000000    0.000000    0.000000    0.000000
  0.039000000  -32.227745 -155.354904   -7.115107 -118.622971    0.000000    0.000000    0.000000    0.000000
  0.039250000  -32.192729 -155.281540   -7.104820 -121.357300    0.000000    0.000000    0.000000    0.000000
  0.039500000  -32.167453 -155.036667   -7.107095 -124.058846    0.000000    0.000000    0.000000    0.000000
  0.039750000  -32.109238 -154.829437   -7.104114 -126.709282    0.000000    0.000000    0.000000    0.000000
  0.040000000  -32.070083 -154.369873   -7.106970 -129.312271    0.000000    0.000000    0.000000    0.000000
  0.040250000  -32.002093 -154.131760   -7.104907 -131.929031    0.000000    0.000000    0.000000    0.000000
  0.040500000  -31.947787 -153.910110   -7.107488 -134.489243    0.000000    0.000000    0.000000    0.000000
  0.040750000  -31.903602 -153.723770   -7.104515 -137.029251    0.000000    0.000000    0.000000    0.000000
  0.041000000  -31.844740 -153.245667   -7.105711 -139.515976    0.000000    0.000000    0.000000    0.000000
  0.041250000  -31.826259 -153.414841   -7.102173 -142.012177    0.000000    0.000000    0.000000    0.000000
  0.041500000  -31.774755 -153.082581   -7.100153 -144.468719    0.000000    0.000000    0.000000    0.000000
  0.041750000  -31.747232 -152.943192   -7.096062 -146.905090    0.000000    0.000000    0.000000    0.000000
  0.042000000  -31.705612 -152.640732   -7.091543 -149.339081    0.000000    0.000000    0.000000    0.000000
  0.042250000  -31.666826 -152.286575   -7.090144 -151.714722    0.000000    0.000000    0.000000    0.000000
  0.042500000  -31.607887 -151.940109   -7.086964 -154.099777    0.000000    0.000000    0.000000    0.000000
  0.042750000  -31.553373 -151.510620   -7.084562 -156.477264    0.000000    0.000000    0.000000    0.000000
  0.043000000  -31.530200 -151.209488   -7.090156 -158.793015    0.000000    0.000000    0.000000    0.000000
  0.043250000  -31.496537 -151.020416   -7.088301 -161.093445    0.000000    0.000000    0.000000    0.000000
  0.043500000  -31.441705 -150.927139   -7.090919 -163.373428    0.000000    0.000000    0.000000    0.000000
  0.043750000  -31.418121 -150.578476   -7.094792 -165.642166    0.000000    0.000000    0.000000    0.000000
  0.044000000  -31.363331 -150.175613   -7.100244 -167.874588    0.000000    0.000000    0.000000    0.000000
  0.044250000  -31.324645 -149.933044   -7.103407 -170.101059    0.000000    0.000000    0.000000    0.000000
  0.044500000  -31.275734 -149.510254   -7.107567 -172.336090    0.000000    0.000000    0.000000    0.000000
  0.044750000  -31.244741 -149.243027   -7.111373 -174.522568    0.000000    0.000000    0.000000    0.000000
  0.045000000  -31.165129 -148.974594   -7.108403 -176.720428    0.000000    0.000000    0.000000    0.000000
  0.045250000  -31.150780 -148.759430   -7.110026 -178.915451    0.000000    0.000000    0.000000    0.000000
  0.045500000  -31.101019 -148.669266   -7.110818  178.889328    0.000000    0.000000    0.000000    0.000000
  0.045750000  -31.032092 -148.449509   -7.111011  176.702789    0.000000    0.000000    0.000000    0.000000
  0.046000000  -31.028065 -147.993683   -7.113282  174.569672    0.000000    0.000000    0.000000    0.000000
  0.046250000  -30.987934 -147.567154   -7.112249  172.434799    0.000000    0.000000    0.000000    0.000000
  0.046500000  -30.946401 -147.377487   -7.112897  170.317200    0.000000    0.000000    0.000000    0.000000
  0.046750000  -30.929376 -146.901199   -7.117215  168.194229    0.000000    0.000000    0.000000    0.000000
  0.047000000  -30.901998 -146.533997   -7.119884  166.105087    0.000000    0.000000    0.000000    0.000000
  0.047250000  -30.869708 -146.359863   -7.125314  164.033325    0.000000    0.000000    0.000000    0.000000
  0.047500000  -30.826849 -146.070938   -7.128277  161.952255    0.000000    0.000000    0.000000    0.000000
  0.047750000  -30.797604 -145.799835   -7.135065  159.905075    0.000000    0.000000    0.000000    0.000000
  0.048000000  -30.756367 -145.655762   -7.140428  157.884827    0.000000    0.000000    0.000000    0.000000
  0.048250000  -30.729732 -145.166290   -7.142915  155.846420    0.000000    0.000000    0.000000    0.000000
  0.048500000  -30.683176 -144.934448   -7.146612  153.835983    0.000000    0.000000    0.000000    0.000000
  0.048750000  -30.664508 -144.774506   -7.150126  151.801880    0.000000    0.000000    0.000000    0.000000
  0.049000000  -30.652804 -144.238037   -7.149037  149.820572    0.000000    0.000000    0.000000    0.000000
  0.049250000  -30.651269 -143.966873   -7.154018  147.833252    0.000000    0.000000    0.000000    0.000000
  0.049500000  -30.588086 -143.962555   -7.154212  145.823685    0.000000    0.000000    0.000000    0.000000
  0.049750000  -30.574119 -143.736938   -7.157097  143.827393    0.000000    0.000000    0.000000    0.000000
  0.050000000  -30.533392 -143.037003   -7.143140  142.094925    0.000000    0.000000    0.000000    0.000000
  0.050250000  -30.462978 -143.099274   -7.143340  140.118423    0.000000    0.000000    0.000000    0.000000
  0.050500000  -30.454638 -142.670471   -7.148094  138.180725    0.000000    0.000000    0.000000    0.000000
  0.050750000  -30.426938 -142.489380   -7.153176  136.236633    0.000000    0.000000    0.000000    0.000000
  0.051000000  -30.397214 -142.097519   -7.156747  134.314728    0.000000    0.000000    0.000000    0.000000
