! Anritsu VNA Master:                 Model: MS2034B/10/19/501
! SN:                                  1337062
! /bd0/ovro-jan-2016/d1-s21-40db.s2p
! Existing Calibration Information:
! TYPE:                         Current Settings,       Active Cal Settings
! TIME:             	   01/08/2016 03:24:22 PM,    01/08/2016 03:05:41 PM
! INTERNAL TEMP:    	                   41.5 C,                    43.3 C
! # POINTS:         	                      401,                       401
! START FREQ:       	               10.000 MHz,                10.000 MHz
! STOP FREQ:        	              110.000 MHz,               110.000 MHz
! SOURCE POWER:     	                     High,                      High
! IFBW:             	                   100 Hz,                    100 Hz
! AVG FACTOR:       	                       1 ,                        1 
! REF PLANE 1:      	                     0 mm,                      0 mm
! REF PLANE 2:      	                     0 mm,                      0 mm
! CAL TYPE:         	             1P2P S11,S21,              1P2P S11,S21
! CAL METHOD:       	                     SOLT,                      SOLT
! CAL LINE TYPE:    	                     Coax,                      Coax
! DUT PORT 1:       	                K-Conn(M),                 K-Conn(M)
! DUT PORT 2:       	                N-Conn(M),                 N-Conn(M)
! CAL STATUS:       	        OK: Accuracy High,                        --
# GHZ S DB R 50.0
! FREQ.GHZ       S11DB        S11A       S21DB        S21A       S12DB        S12A       S22DB        S22A
  0.010000000  -18.627408   37.079895  -80.126916  -90.055222    0.000000    0.000000    0.000000    0.000000
  0.010250000  -18.645500   37.911343  -80.951955  -82.275848    0.000000    0.000000    0.000000    0.000000
  0.010500000  -18.676040   38.705406  -81.481599  -78.130775    0.000000    0.000000    0.000000    0.000000
  0.010750000  -18.678848   39.500805  -81.674743  -69.791313    0.000000    0.000000    0.000000    0.000000
  0.011000000  -18.678779   40.328289  -81.266573  -56.164722    0.000000    0.000000    0.000000    0.000000
  0.011250000  -18.675313   41.098522  -81.476331  -48.780540    0.000000    0.000000    0.000000    0.000000
  0.011500000  -18.661957   41.887733  -80.749177  -39.975670    0.000000    0.000000    0.000000    0.000000
  0.011750000  -18.666854   42.682747  -80.441250  -34.749802    0.000000    0.000000    0.000000    0.000000
  0.012000000  -18.660594   43.421394  -80.051528  -33.643375    0.000000    0.000000    0.000000    0.000000
  0.012250000  -18.665371   44.222416  -79.496008  -32.253456    0.000000    0.000000    0.000000    0.000000
  0.012500000  -18.670123   45.017311  -79.083654  -32.794914    0.000000    0.000000    0.000000    0.000000
  0.012750000  -18.681273   45.798016  -79.546111  -30.658260    0.000000    0.000000    0.000000    0.000000
  0.013000000  -18.707274   46.601818  -79.971880  -33.727974    0.000000    0.000000    0.000000    0.000000
  0.013250000  -18.718509   47.438351  -80.576489  -35.713917    0.000000    0.000000    0.000000    0.000000
  0.013500000  -18.705978   48.330563  -82.232394  -36.585327    0.000000    0.000000    0.000000    0.000000
  0.013750000  -18.714491   49.167702  -84.766010  -43.243652    0.000000    0.000000    0.000000    0.000000
  0.014000000  -18.730997   50.052410  -86.412213  -42.579483    0.000000    0.000000    0.000000    0.000000
  0.014250000  -18.736142   50.985035  -95.199461  -65.229538    0.000000    0.000000    0.000000    0.000000
  0.014500000  -18.730951   51.898197 -100.085529 -171.766861    0.000000    0.000000    0.000000    0.000000
  0.014750000  -18.729153   52.817387  -87.723130  144.684357    0.000000    0.000000    0.000000    0.000000
  0.015000000  -18.729738   53.726513  -81.557721  145.241486    0.000000    0.000000    0.000000    0.000000
  0.015250000  -18.719472   54.565525  -78.479085  143.203735    0.000000    0.000000    0.000000    0.000000
  0.015500000  -18.726349   55.447273  -75.774640  136.185211    0.000000    0.000000    0.000000    0.000000
  0.015750000  -18.722325   56.309574  -73.658274  136.520935    0.000000    0.000000    0.000000    0.000000
  0.016000000  -18.703916   57.193813  -71.960986  133.202637    0.000000    0.000000    0.000000    0.000000
  0.016250000  -18.703851   58.065746  -70.302019  129.101761    0.000000    0.000000    0.000000    0.000000
  0.016500000  -18.715402   59.001926  -68.801465  126.283600    0.000000    0.000000    0.000000    0.000000
  0.016750000  -18.711744   59.875267  -67.522419  123.675629    0.000000    0.000000    0.000000    0.000000
  0.017000000  -18.712675   60.790302  -66.397571  120.132751    0.000000    0.000000    0.000000    0.000000
  0.017250000  -18.711760   61.691090  -65.494799  117.167442    0.000000    0.000000    0.000000    0.000000
  0.017500000  -18.709212   62.610840  -64.781088  114.034515    0.000000    0.000000    0.000000    0.000000
  0.017750000  -18.694906   63.496681  -64.152752  111.134674    0.000000    0.000000    0.000000    0.000000
  0.018000000  -18.685665   64.254227  -63.697697  108.297836    0.000000    0.000000    0.000000    0.000000
  0.018250000  -18.674111   65.140945  -63.577277  106.001541    0.000000    0.000000    0.000000    0.000000
  0.018500000  -18.667734   65.982506  -63.414002  103.507225    0.000000    0.000000    0.000000    0.000000
  0.018750000  -18.661364   66.917778  -63.576578  101.055099    0.000000    0.000000    0.000000    0.000000
  0.019000000  -18.669466   67.800270  -64.143073   99.044250    0.000000    0.000000    0.000000    0.000000
  0.019250000  -18.666272   68.653847  -65.206798   96.373573    0.000000    0.000000    0.000000    0.000000
  0.019500000  -18.666451   69.510284  -67.000628   95.404121    0.000000    0.000000    0.000000    0.000000
  0.019750000  -18.664947   70.410866  -70.492660   96.282875    0.000000    0.000000    0.000000    0.000000
  0.020000000  -18.654183   71.305435  -78.432021  112.138535    0.000000    0.000000    0.000000    0.000000
  0.020250000  -18.641743   72.185364  -75.066039 -126.544456    0.000000    0.000000    0.000000    0.000000
  0.020500000  -18.631742   73.024857  -66.147709 -113.852058    0.000000    0.000000    0.000000    0.000000
  0.020750000  -18.637872   73.881279  -60.830840 -113.233009    0.000000    0.000000    0.000000    0.000000
  0.021000000  -18.629540   74.830605  -56.897007 -115.269348    0.000000    0.000000    0.000000    0.000000
  0.021250000  -18.629262   75.740623  -53.792867 -117.546822    0.000000    0.000000    0.000000    0.000000
  0.021500000  -18.615002   76.627472  -50.995135 -120.321457    0.000000    0.000000    0.000000    0.000000
  0.021750000  -18.607191   77.559074  -48.553472 -123.487228    0.000000    0.000000    0.000000    0.000000
  0.022000000  -18.594430   78.436691  -46.227483 -126.734184    0.000000    0.000000    0.000000    0.000000
  0.022250000  -18.592016   79.376091  -44.174461 -130.830444    0.000000    0.000000    0.000000    0.000000
  0.022500000  -18.581019   80.293030  -42.100179 -134.701935    0.000000    0.000000    0.000000    0.000000
  0.022750000  -18.557032   81.185760  -40.173431 -138.720779    0.000000    0.000000    0.000000    0.000000
  0.023000000  -18.546631   82.139023  -38.333742 -143.019135    0.000000    0.000000    0.000000    0.000000
  0.023250000  -18.540904   83.047409  -36.572298 -146.909561    0.000000    0.000000    0.000000    0.000000
  0.023500000  -18.517233   83.945358  -34.860239 -151.197021    0.000000    0.000000    0.000000    0.000000
  0.023750000  -18.497307   84.854599  -33.218737 -155.419205    0.000000    0.000000    0.000000    0.000000
  0.024000000  -18.478043   85.695778  -31.907802 -160.586319    0.000000    0.000000    0.000000    0.000000
  0.024250000  -18.455321   86.560883  -30.359421 -165.665298    0.000000    0.000000    0.000000    0.000000
  0.024500000  -18.445977   87.479134  -28.791617 -170.835983    0.000000    0.000000    0.000000    0.000000
  0.024750000  -18.432679   88.395538  -27.334095 -176.373840    0.000000    0.000000    0.000000    0.000000
  0.025000000  -18.408449   89.277496  -25.836541  177.625946    0.000000    0.000000    0.000000    0.000000
  0.025250000  -18.392287   90.118019  -24.439010  171.608917    0.000000    0.000000    0.000000    0.000000
  0.025500000  -18.373961   91.027740  -23.025659  165.175674    0.000000    0.000000    0.000000    0.000000
  0.025750000  -18.362040   91.880302  -21.668168  158.371780    0.000000    0.000000    0.000000    0.000000
  0.026000000  -18.340701   92.756340  -20.381290  151.090454    0.000000    0.000000    0.000000    0.000000
  0.026250000  -18.324123   93.644653  -19.116619  143.563354    0.000000    0.000000    0.000000    0.000000
  0.026500000  -18.304824   94.514229  -17.936067  135.546234    0.000000    0.000000    0.000000    0.000000
  0.026750000  -18.290935   95.416367  -16.823523  127.063194    0.000000    0.000000    0.000000    0.000000
  0.027000000  -18.273352   96.220650  -15.783301  118.289955    0.000000    0.000000    0.000000    0.000000
  0.027250000  -18.253797   97.045547  -14.858581  109.290543    0.000000    0.000000    0.000000    0.000000
  0.027500000  -18.236142   97.880516  -14.050760  100.120750    0.000000    0.000000    0.000000    0.000000
  0.027750000  -18.237164   98.746521  -13.355362   90.920959    0.000000    0.000000    0.000000    0.000000
  0.028000000  -18.221768   99.595459  -12.764916   81.745445    0.000000    0.000000    0.000000    0.000000
  0.028250000  -18.214049  100.387474  -12.279071   72.733177    0.000000    0.000000    0.000000    0.000000
  0.028500000  -18.207907  101.274231  -11.886103   64.008827    0.000000    0.000000    0.000000    0.000000
  0.028750000  -18.189631  102.133911  -11.583578   55.622837    0.000000    0.000000    0.000000    0.000000
  0.029000000  -18.180935  103.006416  -11.348691   47.528061    0.000000    0.000000    0.000000    0.000000
  0.029250000  -18.175620  103.893982  -11.168443   39.855995    0.000000    0.000000    0.000000    0.000000
  0.029500000  -18.146617  104.719231  -11.030094   32.575050    0.000000    0.000000    0.000000    0.000000
  0.029750000  -18.131566  105.584816  -10.929046   25.634398    0.000000    0.000000    0.000000    0.000000
  0.030000000  -18.118091  106.438576  -10.834221   19.096729    0.000000    0.000000    0.000000    0.000000
  0.030250000  -18.114059  107.270836  -10.767721   12.832339    0.000000    0.000000    0.000000    0.000000
  0.030500000  -18.092874  108.070595  -10.713397    6.844641    0.000000    0.000000    0.000000    0.000000
  0.030750000  -18.076513  108.929054  -10.677531    1.104908    0.000000    0.000000    0.000000    0.000000
  0.031000000  -18.065746  109.739914  -10.654999   -4.358600    0.000000    0.000000    0.000000    0.000000
  0.031250000  -18.055980  110.642731  -10.625453   -9.601870    0.000000    0.000000    0.000000    0.000000
  0.031500000  -18.038380  111.447807  -10.609051  -14.655243    0.000000    0.000000    0.000000    0.000000
  0.031750000  -18.023370  112.277191  -10.578818  -19.607338    0.000000    0.000000    0.000000    0.000000
  0.032000000  -18.014802  113.126114  -10.557784  -24.390293    0.000000    0.000000    0.000000    0.000000
  0.032250000  -17.996150  113.980476  -10.541103  -28.990755    0.000000    0.000000    0.000000    0.000000
  0.032500000  -17.979703  114.870026  -10.533512  -33.430531    0.000000    0.000000    0.000000    0.000000
  0.032750000  -17.966588  115.661385  -10.531192  -37.727322    0.000000    0.000000    0.000000    0.000000
  0.033000000  -17.944553  116.476761  -10.522451  -41.882961    0.000000    0.000000    0.000000    0.000000
  0.033250000  -17.931881  117.266586  -10.520971  -45.957199    0.000000    0.000000    0.000000    0.000000
  0.033500000  -17.918903  118.104691  -10.510565  -49.956200    0.000000    0.000000    0.000000    0.000000
  0.033750000  -17.888393  118.888618  -10.507343  -53.871948    0.000000    0.000000    0.000000    0.000000
  0.034000000  -17.883618  119.738350  -10.503881  -57.658962    0.000000    0.000000    0.000000    0.000000
  0.034250000  -17.867795  120.591156  -10.495297  -61.416653    0.000000    0.000000    0.000000    0.000000
  0.034500000  -17.847700  121.370316  -10.494221  -65.012421    0.000000    0.000000    0.000000    0.000000
  0.034750000  -17.834751  122.194588  -10.494346  -68.558098    0.000000    0.000000    0.000000    0.000000
  0.035000000  -17.822909  122.980438  -10.500361  -72.041702    0.000000    0.000000    0.000000    0.000000
  0.035250000  -17.812120  123.773781  -10.506162  -75.447052    0.000000    0.000000    0.000000    0.000000
  0.035500000  -17.793753  124.495613  -10.504846  -78.850197    0.000000    0.000000    0.000000    0.000000
  0.035750000  -17.785919  125.286530  -10.502196  -82.189583    0.000000    0.000000    0.000000    0.000000
  0.036000000  -17.773788  126.129974  -10.500355  -85.406120    0.000000    0.000000    0.000000    0.000000
  0.036250000  -17.767756  126.940926  -10.489818  -88.598511    0.000000    0.000000    0.000000    0.000000
  0.036500000  -17.765852  127.788193  -10.483777  -91.786423    0.000000    0.000000    0.000000    0.000000
  0.036750000  -17.745680  128.641037  -10.479511  -94.869995    0.000000    0.000000    0.000000    0.000000
  0.037000000  -17.746595  129.391174  -10.481368  -97.924988    0.000000    0.000000    0.000000    0.000000
  0.037250000  -17.730411  130.263779  -10.481333 -100.922195    0.000000    0.000000    0.000000    0.000000
  0.037500000  -17.710044  131.138885  -10.479180 -103.868469    0.000000    0.000000    0.000000    0.000000
  0.037750000  -17.690766  131.953552  -10.477214 -106.790222    0.000000    0.000000    0.000000    0.000000
  0.038000000  -17.672414  132.784897  -10.480379 -109.661682    0.000000    0.000000    0.000000    0.000000
  0.038250000  -17.655278  133.650543  -10.481300 -112.513916    0.000000    0.000000    0.000000    0.000000
  0.038500000  -17.629295  134.389603  -10.479126 -115.288635    0.000000    0.000000    0.000000    0.000000
  0.038750000  -17.619251  135.224335  -10.475626 -118.069366    0.000000    0.000000    0.000000    0.000000
  0.039000000  -17.606149  135.961472  -10.473883 -120.725029    0.000000    0.000000    0.000000    0.000000
  0.039250000  -17.591560  136.704697  -10.468115 -123.424522    0.000000    0.000000    0.000000    0.000000
  0.039500000  -17.580010  137.400665  -10.465498 -126.066238    0.000000    0.000000    0.000000    0.000000
  0.039750000  -17.563759  138.238876  -10.465090 -128.664108    0.000000    0.000000    0.000000    0.000000
  0.040000000  -17.551725  139.015427  -10.457739 -131.240356    0.000000    0.000000    0.000000    0.000000
  0.040250000  -17.546757  139.817398  -10.458462 -133.770172    0.000000    0.000000    0.000000    0.000000
  0.040500000  -17.531218  140.600006  -10.457383 -136.307480    0.000000    0.000000    0.000000    0.000000
  0.040750000  -17.520954  141.380447  -10.451001 -138.787445    0.000000    0.000000    0.000000    0.000000
  0.041000000  -17.514339  142.231552  -10.445590 -141.227325    0.000000    0.000000    0.000000    0.000000
  0.041250000  -17.494319  142.952637  -10.440617 -143.656235    0.000000    0.000000    0.000000    0.000000
  0.041500000  -17.487772  143.769150  -10.430280 -146.079391    0.000000    0.000000    0.000000    0.000000
  0.041750000  -17.474804  144.568344  -10.421522 -148.484726    0.000000    0.000000    0.000000    0.000000
  0.042000000  -17.467083  145.360992  -10.412019 -150.894104    0.000000    0.000000    0.000000    0.000000
  0.042250000  -17.461368  146.181915  -10.399805 -153.267548    0.000000    0.000000    0.000000    0.000000
  0.042500000  -17.440122  147.096359  -10.391132 -155.650970    0.000000    0.000000    0.000000    0.000000
  0.042750000  -17.420875  147.963120  -10.391824 -158.038605    0.000000    0.000000    0.000000    0.000000
  0.043000000  -17.400141  148.757721  -10.395125 -160.333694    0.000000    0.000000    0.000000    0.000000
  0.043250000  -17.381599  149.411530  -10.396843 -162.605881    0.000000    0.000000    0.000000    0.000000
  0.043500000  -17.357718  150.128174  -10.403566 -164.808899    0.000000    0.000000    0.000000    0.000000
  0.043750000  -17.370618  150.781830  -10.394581 -166.990997    0.000000    0.000000    0.000000    0.000000
  0.044000000  -17.366997  151.716721  -10.392405 -169.251190    0.000000    0.000000    0.000000    0.000000
  0.044250000  -17.359070  152.561737  -10.384719 -171.466858    0.000000    0.000000    0.000000    0.000000
  0.044500000  -17.351808  153.498123  -10.380015 -173.688171    0.000000    0.000000    0.000000    0.000000
  0.044750000  -17.334387  154.359726  -10.380019 -175.884125    0.000000    0.000000    0.000000    0.000000
  0.045000000  -17.320175  155.277969  -10.372397 -178.106598    0.000000    0.000000    0.000000    0.000000
  0.045250000  -17.300713  156.150513  -10.375558  179.665680    0.000000    0.000000    0.000000    0.000000
  0.045500000  -17.259492  156.955429  -10.372622  177.434769    0.000000    0.000000    0.000000    0.000000
  0.045750000  -17.234902  157.816330  -10.374581  175.261383    0.000000    0.000000    0.000000    0.000000
  0.046000000  -17.210035  158.535065  -10.379516  173.127151    0.000000    0.000000    0.000000    0.000000
  0.046250000  -17.188331  159.314316  -10.381723  170.980164    0.000000    0.000000    0.000000    0.000000
  0.046500000  -17.165616  160.056641  -10.379713  168.887619    0.000000    0.000000    0.000000    0.000000
  0.046750000  -17.154701  160.837875  -10.381008  166.786163    0.000000    0.000000    0.000000    0.000000
  0.047000000  -17.128149  161.591736  -10.387104  164.697479    0.000000    0.000000    0.000000    0.000000
  0.047250000  -17.102755  162.348053  -10.388205  162.636429    0.000000    0.000000    0.000000    0.000000
  0.047500000  -17.093326  163.033661  -10.396622  160.563217    0.000000    0.000000    0.000000    0.000000
  0.047750000  -17.074640  163.704300  -10.402840  158.547806    0.000000    0.000000    0.000000    0.000000
  0.048000000  -17.061193  164.376907  -10.406712  156.593597    0.000000    0.000000    0.000000    0.000000
  0.048250000  -17.066945  165.085373  -10.408121  154.596909    0.000000    0.000000    0.000000    0.000000
  0.048500000  -17.075471  165.766495  -10.404834  152.621552    0.000000    0.000000    0.000000    0.000000
  0.048750000  -17.074960  166.495361  -10.400689  150.640030    0.000000    0.000000    0.000000    0.000000
  0.049000000  -17.092038  167.375793  -10.390996  148.646744    0.000000    0.000000    0.000000    0.000000
  0.049250000  -17.084124  168.222061  -10.383733  146.622498    0.000000    0.000000    0.000000    0.000000
  0.049500000  -17.065352  169.100723  -10.379797  144.595474    0.000000    0.000000    0.000000    0.000000
  0.049750000  -17.053790  169.913391  -10.381153  142.603577    0.000000    0.000000    0.000000    0.000000
  0.050000000  -17.025581  170.745102  -10.369311  140.867386    0.000000    0.000000    0.000000    0.000000
  0.050250000  -16.999029  171.478531  -10.366787  138.900177    0.000000    0.000000    0.000000    0.000000
  0.050500000  -16.983775  172.258347  -10.373207  136.938278    0.000000    0.000000    0.000000    0.000000
  0.050750000  -16.971194  172.948425  -10.373797  135.000534    0.000000    0.000000    0.000000    0.000000
  0.051000000  -16.955480  173.714020  -10.377759  133.055069    0.000000    0.000000    0.000000    0.000000
