! Anritsu VNA Master:                 Model: MS2034B/10/19/501
! SN:                                  1337062
! /bd0/ovro-jan-2016/z1-s22.s2p
! Existing Calibration Information:
! TYPE:                         Current Settings,       Active Cal Settings
! TIME:             	   01/08/2016 01:30:46 PM,    01/08/2016 01:28:30 PM
! INTERNAL TEMP:    	                   48.3 C,                    48.5 C
! # POINTS:         	                      401,                       401
! START FREQ:       	               10.000 MHz,                10.000 MHz
! STOP FREQ:        	              110.000 MHz,               110.000 MHz
! SOURCE POWER:     	                      Low,                       Low
! IFBW:             	                   100 Hz,                    100 Hz
! AVG FACTOR:       	                       1 ,                        1 
! REF PLANE 1:      	                     0 mm,                      0 mm
! REF PLANE 2:      	                     0 mm,                      0 mm
! CAL TYPE:         	                 Full S11,                  Full S11
! CAL METHOD:       	                     SOLT,                      SOLT
! CAL LINE TYPE:    	                     Coax,                      Coax
! DUT PORT 1:       	                K-Conn(M),                 K-Conn(M)
! DUT PORT 2:       	                N-Conn(M),                 N-Conn(M)
! CAL STATUS:       	        OK: Accuracy High,                        --
# GHZ S DB R 50.0
! FREQ.GHZ       S11DB        S11A       S21DB        S21A       S12DB        S12A       S22DB        S22A
  0.010000000  -21.783126  109.382423  -66.494851  171.521652    0.000000    0.000000    0.000000    0.000000
  0.010250000  -21.818463  110.870979  -65.708207  157.649811    0.000000    0.000000    0.000000    0.000000
  0.010500000  -22.129804  113.255249  -66.749163 -177.636017    0.000000    0.000000    0.000000    0.000000
  0.010750000  -22.410134  114.274979  -67.469982  162.875641    0.000000    0.000000    0.000000    0.000000
  0.011000000  -22.424070  115.325134  -65.504000  167.995163    0.000000    0.000000    0.000000    0.000000
  0.011250000  -22.794528  116.025597  -64.577074  157.223068    0.000000    0.000000    0.000000    0.000000
  0.011500000  -22.811460  117.043610  -65.397053  153.283707    0.000000    0.000000    0.000000    0.000000
  0.011750000  -22.755983  119.062111  -64.093808  176.750488    0.000000    0.000000    0.000000    0.000000
  0.012000000  -22.915304  120.379585  -63.631777  157.316467    0.000000    0.000000    0.000000    0.000000
  0.012250000  -22.978193  120.200935  -63.541782  150.754044    0.000000    0.000000    0.000000    0.000000
  0.012500000  -22.938682  123.814102  -66.685735  164.392136    0.000000    0.000000    0.000000    0.000000
  0.012750000  -22.880590  122.754280  -63.794679  176.026611    0.000000    0.000000    0.000000    0.000000
  0.013000000  -22.971124  124.203453  -63.691807  169.573868    0.000000    0.000000    0.000000    0.000000
  0.013250000  -23.010160  124.302597  -64.609504  169.510590    0.000000    0.000000    0.000000    0.000000
  0.013500000  -23.037506  123.946732  -63.425496  150.815186    0.000000    0.000000    0.000000    0.000000
  0.013750000  -23.198770  125.932922  -63.501151  175.554581    0.000000    0.000000    0.000000    0.000000
  0.014000000  -22.891390  125.720413  -64.338404  154.041138    0.000000    0.000000    0.000000    0.000000
  0.014250000  -23.075955  126.793175  -64.887396  166.817429    0.000000    0.000000    0.000000    0.000000
  0.014500000  -23.019975  127.085098  -64.887657  161.651215    0.000000    0.000000    0.000000    0.000000
  0.014750000  -22.804712  126.737480  -65.797270  162.187988    0.000000    0.000000    0.000000    0.000000
  0.015000000  -22.886809  128.036499  -64.270456  146.449112    0.000000    0.000000    0.000000    0.000000
  0.015250000  -22.820475  127.986000  -64.510458  148.494598    0.000000    0.000000    0.000000    0.000000
  0.015500000  -22.843534  126.665833  -65.088847  162.257050    0.000000    0.000000    0.000000    0.000000
  0.015750000  -22.871027  127.936272  -67.735125  158.378677    0.000000    0.000000    0.000000    0.000000
  0.016000000  -22.639501  127.360435  -64.776054  150.726822    0.000000    0.000000    0.000000    0.000000
  0.016250000  -22.739172  126.860161  -67.609724  174.368134    0.000000    0.000000    0.000000    0.000000
  0.016500000  -22.633348  127.067253  -65.337250  166.481537    0.000000    0.000000    0.000000    0.000000
  0.016750000  -22.549555  128.272614  -63.088346  150.790817    0.000000    0.000000    0.000000    0.000000
  0.017000000  -22.499003  127.169746  -63.087811  143.389542    0.000000    0.000000    0.000000    0.000000
  0.017250000  -22.584407  126.219818  -64.151617  146.953781    0.000000    0.000000    0.000000    0.000000
  0.017500000  -22.538005  125.791550  -67.768570  150.953659    0.000000    0.000000    0.000000    0.000000
  0.017750000  -22.501823  124.179710  -63.681910  151.828690    0.000000    0.000000    0.000000    0.000000
  0.018000000  -22.405304  123.530785  -65.103973  150.127686    0.000000    0.000000    0.000000    0.000000
  0.018250000  -22.502713  124.487099  -68.758187  169.018051    0.000000    0.000000    0.000000    0.000000
  0.018500000  -22.403894  123.305992  -65.288602  147.398331    0.000000    0.000000    0.000000    0.000000
  0.018750000  -22.519213  123.043358  -63.788684  157.204147    0.000000    0.000000    0.000000    0.000000
  0.019000000  -22.498014  120.962280  -63.598644  150.547379    0.000000    0.000000    0.000000    0.000000
  0.019250000  -22.513431  120.050316  -66.237666  149.236740    0.000000    0.000000    0.000000    0.000000
  0.019500000  -22.512334  120.604294  -65.626757  152.082870    0.000000    0.000000    0.000000    0.000000
  0.019750000  -22.631502  118.524796  -63.961464  157.399918    0.000000    0.000000    0.000000    0.000000
  0.020000000  -22.603525  117.408669  -65.452463  147.195114    0.000000    0.000000    0.000000    0.000000
  0.020250000  -22.777273  116.240379  -63.568812  161.082458    0.000000    0.000000    0.000000    0.000000
  0.020500000  -22.714537  115.765327  -64.081788  159.598816    0.000000    0.000000    0.000000    0.000000
  0.020750000  -22.701728  113.951958  -63.897258  164.261581    0.000000    0.000000    0.000000    0.000000
  0.021000000  -22.912878  113.371574  -63.301819  161.859955    0.000000    0.000000    0.000000    0.000000
  0.021250000  -23.151429  112.499924  -65.618727  166.659393    0.000000    0.000000    0.000000    0.000000
  0.021500000  -22.809420  111.667320  -65.528395  171.946426    0.000000    0.000000    0.000000    0.000000
  0.021750000  -23.177978  111.823761  -64.903526  160.277924    0.000000    0.000000    0.000000    0.000000
  0.022000000  -23.186898  109.442940  -63.128452  155.112579    0.000000    0.000000    0.000000    0.000000
  0.022250000  -23.434855  107.700233  -64.403253  157.179749    0.000000    0.000000    0.000000    0.000000
  0.022500000  -23.531781  106.816345  -64.660598  150.008591    0.000000    0.000000    0.000000    0.000000
  0.022750000  -23.737378  105.527969  -65.734164  144.370529    0.000000    0.000000    0.000000    0.000000
  0.023000000  -23.985011  104.808838  -63.122601  154.389526    0.000000    0.000000    0.000000    0.000000
  0.023250000  -23.881761  103.414078  -64.985307  141.627960    0.000000    0.000000    0.000000    0.000000
  0.023500000  -24.290330  101.592239  -62.926165  140.551147    0.000000    0.000000    0.000000    0.000000
  0.023750000  -24.545397  101.312889  -62.025694  155.887741    0.000000    0.000000    0.000000    0.000000
  0.024000000  -24.884073   97.509575  -64.774335  163.642563    0.000000    0.000000    0.000000    0.000000
  0.024250000  -25.004587   98.624519  -64.207262  157.686050    0.000000    0.000000    0.000000    0.000000
  0.024500000  -25.551037   96.785835  -63.271010  143.866562    0.000000    0.000000    0.000000    0.000000
  0.024750000  -25.747011   94.730522  -63.704727  151.506439    0.000000    0.000000    0.000000    0.000000
  0.025000000  -26.105906   93.430946  -66.215795 -177.930206    0.000000    0.000000    0.000000    0.000000
  0.025250000  -26.566195   93.390862  -64.240180  167.011642    0.000000    0.000000    0.000000    0.000000
  0.025500000  -26.741218   93.209984  -64.455129 -179.021317    0.000000    0.000000    0.000000    0.000000
  0.025750000  -27.819349   90.112061  -63.449785  160.881607    0.000000    0.000000    0.000000    0.000000
  0.026000000  -27.420344   89.134140  -72.245210  163.203979    0.000000    0.000000    0.000000    0.000000
  0.026250000  -28.444934   92.392403  -65.843233  167.713165    0.000000    0.000000    0.000000    0.000000
  0.026500000  -29.124112   96.246330  -65.948974 -175.068588    0.000000    0.000000    0.000000    0.000000
  0.026750000  -29.814709   94.911339  -64.333230  166.497498    0.000000    0.000000    0.000000    0.000000
  0.027000000  -30.670545   97.967377  -64.373103  159.388153    0.000000    0.000000    0.000000    0.000000
  0.027250000  -30.838174  107.464645  -66.751135  166.516937    0.000000    0.000000    0.000000    0.000000
  0.027500000  -31.332081  107.880440  -66.224672  151.688644    0.000000    0.000000    0.000000    0.000000
  0.027750000  -31.249345  111.215401  -65.954970  155.980682    0.000000    0.000000    0.000000    0.000000
  0.028000000  -31.322720  113.879044  -65.881662  170.690170    0.000000    0.000000    0.000000    0.000000
  0.028250000  -31.382760  119.632912  -67.928863  159.700073    0.000000    0.000000    0.000000    0.000000
  0.028500000  -30.689102  124.627121  -64.295064  170.443695    0.000000    0.000000    0.000000    0.000000
  0.028750000  -30.298651  123.314766  -64.186556  163.686829    0.000000    0.000000    0.000000    0.000000
  0.029000000  -30.093429  125.873474  -66.794522  172.640839    0.000000    0.000000    0.000000    0.000000
  0.029250000  -29.742838  129.184097  -66.108593  159.122681    0.000000    0.000000    0.000000    0.000000
  0.029500000  -29.948320  125.249016  -64.824907  162.914429    0.000000    0.000000    0.000000    0.000000
  0.029750000  -29.593430  122.727585  -63.975399  160.886307    0.000000    0.000000    0.000000    0.000000
  0.030000000  -29.289835  128.128082  -64.359010  161.575180    0.000000    0.000000    0.000000    0.000000
  0.030250000  -29.118854  125.637451  -67.052538  154.151581    0.000000    0.000000    0.000000    0.000000
  0.030500000  -28.823059  121.131096  -67.043855  169.961472    0.000000    0.000000    0.000000    0.000000
  0.030750000  -28.850290  123.680954  -66.865838  163.441071    0.000000    0.000000    0.000000    0.000000
  0.031000000  -29.039963  123.206024  -63.975435  165.759430    0.000000    0.000000    0.000000    0.000000
  0.031250000  -28.880535  123.923401  -64.892336  157.669037    0.000000    0.000000    0.000000    0.000000
  0.031500000  -29.111785  123.657761  -66.636124  159.329895    0.000000    0.000000    0.000000    0.000000
  0.031750000  -29.287076  123.364815  -65.798225  163.333267    0.000000    0.000000    0.000000    0.000000
  0.032000000  -29.538887  121.662132  -65.197776  136.394409    0.000000    0.000000    0.000000    0.000000
  0.032250000  -29.198650  119.720459  -65.677680  139.471390    0.000000    0.000000    0.000000    0.000000
  0.032500000  -28.968920  119.861938  -64.858926  158.911163    0.000000    0.000000    0.000000    0.000000
  0.032750000  -29.133329  120.239754  -63.119453  156.160629    0.000000    0.000000    0.000000    0.000000
  0.033000000  -29.536234  122.931244  -67.124786  164.035797    0.000000    0.000000    0.000000    0.000000
  0.033250000  -29.415210  120.029213  -64.589929  172.486404    0.000000    0.000000    0.000000    0.000000
  0.033500000  -29.633755  120.223213  -66.878657  146.599991    0.000000    0.000000    0.000000    0.000000
  0.033750000  -29.593777  119.348801  -64.097692  167.712387    0.000000    0.000000    0.000000    0.000000
  0.034000000  -29.712204  120.653778  -66.516746  167.205231    0.000000    0.000000    0.000000    0.000000
  0.034250000  -29.732875  120.163849  -65.087674  162.248062    0.000000    0.000000    0.000000    0.000000
  0.034500000  -30.023916  120.075958  -64.767316  153.002686    0.000000    0.000000    0.000000    0.000000
  0.034750000  -30.020363  120.022514  -65.108290  157.709152    0.000000    0.000000    0.000000    0.000000
  0.035000000  -30.450023  120.000999  -63.253510  153.417984    0.000000    0.000000    0.000000    0.000000
  0.035250000  -30.309677  120.851418  -64.931246  151.693695    0.000000    0.000000    0.000000    0.000000
  0.035500000  -30.256976  120.514320  -64.206070  151.889526    0.000000    0.000000    0.000000    0.000000
  0.035750000  -30.588360  122.361252  -66.799553  149.377533    0.000000    0.000000    0.000000    0.000000
  0.036000000  -30.503611  121.387703  -62.890568  146.275970    0.000000    0.000000    0.000000    0.000000
  0.036250000  -30.820097  121.686554  -65.171139  164.639511    0.000000    0.000000    0.000000    0.000000
  0.036500000  -30.819239  123.385185  -65.414668  139.828049    0.000000    0.000000    0.000000    0.000000
  0.036750000  -31.082392  122.607140  -64.222486  155.307953    0.000000    0.000000    0.000000    0.000000
  0.037000000  -30.726157  123.276489  -63.656397  155.596252    0.000000    0.000000    0.000000    0.000000
  0.037250000  -30.953360  123.198509  -61.740091  143.331253    0.000000    0.000000    0.000000    0.000000
  0.037500000  -31.199225  126.004120  -65.465903  161.173279    0.000000    0.000000    0.000000    0.000000
  0.037750000  -31.060019  127.832863  -62.769713  153.114304    0.000000    0.000000    0.000000    0.000000
  0.038000000  -30.996215  127.690796  -64.094519  157.186707    0.000000    0.000000    0.000000    0.000000
  0.038250000  -31.026143  127.405571  -62.992295  141.873444    0.000000    0.000000    0.000000    0.000000
  0.038500000  -30.839614  124.015373  -64.429286  153.591415    0.000000    0.000000    0.000000    0.000000
  0.038750000  -31.132859  124.240967  -61.777709  153.141830    0.000000    0.000000    0.000000    0.000000
  0.039000000  -31.059067  123.563423  -63.312738  148.718414    0.000000    0.000000    0.000000    0.000000
  0.039250000  -31.452750  125.816071  -64.104102  153.018143    0.000000    0.000000    0.000000    0.000000
  0.039500000  -31.379317  126.304146  -64.695625  167.522141    0.000000    0.000000    0.000000    0.000000
  0.039750000  -31.871586  128.321732  -64.278512  149.784119    0.000000    0.000000    0.000000    0.000000
  0.040000000  -31.317347  127.116432  -64.615439  150.869644    0.000000    0.000000    0.000000    0.000000
  0.040250000  -31.875533  125.424843  -64.806110  153.693176    0.000000    0.000000    0.000000    0.000000
  0.040500000  -31.719574  125.909279  -62.281598  161.439407    0.000000    0.000000    0.000000    0.000000
  0.040750000  -31.540797  124.466690  -66.026338  162.681046    0.000000    0.000000    0.000000    0.000000
  0.041000000  -32.040258  126.984200  -63.506704  164.553177    0.000000    0.000000    0.000000    0.000000
  0.041250000  -31.260390  125.940781  -64.233410  142.014374    0.000000    0.000000    0.000000    0.000000
  0.041500000  -32.108426  128.242004  -64.050430  162.968964    0.000000    0.000000    0.000000    0.000000
  0.041750000  -31.993399  125.000443  -65.545120  149.165543    0.000000    0.000000    0.000000    0.000000
  0.042000000  -31.770535  127.107468  -63.635535  167.455887    0.000000    0.000000    0.000000    0.000000
  0.042250000  -31.778929  126.830627  -61.818372  152.654892    0.000000    0.000000    0.000000    0.000000
  0.042500000  -31.892151  131.988495  -64.456017  143.477982    0.000000    0.000000    0.000000    0.000000
  0.042750000  -31.897423  127.232109  -62.418645  150.002304    0.000000    0.000000    0.000000    0.000000
  0.043000000  -31.959118  129.577301  -62.199980  131.390488    0.000000    0.000000    0.000000    0.000000
  0.043250000  -32.400809  127.207275  -65.538963  154.676880    0.000000    0.000000    0.000000    0.000000
  0.043500000  -32.248797  130.413467  -64.113636  166.026688    0.000000    0.000000    0.000000    0.000000
  0.043750000  -32.430249  128.852844  -67.043486  150.860916    0.000000    0.000000    0.000000    0.000000
  0.044000000  -32.127595  130.265991  -64.844039  160.575607    0.000000    0.000000    0.000000    0.000000
  0.044250000  -32.395169  127.825089  -64.029450  167.294495    0.000000    0.000000    0.000000    0.000000
  0.044500000  -32.255902  133.173782  -64.821790  148.183762    0.000000    0.000000    0.000000    0.000000
  0.044750000  -32.262449  127.061028  -64.161797  160.475067    0.000000    0.000000    0.000000    0.000000
  0.045000000  -32.720487  129.892883  -62.401641  149.474701    0.000000    0.000000    0.000000    0.000000
  0.045250000  -32.259461  131.613922  -63.814990  150.853607    0.000000    0.000000    0.000000    0.000000
  0.045500000  -32.868545  131.492828  -63.438790  164.700623    0.000000    0.000000    0.000000    0.000000
  0.045750000  -32.663010  131.589951  -64.370228  158.122055    0.000000    0.000000    0.000000    0.000000
  0.046000000  -32.549044  130.914047  -64.724483  148.135666    0.000000    0.000000    0.000000    0.000000
  0.046250000  -33.133339  130.140259  -62.922867  165.086212    0.000000    0.000000    0.000000    0.000000
  0.046500000  -32.979050  131.579010  -65.739036  135.023682    0.000000    0.000000    0.000000    0.000000
  0.046750000  -32.645277  127.504128  -63.915830  154.503708    0.000000    0.000000    0.000000    0.000000
  0.047000000  -33.049546  133.094055  -65.514984  156.215912    0.000000    0.000000    0.000000    0.000000
  0.047250000  -33.156911  130.181580  -65.669717  160.537445    0.000000    0.000000    0.000000    0.000000
  0.047500000  -33.640414  128.248367  -65.072962  151.468735    0.000000    0.000000    0.000000    0.000000
  0.047750000  -33.159210  134.764435  -63.350091  148.678604    0.000000    0.000000    0.000000    0.000000
  0.048000000  -33.367341  135.403061  -65.384334  137.414780    0.000000    0.000000    0.000000    0.000000
  0.048250000  -33.390559  130.110870  -66.201578  152.760559    0.000000    0.000000    0.000000    0.000000
  0.048500000  -33.312445  132.587524  -63.232006  154.438126    0.000000    0.000000    0.000000    0.000000
  0.048750000  -33.434710  136.168839  -62.510448  149.354874    0.000000    0.000000    0.000000    0.000000
  0.049000000  -33.316383  133.467377  -64.947784  155.924927    0.000000    0.000000    0.000000    0.000000
  0.049250000  -33.403553  133.724609  -62.980142  137.040161    0.000000    0.000000    0.000000    0.000000
  0.049500000  -33.762592  132.206528  -63.011858  143.502487    0.000000    0.000000    0.000000    0.000000
  0.049750000  -33.648402  131.477310  -63.182841  143.041870    0.000000    0.000000    0.000000    0.000000
  0.050000000  -34.180248  131.854156  -69.287244  175.174866    0.000000    0.000000    0.000000    0.000000
  0.050250000  -34.195894  133.240646  -67.731640  178.513947    0.000000    0.000000    0.000000    0.000000
  0.050500000  -33.797174  133.452957  -65.863165  166.473221    0.000000    0.000000    0.000000    0.000000
  0.050750000  -33.725266  127.073662  -67.354092 -176.751450    0.000000    0.000000    0.000000    0.000000
  0.051000000  -34.644326  133.453461  -66.666576  165.846695    0.000000    0.000000    0.000000    0.000000
