! Anritsu VNA Master:                 Model: MS2034B/10/19/501
! SN:                                  1337062
! /bd0/ovro-jan-2016/z1-s11.s2p
! Existing Calibration Information:
! TYPE:                         Current Settings,       Active Cal Settings
! TIME:             	   01/08/2016 02:13:21 PM,    01/08/2016 02:08:01 PM
! INTERNAL TEMP:    	                   46.5 C,                    46.8 C
! # POINTS:         	                      401,                       401
! START FREQ:       	               10.000 MHz,                10.000 MHz
! STOP FREQ:        	              110.000 MHz,               110.000 MHz
! SOURCE POWER:     	                      Low,                       Low
! IFBW:             	                   100 Hz,                    100 Hz
! AVG FACTOR:       	                       1 ,                        1 
! REF PLANE 1:      	                     0 mm,                      0 mm
! REF PLANE 2:      	                     0 mm,                      0 mm
! CAL TYPE:         	                 Full S11,                  Full S11
! CAL METHOD:       	                     SOLT,                      SOLT
! CAL LINE TYPE:    	                     Coax,                      Coax
! DUT PORT 1:       	                K-Conn(M),                 K-Conn(M)
! DUT PORT 2:       	                N-Conn(M),                 N-Conn(M)
! CAL STATUS:       	        OK: Accuracy High,                        --
# GHZ S DB R 50.0
! FREQ.GHZ       S11DB        S11A       S21DB        S21A       S12DB        S12A       S22DB        S22A
  0.010000000  -22.254001  167.004211  -41.028275  -66.029175    0.000000    0.000000    0.000000    0.000000
  0.010250000  -22.453186  165.316025  -42.751161  -68.085457    0.000000    0.000000    0.000000    0.000000
  0.010500000  -22.461217  162.895050  -45.159293  -73.077461    0.000000    0.000000    0.000000    0.000000
  0.010750000  -22.545053  160.063980  -46.814255  -79.450378    0.000000    0.000000    0.000000    0.000000
  0.011000000  -22.776323  157.289764  -49.890505  -82.497658    0.000000    0.000000    0.000000    0.000000
  0.011250000  -22.877625  156.443512  -56.795379  -82.107620    0.000000    0.000000    0.000000    0.000000
  0.011500000  -22.868662  152.257568  -69.758982  -61.023964    0.000000    0.000000    0.000000    0.000000
  0.011750000  -23.033449  149.063538  -60.118138   80.905914    0.000000    0.000000    0.000000    0.000000
  0.012000000  -23.316761  145.749176  -56.476539   77.440163    0.000000    0.000000    0.000000    0.000000
  0.012250000  -23.217303  144.057190  -55.036924   69.695015    0.000000    0.000000    0.000000    0.000000
  0.012500000  -23.028269  140.518585  -52.667402   79.251907    0.000000    0.000000    0.000000    0.000000
  0.012750000  -23.253415  137.191666  -52.843999   78.793053    0.000000    0.000000    0.000000    0.000000
  0.013000000  -23.540326  134.203033  -56.762192   72.376526    0.000000    0.000000    0.000000    0.000000
  0.013250000  -23.632244  131.874664  -60.259348  112.418816    0.000000    0.000000    0.000000    0.000000
  0.013500000  -23.779185  128.099136  -57.248070 -156.860703    0.000000    0.000000    0.000000    0.000000
  0.013750000  -23.673623  126.988914  -50.280631 -157.085510    0.000000    0.000000    0.000000    0.000000
  0.014000000  -23.702124  124.292229  -46.025521 -155.831985    0.000000    0.000000    0.000000    0.000000
  0.014250000  -23.868436  121.784935  -41.841900 -152.839111    0.000000    0.000000    0.000000    0.000000
  0.014500000  -23.991393  117.959511  -39.173158 -154.660065    0.000000    0.000000    0.000000    0.000000
  0.014750000  -24.108409  114.924980  -36.299739 -159.355164    0.000000    0.000000    0.000000    0.000000
  0.015000000  -24.341853  112.289207  -33.996959 -162.970871    0.000000    0.000000    0.000000    0.000000
  0.015250000  -24.295758  110.030220  -32.078662 -167.151123    0.000000    0.000000    0.000000    0.000000
  0.015500000  -24.207249  105.839867  -30.327746 -170.603683    0.000000    0.000000    0.000000    0.000000
  0.015750000  -24.598763  102.078392  -28.757522 -174.218338    0.000000    0.000000    0.000000    0.000000
  0.016000000  -24.587360   98.313126  -27.269505 -179.032379    0.000000    0.000000    0.000000    0.000000
  0.016250000  -24.651499   95.849281  -25.910919  176.199066    0.000000    0.000000    0.000000    0.000000
  0.016500000  -24.442694   91.681068  -24.768397  171.699173    0.000000    0.000000    0.000000    0.000000
  0.016750000  -24.562731   88.069427  -23.745170  167.310165    0.000000    0.000000    0.000000    0.000000
  0.017000000  -24.560766   85.014915  -22.849320  162.488129    0.000000    0.000000    0.000000    0.000000
  0.017250000  -24.423950   81.088013  -22.045806  158.019424    0.000000    0.000000    0.000000    0.000000
  0.017500000  -24.486083   78.460541  -21.400066  153.352402    0.000000    0.000000    0.000000    0.000000
  0.017750000  -24.350737   74.511574  -20.842581  148.344086    0.000000    0.000000    0.000000    0.000000
  0.018000000  -24.408254   70.367226  -20.367597  143.643188    0.000000    0.000000    0.000000    0.000000
  0.018250000  -24.308729   66.420265  -20.086201  139.329056    0.000000    0.000000    0.000000    0.000000
  0.018500000  -24.415728   62.984432  -20.061020  134.699966    0.000000    0.000000    0.000000    0.000000
  0.018750000  -24.107100   58.179676  -20.212806  130.343994    0.000000    0.000000    0.000000    0.000000
  0.019000000  -23.958758   56.239296  -20.670111  126.333473    0.000000    0.000000    0.000000    0.000000
  0.019250000  -24.127319   51.546345  -21.587342  122.938461    0.000000    0.000000    0.000000    0.000000
  0.019500000  -24.000808   48.718510  -23.192573  120.841896    0.000000    0.000000    0.000000    0.000000
  0.019750000  -24.045621   43.411568  -26.349329  122.173439    0.000000    0.000000    0.000000    0.000000
  0.020000000  -23.742248   40.098557  -32.407006  143.221451    0.000000    0.000000    0.000000    0.000000
  0.020250000  -23.738024   36.274105  -31.316339 -127.997803    0.000000    0.000000    0.000000    0.000000
  0.020500000  -23.510326   30.207762  -22.770997 -107.704041    0.000000    0.000000    0.000000    0.000000
  0.020750000  -23.120389   27.658279  -17.453517 -106.820122    0.000000    0.000000    0.000000    0.000000
  0.021000000  -23.069900   24.383833  -13.458579 -109.260620    0.000000    0.000000    0.000000    0.000000
  0.021250000  -22.896046   20.505045  -10.200631 -112.896568    0.000000    0.000000    0.000000    0.000000
  0.021500000  -22.749517   16.683195   -7.486044 -117.516998    0.000000    0.000000    0.000000    0.000000
  0.021750000  -22.792005   12.695370   -5.007432 -122.459213    0.000000    0.000000    0.000000    0.000000
  0.022000000  -22.640791    8.520237   -2.625138 -127.591118    0.000000    0.000000    0.000000    0.000000
  0.022250000  -22.124623    4.144685   -0.489156 -133.013153    0.000000    0.000000    0.000000    0.000000
  0.022500000  -22.037947   -1.004238    1.451665 -138.862564    0.000000    0.000000    0.000000    0.000000
  0.022750000  -21.845892   -5.146221    3.345703 -144.639786    0.000000    0.000000    0.000000    0.000000
  0.023000000  -21.708214   -9.476954    5.151589 -150.677673    0.000000    0.000000    0.000000    0.000000
  0.023250000  -21.364267  -12.978899    6.920834 -156.832901    0.000000    0.000000    0.000000    0.000000
  0.023500000  -21.222315  -19.678188    8.621099 -163.111679    0.000000    0.000000    0.000000    0.000000
  0.023750000  -20.722529  -21.123266    8.397336   10.756481    0.000000    0.000000    0.000000    0.000000
  0.024000000  -20.402451  -24.884872   10.064615    3.976502    0.000000    0.000000    0.000000    0.000000
  0.024250000  -20.106827  -29.406317   11.785263   -2.805930    0.000000    0.000000    0.000000    0.000000
  0.024500000  -19.802186  -34.333759   13.333693  -10.054004    0.000000    0.000000    0.000000    0.000000
  0.024750000  -19.571578  -39.656334   14.811720  -17.640751    0.000000    0.000000    0.000000    0.000000
  0.025000000  -19.468646  -44.581013   13.227036  -31.354950    0.000000    0.000000    0.000000    0.000000
  0.025250000  -19.199077  -48.844109   14.702966  -39.096893    0.000000    0.000000    0.000000    0.000000
  0.025500000  -18.843185  -54.593735   16.117359  -47.340763    0.000000    0.000000    0.000000    0.000000
  0.025750000  -18.877414  -60.749500   17.497826  -56.012314    0.000000    0.000000    0.000000    0.000000
  0.026000000  -18.648350  -66.217438   18.896745  -65.025826    0.000000    0.000000    0.000000    0.000000
  0.026250000  -18.322226  -71.925919   20.175391  -74.609543    0.000000    0.000000    0.000000    0.000000
  0.026500000  -18.509804  -78.358315   21.389482  -84.539276    0.000000    0.000000    0.000000    0.000000
  0.026750000  -18.475816  -84.820724   22.575891  -94.833450    0.000000    0.000000    0.000000    0.000000
  0.027000000  -18.716265  -91.692329   23.635380 -105.455734    0.000000    0.000000    0.000000    0.000000
  0.027250000  -18.722906 -100.214516   24.621641 -116.267349    0.000000    0.000000    0.000000    0.000000
  0.027500000  -19.085635 -105.100090   25.520285 -127.457779    0.000000    0.000000    0.000000    0.000000
  0.027750000  -19.483191 -111.675117   26.300098 -138.529907    0.000000    0.000000    0.000000    0.000000
  0.028000000  -20.147808 -117.480453   26.934488 -149.595993    0.000000    0.000000    0.000000    0.000000
  0.028250000  -20.644108 -123.094299   27.478391 -160.369034    0.000000    0.000000    0.000000    0.000000
  0.028500000  -21.473091 -128.914459   27.902593 -171.077927    0.000000    0.000000    0.000000    0.000000
  0.028750000  -22.120977 -130.607269   28.274250  178.610260    0.000000    0.000000    0.000000    0.000000
  0.029000000  -23.130697 -134.953171   28.560228  168.602112    0.000000    0.000000    0.000000    0.000000
  0.029250000  -24.024477 -138.007339   28.831074  159.044037    0.000000    0.000000    0.000000    0.000000
  0.029500000  -24.729200 -136.760925   29.008550  149.938522    0.000000    0.000000    0.000000    0.000000
  0.029750000  -25.476506 -139.750870   29.195712  141.210281    0.000000    0.000000    0.000000    0.000000
  0.030000000  -26.427031 -137.979141   29.294315  132.779816    0.000000    0.000000    0.000000    0.000000
  0.030250000  -26.854461 -138.011200   29.449768  124.658997    0.000000    0.000000    0.000000    0.000000
  0.030500000  -27.514650 -138.577118   29.578054  116.839371    0.000000    0.000000    0.000000    0.000000
  0.030750000  -27.515256 -137.301987   29.667530  109.103050    0.000000    0.000000    0.000000    0.000000
  0.031000000  -27.903243 -137.698547   29.781642  101.850090    0.000000    0.000000    0.000000    0.000000
  0.031250000  -28.255493 -132.378647   29.853006   94.663086    0.000000    0.000000    0.000000    0.000000
  0.031500000  -28.823640 -132.379852   29.928935   87.843903    0.000000    0.000000    0.000000    0.000000
  0.031750000  -28.674915 -130.584808   29.985376   81.305580    0.000000    0.000000    0.000000    0.000000
  0.032000000  -28.675617 -129.881882   30.100846   74.742241    0.000000    0.000000    0.000000    0.000000
  0.032250000  -28.745530 -128.568314   30.212635   68.333458    0.000000    0.000000    0.000000    0.000000
  0.032500000  -29.014462 -130.039658   30.287120   61.965137    0.000000    0.000000    0.000000    0.000000
  0.032750000  -28.590868 -128.786514   30.387496   55.824623    0.000000    0.000000    0.000000    0.000000
  0.033000000  -29.262643 -128.224350   30.482388   49.788570    0.000000    0.000000    0.000000    0.000000
  0.033250000  -29.098357 -126.843376   30.537445   43.884144    0.000000    0.000000    0.000000    0.000000
  0.033500000  -28.987791 -130.084991   30.530945   37.949982    0.000000    0.000000    0.000000    0.000000
  0.033750000  -29.421332 -131.030899   30.567193   32.233643    0.000000    0.000000    0.000000    0.000000
  0.034000000  -29.505608 -130.181732   30.584437   26.525583    0.000000    0.000000    0.000000    0.000000
  0.034250000  -29.472396 -128.556976   30.593907   20.828140    0.000000    0.000000    0.000000    0.000000
  0.034500000  -29.589177 -130.412659   30.657181   15.263239    0.000000    0.000000    0.000000    0.000000
  0.034750000  -29.319773 -132.328461   30.714982    9.795316    0.000000    0.000000    0.000000    0.000000
  0.035000000  -29.497247 -131.425568   30.757533    4.470439    0.000000    0.000000    0.000000    0.000000
  0.035250000  -29.711361 -132.299194   30.796960   -0.897816    0.000000    0.000000    0.000000    0.000000
  0.035500000  -29.637659 -129.949615   30.787349   -6.122993    0.000000    0.000000    0.000000    0.000000
  0.035750000  -30.521155 -133.803314   30.868101  -11.219852    0.000000    0.000000    0.000000    0.000000
  0.036000000  -30.625047 -131.979355   30.904441  -16.280010    0.000000    0.000000    0.000000    0.000000
  0.036250000  -30.262519 -134.020691   31.005837  -21.224669    0.000000    0.000000    0.000000    0.000000
  0.036500000  -29.995932 -129.220840   31.059036  -26.242275    0.000000    0.000000    0.000000    0.000000
  0.036750000  -30.617526 -131.095581   31.149139  -31.115576    0.000000    0.000000    0.000000    0.000000
  0.037000000  -31.126745 -125.879074   31.157173  -36.109013    0.000000    0.000000    0.000000    0.000000
  0.037250000  -30.651261 -126.537735   31.164300  -41.092312    0.000000    0.000000    0.000000    0.000000
  0.037500000  -31.736447 -130.112701   31.167987  -45.974091    0.000000    0.000000    0.000000    0.000000
  0.037750000  -31.875323 -126.415611   31.160451  -50.772888    0.000000    0.000000    0.000000    0.000000
  0.038000000  -30.964807 -129.836945   31.202708  -55.443665    0.000000    0.000000    0.000000    0.000000
  0.038250000  -31.029071 -128.308884   31.192398  -60.121605    0.000000    0.000000    0.000000    0.000000
  0.038500000  -31.096328 -122.002098   31.231795  -64.770981    0.000000    0.000000    0.000000    0.000000
  0.038750000  -31.391734 -122.701263   31.265467  -69.308525    0.000000    0.000000    0.000000    0.000000
  0.039000000  -31.283036 -125.198936   31.278106  -73.905754    0.000000    0.000000    0.000000    0.000000
  0.039250000  -31.383503 -119.647919   31.327580  -78.424088    0.000000    0.000000    0.000000    0.000000
  0.039500000  -31.456808 -118.834869   31.384352  -83.012482    0.000000    0.000000    0.000000    0.000000
  0.039750000  -31.334194 -120.122498   31.397748  -87.581444    0.000000    0.000000    0.000000    0.000000
  0.040000000  -31.026655 -120.061623   31.454847  -91.986504    0.000000    0.000000    0.000000    0.000000
  0.040250000  -31.403318 -119.996475   31.451800  -96.420990    0.000000    0.000000    0.000000    0.000000
  0.040500000  -30.923410 -116.889206   31.492173 -100.819328    0.000000    0.000000    0.000000    0.000000
  0.040750000  -30.832105 -114.642174   31.532055 -105.117668    0.000000    0.000000    0.000000    0.000000
  0.041000000  -30.773855 -117.108307   31.529847 -109.513390    0.000000    0.000000    0.000000    0.000000
  0.041250000  -30.500580 -115.627762   31.569516 -113.773865    0.000000    0.000000    0.000000    0.000000
  0.041500000  -30.942810 -116.039124   31.614256 -118.012733    0.000000    0.000000    0.000000    0.000000
  0.041750000  -30.428128 -115.575119   31.602228 -122.254883    0.000000    0.000000    0.000000    0.000000
  0.042000000  -30.230725 -112.738472   31.596153 -126.586479    0.000000    0.000000    0.000000    0.000000
  0.042250000  -30.440487 -113.487473   31.649991 -130.675705    0.000000    0.000000    0.000000    0.000000
  0.042500000  -29.907237 -111.909561   31.658542 -135.005402    0.000000    0.000000    0.000000    0.000000
  0.042750000  -29.707590 -111.565163   31.712452 -139.212128    0.000000    0.000000    0.000000    0.000000
  0.043000000  -29.706732 -118.583862   31.728246 -143.424988    0.000000    0.000000    0.000000    0.000000
  0.043250000  -29.617068 -112.919739   31.730073 -147.691605    0.000000    0.000000    0.000000    0.000000
  0.043500000  -29.694133 -113.073441   31.786495 -151.774384    0.000000    0.000000    0.000000    0.000000
  0.043750000  -29.042604 -115.039413   31.789172 -155.985275    0.000000    0.000000    0.000000    0.000000
  0.044000000  -29.459124 -113.960052   31.839075 -160.078964    0.000000    0.000000    0.000000    0.000000
  0.044250000  -29.317880 -111.992043   31.832673 -164.229660    0.000000    0.000000    0.000000    0.000000
  0.044500000  -29.342322 -116.682236   31.852899 -168.183548    0.000000    0.000000    0.000000    0.000000
  0.044750000  -29.003685 -114.964706   31.840006 -172.260666    0.000000    0.000000    0.000000    0.000000
  0.045000000  -28.943085 -115.316299   31.826971 -176.328278    0.000000    0.000000    0.000000    0.000000
  0.045250000  -28.623630 -115.328552   31.878274  179.685776    0.000000    0.000000    0.000000    0.000000
  0.045500000  -28.504795 -116.531822   31.871314  175.639282    0.000000    0.000000    0.000000    0.000000
  0.045750000  -28.708122 -116.452133   31.917336  171.651840    0.000000    0.000000    0.000000    0.000000
  0.046000000  -28.817927 -117.800247   31.918986  167.619904    0.000000    0.000000    0.000000    0.000000
  0.046250000  -28.598910 -116.155922   31.973124  163.631287    0.000000    0.000000    0.000000    0.000000
  0.046500000  -28.264423 -120.228951   31.977101  159.639664    0.000000    0.000000    0.000000    0.000000
  0.046750000  -28.138774 -119.280945   31.976010  155.601151    0.000000    0.000000    0.000000    0.000000
  0.047000000  -28.237691 -120.979561   31.982385  151.566681    0.000000    0.000000    0.000000    0.000000
  0.047250000  -28.438222 -120.406509   31.984211  147.503647    0.000000    0.000000    0.000000    0.000000
  0.047500000  -28.294742 -124.244736   32.044142  143.561737    0.000000    0.000000    0.000000    0.000000
  0.047750000  -28.318831 -120.770981   32.035880  139.562027    0.000000    0.000000    0.000000    0.000000
  0.048000000  -28.069443 -121.296211   32.038376  135.565155    0.000000    0.000000    0.000000    0.000000
  0.048250000  -28.040364 -123.679771   32.083989  131.678391    0.000000    0.000000    0.000000    0.000000
  0.048500000  -28.043672 -124.173576   32.078208  127.728622    0.000000    0.000000    0.000000    0.000000
  0.048750000  -28.080141 -125.797485   32.123098  123.882980    0.000000    0.000000    0.000000    0.000000
  0.049000000  -27.871126 -124.431030   32.107620  120.065971    0.000000    0.000000    0.000000    0.000000
  0.049250000  -28.417299 -126.983093   32.098905  116.201187    0.000000    0.000000    0.000000    0.000000
  0.049500000  -27.877299 -124.463448   32.088207  112.306450    0.000000    0.000000    0.000000    0.000000
  0.049750000  -27.863316 -126.474258   32.080355  108.454254    0.000000    0.000000    0.000000    0.000000
  0.050000000  -27.972065 -125.977783   28.281842   97.418579    0.000000    0.000000    0.000000    0.000000
  0.050250000  -28.472460 -128.914948   28.330145   93.641960    0.000000    0.000000    0.000000    0.000000
  0.050500000  -28.392181 -129.153534   28.308190   89.761681    0.000000    0.000000    0.000000    0.000000
  0.050750000  -28.408424 -128.645859   28.345770   85.916107    0.000000    0.000000    0.000000    0.000000
  0.051000000  -28.167020 -130.845917   28.376729   82.166252    0.000000    0.000000    0.000000    0.000000
