! Anritsu VNA Master:                 Model: MS2034B/10/19/501
! SN:                                  1337062
! /bd0/ovro-jan-2016/d2-s21-40db.s2p
! Existing Calibration Information:
! TYPE:                         Current Settings,       Active Cal Settings
! TIME:             	   01/08/2016 03:22:05 PM,    01/08/2016 03:05:41 PM
! INTERNAL TEMP:    	                   41.3 C,                    43.3 C
! # POINTS:         	                      401,                       401
! START FREQ:       	               10.000 MHz,                10.000 MHz
! STOP FREQ:        	              110.000 MHz,               110.000 MHz
! SOURCE POWER:     	                     High,                      High
! IFBW:             	                   100 Hz,                    100 Hz
! AVG FACTOR:       	                       1 ,                        1 
! REF PLANE 1:      	                     0 mm,                      0 mm
! REF PLANE 2:      	                     0 mm,                      0 mm
! CAL TYPE:         	             1P2P S11,S21,              1P2P S11,S21
! CAL METHOD:       	                     SOLT,                      SOLT
! CAL LINE TYPE:    	                     Coax,                      Coax
! DUT PORT 1:       	                K-Conn(M),                 K-Conn(M)
! DUT PORT 2:       	                N-Conn(M),                 N-Conn(M)
! CAL STATUS:       	        OK: Accuracy High,                        --
# GHZ S DB R 50.0
! FREQ.GHZ       S11DB        S11A       S21DB        S21A       S12DB        S12A       S22DB        S22A
  0.010000000  -41.796939 -158.313080  -83.251620 -159.350388    0.000000    0.000000    0.000000    0.000000
  0.010250000  -41.519142 -159.041016  -85.631685 -159.622803    0.000000    0.000000    0.000000    0.000000
  0.010500000  -41.520311 -159.324387  -87.335112 -152.277100    0.000000    0.000000    0.000000    0.000000
  0.010750000  -41.303894 -160.123032  -91.645497 -170.280640    0.000000    0.000000    0.000000    0.000000
  0.011000000  -41.157310 -160.416931  -91.335807 -162.316559    0.000000    0.000000    0.000000    0.000000
  0.011250000  -41.071501 -160.825592 -105.315505 -143.153305    0.000000    0.000000    0.000000    0.000000
  0.011500000  -40.934938 -161.337585 -103.323947  -40.557228    0.000000    0.000000    0.000000    0.000000
  0.011750000  -40.866914 -161.916504  -97.860621  -50.658592    0.000000    0.000000    0.000000    0.000000
  0.012000000  -40.740074 -161.959320  -95.390937  -13.620026    0.000000    0.000000    0.000000    0.000000
  0.012250000  -40.657738 -162.387833  -94.441442   -7.869877    0.000000    0.000000    0.000000    0.000000
  0.012500000  -40.565022 -162.751694  -92.371834   -7.479074    0.000000    0.000000    0.000000    0.000000
  0.012750000  -40.496991 -162.814285  -94.725152   12.768566    0.000000    0.000000    0.000000    0.000000
  0.013000000  -40.258915 -163.299515  -98.331060   13.987830    0.000000    0.000000    0.000000    0.000000
  0.013250000  -40.165109 -163.544296  -94.630258  113.338196    0.000000    0.000000    0.000000    0.000000
  0.013500000  -40.134434 -163.991226  -89.468722  139.094757    0.000000    0.000000    0.000000    0.000000
  0.013750000  -40.059108 -164.271484  -86.241788  142.274521    0.000000    0.000000    0.000000    0.000000
  0.014000000  -39.945836 -164.123856  -81.852257  144.656281    0.000000    0.000000    0.000000    0.000000
  0.014250000  -39.820701 -164.635208  -78.834433  144.360260    0.000000    0.000000    0.000000    0.000000
  0.014500000  -39.739374 -164.651154  -76.478970  143.796143    0.000000    0.000000    0.000000    0.000000
  0.014750000  -39.674413 -164.832413  -74.509493  144.434357    0.000000    0.000000    0.000000    0.000000
  0.015000000  -39.553221 -165.320770  -72.358373  140.895523    0.000000    0.000000    0.000000    0.000000
  0.015250000  -39.419271 -165.255890  -70.586371  140.234665    0.000000    0.000000    0.000000    0.000000
  0.015500000  -39.323248 -165.577179  -69.145392  138.116013    0.000000    0.000000    0.000000    0.000000
  0.015750000  -39.254228 -165.587234  -67.937642  135.874725    0.000000    0.000000    0.000000    0.000000
  0.016000000  -39.170734 -165.953003  -66.708772  134.005234    0.000000    0.000000    0.000000    0.000000
  0.016250000  -39.081442 -166.154358  -65.505690  131.229141    0.000000    0.000000    0.000000    0.000000
  0.016500000  -38.919063 -166.136200  -64.396424  128.094681    0.000000    0.000000    0.000000    0.000000
  0.016750000  -38.834873 -166.013519  -63.354304  125.415413    0.000000    0.000000    0.000000    0.000000
  0.017000000  -38.793779 -166.204117  -62.686480  121.645203    0.000000    0.000000    0.000000    0.000000
  0.017250000  -38.645883 -165.651260  -61.862051  118.752731    0.000000    0.000000    0.000000    0.000000
  0.017500000  -38.515652 -166.027466  -61.204087  115.534988    0.000000    0.000000    0.000000    0.000000
  0.017750000  -38.387889 -166.390961  -60.780228  113.066261    0.000000    0.000000    0.000000    0.000000
  0.018000000  -38.346490 -166.427139  -60.456526  110.196190    0.000000    0.000000    0.000000    0.000000
  0.018250000  -38.244101 -166.710556  -60.182587  108.050095    0.000000    0.000000    0.000000    0.000000
  0.018500000  -38.149057 -166.333771  -60.256590  105.652344    0.000000    0.000000    0.000000    0.000000
  0.018750000  -38.034629 -166.566620  -60.450809  103.350525    0.000000    0.000000    0.000000    0.000000
  0.019000000  -37.912314 -166.662735  -60.937688  101.847244    0.000000    0.000000    0.000000    0.000000
  0.019250000  -37.874506 -166.938217  -61.837496  100.011681    0.000000    0.000000    0.000000    0.000000
  0.019500000  -37.813934 -166.905334  -63.341844   99.526245    0.000000    0.000000    0.000000    0.000000
  0.019750000  -37.691806 -167.118637  -65.963519  102.601891    0.000000    0.000000    0.000000    0.000000
  0.020000000  -37.609910 -166.666580  -70.991519  114.526649    0.000000    0.000000    0.000000    0.000000
  0.020250000  -37.533561 -167.144104  -74.122028 -164.412796    0.000000    0.000000    0.000000    0.000000
  0.020500000  -37.437211 -167.129532  -65.369144 -125.691574    0.000000    0.000000    0.000000    0.000000
  0.020750000  -37.386200 -166.744400  -59.657203 -119.827644    0.000000    0.000000    0.000000    0.000000
  0.021000000  -37.307192 -167.158157  -55.448026 -119.885994    0.000000    0.000000    0.000000    0.000000
  0.021250000  -37.208922 -167.179596  -52.205656 -121.146011    0.000000    0.000000    0.000000    0.000000
  0.021500000  -37.087186 -167.207764  -49.315386 -122.999535    0.000000    0.000000    0.000000    0.000000
  0.021750000  -36.952065 -166.972992  -46.842022 -125.774261    0.000000    0.000000    0.000000    0.000000
  0.022000000  -36.901863 -167.253311  -44.477341 -128.622940    0.000000    0.000000    0.000000    0.000000
  0.022250000  -36.839171 -167.121628  -42.385607 -132.354889    0.000000    0.000000    0.000000    0.000000
  0.022500000  -36.709963 -166.847702  -40.299381 -136.104050    0.000000    0.000000    0.000000    0.000000
  0.022750000  -36.632600 -166.967209  -38.345213 -139.903473    0.000000    0.000000    0.000000    0.000000
  0.023000000  -36.478884 -167.007523  -36.484695 -144.025055    0.000000    0.000000    0.000000    0.000000
  0.023250000  -36.445116 -166.894119  -34.703765 -147.840134    0.000000    0.000000    0.000000    0.000000
  0.023500000  -36.355382 -166.925873  -32.963306 -151.996124    0.000000    0.000000    0.000000    0.000000
  0.023750000  -36.317604 -166.803909  -31.573179 -156.403595    0.000000    0.000000    0.000000    0.000000
  0.024000000  -36.231622 -166.732620  -29.932692 -161.211426    0.000000    0.000000    0.000000    0.000000
  0.024250000  -36.146255 -166.518875  -28.325653 -166.322189    0.000000    0.000000    0.000000    0.000000
  0.024500000  -36.046466 -166.392960  -26.813827 -171.411774    0.000000    0.000000    0.000000    0.000000
  0.024750000  -35.983093 -166.281494  -25.293070 -177.042999    0.000000    0.000000    0.000000    0.000000
  0.025000000  -35.873883 -166.381149  -23.731771  177.080093    0.000000    0.000000    0.000000    0.000000
  0.025250000  -35.812501 -166.507401  -22.285961  170.973801    0.000000    0.000000    0.000000    0.000000
  0.025500000  -35.750160 -165.940445  -20.832798  164.291306    0.000000    0.000000    0.000000    0.000000
  0.025750000  -35.660312 -165.658127  -19.439585  157.276260    0.000000    0.000000    0.000000    0.000000
  0.026000000  -35.587584 -165.635056  -18.085852  149.713669    0.000000    0.000000    0.000000    0.000000
  0.026250000  -35.519503 -165.404022  -16.796010  141.712265    0.000000    0.000000    0.000000    0.000000
  0.026500000  -35.392376 -165.671402  -15.581090  133.165436    0.000000    0.000000    0.000000    0.000000
  0.026750000  -35.343179 -165.373184  -14.455449  124.091682    0.000000    0.000000    0.000000    0.000000
  0.027000000  -35.262723 -165.371643  -13.426757  114.681442    0.000000    0.000000    0.000000    0.000000
  0.027250000  -35.210296 -165.273056  -12.524263  105.024467    0.000000    0.000000    0.000000    0.000000
  0.027500000  -35.084514 -165.326035  -11.766784   95.223206    0.000000    0.000000    0.000000    0.000000
  0.027750000  -35.037661 -165.069626  -11.143818   85.506424    0.000000    0.000000    0.000000    0.000000
  0.028000000  -34.919121 -165.171783  -10.650039   75.901321    0.000000    0.000000    0.000000    0.000000
  0.028250000  -34.868904 -164.627136  -10.258822   66.638054    0.000000    0.000000    0.000000    0.000000
  0.028500000  -34.759231 -164.564728   -9.964773   57.770798    0.000000    0.000000    0.000000    0.000000
  0.028750000  -34.702942 -164.482147   -9.751396   49.351303    0.000000    0.000000    0.000000    0.000000
  0.029000000  -34.634317 -164.131073   -9.595185   41.397610    0.000000    0.000000    0.000000    0.000000
  0.029250000  -34.601068 -164.184906   -9.487993   33.907661    0.000000    0.000000    0.000000    0.000000
  0.029500000  -34.561332 -163.784760   -9.400902   26.858112    0.000000    0.000000    0.000000    0.000000
  0.029750000  -34.439193 -163.394180   -9.342684   20.162615    0.000000    0.000000    0.000000    0.000000
  0.030000000  -34.342879 -163.428864   -9.289701   13.838773    0.000000    0.000000    0.000000    0.000000
  0.030250000  -34.272757 -163.287979   -9.248037    7.813625    0.000000    0.000000    0.000000    0.000000
  0.030500000  -34.250749 -163.061478   -9.214836    2.047935    0.000000    0.000000    0.000000    0.000000
  0.030750000  -34.156506 -162.874817   -9.197245   -3.436932    0.000000    0.000000    0.000000    0.000000
  0.031000000  -34.083535 -162.402679   -9.183835   -8.704071    0.000000    0.000000    0.000000    0.000000
  0.031250000  -33.977018 -162.340027   -9.160244  -13.767420    0.000000    0.000000    0.000000    0.000000
  0.031500000  -33.923747 -162.288757   -9.143045  -18.686882    0.000000    0.000000    0.000000    0.000000
  0.031750000  -33.914760 -161.863266   -9.116793  -23.465591    0.000000    0.000000    0.000000    0.000000
  0.032000000  -33.819741 -161.705597   -9.096924  -28.076159    0.000000    0.000000    0.000000    0.000000
  0.032250000  -33.742163 -161.590332   -9.074763  -32.548443    0.000000    0.000000    0.000000    0.000000
  0.032500000  -33.658143 -161.414017   -9.066230  -36.888218    0.000000    0.000000    0.000000    0.000000
  0.032750000  -33.642633 -161.069031   -9.052924  -41.118828    0.000000    0.000000    0.000000    0.000000
  0.033000000  -33.577600 -161.069061   -9.039716  -45.221504    0.000000    0.000000    0.000000    0.000000
  0.033250000  -33.481357 -160.603745   -9.038293  -49.207825    0.000000    0.000000    0.000000    0.000000
  0.033500000  -33.407637 -160.564331   -9.021127  -53.160019    0.000000    0.000000    0.000000    0.000000
  0.033750000  -33.352176 -160.520874   -9.011082  -57.025795    0.000000    0.000000    0.000000    0.000000
  0.034000000  -33.271888 -160.126328   -9.000832  -60.813976    0.000000    0.000000    0.000000    0.000000
  0.034250000  -33.176314 -159.815475   -8.986974  -64.520248    0.000000    0.000000    0.000000    0.000000
  0.034500000  -33.181481 -159.608551   -8.979838  -68.141594    0.000000    0.000000    0.000000    0.000000
  0.034750000  -33.070170 -159.400345   -8.978485  -71.676254    0.000000    0.000000    0.000000    0.000000
  0.035000000  -33.059969 -159.086761   -8.984391  -75.155334    0.000000    0.000000    0.000000    0.000000
  0.035250000  -32.984494 -158.951538   -8.981473  -78.591820    0.000000    0.000000    0.000000    0.000000
  0.035500000  -32.962681 -158.611237   -8.979722  -82.009697    0.000000    0.000000    0.000000    0.000000
  0.035750000  -32.895384 -158.359344   -8.974573  -85.343391    0.000000    0.000000    0.000000    0.000000
  0.036000000  -32.859382 -158.410095   -8.970455  -88.566887    0.000000    0.000000    0.000000    0.000000
  0.036250000  -32.763165 -157.705231   -8.963108  -91.778519    0.000000    0.000000    0.000000    0.000000
  0.036500000  -32.697128 -157.407074   -8.956082  -94.983185    0.000000    0.000000    0.000000    0.000000
  0.036750000  -32.623898 -157.352875   -8.952414  -98.098167    0.000000    0.000000    0.000000    0.000000
  0.037000000  -32.619029 -156.787048   -8.953579 -101.140442    0.000000    0.000000    0.000000    0.000000
  0.037250000  -32.567647 -156.691818   -8.955909 -104.148628    0.000000    0.000000    0.000000    0.000000
  0.037500000  -32.527585 -156.516617   -8.959530 -107.098877    0.000000    0.000000    0.000000    0.000000
  0.037750000  -32.485213 -156.318741   -8.958207 -110.012032    0.000000    0.000000    0.000000    0.000000
  0.038000000  -32.440243 -156.033463   -8.960214 -112.876228    0.000000    0.000000    0.000000    0.000000
  0.038250000  -32.346599 -155.844208   -8.955513 -115.724403    0.000000    0.000000    0.000000    0.000000
  0.038500000  -32.302578 -155.546967   -8.953810 -118.509315    0.000000    0.000000    0.000000    0.000000
  0.038750000  -32.217128 -155.316254   -8.951171 -121.332611    0.000000    0.000000    0.000000    0.000000
  0.039000000  -32.171301 -155.087967   -8.948860 -124.026581    0.000000    0.000000    0.000000    0.000000
  0.039250000  -32.150511 -154.796829   -8.942388 -126.760330    0.000000    0.000000    0.000000    0.000000
  0.039500000  -32.122254 -154.575089   -8.940828 -129.425873    0.000000    0.000000    0.000000    0.000000
  0.039750000  -32.054815 -154.376648   -8.940362 -132.053284    0.000000    0.000000    0.000000    0.000000
  0.040000000  -32.012823 -153.897125   -8.942481 -134.626236    0.000000    0.000000    0.000000    0.000000
  0.040250000  -31.966548 -153.780548   -8.943479 -137.230988    0.000000    0.000000    0.000000    0.000000
  0.040500000  -31.913575 -153.566742   -8.944007 -139.757584    0.000000    0.000000    0.000000    0.000000
  0.040750000  -31.833336 -153.240723   -8.942728 -142.240250    0.000000    0.000000    0.000000    0.000000
  0.041000000  -31.815183 -152.847961   -8.948706 -144.704529    0.000000    0.000000    0.000000    0.000000
  0.041250000  -31.793807 -152.776978   -8.941775 -147.170624    0.000000    0.000000    0.000000    0.000000
  0.041500000  -31.720990 -152.525726   -8.936330 -149.600647    0.000000    0.000000    0.000000    0.000000
  0.041750000  -31.683916 -152.479797   -8.933380 -152.009323    0.000000    0.000000    0.000000    0.000000
  0.042000000  -31.656832 -152.162354   -8.930847 -154.417450    0.000000    0.000000    0.000000    0.000000
  0.042250000  -31.633712 -151.772964   -8.925910 -156.789764    0.000000    0.000000    0.000000    0.000000
  0.042500000  -31.572834 -151.553040   -8.923200 -159.146683    0.000000    0.000000    0.000000    0.000000
  0.042750000  -31.511287 -151.166763   -8.921601 -161.504166    0.000000    0.000000    0.000000    0.000000
  0.043000000  -31.490483 -150.736481   -8.923214 -163.814041    0.000000    0.000000    0.000000    0.000000
  0.043250000  -31.467763 -150.423935   -8.923390 -166.095673    0.000000    0.000000    0.000000    0.000000
  0.043500000  -31.390287 -150.386032   -8.929303 -168.335754    0.000000    0.000000    0.000000    0.000000
  0.043750000  -31.387736 -150.051025   -8.930169 -170.595444    0.000000    0.000000    0.000000    0.000000
  0.044000000  -31.335481 -149.690170   -8.937446 -172.832214    0.000000    0.000000    0.000000    0.000000
  0.044250000  -31.297884 -149.476364   -8.940088 -175.031906    0.000000    0.000000    0.000000    0.000000
  0.044500000  -31.245515 -149.054596   -8.937909 -177.245483    0.000000    0.000000    0.000000    0.000000
  0.044750000  -31.191485 -148.542206   -8.943727 -179.415176    0.000000    0.000000    0.000000    0.000000
  0.045000000  -31.162927 -148.315323   -8.940203  178.375961    0.000000    0.000000    0.000000    0.000000
  0.045250000  -31.126957 -148.058701   -8.942974  176.177460    0.000000    0.000000    0.000000    0.000000
  0.045500000  -31.091158 -147.931015   -8.938603  173.981903    0.000000    0.000000    0.000000    0.000000
  0.045750000  -30.997126 -147.808563   -8.934242  171.820648    0.000000    0.000000    0.000000    0.000000
  0.046000000  -30.993267 -147.349335   -8.938587  169.682449    0.000000    0.000000    0.000000    0.000000
  0.046250000  -30.959754 -147.082489   -8.935461  167.525650    0.000000    0.000000    0.000000    0.000000
  0.046500000  -30.933783 -146.828033   -8.937063  165.412628    0.000000    0.000000    0.000000    0.000000
  0.046750000  -30.903755 -146.314453   -8.935256  163.296677    0.000000    0.000000    0.000000    0.000000
  0.047000000  -30.874788 -145.907944   -8.939042  161.211273    0.000000    0.000000    0.000000    0.000000
  0.047250000  -30.830290 -145.591553   -8.938861  159.137512    0.000000    0.000000    0.000000    0.000000
  0.047500000  -30.815449 -145.384491   -8.942685  157.056015    0.000000    0.000000    0.000000    0.000000
  0.047750000  -30.760580 -145.088486   -8.948175  155.002838    0.000000    0.000000    0.000000    0.000000
  0.048000000  -30.737204 -144.888321   -8.955669  152.968292    0.000000    0.000000    0.000000    0.000000
  0.048250000  -30.712370 -144.455231   -8.951478  150.915237    0.000000    0.000000    0.000000    0.000000
  0.048500000  -30.678663 -144.231842   -8.954923  148.913422    0.000000    0.000000    0.000000    0.000000
  0.048750000  -30.638396 -144.089767   -8.959506  146.880951    0.000000    0.000000    0.000000    0.000000
  0.049000000  -30.640005 -143.607407   -8.960342  144.876266    0.000000    0.000000    0.000000    0.000000
  0.049250000  -30.600574 -143.295410   -8.961955  142.882217    0.000000    0.000000    0.000000    0.000000
  0.049500000  -30.560328 -143.190521   -8.961065  140.869232    0.000000    0.000000    0.000000    0.000000
  0.049750000  -30.569524 -143.012711   -8.956384  138.880112    0.000000    0.000000    0.000000    0.000000
  0.050000000  -30.525277 -142.379684   -8.946806  137.103851    0.000000    0.000000    0.000000    0.000000
  0.050250000  -30.498151 -142.208542   -8.947979  135.124969    0.000000    0.000000    0.000000    0.000000
  0.050500000  -30.441612 -142.127426   -8.951231  133.181274    0.000000    0.000000    0.000000    0.000000
  0.050750000  -30.422930 -141.673035   -8.954847  131.214951    0.000000    0.000000    0.000000    0.000000
  0.051000000  -30.404113 -141.349319   -8.958335  129.255859    0.000000    0.000000    0.000000    0.000000
