! Anritsu VNA Master:                 Model: MS2034B/10/19/501
! SN:                                  1337062
! /bd0/ovro-jan-2016/z2-s11.s2p
! Existing Calibration Information:
! TYPE:                         Current Settings,       Active Cal Settings
! TIME:             	   01/08/2016 02:11:57 PM,    01/08/2016 02:08:01 PM
! INTERNAL TEMP:    	                   46.5 C,                    46.8 C
! # POINTS:         	                      401,                       401
! START FREQ:       	               10.000 MHz,                10.000 MHz
! STOP FREQ:        	              110.000 MHz,               110.000 MHz
! SOURCE POWER:     	                      Low,                       Low
! IFBW:             	                   100 Hz,                    100 Hz
! AVG FACTOR:       	                       1 ,                        1 
! REF PLANE 1:      	                     0 mm,                      0 mm
! REF PLANE 2:      	                     0 mm,                      0 mm
! CAL TYPE:         	                 Full S11,                  Full S11
! CAL METHOD:       	                     SOLT,                      SOLT
! CAL LINE TYPE:    	                     Coax,                      Coax
! DUT PORT 1:       	                K-Conn(M),                 K-Conn(M)
! DUT PORT 2:       	                N-Conn(M),                 N-Conn(M)
! CAL STATUS:       	        OK: Accuracy High,                        --
# GHZ S DB R 50.0
! FREQ.GHZ       S11DB        S11A       S21DB        S21A       S12DB        S12A       S22DB        S22A
  0.010000000  -23.469899  163.369949  -42.788130  -67.855843    0.000000    0.000000    0.000000    0.000000
  0.010250000  -23.805059  162.406677  -44.325353  -71.132294    0.000000    0.000000    0.000000    0.000000
  0.010500000  -23.663439  157.546082  -46.750265  -71.634529    0.000000    0.000000    0.000000    0.000000
  0.010750000  -23.577003  154.136749  -50.116163  -74.180618    0.000000    0.000000    0.000000    0.000000
  0.011000000  -24.168658  150.590012  -55.314115  -76.288399    0.000000    0.000000    0.000000    0.000000
  0.011250000  -24.175603  148.942719  -64.129949  -70.470596    0.000000    0.000000    0.000000    0.000000
  0.011500000  -24.171820  144.147476  -80.917846   14.500126    0.000000    0.000000    0.000000    0.000000
  0.011750000  -24.369378  140.463837  -60.996285   72.051514    0.000000    0.000000    0.000000    0.000000
  0.012000000  -24.366121  136.939713  -56.708777   86.833366    0.000000    0.000000    0.000000    0.000000
  0.012250000  -24.464086  133.102402  -56.822223   57.439659    0.000000    0.000000    0.000000    0.000000
  0.012500000  -24.328451  130.888321  -56.708702   75.094200    0.000000    0.000000    0.000000    0.000000
  0.012750000  -24.635017  127.008667  -59.687780  102.386612    0.000000    0.000000    0.000000    0.000000
  0.013000000  -24.550197  124.708679  -61.856966 -170.583557    0.000000    0.000000    0.000000    0.000000
  0.013250000  -24.661770  121.241333  -53.777736 -144.394257    0.000000    0.000000    0.000000    0.000000
  0.013500000  -25.066836  117.282722  -47.658400 -148.252518    0.000000    0.000000    0.000000    0.000000
  0.013750000  -24.513977  113.824936  -44.296510 -145.437973    0.000000    0.000000    0.000000    0.000000
  0.014000000  -24.601264  111.515327  -40.817984 -148.441422    0.000000    0.000000    0.000000    0.000000
  0.014250000  -24.720127  107.386375  -37.736237 -151.657013    0.000000    0.000000    0.000000    0.000000
  0.014500000  -24.871521  102.498489  -35.012352 -155.741089    0.000000    0.000000    0.000000    0.000000
  0.014750000  -24.874314  100.965355  -32.916870 -159.690247    0.000000    0.000000    0.000000    0.000000
  0.015000000  -24.776647   96.087135  -31.262857 -164.038483    0.000000    0.000000    0.000000    0.000000
  0.015250000  -24.898640   94.686295  -29.436159 -167.564560    0.000000    0.000000    0.000000    0.000000
  0.015500000  -24.828163   90.951904  -28.005263 -171.651581    0.000000    0.000000    0.000000    0.000000
  0.015750000  -24.617813   87.081268  -26.548987 -176.955063    0.000000    0.000000    0.000000    0.000000
  0.016000000  -24.527594   84.439774  -25.182151  178.743958    0.000000    0.000000    0.000000    0.000000
  0.016250000  -24.436734   79.487801  -23.908679  174.727264    0.000000    0.000000    0.000000    0.000000
  0.016500000  -24.275746   76.610588  -22.939768  170.147354    0.000000    0.000000    0.000000    0.000000
  0.016750000  -24.288166   71.579033  -22.007730  165.161331    0.000000    0.000000    0.000000    0.000000
  0.017000000  -24.300131   68.939186  -21.198546  160.256943    0.000000    0.000000    0.000000    0.000000
  0.017250000  -24.084113   64.898521  -20.439552  155.982300    0.000000    0.000000    0.000000    0.000000
  0.017500000  -24.000007   61.547680  -19.830081  151.126099    0.000000    0.000000    0.000000    0.000000
  0.017750000  -23.934724   59.205383  -19.328423  146.401993    0.000000    0.000000    0.000000    0.000000
  0.018000000  -23.682231   53.944965  -18.916469  141.761551    0.000000    0.000000    0.000000    0.000000
  0.018250000  -23.760257   51.492828  -18.657265  137.182678    0.000000    0.000000    0.000000    0.000000
  0.018500000  -23.597928   47.842030  -18.604193  132.701508    0.000000    0.000000    0.000000    0.000000
  0.018750000  -23.144159   44.139519  -18.733437  128.433655    0.000000    0.000000    0.000000    0.000000
  0.019000000  -23.097695   41.571686  -19.149115  124.113785    0.000000    0.000000    0.000000    0.000000
  0.019250000  -23.239207   38.452682  -19.963986  120.399117    0.000000    0.000000    0.000000    0.000000
  0.019500000  -22.905507   34.851715  -21.381125  117.898994    0.000000    0.000000    0.000000    0.000000
  0.019750000  -22.694479   30.750696  -24.018269  118.075447    0.000000    0.000000    0.000000    0.000000
  0.020000000  -22.563733   27.390705  -29.102483  130.054306    0.000000    0.000000    0.000000    0.000000
  0.020250000  -22.464666   23.587112  -32.539055 -151.197601    0.000000    0.000000    0.000000    0.000000
  0.020500000  -22.180172   19.445885  -23.384160 -113.782333    0.000000    0.000000    0.000000    0.000000
  0.020750000  -21.850372   15.928773  -17.586649 -110.102745    0.000000    0.000000    0.000000    0.000000
  0.021000000  -21.702502   14.082397  -16.388372   84.363098    0.000000    0.000000    0.000000    0.000000
  0.021250000  -21.594712   10.939997   -9.944457 -115.016304    0.000000    0.000000    0.000000    0.000000
  0.021500000  -21.444588    6.832702   -7.164173 -119.347351    0.000000    0.000000    0.000000    0.000000
  0.021750000  -21.263114    2.739169   -4.621510 -124.105400    0.000000    0.000000    0.000000    0.000000
  0.022000000  -21.136631   -1.291976   -2.197093 -129.069855    0.000000    0.000000    0.000000    0.000000
  0.022250000  -20.861123   -5.109468   -0.030928 -134.433289    0.000000    0.000000    0.000000    0.000000
  0.022500000  -20.673136   -8.796518    1.930985 -140.070526    0.000000    0.000000    0.000000    0.000000
  0.022750000  -20.449888  -12.502444    3.850020 -145.886185    0.000000    0.000000    0.000000    0.000000
  0.023000000  -20.352400  -16.475294    5.664905 -151.804764    0.000000    0.000000    0.000000    0.000000
  0.023250000  -20.047202  -19.816097    7.471471 -157.804779    0.000000    0.000000    0.000000    0.000000
  0.023500000  -19.924150  -25.700024    9.174334 -164.120483    0.000000    0.000000    0.000000    0.000000
  0.023750000  -19.453219  -27.430311    9.018843    9.784266    0.000000    0.000000    0.000000    0.000000
  0.024000000  -19.216799  -31.223949   10.671783    3.219021    0.000000    0.000000    0.000000    0.000000
  0.024250000  -18.972975  -35.896175   12.460516   -3.603439    0.000000    0.000000    0.000000    0.000000
  0.024500000  -18.717018  -40.476532   13.975114  -10.813033    0.000000    0.000000    0.000000    0.000000
  0.024750000  -18.561326  -45.204884   15.512487  -18.448830    0.000000    0.000000    0.000000    0.000000
  0.025000000  -18.452313  -50.744827   13.991671  -32.020618    0.000000    0.000000    0.000000    0.000000
  0.025250000  -18.413893  -55.397228   15.511391  -39.964935    0.000000    0.000000    0.000000    0.000000
  0.025500000  -18.002337  -61.125622   16.955050  -48.419868    0.000000    0.000000    0.000000    0.000000
  0.025750000  -18.074037  -67.045731   18.400316  -57.330906    0.000000    0.000000    0.000000    0.000000
  0.026000000  -18.074536  -74.205040   19.842396  -66.564438    0.000000    0.000000    0.000000    0.000000
  0.026250000  -18.009483  -80.079872   21.154852  -76.629074    0.000000    0.000000    0.000000    0.000000
  0.026500000  -18.236455  -86.415947   22.399653  -86.960815    0.000000    0.000000    0.000000    0.000000
  0.026750000  -18.473292  -94.504440   23.588405  -97.915642    0.000000    0.000000    0.000000    0.000000
  0.027000000  -18.974525 -101.793327   24.645759 -109.198227    0.000000    0.000000    0.000000    0.000000
  0.027250000  -19.280416 -109.976448   25.617145 -120.714813    0.000000    0.000000    0.000000    0.000000
  0.027500000  -20.039970 -116.819115   26.454701 -132.363556    0.000000    0.000000    0.000000    0.000000
  0.027750000  -20.974296 -123.650452   27.144871 -143.951416    0.000000    0.000000    0.000000    0.000000
  0.028000000  -22.174355 -129.234711   27.710977 -155.306046    0.000000    0.000000    0.000000    0.000000
  0.028250000  -23.360017 -133.121841   28.166176 -166.415756    0.000000    0.000000    0.000000    0.000000
  0.028500000  -24.993431 -138.371353   28.488708 -177.278015    0.000000    0.000000    0.000000    0.000000
  0.028750000  -26.308079 -138.140793   28.770926  172.490265    0.000000    0.000000    0.000000    0.000000
  0.029000000  -27.886822 -136.968597   28.990723  162.601791    0.000000    0.000000    0.000000    0.000000
  0.029250000  -29.698162 -136.114487   29.182080  153.296417    0.000000    0.000000    0.000000    0.000000
  0.029500000  -30.909317 -124.482590   29.300235  144.311493    0.000000    0.000000    0.000000    0.000000
  0.029750000  -31.912535 -118.417068   29.439682  135.850159    0.000000    0.000000    0.000000    0.000000
  0.030000000  -31.989918 -107.706497   29.521183  127.697571    0.000000    0.000000    0.000000    0.000000
  0.030250000  -31.524068 -100.746201   29.641935  119.893806    0.000000    0.000000    0.000000    0.000000
  0.030500000  -31.208226  -95.500809   29.733757  112.171585    0.000000    0.000000    0.000000    0.000000
  0.030750000  -30.410053  -92.852905   29.808578  104.840698    0.000000    0.000000    0.000000    0.000000
  0.031000000  -30.311787  -94.347565   29.923358   97.704681    0.000000    0.000000    0.000000    0.000000
  0.031250000  -29.347333  -91.569939   29.989892   90.734558    0.000000    0.000000    0.000000    0.000000
  0.031500000  -29.250686  -91.237305   30.075124   84.165009    0.000000    0.000000    0.000000    0.000000
  0.031750000  -28.700293  -92.613159   30.133665   77.623734    0.000000    0.000000    0.000000    0.000000
  0.032000000  -28.494432  -94.751427   30.237533   71.195480    0.000000    0.000000    0.000000    0.000000
  0.032250000  -28.179722  -94.714760   30.366016   64.918816    0.000000    0.000000    0.000000    0.000000
  0.032500000  -28.339538  -92.533066   30.439314   58.656113    0.000000    0.000000    0.000000    0.000000
  0.032750000  -27.891361  -96.491768   30.534793   52.673412    0.000000    0.000000    0.000000    0.000000
  0.033000000  -27.858822  -98.446457   30.639923   46.690773    0.000000    0.000000    0.000000    0.000000
  0.033250000  -27.631943  -98.865486   30.698035   40.885342    0.000000    0.000000    0.000000    0.000000
  0.033500000  -27.935785 -102.328247   30.692595   35.078873    0.000000    0.000000    0.000000    0.000000
  0.033750000  -27.897082 -102.089348   30.740133   29.376268    0.000000    0.000000    0.000000    0.000000
  0.034000000  -27.868023 -105.425377   30.749485   23.670977    0.000000    0.000000    0.000000    0.000000
  0.034250000  -27.885639 -105.192238   30.762850   18.043928    0.000000    0.000000    0.000000    0.000000
  0.034500000  -28.177377 -105.699646   30.825323   12.504707    0.000000    0.000000    0.000000    0.000000
  0.034750000  -27.725677 -107.907326   30.896161    7.064859    0.000000    0.000000    0.000000    0.000000
  0.035000000  -28.074388 -109.546104   30.931085    1.696874    0.000000    0.000000    0.000000    0.000000
  0.035250000  -28.207385 -110.529480   30.986960   -3.543011    0.000000    0.000000    0.000000    0.000000
  0.035500000  -28.231508 -112.596504   30.989648   -8.763983    0.000000    0.000000    0.000000    0.000000
  0.035750000  -28.662609 -110.668434   31.065658  -13.828856    0.000000    0.000000    0.000000    0.000000
  0.036000000  -28.927695 -111.192993   31.109664  -18.801184    0.000000    0.000000    0.000000    0.000000
  0.036250000  -28.741093 -114.315376   31.203179  -23.845854    0.000000    0.000000    0.000000    0.000000
  0.036500000  -28.955380 -112.817802   31.255814  -28.867876    0.000000    0.000000    0.000000    0.000000
  0.036750000  -29.109864 -114.935432   31.350053  -33.727924    0.000000    0.000000    0.000000    0.000000
  0.037000000  -29.293498 -110.716156   31.360753  -38.750557    0.000000    0.000000    0.000000    0.000000
  0.037250000  -29.338864 -113.226173   31.367112  -43.716049    0.000000    0.000000    0.000000    0.000000
  0.037500000  -29.961608 -112.581207   31.379347  -48.610329    0.000000    0.000000    0.000000    0.000000
  0.037750000  -30.114672 -113.562729   31.373584  -53.320362    0.000000    0.000000    0.000000    0.000000
  0.038000000  -29.475447 -114.196495   31.404613  -58.021496    0.000000    0.000000    0.000000    0.000000
  0.038250000  -29.901527 -116.659264   31.395339  -62.755730    0.000000    0.000000    0.000000    0.000000
  0.038500000  -29.858320 -111.191711   31.438710  -67.320145    0.000000    0.000000    0.000000    0.000000
  0.038750000  -30.203825 -112.518593   31.476137  -71.924522    0.000000    0.000000    0.000000    0.000000
  0.039000000  -30.379941 -113.577278   31.474798  -76.554352    0.000000    0.000000    0.000000    0.000000
  0.039250000  -30.640505 -112.307922   31.520463  -81.096008    0.000000    0.000000    0.000000    0.000000
  0.039500000  -30.237559 -108.293808   31.583659  -85.634750    0.000000    0.000000    0.000000    0.000000
  0.039750000  -30.328187 -109.774101   31.590987  -90.232338    0.000000    0.000000    0.000000    0.000000
  0.040000000  -30.248710 -110.184982   31.645520  -94.648384    0.000000    0.000000    0.000000    0.000000
  0.040250000  -30.563672 -108.861046   31.644388  -99.090164    0.000000    0.000000    0.000000    0.000000
  0.040500000  -30.270551 -108.172180   31.688194 -103.405441    0.000000    0.000000    0.000000    0.000000
  0.040750000  -30.260021 -105.741005   31.722044 -107.780853    0.000000    0.000000    0.000000    0.000000
  0.041000000  -30.188914 -107.225838   31.711370 -112.129662    0.000000    0.000000    0.000000    0.000000
  0.041250000  -30.122578 -105.626366   31.755670 -116.355469    0.000000    0.000000    0.000000    0.000000
  0.041500000  -29.926673 -108.688004   31.796331 -120.608994    0.000000    0.000000    0.000000    0.000000
  0.041750000  -30.142646 -106.303429   31.780529 -124.921577    0.000000    0.000000    0.000000    0.000000
  0.042000000  -29.912674 -104.521255   31.788671 -129.184692    0.000000    0.000000    0.000000    0.000000
  0.042250000  -29.932844 -105.423706   31.827417 -133.326675    0.000000    0.000000    0.000000    0.000000
  0.042500000  -29.979893 -103.363831   31.832039 -137.543640    0.000000    0.000000    0.000000    0.000000
  0.042750000  -29.369273 -104.989075   31.888766 -141.808182    0.000000    0.000000    0.000000    0.000000
  0.043000000  -29.838056 -106.547249   31.897530 -146.050552    0.000000    0.000000    0.000000    0.000000
  0.043250000  -29.821038 -104.930099   31.893257 -150.244553    0.000000    0.000000    0.000000    0.000000
  0.043500000  -29.475591 -104.716164   31.952759 -154.428940    0.000000    0.000000    0.000000    0.000000
  0.043750000  -29.163438 -106.712753   31.953376 -158.597733    0.000000    0.000000    0.000000    0.000000
  0.044000000  -29.513477 -107.110626   31.995437 -162.663483    0.000000    0.000000    0.000000    0.000000
  0.044250000  -29.416930 -101.847641   31.997048 -166.793671    0.000000    0.000000    0.000000    0.000000
  0.044500000  -29.507346 -105.799561   32.017538 -170.729919    0.000000    0.000000    0.000000    0.000000
  0.044750000  -29.295951 -106.762573   32.004508 -174.842133    0.000000    0.000000    0.000000    0.000000
  0.045000000  -29.010752 -107.373161   31.991236 -178.982758    0.000000    0.000000    0.000000    0.000000
  0.045250000  -28.869464 -107.450470   32.022847  177.129913    0.000000    0.000000    0.000000    0.000000
  0.045500000  -28.653451 -107.020775   32.023693  173.059067    0.000000    0.000000    0.000000    0.000000
  0.045750000  -28.544708 -109.249687   32.073272  169.048416    0.000000    0.000000    0.000000    0.000000
  0.046000000  -29.028752 -107.747368   32.077821  165.081360    0.000000    0.000000    0.000000    0.000000
  0.046250000  -28.953365 -109.880119   32.123624  161.040802    0.000000    0.000000    0.000000    0.000000
  0.046500000  -28.715427 -109.508980   32.129714  157.044556    0.000000    0.000000    0.000000    0.000000
  0.046750000  -28.624461 -110.609261   32.133134  152.989426    0.000000    0.000000    0.000000    0.000000
  0.047000000  -28.261706 -111.324089   32.131493  148.958817    0.000000    0.000000    0.000000    0.000000
  0.047250000  -28.477558 -111.544090   32.130443  144.926239    0.000000    0.000000    0.000000    0.000000
  0.047500000  -28.419269 -115.507347   32.188235  140.993423    0.000000    0.000000    0.000000    0.000000
  0.047750000  -28.558617 -111.107025   32.181357  136.922287    0.000000    0.000000    0.000000    0.000000
  0.048000000  -28.302041 -112.932564   32.182594  133.013977    0.000000    0.000000    0.000000    0.000000
  0.048250000  -28.651327 -113.203217   32.228021  129.085892    0.000000    0.000000    0.000000    0.000000
  0.048500000  -28.555118 -115.742859   32.220110  125.192535    0.000000    0.000000    0.000000    0.000000
  0.048750000  -28.585065 -117.662903   32.262521  121.340088    0.000000    0.000000    0.000000    0.000000
  0.049000000  -28.355246 -115.958305   32.263110  117.426674    0.000000    0.000000    0.000000    0.000000
  0.049250000  -28.595734 -119.242195   32.245160  113.594437    0.000000    0.000000    0.000000    0.000000
  0.049500000  -28.317938 -117.732613   32.228699  109.719894    0.000000    0.000000    0.000000    0.000000
  0.049750000  -28.496167 -117.617905   32.226580  105.905739    0.000000    0.000000    0.000000    0.000000
  0.050000000  -29.068985 -119.442726   28.427702   94.827393    0.000000    0.000000    0.000000    0.000000
  0.050250000  -29.015894 -120.628105   28.454200   90.921547    0.000000    0.000000    0.000000    0.000000
  0.050500000  -28.883007 -121.932930   28.461658   87.150284    0.000000    0.000000    0.000000    0.000000
  0.050750000  -29.065369 -119.928520   28.485314   83.298157    0.000000    0.000000    0.000000    0.000000
  0.051000000  -28.520362 -120.849594   28.504265   79.478065    0.000000    0.000000    0.000000    0.000000
