! Anritsu VNA Master:                     Model: MS2036C/10/77
! SN:                                  1601066
! /bd0/18may08.cable.cal/bot.19p46.1.s2p
! Existing Calibration Information:
! TYPE:                         Current Settings,       Active Cal Settings
! TIME:             	   05/08/2018 03:29:46 PM,    05/08/2018 03:25:16 PM
! INTERNAL TEMP:    	                   52.8 C,                    53.3 C
! # POINTS:         	                      500,                       500
! START FREQ:       	               20.000 MHz,                20.000 MHz
! STOP FREQ:        	              120.000 MHz,               120.000 MHz
! SOURCE POWER:     	                     High,                      High
! IFBW:             	                    50 Hz,                     50 Hz
! AVG FACTOR:       	                       1 ,                        1 
! REF PLANE 1:      	                     0 mm,                      0 mm
! REF PLANE 2:      	                     0 mm,                      0 mm
! CAL TYPE:         	                 Full S11,                  Full S11
! CAL METHOD:       	                     SOLT,                      SOLT
! CAL LINE TYPE:    	                     Coax,                      Coax
! DUT PORT 1:       	                K-Conn(F),                 K-Conn(F)
! DUT PORT 2:       	                K-Conn(F),                 K-Conn(F)
! CAL STATUS:       	        OK: Accuracy High,                        --
# GHZ S DB R 50.0
! FREQ.GHZ       S11DB        S11A       S21DB        S21A       S12DB        S12A       S22DB        S22A
  0.020000000   -7.234502  155.919067  -90.818500   38.033375    0.000000    0.000000    0.000000    0.000000
  0.020200401   -7.234931  155.699936  -91.476963   37.097771    0.000000    0.000000    0.000000    0.000000
  0.020400802   -7.236186  155.461838  -91.165392   35.210026    0.000000    0.000000    0.000000    0.000000
  0.020601202   -7.237344  155.229172  -91.437290   33.926296    0.000000    0.000000    0.000000    0.000000
  0.020801603   -7.236704  154.994553  -91.562273   35.527370    0.000000    0.000000    0.000000    0.000000
  0.021002004   -7.237556  154.747040  -91.228659   34.260674    0.000000    0.000000    0.000000    0.000000
  0.021202405   -7.237019  154.512512  -92.035049   36.055107    0.000000    0.000000    0.000000    0.000000
  0.021402806   -7.236347  154.285446  -92.326228   35.558464    0.000000    0.000000    0.000000    0.000000
  0.021603206   -7.237518  154.045197  -92.000168   32.162304    0.000000    0.000000    0.000000    0.000000
  0.021803607   -7.239418  153.815826  -92.046196   28.863567    0.000000    0.000000    0.000000    0.000000
  0.022004008   -7.239187  153.585663  -92.149284   33.115196    0.000000    0.000000    0.000000    0.000000
  0.022204409   -7.240358  153.341125  -92.379647   36.019844    0.000000    0.000000    0.000000    0.000000
  0.022404810   -7.240518  153.111359  -92.441717   29.539660    0.000000    0.000000    0.000000    0.000000
  0.022605210   -7.240118  152.876175  -91.686271   30.336508    0.000000    0.000000    0.000000    0.000000
  0.022805611   -7.241644  152.639603  -92.809196   29.445543    0.000000    0.000000    0.000000    0.000000
  0.023006012   -7.242273  152.404343  -92.463638   30.555244    0.000000    0.000000    0.000000    0.000000
  0.023206413   -7.243765  152.157333  -92.582387   27.555792    0.000000    0.000000    0.000000    0.000000
  0.023406814   -7.242067  151.920746  -92.697777   29.561878    0.000000    0.000000    0.000000    0.000000
  0.023607214   -7.245595  151.700531  -93.075385   26.258013    0.000000    0.000000    0.000000    0.000000
  0.023807615   -7.245817  151.463150  -92.990458   24.191704    0.000000    0.000000    0.000000    0.000000
  0.024008016   -7.243828  151.214401  -92.941908   29.123991    0.000000    0.000000    0.000000    0.000000
  0.024208417   -7.246112  150.976089  -92.797171   26.638849    0.000000    0.000000    0.000000    0.000000
  0.024408818   -7.245356  150.741684  -93.199720   25.702726    0.000000    0.000000    0.000000    0.000000
  0.024609218   -7.245074  150.516983  -93.270203   24.641151    0.000000    0.000000    0.000000    0.000000
  0.024809619   -7.247199  150.264969  -93.930973   23.044624    0.000000    0.000000    0.000000    0.000000
  0.025010020   -7.248498  150.039108  -94.010892   25.901602    0.000000    0.000000    0.000000    0.000000
  0.025210421   -7.248188  149.807236  -94.339601   24.129742    0.000000    0.000000    0.000000    0.000000
  0.025410822   -7.246147  149.564850  -93.895850   23.727222    0.000000    0.000000    0.000000    0.000000
  0.025611222   -7.251030  149.332489  -94.876578   22.525517    0.000000    0.000000    0.000000    0.000000
  0.025811623   -7.248542  149.105804  -94.396842   18.171356    0.000000    0.000000    0.000000    0.000000
  0.026012024   -7.249612  148.866959  -94.312879   21.485041    0.000000    0.000000    0.000000    0.000000
  0.026212425   -7.249991  148.626572  -94.379945   18.860664    0.000000    0.000000    0.000000    0.000000
  0.026412826   -7.249752  148.397781  -95.239341   21.810850    0.000000    0.000000    0.000000    0.000000
  0.026613226   -7.249827  148.156311  -95.709351   16.108624    0.000000    0.000000    0.000000    0.000000
  0.026813627   -7.249498  147.913208  -94.850454   20.266420    0.000000    0.000000    0.000000    0.000000
  0.027014028   -7.247893  147.674500  -95.532331   20.999584    0.000000    0.000000    0.000000    0.000000
  0.027214429   -7.249528  147.447113  -94.888766   20.274733    0.000000    0.000000    0.000000    0.000000
  0.027414830   -7.249650  147.205566  -95.863077   17.947229    0.000000    0.000000    0.000000    0.000000
  0.027615230   -7.249662  146.964920  -95.608753   20.084778    0.000000    0.000000    0.000000    0.000000
  0.027815631   -7.251712  146.748734  -95.469784   20.643150    0.000000    0.000000    0.000000    0.000000
  0.028016032   -7.249289  146.508224  -95.596362   19.057970    0.000000    0.000000    0.000000    0.000000
  0.028216433   -7.250416  146.277573  -96.658468   17.679003    0.000000    0.000000    0.000000    0.000000
  0.028416834   -7.250724  146.036652  -96.152310   20.968748    0.000000    0.000000    0.000000    0.000000
  0.028617234   -7.248804  145.792755  -96.551285   21.030399    0.000000    0.000000    0.000000    0.000000
  0.028817635   -7.248784  145.570374  -96.006747   16.964588    0.000000    0.000000    0.000000    0.000000
  0.029018036   -7.248004  145.341064  -96.597075   16.816896    0.000000    0.000000    0.000000    0.000000
  0.029218437   -7.248914  145.106964  -96.015760   16.667780    0.000000    0.000000    0.000000    0.000000
  0.029418838   -7.248446  144.874329  -95.741555   11.983109    0.000000    0.000000    0.000000    0.000000
  0.029619238   -7.246326  144.635666  -96.544356    9.476419    0.000000    0.000000    0.000000    0.000000
  0.029819639   -7.246530  144.412216  -96.766024   12.343591    0.000000    0.000000    0.000000    0.000000
  0.030020040   -7.245635  144.165070  -96.582530   14.732609    0.000000    0.000000    0.000000    0.000000
  0.030220441   -7.245304  143.936172  -96.757687   19.270052    0.000000    0.000000    0.000000    0.000000
  0.030420842   -7.244703  143.698776  -97.213787   14.661198    0.000000    0.000000    0.000000    0.000000
  0.030621242   -7.243975  143.456070  -97.101118    9.505176    0.000000    0.000000    0.000000    0.000000
  0.030821643   -7.243685  143.220169  -96.364504   11.844652    0.000000    0.000000    0.000000    0.000000
  0.031022044   -7.242487  142.985123  -97.003182   12.002759    0.000000    0.000000    0.000000    0.000000
  0.031222445   -7.223157  142.844833  -97.195482    6.220816    0.000000    0.000000    0.000000    0.000000
  0.031422846   -7.220689  142.621750  -96.559162    3.949347    0.000000    0.000000    0.000000    0.000000
  0.031623246   -7.222831  142.344147  -98.190463    8.687440    0.000000    0.000000    0.000000    0.000000
  0.031823647   -7.224405  142.125656  -97.994556    7.735922    0.000000    0.000000    0.000000    0.000000
  0.032024048   -7.223002  141.880371  -97.598736    8.419243    0.000000    0.000000    0.000000    0.000000
  0.032224449   -7.223004  141.636719  -98.175704    4.612151    0.000000    0.000000    0.000000    0.000000
  0.032424850   -7.222714  141.401871  -97.955447    7.893496    0.000000    0.000000    0.000000    0.000000
  0.032625251   -7.224642  141.155167  -98.070815   11.932740    0.000000    0.000000    0.000000    0.000000
  0.032825651   -7.223826  140.918457  -98.041727    9.312321    0.000000    0.000000    0.000000    0.000000
  0.033026052   -7.224641  140.670990  -98.994106    9.876557    0.000000    0.000000    0.000000    0.000000
  0.033226453   -7.225496  140.442902  -98.296047    7.628858    0.000000    0.000000    0.000000    0.000000
  0.033426854   -7.226490  140.195740  -97.512954   13.716474    0.000000    0.000000    0.000000    0.000000
  0.033627255   -7.224412  139.938202  -99.292629    8.228090    0.000000    0.000000    0.000000    0.000000
  0.033827655   -7.226353  139.710129  -97.578073    5.294648    0.000000    0.000000    0.000000    0.000000
  0.034028056   -7.225533  139.481171  -99.543424   11.700723    0.000000    0.000000    0.000000    0.000000
  0.034228457   -7.226803  139.228973  -98.882505   10.542769    0.000000    0.000000    0.000000    0.000000
  0.034428858   -7.227555  138.992325  -98.648241    3.336244    0.000000    0.000000    0.000000    0.000000
  0.034629259   -7.227533  138.747543  -98.380220   12.356858    0.000000    0.000000    0.000000    0.000000
  0.034829659   -7.228755  138.513214  -98.437739    6.760007    0.000000    0.000000    0.000000    0.000000
  0.035030060   -7.229078  138.287323  -98.110139    5.543098    0.000000    0.000000    0.000000    0.000000
  0.035230461   -7.229677  138.036819  -99.052281    6.996632    0.000000    0.000000    0.000000    0.000000
  0.035430862   -7.229724  137.792694  -98.765917    9.140794    0.000000    0.000000    0.000000    0.000000
  0.035631263   -7.230745  137.563004  -98.968229    9.130941    0.000000    0.000000    0.000000    0.000000
  0.035831663   -7.231277  137.325699  -99.995907   10.118360    0.000000    0.000000    0.000000    0.000000
  0.036032064   -7.230383  137.086838  -99.422431   16.549767    0.000000    0.000000    0.000000    0.000000
  0.036232465   -7.230837  136.850510  -98.873366    4.101933    0.000000    0.000000    0.000000    0.000000
  0.036432866   -7.229995  136.621857  -99.327876    4.135962    0.000000    0.000000    0.000000    0.000000
  0.036633267   -7.230381  136.390320 -101.098771    5.276883    0.000000    0.000000    0.000000    0.000000
  0.036833667   -7.230347  136.148087  -99.608545    1.088709    0.000000    0.000000    0.000000    0.000000
  0.037034068   -7.229700  135.920181  -99.937785   17.145716    0.000000    0.000000    0.000000    0.000000
  0.037234469   -7.230803  135.679596  -99.293228   -8.516792    0.000000    0.000000    0.000000    0.000000
  0.037434870   -7.231321  135.445435 -101.243046    0.323223    0.000000    0.000000    0.000000    0.000000
  0.037635271   -7.229269  135.204315  -99.844547    1.290761    0.000000    0.000000    0.000000    0.000000
  0.037835671   -7.229930  134.968796 -100.728946   12.236495    0.000000    0.000000    0.000000    0.000000
  0.038036072   -7.229551  134.727966  -99.984747   -2.465820    0.000000    0.000000    0.000000    0.000000
  0.038236473   -7.228741  134.501053  -99.940740   13.683219    0.000000    0.000000    0.000000    0.000000
  0.038436874   -7.230572  134.272552 -101.361555   -0.982338    0.000000    0.000000    0.000000    0.000000
  0.038637275   -7.229559  134.040070 -100.541449   10.172808    0.000000    0.000000    0.000000    0.000000
  0.038837675   -7.229961  133.809296 -100.915147    3.068407    0.000000    0.000000    0.000000    0.000000
  0.039038076   -7.229157  133.569260  -99.651492  -14.113085    0.000000    0.000000    0.000000    0.000000
  0.039238477   -7.228837  133.342300 -101.871607   -4.722678    0.000000    0.000000    0.000000    0.000000
  0.039438878   -7.228888  133.087112  -99.391192   -2.444949    0.000000    0.000000    0.000000    0.000000
  0.039639279   -7.228606  132.863251  -99.356700    8.035950    0.000000    0.000000    0.000000    0.000000
  0.039839679   -7.228475  132.637222 -100.961854   10.121281    0.000000    0.000000    0.000000    0.000000
  0.040040080   -7.227736  132.424744 -100.555573   13.717752    0.000000    0.000000    0.000000    0.000000
  0.040240481   -7.228424  132.174988 -100.701301    4.227980    0.000000    0.000000    0.000000    0.000000
  0.040440882   -7.228405  131.942184 -101.537996   10.613417    0.000000    0.000000    0.000000    0.000000
  0.040641283   -7.228382  131.717056 -100.190048    1.717583    0.000000    0.000000    0.000000    0.000000
  0.040841683   -7.227349  131.474014 -100.991729    7.099165    0.000000    0.000000    0.000000    0.000000
  0.041042084   -7.226626  131.252289 -100.453535   11.878318    0.000000    0.000000    0.000000    0.000000
  0.041242485   -7.227478  131.005646 -102.797764    1.550789    0.000000    0.000000    0.000000    0.000000
  0.041442886   -7.226026  130.761032 -100.026760    5.731552    0.000000    0.000000    0.000000    0.000000
  0.041643287   -7.225823  130.544540 -103.447977   14.690625    0.000000    0.000000    0.000000    0.000000
  0.041843687   -7.225403  130.307846  -99.768410   16.777515    0.000000    0.000000    0.000000    0.000000
  0.042044088   -7.224297  130.084381 -102.998759   15.326637    0.000000    0.000000    0.000000    0.000000
  0.042244489   -7.223468  129.840073 -101.698495    3.672855    0.000000    0.000000    0.000000    0.000000
  0.042444890   -7.225007  129.617813 -102.358713   11.512687    0.000000    0.000000    0.000000    0.000000
  0.042645291   -7.224067  129.376785 -101.613432   -1.872743    0.000000    0.000000    0.000000    0.000000
  0.042845691   -7.222494  129.150558 -102.138061   -4.375214    0.000000    0.000000    0.000000    0.000000
  0.043046092   -7.223886  128.908279 -100.862983    5.094357    0.000000    0.000000    0.000000    0.000000
  0.043246493   -7.221677  128.680435 -101.780182   18.950455    0.000000    0.000000    0.000000    0.000000
  0.043446894   -7.222317  128.448868 -102.790308    8.589635    0.000000    0.000000    0.000000    0.000000
  0.043647295   -7.222064  128.220566 -104.680322    2.757377    0.000000    0.000000    0.000000    0.000000
  0.043847695   -7.221644  127.992966 -103.419948   16.764315    0.000000    0.000000    0.000000    0.000000
  0.044048096   -7.219155  127.750694 -100.031603    1.921325    0.000000    0.000000    0.000000    0.000000
  0.044248497   -7.221546  127.521461 -102.791699    3.554129    0.000000    0.000000    0.000000    0.000000
  0.044448898   -7.219333  127.279755 -102.938248   27.224091    0.000000    0.000000    0.000000    0.000000
  0.044649299   -7.218474  127.033501 -100.257660   17.191416    0.000000    0.000000    0.000000    0.000000
  0.044849699   -7.221233  126.803635 -102.040202   15.665978    0.000000    0.000000    0.000000    0.000000
  0.045050100   -7.219734  126.578217 -101.701855    5.932760    0.000000    0.000000    0.000000    0.000000
  0.045250501   -7.220417  126.352516 -104.129721    3.133193    0.000000    0.000000    0.000000    0.000000
  0.045450902   -7.218245  126.104088 -102.782460    9.823138    0.000000    0.000000    0.000000    0.000000
  0.045651303   -7.219110  125.858231 -103.397343    6.727671    0.000000    0.000000    0.000000    0.000000
  0.045851703   -7.217052  125.636642 -101.849385    5.296771    0.000000    0.000000    0.000000    0.000000
  0.046052104   -7.214292  125.390060 -103.218003   12.161258    0.000000    0.000000    0.000000    0.000000
  0.046252505   -7.217624  125.170265 -103.126030   22.995647    0.000000    0.000000    0.000000    0.000000
  0.046452906   -7.216069  124.938957 -104.052295    6.269508    0.000000    0.000000    0.000000    0.000000
  0.046653307   -7.216118  124.688354 -102.905118   16.834352    0.000000    0.000000    0.000000    0.000000
  0.046853707   -7.215712  124.451439 -102.051963   12.719381    0.000000    0.000000    0.000000    0.000000
  0.047054108   -7.213471  124.220169 -101.892563    4.457391    0.000000    0.000000    0.000000    0.000000
  0.047254509   -7.213978  123.989677 -101.567173   -2.555276    0.000000    0.000000    0.000000    0.000000
  0.047454910   -7.211461  123.750717 -102.977257    9.886104    0.000000    0.000000    0.000000    0.000000
  0.047655311   -7.212292  123.513481 -102.766277    4.109691    0.000000    0.000000    0.000000    0.000000
  0.047855711   -7.211252  123.277687 -104.587361   22.139977    0.000000    0.000000    0.000000    0.000000
  0.048056112   -7.210745  123.051933 -104.320514   -8.679512    0.000000    0.000000    0.000000    0.000000
  0.048256513   -7.210962  122.808456 -104.518357    4.025629    0.000000    0.000000    0.000000    0.000000
  0.048456914   -7.210292  122.584953 -103.026121   15.588624    0.000000    0.000000    0.000000    0.000000
  0.048657315   -7.207584  122.333931 -102.812659   21.518646    0.000000    0.000000    0.000000    0.000000
  0.048857715   -7.208396  122.097237 -101.584673    4.867338    0.000000    0.000000    0.000000    0.000000
  0.049058116   -7.207797  121.862442 -103.275206    9.205147    0.000000    0.000000    0.000000    0.000000
  0.049258517   -7.206541  121.621902 -100.937226   13.236248    0.000000    0.000000    0.000000    0.000000
  0.049458918   -7.206402  121.405014 -101.452061   11.504450    0.000000    0.000000    0.000000    0.000000
  0.049659319   -7.205197  121.176094 -103.753340   17.921055    0.000000    0.000000    0.000000    0.000000
  0.049859719   -7.204911  120.941460 -101.959133    4.387083    0.000000    0.000000    0.000000    0.000000
  0.050060120   -7.203911  120.709045 -104.795588   10.474103    0.000000    0.000000    0.000000    0.000000
  0.050260521   -7.202946  120.474945 -101.081898   -1.794510    0.000000    0.000000    0.000000    0.000000
  0.050460922   -7.200111  120.245056 -104.927711  -14.226856    0.000000    0.000000    0.000000    0.000000
  0.050661323   -7.201054  120.022827 -101.821403    2.711798    0.000000    0.000000    0.000000    0.000000
  0.050861723   -7.200467  119.765923 -104.308808    4.904080    0.000000    0.000000    0.000000    0.000000
  0.051062124   -7.202261  119.527489 -102.067785   12.551264    0.000000    0.000000    0.000000    0.000000
  0.051262525   -7.201113  119.301682 -100.715344   16.680079    0.000000    0.000000    0.000000    0.000000
  0.051462926   -7.199249  119.079063 -100.977160    6.343756    0.000000    0.000000    0.000000    0.000000
  0.051663327   -7.199454  118.866615 -104.537882   -1.046554    0.000000    0.000000    0.000000    0.000000
  0.051863727   -7.196824  118.605377 -102.348718   17.073042    0.000000    0.000000    0.000000    0.000000
  0.052064128   -7.196636  118.376892 -103.808712    3.778356    0.000000    0.000000    0.000000    0.000000
  0.052264529   -7.196248  118.126923 -101.379442    8.502625    0.000000    0.000000    0.000000    0.000000
  0.052464930   -7.192808  117.908760 -101.764107   10.108365    0.000000    0.000000    0.000000    0.000000
  0.052665331   -7.193987  117.677422 -103.281464    7.300892    0.000000    0.000000    0.000000    0.000000
  0.052865731   -7.194503  117.444382 -102.304530   18.551414    0.000000    0.000000    0.000000    0.000000
