! Anritsu VNA Master:                     Model: MS2036C/10/77
! SN:                                  1601066
! /bd0/18may08.cable.cal/bot.50.2.s2p
! Existing Calibration Information:
! TYPE:                         Current Settings,       Active Cal Settings
! TIME:             	   05/08/2018 06:09:48 PM,    05/08/2018 05:57:55 PM
! INTERNAL TEMP:    	                   49.3 C,                    49.3 C
! # POINTS:         	                      500,                       500
! START FREQ:       	               20.000 MHz,                20.000 MHz
! STOP FREQ:        	              120.000 MHz,               120.000 MHz
! SOURCE POWER:     	                     High,                      High
! IFBW:             	                    50 Hz,                     50 Hz
! AVG FACTOR:       	                       1 ,                        1 
! REF PLANE 1:      	                     0 mm,                      0 mm
! REF PLANE 2:      	                     0 mm,                      0 mm
! CAL TYPE:         	                 Full S11,                  Full S11
! CAL METHOD:       	                     SOLT,                      SOLT
! CAL LINE TYPE:    	                     Coax,                      Coax
! DUT PORT 1:       	                K-Conn(F),                 K-Conn(F)
! DUT PORT 2:       	                K-Conn(F),                 K-Conn(F)
! CAL STATUS:       	        OK: Accuracy High,                        --
# GHZ S DB R 50.0
! FREQ.GHZ       S11DB        S11A       S21DB        S21A       S12DB        S12A       S22DB        S22A
  0.020000000  -38.816304   57.450996  -91.618742   31.502844    0.000000    0.000000    0.000000    0.000000
  0.020200401  -38.761789   57.058414  -90.777230   34.390167    0.000000    0.000000    0.000000    0.000000
  0.020400802  -38.678000   56.914799  -91.065897   36.690128    0.000000    0.000000    0.000000    0.000000
  0.020601202  -38.559694   57.163723  -91.740121   37.997166    0.000000    0.000000    0.000000    0.000000
  0.020801603  -38.562131   57.316002  -91.249510   34.540997    0.000000    0.000000    0.000000    0.000000
  0.021002004  -38.562403   56.857861  -92.325858   36.099125    0.000000    0.000000    0.000000    0.000000
  0.021202405  -38.440058   56.825096  -91.713094   31.816231    0.000000    0.000000    0.000000    0.000000
  0.021402806  -38.427479   56.543457  -92.221259   32.163548    0.000000    0.000000    0.000000    0.000000
  0.021603206  -38.312935   56.608627  -92.559625   34.258808    0.000000    0.000000    0.000000    0.000000
  0.021803607  -38.288916   56.973072  -92.532435   31.782555    0.000000    0.000000    0.000000    0.000000
  0.022004008  -38.265596   56.016331  -92.409647   31.921740    0.000000    0.000000    0.000000    0.000000
  0.022204409  -38.173719   56.574722  -92.070029   34.536457    0.000000    0.000000    0.000000    0.000000
  0.022404810  -38.131637   56.223072  -92.609653   29.653013    0.000000    0.000000    0.000000    0.000000
  0.022605210  -38.068309   55.832153  -92.324909   29.342646    0.000000    0.000000    0.000000    0.000000
  0.022805611  -37.997296   55.897495  -93.800357   27.250942    0.000000    0.000000    0.000000    0.000000
  0.023006012  -37.906242   55.822189  -93.814779   29.459291    0.000000    0.000000    0.000000    0.000000
  0.023206413  -37.935173   56.140404  -93.266626   25.613335    0.000000    0.000000    0.000000    0.000000
  0.023406814  -37.875249   56.066265  -92.829912   23.807194    0.000000    0.000000    0.000000    0.000000
  0.023607214  -37.786523   56.283291  -93.390781   24.580490    0.000000    0.000000    0.000000    0.000000
  0.023807615  -37.689625   56.024708  -93.851553   26.408659    0.000000    0.000000    0.000000    0.000000
  0.024008016  -37.595292   55.850609  -94.643821   26.477093    0.000000    0.000000    0.000000    0.000000
  0.024208417  -37.634245   55.631561  -93.676555   25.097338    0.000000    0.000000    0.000000    0.000000
  0.024408818  -37.570476   55.865025  -93.930064   21.971895    0.000000    0.000000    0.000000    0.000000
  0.024609218  -37.546591   55.977203  -94.523771   26.631971    0.000000    0.000000    0.000000    0.000000
  0.024809619  -37.480182   55.422104  -94.176991   24.931025    0.000000    0.000000    0.000000    0.000000
  0.025010020  -37.329069   55.159977  -93.763894   26.708601    0.000000    0.000000    0.000000    0.000000
  0.025210421  -37.427697   55.396603  -94.405118   25.245668    0.000000    0.000000    0.000000    0.000000
  0.025410822  -37.317604   55.368618  -94.351258   21.460875    0.000000    0.000000    0.000000    0.000000
  0.025611222  -37.223597   55.177677  -93.886034   28.460730    0.000000    0.000000    0.000000    0.000000
  0.025811623  -37.227739   55.077812  -94.566962   25.225019    0.000000    0.000000    0.000000    0.000000
  0.026012024  -37.189388   55.121109  -94.611970   24.250166    0.000000    0.000000    0.000000    0.000000
  0.026212425  -37.090663   54.954422  -94.488803   23.802715    0.000000    0.000000    0.000000    0.000000
  0.026412826  -37.063371   55.166908  -95.126952   20.194103    0.000000    0.000000    0.000000    0.000000
  0.026613226  -37.077667   54.831047  -95.441312   21.930487    0.000000    0.000000    0.000000    0.000000
  0.026813627  -36.995686   54.902725  -95.793929   17.326487    0.000000    0.000000    0.000000    0.000000
  0.027014028  -36.943953   55.014515  -95.387056   16.147367    0.000000    0.000000    0.000000    0.000000
  0.027214429  -36.856010   54.567299  -96.030195   19.947340    0.000000    0.000000    0.000000    0.000000
  0.027414830  -36.787447   54.829407  -95.345133   24.921722    0.000000    0.000000    0.000000    0.000000
  0.027615230  -36.796625   54.639965  -96.028381   16.330547    0.000000    0.000000    0.000000    0.000000
  0.027815631  -36.730480   54.370117  -96.079221   23.605551    0.000000    0.000000    0.000000    0.000000
  0.028016032  -36.759716   54.549274  -96.028850   19.223425    0.000000    0.000000    0.000000    0.000000
  0.028216433  -36.619465   54.604458  -95.718505   23.917585    0.000000    0.000000    0.000000    0.000000
  0.028416834  -36.609800   54.210049  -95.957194   20.093422    0.000000    0.000000    0.000000    0.000000
  0.028617234  -36.558454   54.206379  -95.716332   22.015953    0.000000    0.000000    0.000000    0.000000
  0.028817635  -36.499259   53.826218  -96.543732   19.641356    0.000000    0.000000    0.000000    0.000000
  0.029018036  -36.529775   53.943966  -95.930294   21.619473    0.000000    0.000000    0.000000    0.000000
  0.029218437  -36.458244   54.146572  -96.371685   13.969897    0.000000    0.000000    0.000000    0.000000
  0.029418838  -36.405270   53.668541  -96.572352   16.807165    0.000000    0.000000    0.000000    0.000000
  0.029619238  -36.320918   53.662086  -97.454839   20.743166    0.000000    0.000000    0.000000    0.000000
  0.029819639  -36.256780   53.721275  -96.662136   16.960682    0.000000    0.000000    0.000000    0.000000
  0.030020040  -36.268042   53.534996  -95.769588   16.023241    0.000000    0.000000    0.000000    0.000000
  0.030220441  -36.230648   53.293823  -96.415829   11.055048    0.000000    0.000000    0.000000    0.000000
  0.030420842  -36.187469   53.750751  -97.033793   17.218853    0.000000    0.000000    0.000000    0.000000
  0.030621242  -36.101878   53.514687  -96.619712   14.716913    0.000000    0.000000    0.000000    0.000000
  0.030821643  -36.081793   53.351395  -98.444526   17.871685    0.000000    0.000000    0.000000    0.000000
  0.031022044  -36.061107   53.165562  -97.405020   16.544073    0.000000    0.000000    0.000000    0.000000
  0.031222445  -35.991638   53.682892  -97.119705   23.883989    0.000000    0.000000    0.000000    0.000000
  0.031422846  -35.951737   53.234531  -96.888105   12.820691    0.000000    0.000000    0.000000    0.000000
  0.031623246  -36.009245   53.319565  -97.346413    8.446168    0.000000    0.000000    0.000000    0.000000
  0.031823647  -35.891967   53.201984  -98.269056   14.725126    0.000000    0.000000    0.000000    0.000000
  0.032024048  -35.863210   53.312546  -97.752522   12.505414    0.000000    0.000000    0.000000    0.000000
  0.032224449  -35.786130   52.557125  -96.744197   16.940641    0.000000    0.000000    0.000000    0.000000
  0.032424850  -35.789585   52.557880  -97.031274    4.299363    0.000000    0.000000    0.000000    0.000000
  0.032625251  -35.767950   52.714172  -97.806918   10.560715    0.000000    0.000000    0.000000    0.000000
  0.032825651  -35.694354   52.583584  -97.519836   13.095272    0.000000    0.000000    0.000000    0.000000
  0.033026052  -35.709634   52.297470  -97.232367   14.065143    0.000000    0.000000    0.000000    0.000000
  0.033226453  -35.620780   52.026009  -97.476589   12.736423    0.000000    0.000000    0.000000    0.000000
  0.033426854  -35.618728   52.963779  -97.696372   10.967328    0.000000    0.000000    0.000000    0.000000
  0.033627255  -35.556528   52.312778  -99.317759   22.545149    0.000000    0.000000    0.000000    0.000000
  0.033827655  -35.481663   52.191177  -98.614900    3.324407    0.000000    0.000000    0.000000    0.000000
  0.034028056  -35.535800   52.007557  -98.901846   12.015079    0.000000    0.000000    0.000000    0.000000
  0.034228457  -35.429536   51.943871  -98.214693   16.477348    0.000000    0.000000    0.000000    0.000000
  0.034428858  -35.417160   52.096020  -96.858137   11.001623    0.000000    0.000000    0.000000    0.000000
  0.034629259  -35.400679   51.568043  -98.760777    0.019035    0.000000    0.000000    0.000000    0.000000
  0.034829659  -35.336055   51.722744  -99.429955   15.568876    0.000000    0.000000    0.000000    0.000000
  0.035030060  -35.248401   51.640305  -98.133166    0.094349    0.000000    0.000000    0.000000    0.000000
  0.035230461  -35.252419   51.720375  -98.757256   19.142265    0.000000    0.000000    0.000000    0.000000
  0.035430862  -35.231317   51.465870  -99.008836    7.673584    0.000000    0.000000    0.000000    0.000000
  0.035631263  -35.221435   51.472130  -98.673704    5.256981    0.000000    0.000000    0.000000    0.000000
  0.035831663  -35.158634   50.985817  -97.341387    5.649388    0.000000    0.000000    0.000000    0.000000
  0.036032064  -35.179312   51.267040  -98.414097    9.219160    0.000000    0.000000    0.000000    0.000000
  0.036232465  -35.111818   50.937519  -99.914283    9.869929    0.000000    0.000000    0.000000    0.000000
  0.036432866  -35.120990   51.105732  -99.659505    1.093578    0.000000    0.000000    0.000000    0.000000
  0.036633267  -35.086832   51.353203  -99.191322   13.719213    0.000000    0.000000    0.000000    0.000000
  0.036833667  -35.056551   50.785393  -98.768254   15.905429    0.000000    0.000000    0.000000    0.000000
  0.037034068  -34.944947   50.853725  -98.872860   10.690879    0.000000    0.000000    0.000000    0.000000
  0.037234469  -34.918811   51.023289  -99.251974   16.557808    0.000000    0.000000    0.000000    0.000000
  0.037434870  -34.940077   50.497318  -99.127928   -2.454285    0.000000    0.000000    0.000000    0.000000
  0.037635271  -34.904319   50.428265  -99.633688    0.773972    0.000000    0.000000    0.000000    0.000000
  0.037835671  -34.840318   50.399975 -100.397116    6.079426    0.000000    0.000000    0.000000    0.000000
  0.038036072  -34.784428   50.331532 -100.181724   11.220469    0.000000    0.000000    0.000000    0.000000
  0.038236473  -34.766466   50.152786  -99.015809   14.035896    0.000000    0.000000    0.000000    0.000000
  0.038436874  -34.782371   50.619770  -99.089934    5.148972    0.000000    0.000000    0.000000    0.000000
  0.038637275  -34.682878   50.326084  -99.464601   11.697668    0.000000    0.000000    0.000000    0.000000
  0.038837675  -34.729502   49.823376  -99.933059   13.588574    0.000000    0.000000    0.000000    0.000000
  0.039038076  -34.631083   50.039124  -99.674520    7.803140    0.000000    0.000000    0.000000    0.000000
  0.039238477  -34.634859   49.792904  -99.608057   -2.413187    0.000000    0.000000    0.000000    0.000000
  0.039438878  -34.604222   49.755020 -100.418352    9.755419    0.000000    0.000000    0.000000    0.000000
  0.039639279  -34.554198   49.538738  -98.883524   10.575438    0.000000    0.000000    0.000000    0.000000
  0.039839679  -34.521870   49.301033 -101.176524   -3.026182    0.000000    0.000000    0.000000    0.000000
  0.040040080  -34.521031   49.393810 -101.257987    2.410314    0.000000    0.000000    0.000000    0.000000
  0.040240481  -34.488548   49.481869 -102.641069   -6.604560    0.000000    0.000000    0.000000    0.000000
  0.040440882  -34.460701   49.627296 -101.307663   15.406043    0.000000    0.000000    0.000000    0.000000
  0.040641283  -34.439796   48.980396 -100.292794    8.094149    0.000000    0.000000    0.000000    0.000000
  0.040841683  -34.418242   49.221302 -101.423407   16.720209    0.000000    0.000000    0.000000    0.000000
  0.041042084  -34.315818   49.072926 -101.712071   17.439739    0.000000    0.000000    0.000000    0.000000
  0.041242485  -34.292868   48.753139 -100.079163    8.514418    0.000000    0.000000    0.000000    0.000000
  0.041442886  -34.279432   48.908310 -103.213996   11.295063    0.000000    0.000000    0.000000    0.000000
  0.041643287  -34.192624   48.942009 -101.481942   16.835773    0.000000    0.000000    0.000000    0.000000
  0.041843687  -34.236164   48.451050 -100.863690    2.413287    0.000000    0.000000    0.000000    0.000000
  0.042044088  -34.233696   48.495415 -101.789798    6.379849    0.000000    0.000000    0.000000    0.000000
  0.042244489  -34.120035   48.744286 -103.060713    5.357079    0.000000    0.000000    0.000000    0.000000
  0.042444890  -34.143171   48.738773 -100.379124    9.636415    0.000000    0.000000    0.000000    0.000000
  0.042645291  -34.120769   48.378017  -99.391977   10.187675    0.000000    0.000000    0.000000    0.000000
  0.042845691  -34.067528   48.282944 -101.373256    0.816800    0.000000    0.000000    0.000000    0.000000
  0.043046092  -34.049898   48.349720 -104.057946    2.323075    0.000000    0.000000    0.000000    0.000000
  0.043246493  -34.030208   48.102127 -102.319287    7.842078    0.000000    0.000000    0.000000    0.000000
  0.043446894  -34.003724   48.250343 -101.121797   11.389139    0.000000    0.000000    0.000000    0.000000
  0.043647295  -33.960755   48.011810 -101.853719   -0.006055    0.000000    0.000000    0.000000    0.000000
  0.043847695  -33.980423   48.014790 -100.139236   -4.214913    0.000000    0.000000    0.000000    0.000000
  0.044048096  -33.922013   47.959099 -103.074134    2.509492    0.000000    0.000000    0.000000    0.000000
  0.044248497  -33.886395   47.948784  -99.297665    3.399928    0.000000    0.000000    0.000000    0.000000
  0.044448898  -33.866709   47.759312 -101.738146    2.653196    0.000000    0.000000    0.000000    0.000000
  0.044649299  -33.816883   47.604393 -100.698485   15.388780    0.000000    0.000000    0.000000    0.000000
  0.044849699  -33.798943   47.151028 -103.581884    1.698579    0.000000    0.000000    0.000000    0.000000
  0.045050100  -33.748185   47.353458 -101.069297    9.107979    0.000000    0.000000    0.000000    0.000000
  0.045250501  -33.740759   47.429955 -103.066785   10.377371    0.000000    0.000000    0.000000    0.000000
  0.045450902  -33.720639   47.274765 -101.937531   10.247684    0.000000    0.000000    0.000000    0.000000
  0.045651303  -33.711609   47.303658 -101.692465   13.196010    0.000000    0.000000    0.000000    0.000000
  0.045851703  -33.683015   47.389938 -101.464732   16.065729    0.000000    0.000000    0.000000    0.000000
  0.046052104  -33.643163   46.904713 -102.350381    5.817648    0.000000    0.000000    0.000000    0.000000
  0.046252505  -33.643552   46.978504 -101.432766   11.930222    0.000000    0.000000    0.000000    0.000000
  0.046452906  -33.588160   46.712502 -102.759584   -5.714259    0.000000    0.000000    0.000000    0.000000
  0.046653307  -33.538472   46.716599 -103.481940   -8.411276    0.000000    0.000000    0.000000    0.000000
  0.046853707  -33.546116   46.535538 -101.202034    7.951874    0.000000    0.000000    0.000000    0.000000
  0.047054108  -33.482976   46.738777 -100.724097    4.435542    0.000000    0.000000    0.000000    0.000000
  0.047254509  -33.460808   46.273708 -103.007750   -5.008188    0.000000    0.000000    0.000000    0.000000
  0.047454910  -33.472149   46.375526 -104.105196    0.766870    0.000000    0.000000    0.000000    0.000000
  0.047655311  -33.432958   46.203037 -102.676124   -0.859748    0.000000    0.000000    0.000000    0.000000
  0.047855711  -33.410447   46.225544 -106.003214   18.521925    0.000000    0.000000    0.000000    0.000000
  0.048056112  -33.405284   46.157108 -102.888468   16.306105    0.000000    0.000000    0.000000    0.000000
  0.048256513  -33.357980   45.866577 -101.707884   17.514204    0.000000    0.000000    0.000000    0.000000
  0.048456914  -33.363044   45.582512 -104.793239    8.277950    0.000000    0.000000    0.000000    0.000000
  0.048657315  -33.372100   45.694008 -102.014838   -2.380609    0.000000    0.000000    0.000000    0.000000
  0.048857715  -33.297656   45.531506 -102.369896   12.596830    0.000000    0.000000    0.000000    0.000000
  0.049058116  -33.266941   45.601295 -100.676160    2.319575    0.000000    0.000000    0.000000    0.000000
  0.049258517  -33.245872   45.231964 -103.537828    1.669706    0.000000    0.000000    0.000000    0.000000
  0.049458918  -33.236657   45.392399 -103.151336   -2.800597    0.000000    0.000000    0.000000    0.000000
  0.049659319  -33.204033   45.311996 -102.421547  -11.005337    0.000000    0.000000    0.000000    0.000000
  0.049859719  -33.193619   44.889896 -104.164462    2.681537    0.000000    0.000000    0.000000    0.000000
  0.050060120  -33.168546   44.879696 -104.274380   -3.523216    0.000000    0.000000    0.000000    0.000000
  0.050260521  -33.153751   44.517941 -103.778784   -4.139192    0.000000    0.000000    0.000000    0.000000
  0.050460922  -33.119890   44.750092 -100.978769    3.123330    0.000000    0.000000    0.000000    0.000000
  0.050661323  -33.115522   44.674110 -102.613045   16.156429    0.000000    0.000000    0.000000    0.000000
  0.050861723  -33.091767   44.527584 -103.305849    3.843658    0.000000    0.000000    0.000000    0.000000
  0.051062124  -33.099435   44.560299 -103.442761    4.190766    0.000000    0.000000    0.000000    0.000000
  0.051262525  -33.004186   44.416256 -105.987519  -15.655477    0.000000    0.000000    0.000000    0.000000
  0.051462926  -32.996225   43.907169 -103.169799    8.407944    0.000000    0.000000    0.000000    0.000000
  0.051663327  -33.004390   44.406467 -101.822525   -3.894714    0.000000    0.000000    0.000000    0.000000
  0.051863727  -32.978775   43.862049 -102.500271   11.627656    0.000000    0.000000    0.000000    0.000000
  0.052064128  -32.980235   43.648571  -99.666697    5.794097    0.000000    0.000000    0.000000    0.000000
  0.052264529  -32.941505   43.813530 -102.569346   10.850044    0.000000    0.000000    0.000000    0.000000
  0.052464930  -32.893572   43.531990 -102.663765   -1.345931    0.000000    0.000000    0.000000    0.000000
  0.052665331  -32.932621   43.505791 -102.008744    8.264624    0.000000    0.000000    0.000000    0.000000
  0.052865731  -32.879076   43.587814 -102.493516   -9.125487    0.000000    0.000000    0.000000    0.000000
