! Anritsu VNA Master:                     Model: MS2036C/10/77
! SN:                                  1601066
! /bd0/18may08.cable.cal/bot.1_1.s2p
! Existing Calibration Information:
! TYPE:                         Current Settings,       Active Cal Settings
! TIME:             	   05/08/2018 03:35:07 PM,    05/08/2018 03:25:16 PM
! INTERNAL TEMP:    	                   52.0 C,                    53.3 C
! # POINTS:         	                      500,                       500
! START FREQ:       	               20.000 MHz,                20.000 MHz
! STOP FREQ:        	              120.000 MHz,               120.000 MHz
! SOURCE POWER:     	                     High,                      High
! IFBW:             	                    50 Hz,                     50 Hz
! AVG FACTOR:       	                       1 ,                        1 
! REF PLANE 1:      	                     0 mm,                      0 mm
! REF PLANE 2:      	                     0 mm,                      0 mm
! CAL TYPE:         	                 Full S11,                  Full S11
! CAL METHOD:       	                     SOLT,                      SOLT
! CAL LINE TYPE:    	                     Coax,                      Coax
! DUT PORT 1:       	                K-Conn(F),                 K-Conn(F)
! DUT PORT 2:       	                K-Conn(F),                 K-Conn(F)
! CAL STATUS:       	        OK: Accuracy High,                        --
# GHZ S DB R 50.0
! FREQ.GHZ       S11DB        S11A       S21DB        S21A       S12DB        S12A       S22DB        S22A
  0.020000000  -39.661879   55.487148  -90.932238   35.690235    0.000000    0.000000    0.000000    0.000000
  0.020200401  -39.619580   55.267349  -90.785417   37.717125    0.000000    0.000000    0.000000    0.000000
  0.020400802  -39.534579   55.081375  -91.317252   34.634048    0.000000    0.000000    0.000000    0.000000
  0.020601202  -39.492693   54.863132  -91.233729   35.088306    0.000000    0.000000    0.000000    0.000000
  0.020801603  -39.398471   54.535912  -92.229071   33.182449    0.000000    0.000000    0.000000    0.000000
  0.021002004  -39.310693   54.640312  -91.814259   36.625591    0.000000    0.000000    0.000000    0.000000
  0.021202405  -39.229847   54.488918  -91.883653   36.358860    0.000000    0.000000    0.000000    0.000000
  0.021402806  -39.189736   54.305832  -91.764353   31.665966    0.000000    0.000000    0.000000    0.000000
  0.021603206  -39.131904   54.365871  -92.086522   36.105556    0.000000    0.000000    0.000000    0.000000
  0.021803607  -39.030913   53.835445  -91.453944   33.336525    0.000000    0.000000    0.000000    0.000000
  0.022004008  -39.045195   54.087845  -93.162695   35.350945    0.000000    0.000000    0.000000    0.000000
  0.022204409  -38.961960   54.084576  -92.750110   31.708179    0.000000    0.000000    0.000000    0.000000
  0.022404810  -38.985552   54.111759  -92.677586   31.404490    0.000000    0.000000    0.000000    0.000000
  0.022605210  -38.883173   53.777000  -92.746345   32.994450    0.000000    0.000000    0.000000    0.000000
  0.022805611  -38.757100   53.238094  -92.474393   30.351465    0.000000    0.000000    0.000000    0.000000
  0.023006012  -38.720589   53.967117  -92.863193   31.960655    0.000000    0.000000    0.000000    0.000000
  0.023206413  -38.617446   53.250221  -93.097395   25.389517    0.000000    0.000000    0.000000    0.000000
  0.023406814  -38.485554   53.957684  -92.959425   26.870932    0.000000    0.000000    0.000000    0.000000
  0.023607214  -38.523924   53.258759  -93.282055   27.087887    0.000000    0.000000    0.000000    0.000000
  0.023807615  -38.502758   53.163067  -93.321564   24.262623    0.000000    0.000000    0.000000    0.000000
  0.024008016  -38.397615   53.391857  -94.027684   23.235825    0.000000    0.000000    0.000000    0.000000
  0.024208417  -38.314478   52.928650  -93.845582   26.233706    0.000000    0.000000    0.000000    0.000000
  0.024408818  -38.343212   52.842842  -93.975551   21.650288    0.000000    0.000000    0.000000    0.000000
  0.024609218  -38.248089   53.522457  -94.172571   25.691704    0.000000    0.000000    0.000000    0.000000
  0.024809619  -38.159079   53.035892  -94.048391   22.986298    0.000000    0.000000    0.000000    0.000000
  0.025010020  -38.148983   52.760300  -94.048117   22.200697    0.000000    0.000000    0.000000    0.000000
  0.025210421  -38.081814   52.668983  -94.139124   21.743839    0.000000    0.000000    0.000000    0.000000
  0.025410822  -38.016064   53.026165  -94.975186   24.996902    0.000000    0.000000    0.000000    0.000000
  0.025611222  -37.926371   52.202621  -94.282428   20.884924    0.000000    0.000000    0.000000    0.000000
  0.025811623  -37.899555   52.800354  -95.210301   25.753719    0.000000    0.000000    0.000000    0.000000
  0.026012024  -37.886190   52.625202  -95.508388   19.718121    0.000000    0.000000    0.000000    0.000000
  0.026212425  -37.786328   52.554947  -95.659939   22.174759    0.000000    0.000000    0.000000    0.000000
  0.026412826  -37.795540   52.677650  -94.718374   20.016809    0.000000    0.000000    0.000000    0.000000
  0.026613226  -37.675764   52.474762  -94.624451   21.089479    0.000000    0.000000    0.000000    0.000000
  0.026813627  -37.669084   52.342808  -94.725750   18.916595    0.000000    0.000000    0.000000    0.000000
  0.027014028  -37.608348   52.311829  -95.095003   19.397793    0.000000    0.000000    0.000000    0.000000
  0.027214429  -37.550622   52.088345  -95.296539   20.302835    0.000000    0.000000    0.000000    0.000000
  0.027414830  -37.510030   51.948574  -95.558114   22.605715    0.000000    0.000000    0.000000    0.000000
  0.027615230  -37.435981   52.092724  -95.581697   23.714321    0.000000    0.000000    0.000000    0.000000
  0.027815631  -37.420023   51.665215  -95.837580   18.017675    0.000000    0.000000    0.000000    0.000000
  0.028016032  -37.345885   51.731995  -95.740085   19.023251    0.000000    0.000000    0.000000    0.000000
  0.028216433  -37.288789   51.768002  -95.992098   16.967911    0.000000    0.000000    0.000000    0.000000
  0.028416834  -37.268489   51.732773  -95.669416   23.244392    0.000000    0.000000    0.000000    0.000000
  0.028617234  -37.156577   51.825981  -96.383042   15.794730    0.000000    0.000000    0.000000    0.000000
  0.028817635  -37.136471   51.396175  -96.676638   23.048582    0.000000    0.000000    0.000000    0.000000
  0.029018036  -37.104298   51.046650  -96.566797   28.674530    0.000000    0.000000    0.000000    0.000000
  0.029218437  -37.055188   51.026917  -97.083716   17.725935    0.000000    0.000000    0.000000    0.000000
  0.029418838  -37.014190   51.102375  -97.306221   19.681917    0.000000    0.000000    0.000000    0.000000
  0.029619238  -36.982651   50.979889  -96.140018   21.813791    0.000000    0.000000    0.000000    0.000000
  0.029819639  -36.919297   51.190380  -96.544821   15.249917    0.000000    0.000000    0.000000    0.000000
  0.030020040  -36.934554   50.655182  -96.811394   16.052408    0.000000    0.000000    0.000000    0.000000
  0.030220441  -36.842329   50.737011  -97.039131   17.872246    0.000000    0.000000    0.000000    0.000000
  0.030420842  -36.777735   50.225460  -96.385545   14.824206    0.000000    0.000000    0.000000    0.000000
  0.030621242  -36.726838   50.828587  -97.101397   23.735373    0.000000    0.000000    0.000000    0.000000
  0.030821643  -36.706672   50.427586  -98.160852   19.089037    0.000000    0.000000    0.000000    0.000000
  0.031022044  -36.687521   50.579178  -97.379252   19.657991    0.000000    0.000000    0.000000    0.000000
  0.031222445  -36.560221   50.321789  -97.160756   12.324384    0.000000    0.000000    0.000000    0.000000
  0.031422846  -36.579850   50.137623  -96.167966   20.699429    0.000000    0.000000    0.000000    0.000000
  0.031623246  -36.499870   49.925587  -97.107339   11.172050    0.000000    0.000000    0.000000    0.000000
  0.031823647  -36.483217   49.366768  -98.191796   14.499482    0.000000    0.000000    0.000000    0.000000
  0.032024048  -36.392724   49.742554  -98.130101   15.795177    0.000000    0.000000    0.000000    0.000000
  0.032224449  -36.357999   49.928822  -97.721029    8.399813    0.000000    0.000000    0.000000    0.000000
  0.032424850  -36.389257   49.904209  -97.365773   13.383491    0.000000    0.000000    0.000000    0.000000
  0.032625251  -36.278750   49.722973  -98.222678   13.729520    0.000000    0.000000    0.000000    0.000000
  0.032825651  -36.286505   49.303165  -97.938673   10.058187    0.000000    0.000000    0.000000    0.000000
  0.033026052  -36.246483   49.173321  -99.264499   19.681992    0.000000    0.000000    0.000000    0.000000
  0.033226453  -36.191053   49.265949  -97.029293   14.619909    0.000000    0.000000    0.000000    0.000000
  0.033426854  -36.177682   48.515629  -98.234400   10.519616    0.000000    0.000000    0.000000    0.000000
  0.033627255  -36.050882   49.256317  -97.429204    9.965569    0.000000    0.000000    0.000000    0.000000
  0.033827655  -36.075033   48.859253  -97.322371    7.781441    0.000000    0.000000    0.000000    0.000000
  0.034028056  -36.103981   48.798519  -98.369360    5.082067    0.000000    0.000000    0.000000    0.000000
  0.034228457  -35.996490   48.680035  -99.351838   13.125081    0.000000    0.000000    0.000000    0.000000
  0.034428858  -35.960983   48.585953  -97.992525   13.281086    0.000000    0.000000    0.000000    0.000000
  0.034629259  -35.930075   48.586159  -98.186418    6.715497    0.000000    0.000000    0.000000    0.000000
  0.034829659  -35.934894   48.285172  -98.275394    6.006675    0.000000    0.000000    0.000000    0.000000
  0.035030060  -35.876155   48.401089  -99.183113   12.155719    0.000000    0.000000    0.000000    0.000000
  0.035230461  -35.806127   48.237782  -99.413371    7.902869    0.000000    0.000000    0.000000    0.000000
  0.035430862  -35.793778   48.209171  -97.749756   17.858644    0.000000    0.000000    0.000000    0.000000
  0.035631263  -35.733496   48.096333  -97.956007    9.109299    0.000000    0.000000    0.000000    0.000000
  0.035831663  -35.758616   47.614910  -98.990068    8.134589    0.000000    0.000000    0.000000    0.000000
  0.036032064  -35.718156   47.694412  -98.104750    2.086006    0.000000    0.000000    0.000000    0.000000
  0.036232465  -35.638984   47.452461  -99.315536    9.452066    0.000000    0.000000    0.000000    0.000000
  0.036432866  -35.647043   47.695770 -100.730827    2.893370    0.000000    0.000000    0.000000    0.000000
  0.036633267  -35.620813   47.763580  -98.242793    9.335000    0.000000    0.000000    0.000000    0.000000
  0.036833667  -35.556234   47.714157  -98.886536    8.703926    0.000000    0.000000    0.000000    0.000000
  0.037034068  -35.492575   47.557945  -99.060726    7.554647    0.000000    0.000000    0.000000    0.000000
  0.037234469  -35.489508   47.221706  -99.527883    6.909701    0.000000    0.000000    0.000000    0.000000
  0.037434870  -35.485279   46.976414 -100.411730   15.139819    0.000000    0.000000    0.000000    0.000000
  0.037635271  -35.424785   47.231304  -99.839099    4.246785    0.000000    0.000000    0.000000    0.000000
  0.037835671  -35.364928   46.914734  -99.719754   -3.109589    0.000000    0.000000    0.000000    0.000000
  0.038036072  -35.318227   46.822647  -98.141142   -2.051299    0.000000    0.000000    0.000000    0.000000
  0.038236473  -35.242696   46.839680  -99.090821   11.413510    0.000000    0.000000    0.000000    0.000000
  0.038436874  -35.278321   46.998119  -99.308357   -0.385688    0.000000    0.000000    0.000000    0.000000
  0.038637275  -35.238491   46.625595 -100.644792   -1.943434    0.000000    0.000000    0.000000    0.000000
  0.038837675  -35.233944   46.634342  -98.919022   -0.320811    0.000000    0.000000    0.000000    0.000000
  0.039038076  -35.151944   46.499538 -100.526498    3.640459    0.000000    0.000000    0.000000    0.000000
  0.039238477  -35.139057   46.751144 -100.087564    9.046275    0.000000    0.000000    0.000000    0.000000
  0.039438878  -35.089596   46.298386 -102.198969    1.085146    0.000000    0.000000    0.000000    0.000000
  0.039639279  -35.083704   46.404270 -100.061856    1.852558    0.000000    0.000000    0.000000    0.000000
  0.039839679  -35.040618   45.892960 -102.176067   17.258427    0.000000    0.000000    0.000000    0.000000
  0.040040080  -35.059431   46.222527 -101.548287   12.910875    0.000000    0.000000    0.000000    0.000000
  0.040240481  -34.981229   46.042847 -100.291221    4.993867    0.000000    0.000000    0.000000    0.000000
  0.040440882  -34.895208   45.684082 -100.295028    6.277659    0.000000    0.000000    0.000000    0.000000
  0.040641283  -34.929742   45.774277  -99.499819    7.057484    0.000000    0.000000    0.000000    0.000000
  0.040841683  -34.812864   45.672947 -100.822365    5.146735    0.000000    0.000000    0.000000    0.000000
  0.041042084  -34.861130   45.781189 -100.588053   13.029859    0.000000    0.000000    0.000000    0.000000
  0.041242485  -34.794801   45.344444 -100.910533   16.141006    0.000000    0.000000    0.000000    0.000000
  0.041442886  -34.781138   45.319912  -99.931136    4.123916    0.000000    0.000000    0.000000    0.000000
  0.041643287  -34.780188   45.071526 -101.066621   -3.441800    0.000000    0.000000    0.000000    0.000000
  0.041843687  -34.713540   45.158276 -101.596018    1.013288    0.000000    0.000000    0.000000    0.000000
  0.042044088  -34.673992   45.168968 -101.515060    6.776311    0.000000    0.000000    0.000000    0.000000
  0.042244489  -34.669070   45.281601 -100.414071   19.477749    0.000000    0.000000    0.000000    0.000000
  0.042444890  -34.683442   44.925091 -100.895225   10.759880    0.000000    0.000000    0.000000    0.000000
  0.042645291  -34.587347   44.859219 -102.677906   13.518832    0.000000    0.000000    0.000000    0.000000
  0.042845691  -34.576340   45.171852 -100.495196    8.944709    0.000000    0.000000    0.000000    0.000000
  0.043046092  -34.548095   44.921494 -100.204622   -5.377325    0.000000    0.000000    0.000000    0.000000
  0.043246493  -34.541706   44.828617 -101.465002    8.894224    0.000000    0.000000    0.000000    0.000000
  0.043446894  -34.511199   44.729504 -101.505978    9.289565    0.000000    0.000000    0.000000    0.000000
  0.043647295  -34.507719   44.513905  -99.672783    4.094900    0.000000    0.000000    0.000000    0.000000
  0.043847695  -34.447509   44.651947 -100.861991    0.838639    0.000000    0.000000    0.000000    0.000000
  0.044048096  -34.419031   44.265892 -101.942887   -4.030374    0.000000    0.000000    0.000000    0.000000
  0.044248497  -34.431862   44.215717 -100.089587   -7.085288    0.000000    0.000000    0.000000    0.000000
  0.044448898  -34.376423   44.185719 -101.638701    5.059172    0.000000    0.000000    0.000000    0.000000
  0.044649299  -34.367241   44.001423  -99.822056   12.907722    0.000000    0.000000    0.000000    0.000000
  0.044849699  -34.303742   43.587837 -102.922602   15.896143    0.000000    0.000000    0.000000    0.000000
  0.045050100  -34.275703   43.832024 -102.725944   12.803220    0.000000    0.000000    0.000000    0.000000
  0.045250501  -34.311131   43.663052 -101.755167   10.181778    0.000000    0.000000    0.000000    0.000000
  0.045450902  -34.230760   43.755043 -101.864117   14.287852    0.000000    0.000000    0.000000    0.000000
  0.045651303  -34.143270   43.536259 -103.131040    5.058951    0.000000    0.000000    0.000000    0.000000
  0.045851703  -34.176121   43.731140 -103.488499    2.463538    0.000000    0.000000    0.000000    0.000000
  0.046052104  -34.125824   43.443573 -102.559033   12.127300    0.000000    0.000000    0.000000    0.000000
  0.046252505  -34.143548   43.105812 -100.817367    8.234136    0.000000    0.000000    0.000000    0.000000
  0.046452906  -34.107126   43.284245 -102.230507    5.181985    0.000000    0.000000    0.000000    0.000000
  0.046653307  -34.093155   43.143059 -102.955923   -0.903028    0.000000    0.000000    0.000000    0.000000
  0.046853707  -34.072406   43.172894 -102.884213    0.396537    0.000000    0.000000    0.000000    0.000000
  0.047054108  -34.013153   42.982048 -101.273010   11.445590    0.000000    0.000000    0.000000    0.000000
  0.047254509  -34.003117   42.813034 -103.572776  -10.776921    0.000000    0.000000    0.000000    0.000000
  0.047454910  -33.978611   43.150166 -101.492826   -3.302446    0.000000    0.000000    0.000000    0.000000
  0.047655311  -33.933398   42.672024 -101.065140   12.926364    0.000000    0.000000    0.000000    0.000000
  0.047855711  -33.899291   42.753464 -101.498482   -8.327671    0.000000    0.000000    0.000000    0.000000
  0.048056112  -33.895806   42.531677 -102.674950   -2.573067    0.000000    0.000000    0.000000    0.000000
  0.048256513  -33.870851   42.518337 -103.366348  -10.394020    0.000000    0.000000    0.000000    0.000000
  0.048456914  -33.917217   42.242504 -102.523616    8.470141    0.000000    0.000000    0.000000    0.000000
  0.048657315  -33.852751   42.276897 -102.589628   -2.304044    0.000000    0.000000    0.000000    0.000000
  0.048857715  -33.807522   42.022808 -102.986126   -0.612147    0.000000    0.000000    0.000000    0.000000
  0.049058116  -33.790394   42.001087 -103.707197   -6.504379    0.000000    0.000000    0.000000    0.000000
  0.049258517  -33.759506   42.079975 -100.355316    3.397497    0.000000    0.000000    0.000000    0.000000
  0.049458918  -33.750409   41.761955 -101.720456    1.361097    0.000000    0.000000    0.000000    0.000000
  0.049659319  -33.763301   41.532291 -103.314006   -6.912096    0.000000    0.000000    0.000000    0.000000
  0.049859719  -33.706750   41.409279 -102.750140    8.868881    0.000000    0.000000    0.000000    0.000000
  0.050060120  -33.701211   41.466606 -103.639232    6.998156    0.000000    0.000000    0.000000    0.000000
  0.050260521  -33.674446   41.423801 -102.893576  -14.671607    0.000000    0.000000    0.000000    0.000000
  0.050460922  -33.658396   41.402634 -103.130951   -2.747526    0.000000    0.000000    0.000000    0.000000
  0.050661323  -33.602240   41.344803 -102.762738    1.076693    0.000000    0.000000    0.000000    0.000000
  0.050861723  -33.608942   40.919983 -103.797106   11.093036    0.000000    0.000000    0.000000    0.000000
  0.051062124  -33.629571   40.707756 -102.110186   -3.146454    0.000000    0.000000    0.000000    0.000000
  0.051262525  -33.573387   40.409348 -102.183243    3.245049    0.000000    0.000000    0.000000    0.000000
  0.051462926  -33.583264   40.408768 -102.545072   13.776744    0.000000    0.000000    0.000000    0.000000
  0.051663327  -33.568876   40.572990 -103.798033    2.833434    0.000000    0.000000    0.000000    0.000000
  0.051863727  -33.517139   40.379879 -102.820606    9.510923    0.000000    0.000000    0.000000    0.000000
  0.052064128  -33.488964   40.299606 -100.944926    1.561448    0.000000    0.000000    0.000000    0.000000
  0.052264529  -33.454167   40.259510 -104.609320   -5.539600    0.000000    0.000000    0.000000    0.000000
  0.052464930  -33.436678   40.185234 -104.039020   11.353725    0.000000    0.000000    0.000000    0.000000
  0.052665331  -33.384447   39.935829 -100.935295    4.244713    0.000000    0.000000    0.000000    0.000000
  0.052865731  -33.385784   39.799232 -102.132803   -6.350841    0.000000    0.000000    0.000000    0.000000
