! Anritsu VNA Master:                     Model: MS2036C/10/77
! SN:                                  1601066
! /bd0/18may08.cable.cal/top.49p99.1.s2p
! Existing Calibration Information:
! TYPE:                         Current Settings,       Active Cal Settings
! TIME:             	   05/08/2018 03:51:39 PM,    05/08/2018 03:47:05 PM
! INTERNAL TEMP:    	                   50.5 C,                    50.5 C
! # POINTS:         	                      500,                       500
! START FREQ:       	               20.000 MHz,                20.000 MHz
! STOP FREQ:        	              120.000 MHz,               120.000 MHz
! SOURCE POWER:     	                     High,                      High
! IFBW:             	                    50 Hz,                     50 Hz
! AVG FACTOR:       	                       1 ,                        1 
! REF PLANE 1:      	                     0 mm,                      0 mm
! REF PLANE 2:      	                     0 mm,                      0 mm
! CAL TYPE:         	                 Full S11,                  Full S11
! CAL METHOD:       	                     SOLT,                      SOLT
! CAL LINE TYPE:    	                     Coax,                      Coax
! DUT PORT 1:       	                K-Conn(F),                 K-Conn(F)
! DUT PORT 2:       	                K-Conn(F),                 K-Conn(F)
! CAL STATUS:       	        OK: Accuracy High,                        --
# GHZ S DB R 50.0
! FREQ.GHZ       S11DB        S11A       S21DB        S21A       S12DB        S12A       S22DB        S22A
  0.020000000  -39.731088   56.277489  -91.318253   33.949928    0.000000    0.000000    0.000000    0.000000
  0.020200401  -39.611123   55.476540  -91.078105   35.695202    0.000000    0.000000    0.000000    0.000000
  0.020400802  -39.496857   55.598293  -91.298463   32.960323    0.000000    0.000000    0.000000    0.000000
  0.020601202  -39.451898   55.398556  -91.372573   33.615971    0.000000    0.000000    0.000000    0.000000
  0.020801603  -39.397164   55.061378  -92.049910   30.900097    0.000000    0.000000    0.000000    0.000000
  0.021002004  -39.341523   54.940643  -91.650469   34.991463    0.000000    0.000000    0.000000    0.000000
  0.021202405  -39.312589   54.965775  -92.122895   30.083431    0.000000    0.000000    0.000000    0.000000
  0.021402806  -39.216022   55.205788  -92.389524   30.901773    0.000000    0.000000    0.000000    0.000000
  0.021603206  -39.171980   54.976353  -92.184120   32.831902    0.000000    0.000000    0.000000    0.000000
  0.021803607  -39.083427   55.128651  -92.600264   27.675905    0.000000    0.000000    0.000000    0.000000
  0.022004008  -39.053515   54.853058  -92.975099   31.248720    0.000000    0.000000    0.000000    0.000000
  0.022204409  -39.003820   54.584541  -93.226374   28.733271    0.000000    0.000000    0.000000    0.000000
  0.022404810  -38.895342   54.907909  -92.500582   35.716324    0.000000    0.000000    0.000000    0.000000
  0.022605210  -38.900619   54.954506  -92.556750   32.428497    0.000000    0.000000    0.000000    0.000000
  0.022805611  -38.819471   54.079128  -93.259182   26.186140    0.000000    0.000000    0.000000    0.000000
  0.023006012  -38.823795   54.642731  -93.426960   29.576929    0.000000    0.000000    0.000000    0.000000
  0.023206413  -38.724119   54.222099  -93.997569   26.510204    0.000000    0.000000    0.000000    0.000000
  0.023406814  -38.673740   54.530731  -93.062436   29.103802    0.000000    0.000000    0.000000    0.000000
  0.023607214  -38.562957   54.309765  -93.459802   23.555241    0.000000    0.000000    0.000000    0.000000
  0.023807615  -38.547812   53.865925  -93.477351   27.207088    0.000000    0.000000    0.000000    0.000000
  0.024008016  -38.498779   54.058384  -93.376645   24.635695    0.000000    0.000000    0.000000    0.000000
  0.024208417  -38.443095   53.760757  -94.737914   26.976315    0.000000    0.000000    0.000000    0.000000
  0.024408818  -38.348237   53.774132  -94.295097   28.203991    0.000000    0.000000    0.000000    0.000000
  0.024609218  -38.306098   53.708294  -93.823073   23.588690    0.000000    0.000000    0.000000    0.000000
  0.024809619  -38.274016   53.481968  -94.440062   22.226503    0.000000    0.000000    0.000000    0.000000
  0.025010020  -38.251552   53.647633  -94.706868   23.523746    0.000000    0.000000    0.000000    0.000000
  0.025210421  -38.166169   53.767303  -94.190352   24.369078    0.000000    0.000000    0.000000    0.000000
  0.025410822  -38.177016   53.545280  -94.432884   21.781118    0.000000    0.000000    0.000000    0.000000
  0.025611222  -38.101227   53.488373  -94.799331   24.860777    0.000000    0.000000    0.000000    0.000000
  0.025811623  -38.096875   53.463524  -94.602594   21.199127    0.000000    0.000000    0.000000    0.000000
  0.026012024  -38.016155   53.462044  -94.708029   21.253332    0.000000    0.000000    0.000000    0.000000
  0.026212425  -37.943906   53.330624  -94.829923   19.012993    0.000000    0.000000    0.000000    0.000000
  0.026412826  -37.879802   53.565144  -94.654470   23.229904    0.000000    0.000000    0.000000    0.000000
  0.026613226  -37.812363   52.986794  -95.111774   23.650776    0.000000    0.000000    0.000000    0.000000
  0.026813627  -37.833495   53.227470  -95.217710   16.957273    0.000000    0.000000    0.000000    0.000000
  0.027014028  -37.780214   53.113098  -94.911768   18.319445    0.000000    0.000000    0.000000    0.000000
  0.027214429  -37.658735   52.356819  -96.454100   21.051750    0.000000    0.000000    0.000000    0.000000
  0.027414830  -37.665296   53.311699  -95.516941   19.636478    0.000000    0.000000    0.000000    0.000000
  0.027615230  -37.633997   52.628639  -96.598835   16.765018    0.000000    0.000000    0.000000    0.000000
  0.027815631  -37.517545   52.496544  -96.235099   18.229574    0.000000    0.000000    0.000000    0.000000
  0.028016032  -37.546855   52.454472  -95.857632   19.288519    0.000000    0.000000    0.000000    0.000000
  0.028216433  -37.448915   52.428192  -95.115326   16.442488    0.000000    0.000000    0.000000    0.000000
  0.028416834  -37.404614   51.957726  -95.631982   16.138187    0.000000    0.000000    0.000000    0.000000
  0.028617234  -37.349418   52.073753  -96.719156   18.449505    0.000000    0.000000    0.000000    0.000000
  0.028817635  -37.310813   52.305702  -96.046274   13.435081    0.000000    0.000000    0.000000    0.000000
  0.029018036  -37.298657   51.933064  -97.116597   22.159525    0.000000    0.000000    0.000000    0.000000
  0.029218437  -37.293351   52.383286  -96.461660   16.529076    0.000000    0.000000    0.000000    0.000000
  0.029418838  -37.172513   51.755009  -96.807747   22.301325    0.000000    0.000000    0.000000    0.000000
  0.029619238  -37.186592   51.813389  -96.719533   18.643333    0.000000    0.000000    0.000000    0.000000
  0.029819639  -37.121029   51.424953  -96.849819   15.472168    0.000000    0.000000    0.000000    0.000000
  0.030020040  -37.062568   51.574303  -96.848697   15.613357    0.000000    0.000000    0.000000    0.000000
  0.030220441  -36.997630   51.204887  -96.213128   12.443349    0.000000    0.000000    0.000000    0.000000
  0.030420842  -37.022081   50.997368  -96.976452   13.767338    0.000000    0.000000    0.000000    0.000000
  0.030621242  -36.922709   50.940647  -96.876343   16.945875    0.000000    0.000000    0.000000    0.000000
  0.030821643  -36.909656   51.160046  -96.856791    8.759640    0.000000    0.000000    0.000000    0.000000
  0.031022044  -36.873051   50.843380  -97.459410   14.886583    0.000000    0.000000    0.000000    0.000000
  0.031222445  -36.822083   50.978825  -97.485283   10.330348    0.000000    0.000000    0.000000    0.000000
  0.031422846  -36.792854   50.790756  -96.901192   11.008114    0.000000    0.000000    0.000000    0.000000
  0.031623246  -36.735433   50.855862  -96.475960    7.096132    0.000000    0.000000    0.000000    0.000000
  0.031823647  -36.709765   50.845768  -97.147857   11.015482    0.000000    0.000000    0.000000    0.000000
  0.032024048  -36.688542   50.587368  -97.272898   12.619436    0.000000    0.000000    0.000000    0.000000
  0.032224449  -36.625198   50.373726  -96.994864   13.125271    0.000000    0.000000    0.000000    0.000000
  0.032424850  -36.508134   50.223522  -97.459556   17.577721    0.000000    0.000000    0.000000    0.000000
  0.032625251  -36.540539   50.201168  -97.022364    8.530123    0.000000    0.000000    0.000000    0.000000
  0.032825651  -36.536020   50.104813  -97.935405    7.829177    0.000000    0.000000    0.000000    0.000000
  0.033026052  -36.437955   50.367558  -97.426548   15.432035    0.000000    0.000000    0.000000    0.000000
  0.033226453  -36.349904   50.233509  -97.690378   14.368959    0.000000    0.000000    0.000000    0.000000
  0.033426854  -36.477493   49.667984  -98.780183    1.859545    0.000000    0.000000    0.000000    0.000000
  0.033627255  -36.352127   49.604340  -98.866129   15.347657    0.000000    0.000000    0.000000    0.000000
  0.033827655  -36.267692   49.629528  -98.944490   14.924340    0.000000    0.000000    0.000000    0.000000
  0.034028056  -36.337098   49.584209  -97.080651    6.213953    0.000000    0.000000    0.000000    0.000000
  0.034228457  -36.240575   49.746090  -98.695982    9.701085    0.000000    0.000000    0.000000    0.000000
  0.034428858  -36.243838   49.692719  -98.015702    9.474375    0.000000    0.000000    0.000000    0.000000
  0.034629259  -36.194992   49.397141  -99.206001    4.082981    0.000000    0.000000    0.000000    0.000000
  0.034829659  -36.123669   49.230583  -99.066015   12.991697    0.000000    0.000000    0.000000    0.000000
  0.035030060  -36.047595   49.274036  -97.372606   11.782786    0.000000    0.000000    0.000000    0.000000
  0.035230461  -36.064164   48.918434  -98.371591   19.299372    0.000000    0.000000    0.000000    0.000000
  0.035430862  -36.046491   48.952442  -99.356867    4.434375    0.000000    0.000000    0.000000    0.000000
  0.035631263  -35.976108   48.423645  -98.743486   14.846082    0.000000    0.000000    0.000000    0.000000
  0.035831663  -35.988695   48.516857  -99.160023   15.816833    0.000000    0.000000    0.000000    0.000000
  0.036032064  -35.918576   48.213558  -98.797230   13.080356    0.000000    0.000000    0.000000    0.000000
  0.036232465  -35.853230   48.731583  -99.865514   -1.330442    0.000000    0.000000    0.000000    0.000000
  0.036432866  -35.889210   48.443886  -98.523101   22.567661    0.000000    0.000000    0.000000    0.000000
  0.036633267  -35.817059   48.189465  -99.343545    2.852754    0.000000    0.000000    0.000000    0.000000
  0.036833667  -35.819871   48.171444  -98.919342   11.706572    0.000000    0.000000    0.000000    0.000000
  0.037034068  -35.740525   48.618767  -99.438808   13.782038    0.000000    0.000000    0.000000    0.000000
  0.037234469  -35.687430   48.124638  -98.508667    2.164207    0.000000    0.000000    0.000000    0.000000
  0.037434870  -35.724374   48.237679  -98.855534   -1.655538    0.000000    0.000000    0.000000    0.000000
  0.037635271  -35.610771   48.118698  -99.391404   12.675485    0.000000    0.000000    0.000000    0.000000
  0.037835671  -35.650292   47.684242  -98.681281   -0.284823    0.000000    0.000000    0.000000    0.000000
  0.038036072  -35.626304   47.703064 -100.189679    6.284273    0.000000    0.000000    0.000000    0.000000
  0.038236473  -35.590924   47.666435 -100.189681   -3.485595    0.000000    0.000000    0.000000    0.000000
  0.038436874  -35.516364   47.473969 -100.461441    0.606497    0.000000    0.000000    0.000000    0.000000
  0.038637275  -35.523066   47.402252  -98.918904    1.326031    0.000000    0.000000    0.000000    0.000000
  0.038837675  -35.421660   47.563705 -100.284407    7.479131    0.000000    0.000000    0.000000    0.000000
  0.039038076  -35.400267   47.376389 -100.588948   15.517949    0.000000    0.000000    0.000000    0.000000
  0.039238477  -35.404846   46.899910  -99.537984    5.164636    0.000000    0.000000    0.000000    0.000000
  0.039438878  -35.401227   47.279221 -100.739078   -1.032450    0.000000    0.000000    0.000000    0.000000
  0.039639279  -35.333647   46.946457 -101.291317   12.035567    0.000000    0.000000    0.000000    0.000000
  0.039839679  -35.274411   46.818653 -100.853025   10.067517    0.000000    0.000000    0.000000    0.000000
  0.040040080  -35.265439   46.661667 -100.297541    4.729588    0.000000    0.000000    0.000000    0.000000
  0.040240481  -35.240167   46.392784 -100.836686    4.814242    0.000000    0.000000    0.000000    0.000000
  0.040440882  -35.184663   46.536160 -100.135970    4.854082    0.000000    0.000000    0.000000    0.000000
  0.040641283  -35.156252   46.733959 -101.063890    8.955573    0.000000    0.000000    0.000000    0.000000
  0.040841683  -35.183239   46.431629 -102.567275   -0.445769    0.000000    0.000000    0.000000    0.000000
  0.041042084  -35.120530   46.651501 -100.599103   -5.795474    0.000000    0.000000    0.000000    0.000000
  0.041242485  -35.095001   45.975513 -100.684559    4.064905    0.000000    0.000000    0.000000    0.000000
  0.041442886  -35.032712   45.846634 -101.430511    4.375900    0.000000    0.000000    0.000000    0.000000
  0.041643287  -35.030154   45.670326 -100.458026   -0.016131    0.000000    0.000000    0.000000    0.000000
  0.041843687  -34.985954   45.879848 -100.837695    7.715811    0.000000    0.000000    0.000000    0.000000
  0.042044088  -34.943599   45.837086 -100.321723   -9.650195    0.000000    0.000000    0.000000    0.000000
  0.042244489  -34.956297   45.586220 -100.972593    1.396505    0.000000    0.000000    0.000000    0.000000
  0.042444890  -34.923245   45.478752 -102.190619    2.153565    0.000000    0.000000    0.000000    0.000000
  0.042645291  -34.898467   45.614983 -100.283364    4.162384    0.000000    0.000000    0.000000    0.000000
  0.042845691  -34.838626   45.472324 -100.490512    9.164779    0.000000    0.000000    0.000000    0.000000
  0.043046092  -34.795204   45.381176 -100.292957    7.175720    0.000000    0.000000    0.000000    0.000000
  0.043246493  -34.764001   45.186245 -100.781984    9.829317    0.000000    0.000000    0.000000    0.000000
  0.043446894  -34.738608   45.154972 -100.533144    8.968285    0.000000    0.000000    0.000000    0.000000
  0.043647295  -34.716028   44.882694 -101.371962   10.075610    0.000000    0.000000    0.000000    0.000000
  0.043847695  -34.666276   44.828117 -101.969963    3.037522    0.000000    0.000000    0.000000    0.000000
  0.044048096  -34.645124   44.756794 -102.475247  -13.065775    0.000000    0.000000    0.000000    0.000000
  0.044248497  -34.621619   44.918427 -100.343724    5.088444    0.000000    0.000000    0.000000    0.000000
  0.044448898  -34.613279   44.396381 -100.853264   -1.830039    0.000000    0.000000    0.000000    0.000000
  0.044649299  -34.569650   44.742855 -101.360705    6.709874    0.000000    0.000000    0.000000    0.000000
  0.044849699  -34.560743   44.335911 -102.765956    7.728852    0.000000    0.000000    0.000000    0.000000
  0.045050100  -34.549190   44.264111 -101.433097   10.237124    0.000000    0.000000    0.000000    0.000000
  0.045250501  -34.509803   44.376831 -101.819688   -5.501812    0.000000    0.000000    0.000000    0.000000
  0.045450902  -34.469358   44.323357 -103.030616   13.263141    0.000000    0.000000    0.000000    0.000000
  0.045651303  -34.454114   43.901512 -101.472940   -0.109348    0.000000    0.000000    0.000000    0.000000
  0.045851703  -34.419981   43.855091 -102.199123    2.458384    0.000000    0.000000    0.000000    0.000000
  0.046052104  -34.392566   43.912453  -99.880653   -1.064958    0.000000    0.000000    0.000000    0.000000
  0.046252505  -34.362698   44.032013 -102.089894    7.256077    0.000000    0.000000    0.000000    0.000000
  0.046452906  -34.370270   43.590969 -102.647813  -10.288761    0.000000    0.000000    0.000000    0.000000
  0.046653307  -34.305770   43.283894 -102.449154    3.672376    0.000000    0.000000    0.000000    0.000000
  0.046853707  -34.305950   43.451138 -104.732669    9.925036    0.000000    0.000000    0.000000    0.000000
  0.047054108  -34.311664   43.459805 -100.715771   -3.074898    0.000000    0.000000    0.000000    0.000000
  0.047254509  -34.262895   43.253609 -102.928119   10.260178    0.000000    0.000000    0.000000    0.000000
  0.047454910  -34.240949   42.886417 -100.891511    9.500794    0.000000    0.000000    0.000000    0.000000
  0.047655311  -34.180818   42.913033 -100.678026    1.636734    0.000000    0.000000    0.000000    0.000000
  0.047855711  -34.174316   42.770924 -102.564070  -10.105940    0.000000    0.000000    0.000000    0.000000
  0.048056112  -34.148999   42.804913 -102.309767    5.637397    0.000000    0.000000    0.000000    0.000000
  0.048256513  -34.122751   42.710758 -101.740023   -5.074230    0.000000    0.000000    0.000000    0.000000
  0.048456914  -34.117001   42.570553 -102.091952    2.156454    0.000000    0.000000    0.000000    0.000000
  0.048657315  -34.015201   42.331947 -101.935137   12.284946    0.000000    0.000000    0.000000    0.000000
  0.048857715  -34.020767   42.624638 -102.032781    7.275927    0.000000    0.000000    0.000000    0.000000
  0.049058116  -34.021680   42.657192 -103.690370   10.366560    0.000000    0.000000    0.000000    0.000000
  0.049258517  -34.009337   42.195778 -103.685428    1.700765    0.000000    0.000000    0.000000    0.000000
  0.049458918  -34.030501   42.074066 -104.850165    8.294785    0.000000    0.000000    0.000000    0.000000
  0.049659319  -33.951730   41.971909 -102.382320   -3.530056    0.000000    0.000000    0.000000    0.000000
  0.049859719  -33.994815   41.922493 -103.611619    0.206124    0.000000    0.000000    0.000000    0.000000
  0.050060120  -33.901870   41.768887 -102.832640   -0.686236    0.000000    0.000000    0.000000    0.000000
  0.050260521  -33.896394   41.613556 -103.858191    3.752744    0.000000    0.000000    0.000000    0.000000
  0.050460922  -33.888250   41.395218 -104.799528    6.004512    0.000000    0.000000    0.000000    0.000000
  0.050661323  -33.828876   41.136501 -103.196547  -12.591240    0.000000    0.000000    0.000000    0.000000
  0.050861723  -33.797736   41.183155 -102.853940    1.181882    0.000000    0.000000    0.000000    0.000000
  0.051062124  -33.750925   40.999996 -102.414433   10.533453    0.000000    0.000000    0.000000    0.000000
  0.051262525  -33.752903   41.097206 -102.815234   21.560184    0.000000    0.000000    0.000000    0.000000
  0.051462926  -33.744030   40.568058 -103.890065   -7.981469    0.000000    0.000000    0.000000    0.000000
  0.051663327  -33.754574   40.649380 -102.421324   -7.643488    0.000000    0.000000    0.000000    0.000000
  0.051863727  -33.705630   40.674068 -105.662402    9.513105    0.000000    0.000000    0.000000    0.000000
  0.052064128  -33.670250   40.349316 -102.369294   11.121396    0.000000    0.000000    0.000000    0.000000
  0.052264529  -33.648724   40.179470 -103.183318    6.036859    0.000000    0.000000    0.000000    0.000000
  0.052464930  -33.647261   40.394695 -105.173761    1.682089    0.000000    0.000000    0.000000    0.000000
  0.052665331  -33.617840   40.070053 -101.267652    3.473137    0.000000    0.000000    0.000000    0.000000
  0.052865731  -33.614083   40.065369 -103.107464   -7.018004    0.000000    0.000000    0.000000    0.000000
