! Anritsu VNA Master:                     Model: MS2036C/10/77
! SN:                                  1601066
! /bd0/18may08.cable.cal/top.194p65.1.s2p
! Existing Calibration Information:
! TYPE:                         Current Settings,       Active Cal Settings
! TIME:             	   05/08/2018 03:53:55 PM,    05/08/2018 03:47:05 PM
! INTERNAL TEMP:    	                   50.5 C,                    50.5 C
! # POINTS:         	                      500,                       500
! START FREQ:       	               20.000 MHz,                20.000 MHz
! STOP FREQ:        	              120.000 MHz,               120.000 MHz
! SOURCE POWER:     	                     High,                      High
! IFBW:             	                    50 Hz,                     50 Hz
! AVG FACTOR:       	                       1 ,                        1 
! REF PLANE 1:      	                     0 mm,                      0 mm
! REF PLANE 2:      	                     0 mm,                      0 mm
! CAL TYPE:         	                 Full S11,                  Full S11
! CAL METHOD:       	                     SOLT,                      SOLT
! CAL LINE TYPE:    	                     Coax,                      Coax
! DUT PORT 1:       	                K-Conn(F),                 K-Conn(F)
! DUT PORT 2:       	                K-Conn(F),                 K-Conn(F)
! CAL STATUS:       	        OK: Accuracy High,                        --
# GHZ S DB R 50.0
! FREQ.GHZ       S11DB        S11A       S21DB        S21A       S12DB        S12A       S22DB        S22A
  0.020000000   -4.544072  -21.302500  -91.341842   28.498135    0.000000    0.000000    0.000000    0.000000
  0.020200401   -4.545251  -21.507843  -91.992337   32.883263    0.000000    0.000000    0.000000    0.000000
  0.020400802   -4.545641  -21.713749  -91.903735   32.241013    0.000000    0.000000    0.000000    0.000000
  0.020601202   -4.548475  -21.927502  -92.908179   34.315182    0.000000    0.000000    0.000000    0.000000
  0.020801603   -4.547089  -22.149599  -92.552829   32.397102    0.000000    0.000000    0.000000    0.000000
  0.021002004   -4.548797  -22.374310  -92.828777   32.570808    0.000000    0.000000    0.000000    0.000000
  0.021202405   -4.548155  -22.582129  -92.261424   29.317354    0.000000    0.000000    0.000000    0.000000
  0.021402806   -4.549876  -22.797722  -92.618937   26.343227    0.000000    0.000000    0.000000    0.000000
  0.021603206   -4.550549  -23.016378  -92.304229   26.393906    0.000000    0.000000    0.000000    0.000000
  0.021803607   -4.552154  -23.231321  -92.610836   27.409964    0.000000    0.000000    0.000000    0.000000
  0.022004008   -4.552727  -23.455555  -92.678083   28.358131    0.000000    0.000000    0.000000    0.000000
  0.022204409   -4.555526  -23.671310  -93.359445   28.280125    0.000000    0.000000    0.000000    0.000000
  0.022404810   -4.553818  -23.894405  -92.651046   24.510550    0.000000    0.000000    0.000000    0.000000
  0.022605210   -4.555844  -24.124901  -93.584513   28.389414    0.000000    0.000000    0.000000    0.000000
  0.022805611   -4.557452  -24.318432  -93.518122   30.245232    0.000000    0.000000    0.000000    0.000000
  0.023006012   -4.559597  -24.545774  -93.153562   26.375883    0.000000    0.000000    0.000000    0.000000
  0.023206413   -4.558081  -24.746613  -94.381342   27.951374    0.000000    0.000000    0.000000    0.000000
  0.023406814   -4.558396  -24.975224  -93.492446   28.861002    0.000000    0.000000    0.000000    0.000000
  0.023607214   -4.559224  -25.193129  -94.485250   24.314157    0.000000    0.000000    0.000000    0.000000
  0.023807615   -4.558744  -25.413485  -94.467523   31.180784    0.000000    0.000000    0.000000    0.000000
  0.024008016   -4.561744  -25.623631  -94.584638   22.185671    0.000000    0.000000    0.000000    0.000000
  0.024208417   -4.560965  -25.849348  -94.985441   28.232853    0.000000    0.000000    0.000000    0.000000
  0.024408818   -4.563399  -26.069546  -95.251524   20.249712    0.000000    0.000000    0.000000    0.000000
  0.024609218   -4.564095  -26.287098  -94.886474   21.881987    0.000000    0.000000    0.000000    0.000000
  0.024809619   -4.563883  -26.499832  -94.810196   22.763958    0.000000    0.000000    0.000000    0.000000
  0.025010020   -4.564608  -26.727570  -94.967083   31.327539    0.000000    0.000000    0.000000    0.000000
  0.025210421   -4.566561  -26.938927  -95.079710   21.451885    0.000000    0.000000    0.000000    0.000000
  0.025410822   -4.568250  -27.151409  -94.193999   24.864916    0.000000    0.000000    0.000000    0.000000
  0.025611222   -4.568167  -27.365423  -94.700961   26.468435    0.000000    0.000000    0.000000    0.000000
  0.025811623   -4.569775  -27.599028  -94.473469   24.834330    0.000000    0.000000    0.000000    0.000000
  0.026012024   -4.570648  -27.801268  -95.315727   21.256239    0.000000    0.000000    0.000000    0.000000
  0.026212425   -4.569728  -28.023998  -95.281120   23.092154    0.000000    0.000000    0.000000    0.000000
  0.026412826   -4.572210  -28.240812  -95.178615   21.768187    0.000000    0.000000    0.000000    0.000000
  0.026613226   -4.569541  -28.457651  -95.635081   20.037029    0.000000    0.000000    0.000000    0.000000
  0.026813627   -4.571591  -28.683641  -96.325397   16.789656    0.000000    0.000000    0.000000    0.000000
  0.027014028   -4.572642  -28.910244  -95.223920   23.330709    0.000000    0.000000    0.000000    0.000000
  0.027214429   -4.572083  -29.121830  -96.604402   20.192085    0.000000    0.000000    0.000000    0.000000
  0.027414830   -4.574055  -29.339743  -95.742803   18.184612    0.000000    0.000000    0.000000    0.000000
  0.027615230   -4.573341  -29.569815  -96.488114   16.876160    0.000000    0.000000    0.000000    0.000000
  0.027815631   -4.575506  -29.768206  -95.928855   24.953695    0.000000    0.000000    0.000000    0.000000
  0.028016032   -4.575779  -30.005157  -95.966218   23.207136    0.000000    0.000000    0.000000    0.000000
  0.028216433   -4.577994  -30.217693  -96.504992   21.669142    0.000000    0.000000    0.000000    0.000000
  0.028416834   -4.577678  -30.437307  -96.579157   24.562828    0.000000    0.000000    0.000000    0.000000
  0.028617234   -4.578646  -30.661739  -96.808546   20.006193    0.000000    0.000000    0.000000    0.000000
  0.028817635   -4.580297  -30.882891  -96.433648   21.440735    0.000000    0.000000    0.000000    0.000000
  0.029018036   -4.579840  -31.104521  -96.617721   16.025661    0.000000    0.000000    0.000000    0.000000
  0.029218437   -4.579721  -31.323114  -96.398466   24.453903    0.000000    0.000000    0.000000    0.000000
  0.029418838   -4.582309  -31.538702  -96.886515   23.967287    0.000000    0.000000    0.000000    0.000000
  0.029619238   -4.581754  -31.751562  -97.104311   25.299597    0.000000    0.000000    0.000000    0.000000
  0.029819639   -4.582843  -31.968676  -96.971522   21.859592    0.000000    0.000000    0.000000    0.000000
  0.030020040   -4.583394  -32.190895  -98.088229   14.783352    0.000000    0.000000    0.000000    0.000000
  0.030220441   -4.584318  -32.407894  -96.831451   18.337601    0.000000    0.000000    0.000000    0.000000
  0.030420842   -4.585672  -32.623928  -96.739983   21.196926    0.000000    0.000000    0.000000    0.000000
  0.030621242   -4.586176  -32.842247  -97.518571   19.846340    0.000000    0.000000    0.000000    0.000000
  0.030821643   -4.586901  -33.068462  -97.676081   18.315571    0.000000    0.000000    0.000000    0.000000
  0.031022044   -4.588792  -33.276516  -97.555768   24.865204    0.000000    0.000000    0.000000    0.000000
  0.031222445   -4.574035  -33.435154  -96.385829   18.854013    0.000000    0.000000    0.000000    0.000000
  0.031422846   -4.576343  -33.656425  -97.404465   17.053205    0.000000    0.000000    0.000000    0.000000
  0.031623246   -4.577231  -33.864376  -97.169264   22.406832    0.000000    0.000000    0.000000    0.000000
  0.031823647   -4.577998  -34.086281  -96.715580   13.580321    0.000000    0.000000    0.000000    0.000000
  0.032024048   -4.579610  -34.300865  -96.164566   14.365899    0.000000    0.000000    0.000000    0.000000
  0.032224449   -4.580861  -34.508907  -96.893544   16.116228    0.000000    0.000000    0.000000    0.000000
  0.032424850   -4.580290  -34.720650  -98.219255   21.098946    0.000000    0.000000    0.000000    0.000000
  0.032625251   -4.582747  -34.936554  -98.090610   18.122231    0.000000    0.000000    0.000000    0.000000
  0.032825651   -4.581037  -35.168362  -96.299086   11.382727    0.000000    0.000000    0.000000    0.000000
  0.033026052   -4.585885  -35.373569  -97.813200    6.079091    0.000000    0.000000    0.000000    0.000000
  0.033226453   -4.584927  -35.582947  -97.980444    5.149716    0.000000    0.000000    0.000000    0.000000
  0.033426854   -4.583838  -35.809681  -98.504314   11.517987    0.000000    0.000000    0.000000    0.000000
  0.033627255   -4.587106  -36.016724  -98.012742   15.318263    0.000000    0.000000    0.000000    0.000000
  0.033827655   -4.586279  -36.233814  -98.779015   11.208104    0.000000    0.000000    0.000000    0.000000
  0.034028056   -4.586557  -36.446587  -97.984580   20.894089    0.000000    0.000000    0.000000    0.000000
  0.034228457   -4.588829  -36.680168  -98.660592    7.045588    0.000000    0.000000    0.000000    0.000000
  0.034428858   -4.589218  -36.893219  -98.880120   16.000458    0.000000    0.000000    0.000000    0.000000
  0.034629259   -4.590335  -37.092125  -98.329914   15.097713    0.000000    0.000000    0.000000    0.000000
  0.034829659   -4.589162  -37.311123  -98.543284    3.766408    0.000000    0.000000    0.000000    0.000000
  0.035030060   -4.590271  -37.536015  -99.730963   12.190578    0.000000    0.000000    0.000000    0.000000
  0.035230461   -4.590613  -37.735859  -98.368901   11.150403    0.000000    0.000000    0.000000    0.000000
  0.035430862   -4.589251  -37.967903  -99.183984    6.346424    0.000000    0.000000    0.000000    0.000000
  0.035631263   -4.590588  -38.173828  -98.843625   12.484232    0.000000    0.000000    0.000000    0.000000
  0.035831663   -4.589456  -38.399601  -98.860935    7.646083    0.000000    0.000000    0.000000    0.000000
  0.036032064   -4.590603  -38.608181  -98.242088    8.082583    0.000000    0.000000    0.000000    0.000000
  0.036232465   -4.591616  -38.832314  -98.367078   -0.018661    0.000000    0.000000    0.000000    0.000000
  0.036432866   -4.592677  -39.045315  -97.634746   14.328544    0.000000    0.000000    0.000000    0.000000
  0.036633267   -4.592272  -39.254627  -99.250676   13.807294    0.000000    0.000000    0.000000    0.000000
  0.036833667   -4.594413  -39.486942  -99.025239   15.012241    0.000000    0.000000    0.000000    0.000000
  0.037034068   -4.594364  -39.698799  -98.290106   11.513933    0.000000    0.000000    0.000000    0.000000
  0.037234469   -4.593477  -39.912384  -99.248275   16.805843    0.000000    0.000000    0.000000    0.000000
  0.037434870   -4.595715  -40.135826  -98.790780   12.393211    0.000000    0.000000    0.000000    0.000000
  0.037635271   -4.596272  -40.351727  -99.226444   17.678806    0.000000    0.000000    0.000000    0.000000
  0.037835671   -4.597824  -40.572807 -100.677653    9.243628    0.000000    0.000000    0.000000    0.000000
  0.038036072   -4.596321  -40.798000 -100.840271    9.529570    0.000000    0.000000    0.000000    0.000000
  0.038236473   -4.597613  -41.007427  -99.373406    9.517673    0.000000    0.000000    0.000000    0.000000
  0.038436874   -4.597166  -41.223965  -99.667530   13.213769    0.000000    0.000000    0.000000    0.000000
  0.038637275   -4.599139  -41.443085  -99.386050   13.114491    0.000000    0.000000    0.000000    0.000000
  0.038837675   -4.600923  -41.657776  -98.495685    0.354204    0.000000    0.000000    0.000000    0.000000
  0.039038076   -4.600586  -41.878510  -98.953207   21.054173    0.000000    0.000000    0.000000    0.000000
  0.039238477   -4.600333  -42.081997  -98.618581   12.846736    0.000000    0.000000    0.000000    0.000000
  0.039438878   -4.600981  -42.314156  -99.587080   10.618374    0.000000    0.000000    0.000000    0.000000
  0.039639279   -4.601512  -42.516926  -98.576868    1.109176    0.000000    0.000000    0.000000    0.000000
  0.039839679   -4.602184  -42.733429  -99.751890    2.645370    0.000000    0.000000    0.000000    0.000000
  0.040040080   -4.603021  -42.959057  -99.558877   12.163153    0.000000    0.000000    0.000000    0.000000
  0.040240481   -4.602972  -43.180195 -100.440397    5.794171    0.000000    0.000000    0.000000    0.000000
  0.040440882   -4.603920  -43.394028  -99.475234   15.921036    0.000000    0.000000    0.000000    0.000000
  0.040641283   -4.604560  -43.613720 -100.155030   10.252270    0.000000    0.000000    0.000000    0.000000
  0.040841683   -4.605696  -43.842514 -100.657620   -0.951222    0.000000    0.000000    0.000000    0.000000
  0.041042084   -4.605830  -44.060719 -101.471152    2.235158    0.000000    0.000000    0.000000    0.000000
  0.041242485   -4.604528  -44.274693  -99.791469   12.361911    0.000000    0.000000    0.000000    0.000000
  0.041442886   -4.606763  -44.493343  -98.296681    9.782628    0.000000    0.000000    0.000000    0.000000
  0.041643287   -4.605845  -44.713448 -100.904683    2.978304    0.000000    0.000000    0.000000    0.000000
  0.041843687   -4.607566  -44.933132 -100.704355    1.542149    0.000000    0.000000    0.000000    0.000000
  0.042044088   -4.608439  -45.154335  -99.082094   11.929269    0.000000    0.000000    0.000000    0.000000
  0.042244489   -4.607073  -45.364677  -99.718447    3.535642    0.000000    0.000000    0.000000    0.000000
  0.042444890   -4.608298  -45.572445  -99.239720    5.635586    0.000000    0.000000    0.000000    0.000000
  0.042645291   -4.609529  -45.797432  -98.710792    8.963547    0.000000    0.000000    0.000000    0.000000
  0.042845691   -4.610248  -46.019886  -99.905578    0.509739    0.000000    0.000000    0.000000    0.000000
  0.043046092   -4.609104  -46.225521 -100.876950    1.733874    0.000000    0.000000    0.000000    0.000000
  0.043246493   -4.610825  -46.444958  -98.810345    1.325590    0.000000    0.000000    0.000000    0.000000
  0.043446894   -4.612157  -46.671734 -101.116390   -2.891851    0.000000    0.000000    0.000000    0.000000
  0.043647295   -4.610188  -46.883553 -100.626170    2.394967    0.000000    0.000000    0.000000    0.000000
  0.043847695   -4.612492  -47.093094 -101.273135    3.698615    0.000000    0.000000    0.000000    0.000000
  0.044048096   -4.611194  -47.332699  -99.762624    8.480069    0.000000    0.000000    0.000000    0.000000
  0.044248497   -4.611459  -47.555019 -101.284579   -4.843283    0.000000    0.000000    0.000000    0.000000
  0.044448898   -4.611246  -47.764820  -99.773400   -5.864282    0.000000    0.000000    0.000000    0.000000
  0.044649299   -4.613994  -47.981117 -101.171012   -1.859617    0.000000    0.000000    0.000000    0.000000
  0.044849699   -4.612518  -48.207214 -100.200877   -0.522224    0.000000    0.000000    0.000000    0.000000
  0.045050100   -4.612473  -48.426674 -103.275262    4.175164    0.000000    0.000000    0.000000    0.000000
  0.045250501   -4.615530  -48.641132 -101.059149    3.681167    0.000000    0.000000    0.000000    0.000000
  0.045450902   -4.616994  -48.849350 -100.552089    1.004847    0.000000    0.000000    0.000000    0.000000
  0.045651303   -4.617756  -49.067310 -101.956801   -4.018520    0.000000    0.000000    0.000000    0.000000
  0.045851703   -4.617341  -49.280987 -102.231786    8.567605    0.000000    0.000000    0.000000    0.000000
  0.046052104   -4.617201  -49.513306  -99.510113    2.390990    0.000000    0.000000    0.000000    0.000000
  0.046252505   -4.618146  -49.744762  -99.945393   -4.750396    0.000000    0.000000    0.000000    0.000000
  0.046452906   -4.617919  -49.958031 -100.925709    0.625429    0.000000    0.000000    0.000000    0.000000
  0.046653307   -4.617329  -50.169827 -101.967419   -4.099887    0.000000    0.000000    0.000000    0.000000
  0.046853707   -4.616869  -50.400230 -102.539677    8.159356    0.000000    0.000000    0.000000    0.000000
  0.047054108   -4.617905  -50.627926 -101.395386   -3.623326    0.000000    0.000000    0.000000    0.000000
  0.047254509   -4.618193  -50.851036 -103.132809  -11.850011    0.000000    0.000000    0.000000    0.000000
  0.047454910   -4.619269  -51.060726 -102.743765    7.148913    0.000000    0.000000    0.000000    0.000000
  0.047655311   -4.619936  -51.281143 -101.081222   -0.067866    0.000000    0.000000    0.000000    0.000000
  0.047855711   -4.618423  -51.497898 -102.680892  -12.558373    0.000000    0.000000    0.000000    0.000000
  0.048056112   -4.621266  -51.720692 -101.525242    8.749278    0.000000    0.000000    0.000000    0.000000
  0.048256513   -4.619372  -51.948959 -100.388005   -9.396744    0.000000    0.000000    0.000000    0.000000
  0.048456914   -4.622488  -52.168541 -102.967776    1.153771    0.000000    0.000000    0.000000    0.000000
  0.048657315   -4.622058  -52.379787 -102.982174   -2.048142    0.000000    0.000000    0.000000    0.000000
  0.048857715   -4.623763  -52.606915 -102.149148    2.857692    0.000000    0.000000    0.000000    0.000000
  0.049058116   -4.624057  -52.830456 -101.325399   -3.082183    0.000000    0.000000    0.000000    0.000000
  0.049258517   -4.623361  -53.042759 -101.760196   -0.088636    0.000000    0.000000    0.000000    0.000000
  0.049458918   -4.622944  -53.259037 -102.694307   -8.079594    0.000000    0.000000    0.000000    0.000000
  0.049659319   -4.622788  -53.470364 -102.777052   -0.418766    0.000000    0.000000    0.000000    0.000000
  0.049859719   -4.622724  -53.700527 -103.671563   -1.918690    0.000000    0.000000    0.000000    0.000000
  0.050060120   -4.625277  -53.905113 -103.064124   -4.649539    0.000000    0.000000    0.000000    0.000000
  0.050260521   -4.625016  -54.130787 -101.771737  -13.388465    0.000000    0.000000    0.000000    0.000000
  0.050460922   -4.625386  -54.354271 -101.632041   -5.671916    0.000000    0.000000    0.000000    0.000000
  0.050661323   -4.625987  -54.559765 -102.807397  -16.355925    0.000000    0.000000    0.000000    0.000000
  0.050861723   -4.628461  -54.780777 -103.097028    0.584987    0.000000    0.000000    0.000000    0.000000
  0.051062124   -4.626580  -54.989498 -102.996737  -14.654473    0.000000    0.000000    0.000000    0.000000
  0.051262525   -4.628215  -55.233303 -101.561069  -11.485656    0.000000    0.000000    0.000000    0.000000
  0.051462926   -4.626811  -55.445953 -102.082106  -10.197631    0.000000    0.000000    0.000000    0.000000
  0.051663327   -4.628994  -55.658852 -101.516855   -6.898172    0.000000    0.000000    0.000000    0.000000
  0.051863727   -4.629737  -55.879528 -102.458545   -6.807992    0.000000    0.000000    0.000000    0.000000
  0.052064128   -4.631272  -56.095802 -104.369415   -7.178794    0.000000    0.000000    0.000000    0.000000
  0.052264529   -4.628582  -56.319977 -103.965548   -2.120980    0.000000    0.000000    0.000000    0.000000
  0.052464930   -4.629866  -56.547993 -102.037566   -6.512283    0.000000    0.000000    0.000000    0.000000
  0.052665331   -4.630803  -56.760052 -101.422189   -0.523917    0.000000    0.000000    0.000000    0.000000
  0.052865731   -4.632602  -56.983200 -103.868768   -7.854567    0.000000    0.000000    0.000000    0.000000
