! Anritsu VNA Master:                     Model: MS2036C/10/77
! SN:                                  1601066
! /bd0/18may08.cable.cal/top.19p46.1.s2p
! Existing Calibration Information:
! TYPE:                         Current Settings,       Active Cal Settings
! TIME:             	   05/08/2018 03:48:41 PM,    05/08/2018 03:47:05 PM
! INTERNAL TEMP:    	                   50.5 C,                    50.5 C
! # POINTS:         	                      500,                       500
! START FREQ:       	               20.000 MHz,                20.000 MHz
! STOP FREQ:        	              120.000 MHz,               120.000 MHz
! SOURCE POWER:     	                     High,                      High
! IFBW:             	                    50 Hz,                     50 Hz
! AVG FACTOR:       	                       1 ,                        1 
! REF PLANE 1:      	                     0 mm,                      0 mm
! REF PLANE 2:      	                     0 mm,                      0 mm
! CAL TYPE:         	                 Full S11,                  Full S11
! CAL METHOD:       	                     SOLT,                      SOLT
! CAL LINE TYPE:    	                     Coax,                      Coax
! DUT PORT 1:       	                K-Conn(F),                 K-Conn(F)
! DUT PORT 2:       	                K-Conn(F),                 K-Conn(F)
! CAL STATUS:       	        OK: Accuracy High,                        --
# GHZ S DB R 50.0
! FREQ.GHZ       S11DB        S11A       S21DB        S21A       S12DB        S12A       S22DB        S22A
  0.020000000   -7.233519  155.887466  -90.738193   38.403713    0.000000    0.000000    0.000000    0.000000
  0.020200401   -7.234998  155.651001  -91.200033   41.478886    0.000000    0.000000    0.000000    0.000000
  0.020400802   -7.236810  155.416626  -91.167107   36.591740    0.000000    0.000000    0.000000    0.000000
  0.020601202   -7.236175  155.179169  -90.945874   37.561707    0.000000    0.000000    0.000000    0.000000
  0.020801603   -7.237925  154.949493  -91.911041   37.665775    0.000000    0.000000    0.000000    0.000000
  0.021002004   -7.237761  154.715927  -90.828833   36.609615    0.000000    0.000000    0.000000    0.000000
  0.021202405   -7.236468  154.483139  -91.610051   36.495007    0.000000    0.000000    0.000000    0.000000
  0.021402806   -7.237509  154.236389  -91.142379   31.070080    0.000000    0.000000    0.000000    0.000000
  0.021603206   -7.238889  154.008682  -92.272474   36.843204    0.000000    0.000000    0.000000    0.000000
  0.021803607   -7.236112  153.757477  -92.126228   32.867264    0.000000    0.000000    0.000000    0.000000
  0.022004008   -7.238354  153.535538  -91.573520   34.880096    0.000000    0.000000    0.000000    0.000000
  0.022204409   -7.239315  153.291306  -91.902682   34.189976    0.000000    0.000000    0.000000    0.000000
  0.022404810   -7.238822  153.065445  -92.439931   32.143925    0.000000    0.000000    0.000000    0.000000
  0.022605210   -7.238837  152.822723  -92.981729   29.618896    0.000000    0.000000    0.000000    0.000000
  0.022805611   -7.243014  152.590805  -92.770305   30.110682    0.000000    0.000000    0.000000    0.000000
  0.023006012   -7.241162  152.349091  -92.426404   37.471485    0.000000    0.000000    0.000000    0.000000
  0.023206413   -7.242458  152.123550  -92.742433   27.611002    0.000000    0.000000    0.000000    0.000000
  0.023406814   -7.242378  151.869705  -92.638171   32.836235    0.000000    0.000000    0.000000    0.000000
  0.023607214   -7.243960  151.636047  -92.652986   27.718639    0.000000    0.000000    0.000000    0.000000
  0.023807615   -7.242734  151.394897  -92.865945   21.606497    0.000000    0.000000    0.000000    0.000000
  0.024008016   -7.243452  151.169098  -93.143330   28.322130    0.000000    0.000000    0.000000    0.000000
  0.024208417   -7.245170  150.932007  -93.143431   26.560932    0.000000    0.000000    0.000000    0.000000
  0.024408818   -7.244393  150.686401  -93.718584   19.166800    0.000000    0.000000    0.000000    0.000000
  0.024609218   -7.244482  150.460526  -93.301745   25.635433    0.000000    0.000000    0.000000    0.000000
  0.024809619   -7.245872  150.216171  -93.415364   22.178526    0.000000    0.000000    0.000000    0.000000
  0.025010020   -7.247937  149.985168  -94.012514   24.297947    0.000000    0.000000    0.000000    0.000000
  0.025210421   -7.248416  149.737457  -94.066021   24.510002    0.000000    0.000000    0.000000    0.000000
  0.025410822   -7.249749  149.517502  -93.499121   23.287851    0.000000    0.000000    0.000000    0.000000
  0.025611222   -7.247316  149.275177  -94.123146   24.224054    0.000000    0.000000    0.000000    0.000000
  0.025811623   -7.248854  149.035004  -94.123765   21.469976    0.000000    0.000000    0.000000    0.000000
  0.026012024   -7.248516  148.805786  -94.353961   17.552439    0.000000    0.000000    0.000000    0.000000
  0.026212425   -7.249080  148.572388  -95.114977   19.456606    0.000000    0.000000    0.000000    0.000000
  0.026412826   -7.247520  148.324081  -94.950634   16.508745    0.000000    0.000000    0.000000    0.000000
  0.026613226   -7.249353  148.088303  -94.472994   18.136444    0.000000    0.000000    0.000000    0.000000
  0.026813627   -7.248849  147.867905  -94.559689   19.606672    0.000000    0.000000    0.000000    0.000000
  0.027014028   -7.249713  147.621429  -94.597463   21.230219    0.000000    0.000000    0.000000    0.000000
  0.027214429   -7.249108  147.381989  -94.850586   20.748617    0.000000    0.000000    0.000000    0.000000
  0.027414830   -7.246810  147.159683  -95.199912   17.198933    0.000000    0.000000    0.000000    0.000000
  0.027615230   -7.248971  146.916534  -95.383830   20.552979    0.000000    0.000000    0.000000    0.000000
  0.027815631   -7.250703  146.674133  -96.086594   13.174701    0.000000    0.000000    0.000000    0.000000
  0.028016032   -7.249782  146.433548  -96.557078   21.266970    0.000000    0.000000    0.000000    0.000000
  0.028216433   -7.249058  146.217819  -96.053879   17.482134    0.000000    0.000000    0.000000    0.000000
  0.028416834   -7.250181  145.963104  -95.320293   19.811342    0.000000    0.000000    0.000000    0.000000
  0.028617234   -7.250092  145.735077  -96.055709   15.460078    0.000000    0.000000    0.000000    0.000000
  0.028817635   -7.247874  145.503082  -97.063686   17.678434    0.000000    0.000000    0.000000    0.000000
  0.029018036   -7.247117  145.266312  -95.513211   18.356184    0.000000    0.000000    0.000000    0.000000
  0.029218437   -7.246755  145.049454  -96.533830   15.957124    0.000000    0.000000    0.000000    0.000000
  0.029418838   -7.249244  144.795837  -96.104763   19.284536    0.000000    0.000000    0.000000    0.000000
  0.029619238   -7.246515  144.569534  -96.177335   21.507204    0.000000    0.000000    0.000000    0.000000
  0.029819639   -7.246846  144.327927  -97.190850   18.735172    0.000000    0.000000    0.000000    0.000000
  0.030020040   -7.244234  144.097321  -96.147862   11.273046    0.000000    0.000000    0.000000    0.000000
  0.030220441   -7.246609  143.848557  -96.455302   15.974349    0.000000    0.000000    0.000000    0.000000
  0.030420842   -7.246146  143.631989  -96.848456   15.246046    0.000000    0.000000    0.000000    0.000000
  0.030621242   -7.243533  143.379532  -96.483592   11.425105    0.000000    0.000000    0.000000    0.000000
  0.030821643   -7.244280  143.142426  -97.118444   11.438677    0.000000    0.000000    0.000000    0.000000
  0.031022044   -7.242081  142.905838  -96.874747   17.896944    0.000000    0.000000    0.000000    0.000000
  0.031222445   -7.225532  142.762054  -96.708279    7.502073    0.000000    0.000000    0.000000    0.000000
  0.031422846   -7.223770  142.532471  -97.084473   12.960592    0.000000    0.000000    0.000000    0.000000
  0.031623246   -7.226006  142.287720  -96.214863    9.670001    0.000000    0.000000    0.000000    0.000000
  0.031823647   -7.226657  142.035492  -97.261017   12.025642    0.000000    0.000000    0.000000    0.000000
  0.032024048   -7.225238  141.813705  -97.475524   15.953359    0.000000    0.000000    0.000000    0.000000
  0.032224449   -7.224988  141.582001  -96.111052   10.351646    0.000000    0.000000    0.000000    0.000000
  0.032424850   -7.225806  141.328949  -97.173801   20.505121    0.000000    0.000000    0.000000    0.000000
  0.032625251   -7.226474  141.093170  -97.541718   16.749031    0.000000    0.000000    0.000000    0.000000
  0.032825651   -7.226255  140.854706  -97.136307   13.042830    0.000000    0.000000    0.000000    0.000000
  0.033026052   -7.225649  140.601700  -99.429752   10.589114    0.000000    0.000000    0.000000    0.000000
  0.033226453   -7.225754  140.351608  -97.549665    1.846178    0.000000    0.000000    0.000000    0.000000
  0.033426854   -7.228642  140.132813  -97.488651   14.691344    0.000000    0.000000    0.000000    0.000000
  0.033627255   -7.228331  139.894073  -98.026045    5.185101    0.000000    0.000000    0.000000    0.000000
  0.033827655   -7.228213  139.635452  -97.134371    7.850043    0.000000    0.000000    0.000000    0.000000
  0.034028056   -7.228904  139.417435  -98.759658   10.862654    0.000000    0.000000    0.000000    0.000000
  0.034228457   -7.226699  139.167130  -97.573893    5.503499    0.000000    0.000000    0.000000    0.000000
  0.034428858   -7.227236  138.928360  -98.447464    6.599334    0.000000    0.000000    0.000000    0.000000
  0.034629259   -7.229410  138.689194  -98.120794    8.565839    0.000000    0.000000    0.000000    0.000000
  0.034829659   -7.228068  138.441956  -99.039064    4.209799    0.000000    0.000000    0.000000    0.000000
  0.035030060   -7.227103  138.206268  -98.592072   15.428902    0.000000    0.000000    0.000000    0.000000
  0.035230461   -7.229053  137.958832 -100.143117   10.802126    0.000000    0.000000    0.000000    0.000000
  0.035430862   -7.229742  137.722504  -98.189153   10.348147    0.000000    0.000000    0.000000    0.000000
  0.035631263   -7.232732  137.489899 -100.133171    7.365563    0.000000    0.000000    0.000000    0.000000
  0.035831663   -7.231407  137.257675  -99.926385    7.938352    0.000000    0.000000    0.000000    0.000000
  0.036032064   -7.230253  137.019806 -101.570403    6.276623    0.000000    0.000000    0.000000    0.000000
  0.036232465   -7.229084  136.777359  -98.853376    3.661853    0.000000    0.000000    0.000000    0.000000
  0.036432866   -7.230165  136.540649 -100.007219    5.454529    0.000000    0.000000    0.000000    0.000000
  0.036633267   -7.229847  136.306473  -98.518279    0.491792    0.000000    0.000000    0.000000    0.000000
  0.036833667   -7.229127  136.073425 -101.093920    8.764335    0.000000    0.000000    0.000000    0.000000
  0.037034068   -7.228308  135.832581  -99.195908   17.250349    0.000000    0.000000    0.000000    0.000000
  0.037234469   -7.231950  135.603088  -99.971840   12.328751    0.000000    0.000000    0.000000    0.000000
  0.037434870   -7.227930  135.382965 -101.491003    2.629986    0.000000    0.000000    0.000000    0.000000
  0.037635271   -7.228470  135.126556 -100.427466   -3.303107    0.000000    0.000000    0.000000    0.000000
  0.037835671   -7.229945  134.894470  -98.378656    3.886984    0.000000    0.000000    0.000000    0.000000
  0.038036072   -7.228799  134.670807  -99.553847    0.412431    0.000000    0.000000    0.000000    0.000000
  0.038236473   -7.229425  134.435364 -100.660668   17.616482    0.000000    0.000000    0.000000    0.000000
  0.038436874   -7.228634  134.187683 -100.731853    7.273853    0.000000    0.000000    0.000000    0.000000
  0.038637275   -7.228072  133.978958 -101.143034    7.612433    0.000000    0.000000    0.000000    0.000000
  0.038837675   -7.228681  133.724243 -101.270855    5.653852    0.000000    0.000000    0.000000    0.000000
  0.039038076   -7.227460  133.499420 -102.057819    8.262470    0.000000    0.000000    0.000000    0.000000
  0.039238477   -7.226755  133.250122 -100.938669   11.577339    0.000000    0.000000    0.000000    0.000000
  0.039438878   -7.225220  133.027374  -99.344553   -0.090262    0.000000    0.000000    0.000000    0.000000
  0.039639279   -7.226138  132.787857 -100.188680   16.197802    0.000000    0.000000    0.000000    0.000000
  0.039839679   -7.226747  132.552139 -100.965215   12.901161    0.000000    0.000000    0.000000    0.000000
  0.040040080   -7.226761  132.327087 -100.627039   -0.528093    0.000000    0.000000    0.000000    0.000000
  0.040240481   -7.226963  132.083176 -100.012256    3.809997    0.000000    0.000000    0.000000    0.000000
  0.040440882   -7.226269  131.847458 -103.476401    4.613415    0.000000    0.000000    0.000000    0.000000
  0.040641283   -7.224277  131.615784 -101.537547   -6.040776    0.000000    0.000000    0.000000    0.000000
  0.040841683   -7.224651  131.400879 -101.088405    4.897327    0.000000    0.000000    0.000000    0.000000
  0.041042084   -7.224986  131.164932 -100.280167   13.727304    0.000000    0.000000    0.000000    0.000000
  0.041242485   -7.225927  130.933289 -100.469508  -13.938291    0.000000    0.000000    0.000000    0.000000
  0.041442886   -7.225325  130.674393 -101.275777    8.010802    0.000000    0.000000    0.000000    0.000000
  0.041643287   -7.224282  130.455719 -101.340111    5.528049    0.000000    0.000000    0.000000    0.000000
  0.041843687   -7.223709  130.222672 -103.830790   18.849213    0.000000    0.000000    0.000000    0.000000
  0.042044088   -7.221584  129.998688 -103.638886    2.961082    0.000000    0.000000    0.000000    0.000000
  0.042244489   -7.223090  129.767426  -99.290992   14.276913    0.000000    0.000000    0.000000    0.000000
  0.042444890   -7.223033  129.515366 -102.479432   17.602718    0.000000    0.000000    0.000000    0.000000
  0.042645291   -7.222385  129.299805 -102.887109   12.332961    0.000000    0.000000    0.000000    0.000000
  0.042845691   -7.219861  129.074722 -101.426626    3.392484    0.000000    0.000000    0.000000    0.000000
  0.043046092   -7.219843  128.827301 -102.751985    3.621503    0.000000    0.000000    0.000000    0.000000
  0.043246493   -7.221330  128.594376 -104.967911    5.162675    0.000000    0.000000    0.000000    0.000000
  0.043446894   -7.221026  128.367905 -103.194242    9.356222    0.000000    0.000000    0.000000    0.000000
  0.043647295   -7.221335  128.117035 -102.052961   17.901299    0.000000    0.000000    0.000000    0.000000
  0.043847695   -7.219925  127.894524 -103.426387    5.864085    0.000000    0.000000    0.000000    0.000000
  0.044048096   -7.219061  127.663094 -103.279747    2.355371    0.000000    0.000000    0.000000    0.000000
  0.044248497   -7.217115  127.423805 -102.656727   15.538358    0.000000    0.000000    0.000000    0.000000
  0.044448898   -7.220594  127.182480  -99.750425    6.599911    0.000000    0.000000    0.000000    0.000000
  0.044649299   -7.216700  126.944992 -101.950459   11.053347    0.000000    0.000000    0.000000    0.000000
  0.044849699   -7.218573  126.711716 -103.850860   -8.640226    0.000000    0.000000    0.000000    0.000000
  0.045050100   -7.217622  126.475243 -102.801512    2.875386    0.000000    0.000000    0.000000    0.000000
  0.045250501   -7.216303  126.245270 -103.783450   10.152884    0.000000    0.000000    0.000000    0.000000
  0.045450902   -7.216476  126.003685 -103.616177   12.465903    0.000000    0.000000    0.000000    0.000000
  0.045651303   -7.215840  125.790581 -102.064338    6.790031    0.000000    0.000000    0.000000    0.000000
  0.045851703   -7.215739  125.543442 -101.086010   12.760407    0.000000    0.000000    0.000000    0.000000
  0.046052104   -7.212861  125.315666 -102.348655   -9.118442    0.000000    0.000000    0.000000    0.000000
  0.046252505   -7.214492  125.074371 -102.487874    8.645041    0.000000    0.000000    0.000000    0.000000
  0.046452906   -7.214712  124.840530 -100.478171   14.923880    0.000000    0.000000    0.000000    0.000000
  0.046653307   -7.214688  124.599518 -104.524030   14.501410    0.000000    0.000000    0.000000    0.000000
  0.046853707   -7.214401  124.370766 -102.172010   13.828447    0.000000    0.000000    0.000000    0.000000
  0.047054108   -7.211736  124.142967 -103.313166   16.014397    0.000000    0.000000    0.000000    0.000000
  0.047254509   -7.209008  123.892693 -103.831349   15.584956    0.000000    0.000000    0.000000    0.000000
  0.047454910   -7.210834  123.653648 -103.797308   -3.206880    0.000000    0.000000    0.000000    0.000000
  0.047655311   -7.211687  123.408432 -102.230881   -0.569506    0.000000    0.000000    0.000000    0.000000
  0.047855711   -7.209369  123.179855 -104.145230   22.029617    0.000000    0.000000    0.000000    0.000000
  0.048056112   -7.208134  122.925453 -103.142103    1.586211    0.000000    0.000000    0.000000    0.000000
  0.048256513   -7.207719  122.699387 -103.019148    8.182857    0.000000    0.000000    0.000000    0.000000
  0.048456914   -7.202717  122.469582 -102.880297    8.527836    0.000000    0.000000    0.000000    0.000000
  0.048657315   -7.204843  122.219666 -100.834965    7.216272    0.000000    0.000000    0.000000    0.000000
  0.048857715   -7.202232  122.009483 -102.299479   12.793262    0.000000    0.000000    0.000000    0.000000
  0.049058116   -7.202776  121.772339 -103.313509    3.511204    0.000000    0.000000    0.000000    0.000000
  0.049258517   -7.201690  121.542572 -101.942444   23.278641    0.000000    0.000000    0.000000    0.000000
  0.049458918   -7.203496  121.317352 -101.825025   11.782783    0.000000    0.000000    0.000000    0.000000
  0.049659319   -7.201725  121.070992 -102.503228    7.236300    0.000000    0.000000    0.000000    0.000000
  0.049859719   -7.200351  120.849556 -102.823465   14.307675    0.000000    0.000000    0.000000    0.000000
  0.050060120   -7.199980  120.602409 -101.965667   24.777744    0.000000    0.000000    0.000000    0.000000
  0.050260521   -7.199033  120.373482 -104.462677   -4.535330    0.000000    0.000000    0.000000    0.000000
  0.050460922   -7.199418  120.152191 -102.684692   10.057056    0.000000    0.000000    0.000000    0.000000
  0.050661323   -7.198098  119.900543 -105.879470   27.145660    0.000000    0.000000    0.000000    0.000000
  0.050861723   -7.196726  119.672798 -104.146141   -4.394730    0.000000    0.000000    0.000000    0.000000
  0.051062124   -7.196325  119.429535 -101.502880   -2.480631    0.000000    0.000000    0.000000    0.000000
  0.051262525   -7.194058  119.197868 -101.452319   17.527685    0.000000    0.000000    0.000000    0.000000
  0.051462926   -7.197596  118.957756 -101.403625    4.849716    0.000000    0.000000    0.000000    0.000000
  0.051663327   -7.196879  118.737633 -102.252293   17.951305    0.000000    0.000000    0.000000    0.000000
  0.051863727   -7.192274  118.506310 -102.280073    5.631420    0.000000    0.000000    0.000000    0.000000
  0.052064128   -7.193073  118.262611 -102.212740   21.602716    0.000000    0.000000    0.000000    0.000000
  0.052264529   -7.193349  118.042389 -102.696950   11.310715    0.000000    0.000000    0.000000    0.000000
  0.052464930   -7.190836  117.812141 -103.180786    8.743669    0.000000    0.000000    0.000000    0.000000
  0.052665331   -7.191629  117.582977 -102.794641   14.109667    0.000000    0.000000    0.000000    0.000000
  0.052865731   -7.190823  117.359276 -104.394730    4.680072    0.000000    0.000000    0.000000    0.000000
