! Anritsu VNA Master:                     Model: MS2036C/10/77
! SN:                                  1601066
! /bd0/18may08.cable.cal/top.50.2.s2p
! Existing Calibration Information:
! TYPE:                         Current Settings,       Active Cal Settings
! TIME:             	   05/08/2018 06:15:08 PM,    05/08/2018 05:57:55 PM
! INTERNAL TEMP:    	                   49.5 C,                    49.3 C
! # POINTS:         	                      500,                       500
! START FREQ:       	               20.000 MHz,                20.000 MHz
! STOP FREQ:        	              120.000 MHz,               120.000 MHz
! SOURCE POWER:     	                     High,                      High
! IFBW:             	                    50 Hz,                     50 Hz
! AVG FACTOR:       	                       1 ,                        1 
! REF PLANE 1:      	                     0 mm,                      0 mm
! REF PLANE 2:      	                     0 mm,                      0 mm
! CAL TYPE:         	                 Full S11,                  Full S11
! CAL METHOD:       	                     SOLT,                      SOLT
! CAL LINE TYPE:    	                     Coax,                      Coax
! DUT PORT 1:       	                K-Conn(F),                 K-Conn(F)
! DUT PORT 2:       	                K-Conn(F),                 K-Conn(F)
! CAL STATUS:       	        OK: Accuracy High,                        --
# GHZ S DB R 50.0
! FREQ.GHZ       S11DB        S11A       S21DB        S21A       S12DB        S12A       S22DB        S22A
  0.020000000  -38.862077   56.121719  -91.433199   33.634892    0.000000    0.000000    0.000000    0.000000
  0.020200401  -38.861575   56.221222  -91.412784   38.703621    0.000000    0.000000    0.000000    0.000000
  0.020400802  -38.761687   56.011959  -91.310238   31.092386    0.000000    0.000000    0.000000    0.000000
  0.020601202  -38.767429   56.227779  -91.373378   36.739803    0.000000    0.000000    0.000000    0.000000
  0.020801603  -38.623296   56.244808  -92.131546   33.581844    0.000000    0.000000    0.000000    0.000000
  0.021002004  -38.693809   55.626518  -92.439818   35.398434    0.000000    0.000000    0.000000    0.000000
  0.021202405  -38.494124   55.950520  -91.817606   32.136951    0.000000    0.000000    0.000000    0.000000
  0.021402806  -38.510446   55.615585  -91.919513   32.553612    0.000000    0.000000    0.000000    0.000000
  0.021603206  -38.464371   55.894459  -91.935656   33.052296    0.000000    0.000000    0.000000    0.000000
  0.021803607  -38.375075   55.840427  -92.313770   30.203564    0.000000    0.000000    0.000000    0.000000
  0.022004008  -38.353260   55.135830  -92.650080   32.492947    0.000000    0.000000    0.000000    0.000000
  0.022204409  -38.241018   55.472744  -92.880122   28.962000    0.000000    0.000000    0.000000    0.000000
  0.022404810  -38.173165   55.580917  -92.672930   32.861595    0.000000    0.000000    0.000000    0.000000
  0.022605210  -38.121706   55.293793  -92.237662   29.590630    0.000000    0.000000    0.000000    0.000000
  0.022805611  -38.108478   54.849873  -92.852817   30.339085    0.000000    0.000000    0.000000    0.000000
  0.023006012  -38.031444   54.698929  -92.736338   26.176430    0.000000    0.000000    0.000000    0.000000
  0.023206413  -38.037940   55.258503  -93.042585   24.491692    0.000000    0.000000    0.000000    0.000000
  0.023406814  -37.898995   54.883820  -93.370127   28.660826    0.000000    0.000000    0.000000    0.000000
  0.023607214  -37.862224   55.028164  -93.125315   21.231297    0.000000    0.000000    0.000000    0.000000
  0.023807615  -37.808620   55.014324  -93.797985   30.720341    0.000000    0.000000    0.000000    0.000000
  0.024008016  -37.661073   55.003319  -94.455318   26.180567    0.000000    0.000000    0.000000    0.000000
  0.024208417  -37.708919   54.833359  -93.294401   25.978975    0.000000    0.000000    0.000000    0.000000
  0.024408818  -37.738211   54.575256  -93.774291   25.122080    0.000000    0.000000    0.000000    0.000000
  0.024609218  -37.644260   54.881039  -93.742081   21.082260    0.000000    0.000000    0.000000    0.000000
  0.024809619  -37.552677   54.522602  -93.483383   23.687796    0.000000    0.000000    0.000000    0.000000
  0.025010020  -37.461760   54.384460  -93.879717   24.305946    0.000000    0.000000    0.000000    0.000000
  0.025210421  -37.490394   54.236126  -93.980092   21.194389    0.000000    0.000000    0.000000    0.000000
  0.025410822  -37.426441   54.557739  -94.060126   23.842314    0.000000    0.000000    0.000000    0.000000
  0.025611222  -37.334119   54.501236  -95.382629   22.534599    0.000000    0.000000    0.000000    0.000000
  0.025811623  -37.324867   53.880188  -95.149193   23.250265    0.000000    0.000000    0.000000    0.000000
  0.026012024  -37.277985   54.038315  -94.444773   20.371513    0.000000    0.000000    0.000000    0.000000
  0.026212425  -37.192511   54.399311  -94.918790   23.626791    0.000000    0.000000    0.000000    0.000000
  0.026412826  -37.203273   54.286125  -95.223173   23.218323    0.000000    0.000000    0.000000    0.000000
  0.026613226  -37.165775   54.142799  -94.688375   26.696224    0.000000    0.000000    0.000000    0.000000
  0.026813627  -37.099150   53.870628  -94.856911   20.322973    0.000000    0.000000    0.000000    0.000000
  0.027014028  -37.096864   53.775642  -95.572208   23.246548    0.000000    0.000000    0.000000    0.000000
  0.027214429  -37.025018   53.584057  -95.069635   16.243582    0.000000    0.000000    0.000000    0.000000
  0.027414830  -36.937486   53.702255  -95.970932   24.620996    0.000000    0.000000    0.000000    0.000000
  0.027615230  -36.905333   53.617455  -95.947213   19.041992    0.000000    0.000000    0.000000    0.000000
  0.027815631  -36.871323   53.487591  -95.820605   16.667395    0.000000    0.000000    0.000000    0.000000
  0.028016032  -36.834244   53.695477  -96.026141   20.872034    0.000000    0.000000    0.000000    0.000000
  0.028216433  -36.797543   53.864964  -95.835889   21.695515    0.000000    0.000000    0.000000    0.000000
  0.028416834  -36.690408   53.035988  -96.397455   17.699265    0.000000    0.000000    0.000000    0.000000
  0.028617234  -36.751843   53.349388  -96.334122   20.783920    0.000000    0.000000    0.000000    0.000000
  0.028817635  -36.628208   53.285179  -96.639159   23.523378    0.000000    0.000000    0.000000    0.000000
  0.029018036  -36.657812   53.281342  -96.624627   17.290384    0.000000    0.000000    0.000000    0.000000
  0.029218437  -36.595630   53.351227  -97.461314   22.467850    0.000000    0.000000    0.000000    0.000000
  0.029418838  -36.515893   52.953968  -97.169092   16.112253    0.000000    0.000000    0.000000    0.000000
  0.029619238  -36.454214   52.998577  -96.536543   18.104305    0.000000    0.000000    0.000000    0.000000
  0.029819639  -36.402386   52.938274  -96.560351   19.802483    0.000000    0.000000    0.000000    0.000000
  0.030020040  -36.391393   52.408195  -97.028939   22.425850    0.000000    0.000000    0.000000    0.000000
  0.030220441  -36.409662   52.486065  -97.207401   15.847140    0.000000    0.000000    0.000000    0.000000
  0.030420842  -36.341633   52.718273  -97.204565   17.926434    0.000000    0.000000    0.000000    0.000000
  0.030621242  -36.235988   52.652313  -97.264794   16.365950    0.000000    0.000000    0.000000    0.000000
  0.030821643  -36.248633   52.473236  -97.351546   17.681087    0.000000    0.000000    0.000000    0.000000
  0.031022044  -36.186224   52.295456  -96.847996   18.350084    0.000000    0.000000    0.000000    0.000000
  0.031222445  -36.075328   52.418446  -96.795421    8.971287    0.000000    0.000000    0.000000    0.000000
  0.031422846  -36.092261   52.539314  -97.509303   13.945675    0.000000    0.000000    0.000000    0.000000
  0.031623246  -36.130114   52.106003  -97.571290   14.159171    0.000000    0.000000    0.000000    0.000000
  0.031823647  -36.117279   52.111855  -97.191615   20.067743    0.000000    0.000000    0.000000    0.000000
  0.032024048  -36.015050   52.257156  -97.377199    7.019833    0.000000    0.000000    0.000000    0.000000
  0.032224449  -35.989980   51.817116  -97.064144   12.677753    0.000000    0.000000    0.000000    0.000000
  0.032424850  -35.923860   51.855362  -98.216173   11.931540    0.000000    0.000000    0.000000    0.000000
  0.032625251  -35.932619   51.666271  -98.076664   11.400880    0.000000    0.000000    0.000000    0.000000
  0.032825651  -35.874283   51.691383  -97.871956   10.199851    0.000000    0.000000    0.000000    0.000000
  0.033026052  -35.827975   51.578037  -97.320046   12.518664    0.000000    0.000000    0.000000    0.000000
  0.033226453  -35.817765   51.725266  -98.251964   10.809761    0.000000    0.000000    0.000000    0.000000
  0.033426854  -35.785252   51.694248  -97.889922    5.667085    0.000000    0.000000    0.000000    0.000000
  0.033627255  -35.730328   51.631153  -97.479913    7.634811    0.000000    0.000000    0.000000    0.000000
  0.033827655  -35.628468   51.417927  -99.440782   13.764989    0.000000    0.000000    0.000000    0.000000
  0.034028056  -35.647770   51.093460  -98.145831   10.115989    0.000000    0.000000    0.000000    0.000000
  0.034228457  -35.636223   50.789822  -98.016624    9.800817    0.000000    0.000000    0.000000    0.000000
  0.034428858  -35.571740   51.147095  -97.346988    5.957883    0.000000    0.000000    0.000000    0.000000
  0.034629259  -35.593229   51.007832  -98.569954   19.386829    0.000000    0.000000    0.000000    0.000000
  0.034829659  -35.562051   51.056370  -97.626445    8.216122    0.000000    0.000000    0.000000    0.000000
  0.035030060  -35.448499   50.842602  -99.053997   16.319241    0.000000    0.000000    0.000000    0.000000
  0.035230461  -35.443289   50.916454  -98.047581   12.023701    0.000000    0.000000    0.000000    0.000000
  0.035430862  -35.361996   50.679230  -98.332227   12.665022    0.000000    0.000000    0.000000    0.000000
  0.035631263  -35.386600   50.679356  -99.450859   12.619344    0.000000    0.000000    0.000000    0.000000
  0.035831663  -35.338103   50.729759  -99.075610    5.533761    0.000000    0.000000    0.000000    0.000000
  0.036032064  -35.343725   50.455544 -100.104289    8.412923    0.000000    0.000000    0.000000    0.000000
  0.036232465  -35.273703   50.309593  -98.541416   12.774651    0.000000    0.000000    0.000000    0.000000
  0.036432866  -35.269391   50.363831  -99.164559   10.929851    0.000000    0.000000    0.000000    0.000000
  0.036633267  -35.271439   50.883793 -100.098494   10.348883    0.000000    0.000000    0.000000    0.000000
  0.036833667  -35.216346   50.262817 -101.131564   11.849581    0.000000    0.000000    0.000000    0.000000
  0.037034068  -35.133426   49.967163 -100.098243   13.164968    0.000000    0.000000    0.000000    0.000000
  0.037234469  -35.090749   49.914337  -98.651675    6.989093    0.000000    0.000000    0.000000    0.000000
  0.037434870  -35.066744   49.847511  -99.774939   -0.910892    0.000000    0.000000    0.000000    0.000000
  0.037635271  -35.048506   49.870892 -100.572192   10.163687    0.000000    0.000000    0.000000    0.000000
  0.037835671  -35.021962   49.899548  -98.151438    7.035899    0.000000    0.000000    0.000000    0.000000
  0.038036072  -34.984071   49.393333 -100.970282    0.063015    0.000000    0.000000    0.000000    0.000000
  0.038236473  -34.957774   49.580837  -99.158254    2.784481    0.000000    0.000000    0.000000    0.000000
  0.038436874  -34.950460   49.762211  -99.247808   -1.274042    0.000000    0.000000    0.000000    0.000000
  0.038637275  -34.852346   49.507931 -100.805340   11.704010    0.000000    0.000000    0.000000    0.000000
  0.038837675  -34.898642   48.874557  -98.808936   10.809850    0.000000    0.000000    0.000000    0.000000
  0.039038076  -34.840238   48.958637  -99.386279    3.284889    0.000000    0.000000    0.000000    0.000000
  0.039238477  -34.829662   48.831554  -99.460215    6.407263    0.000000    0.000000    0.000000    0.000000
  0.039438878  -34.796477   49.134377 -103.173272   12.205692    0.000000    0.000000    0.000000    0.000000
  0.039639279  -34.732189   48.595474  -99.665379   13.752988    0.000000    0.000000    0.000000    0.000000
  0.039839679  -34.733339   48.843262 -100.068034    5.815739    0.000000    0.000000    0.000000    0.000000
  0.040040080  -34.685088   48.642490  -99.577985    5.363256    0.000000    0.000000    0.000000    0.000000
  0.040240481  -34.682328   48.482441 -100.954060   13.159203    0.000000    0.000000    0.000000    0.000000
  0.040440882  -34.629226   48.484810  -99.442683    1.418253    0.000000    0.000000    0.000000    0.000000
  0.040641283  -34.600056   48.605434 -100.314613    3.805153    0.000000    0.000000    0.000000    0.000000
  0.040841683  -34.555638   48.671612 -100.366523    5.355195    0.000000    0.000000    0.000000    0.000000
  0.041042084  -34.526638   48.201588  -99.768978    8.368442    0.000000    0.000000    0.000000    0.000000
  0.041242485  -34.494889   48.127464 -102.727268   14.438320    0.000000    0.000000    0.000000    0.000000
  0.041442886  -34.486687   48.195484  -99.871653   -1.773580    0.000000    0.000000    0.000000    0.000000
  0.041643287  -34.389884   47.951397 -101.945290    6.274392    0.000000    0.000000    0.000000    0.000000
  0.041843687  -34.440220   47.767948 -100.058293    1.178749    0.000000    0.000000    0.000000    0.000000
  0.042044088  -34.432883   47.795952 -103.449387    8.265349    0.000000    0.000000    0.000000    0.000000
  0.042244489  -34.344424   47.768658  -99.976837   12.632395    0.000000    0.000000    0.000000    0.000000
  0.042444890  -34.336946   47.626591  -99.793312    1.457262    0.000000    0.000000    0.000000    0.000000
  0.042645291  -34.282017   47.462002  -99.877271   11.099854    0.000000    0.000000    0.000000    0.000000
  0.042845691  -34.286120   47.520508 -102.310100    9.963942    0.000000    0.000000    0.000000    0.000000
  0.043046092  -34.265763   47.443356 -100.956742    3.941584    0.000000    0.000000    0.000000    0.000000
  0.043246493  -34.218607   47.187962 -100.958631    8.507104    0.000000    0.000000    0.000000    0.000000
  0.043446894  -34.204642   47.173836 -100.870634   -2.726901    0.000000    0.000000    0.000000    0.000000
  0.043647295  -34.165330   47.245201 -100.159493    2.988429    0.000000    0.000000    0.000000    0.000000
  0.043847695  -34.157216   47.289867 -101.599365    2.662033    0.000000    0.000000    0.000000    0.000000
  0.044048096  -34.107891   46.997917 -102.507793   13.149466    0.000000    0.000000    0.000000    0.000000
  0.044248497  -34.064449   47.006569 -103.480168   16.202295    0.000000    0.000000    0.000000    0.000000
  0.044448898  -34.091648   47.005684 -100.989691    1.461664    0.000000    0.000000    0.000000    0.000000
  0.044649299  -34.048603   46.738548 -102.399213    3.458094    0.000000    0.000000    0.000000    0.000000
  0.044849699  -34.012443   46.562683 -100.511349    9.711187    0.000000    0.000000    0.000000    0.000000
  0.045050100  -33.971592   46.500687 -101.912536   12.982387    0.000000    0.000000    0.000000    0.000000
  0.045250501  -33.958368   46.577442 -101.112666    7.727382    0.000000    0.000000    0.000000    0.000000
  0.045450902  -33.943005   46.484657 -101.646571    1.362783    0.000000    0.000000    0.000000    0.000000
  0.045651303  -33.903821   46.395008 -102.383474    5.247399    0.000000    0.000000    0.000000    0.000000
  0.045851703  -33.892299   46.399979 -102.009629    8.020444    0.000000    0.000000    0.000000    0.000000
  0.046052104  -33.856221   46.074150 -103.321776   -2.708712    0.000000    0.000000    0.000000    0.000000
  0.046252505  -33.783648   46.209225 -101.731130   -0.009859    0.000000    0.000000    0.000000    0.000000
  0.046452906  -33.815027   46.014793 -101.995666   -0.875009    0.000000    0.000000    0.000000    0.000000
  0.046653307  -33.770136   45.750084 -100.649427    2.611460    0.000000    0.000000    0.000000    0.000000
  0.046853707  -33.745013   45.796425 -104.131049   10.723783    0.000000    0.000000    0.000000    0.000000
  0.047054108  -33.730971   45.797897 -104.402035    2.596467    0.000000    0.000000    0.000000    0.000000
  0.047254509  -33.669232   45.641724 -102.530038   22.836227    0.000000    0.000000    0.000000    0.000000
  0.047454910  -33.716833   45.755520 -100.888090    9.058265    0.000000    0.000000    0.000000    0.000000
  0.047655311  -33.617540   45.517445 -103.802863   11.553784    0.000000    0.000000    0.000000    0.000000
  0.047855711  -33.609973   45.472919 -102.562908   11.299881    0.000000    0.000000    0.000000    0.000000
  0.048056112  -33.576520   45.391422 -100.172795    8.641208    0.000000    0.000000    0.000000    0.000000
  0.048256513  -33.575369   45.263943 -102.567938    8.526485    0.000000    0.000000    0.000000    0.000000
  0.048456914  -33.575139   44.789238 -100.575531    2.538072    0.000000    0.000000    0.000000    0.000000
  0.048657315  -33.535125   44.926090 -101.475742   -3.186126    0.000000    0.000000    0.000000    0.000000
  0.048857715  -33.495572   44.860138 -102.849952   -1.447022    0.000000    0.000000    0.000000    0.000000
  0.049058116  -33.504155   44.721527 -101.418608    0.067770    0.000000    0.000000    0.000000    0.000000
  0.049258517  -33.431566   44.618477 -100.260595    2.574497    0.000000    0.000000    0.000000    0.000000
  0.049458918  -33.434000   44.661556 -101.365415   -2.486803    0.000000    0.000000    0.000000    0.000000
  0.049659319  -33.414233   44.625694 -105.471850   -2.315245    0.000000    0.000000    0.000000    0.000000
  0.049859719  -33.389731   44.055092 -101.869072   -3.249265    0.000000    0.000000    0.000000    0.000000
  0.050060120  -33.397771   44.090416 -104.067720   -7.776251    0.000000    0.000000    0.000000    0.000000
  0.050260521  -33.358778   43.881897 -103.386162   -9.396916    0.000000    0.000000    0.000000    0.000000
  0.050460922  -33.342995   43.887878 -105.987761    9.357663    0.000000    0.000000    0.000000    0.000000
  0.050661323  -33.332452   44.095158 -103.928855    5.489617    0.000000    0.000000    0.000000    0.000000
  0.050861723  -33.279231   43.628712 -104.716581    1.465716    0.000000    0.000000    0.000000    0.000000
  0.051062124  -33.324287   43.565578 -102.819277    3.625982    0.000000    0.000000    0.000000    0.000000
  0.051262525  -33.228046   43.389591 -101.913175   10.164118    0.000000    0.000000    0.000000    0.000000
  0.051462926  -33.206711   43.231312 -104.453744   -1.035383    0.000000    0.000000    0.000000    0.000000
  0.051663327  -33.216501   43.343655 -102.690110   -1.564424    0.000000    0.000000    0.000000    0.000000
  0.051863727  -33.197282   43.174702 -104.075515   -5.053762    0.000000    0.000000    0.000000    0.000000
  0.052064128  -33.170781   43.088303 -102.355913   20.822275    0.000000    0.000000    0.000000    0.000000
  0.052264529  -33.113353   43.012112 -105.652756    0.781811    0.000000    0.000000    0.000000    0.000000
  0.052464930  -33.120410   43.047401 -102.635804    5.070332    0.000000    0.000000    0.000000    0.000000
  0.052665331  -33.142675   42.746181 -102.571016   -7.385767    0.000000    0.000000    0.000000    0.000000
  0.052865731  -33.045121   42.585842 -101.413682   12.656260    0.000000    0.000000    0.000000    0.000000
