! Anritsu VNA Master:                     Model: MS2036C/10/77
! SN:                                  1601066
! /bd0/18may08.cable.cal/top.200.2.s2p
! Existing Calibration Information:
! TYPE:                         Current Settings,       Active Cal Settings
! TIME:             	   05/08/2018 06:16:37 PM,    05/08/2018 05:57:55 PM
! INTERNAL TEMP:    	                   49.5 C,                    49.3 C
! # POINTS:         	                      500,                       500
! START FREQ:       	               20.000 MHz,                20.000 MHz
! STOP FREQ:        	              120.000 MHz,               120.000 MHz
! SOURCE POWER:     	                     High,                      High
! IFBW:             	                    50 Hz,                     50 Hz
! AVG FACTOR:       	                       1 ,                        1 
! REF PLANE 1:      	                     0 mm,                      0 mm
! REF PLANE 2:      	                     0 mm,                      0 mm
! CAL TYPE:         	                 Full S11,                  Full S11
! CAL METHOD:       	                     SOLT,                      SOLT
! CAL LINE TYPE:    	                     Coax,                      Coax
! DUT PORT 1:       	                K-Conn(F),                 K-Conn(F)
! DUT PORT 2:       	                K-Conn(F),                 K-Conn(F)
! CAL STATUS:       	        OK: Accuracy High,                        --
# GHZ S DB R 50.0
! FREQ.GHZ       S11DB        S11A       S21DB        S21A       S12DB        S12A       S22DB        S22A
  0.020000000   -4.558131  -21.261681  -91.847068   33.452988    0.000000    0.000000    0.000000    0.000000
  0.020200401   -4.557156  -21.489065  -91.879926   28.401167    0.000000    0.000000    0.000000    0.000000
  0.020400802   -4.557590  -21.685236  -91.889437   29.701584    0.000000    0.000000    0.000000    0.000000
  0.020601202   -4.560608  -21.903362  -92.174774   27.997683    0.000000    0.000000    0.000000    0.000000
  0.020801603   -4.561305  -22.123274  -91.978832   28.725939    0.000000    0.000000    0.000000    0.000000
  0.021002004   -4.560728  -22.349644  -92.266542   27.323055    0.000000    0.000000    0.000000    0.000000
  0.021202405   -4.561471  -22.564760  -92.556873   25.532074    0.000000    0.000000    0.000000    0.000000
  0.021402806   -4.562701  -22.766050  -93.243649   25.787258    0.000000    0.000000    0.000000    0.000000
  0.021603206   -4.563925  -22.998096  -92.234433   26.553629    0.000000    0.000000    0.000000    0.000000
  0.021803607   -4.566054  -23.210909  -93.587366   34.995808    0.000000    0.000000    0.000000    0.000000
  0.022004008   -4.565374  -23.418463  -93.229053   34.027718    0.000000    0.000000    0.000000    0.000000
  0.022204409   -4.566622  -23.645212  -92.188042   27.510250    0.000000    0.000000    0.000000    0.000000
  0.022404810   -4.569266  -23.863560  -93.513904   26.696415    0.000000    0.000000    0.000000    0.000000
  0.022605210   -4.569327  -24.077230  -93.317345   28.062572    0.000000    0.000000    0.000000    0.000000
  0.022805611   -4.567924  -24.306263  -93.390032   25.430820    0.000000    0.000000    0.000000    0.000000
  0.023006012   -4.570244  -24.514658  -93.178863   27.485651    0.000000    0.000000    0.000000    0.000000
  0.023206413   -4.570015  -24.743420  -93.830233   25.830900    0.000000    0.000000    0.000000    0.000000
  0.023406814   -4.571355  -24.950026  -93.780826   23.510830    0.000000    0.000000    0.000000    0.000000
  0.023607214   -4.573681  -25.168671  -93.662762   26.773621    0.000000    0.000000    0.000000    0.000000
  0.023807615   -4.573165  -25.383759  -93.408577   30.970427    0.000000    0.000000    0.000000    0.000000
  0.024008016   -4.574780  -25.592276  -93.698456   28.174183    0.000000    0.000000    0.000000    0.000000
  0.024208417   -4.575516  -25.834867  -94.652160   28.974916    0.000000    0.000000    0.000000    0.000000
  0.024408818   -4.576117  -26.052502  -95.418540   25.391500    0.000000    0.000000    0.000000    0.000000
  0.024609218   -4.576920  -26.259645  -94.043988   20.620470    0.000000    0.000000    0.000000    0.000000
  0.024809619   -4.577628  -26.487492  -94.871025   27.591957    0.000000    0.000000    0.000000    0.000000
  0.025010020   -4.578422  -26.696224  -94.721946   22.937132    0.000000    0.000000    0.000000    0.000000
  0.025210421   -4.579115  -26.926491  -94.486480   21.903288    0.000000    0.000000    0.000000    0.000000
  0.025410822   -4.580075  -27.134930  -94.934637   27.836611    0.000000    0.000000    0.000000    0.000000
  0.025611222   -4.581409  -27.343111  -95.455686   27.731752    0.000000    0.000000    0.000000    0.000000
  0.025811623   -4.580092  -27.571859  -95.576274   25.535639    0.000000    0.000000    0.000000    0.000000
  0.026012024   -4.581112  -27.788296  -94.874612   21.500027    0.000000    0.000000    0.000000    0.000000
  0.026212425   -4.583220  -28.015406  -95.731229   28.296144    0.000000    0.000000    0.000000    0.000000
  0.026412826   -4.583328  -28.221365  -96.192034   24.615278    0.000000    0.000000    0.000000    0.000000
  0.026613226   -4.583349  -28.454145  -95.492047   16.174526    0.000000    0.000000    0.000000    0.000000
  0.026813627   -4.584199  -28.667294  -95.355319   24.090113    0.000000    0.000000    0.000000    0.000000
  0.027014028   -4.583484  -28.889528  -95.782282   24.592323    0.000000    0.000000    0.000000    0.000000
  0.027214429   -4.584996  -29.112940  -95.500563   18.549034    0.000000    0.000000    0.000000    0.000000
  0.027414830   -4.585146  -29.329636  -95.973979   18.833466    0.000000    0.000000    0.000000    0.000000
  0.027615230   -4.585887  -29.558500  -96.772686   19.777811    0.000000    0.000000    0.000000    0.000000
  0.027815631   -4.586152  -29.778969  -95.921340   21.657547    0.000000    0.000000    0.000000    0.000000
  0.028016032   -4.587379  -29.997877  -97.030648   18.030447    0.000000    0.000000    0.000000    0.000000
  0.028216433   -4.588906  -30.219154  -96.333813   21.632444    0.000000    0.000000    0.000000    0.000000
  0.028416834   -4.590266  -30.429993  -95.996982   20.315645    0.000000    0.000000    0.000000    0.000000
  0.028617234   -4.589963  -30.654282  -96.606022   21.799934    0.000000    0.000000    0.000000    0.000000
  0.028817635   -4.590534  -30.868378  -96.974529   17.285862    0.000000    0.000000    0.000000    0.000000
  0.029018036   -4.591687  -31.092890  -97.294119   23.489716    0.000000    0.000000    0.000000    0.000000
  0.029218437   -4.594640  -31.315775  -96.885531   16.970715    0.000000    0.000000    0.000000    0.000000
  0.029418838   -4.594714  -31.533737  -96.472292   18.039639    0.000000    0.000000    0.000000    0.000000
  0.029619238   -4.593568  -31.751566  -97.453809   13.437627    0.000000    0.000000    0.000000    0.000000
  0.029819639   -4.596333  -31.973124  -97.724970   14.676131    0.000000    0.000000    0.000000    0.000000
  0.030020040   -4.595306  -32.188461  -97.222799   20.020258    0.000000    0.000000    0.000000    0.000000
  0.030220441   -4.597225  -32.409443  -97.374127   19.057718    0.000000    0.000000    0.000000    0.000000
  0.030420842   -4.599499  -32.632915  -97.005885   17.163258    0.000000    0.000000    0.000000    0.000000
  0.030621242   -4.599983  -32.840630  -97.320584   16.872629    0.000000    0.000000    0.000000    0.000000
  0.030821643   -4.601576  -33.068249  -97.594719   18.436144    0.000000    0.000000    0.000000    0.000000
  0.031022044   -4.601415  -33.276718  -97.307749   21.715685    0.000000    0.000000    0.000000    0.000000
  0.031222445   -4.592469  -33.437122  -97.455903   10.987330    0.000000    0.000000    0.000000    0.000000
  0.031422846   -4.594163  -33.667252  -98.500130   12.836887    0.000000    0.000000    0.000000    0.000000
  0.031623246   -4.595437  -33.887318  -98.710423    9.972038    0.000000    0.000000    0.000000    0.000000
  0.031823647   -4.594615  -34.089497  -97.550144   10.779428    0.000000    0.000000    0.000000    0.000000
  0.032024048   -4.596248  -34.307053  -97.634230   12.018470    0.000000    0.000000    0.000000    0.000000
  0.032224449   -4.596513  -34.519634  -98.545392   14.300863    0.000000    0.000000    0.000000    0.000000
  0.032424850   -4.597352  -34.735519  -97.778395   16.025568    0.000000    0.000000    0.000000    0.000000
  0.032625251   -4.598717  -34.955151  -97.481795   24.081924    0.000000    0.000000    0.000000    0.000000
  0.032825651   -4.600515  -35.171974 -100.177084   11.756389    0.000000    0.000000    0.000000    0.000000
  0.033026052   -4.602646  -35.372879  -97.970844   12.877188    0.000000    0.000000    0.000000    0.000000
  0.033226453   -4.602058  -35.596622  -98.155749    4.331871    0.000000    0.000000    0.000000    0.000000
  0.033426854   -4.602086  -35.813328  -98.174389   12.392998    0.000000    0.000000    0.000000    0.000000
  0.033627255   -4.604984  -36.033813  -98.057970   14.203949    0.000000    0.000000    0.000000    0.000000
  0.033827655   -4.603999  -36.236038  -97.738473   13.747479    0.000000    0.000000    0.000000    0.000000
  0.034028056   -4.605294  -36.454571  -98.056605   19.237103    0.000000    0.000000    0.000000    0.000000
  0.034228457   -4.606748  -36.659386  -97.837580    8.535802    0.000000    0.000000    0.000000    0.000000
  0.034428858   -4.606608  -36.886391  -99.079460   14.744423    0.000000    0.000000    0.000000    0.000000
  0.034629259   -4.606908  -37.104660  -97.761080   18.734947    0.000000    0.000000    0.000000    0.000000
  0.034829659   -4.607546  -37.321972  -97.670405    8.078026    0.000000    0.000000    0.000000    0.000000
  0.035030060   -4.609082  -37.527176  -98.739244   12.942420    0.000000    0.000000    0.000000    0.000000
  0.035230461   -4.609406  -37.758858  -98.239562    9.627332    0.000000    0.000000    0.000000    0.000000
  0.035430862   -4.608826  -37.966114  -98.497144   10.931546    0.000000    0.000000    0.000000    0.000000
  0.035631263   -4.611071  -38.196278  -98.987878   10.597714    0.000000    0.000000    0.000000    0.000000
  0.035831663   -4.610744  -38.408230  -98.258433    8.316339    0.000000    0.000000    0.000000    0.000000
  0.036032064   -4.612164  -38.628006  -98.641762   12.656612    0.000000    0.000000    0.000000    0.000000
  0.036232465   -4.610429  -38.840645  -98.978450   10.735157    0.000000    0.000000    0.000000    0.000000
  0.036432866   -4.612950  -39.063698  -97.930876    3.284242    0.000000    0.000000    0.000000    0.000000
  0.036633267   -4.614334  -39.286232  -98.644300    6.433229    0.000000    0.000000    0.000000    0.000000
  0.036833667   -4.614385  -39.494846  -99.608268    9.468480    0.000000    0.000000    0.000000    0.000000
  0.037034068   -4.615463  -39.707050  -99.481295    9.102259    0.000000    0.000000    0.000000    0.000000
  0.037234469   -4.615572  -39.927071 -100.331468    4.415094    0.000000    0.000000    0.000000    0.000000
  0.037434870   -4.616060  -40.142517  -97.729081   14.788056    0.000000    0.000000    0.000000    0.000000
  0.037635271   -4.617667  -40.376347  -99.364741    7.594697    0.000000    0.000000    0.000000    0.000000
  0.037835671   -4.619244  -40.592010  -99.230994   21.699257    0.000000    0.000000    0.000000    0.000000
  0.038036072   -4.618429  -40.798058  -99.460702    8.089126    0.000000    0.000000    0.000000    0.000000
  0.038236473   -4.619934  -41.027828  -99.400160    5.711658    0.000000    0.000000    0.000000    0.000000
  0.038436874   -4.622540  -41.248783 -100.021551    7.471745    0.000000    0.000000    0.000000    0.000000
  0.038637275   -4.621582  -41.458817  -99.266274    6.905613    0.000000    0.000000    0.000000    0.000000
  0.038837675   -4.622035  -41.682732  -98.039435   15.059981    0.000000    0.000000    0.000000    0.000000
  0.039038076   -4.622633  -41.904903  -98.877352    9.211188    0.000000    0.000000    0.000000    0.000000
  0.039238477   -4.624713  -42.115929 -100.489347    5.890219    0.000000    0.000000    0.000000    0.000000
  0.039438878   -4.624434  -42.336178 -101.037168   11.482335    0.000000    0.000000    0.000000    0.000000
  0.039639279   -4.624822  -42.543056 -101.856079   24.076103    0.000000    0.000000    0.000000    0.000000
  0.039839679   -4.626351  -42.778080  -99.018157    8.025286    0.000000    0.000000    0.000000    0.000000
  0.040040080   -4.626650  -42.988506 -101.072015    9.028079    0.000000    0.000000    0.000000    0.000000
  0.040240481   -4.626948  -43.212242 -102.004119   16.814077    0.000000    0.000000    0.000000    0.000000
  0.040440882   -4.630311  -43.429615  -98.587650    3.070668    0.000000    0.000000    0.000000    0.000000
  0.040641283   -4.630596  -43.652451  -99.593680    2.731699    0.000000    0.000000    0.000000    0.000000
  0.040841683   -4.629712  -43.864513 -101.569591    9.526026    0.000000    0.000000    0.000000    0.000000
  0.041042084   -4.628445  -44.075806  -99.918618    8.553216    0.000000    0.000000    0.000000    0.000000
  0.041242485   -4.629458  -44.287174  -99.233139   12.816189    0.000000    0.000000    0.000000    0.000000
  0.041442886   -4.630443  -44.511921 -100.264647    2.815398    0.000000    0.000000    0.000000    0.000000
  0.041643287   -4.631482  -44.721302  -99.896540    8.658174    0.000000    0.000000    0.000000    0.000000
  0.041843687   -4.631749  -44.945446  -98.994437    9.118143    0.000000    0.000000    0.000000    0.000000
  0.042044088   -4.631934  -45.170639 -101.606847   16.010651    0.000000    0.000000    0.000000    0.000000
  0.042244489   -4.633895  -45.391502  -99.414844    5.090825    0.000000    0.000000    0.000000    0.000000
  0.042444890   -4.633918  -45.611023 -100.772866   14.368027    0.000000    0.000000    0.000000    0.000000
  0.042645291   -4.632982  -45.817894 -100.491264    9.744334    0.000000    0.000000    0.000000    0.000000
  0.042845691   -4.634433  -46.041248  -99.857055   10.852413    0.000000    0.000000    0.000000    0.000000
  0.043046092   -4.635232  -46.263489 -102.118004    6.597206    0.000000    0.000000    0.000000    0.000000
  0.043246493   -4.636476  -46.480816  -99.800881    3.782758    0.000000    0.000000    0.000000    0.000000
  0.043446894   -4.636645  -46.699547  -99.916903   10.450581    0.000000    0.000000    0.000000    0.000000
  0.043647295   -4.635925  -46.919769 -101.764844    0.676970    0.000000    0.000000    0.000000    0.000000
  0.043847695   -4.638501  -47.148197  -98.891529  -11.048678    0.000000    0.000000    0.000000    0.000000
  0.044048096   -4.638009  -47.368900 -101.426451    6.915296    0.000000    0.000000    0.000000    0.000000
  0.044248497   -4.639444  -47.580494  -99.724588   -8.924356    0.000000    0.000000    0.000000    0.000000
  0.044448898   -4.641080  -47.795795  -99.903610    0.564378    0.000000    0.000000    0.000000    0.000000
  0.044649299   -4.640199  -48.015255 -101.795484   -4.537780    0.000000    0.000000    0.000000    0.000000
  0.044849699   -4.641794  -48.231003 -101.499722    9.111951    0.000000    0.000000    0.000000    0.000000
  0.045050100   -4.641567  -48.454674  -98.683461    2.679534    0.000000    0.000000    0.000000    0.000000
  0.045250501   -4.640406  -48.669945 -101.155885   -2.825727    0.000000    0.000000    0.000000    0.000000
  0.045450902   -4.640945  -48.899071 -100.622068    5.569333    0.000000    0.000000    0.000000    0.000000
  0.045651303   -4.642941  -49.124409 -101.225586    2.302013    0.000000    0.000000    0.000000    0.000000
  0.045851703   -4.642267  -49.341774 -100.247440    0.736531    0.000000    0.000000    0.000000    0.000000
  0.046052104   -4.642879  -49.559921 -100.169859    3.887402    0.000000    0.000000    0.000000    0.000000
  0.046252505   -4.646956  -49.776112 -101.405963   -0.929305    0.000000    0.000000    0.000000    0.000000
  0.046452906   -4.646499  -49.995731 -102.108475   -0.238491    0.000000    0.000000    0.000000    0.000000
  0.046653307   -4.647433  -50.225819 -102.220111   -0.797267    0.000000    0.000000    0.000000    0.000000
  0.046853707   -4.647422  -50.443844  -99.894626   -6.916184    0.000000    0.000000    0.000000    0.000000
  0.047054108   -4.648214  -50.673038 -101.131406   -7.628725    0.000000    0.000000    0.000000    0.000000
  0.047254509   -4.646539  -50.887260 -100.903141   -6.854743    0.000000    0.000000    0.000000    0.000000
  0.047454910   -4.647509  -51.121372 -101.403691   14.790372    0.000000    0.000000    0.000000    0.000000
  0.047655311   -4.647121  -51.329861 -102.442287    5.101553    0.000000    0.000000    0.000000    0.000000
  0.047855711   -4.647748  -51.551022 -101.413556   -5.638528    0.000000    0.000000    0.000000    0.000000
  0.048056112   -4.649349  -51.771336 -101.404279    1.124660    0.000000    0.000000    0.000000    0.000000
  0.048256513   -4.647606  -52.008915 -101.804805    4.904956    0.000000    0.000000    0.000000    0.000000
  0.048456914   -4.646956  -52.224220 -102.116574  -18.554283    0.000000    0.000000    0.000000    0.000000
  0.048657315   -4.649005  -52.445408 -102.782516   -1.245940    0.000000    0.000000    0.000000    0.000000
  0.048857715   -4.648847  -52.666321 -102.328621  -13.126051    0.000000    0.000000    0.000000    0.000000
  0.049058116   -4.653008  -52.876194 -101.067377   -3.543935    0.000000    0.000000    0.000000    0.000000
  0.049258517   -4.651259  -53.098934 -101.322517   -7.973190    0.000000    0.000000    0.000000    0.000000
  0.049458918   -4.651278  -53.325314 -101.661934  -15.055045    0.000000    0.000000    0.000000    0.000000
  0.049659319   -4.652541  -53.538139 -101.881618    1.503799    0.000000    0.000000    0.000000    0.000000
  0.049859719   -4.651984  -53.763866 -102.182656   -9.079997    0.000000    0.000000    0.000000    0.000000
  0.050060120   -4.652512  -53.989647 -103.758825   -9.730214    0.000000    0.000000    0.000000    0.000000
  0.050260521   -4.651557  -54.193256 -103.146537   -7.259856    0.000000    0.000000    0.000000    0.000000
  0.050460922   -4.651989  -54.428265 -101.759717  -17.729748    0.000000    0.000000    0.000000    0.000000
  0.050661323   -4.655093  -54.647354 -102.841387   -5.188629    0.000000    0.000000    0.000000    0.000000
  0.050861723   -4.653849  -54.861404 -103.170021  -10.948465    0.000000    0.000000    0.000000    0.000000
  0.051062124   -4.657095  -55.090225 -102.903633  -13.007077    0.000000    0.000000    0.000000    0.000000
  0.051262525   -4.656245  -55.289753 -102.441453   -4.838978    0.000000    0.000000    0.000000    0.000000
  0.051462926   -4.656146  -55.518383 -101.245391  -14.904992    0.000000    0.000000    0.000000    0.000000
  0.051663327   -4.657372  -55.747433 -104.157385  -18.744261    0.000000    0.000000    0.000000    0.000000
  0.051863727   -4.656856  -55.957912 -103.060750   -1.011653    0.000000    0.000000    0.000000    0.000000
  0.052064128   -4.658738  -56.184841 -101.611070   -0.497460    0.000000    0.000000    0.000000    0.000000
  0.052264529   -4.659535  -56.401909 -101.980596   -9.359256    0.000000    0.000000    0.000000    0.000000
  0.052464930   -4.659746  -56.621719 -103.999850   15.152389    0.000000    0.000000    0.000000    0.000000
  0.052665331   -4.659213  -56.852497 -102.180369    3.991829    0.000000    0.000000    0.000000    0.000000
  0.052865731   -4.661295  -57.065170 -103.433109  -11.281971    0.000000    0.000000    0.000000    0.000000
