! Anritsu VNA Master:                     Model: MS2036C/10/77
! SN:                                  1601066
! /bd0/18may08.cable.cal/top.20.2.s2p
! Existing Calibration Information:
! TYPE:                         Current Settings,       Active Cal Settings
! TIME:             	   05/08/2018 06:13:14 PM,    05/08/2018 05:57:55 PM
! INTERNAL TEMP:    	                   49.3 C,                    49.3 C
! # POINTS:         	                      500,                       500
! START FREQ:       	               20.000 MHz,                20.000 MHz
! STOP FREQ:        	              120.000 MHz,               120.000 MHz
! SOURCE POWER:     	                     High,                      High
! IFBW:             	                    50 Hz,                     50 Hz
! AVG FACTOR:       	                       1 ,                        1 
! REF PLANE 1:      	                     0 mm,                      0 mm
! REF PLANE 2:      	                     0 mm,                      0 mm
! CAL TYPE:         	                 Full S11,                  Full S11
! CAL METHOD:       	                     SOLT,                      SOLT
! CAL LINE TYPE:    	                     Coax,                      Coax
! DUT PORT 1:       	                K-Conn(F),                 K-Conn(F)
! DUT PORT 2:       	                K-Conn(F),                 K-Conn(F)
! CAL STATUS:       	        OK: Accuracy High,                        --
# GHZ S DB R 50.0
! FREQ.GHZ       S11DB        S11A       S21DB        S21A       S12DB        S12A       S22DB        S22A
  0.020000000   -7.256438  155.680023  -90.491477   39.770103    0.000000    0.000000    0.000000    0.000000
  0.020200401   -7.255635  155.443863  -91.204980   41.256691    0.000000    0.000000    0.000000    0.000000
  0.020400802   -7.256634  155.206619  -91.305650   35.781586    0.000000    0.000000    0.000000    0.000000
  0.020601202   -7.255630  154.979996  -90.991042   35.511425    0.000000    0.000000    0.000000    0.000000
  0.020801603   -7.256484  154.728973  -91.147248   36.761055    0.000000    0.000000    0.000000    0.000000
  0.021002004   -7.257340  154.497131  -91.522371   36.703876    0.000000    0.000000    0.000000    0.000000
  0.021202405   -7.257608  154.248764  -91.224097   34.680916    0.000000    0.000000    0.000000    0.000000
  0.021402806   -7.259012  154.022827  -91.488867   37.157482    0.000000    0.000000    0.000000    0.000000
  0.021603206   -7.258397  153.790710  -91.697884   36.818256    0.000000    0.000000    0.000000    0.000000
  0.021803607   -7.256480  153.542358  -91.581115   32.860039    0.000000    0.000000    0.000000    0.000000
  0.022004008   -7.261510  153.310028  -92.469462   37.239910    0.000000    0.000000    0.000000    0.000000
  0.022204409   -7.258072  153.075836  -92.352894   33.247833    0.000000    0.000000    0.000000    0.000000
  0.022404810   -7.259456  152.822037  -92.380026   31.642019    0.000000    0.000000    0.000000    0.000000
  0.022605210   -7.260123  152.587616  -93.017718   33.094219    0.000000    0.000000    0.000000    0.000000
  0.022805611   -7.261170  152.348648  -92.477006   29.354313    0.000000    0.000000    0.000000    0.000000
  0.023006012   -7.260975  152.110153  -91.997045   34.198349    0.000000    0.000000    0.000000    0.000000
  0.023206413   -7.260746  151.882965  -92.646661   26.528128    0.000000    0.000000    0.000000    0.000000
  0.023406814   -7.261295  151.636887  -93.010696   29.896996    0.000000    0.000000    0.000000    0.000000
  0.023607214   -7.262080  151.400818  -92.907162   27.067385    0.000000    0.000000    0.000000    0.000000
  0.023807615   -7.261949  151.153305  -92.325193   24.656904    0.000000    0.000000    0.000000    0.000000
  0.024008016   -7.263801  150.911423  -92.849779   27.157677    0.000000    0.000000    0.000000    0.000000
  0.024208417   -7.263046  150.686234  -93.139624   28.855701    0.000000    0.000000    0.000000    0.000000
  0.024408818   -7.263621  150.446518  -93.595697   31.551926    0.000000    0.000000    0.000000    0.000000
  0.024609218   -7.263220  150.217484  -93.566976   26.608498    0.000000    0.000000    0.000000    0.000000
  0.024809619   -7.265659  149.974380  -93.208256   21.614727    0.000000    0.000000    0.000000    0.000000
  0.025010020   -7.263967  149.735275  -94.223258   25.165672    0.000000    0.000000    0.000000    0.000000
  0.025210421   -7.266072  149.507919  -93.782713   27.624790    0.000000    0.000000    0.000000    0.000000
  0.025410822   -7.265729  149.266464  -93.165683   26.901384    0.000000    0.000000    0.000000    0.000000
  0.025611222   -7.266934  149.029068  -94.631216   23.884241    0.000000    0.000000    0.000000    0.000000
  0.025811623   -7.268026  148.799683  -93.622875   21.606674    0.000000    0.000000    0.000000    0.000000
  0.026012024   -7.266261  148.558411  -94.422956   21.615259    0.000000    0.000000    0.000000    0.000000
  0.026212425   -7.265553  148.314301  -94.459168   25.456738    0.000000    0.000000    0.000000    0.000000
  0.026412826   -7.265606  148.072723  -94.812223   18.850418    0.000000    0.000000    0.000000    0.000000
  0.026613226   -7.266665  147.837112  -94.920429   20.963030    0.000000    0.000000    0.000000    0.000000
  0.026813627   -7.267017  147.591415  -94.720369   19.335159    0.000000    0.000000    0.000000    0.000000
  0.027014028   -7.266786  147.359726  -94.653030   21.249691    0.000000    0.000000    0.000000    0.000000
  0.027214429   -7.266919  147.124969  -94.697080   14.332314    0.000000    0.000000    0.000000    0.000000
  0.027414830   -7.264357  146.878433  -95.280996   18.484409    0.000000    0.000000    0.000000    0.000000
  0.027615230   -7.265523  146.653961  -95.356875   19.039455    0.000000    0.000000    0.000000    0.000000
  0.027815631   -7.266125  146.420349  -96.185755   23.822020    0.000000    0.000000    0.000000    0.000000
  0.028016032   -7.265566  146.174332  -95.250280   19.025358    0.000000    0.000000    0.000000    0.000000
  0.028216433   -7.266521  145.951523  -95.911457   18.681992    0.000000    0.000000    0.000000    0.000000
  0.028416834   -7.266795  145.710663  -95.829172   22.093899    0.000000    0.000000    0.000000    0.000000
  0.028617234   -7.264916  145.476303  -95.081844   15.124786    0.000000    0.000000    0.000000    0.000000
  0.028817635   -7.266480  145.234634  -95.918749   17.642994    0.000000    0.000000    0.000000    0.000000
  0.029018036   -7.264200  145.021530  -96.761502   17.291986    0.000000    0.000000    0.000000    0.000000
  0.029218437   -7.265227  144.779343  -95.266424   10.544419    0.000000    0.000000    0.000000    0.000000
  0.029418838   -7.265360  144.548035  -96.497849   10.997859    0.000000    0.000000    0.000000    0.000000
  0.029619238   -7.261173  144.303955  -96.479463   14.841819    0.000000    0.000000    0.000000    0.000000
  0.029819639   -7.262360  144.065186  -95.917034   19.061323    0.000000    0.000000    0.000000    0.000000
  0.030020040   -7.260522  143.835144  -96.818464   15.209266    0.000000    0.000000    0.000000    0.000000
  0.030220441   -7.259893  143.610794  -96.213379   17.280472    0.000000    0.000000    0.000000    0.000000
  0.030420842   -7.258263  143.370148  -96.338018   13.372428    0.000000    0.000000    0.000000    0.000000
  0.030621242   -7.256684  143.108932  -97.138535   15.213111    0.000000    0.000000    0.000000    0.000000
  0.030821643   -7.256965  142.903915  -97.358586   13.489124    0.000000    0.000000    0.000000    0.000000
  0.031022044   -7.257457  142.653061  -97.357962   15.303950    0.000000    0.000000    0.000000    0.000000
  0.031222445   -7.240058  142.485092  -98.095236   19.773127    0.000000    0.000000    0.000000    0.000000
  0.031422846   -7.238188  142.260040  -97.121634   18.184340    0.000000    0.000000    0.000000    0.000000
  0.031623246   -7.241218  142.028564  -96.762665   13.987844    0.000000    0.000000    0.000000    0.000000
  0.031823647   -7.238512  141.784363  -97.961398   10.735621    0.000000    0.000000    0.000000    0.000000
  0.032024048   -7.239240  141.548950  -97.694664    7.722939    0.000000    0.000000    0.000000    0.000000
  0.032224449   -7.240721  141.291183  -97.746519    8.738406    0.000000    0.000000    0.000000    0.000000
  0.032424850   -7.238458  141.052856  -97.305997    9.636448    0.000000    0.000000    0.000000    0.000000
  0.032625251   -7.239339  140.822128  -97.113969   15.869525    0.000000    0.000000    0.000000    0.000000
  0.032825651   -7.238384  140.582123  -97.063230    6.382772    0.000000    0.000000    0.000000    0.000000
  0.033026052   -7.240136  140.342804  -98.547471   12.696841    0.000000    0.000000    0.000000    0.000000
  0.033226453   -7.239820  140.098145  -99.051781   10.321723    0.000000    0.000000    0.000000    0.000000
  0.033426854   -7.237287  139.849274  -97.889846    6.977520    0.000000    0.000000    0.000000    0.000000
  0.033627255   -7.240180  139.609497  -97.399005    9.737659    0.000000    0.000000    0.000000    0.000000
  0.033827655   -7.238535  139.357925  -98.329427    1.806875    0.000000    0.000000    0.000000    0.000000
  0.034028056   -7.240207  139.139038  -97.887982    4.151618    0.000000    0.000000    0.000000    0.000000
  0.034228457   -7.240634  138.886932  -98.433215    4.471652    0.000000    0.000000    0.000000    0.000000
  0.034428858   -7.238498  138.659988  -98.109652    9.182981    0.000000    0.000000    0.000000    0.000000
  0.034629259   -7.238916  138.417587  -99.120024   12.182500    0.000000    0.000000    0.000000    0.000000
  0.034829659   -7.239523  138.176117  -99.054117   11.413225    0.000000    0.000000    0.000000    0.000000
  0.035030060   -7.239772  137.928223  -97.174062    9.765809    0.000000    0.000000    0.000000    0.000000
  0.035230461   -7.237549  137.684723  -98.230803   14.315028    0.000000    0.000000    0.000000    0.000000
  0.035430862   -7.239796  137.447708  -99.991778    7.290020    0.000000    0.000000    0.000000    0.000000
  0.035631263   -7.239730  137.208344  -99.729449   -1.745188    0.000000    0.000000    0.000000    0.000000
  0.035831663   -7.240420  136.962646  -99.048528    8.353304    0.000000    0.000000    0.000000    0.000000
  0.036032064   -7.238800  136.748398 -100.097798   13.921468    0.000000    0.000000    0.000000    0.000000
  0.036232465   -7.239455  136.497253  -99.619940   -0.484778    0.000000    0.000000    0.000000    0.000000
  0.036432866   -7.239910  136.264343  -98.773358    9.435282    0.000000    0.000000    0.000000    0.000000
  0.036633267   -7.235935  136.032867  -99.647978   -0.056037    0.000000    0.000000    0.000000    0.000000
  0.036833667   -7.239557  135.791138  -99.225181    9.949862    0.000000    0.000000    0.000000    0.000000
  0.037034068   -7.239728  135.551315 -100.403147   11.147500    0.000000    0.000000    0.000000    0.000000
  0.037234469   -7.237598  135.313110 -100.234863    2.239887    0.000000    0.000000    0.000000    0.000000
  0.037434870   -7.240366  135.066193  -99.733182   10.053932    0.000000    0.000000    0.000000    0.000000
  0.037635271   -7.238970  134.850174 -100.285436   10.269195    0.000000    0.000000    0.000000    0.000000
  0.037835671   -7.236507  134.607697 -100.596295    6.477675    0.000000    0.000000    0.000000    0.000000
  0.038036072   -7.238655  134.367538 -100.040649    5.419392    0.000000    0.000000    0.000000    0.000000
  0.038236473   -7.238963  134.137772 -100.389628   12.314076    0.000000    0.000000    0.000000    0.000000
  0.038436874   -7.235820  133.916061 -101.674554   -7.560406    0.000000    0.000000    0.000000    0.000000
  0.038637275   -7.237436  133.673920 -100.540685    6.888669    0.000000    0.000000    0.000000    0.000000
  0.038837675   -7.238106  133.424927  -99.182005    1.799961    0.000000    0.000000    0.000000    0.000000
  0.039038076   -7.234759  133.203751 -100.515734    3.470632    0.000000    0.000000    0.000000    0.000000
  0.039238477   -7.236431  132.967377 -102.221233   -6.481858    0.000000    0.000000    0.000000    0.000000
  0.039438878   -7.235238  132.725845 -100.321183    6.004313    0.000000    0.000000    0.000000    0.000000
  0.039639279   -7.236345  132.487579 -101.255311    7.491391    0.000000    0.000000    0.000000    0.000000
  0.039839679   -7.236479  132.248978 -100.848720    1.628909    0.000000    0.000000    0.000000    0.000000
  0.040040080   -7.233324  132.028793 -100.476362    7.595399    0.000000    0.000000    0.000000    0.000000
  0.040240481   -7.234641  131.788712 -102.019531   -9.772890    0.000000    0.000000    0.000000    0.000000
  0.040440882   -7.233308  131.560364 -100.556102    1.656121    0.000000    0.000000    0.000000    0.000000
  0.040641283   -7.233619  131.330307 -101.624505    7.507797    0.000000    0.000000    0.000000    0.000000
  0.040841683   -7.233177  131.104080 -101.943247    3.558252    0.000000    0.000000    0.000000    0.000000
  0.041042084   -7.231181  130.869751 -101.916729   16.880188    0.000000    0.000000    0.000000    0.000000
  0.041242485   -7.233299  130.641434 -101.276222   -7.648940    0.000000    0.000000    0.000000    0.000000
  0.041442886   -7.231519  130.392761 -102.315565    6.723292    0.000000    0.000000    0.000000    0.000000
  0.041643287   -7.231005  130.148346 -101.467183    9.580697    0.000000    0.000000    0.000000    0.000000
  0.041843687   -7.233003  129.940201 -100.850546    8.498940    0.000000    0.000000    0.000000    0.000000
  0.042044088   -7.229522  129.702362 -101.376972   18.770020    0.000000    0.000000    0.000000    0.000000
  0.042244489   -7.228678  129.468948 -103.945757   -0.565726    0.000000    0.000000    0.000000    0.000000
  0.042444890   -7.227354  129.239548 -100.706685    5.675911    0.000000    0.000000    0.000000    0.000000
  0.042645291   -7.228408  129.005203 -100.441156    5.033359    0.000000    0.000000    0.000000    0.000000
  0.042845691   -7.227903  128.774628 -101.788516   15.466917    0.000000    0.000000    0.000000    0.000000
  0.043046092   -7.227414  128.546585 -102.710050    8.883801    0.000000    0.000000    0.000000    0.000000
  0.043246493   -7.228298  128.304474 -103.890191    4.653861    0.000000    0.000000    0.000000    0.000000
  0.043446894   -7.227904  128.066864 -102.927592    1.028851    0.000000    0.000000    0.000000    0.000000
  0.043647295   -7.225224  127.838860 -102.147890   -1.093290    0.000000    0.000000    0.000000    0.000000
  0.043847695   -7.223997  127.612267 -102.145646    5.742445    0.000000    0.000000    0.000000    0.000000
  0.044048096   -7.223778  127.377579 -101.139421   11.790979    0.000000    0.000000    0.000000    0.000000
  0.044248497   -7.221278  127.127289 -103.552307   10.844584    0.000000    0.000000    0.000000    0.000000
  0.044448898   -7.223368  126.895432 -102.112789   -8.814998    0.000000    0.000000    0.000000    0.000000
  0.044649299   -7.223869  126.660629 -103.049292   21.717224    0.000000    0.000000    0.000000    0.000000
  0.044849699   -7.221680  126.419945 -101.239669    9.898749    0.000000    0.000000    0.000000    0.000000
  0.045050100   -7.221146  126.186501 -104.174893    1.689534    0.000000    0.000000    0.000000    0.000000
  0.045250501   -7.221571  125.948425 -102.720276   11.876203    0.000000    0.000000    0.000000    0.000000
  0.045450902   -7.219691  125.715698 -102.226827   14.986512    0.000000    0.000000    0.000000    0.000000
  0.045651303   -7.220735  125.480507 -101.414216   19.750542    0.000000    0.000000    0.000000    0.000000
  0.045851703   -7.218927  125.261177 -102.902213   11.141170    0.000000    0.000000    0.000000    0.000000
  0.046052104   -7.220262  125.013687 -102.139776   12.555673    0.000000    0.000000    0.000000    0.000000
  0.046252505   -7.217388  124.767448 -101.402839    6.956600    0.000000    0.000000    0.000000    0.000000
  0.046452906   -7.218295  124.544853 -101.127432    3.658395    0.000000    0.000000    0.000000    0.000000
  0.046653307   -7.217802  124.309486 -103.252117   -0.635477    0.000000    0.000000    0.000000    0.000000
  0.046853707   -7.217861  124.062668 -102.621241    4.616955    0.000000    0.000000    0.000000    0.000000
  0.047054108   -7.215435  123.832802 -102.237382    8.858004    0.000000    0.000000    0.000000    0.000000
  0.047254509   -7.213854  123.580719 -102.892371    9.146520    0.000000    0.000000    0.000000    0.000000
  0.047454910   -7.212636  123.353050 -101.222686   -4.720648    0.000000    0.000000    0.000000    0.000000
  0.047655311   -7.211915  123.109665 -101.678625    7.958376    0.000000    0.000000    0.000000    0.000000
  0.047855711   -7.210482  122.880241 -100.791483   13.398520    0.000000    0.000000    0.000000    0.000000
  0.048056112   -7.208325  122.633270 -103.065322   15.483176    0.000000    0.000000    0.000000    0.000000
  0.048256513   -7.209163  122.414436 -102.529013   22.486298    0.000000    0.000000    0.000000    0.000000
  0.048456914   -7.209483  122.164886 -104.142157    9.092657    0.000000    0.000000    0.000000    0.000000
  0.048657315   -7.206782  121.944313 -102.221845   16.191210    0.000000    0.000000    0.000000    0.000000
  0.048857715   -7.205355  121.696404 -100.726149    7.670442    0.000000    0.000000    0.000000    0.000000
  0.049058116   -7.205740  121.472855 -104.661205   26.217976    0.000000    0.000000    0.000000    0.000000
  0.049258517   -7.205162  121.236298 -102.516944   12.479103    0.000000    0.000000    0.000000    0.000000
  0.049458918   -7.203065  121.001541 -105.202454   17.916733    0.000000    0.000000    0.000000    0.000000
  0.049659319   -7.201985  120.771759 -103.556759   28.742905    0.000000    0.000000    0.000000    0.000000
  0.049859719   -7.204312  120.519424 -103.331563    7.103197    0.000000    0.000000    0.000000    0.000000
  0.050060120   -7.201060  120.302826 -101.390557   17.363018    0.000000    0.000000    0.000000    0.000000
  0.050260521   -7.199691  120.066147 -101.976833    4.492248    0.000000    0.000000    0.000000    0.000000
  0.050460922   -7.198082  119.834045 -103.210473   15.906546    0.000000    0.000000    0.000000    0.000000
  0.050661323   -7.197629  119.615654 -105.953985    2.922690    0.000000    0.000000    0.000000    0.000000
  0.050861723   -7.195742  119.363663 -101.581295   15.222039    0.000000    0.000000    0.000000    0.000000
  0.051062124   -7.195977  119.152046 -103.173561   13.069703    0.000000    0.000000    0.000000    0.000000
  0.051262525   -7.194885  118.888664 -101.836590   12.745971    0.000000    0.000000    0.000000    0.000000
  0.051462926   -7.195766  118.652397 -103.190440   16.161562    0.000000    0.000000    0.000000    0.000000
  0.051663327   -7.191764  118.439896 -103.489003   18.079395    0.000000    0.000000    0.000000    0.000000
  0.051863727   -7.191720  118.194405 -104.130741   17.218166    0.000000    0.000000    0.000000    0.000000
  0.052064128   -7.192747  117.981438 -102.694072   18.121311    0.000000    0.000000    0.000000    0.000000
  0.052264529   -7.188757  117.730698 -102.903669   17.251457    0.000000    0.000000    0.000000    0.000000
  0.052464930   -7.187321  117.502808 -102.123726   18.786381    0.000000    0.000000    0.000000    0.000000
  0.052665331   -7.189965  117.286545 -102.814925   19.606983    0.000000    0.000000    0.000000    0.000000
  0.052865731   -7.188787  117.042953 -103.719193    2.790823    0.000000    0.000000    0.000000    0.000000
