! Anritsu VNA Master:                     Model: MS2036C/10/77
! SN:                                  1601066
! /bd0/18may08.cable.cal/unused.194p65.1.s2p
! Existing Calibration Information:
! TYPE:                         Current Settings,       Active Cal Settings
! TIME:             	   05/08/2018 04:31:09 PM,    05/08/2018 04:21:58 PM
! INTERNAL TEMP:    	                   50.0 C,                    50.0 C
! # POINTS:         	                      500,                       500
! START FREQ:       	               20.000 MHz,                20.000 MHz
! STOP FREQ:        	              120.000 MHz,               120.000 MHz
! SOURCE POWER:     	                     High,                      High
! IFBW:             	                    50 Hz,                     50 Hz
! AVG FACTOR:       	                       1 ,                        1 
! REF PLANE 1:      	                     0 mm,                      0 mm
! REF PLANE 2:      	                     0 mm,                      0 mm
! CAL TYPE:         	                 Full S11,                  Full S11
! CAL METHOD:       	                     SOLT,                      SOLT
! CAL LINE TYPE:    	                     Coax,                      Coax
! DUT PORT 1:       	                K-Conn(F),                 K-Conn(F)
! DUT PORT 2:       	                K-Conn(F),                 K-Conn(F)
! CAL STATUS:       	        OK: Accuracy High,                        --
# GHZ S DB R 50.0
! FREQ.GHZ       S11DB        S11A       S21DB        S21A       S12DB        S12A       S22DB        S22A
  0.020000000   -4.558929  -21.110638  -91.808772   31.131672    0.000000    0.000000    0.000000    0.000000
  0.020200401   -4.558244  -21.312582  -91.520494   30.340370    0.000000    0.000000    0.000000    0.000000
  0.020400802   -4.558390  -21.528078  -92.213646   31.730915    0.000000    0.000000    0.000000    0.000000
  0.020601202   -4.558945  -21.739763  -91.758894   28.437792    0.000000    0.000000    0.000000    0.000000
  0.020801603   -4.558709  -21.953651  -91.476748   34.322952    0.000000    0.000000    0.000000    0.000000
  0.021002004   -4.559602  -22.175800  -91.919509   32.935131    0.000000    0.000000    0.000000    0.000000
  0.021202405   -4.559349  -22.389053  -91.929312   29.376610    0.000000    0.000000    0.000000    0.000000
  0.021402806   -4.558615  -22.601717  -92.513477   29.555906    0.000000    0.000000    0.000000    0.000000
  0.021603206   -4.560916  -22.816584  -92.645744   29.424366    0.000000    0.000000    0.000000    0.000000
  0.021803607   -4.561131  -23.039738  -93.003630   29.328981    0.000000    0.000000    0.000000    0.000000
  0.022004008   -4.561318  -23.242422  -92.629942   32.165657    0.000000    0.000000    0.000000    0.000000
  0.022204409   -4.561685  -23.463364  -92.932472   29.888136    0.000000    0.000000    0.000000    0.000000
  0.022404810   -4.560945  -23.686245  -93.254515   26.906609    0.000000    0.000000    0.000000    0.000000
  0.022605210   -4.565188  -23.881014  -93.993091   25.151703    0.000000    0.000000    0.000000    0.000000
  0.022805611   -4.567032  -24.106354  -94.031451   25.184559    0.000000    0.000000    0.000000    0.000000
  0.023006012   -4.565173  -24.312531  -93.504103   23.253990    0.000000    0.000000    0.000000    0.000000
  0.023206413   -4.565369  -24.537493  -93.797182   27.978624    0.000000    0.000000    0.000000    0.000000
  0.023406814   -4.565160  -24.771883  -94.116251   25.198326    0.000000    0.000000    0.000000    0.000000
  0.023607214   -4.566462  -24.976173  -93.661310   24.002842    0.000000    0.000000    0.000000    0.000000
  0.023807615   -4.567890  -25.189287  -94.157062   26.650366    0.000000    0.000000    0.000000    0.000000
  0.024008016   -4.568975  -25.404449  -94.965902   29.066509    0.000000    0.000000    0.000000    0.000000
  0.024208417   -4.568154  -25.624886  -93.594726   31.118673    0.000000    0.000000    0.000000    0.000000
  0.024408818   -4.569402  -25.856934  -94.016814   23.721737    0.000000    0.000000    0.000000    0.000000
  0.024609218   -4.569986  -26.071381  -94.696803   22.762594    0.000000    0.000000    0.000000    0.000000
  0.024809619   -4.571037  -26.280630  -94.671524   28.128084    0.000000    0.000000    0.000000    0.000000
  0.025010020   -4.571550  -26.487890  -94.455606   16.599300    0.000000    0.000000    0.000000    0.000000
  0.025210421   -4.571743  -26.701550  -94.826869   24.182987    0.000000    0.000000    0.000000    0.000000
  0.025410822   -4.573331  -26.928549  -94.446081   26.168781    0.000000    0.000000    0.000000    0.000000
  0.025611222   -4.573585  -27.132290  -94.358317   21.583324    0.000000    0.000000    0.000000    0.000000
  0.025811623   -4.574491  -27.359495  -94.633635   21.735819    0.000000    0.000000    0.000000    0.000000
  0.026012024   -4.574508  -27.563139  -95.645772   22.660862    0.000000    0.000000    0.000000    0.000000
  0.026212425   -4.576164  -27.785906  -95.368056   20.017365    0.000000    0.000000    0.000000    0.000000
  0.026412826   -4.576012  -28.008039  -96.016036   23.175562    0.000000    0.000000    0.000000    0.000000
  0.026613226   -4.574767  -28.220253  -95.376452   28.862255    0.000000    0.000000    0.000000    0.000000
  0.026813627   -4.574733  -28.434950  -95.744425   19.151918    0.000000    0.000000    0.000000    0.000000
  0.027014028   -4.577344  -28.647999  -95.393148   19.672800    0.000000    0.000000    0.000000    0.000000
  0.027214429   -4.578364  -28.875776  -95.826474   24.310730    0.000000    0.000000    0.000000    0.000000
  0.027414830   -4.577768  -29.098177  -95.821382   28.348976    0.000000    0.000000    0.000000    0.000000
  0.027615230   -4.577405  -29.314093  -96.298670   26.461607    0.000000    0.000000    0.000000    0.000000
  0.027815631   -4.578355  -29.528004  -96.195485   21.528799    0.000000    0.000000    0.000000    0.000000
  0.028016032   -4.579489  -29.749022  -95.987431   21.664660    0.000000    0.000000    0.000000    0.000000
  0.028216433   -4.580793  -29.974264  -97.365119   19.008028    0.000000    0.000000    0.000000    0.000000
  0.028416834   -4.581614  -30.187670  -95.874949   16.817373    0.000000    0.000000    0.000000    0.000000
  0.028617234   -4.582077  -30.406277  -96.798215   23.594971    0.000000    0.000000    0.000000    0.000000
  0.028817635   -4.583085  -30.619734  -96.094400   19.041237    0.000000    0.000000    0.000000    0.000000
  0.029018036   -4.582720  -30.843464  -96.919984   20.860708    0.000000    0.000000    0.000000    0.000000
  0.029218437   -4.583848  -31.058212  -96.856692   22.830757    0.000000    0.000000    0.000000    0.000000
  0.029418838   -4.584969  -31.278702  -97.264873   18.777454    0.000000    0.000000    0.000000    0.000000
  0.029619238   -4.585541  -31.490366  -96.957457   21.499193    0.000000    0.000000    0.000000    0.000000
  0.029819639   -4.585256  -31.700533  -96.621969   22.164364    0.000000    0.000000    0.000000    0.000000
  0.030020040   -4.586592  -31.919653  -97.551003   14.995213    0.000000    0.000000    0.000000    0.000000
  0.030220441   -4.587271  -32.138367  -97.585270   19.349001    0.000000    0.000000    0.000000    0.000000
  0.030420842   -4.588631  -32.362320  -97.780113   19.460217    0.000000    0.000000    0.000000    0.000000
  0.030621242   -4.588985  -32.575859  -98.274506   12.421126    0.000000    0.000000    0.000000    0.000000
  0.030821643   -4.589207  -32.792595  -97.746881   13.693529    0.000000    0.000000    0.000000    0.000000
  0.031022044   -4.590185  -33.008244  -97.316097   15.083580    0.000000    0.000000    0.000000    0.000000
  0.031222445   -4.580025  -33.172108  -99.245919   13.195274    0.000000    0.000000    0.000000    0.000000
  0.031422846   -4.582510  -33.384247  -96.060526    6.393057    0.000000    0.000000    0.000000    0.000000
  0.031623246   -4.581312  -33.597324  -97.497948   13.917351    0.000000    0.000000    0.000000    0.000000
  0.031823647   -4.583362  -33.796703  -97.222422   12.296351    0.000000    0.000000    0.000000    0.000000
  0.032024048   -4.584607  -34.022469  -97.684351   17.791504    0.000000    0.000000    0.000000    0.000000
  0.032224449   -4.585914  -34.228264  -97.681775   12.610784    0.000000    0.000000    0.000000    0.000000
  0.032424850   -4.584370  -34.439510  -98.655678   13.227194    0.000000    0.000000    0.000000    0.000000
  0.032625251   -4.587100  -34.654884  -98.476676   16.951653    0.000000    0.000000    0.000000    0.000000
  0.032825651   -4.586485  -34.883404  -98.371765   13.720477    0.000000    0.000000    0.000000    0.000000
  0.033026052   -4.588520  -35.075062  -98.891293   22.359219    0.000000    0.000000    0.000000    0.000000
  0.033226453   -4.586949  -35.282688  -99.491869   17.854939    0.000000    0.000000    0.000000    0.000000
  0.033426854   -4.589292  -35.516586  -97.634800   13.484632    0.000000    0.000000    0.000000    0.000000
  0.033627255   -4.589329  -35.726814  -99.986390   16.923016    0.000000    0.000000    0.000000    0.000000
  0.033827655   -4.591674  -35.940479 -100.305242   11.779728    0.000000    0.000000    0.000000    0.000000
  0.034028056   -4.591876  -36.147152  -98.693939   20.768024    0.000000    0.000000    0.000000    0.000000
  0.034228457   -4.590933  -36.372242  -97.432549   14.245878    0.000000    0.000000    0.000000    0.000000
  0.034428858   -4.591522  -36.569115  -98.244668   12.265445    0.000000    0.000000    0.000000    0.000000
  0.034629259   -4.592173  -36.792320  -97.385166   13.295598    0.000000    0.000000    0.000000    0.000000
  0.034829659   -4.591596  -36.995743  -98.479458   16.626137    0.000000    0.000000    0.000000    0.000000
  0.035030060   -4.593633  -37.211662  -97.509646   13.631466    0.000000    0.000000    0.000000    0.000000
  0.035230461   -4.591518  -37.419846  -97.612065   10.066824    0.000000    0.000000    0.000000    0.000000
  0.035430862   -4.593899  -37.648670  -98.213997   18.822815    0.000000    0.000000    0.000000    0.000000
  0.035631263   -4.594027  -37.856419  -98.563164    2.680226    0.000000    0.000000    0.000000    0.000000
  0.035831663   -4.594622  -38.078041  -98.501688   12.828694    0.000000    0.000000    0.000000    0.000000
  0.036032064   -4.595946  -38.286709  -99.197217   14.294728    0.000000    0.000000    0.000000    0.000000
  0.036232465   -4.596613  -38.502270 -100.179169    8.694401    0.000000    0.000000    0.000000    0.000000
  0.036432866   -4.595710  -38.718437  -98.977395    9.985923    0.000000    0.000000    0.000000    0.000000
  0.036633267   -4.595804  -38.930653  -98.737479   10.622425    0.000000    0.000000    0.000000    0.000000
  0.036833667   -4.596886  -39.150074  -99.457369   14.816859    0.000000    0.000000    0.000000    0.000000
  0.037034068   -4.597856  -39.353779 -100.006407   23.015135    0.000000    0.000000    0.000000    0.000000
  0.037234469   -4.598605  -39.583164  -98.505215   13.003399    0.000000    0.000000    0.000000    0.000000
  0.037434870   -4.600555  -39.800453  -99.765201   11.315455    0.000000    0.000000    0.000000    0.000000
  0.037635271   -4.600937  -40.017075  -99.571424    6.277472    0.000000    0.000000    0.000000    0.000000
  0.037835671   -4.599879  -40.229946  -99.779211    5.102693    0.000000    0.000000    0.000000    0.000000
  0.038036072   -4.601829  -40.446163  -98.840560    1.233208    0.000000    0.000000    0.000000    0.000000
  0.038236473   -4.601596  -40.662464  -98.763914    6.669998    0.000000    0.000000    0.000000    0.000000
  0.038436874   -4.602227  -40.874493  -99.546766    7.930423    0.000000    0.000000    0.000000    0.000000
  0.038637275   -4.602730  -41.088688  -98.955879    6.880748    0.000000    0.000000    0.000000    0.000000
  0.038837675   -4.604387  -41.309258  -99.949229   10.826976    0.000000    0.000000    0.000000    0.000000
  0.039038076   -4.603196  -41.526375  -99.729096    6.792110    0.000000    0.000000    0.000000    0.000000
  0.039238477   -4.604327  -41.736309  -98.581390    6.280951    0.000000    0.000000    0.000000    0.000000
  0.039438878   -4.606223  -41.963570  -99.106921   11.554884    0.000000    0.000000    0.000000    0.000000
  0.039639279   -4.605420  -42.169689  -99.824691    5.124321    0.000000    0.000000    0.000000    0.000000
  0.039839679   -4.606903  -42.387043 -100.434350   11.762380    0.000000    0.000000    0.000000    0.000000
  0.040040080   -4.606723  -42.599380 -101.091649   -0.303226    0.000000    0.000000    0.000000    0.000000
  0.040240481   -4.604990  -42.818192 -100.980798    3.294697    0.000000    0.000000    0.000000    0.000000
  0.040440882   -4.608864  -43.044792 -101.483960    4.765816    0.000000    0.000000    0.000000    0.000000
  0.040641283   -4.607938  -43.259216 -100.219809    0.795934    0.000000    0.000000    0.000000    0.000000
  0.040841683   -4.609176  -43.465332  -98.997061    7.603279    0.000000    0.000000    0.000000    0.000000
  0.041042084   -4.610545  -43.681118  -99.368068    4.313134    0.000000    0.000000    0.000000    0.000000
  0.041242485   -4.609993  -43.893406 -100.111556    4.923510    0.000000    0.000000    0.000000    0.000000
  0.041442886   -4.612413  -44.113892  -99.229853    0.630414    0.000000    0.000000    0.000000    0.000000
  0.041643287   -4.607418  -44.336430 -100.833382   10.396482    0.000000    0.000000    0.000000    0.000000
  0.041843687   -4.610755  -44.563381  -99.132501   11.134982    0.000000    0.000000    0.000000    0.000000
  0.042044088   -4.610710  -44.757309 -100.670917   10.703956    0.000000    0.000000    0.000000    0.000000
  0.042244489   -4.611404  -44.976166 -100.143976   14.116508    0.000000    0.000000    0.000000    0.000000
  0.042444890   -4.610738  -45.195709 -101.941650    0.623452    0.000000    0.000000    0.000000    0.000000
  0.042645291   -4.612778  -45.401993 -100.599492   -0.543231    0.000000    0.000000    0.000000    0.000000
  0.042845691   -4.613599  -45.621380 -100.380265    3.202531    0.000000    0.000000    0.000000    0.000000
  0.043046092   -4.614075  -45.839893  -99.479093    6.766684    0.000000    0.000000    0.000000    0.000000
  0.043246493   -4.613454  -46.058235 -101.400196   13.883178    0.000000    0.000000    0.000000    0.000000
  0.043446894   -4.612770  -46.273178 -101.552180    5.144993    0.000000    0.000000    0.000000    0.000000
  0.043647295   -4.614338  -46.484909 -100.800852   -9.830052    0.000000    0.000000    0.000000    0.000000
  0.043847695   -4.616232  -46.700245 -101.766988   -2.628981    0.000000    0.000000    0.000000    0.000000
  0.044048096   -4.615628  -46.930317  -99.283654    5.678307    0.000000    0.000000    0.000000    0.000000
  0.044248497   -4.614456  -47.140114 -100.414775   -1.940238    0.000000    0.000000    0.000000    0.000000
  0.044448898   -4.614372  -47.364525 -100.826529   -4.490169    0.000000    0.000000    0.000000    0.000000
  0.044649299   -4.614243  -47.576256  -98.735025    1.999829    0.000000    0.000000    0.000000    0.000000
  0.044849699   -4.614661  -47.793987 -100.636486    3.248505    0.000000    0.000000    0.000000    0.000000
  0.045050100   -4.615460  -48.008606 -101.263479  -10.577665    0.000000    0.000000    0.000000    0.000000
  0.045250501   -4.616682  -48.226982 -100.420847   -0.932545    0.000000    0.000000    0.000000    0.000000
  0.045450902   -4.617844  -48.440334 -100.460995    0.695208    0.000000    0.000000    0.000000    0.000000
  0.045651303   -4.617851  -48.655716 -103.304734   -2.535118    0.000000    0.000000    0.000000    0.000000
  0.045851703   -4.616573  -48.868988 -101.175479   -4.221632    0.000000    0.000000    0.000000    0.000000
  0.046052104   -4.617889  -49.102554 -102.610785   -6.695981    0.000000    0.000000    0.000000    0.000000
  0.046252505   -4.618575  -49.321693 -101.979507   -0.626135    0.000000    0.000000    0.000000    0.000000
  0.046452906   -4.619872  -49.529289 -100.073505    3.431854    0.000000    0.000000    0.000000    0.000000
  0.046653307   -4.619692  -49.752739 -102.374047  -12.562289    0.000000    0.000000    0.000000    0.000000
  0.046853707   -4.618713  -49.972603 -102.212988  -13.657911    0.000000    0.000000    0.000000    0.000000
  0.047054108   -4.619763  -50.211163 -101.349412    5.261807    0.000000    0.000000    0.000000    0.000000
  0.047254509   -4.620044  -50.411003 -102.941600  -10.801904    0.000000    0.000000    0.000000    0.000000
  0.047454910   -4.621331  -50.627800 -101.081042   -5.150442    0.000000    0.000000    0.000000    0.000000
  0.047655311   -4.620359  -50.851597 -101.696007   -9.725661    0.000000    0.000000    0.000000    0.000000
  0.047855711   -4.619995  -51.075035 -102.058469   -0.890104    0.000000    0.000000    0.000000    0.000000
  0.048056112   -4.621186  -51.287533 -101.930102   -2.067457    0.000000    0.000000    0.000000    0.000000
  0.048256513   -4.619856  -51.509941 -101.724397   -6.572239    0.000000    0.000000    0.000000    0.000000
  0.048456914   -4.620523  -51.739838 -101.369714    4.975128    0.000000    0.000000    0.000000    0.000000
  0.048657315   -4.623140  -51.942261 -104.783833    2.661742    0.000000    0.000000    0.000000    0.000000
  0.048857715   -4.621638  -52.168327 -100.467536   -8.947070    0.000000    0.000000    0.000000    0.000000
  0.049058116   -4.621368  -52.371479 -103.983271   -7.867681    0.000000    0.000000    0.000000    0.000000
  0.049258517   -4.623357  -52.604050 -103.001086   -7.925471    0.000000    0.000000    0.000000    0.000000
  0.049458918   -4.624221  -52.813961 -102.044825   -6.414727    0.000000    0.000000    0.000000    0.000000
  0.049659319   -4.622980  -53.021088 -103.920536  -13.157135    0.000000    0.000000    0.000000    0.000000
  0.049859719   -4.621871  -53.247276 -101.607433   -1.692020    0.000000    0.000000    0.000000    0.000000
  0.050060120   -4.624416  -53.450272 -102.666359   -6.674706    0.000000    0.000000    0.000000    0.000000
  0.050260521   -4.623217  -53.683369 -101.983193   -4.911035    0.000000    0.000000    0.000000    0.000000
  0.050460922   -4.624429  -53.903404 -104.644601  -19.154415    0.000000    0.000000    0.000000    0.000000
  0.050661323   -4.623902  -54.111298 -103.191774    7.737204    0.000000    0.000000    0.000000    0.000000
  0.050861723   -4.625117  -54.331036 -101.690312   -2.822015    0.000000    0.000000    0.000000    0.000000
  0.051062124   -4.626403  -54.542591 -101.234222  -12.966737    0.000000    0.000000    0.000000    0.000000
  0.051262525   -4.625771  -54.768337 -101.800056  -11.567533    0.000000    0.000000    0.000000    0.000000
  0.051462926   -4.627081  -54.975502 -104.666406  -19.563046    0.000000    0.000000    0.000000    0.000000
  0.051663327   -4.628767  -55.205692 -103.943561  -16.217848    0.000000    0.000000    0.000000    0.000000
  0.051863727   -4.626538  -55.420288 -103.692206  -17.655796    0.000000    0.000000    0.000000    0.000000
  0.052064128   -4.628703  -55.635101 -103.392585   -0.486496    0.000000    0.000000    0.000000    0.000000
  0.052264529   -4.629209  -55.849693 -102.908925  -10.509388    0.000000    0.000000    0.000000    0.000000
  0.052464930   -4.629020  -56.078964 -102.002126  -13.882518    0.000000    0.000000    0.000000    0.000000
  0.052665331   -4.629538  -56.287727 -102.547793  -13.010262    0.000000    0.000000    0.000000    0.000000
  0.052865731   -4.630253  -56.494678 -104.712591  -11.257215    0.000000    0.000000    0.000000    0.000000
