! Anritsu VNA Master:                     Model: MS2036C/10/77
! SN:                                  1601066
! /bd0/18may08.cable.cal/unused.49p99.anomalous.0.s2p
! Existing Calibration Information:
! TYPE:                         Current Settings,       Active Cal Settings
! TIME:             	   05/08/2018 04:04:32 PM,    05/08/2018 03:57:21 PM
! INTERNAL TEMP:    	                   50.3 C,                    50.3 C
! # POINTS:         	                      500,                       500
! START FREQ:       	               20.000 MHz,                20.000 MHz
! STOP FREQ:        	              120.000 MHz,               120.000 MHz
! SOURCE POWER:     	                     High,                      High
! IFBW:             	                    50 Hz,                     50 Hz
! AVG FACTOR:       	                       1 ,                        1 
! REF PLANE 1:      	                     0 mm,                      0 mm
! REF PLANE 2:      	                     0 mm,                      0 mm
! CAL TYPE:         	                 Full S11,                  Full S11
! CAL METHOD:       	                     SOLT,                      SOLT
! CAL LINE TYPE:    	                     Coax,                      Coax
! DUT PORT 1:       	                K-Conn(F),                 K-Conn(F)
! DUT PORT 2:       	                K-Conn(F),                 K-Conn(F)
! CAL STATUS:       	        OK: Accuracy High,                        --
# GHZ S DB R 50.0
! FREQ.GHZ       S11DB        S11A       S21DB        S21A       S12DB        S12A       S22DB        S22A
  0.020000000  -83.881405  -34.908905  -90.963453   37.119305    0.000000    0.000000    0.000000    0.000000
  0.020200401  -83.754370  -34.354046  -90.912250   36.769840    0.000000    0.000000    0.000000    0.000000
  0.020400802  -83.579254  -34.358742  -91.410562   35.311916    0.000000    0.000000    0.000000    0.000000
  0.020601202  -83.408886  -34.921154  -91.629262   35.650284    0.000000    0.000000    0.000000    0.000000
  0.020801603  -83.381684  -35.120689  -91.289643   35.898666    0.000000    0.000000    0.000000    0.000000
  0.021002004  -83.114914  -34.301231  -92.059532   33.923714    0.000000    0.000000    0.000000    0.000000
  0.021202405  -83.000994  -34.415867  -91.870364   32.327244    0.000000    0.000000    0.000000    0.000000
  0.021402806  -82.876284  -34.705299  -91.964140   30.003956    0.000000    0.000000    0.000000    0.000000
  0.021603206  -82.759578  -34.887474  -92.168903   38.724937    0.000000    0.000000    0.000000    0.000000
  0.021803607  -82.537687  -34.424438  -92.277981   30.377516    0.000000    0.000000    0.000000    0.000000
  0.022004008  -82.375213  -35.011436  -92.034117   34.773014    0.000000    0.000000    0.000000    0.000000
  0.022204409  -82.347335  -34.528591  -93.135826   33.385944    0.000000    0.000000    0.000000    0.000000
  0.022404810  -82.084111  -36.109909  -92.557202   31.504957    0.000000    0.000000    0.000000    0.000000
  0.022605210  -82.002995  -34.852329  -92.316124   31.462311    0.000000    0.000000    0.000000    0.000000
  0.022805611  -81.826919  -34.701981  -92.296455   28.444399    0.000000    0.000000    0.000000    0.000000
  0.023006012  -81.697229  -34.365463  -92.833989   27.506973    0.000000    0.000000    0.000000    0.000000
  0.023206413  -81.590324  -34.699261  -92.527900   30.504404    0.000000    0.000000    0.000000    0.000000
  0.023406814  -81.497902  -35.500031  -92.812603   25.668510    0.000000    0.000000    0.000000    0.000000
  0.023607214  -81.414392  -35.486000  -92.939632   27.352077    0.000000    0.000000    0.000000    0.000000
  0.023807615  -81.149616  -35.240807  -93.601931   25.914747    0.000000    0.000000    0.000000    0.000000
  0.024008016  -81.106669  -35.111385  -93.828127   26.772165    0.000000    0.000000    0.000000    0.000000
  0.024208417  -80.957369  -35.461548  -93.545054   28.936186    0.000000    0.000000    0.000000    0.000000
  0.024408818  -80.853414  -35.423439  -93.783272   25.143440    0.000000    0.000000    0.000000    0.000000
  0.024609218  -80.736421  -34.991852  -93.949541   21.092258    0.000000    0.000000    0.000000    0.000000
  0.024809619  -80.486415  -34.979168  -93.713835   22.152988    0.000000    0.000000    0.000000    0.000000
  0.025010020  -80.433806  -35.348938  -94.087449   25.057388    0.000000    0.000000    0.000000    0.000000
  0.025210421  -80.278950  -35.589386  -94.144149   22.206141    0.000000    0.000000    0.000000    0.000000
  0.025410822  -80.208090  -35.429733  -94.463805   22.586277    0.000000    0.000000    0.000000    0.000000
  0.025611222  -80.052087  -35.487892  -94.541923   25.486347    0.000000    0.000000    0.000000    0.000000
  0.025811623  -79.936864  -35.448219  -94.617567   21.891012    0.000000    0.000000    0.000000    0.000000
  0.026012024  -79.733696  -35.866692  -95.908168   19.426464    0.000000    0.000000    0.000000    0.000000
  0.026212425  -79.676848  -35.956940  -95.720872   19.343805    0.000000    0.000000    0.000000    0.000000
  0.026412826  -79.598706  -36.062412  -94.740091   19.390808    0.000000    0.000000    0.000000    0.000000
  0.026613226  -79.513669  -36.246166  -95.123955   23.545166    0.000000    0.000000    0.000000    0.000000
  0.026813627  -79.327264  -35.853607  -95.150552   19.151840    0.000000    0.000000    0.000000    0.000000
  0.027014028  -79.238787  -36.177246  -95.376955   15.785363    0.000000    0.000000    0.000000    0.000000
  0.027214429  -79.179003  -35.590511  -95.779870   20.139601    0.000000    0.000000    0.000000    0.000000
  0.027414830  -79.009004  -36.715389  -95.426709   18.559637    0.000000    0.000000    0.000000    0.000000
  0.027615230  -78.873198  -36.184940  -95.547669   16.792364    0.000000    0.000000    0.000000    0.000000
  0.027815631  -78.814438  -36.459923  -96.125434   18.258377    0.000000    0.000000    0.000000    0.000000
  0.028016032  -78.678444  -36.648674  -95.907106   20.310978    0.000000    0.000000    0.000000    0.000000
  0.028216433  -78.565093  -36.968544  -95.281459   16.492296    0.000000    0.000000    0.000000    0.000000
  0.028416834  -78.438071  -36.146355  -95.514435   17.297096    0.000000    0.000000    0.000000    0.000000
  0.028617234  -78.367433  -36.854740  -95.149899   19.454710    0.000000    0.000000    0.000000    0.000000
  0.028817635  -78.266850  -36.531925  -96.247481   17.615906    0.000000    0.000000    0.000000    0.000000
  0.029018036  -78.125140  -37.110104  -96.945194   15.270589    0.000000    0.000000    0.000000    0.000000
  0.029218437  -78.053891  -36.642681  -96.159822   18.047794    0.000000    0.000000    0.000000    0.000000
  0.029418838  -77.948377  -36.888283  -96.549367   17.045767    0.000000    0.000000    0.000000    0.000000
  0.029619238  -77.762019  -37.184334  -96.441809   15.086124    0.000000    0.000000    0.000000    0.000000
  0.029819639  -77.737874  -37.056973  -96.767620   15.173276    0.000000    0.000000    0.000000    0.000000
  0.030020040  -77.683665  -37.113194  -97.937757   16.748541    0.000000    0.000000    0.000000    0.000000
  0.030220441  -77.453335  -37.687237  -96.943722   20.401390    0.000000    0.000000    0.000000    0.000000
  0.030420842  -77.370818  -37.782516  -96.192497   15.166878    0.000000    0.000000    0.000000    0.000000
  0.030621242  -77.289965  -37.747871  -97.206313   12.075406    0.000000    0.000000    0.000000    0.000000
  0.030821643  -77.183866  -37.520996  -97.074198   19.388241    0.000000    0.000000    0.000000    0.000000
  0.031022044  -77.089407  -37.809624  -97.092883   17.002562    0.000000    0.000000    0.000000    0.000000
  0.031222445  -76.911366  -37.670845  -97.435014    6.179238    0.000000    0.000000    0.000000    0.000000
  0.031422846  -76.923200  -37.426895  -97.022653   11.058179    0.000000    0.000000    0.000000    0.000000
  0.031623246  -76.861605  -37.453411  -97.326723   12.450198    0.000000    0.000000    0.000000    0.000000
  0.031823647  -76.680801  -37.912968  -97.314069   17.315813    0.000000    0.000000    0.000000    0.000000
  0.032024048  -76.542284  -38.069565  -97.825446    2.146375    0.000000    0.000000    0.000000    0.000000
  0.032224449  -76.562581  -38.170410  -97.095841    6.315064    0.000000    0.000000    0.000000    0.000000
  0.032424850  -76.414741  -38.572845  -99.101346   10.868570    0.000000    0.000000    0.000000    0.000000
  0.032625251  -76.429548  -38.172543  -95.934246    9.984585    0.000000    0.000000    0.000000    0.000000
  0.032825651  -76.299079  -38.716988  -98.820187   18.420017    0.000000    0.000000    0.000000    0.000000
  0.033026052  -76.206488  -38.919205  -97.298728   13.060268    0.000000    0.000000    0.000000    0.000000
  0.033226453  -76.023246  -39.400402  -98.634409   14.415116    0.000000    0.000000    0.000000    0.000000
  0.033426854  -76.015148  -38.540642  -98.220012   11.829323    0.000000    0.000000    0.000000    0.000000
  0.033627255  -76.012393  -38.696247  -97.662784   15.011394    0.000000    0.000000    0.000000    0.000000
  0.033827655  -75.800829  -38.773918  -98.084758   14.994681    0.000000    0.000000    0.000000    0.000000
  0.034028056  -75.731468  -39.304054  -98.493441   15.225819    0.000000    0.000000    0.000000    0.000000
  0.034228457  -75.653340  -38.780079  -98.640191   13.241755    0.000000    0.000000    0.000000    0.000000
  0.034428858  -75.534267  -39.216118  -97.968877   13.442632    0.000000    0.000000    0.000000    0.000000
  0.034629259  -75.490090  -39.554379  -98.395335    8.963561    0.000000    0.000000    0.000000    0.000000
  0.034829659  -75.348211  -39.554970  -98.895614   12.187556    0.000000    0.000000    0.000000    0.000000
  0.035030060  -75.273101  -39.545544  -97.656073   12.456901    0.000000    0.000000    0.000000    0.000000
  0.035230461  -75.253728  -39.660942  -98.313556   16.644695    0.000000    0.000000    0.000000    0.000000
  0.035430862  -75.074014  -39.872555  -99.532121    4.451652    0.000000    0.000000    0.000000    0.000000
  0.035631263  -75.096877  -39.986908  -98.993371    8.620410    0.000000    0.000000    0.000000    0.000000
  0.035831663  -74.923523  -40.014812  -99.311863    5.886403    0.000000    0.000000    0.000000    0.000000
  0.036032064  -74.884891  -40.000206  -98.918844   13.460629    0.000000    0.000000    0.000000    0.000000
  0.036232465  -74.763376  -39.808983  -98.211306    6.919243    0.000000    0.000000    0.000000    0.000000
  0.036432866  -74.734240  -40.064880  -99.300267   15.361483    0.000000    0.000000    0.000000    0.000000
  0.036633267  -74.636922  -39.977440  -99.409143    2.272682    0.000000    0.000000    0.000000    0.000000
  0.036833667  -74.458390  -40.579002 -100.127011   -1.721428    0.000000    0.000000    0.000000    0.000000
  0.037034068  -74.517836  -40.624668  -98.379570    9.081339    0.000000    0.000000    0.000000    0.000000
  0.037234469  -74.311272  -40.646008  -99.195337   12.929989    0.000000    0.000000    0.000000    0.000000
  0.037434870  -74.338218  -40.428528  -98.667437   13.982008    0.000000    0.000000    0.000000    0.000000
  0.037635271  -74.232247  -40.567131  -99.360686   -0.030732    0.000000    0.000000    0.000000    0.000000
  0.037835671  -74.115346  -40.855129  -99.772764   14.008776    0.000000    0.000000    0.000000    0.000000
  0.038036072  -73.997217  -40.565174  -99.163236    1.503441    0.000000    0.000000    0.000000    0.000000
  0.038236473  -73.987983  -41.147888  -99.945825   10.314299    0.000000    0.000000    0.000000    0.000000
  0.038436874  -73.894605  -41.073330  -99.090319    0.651886    0.000000    0.000000    0.000000    0.000000
  0.038637275  -73.813687  -41.477245 -100.672175    8.699708    0.000000    0.000000    0.000000    0.000000
  0.038837675  -73.741454  -41.199745 -100.970998   -2.767123    0.000000    0.000000    0.000000    0.000000
  0.039038076  -73.666451  -41.136898 -101.083037   16.217350    0.000000    0.000000    0.000000    0.000000
  0.039238477  -73.567288  -41.447380 -100.007312    0.475997    0.000000    0.000000    0.000000    0.000000
  0.039438878  -73.476886  -41.856503 -100.535857    5.025097    0.000000    0.000000    0.000000    0.000000
  0.039639279  -73.456647  -41.644314  -99.891965    9.014419    0.000000    0.000000    0.000000    0.000000
  0.039839679  -73.297405  -41.707596 -100.330386    7.477334    0.000000    0.000000    0.000000    0.000000
  0.040040080  -73.320003  -41.370575 -100.927962    6.191140    0.000000    0.000000    0.000000    0.000000
  0.040240481  -73.199104  -42.089596 -101.899827    2.568296    0.000000    0.000000    0.000000    0.000000
  0.040440882  -73.074515  -42.174938  -99.701793    9.704130    0.000000    0.000000    0.000000    0.000000
  0.040641283  -73.091949  -42.096741 -102.054595   14.327795    0.000000    0.000000    0.000000    0.000000
  0.040841683  -72.961457  -41.985645 -100.706022    4.488171    0.000000    0.000000    0.000000    0.000000
  0.041042084  -72.902299  -42.199806 -102.492020   13.557689    0.000000    0.000000    0.000000    0.000000
  0.041242485  -72.816707  -42.100082  -99.859054    0.801562    0.000000    0.000000    0.000000    0.000000
  0.041442886  -72.757274  -42.648380  -99.979045   -1.041031    0.000000    0.000000    0.000000    0.000000
  0.041643287  -72.630497  -42.513401 -100.126364   15.510398    0.000000    0.000000    0.000000    0.000000
  0.041843687  -72.608089  -42.428902 -100.257649   18.498463    0.000000    0.000000    0.000000    0.000000
  0.042044088  -72.511814  -42.885490 -102.296179   -4.819330    0.000000    0.000000    0.000000    0.000000
  0.042244489  -72.493592  -43.014969 -101.082417    8.756124    0.000000    0.000000    0.000000    0.000000
  0.042444890  -72.408538  -43.218014 -102.507600    8.539554    0.000000    0.000000    0.000000    0.000000
  0.042645291  -72.310224  -42.730785 -103.266895    8.375670    0.000000    0.000000    0.000000    0.000000
  0.042845691  -72.272782  -42.757870 -100.047765   14.678003    0.000000    0.000000    0.000000    0.000000
  0.043046092  -72.212897  -43.555359 -100.934571   -4.610542    0.000000    0.000000    0.000000    0.000000
  0.043246493  -72.126682  -42.936787 -101.344486    2.769163    0.000000    0.000000    0.000000    0.000000
  0.043446894  -72.029865  -43.428928 -100.228827    1.114851    0.000000    0.000000    0.000000    0.000000
  0.043647295  -71.985693  -43.239403 -101.742433    5.494569    0.000000    0.000000    0.000000    0.000000
  0.043847695  -71.918186  -43.625298 -100.211740    0.721191    0.000000    0.000000    0.000000    0.000000
  0.044048096  -71.867124  -43.328274 -101.115940   -2.136828    0.000000    0.000000    0.000000    0.000000
  0.044248497  -71.766966  -43.706512 -101.456963    2.757911    0.000000    0.000000    0.000000    0.000000
  0.044448898  -71.683129  -43.543629 -101.822319    0.332073    0.000000    0.000000    0.000000    0.000000
  0.044649299  -71.631216  -43.600090 -103.329693    5.239283    0.000000    0.000000    0.000000    0.000000
  0.044849699  -71.523286  -44.123604 -103.000241   -1.060102    0.000000    0.000000    0.000000    0.000000
  0.045050100  -71.516932  -44.050549 -100.226592    6.330729    0.000000    0.000000    0.000000    0.000000
  0.045250501  -71.390774  -44.355972 -100.824318    3.751730    0.000000    0.000000    0.000000    0.000000
  0.045450902  -71.350725  -43.968990 -103.507241   -8.329327    0.000000    0.000000    0.000000    0.000000
  0.045651303  -71.260184  -44.058353 -100.184290    3.062648    0.000000    0.000000    0.000000    0.000000
  0.045851703  -71.250257  -44.438808 -101.625025   20.909679    0.000000    0.000000    0.000000    0.000000
  0.046052104  -71.132627  -44.455555 -103.155447    2.617889    0.000000    0.000000    0.000000    0.000000
  0.046252505  -71.126483  -44.600636 -101.438380   -7.456288    0.000000    0.000000    0.000000    0.000000
  0.046452906  -71.086965  -44.384064 -101.584470   -0.541570    0.000000    0.000000    0.000000    0.000000
  0.046653307  -70.990959  -44.256271 -101.759110   -1.727331    0.000000    0.000000    0.000000    0.000000
  0.046853707  -70.912501  -44.778568 -100.949653    0.453181    0.000000    0.000000    0.000000    0.000000
  0.047054108  -70.834468  -44.852051 -103.038365   20.149332    0.000000    0.000000    0.000000    0.000000
  0.047254509  -70.766644  -44.874336 -102.249745   -4.586173    0.000000    0.000000    0.000000    0.000000
  0.047454910  -70.747184  -44.769615 -101.577240    3.266789    0.000000    0.000000    0.000000    0.000000
  0.047655311  -70.649464  -44.644066 -101.018172   -3.921328    0.000000    0.000000    0.000000    0.000000
  0.047855711  -70.600820  -45.346939 -102.831152   15.598125    0.000000    0.000000    0.000000    0.000000
  0.048056112  -70.503830  -45.510223 -102.763463   -3.036905    0.000000    0.000000    0.000000    0.000000
  0.048256513  -70.442430  -45.562447 -102.110007   -2.187567    0.000000    0.000000    0.000000    0.000000
  0.048456914  -70.432003  -45.657242 -103.924657   -7.237653    0.000000    0.000000    0.000000    0.000000
  0.048657315  -70.318503  -45.519920  -99.850359    0.906378    0.000000    0.000000    0.000000    0.000000
  0.048857715  -70.287563  -45.789970 -103.988304    1.160237    0.000000    0.000000    0.000000    0.000000
  0.049058116  -70.262222  -45.808796 -102.007780   19.471294    0.000000    0.000000    0.000000    0.000000
  0.049258517  -70.184801  -45.716019 -103.075470   21.354914    0.000000    0.000000    0.000000    0.000000
  0.049458918  -70.100520  -46.174984 -100.910457   -3.321241    0.000000    0.000000    0.000000    0.000000
  0.049659319  -70.046431  -46.082272 -102.445441   -1.733573    0.000000    0.000000    0.000000    0.000000
  0.049859719  -69.977840  -46.122330 -101.497169   14.270741    0.000000    0.000000    0.000000    0.000000
  0.050060120  -69.928212  -46.294624 -102.235267   -5.615935    0.000000    0.000000    0.000000    0.000000
  0.050260521  -69.900834  -46.408382 -103.359132    2.143957    0.000000    0.000000    0.000000    0.000000
  0.050460922  -69.835970  -46.456753 -103.383093    0.175856    0.000000    0.000000    0.000000    0.000000
  0.050661323  -69.764615  -46.869713 -103.754723   19.460371    0.000000    0.000000    0.000000    0.000000
  0.050861723  -69.702566  -47.103786 -103.571226    5.799394    0.000000    0.000000    0.000000    0.000000
  0.051062124  -69.626560  -47.223000 -102.929117    6.993186    0.000000    0.000000    0.000000    0.000000
  0.051262525  -69.578355  -46.941765 -104.150608   -2.058794    0.000000    0.000000    0.000000    0.000000
  0.051462926  -69.523127  -47.246307 -102.926651   -6.940952    0.000000    0.000000    0.000000    0.000000
  0.051663327  -69.510882  -47.028767 -102.549377  -15.021983    0.000000    0.000000    0.000000    0.000000
  0.051863727  -69.406567  -46.973045 -103.694414    6.594267    0.000000    0.000000    0.000000    0.000000
  0.052064128  -69.349631  -47.394592 -100.987260    8.100344    0.000000    0.000000    0.000000    0.000000
  0.052264529  -69.304063  -47.854496 -103.487052   14.735350    0.000000    0.000000    0.000000    0.000000
  0.052464930  -69.255757  -47.720921 -102.834035    0.327607    0.000000    0.000000    0.000000    0.000000
  0.052665331  -69.154303  -47.930302 -102.809548    9.027719    0.000000    0.000000    0.000000    0.000000
  0.052865731  -69.135880  -47.786942 -102.988013  -14.064804    0.000000    0.000000    0.000000    0.000000
