! Anritsu VNA Master:                     Model: MS2036C/10/77
! SN:                                  1601066
! /bd0/18may08.cable.cal/unused.19p46.1.s2p
! Existing Calibration Information:
! TYPE:                         Current Settings,       Active Cal Settings
! TIME:             	   05/08/2018 04:27:21 PM,    05/08/2018 04:21:58 PM
! INTERNAL TEMP:    	                   50.0 C,                    50.0 C
! # POINTS:         	                      500,                       500
! START FREQ:       	               20.000 MHz,                20.000 MHz
! STOP FREQ:        	              120.000 MHz,               120.000 MHz
! SOURCE POWER:     	                     High,                      High
! IFBW:             	                    50 Hz,                     50 Hz
! AVG FACTOR:       	                       1 ,                        1 
! REF PLANE 1:      	                     0 mm,                      0 mm
! REF PLANE 2:      	                     0 mm,                      0 mm
! CAL TYPE:         	                 Full S11,                  Full S11
! CAL METHOD:       	                     SOLT,                      SOLT
! CAL LINE TYPE:    	                     Coax,                      Coax
! DUT PORT 1:       	                K-Conn(F),                 K-Conn(F)
! DUT PORT 2:       	                K-Conn(F),                 K-Conn(F)
! CAL STATUS:       	        OK: Accuracy High,                        --
# GHZ S DB R 50.0
! FREQ.GHZ       S11DB        S11A       S21DB        S21A       S12DB        S12A       S22DB        S22A
  0.020000000   -7.228341  156.088852  -91.046782   38.389599    0.000000    0.000000    0.000000    0.000000
  0.020200401   -7.229975  155.847855  -91.410986   34.008877    0.000000    0.000000    0.000000    0.000000
  0.020400802   -7.228458  155.613846  -90.901643   41.288204    0.000000    0.000000    0.000000    0.000000
  0.020601202   -7.231789  155.399033  -91.038312   34.441948    0.000000    0.000000    0.000000    0.000000
  0.020801603   -7.232770  155.169220  -91.638055   36.925117    0.000000    0.000000    0.000000    0.000000
  0.021002004   -7.231705  154.931442  -91.249592   38.200237    0.000000    0.000000    0.000000    0.000000
  0.021202405   -7.232869  154.692993  -91.337861   39.052807    0.000000    0.000000    0.000000    0.000000
  0.021402806   -7.233344  154.455307  -91.674172   30.221172    0.000000    0.000000    0.000000    0.000000
  0.021603206   -7.233404  154.225464  -91.966465   32.866440    0.000000    0.000000    0.000000    0.000000
  0.021803607   -7.232983  153.990143  -91.575611   35.262638    0.000000    0.000000    0.000000    0.000000
  0.022004008   -7.234642  153.753616  -91.611684   29.567318    0.000000    0.000000    0.000000    0.000000
  0.022204409   -7.233228  153.526459  -92.526710   35.470963    0.000000    0.000000    0.000000    0.000000
  0.022404810   -7.235121  153.284714  -92.272933   33.589928    0.000000    0.000000    0.000000    0.000000
  0.022605210   -7.237575  153.043716  -92.391817   35.707722    0.000000    0.000000    0.000000    0.000000
  0.022805611   -7.235037  152.833069  -92.204498   31.250601    0.000000    0.000000    0.000000    0.000000
  0.023006012   -7.238979  152.574463  -92.765585   28.506598    0.000000    0.000000    0.000000    0.000000
  0.023206413   -7.237393  152.341415  -92.460883   27.769575    0.000000    0.000000    0.000000    0.000000
  0.023406814   -7.239222  152.113647  -92.636782   26.699299    0.000000    0.000000    0.000000    0.000000
  0.023607214   -7.240751  151.885178  -93.549668   26.651087    0.000000    0.000000    0.000000    0.000000
  0.023807615   -7.241169  151.641937  -93.513769   30.254583    0.000000    0.000000    0.000000    0.000000
  0.024008016   -7.241179  151.410248  -93.221890   24.869509    0.000000    0.000000    0.000000    0.000000
  0.024208417   -7.242694  151.165207  -93.825065   26.890051    0.000000    0.000000    0.000000    0.000000
  0.024408818   -7.242751  150.939972  -93.703013   29.517567    0.000000    0.000000    0.000000    0.000000
  0.024609218   -7.241942  150.711517  -93.152624   26.963900    0.000000    0.000000    0.000000    0.000000
  0.024809619   -7.243046  150.479691  -93.146717   22.173689    0.000000    0.000000    0.000000    0.000000
  0.025010020   -7.243718  150.237823  -93.162092   24.756266    0.000000    0.000000    0.000000    0.000000
  0.025210421   -7.245253  150.000427  -93.441856   20.258156    0.000000    0.000000    0.000000    0.000000
  0.025410822   -7.245524  149.760803  -94.310992   24.641354    0.000000    0.000000    0.000000    0.000000
  0.025611222   -7.245293  149.532349  -94.146647   29.197573    0.000000    0.000000    0.000000    0.000000
  0.025811623   -7.246334  149.317245  -94.291564   20.418720    0.000000    0.000000    0.000000    0.000000
  0.026012024   -7.247655  149.065445  -94.549590   20.659025    0.000000    0.000000    0.000000    0.000000
  0.026212425   -7.245595  148.834091  -95.107346   18.739206    0.000000    0.000000    0.000000    0.000000
  0.026412826   -7.245215  148.600006  -94.281811   18.535421    0.000000    0.000000    0.000000    0.000000
  0.026613226   -7.248192  148.362427  -94.947003   17.642641    0.000000    0.000000    0.000000    0.000000
  0.026813627   -7.247787  148.121170  -94.994251   21.363228    0.000000    0.000000    0.000000    0.000000
  0.027014028   -7.247538  147.881424  -94.909750   23.259903    0.000000    0.000000    0.000000    0.000000
  0.027214429   -7.247938  147.649780  -94.947089   16.621058    0.000000    0.000000    0.000000    0.000000
  0.027414830   -7.246532  147.430145  -95.547860   17.788235    0.000000    0.000000    0.000000    0.000000
  0.027615230   -7.248352  147.189087  -94.882325   15.900294    0.000000    0.000000    0.000000    0.000000
  0.027815631   -7.249572  146.949234  -95.234722   18.991617    0.000000    0.000000    0.000000    0.000000
  0.028016032   -7.247731  146.730133  -95.436391   13.684090    0.000000    0.000000    0.000000    0.000000
  0.028216433   -7.247300  146.480026  -95.688611   20.269810    0.000000    0.000000    0.000000    0.000000
  0.028416834   -7.248711  146.260468  -95.812088   14.037531    0.000000    0.000000    0.000000    0.000000
  0.028617234   -7.246123  146.036255  -95.996024   19.276882    0.000000    0.000000    0.000000    0.000000
  0.028817635   -7.247654  145.804611  -95.595244   24.234636    0.000000    0.000000    0.000000    0.000000
  0.029018036   -7.247079  145.564468  -95.559079   15.546301    0.000000    0.000000    0.000000    0.000000
  0.029218437   -7.246542  145.324799  -96.089042   20.570263    0.000000    0.000000    0.000000    0.000000
  0.029418838   -7.247893  145.105377  -95.948575   17.883760    0.000000    0.000000    0.000000    0.000000
  0.029619238   -7.243892  144.880920  -96.501264   11.753689    0.000000    0.000000    0.000000    0.000000
  0.029819639   -7.244864  144.631653  -97.289529   19.666935    0.000000    0.000000    0.000000    0.000000
  0.030020040   -7.243225  144.410782  -97.045349   21.094275    0.000000    0.000000    0.000000    0.000000
  0.030220441   -7.242363  144.170547  -96.786159   11.813581    0.000000    0.000000    0.000000    0.000000
  0.030420842   -7.242580  143.947144  -97.039247   10.996606    0.000000    0.000000    0.000000    0.000000
  0.030621242   -7.242506  143.710236  -96.679595   12.175282    0.000000    0.000000    0.000000    0.000000
  0.030821643   -7.241266  143.475372  -96.975088    9.914253    0.000000    0.000000    0.000000    0.000000
  0.031022044   -7.240303  143.229767  -97.407341   12.358686    0.000000    0.000000    0.000000    0.000000
  0.031222445   -7.222110  143.090897  -96.605201    6.277352    0.000000    0.000000    0.000000    0.000000
  0.031422846   -7.220706  142.842896  -96.967182   19.241341    0.000000    0.000000    0.000000    0.000000
  0.031623246   -7.224817  142.611893  -97.613463   10.274243    0.000000    0.000000    0.000000    0.000000
  0.031823647   -7.222359  142.366821  -97.610539    6.018892    0.000000    0.000000    0.000000    0.000000
  0.032024048   -7.223953  142.141983  -97.303277   10.823950    0.000000    0.000000    0.000000    0.000000
  0.032224449   -7.222495  141.890167  -97.608311   11.877278    0.000000    0.000000    0.000000    0.000000
  0.032424850   -7.224742  141.656509  -97.648124   11.827512    0.000000    0.000000    0.000000    0.000000
  0.032625251   -7.224419  141.430099  -96.789306    4.604348    0.000000    0.000000    0.000000    0.000000
  0.032825651   -7.223838  141.189499  -97.442265   10.148954    0.000000    0.000000    0.000000    0.000000
  0.033026052   -7.224817  140.930267  -98.198061    9.033689    0.000000    0.000000    0.000000    0.000000
  0.033226453   -7.225941  140.691025  -98.621476   13.165888    0.000000    0.000000    0.000000    0.000000
  0.033426854   -7.226163  140.468277  -98.668688   10.825234    0.000000    0.000000    0.000000    0.000000
  0.033627255   -7.228600  140.223572  -97.866782   10.176864    0.000000    0.000000    0.000000    0.000000
  0.033827655   -7.224983  139.989532  -97.945165   12.005134    0.000000    0.000000    0.000000    0.000000
  0.034028056   -7.227304  139.740540  -98.125732    0.663276    0.000000    0.000000    0.000000    0.000000
  0.034228457   -7.230302  139.518204  -98.306912    6.647002    0.000000    0.000000    0.000000    0.000000
  0.034428858   -7.227644  139.282425  -97.865096   12.300127    0.000000    0.000000    0.000000    0.000000
  0.034629259   -7.227805  139.035385  -98.632787   10.617893    0.000000    0.000000    0.000000    0.000000
  0.034829659   -7.228819  138.783188  -98.573504    3.402134    0.000000    0.000000    0.000000    0.000000
  0.035030060   -7.228640  138.554123  -98.278995    5.533217    0.000000    0.000000    0.000000    0.000000
  0.035230461   -7.230661  138.311707  -99.245792    6.500677    0.000000    0.000000    0.000000    0.000000
  0.035430862   -7.228860  138.083633  -99.336076   11.445104    0.000000    0.000000    0.000000    0.000000
  0.035631263   -7.227738  137.842972  -98.894130    6.600452    0.000000    0.000000    0.000000    0.000000
  0.035831663   -7.227954  137.607285  -99.849504   14.027216    0.000000    0.000000    0.000000    0.000000
  0.036032064   -7.228446  137.378708 -101.228092    6.128967    0.000000    0.000000    0.000000    0.000000
  0.036232465   -7.228609  137.138870  -99.362990    2.323579    0.000000    0.000000    0.000000    0.000000
  0.036432866   -7.230146  136.901520  -98.337914   10.863160    0.000000    0.000000    0.000000    0.000000
  0.036633267   -7.227936  136.669815  -98.404119    1.224513    0.000000    0.000000    0.000000    0.000000
  0.036833667   -7.228588  136.428131  -99.698608   10.154779    0.000000    0.000000    0.000000    0.000000
  0.037034068   -7.228936  136.206863  -99.471193   17.403706    0.000000    0.000000    0.000000    0.000000
  0.037234469   -7.230258  135.973801 -100.079189    5.575781    0.000000    0.000000    0.000000    0.000000
  0.037434870   -7.227922  135.740250  -99.553910    5.076771    0.000000    0.000000    0.000000    0.000000
  0.037635271   -7.227509  135.501587 -101.191767   -1.827527    0.000000    0.000000    0.000000    0.000000
  0.037835671   -7.229901  135.275482  -99.107983    0.625043    0.000000    0.000000    0.000000    0.000000
  0.038036072   -7.227007  135.035019  -99.861149    8.614828    0.000000    0.000000    0.000000    0.000000
  0.038236473   -7.231603  134.803360 -100.964561    7.560952    0.000000    0.000000    0.000000    0.000000
  0.038436874   -7.228964  134.568466 -101.687216    8.896981    0.000000    0.000000    0.000000    0.000000
  0.038637275   -7.228115  134.341583 -101.806870   13.165960    0.000000    0.000000    0.000000    0.000000
  0.038837675   -7.227241  134.108109 -100.813399    0.457640    0.000000    0.000000    0.000000    0.000000
  0.039038076   -7.229034  133.870438  -99.527902   -2.611434    0.000000    0.000000    0.000000    0.000000
  0.039238477   -7.227758  133.645584 -100.544105    8.085607    0.000000    0.000000    0.000000    0.000000
  0.039438878   -7.225294  133.404999 -100.666356   -0.902465    0.000000    0.000000    0.000000    0.000000
  0.039639279   -7.228495  133.170212 -100.784797    6.483184    0.000000    0.000000    0.000000    0.000000
  0.039839679   -7.230124  132.935303 -101.274905    4.133299    0.000000    0.000000    0.000000    0.000000
  0.040040080   -7.226211  132.707626 -100.669827    8.801158    0.000000    0.000000    0.000000    0.000000
  0.040240481   -7.227943  132.491135  -99.854094   -2.553712    0.000000    0.000000    0.000000    0.000000
  0.040440882   -7.225718  132.250717 -102.104825    3.950305    0.000000    0.000000    0.000000    0.000000
  0.040641283   -7.226035  132.024109 -101.233551   14.540170    0.000000    0.000000    0.000000    0.000000
  0.040841683   -7.226681  131.792297 -102.039128   18.409470    0.000000    0.000000    0.000000    0.000000
  0.041042084   -7.224437  131.548950 -101.938179    9.708804    0.000000    0.000000    0.000000    0.000000
  0.041242485   -7.225864  131.327240 -101.933707  -13.288746    0.000000    0.000000    0.000000    0.000000
  0.041442886   -7.224795  131.102142 -102.264097   -0.726405    0.000000    0.000000    0.000000    0.000000
  0.041643287   -7.223725  130.877701 -100.859538   14.997818    0.000000    0.000000    0.000000    0.000000
  0.041843687   -7.225637  130.641281 -100.859995   12.341654    0.000000    0.000000    0.000000    0.000000
  0.042044088   -7.224291  130.391098 -101.159002    6.912738    0.000000    0.000000    0.000000    0.000000
  0.042244489   -7.224290  130.168167 -100.860104   11.529511    0.000000    0.000000    0.000000    0.000000
  0.042444890   -7.224641  129.948624 -102.501394   15.965287    0.000000    0.000000    0.000000    0.000000
  0.042645291   -7.222936  129.720886 -102.147963   14.381609    0.000000    0.000000    0.000000    0.000000
  0.042845691   -7.223799  129.467865 -104.517700   -8.299438    0.000000    0.000000    0.000000    0.000000
  0.043046092   -7.223313  129.261978 -102.666367    6.592650    0.000000    0.000000    0.000000    0.000000
  0.043246493   -7.222294  129.016922 -102.095031   10.680818    0.000000    0.000000    0.000000    0.000000
  0.043446894   -7.225854  128.776932 -102.558693   13.728389    0.000000    0.000000    0.000000    0.000000
  0.043647295   -7.222032  128.538330 -101.399731   16.817537    0.000000    0.000000    0.000000    0.000000
  0.043847695   -7.221234  128.314621 -100.971863    8.257842    0.000000    0.000000    0.000000    0.000000
  0.044048096   -7.219259  128.090576 -102.789581   23.634285    0.000000    0.000000    0.000000    0.000000
  0.044248497   -7.223316  127.849915 -103.559824   10.889247    0.000000    0.000000    0.000000    0.000000
  0.044448898   -7.222630  127.625237 -102.957132   10.115676    0.000000    0.000000    0.000000    0.000000
  0.044649299   -7.223042  127.379166 -103.105017   14.894284    0.000000    0.000000    0.000000    0.000000
  0.044849699   -7.221641  127.144630 -101.598130   -0.952287    0.000000    0.000000    0.000000    0.000000
  0.045050100   -7.220973  126.915161 -102.816643    5.628662    0.000000    0.000000    0.000000    0.000000
  0.045250501   -7.219700  126.691170 -101.891865   15.968333    0.000000    0.000000    0.000000    0.000000
  0.045450902   -7.219339  126.454834 -101.579291    8.114834    0.000000    0.000000    0.000000    0.000000
  0.045651303   -7.219528  126.207542 -100.755799   15.051384    0.000000    0.000000    0.000000    0.000000
  0.045851703   -7.217817  125.965096 -103.132196   16.907310    0.000000    0.000000    0.000000    0.000000
  0.046052104   -7.218328  125.747787 -101.989194   13.079241    0.000000    0.000000    0.000000    0.000000
  0.046252505   -7.216346  125.523361 -102.592596   14.587875    0.000000    0.000000    0.000000    0.000000
  0.046452906   -7.216454  125.270576 -103.989166   11.532426    0.000000    0.000000    0.000000    0.000000
  0.046653307   -7.216343  125.050339 -102.311248   17.817572    0.000000    0.000000    0.000000    0.000000
  0.046853707   -7.218467  124.801697 -104.245514    5.616344    0.000000    0.000000    0.000000    0.000000
  0.047054108   -7.214678  124.585258 -103.370911   31.908592    0.000000    0.000000    0.000000    0.000000
  0.047254509   -7.215298  124.338348 -103.784027   18.877102    0.000000    0.000000    0.000000    0.000000
  0.047454910   -7.213519  124.101707 -102.410593    1.217277    0.000000    0.000000    0.000000    0.000000
  0.047655311   -7.212628  123.869621 -101.745960    7.755512    0.000000    0.000000    0.000000    0.000000
  0.047855711   -7.211960  123.638702 -101.828049    1.594886    0.000000    0.000000    0.000000    0.000000
  0.048056112   -7.211878  123.377151 -102.753787   19.617573    0.000000    0.000000    0.000000    0.000000
  0.048256513   -7.211212  123.157654 -103.701445   10.890040    0.000000    0.000000    0.000000    0.000000
  0.048456914   -7.210118  122.936920 -102.309165   15.890437    0.000000    0.000000    0.000000    0.000000
  0.048657315   -7.209499  122.680840 -101.609017    7.824905    0.000000    0.000000    0.000000    0.000000
  0.048857715   -7.209299  122.477432 -103.039013    0.512385    0.000000    0.000000    0.000000    0.000000
  0.049058116   -7.210000  122.223091 -102.890911   15.520954    0.000000    0.000000    0.000000    0.000000
  0.049258517   -7.206276  122.001999 -102.160098   -8.524149    0.000000    0.000000    0.000000    0.000000
  0.049458918   -7.205378  121.762589 -100.841248   10.768761    0.000000    0.000000    0.000000    0.000000
  0.049659319   -7.208496  121.537468 -102.171557    3.399337    0.000000    0.000000    0.000000    0.000000
  0.049859719   -7.207452  121.308327 -101.482338    7.476446    0.000000    0.000000    0.000000    0.000000
  0.050060120   -7.206908  121.070747 -103.935472    5.580043    0.000000    0.000000    0.000000    0.000000
  0.050260521   -7.203734  120.840103 -103.653009   13.126256    0.000000    0.000000    0.000000    0.000000
  0.050460922   -7.202958  120.618462 -103.638048    8.593905    0.000000    0.000000    0.000000    0.000000
  0.050661323   -7.204657  120.374832 -101.920997   18.544781    0.000000    0.000000    0.000000    0.000000
  0.050861723   -7.200515  120.144707 -102.747823   10.662241    0.000000    0.000000    0.000000    0.000000
  0.051062124   -7.203205  119.910675 -102.515270    1.063938    0.000000    0.000000    0.000000    0.000000
  0.051262525   -7.201736  119.685593 -102.331923   11.335697    0.000000    0.000000    0.000000    0.000000
  0.051462926   -7.201184  119.444298 -102.639918    0.099715    0.000000    0.000000    0.000000    0.000000
  0.051663327   -7.200600  119.212372 -103.556011   14.408550    0.000000    0.000000    0.000000    0.000000
  0.051863727   -7.198794  118.973824 -100.645748    0.639631    0.000000    0.000000    0.000000    0.000000
  0.052064128   -7.198176  118.742767 -100.891928   24.231232    0.000000    0.000000    0.000000    0.000000
  0.052264529   -7.196223  118.518822 -103.304470   10.345495    0.000000    0.000000    0.000000    0.000000
  0.052464930   -7.196808  118.292686 -105.151420   10.779816    0.000000    0.000000    0.000000    0.000000
  0.052665331   -7.197173  118.072319 -104.453696   -6.560237    0.000000    0.000000    0.000000    0.000000
  0.052865731   -7.194418  117.828918 -102.336717   10.223254    0.000000    0.000000    0.000000    0.000000
