! Anritsu VNA Master:                     Model: MS2036C/10/77
! SN:                                  1601066
! /bd0/18may08.cable.cal/unused.194p65.anomalous.0.s2p
! Existing Calibration Information:
! TYPE:                         Current Settings,       Active Cal Settings
! TIME:             	   05/08/2018 04:05:46 PM,    05/08/2018 03:57:21 PM
! INTERNAL TEMP:    	                   50.3 C,                    50.3 C
! # POINTS:         	                      500,                       500
! START FREQ:       	               20.000 MHz,                20.000 MHz
! STOP FREQ:        	              120.000 MHz,               120.000 MHz
! SOURCE POWER:     	                     High,                      High
! IFBW:             	                    50 Hz,                     50 Hz
! AVG FACTOR:       	                       1 ,                        1 
! REF PLANE 1:      	                     0 mm,                      0 mm
! REF PLANE 2:      	                     0 mm,                      0 mm
! CAL TYPE:         	                 Full S11,                  Full S11
! CAL METHOD:       	                     SOLT,                      SOLT
! CAL LINE TYPE:    	                     Coax,                      Coax
! DUT PORT 1:       	                K-Conn(F),                 K-Conn(F)
! DUT PORT 2:       	                K-Conn(F),                 K-Conn(F)
! CAL STATUS:       	        OK: Accuracy High,                        --
# GHZ S DB R 50.0
! FREQ.GHZ       S11DB        S11A       S21DB        S21A       S12DB        S12A       S22DB        S22A
  0.020000000  -54.743252   71.753387  -90.944154   38.676716    0.000000    0.000000    0.000000    0.000000
  0.020200401  -54.641029   72.323502  -90.475764   40.112297    0.000000    0.000000    0.000000    0.000000
  0.020400802  -54.487657   71.937752  -90.965077   40.260578    0.000000    0.000000    0.000000    0.000000
  0.020601202  -54.403907   71.576866  -90.910511   36.389206    0.000000    0.000000    0.000000    0.000000
  0.020801603  -54.313387   71.494148  -91.600730   38.042625    0.000000    0.000000    0.000000    0.000000
  0.021002004  -54.216006   71.878616  -91.668114   37.314312    0.000000    0.000000    0.000000    0.000000
  0.021202405  -54.167331   71.561760  -91.711014   35.005650    0.000000    0.000000    0.000000    0.000000
  0.021402806  -54.067112   71.408012  -91.734916   36.381210    0.000000    0.000000    0.000000    0.000000
  0.021603206  -54.015415   71.051102  -91.728603   34.518917    0.000000    0.000000    0.000000    0.000000
  0.021803607  -53.875088   71.212929  -92.454957   34.830982    0.000000    0.000000    0.000000    0.000000
  0.022004008  -53.777673   70.808350  -91.857043   32.988647    0.000000    0.000000    0.000000    0.000000
  0.022204409  -53.751900   71.236160  -91.366145   32.720051    0.000000    0.000000    0.000000    0.000000
  0.022404810  -53.582363   70.070808  -92.075312   29.007540    0.000000    0.000000    0.000000    0.000000
  0.022605210  -53.510886   70.688141  -91.922281   32.848167    0.000000    0.000000    0.000000    0.000000
  0.022805611  -53.468081   70.583748  -92.525095   30.730291    0.000000    0.000000    0.000000    0.000000
  0.023006012  -53.385671   70.452843  -92.340025   27.092602    0.000000    0.000000    0.000000    0.000000
  0.023206413  -53.288492   70.064690  -92.429415   32.197460    0.000000    0.000000    0.000000    0.000000
  0.023406814  -53.241080   69.913757  -92.427445   32.100140    0.000000    0.000000    0.000000    0.000000
  0.023607214  -53.194295   69.795609  -92.730154   28.028370    0.000000    0.000000    0.000000    0.000000
  0.023807615  -53.075853   70.045471  -92.861784   32.302265    0.000000    0.000000    0.000000    0.000000
  0.024008016  -53.010964   69.668755  -92.937360   24.982302    0.000000    0.000000    0.000000    0.000000
  0.024208417  -52.936140   68.913040  -92.324537   31.892012    0.000000    0.000000    0.000000    0.000000
  0.024408818  -52.846643   69.272163  -93.351143   22.139399    0.000000    0.000000    0.000000    0.000000
  0.024609218  -52.755262   69.356049  -93.484910   24.288172    0.000000    0.000000    0.000000    0.000000
  0.024809619  -52.649351   69.133682  -94.017194   23.904903    0.000000    0.000000    0.000000    0.000000
  0.025010020  -52.631942   69.047096  -93.087616   23.730165    0.000000    0.000000    0.000000    0.000000
  0.025210421  -52.525416   68.894142  -93.889454   26.023897    0.000000    0.000000    0.000000    0.000000
  0.025410822  -52.477366   68.808876  -94.081473   20.022774    0.000000    0.000000    0.000000    0.000000
  0.025611222  -52.388548   68.554016  -94.625492   23.327700    0.000000    0.000000    0.000000    0.000000
  0.025811623  -52.301522   68.212181  -95.013725   22.673235    0.000000    0.000000    0.000000    0.000000
  0.026012024  -52.214468   68.104553  -94.031513   22.936277    0.000000    0.000000    0.000000    0.000000
  0.026212425  -52.173616   67.981964  -95.185007   20.919922    0.000000    0.000000    0.000000    0.000000
  0.026412826  -52.113628   67.677048  -94.816954   18.275007    0.000000    0.000000    0.000000    0.000000
  0.026613226  -52.025464   67.632668  -94.901492   23.045200    0.000000    0.000000    0.000000    0.000000
  0.026813627  -51.978555   67.481735  -94.929249   25.876463    0.000000    0.000000    0.000000    0.000000
  0.027014028  -51.896806   67.287956  -94.691701   20.372496    0.000000    0.000000    0.000000    0.000000
  0.027214429  -51.877612   67.364548  -94.868511   19.204931    0.000000    0.000000    0.000000    0.000000
  0.027414830  -51.766533   66.868736  -94.774680   18.766602    0.000000    0.000000    0.000000    0.000000
  0.027615230  -51.671561   67.087898  -96.743875   17.068777    0.000000    0.000000    0.000000    0.000000
  0.027815631  -51.650791   66.779053  -95.704886   17.904346    0.000000    0.000000    0.000000    0.000000
  0.028016032  -51.541917   66.191101  -95.976749   18.064432    0.000000    0.000000    0.000000    0.000000
  0.028216433  -51.512621   66.130547  -96.305054   18.721981    0.000000    0.000000    0.000000    0.000000
  0.028416834  -51.395343   66.652397  -96.602127   22.051615    0.000000    0.000000    0.000000    0.000000
  0.028617234  -51.348462   65.794159  -95.457897   13.302234    0.000000    0.000000    0.000000    0.000000
  0.028817635  -51.290924   66.017487  -95.938625   15.763925    0.000000    0.000000    0.000000    0.000000
  0.029018036  -51.235940   65.553329  -96.888280   15.351704    0.000000    0.000000    0.000000    0.000000
  0.029218437  -51.156229   65.557312  -96.669613   18.350119    0.000000    0.000000    0.000000    0.000000
  0.029418838  -51.121504   65.677917  -95.729467   13.616215    0.000000    0.000000    0.000000    0.000000
  0.029619238  -51.002064   65.363541  -96.628069   15.254574    0.000000    0.000000    0.000000    0.000000
  0.029819639  -50.978582   65.127045  -96.652028   11.591293    0.000000    0.000000    0.000000    0.000000
  0.030020040  -50.964430   64.937607  -97.086465   18.629213    0.000000    0.000000    0.000000    0.000000
  0.030220441  -50.798551   64.779709  -97.303200   14.078154    0.000000    0.000000    0.000000    0.000000
  0.030420842  -50.758455   64.312126  -98.395234   11.247675    0.000000    0.000000    0.000000    0.000000
  0.030621242  -50.671674   64.213310  -97.822810   14.272904    0.000000    0.000000    0.000000    0.000000
  0.030821643  -50.647649   64.508385  -97.570807   12.671297    0.000000    0.000000    0.000000    0.000000
  0.031022044  -50.576951   64.064240  -97.937073    8.717430    0.000000    0.000000    0.000000    0.000000
  0.031222445  -50.438873   64.195709  -97.190437   16.517160    0.000000    0.000000    0.000000    0.000000
  0.031422846  -50.459338   64.062607  -96.782989    8.336614    0.000000    0.000000    0.000000    0.000000
  0.031623246  -50.402025   63.683952  -98.157755   13.261435    0.000000    0.000000    0.000000    0.000000
  0.031823647  -50.282161   63.365059  -97.106676   12.630496    0.000000    0.000000    0.000000    0.000000
  0.032024048  -50.250845   63.346207  -96.870099   17.191698    0.000000    0.000000    0.000000    0.000000
  0.032224449  -50.249149   63.407097  -98.038998    0.873666    0.000000    0.000000    0.000000    0.000000
  0.032424850  -50.154980   63.098400  -98.139000   13.955463    0.000000    0.000000    0.000000    0.000000
  0.032625251  -50.113482   63.042210  -97.391514   20.097725    0.000000    0.000000    0.000000    0.000000
  0.032825651  -50.046835   62.608280  -97.257489    4.621377    0.000000    0.000000    0.000000    0.000000
  0.033026052  -50.017787   62.412979  -98.466195    8.878631    0.000000    0.000000    0.000000    0.000000
  0.033226453  -49.927656   62.088612  -98.275985    8.480077    0.000000    0.000000    0.000000    0.000000
  0.033426854  -49.876492   62.435307  -97.818460   10.354327    0.000000    0.000000    0.000000    0.000000
  0.033627255  -49.861662   61.985531  -98.240127    8.306982    0.000000    0.000000    0.000000    0.000000
  0.033827655  -49.749095   61.977264  -98.597627   10.195874    0.000000    0.000000    0.000000    0.000000
  0.034028056  -49.727392   61.510731  -98.674532    2.706333    0.000000    0.000000    0.000000    0.000000
  0.034228457  -49.648882   61.531166  -99.258947   -0.111313    0.000000    0.000000    0.000000    0.000000
  0.034428858  -49.591171   61.326733  -98.971597    1.713754    0.000000    0.000000    0.000000    0.000000
  0.034629259  -49.527509   60.757416  -97.910977   14.301083    0.000000    0.000000    0.000000    0.000000
  0.034829659  -49.494169   60.813293  -98.140209   15.822703    0.000000    0.000000    0.000000    0.000000
  0.035030060  -49.416995   60.694801  -98.527200    6.521436    0.000000    0.000000    0.000000    0.000000
  0.035230461  -49.400208   60.478401  -98.805359   10.103918    0.000000    0.000000    0.000000    0.000000
  0.035430862  -49.317567   60.032219  -97.752639   10.621470    0.000000    0.000000    0.000000    0.000000
  0.035631263  -49.315961   60.193619  -98.361048   13.104114    0.000000    0.000000    0.000000    0.000000
  0.035831663  -49.174563   60.001122  -98.072203    1.060128    0.000000    0.000000    0.000000    0.000000
  0.036032064  -49.151193   59.967804  -98.056327    4.078611    0.000000    0.000000    0.000000    0.000000
  0.036232465  -49.104012   59.913898  -99.099272    7.249612    0.000000    0.000000    0.000000    0.000000
  0.036432866  -49.073022   59.547775 -100.641005    3.349668    0.000000    0.000000    0.000000    0.000000
  0.036633267  -49.022835   59.409874  -99.905349    2.717210    0.000000    0.000000    0.000000    0.000000
  0.036833667  -48.915726   59.201294 -100.301591   11.513906    0.000000    0.000000    0.000000    0.000000
  0.037034068  -48.943531   58.805202  -99.407418    0.460001    0.000000    0.000000    0.000000    0.000000
  0.037234469  -48.842610   59.008121  -99.033235    9.030205    0.000000    0.000000    0.000000    0.000000
  0.037434870  -48.800044   58.689480 -100.918642    7.732450    0.000000    0.000000    0.000000    0.000000
  0.037635271  -48.743373   58.655540 -100.545785    5.830214    0.000000    0.000000    0.000000    0.000000
  0.037835671  -48.685068   58.126598  -99.647762    9.172518    0.000000    0.000000    0.000000    0.000000
  0.038036072  -48.619321   58.169373  -98.447673    8.474113    0.000000    0.000000    0.000000    0.000000
  0.038236473  -48.588367   57.900162  -99.477101    5.163602    0.000000    0.000000    0.000000    0.000000
  0.038436874  -48.539892   57.786270 -101.834451    0.298910    0.000000    0.000000    0.000000    0.000000
  0.038637275  -48.495881   57.459354 -101.098876   -5.763188    0.000000    0.000000    0.000000    0.000000
  0.038837675  -48.440666   57.418716 -100.774539    3.353325    0.000000    0.000000    0.000000    0.000000
  0.039038076  -48.382947   57.374908  -99.082370   10.250234    0.000000    0.000000    0.000000    0.000000
  0.039238477  -48.332189   57.117226  -99.972209    2.222540    0.000000    0.000000    0.000000    0.000000
  0.039438878  -48.305081   56.835827 -100.374129   10.867568    0.000000    0.000000    0.000000    0.000000
  0.039639279  -48.250879   56.906799  -99.797278    1.300668    0.000000    0.000000    0.000000    0.000000
  0.039839679  -48.163829   56.511688 -101.010360   13.170033    0.000000    0.000000    0.000000    0.000000
  0.040040080  -48.119765   56.619980 -100.652057    4.881473    0.000000    0.000000    0.000000    0.000000
  0.040240481  -48.074810   56.240520  -99.806803    5.360602    0.000000    0.000000    0.000000    0.000000
  0.040440882  -48.032771   56.070610 -100.532984   -4.146348    0.000000    0.000000    0.000000    0.000000
  0.040641283  -48.009544   55.911884 -101.247504    3.719068    0.000000    0.000000    0.000000    0.000000
  0.040841683  -47.917079   56.026844 -100.437311    7.576690    0.000000    0.000000    0.000000    0.000000
  0.041042084  -47.882142   55.833885 -103.762034   13.635947    0.000000    0.000000    0.000000    0.000000
  0.041242485  -47.804443   55.543484 -102.635019    3.664433    0.000000    0.000000    0.000000    0.000000
  0.041442886  -47.784021   55.176155 -103.036188   -1.131218    0.000000    0.000000    0.000000    0.000000
  0.041643287  -47.707034   55.118496 -101.360121   13.014545    0.000000    0.000000    0.000000    0.000000
  0.041843687  -47.699693   54.951920  -99.820447   14.172322    0.000000    0.000000    0.000000    0.000000
  0.042044088  -47.631243   54.724545  -99.474136    5.996185    0.000000    0.000000    0.000000    0.000000
  0.042244489  -47.600008   54.770351 -101.889278   18.451231    0.000000    0.000000    0.000000    0.000000
  0.042444890  -47.541597   54.356735 -104.877981   12.810675    0.000000    0.000000    0.000000    0.000000
  0.042645291  -47.485713   54.471088 -105.443923   10.364229    0.000000    0.000000    0.000000    0.000000
  0.042845691  -47.477359   54.305435 -102.633972    4.597080    0.000000    0.000000    0.000000    0.000000
  0.043046092  -47.449394   53.853153 -102.597021   -4.729081    0.000000    0.000000    0.000000    0.000000
  0.043246493  -47.390563   54.041737 -101.347655    8.949657    0.000000    0.000000    0.000000    0.000000
  0.043446894  -47.291452   53.669796 -102.733512   12.971580    0.000000    0.000000    0.000000    0.000000
  0.043647295  -47.266553   53.562778 -101.552410    1.270186    0.000000    0.000000    0.000000    0.000000
  0.043847695  -47.221072   53.500885 -100.360642    6.754624    0.000000    0.000000    0.000000    0.000000
  0.044048096  -47.218000   53.272232 -101.686813   11.129476    0.000000    0.000000    0.000000    0.000000
  0.044248497  -47.111278   52.877716 -101.980334    3.606531    0.000000    0.000000    0.000000    0.000000
  0.044448898  -47.072845   52.978275 -101.477847    7.108470    0.000000    0.000000    0.000000    0.000000
  0.044649299  -47.047005   52.719322 -102.330534   18.300932    0.000000    0.000000    0.000000    0.000000
  0.044849699  -46.976617   52.322540 -102.169556    1.565116    0.000000    0.000000    0.000000    0.000000
  0.045050100  -46.953672   52.376705 -103.128573   12.767764    0.000000    0.000000    0.000000    0.000000
  0.045250501  -46.880627   52.130806 -103.946667   11.885117    0.000000    0.000000    0.000000    0.000000
  0.045450902  -46.854839   52.172756 -104.733133    2.649573    0.000000    0.000000    0.000000    0.000000
  0.045651303  -46.781586   51.893700 -101.438695    3.323025    0.000000    0.000000    0.000000    0.000000
  0.045851703  -46.761339   51.882549 -101.416425   -4.430033    0.000000    0.000000    0.000000    0.000000
  0.046052104  -46.694244   51.526855 -102.631087   15.733986    0.000000    0.000000    0.000000    0.000000
  0.046252505  -46.677962   51.196156 -103.229359   11.501486    0.000000    0.000000    0.000000    0.000000
  0.046452906  -46.655321   51.278870 -103.594681   -4.332541    0.000000    0.000000    0.000000    0.000000
  0.046653307  -46.587223   51.153694 -106.216337   14.537003    0.000000    0.000000    0.000000    0.000000
  0.046853707  -46.542294   50.890209 -102.945624    9.558593    0.000000    0.000000    0.000000    0.000000
  0.047054108  -46.491036   50.555157 -101.447892   11.955264    0.000000    0.000000    0.000000    0.000000
  0.047254509  -46.401350   50.583401 -102.768485    7.975850    0.000000    0.000000    0.000000    0.000000
  0.047454910  -46.392709   50.431431 -103.753223   12.185143    0.000000    0.000000    0.000000    0.000000
  0.047655311  -46.341259   50.375694 -103.697545    3.545055    0.000000    0.000000    0.000000    0.000000
  0.047855711  -46.324540   49.892090 -102.488970   12.205729    0.000000    0.000000    0.000000    0.000000
  0.048056112  -46.265239   49.924721 -103.056160   21.505796    0.000000    0.000000    0.000000    0.000000
  0.048256513  -46.225517   49.606659 -101.143790   11.131556    0.000000    0.000000    0.000000    0.000000
  0.048456914  -46.181340   49.480648 -101.123055   -0.613874    0.000000    0.000000    0.000000    0.000000
  0.048657315  -46.109763   49.389942 -101.042992    3.286424    0.000000    0.000000    0.000000    0.000000
  0.048857715  -46.097351   49.104950 -103.811144   15.175279    0.000000    0.000000    0.000000    0.000000
  0.049058116  -46.070266   49.037739 -103.565938    8.359073    0.000000    0.000000    0.000000    0.000000
  0.049258517  -45.994917   48.912270 -103.024933   -0.865407    0.000000    0.000000    0.000000    0.000000
  0.049458918  -45.959239   48.584087 -104.460838   16.039782    0.000000    0.000000    0.000000    0.000000
  0.049659319  -45.902919   48.652927 -104.179706    0.297784    0.000000    0.000000    0.000000    0.000000
  0.049859719  -45.865668   48.466129 -102.373728   18.771996    0.000000    0.000000    0.000000    0.000000
  0.050060120  -45.808951   48.059078 -104.899335    2.525352    0.000000    0.000000    0.000000    0.000000
  0.050260521  -45.800381   48.037151 -101.584833   15.212498    0.000000    0.000000    0.000000    0.000000
  0.050460922  -45.756581   47.876175 -101.635561    7.790429    0.000000    0.000000    0.000000    0.000000
  0.050661323  -45.713832   47.530975 -104.981452   13.252885    0.000000    0.000000    0.000000    0.000000
  0.050861723  -45.656273   47.398445 -101.895787   17.167295    0.000000    0.000000    0.000000    0.000000
  0.051062124  -45.611420   47.373085 -103.821214   16.100594    0.000000    0.000000    0.000000    0.000000
  0.051262525  -45.567114   47.273109 -103.351863    9.941554    0.000000    0.000000    0.000000    0.000000
  0.051462926  -45.547049   46.996361 -104.218377    9.401592    0.000000    0.000000    0.000000    0.000000
  0.051663327  -45.507803   46.903206 -102.841176    6.840077    0.000000    0.000000    0.000000    0.000000
  0.051863727  -45.442708   46.789322 -103.195837   12.870416    0.000000    0.000000    0.000000    0.000000
  0.052064128  -45.409000   46.573494 -103.787057   25.234657    0.000000    0.000000    0.000000    0.000000
  0.052264529  -45.356741   46.171566 -101.390906    3.310261    0.000000    0.000000    0.000000    0.000000
  0.052464930  -45.345335   46.008968 -103.580563    5.616213    0.000000    0.000000    0.000000    0.000000
  0.052665331  -45.252659   45.939434 -101.083462   17.509636    0.000000    0.000000    0.000000    0.000000
  0.052865731  -45.238317   45.885151 -102.849235    5.422163    0.000000    0.000000    0.000000    0.000000
