! Anritsu VNA Master:                     Model: MS2036C/10/77
! SN:                                  1601066
! /bd0/18may08.cable.cal/uu.20.2.s2p
! Existing Calibration Information:
! TYPE:                         Current Settings,       Active Cal Settings
! TIME:             	   05/08/2018 06:01:19 PM,    05/08/2018 05:57:55 PM
! INTERNAL TEMP:    	                   49.3 C,                    49.3 C
! # POINTS:         	                      500,                       500
! START FREQ:       	               20.000 MHz,                20.000 MHz
! STOP FREQ:        	              120.000 MHz,               120.000 MHz
! SOURCE POWER:     	                     High,                      High
! IFBW:             	                    50 Hz,                     50 Hz
! AVG FACTOR:       	                       1 ,                        1 
! REF PLANE 1:      	                     0 mm,                      0 mm
! REF PLANE 2:      	                     0 mm,                      0 mm
! CAL TYPE:         	                 Full S11,                  Full S11
! CAL METHOD:       	                     SOLT,                      SOLT
! CAL LINE TYPE:    	                     Coax,                      Coax
! DUT PORT 1:       	                K-Conn(F),                 K-Conn(F)
! DUT PORT 2:       	                K-Conn(F),                 K-Conn(F)
! CAL STATUS:       	        OK: Accuracy High,                        --
# GHZ S DB R 50.0
! FREQ.GHZ       S11DB        S11A       S21DB        S21A       S12DB        S12A       S22DB        S22A
  0.020000000   -7.239719  156.005615  -91.319678   33.594421    0.000000    0.000000    0.000000    0.000000
  0.020200401   -7.239349  155.777756  -91.284521   38.865311    0.000000    0.000000    0.000000    0.000000
  0.020400802   -7.241124  155.540298  -90.749888   39.954479    0.000000    0.000000    0.000000    0.000000
  0.020601202   -7.240800  155.307663  -91.076441   36.840858    0.000000    0.000000    0.000000    0.000000
  0.020801603   -7.241479  155.077209  -91.588814   36.441578    0.000000    0.000000    0.000000    0.000000
  0.021002004   -7.243441  154.848419  -91.557684   40.658264    0.000000    0.000000    0.000000    0.000000
  0.021202405   -7.242504  154.590073  -91.567357   35.231339    0.000000    0.000000    0.000000    0.000000
  0.021402806   -7.243452  154.373535  -91.745155   34.321991    0.000000    0.000000    0.000000    0.000000
  0.021603206   -7.244224  154.147736  -91.506676   39.369164    0.000000    0.000000    0.000000    0.000000
  0.021803607   -7.240919  153.904236  -92.556860   33.489532    0.000000    0.000000    0.000000    0.000000
  0.022004008   -7.247255  153.671036  -92.250522   34.809132    0.000000    0.000000    0.000000    0.000000
  0.022204409   -7.243420  153.434418  -92.100871   31.075954    0.000000    0.000000    0.000000    0.000000
  0.022404810   -7.245345  153.191483  -92.219393   32.714592    0.000000    0.000000    0.000000    0.000000
  0.022605210   -7.246208  152.953583  -92.775347   37.220253    0.000000    0.000000    0.000000    0.000000
  0.022805611   -7.247072  152.724457  -92.160620   32.500347    0.000000    0.000000    0.000000    0.000000
  0.023006012   -7.247784  152.482849  -92.097794   26.862474    0.000000    0.000000    0.000000    0.000000
  0.023206413   -7.246817  152.260071  -92.234466   27.906820    0.000000    0.000000    0.000000    0.000000
  0.023406814   -7.248185  152.021530  -93.017583   31.025284    0.000000    0.000000    0.000000    0.000000
  0.023607214   -7.247709  151.780838  -92.940404   28.920227    0.000000    0.000000    0.000000    0.000000
  0.023807615   -7.249556  151.535950  -92.934170   24.806150    0.000000    0.000000    0.000000    0.000000
  0.024008016   -7.249477  151.309250  -93.219349   26.927202    0.000000    0.000000    0.000000    0.000000
  0.024208417   -7.250105  151.072693  -93.314950   28.039719    0.000000    0.000000    0.000000    0.000000
  0.024408818   -7.250054  150.840942  -93.592431   27.724285    0.000000    0.000000    0.000000    0.000000
  0.024609218   -7.251072  150.614243  -93.903890   24.212347    0.000000    0.000000    0.000000    0.000000
  0.024809619   -7.253153  150.368256  -93.938510   23.054443    0.000000    0.000000    0.000000    0.000000
  0.025010020   -7.251657  150.130386  -94.053375   27.698761    0.000000    0.000000    0.000000    0.000000
  0.025210421   -7.252986  149.911453  -94.258702   23.385532    0.000000    0.000000    0.000000    0.000000
  0.025410822   -7.253598  149.668259  -94.271865   20.463297    0.000000    0.000000    0.000000    0.000000
  0.025611222   -7.253487  149.430923  -94.259340   26.135105    0.000000    0.000000    0.000000    0.000000
  0.025811623   -7.256771  149.205185  -95.060031   21.286242    0.000000    0.000000    0.000000    0.000000
  0.026012024   -7.254486  148.961990  -94.592638   22.487385    0.000000    0.000000    0.000000    0.000000
  0.026212425   -7.253887  148.723907  -94.827208   22.559893    0.000000    0.000000    0.000000    0.000000
  0.026412826   -7.254425  148.485321  -94.568205   21.019949    0.000000    0.000000    0.000000    0.000000
  0.026613226   -7.254780  148.259399  -94.833156   26.095367    0.000000    0.000000    0.000000    0.000000
  0.026813627   -7.255136  148.014709  -95.963337   22.582088    0.000000    0.000000    0.000000    0.000000
  0.027014028   -7.254787  147.773209  -94.718131   20.787058    0.000000    0.000000    0.000000    0.000000
  0.027214429   -7.256631  147.548157  -95.257052   17.771641    0.000000    0.000000    0.000000    0.000000
  0.027414830   -7.255661  147.306763  -95.371558   24.933052    0.000000    0.000000    0.000000    0.000000
  0.027615230   -7.254738  147.081558  -95.782440   20.909731    0.000000    0.000000    0.000000    0.000000
  0.027815631   -7.256743  146.851547  -95.538653   19.118879    0.000000    0.000000    0.000000    0.000000
  0.028016032   -7.255852  146.615250  -95.269540   21.972706    0.000000    0.000000    0.000000    0.000000
  0.028216433   -7.256090  146.386383  -95.382937   17.912817    0.000000    0.000000    0.000000    0.000000
  0.028416834   -7.254766  146.139984  -95.967803   15.133649    0.000000    0.000000    0.000000    0.000000
  0.028617234   -7.256181  145.914841  -94.751365   17.958000    0.000000    0.000000    0.000000    0.000000
  0.028817635   -7.255885  145.680237  -95.917468   17.598604    0.000000    0.000000    0.000000    0.000000
  0.029018036   -7.254754  145.462585  -96.056794   17.367403    0.000000    0.000000    0.000000    0.000000
  0.029218437   -7.254075  145.227081  -95.856917   18.455730    0.000000    0.000000    0.000000    0.000000
  0.029418838   -7.255185  144.990738  -97.292379   17.887665    0.000000    0.000000    0.000000    0.000000
  0.029619238   -7.252761  144.748596  -96.669691   16.364048    0.000000    0.000000    0.000000    0.000000
  0.029819639   -7.252263  144.505569  -96.391410   12.356958    0.000000    0.000000    0.000000    0.000000
  0.030020040   -7.251479  144.279953  -97.179535    9.608442    0.000000    0.000000    0.000000    0.000000
  0.030220441   -7.250171  144.059830  -96.280859   15.183511    0.000000    0.000000    0.000000    0.000000
  0.030420842   -7.249760  143.824203  -96.040151   15.641764    0.000000    0.000000    0.000000    0.000000
  0.030621242   -7.247900  143.577393  -96.743483   14.774960    0.000000    0.000000    0.000000    0.000000
  0.030821643   -7.248339  143.352509  -97.299201   12.559910    0.000000    0.000000    0.000000    0.000000
  0.031022044   -7.248212  143.117859  -96.518678   14.846244    0.000000    0.000000    0.000000    0.000000
  0.031222445   -7.230933  142.944717  -97.958898    9.895147    0.000000    0.000000    0.000000    0.000000
  0.031422846   -7.230531  142.734497  -97.299639   13.130765    0.000000    0.000000    0.000000    0.000000
  0.031623246   -7.230447  142.491882  -98.005674    7.854557    0.000000    0.000000    0.000000    0.000000
  0.031823647   -7.231260  142.247055  -97.872552   14.212654    0.000000    0.000000    0.000000    0.000000
  0.032024048   -7.230690  142.019073  -97.431106    6.242779    0.000000    0.000000    0.000000    0.000000
  0.032224449   -7.233321  141.763687  -96.485025    4.841363    0.000000    0.000000    0.000000    0.000000
  0.032424850   -7.230898  141.551086  -97.489510   14.710312    0.000000    0.000000    0.000000    0.000000
  0.032625251   -7.232899  141.307510  -97.436867   13.619244    0.000000    0.000000    0.000000    0.000000
  0.032825651   -7.230721  141.057846  -97.437028   12.441680    0.000000    0.000000    0.000000    0.000000
  0.033026052   -7.232271  140.815414  -97.380455   12.301455    0.000000    0.000000    0.000000    0.000000
  0.033226453   -7.232870  140.585403  -97.645039    9.125592    0.000000    0.000000    0.000000    0.000000
  0.033426854   -7.231031  140.335419  -97.476193    7.520217    0.000000    0.000000    0.000000    0.000000
  0.033627255   -7.232185  140.094208  -98.466314   13.554308    0.000000    0.000000    0.000000    0.000000
  0.033827655   -7.231532  139.854752  -98.929793   11.688225    0.000000    0.000000    0.000000    0.000000
  0.034028056   -7.234222  139.635315  -98.592764    5.419687    0.000000    0.000000    0.000000    0.000000
  0.034228457   -7.235272  139.372925  -98.348335   11.139678    0.000000    0.000000    0.000000    0.000000
  0.034428858   -7.231653  139.142700  -98.147410   17.171232    0.000000    0.000000    0.000000    0.000000
  0.034629259   -7.232291  138.914490  -98.771563    5.795918    0.000000    0.000000    0.000000    0.000000
  0.034829659   -7.232531  138.665115  -98.636470   11.477189    0.000000    0.000000    0.000000    0.000000
  0.035030060   -7.233512  138.425064  -98.967434    6.098255    0.000000    0.000000    0.000000    0.000000
  0.035230461   -7.231024  138.184036  -98.038074   12.501707    0.000000    0.000000    0.000000    0.000000
  0.035430862   -7.233914  137.944809  -99.246112    3.541223    0.000000    0.000000    0.000000    0.000000
  0.035631263   -7.232737  137.707016 -100.129358   -3.923809    0.000000    0.000000    0.000000    0.000000
  0.035831663   -7.233852  137.470093  -99.788757    8.561789    0.000000    0.000000    0.000000    0.000000
  0.036032064   -7.232838  137.247513  -99.981913    3.997118    0.000000    0.000000    0.000000    0.000000
  0.036232465   -7.233219  136.998672  -98.980304    6.758952    0.000000    0.000000    0.000000    0.000000
  0.036432866   -7.233415  136.766586  -98.850977   10.927034    0.000000    0.000000    0.000000    0.000000
  0.036633267   -7.229777  136.535263  -99.655840   10.592194    0.000000    0.000000    0.000000    0.000000
  0.036833667   -7.233747  136.306137  -99.765065   14.308404    0.000000    0.000000    0.000000    0.000000
  0.037034068   -7.232616  136.063126 -100.879580   12.495909    0.000000    0.000000    0.000000    0.000000
  0.037234469   -7.233231  135.828949  -98.076124   12.035235    0.000000    0.000000    0.000000    0.000000
  0.037434870   -7.234527  135.598618  -98.912497    3.273170    0.000000    0.000000    0.000000    0.000000
  0.037635271   -7.234353  135.371506 -100.830832    4.144368    0.000000    0.000000    0.000000    0.000000
  0.037835671   -7.232547  135.134903 -101.118954    0.665787    0.000000    0.000000    0.000000    0.000000
  0.038036072   -7.233110  134.901886 -100.433356    2.589108    0.000000    0.000000    0.000000    0.000000
  0.038236473   -7.233395  134.661316 -100.961431    4.526500    0.000000    0.000000    0.000000    0.000000
  0.038436874   -7.231372  134.434296  -98.512291   11.149879    0.000000    0.000000    0.000000    0.000000
  0.038637275   -7.232647  134.195419 -101.029009   14.504772    0.000000    0.000000    0.000000    0.000000
  0.038837675   -7.233151  133.971939 -100.575107   12.622810    0.000000    0.000000    0.000000    0.000000
  0.039038076   -7.230164  133.740891 -100.855281    7.772125    0.000000    0.000000    0.000000    0.000000
  0.039238477   -7.232464  133.514755  -99.570006    3.890019    0.000000    0.000000    0.000000    0.000000
  0.039438878   -7.230450  133.267242 -100.823103    1.499033    0.000000    0.000000    0.000000    0.000000
  0.039639279   -7.231217  133.023590 -101.536627   12.573141    0.000000    0.000000    0.000000    0.000000
  0.039839679   -7.232522  132.801895 -100.091394    5.197772    0.000000    0.000000    0.000000    0.000000
  0.040040080   -7.230280  132.571930 -100.323959    9.665252    0.000000    0.000000    0.000000    0.000000
  0.040240481   -7.230107  132.340591 -102.469849   -1.227751    0.000000    0.000000    0.000000    0.000000
  0.040440882   -7.227811  132.112732 -101.176774    4.947399    0.000000    0.000000    0.000000    0.000000
  0.040641283   -7.229829  131.886368 -100.824130    0.758258    0.000000    0.000000    0.000000    0.000000
  0.040841683   -7.229698  131.654419 -102.722976   12.360383    0.000000    0.000000    0.000000    0.000000
  0.041042084   -7.228436  131.415359 -100.020038    5.313217    0.000000    0.000000    0.000000    0.000000
  0.041242485   -7.229873  131.169861 -101.188815   -8.813775    0.000000    0.000000    0.000000    0.000000
  0.041442886   -7.228505  130.948044 -102.174231    6.850020    0.000000    0.000000    0.000000    0.000000
  0.041643287   -7.227311  130.704575 -102.905817   16.967613    0.000000    0.000000    0.000000    0.000000
  0.041843687   -7.228433  130.488937 -100.356514   -1.628636    0.000000    0.000000    0.000000    0.000000
  0.042044088   -7.226393  130.261444 -102.282947   -2.843222    0.000000    0.000000    0.000000    0.000000
  0.042244489   -7.227274  130.034851 -102.139753    1.449331    0.000000    0.000000    0.000000    0.000000
  0.042444890   -7.226878  129.805710 -101.795307    5.294558    0.000000    0.000000    0.000000    0.000000
  0.042645291   -7.225541  129.567093 -101.953668   10.824372    0.000000    0.000000    0.000000    0.000000
  0.042845691   -7.225732  129.328934 -101.597699    3.143719    0.000000    0.000000    0.000000    0.000000
  0.043046092   -7.227112  129.110184 -101.616446    4.285714    0.000000    0.000000    0.000000    0.000000
  0.043246493   -7.225016  128.880814 -101.710709    2.541138    0.000000    0.000000    0.000000    0.000000
  0.043446894   -7.225039  128.636490 -102.640826    7.874892    0.000000    0.000000    0.000000    0.000000
  0.043647295   -7.225478  128.410309 -102.948678   12.392349    0.000000    0.000000    0.000000    0.000000
  0.043847695   -7.223238  128.180939 -102.308475    1.315572    0.000000    0.000000    0.000000    0.000000
  0.044048096   -7.222360  127.944565 -100.216881   23.432449    0.000000    0.000000    0.000000    0.000000
  0.044248497   -7.220245  127.707855 -105.367541    7.431975    0.000000    0.000000    0.000000    0.000000
  0.044448898   -7.220405  127.465767 -100.888348    8.042564    0.000000    0.000000    0.000000    0.000000
  0.044649299   -7.223368  127.234543 -102.508251    9.207117    0.000000    0.000000    0.000000    0.000000
  0.044849699   -7.223058  127.003242 -101.275049    9.413440    0.000000    0.000000    0.000000    0.000000
  0.045050100   -7.220453  126.749199 -102.751919   -1.152093    0.000000    0.000000    0.000000    0.000000
  0.045250501   -7.221077  126.525826 -101.880580   -1.285357    0.000000    0.000000    0.000000    0.000000
  0.045450902   -7.219367  126.301537 -102.586073   12.654698    0.000000    0.000000    0.000000    0.000000
  0.045651303   -7.218753  126.074471 -102.009495    9.029279    0.000000    0.000000    0.000000    0.000000
  0.045851703   -7.219814  125.854279 -102.580051    7.728822    0.000000    0.000000    0.000000    0.000000
  0.046052104   -7.218953  125.600159 -103.992074   16.338438    0.000000    0.000000    0.000000    0.000000
  0.046252505   -7.217942  125.360687 -103.300812   17.672796    0.000000    0.000000    0.000000    0.000000
  0.046452906   -7.219374  125.123695 -101.638068    3.480328    0.000000    0.000000    0.000000    0.000000
  0.046653307   -7.216687  124.882782 -102.187101    2.150908    0.000000    0.000000    0.000000    0.000000
  0.046853707   -7.218351  124.654572 -102.641820   -1.816140    0.000000    0.000000    0.000000    0.000000
  0.047054108   -7.215194  124.425499 -103.261050   -2.189228    0.000000    0.000000    0.000000    0.000000
  0.047254509   -7.214051  124.183197 -103.470891    3.345068    0.000000    0.000000    0.000000    0.000000
  0.047454910   -7.214360  123.944298 -100.756024    3.840099    0.000000    0.000000    0.000000    0.000000
  0.047655311   -7.210653  123.690765 -103.424256   15.225513    0.000000    0.000000    0.000000    0.000000
  0.047855711   -7.213162  123.474564 -103.701883   11.461672    0.000000    0.000000    0.000000    0.000000
  0.048056112   -7.210778  123.240273 -106.063740   -1.656135    0.000000    0.000000    0.000000    0.000000
  0.048256513   -7.209622  123.007156 -102.242681    1.342643    0.000000    0.000000    0.000000    0.000000
  0.048456914   -7.209555  122.772148 -104.113839   10.973595    0.000000    0.000000    0.000000    0.000000
  0.048657315   -7.207870  122.556503 -101.009021   12.240896    0.000000    0.000000    0.000000    0.000000
  0.048857715   -7.204948  122.304443 -103.980759   14.458877    0.000000    0.000000    0.000000    0.000000
  0.049058116   -7.205857  122.064117 -102.914313    8.497857    0.000000    0.000000    0.000000    0.000000
  0.049258517   -7.206155  121.840561 -104.491634    7.101697    0.000000    0.000000    0.000000    0.000000
  0.049458918   -7.202559  121.606972 -102.664147   -1.847973    0.000000    0.000000    0.000000    0.000000
  0.049659319   -7.204538  121.383812 -102.681824   17.964758    0.000000    0.000000    0.000000    0.000000
  0.049859719   -7.206310  121.134483 -103.384049    6.822895    0.000000    0.000000    0.000000    0.000000
  0.050060120   -7.203149  120.905411 -104.149342    9.566904    0.000000    0.000000    0.000000    0.000000
  0.050260521   -7.203698  120.678749 -100.217554    4.334332    0.000000    0.000000    0.000000    0.000000
  0.050460922   -7.201523  120.449471 -104.490857   11.917540    0.000000    0.000000    0.000000    0.000000
  0.050661323   -7.199287  120.229897 -102.838864   17.866264    0.000000    0.000000    0.000000    0.000000
  0.050861723   -7.198154  119.981918 -106.904397    8.557760    0.000000    0.000000    0.000000    0.000000
  0.051062124   -7.199767  119.769485 -101.134109   18.528763    0.000000    0.000000    0.000000    0.000000
  0.051262525   -7.198874  119.530991 -104.396495    0.878234    0.000000    0.000000    0.000000    0.000000
  0.051462926   -7.197900  119.283928 -102.451724   18.466423    0.000000    0.000000    0.000000    0.000000
  0.051663327   -7.196833  119.068542 -102.840830   15.053272    0.000000    0.000000    0.000000    0.000000
  0.051863727   -7.195879  118.818588 -101.958236   17.506596    0.000000    0.000000    0.000000    0.000000
  0.052064128   -7.198738  118.598663 -103.360965    1.818753    0.000000    0.000000    0.000000    0.000000
  0.052264529   -7.193026  118.361359 -102.558474    6.075590    0.000000    0.000000    0.000000    0.000000
  0.052464930   -7.191317  118.123230 -103.199889    9.930233    0.000000    0.000000    0.000000    0.000000
  0.052665331   -7.193220  117.910347 -103.919174   25.370529    0.000000    0.000000    0.000000    0.000000
  0.052865731   -7.192571  117.668671 -102.862423  -13.562092    0.000000    0.000000    0.000000    0.000000
