! Anritsu VNA Master:                     Model: MS2036C/10/77
! SN:                                  1601066
! /bd0/18may08.cable.cal/uu.200.2.s2p
! Existing Calibration Information:
! TYPE:                         Current Settings,       Active Cal Settings
! TIME:             	   05/08/2018 06:04:12 PM,    05/08/2018 05:57:55 PM
! INTERNAL TEMP:    	                   49.3 C,                    49.3 C
! # POINTS:         	                      500,                       500
! START FREQ:       	               20.000 MHz,                20.000 MHz
! STOP FREQ:        	              120.000 MHz,               120.000 MHz
! SOURCE POWER:     	                     High,                      High
! IFBW:             	                    50 Hz,                     50 Hz
! AVG FACTOR:       	                       1 ,                        1 
! REF PLANE 1:      	                     0 mm,                      0 mm
! REF PLANE 2:      	                     0 mm,                      0 mm
! CAL TYPE:         	                 Full S11,                  Full S11
! CAL METHOD:       	                     SOLT,                      SOLT
! CAL LINE TYPE:    	                     Coax,                      Coax
! DUT PORT 1:       	                K-Conn(F),                 K-Conn(F)
! DUT PORT 2:       	                K-Conn(F),                 K-Conn(F)
! CAL STATUS:       	        OK: Accuracy High,                        --
# GHZ S DB R 50.0
! FREQ.GHZ       S11DB        S11A       S21DB        S21A       S12DB        S12A       S22DB        S22A
  0.020000000   -4.554043  -21.062098  -91.619977   30.708387    0.000000    0.000000    0.000000    0.000000
  0.020200401   -4.551997  -21.276783  -91.575802   31.244171    0.000000    0.000000    0.000000    0.000000
  0.020400802   -4.553449  -21.480068  -92.109225   33.932423    0.000000    0.000000    0.000000    0.000000
  0.020601202   -4.554969  -21.706175  -91.830346   32.065655    0.000000    0.000000    0.000000    0.000000
  0.020801603   -4.556711  -21.908365  -91.812306   30.023500    0.000000    0.000000    0.000000    0.000000
  0.021002004   -4.555329  -22.130766  -91.949065   30.703739    0.000000    0.000000    0.000000    0.000000
  0.021202405   -4.558089  -22.342070  -92.847273   28.858742    0.000000    0.000000    0.000000    0.000000
  0.021402806   -4.557748  -22.556969  -92.429928   31.208244    0.000000    0.000000    0.000000    0.000000
  0.021603206   -4.558106  -22.772446  -92.298639   28.724825    0.000000    0.000000    0.000000    0.000000
  0.021803607   -4.560159  -22.986708  -92.620130   26.597261    0.000000    0.000000    0.000000    0.000000
  0.022004008   -4.559750  -23.197510  -93.968578   30.828571    0.000000    0.000000    0.000000    0.000000
  0.022204409   -4.560411  -23.407246  -92.812842   27.589493    0.000000    0.000000    0.000000    0.000000
  0.022404810   -4.562327  -23.633339  -92.888995   30.654346    0.000000    0.000000    0.000000    0.000000
  0.022605210   -4.563483  -23.853258  -94.167931   29.372864    0.000000    0.000000    0.000000    0.000000
  0.022805611   -4.563421  -24.057493  -93.567702   26.375343    0.000000    0.000000    0.000000    0.000000
  0.023006012   -4.564108  -24.264492  -93.397969   27.767408    0.000000    0.000000    0.000000    0.000000
  0.023206413   -4.564437  -24.495386  -93.170706   28.296267    0.000000    0.000000    0.000000    0.000000
  0.023406814   -4.565061  -24.711720  -93.603712   29.163620    0.000000    0.000000    0.000000    0.000000
  0.023607214   -4.567304  -24.913439  -94.050009   29.215363    0.000000    0.000000    0.000000    0.000000
  0.023807615   -4.566699  -25.128727  -93.974216   30.569714    0.000000    0.000000    0.000000    0.000000
  0.024008016   -4.567957  -25.350512  -93.468294   21.573467    0.000000    0.000000    0.000000    0.000000
  0.024208417   -4.569847  -25.572615  -94.623644   29.317316    0.000000    0.000000    0.000000    0.000000
  0.024408818   -4.569735  -25.792074  -93.871863   24.953518    0.000000    0.000000    0.000000    0.000000
  0.024609218   -4.571296  -26.010410  -94.369162   19.329144    0.000000    0.000000    0.000000    0.000000
  0.024809619   -4.571885  -26.218187  -94.204231   27.095570    0.000000    0.000000    0.000000    0.000000
  0.025010020   -4.571237  -26.426090  -93.944157   25.998478    0.000000    0.000000    0.000000    0.000000
  0.025210421   -4.573263  -26.658928  -95.119869   23.593052    0.000000    0.000000    0.000000    0.000000
  0.025410822   -4.571958  -26.865767  -94.997041   23.432446    0.000000    0.000000    0.000000    0.000000
  0.025611222   -4.573849  -27.081850  -96.460296   17.951124    0.000000    0.000000    0.000000    0.000000
  0.025811623   -4.574861  -27.303421  -95.109244   21.904408    0.000000    0.000000    0.000000    0.000000
  0.026012024   -4.576256  -27.507874  -95.691105   24.509487    0.000000    0.000000    0.000000    0.000000
  0.026212425   -4.576811  -27.726526  -95.236302   21.827078    0.000000    0.000000    0.000000    0.000000
  0.026412826   -4.576815  -27.932070  -95.498166   24.182875    0.000000    0.000000    0.000000    0.000000
  0.026613226   -4.576720  -28.168919  -95.682058   17.851669    0.000000    0.000000    0.000000    0.000000
  0.026813627   -4.577613  -28.380463  -96.568339   25.118706    0.000000    0.000000    0.000000    0.000000
  0.027014028   -4.577143  -28.602831  -95.743255   20.331078    0.000000    0.000000    0.000000    0.000000
  0.027214429   -4.577911  -28.818840  -95.699910   23.225660    0.000000    0.000000    0.000000    0.000000
  0.027414830   -4.579683  -29.028688  -96.440742   18.471102    0.000000    0.000000    0.000000    0.000000
  0.027615230   -4.579632  -29.258123  -96.470910   22.464954    0.000000    0.000000    0.000000    0.000000
  0.027815631   -4.580597  -29.478035  -95.664502   21.513702    0.000000    0.000000    0.000000    0.000000
  0.028016032   -4.579618  -29.699762  -96.120346   19.644344    0.000000    0.000000    0.000000    0.000000
  0.028216433   -4.582295  -29.910946  -96.276204   21.487652    0.000000    0.000000    0.000000    0.000000
  0.028416834   -4.584233  -30.126049  -95.986446   24.850471    0.000000    0.000000    0.000000    0.000000
  0.028617234   -4.582607  -30.340790  -96.773828   23.516375    0.000000    0.000000    0.000000    0.000000
  0.028817635   -4.584527  -30.551914  -97.430336   21.398937    0.000000    0.000000    0.000000    0.000000
  0.029018036   -4.584541  -30.780855  -95.468844   20.268570    0.000000    0.000000    0.000000    0.000000
  0.029218437   -4.586228  -30.993296  -96.793400   11.772752    0.000000    0.000000    0.000000    0.000000
  0.029418838   -4.587149  -31.210611  -96.498132   17.706635    0.000000    0.000000    0.000000    0.000000
  0.029619238   -4.587274  -31.426638  -97.402633   19.309834    0.000000    0.000000    0.000000    0.000000
  0.029819639   -4.590070  -31.647402  -97.230918   21.512539    0.000000    0.000000    0.000000    0.000000
  0.030020040   -4.588034  -31.865728  -97.327276   18.100149    0.000000    0.000000    0.000000    0.000000
  0.030220441   -4.589454  -32.070431  -96.444337   16.870203    0.000000    0.000000    0.000000    0.000000
  0.030420842   -4.592910  -32.297363  -98.809900   21.920761    0.000000    0.000000    0.000000    0.000000
  0.030621242   -4.592589  -32.498672  -96.945225   21.875622    0.000000    0.000000    0.000000    0.000000
  0.030821643   -4.593234  -32.726345  -96.762175   22.186504    0.000000    0.000000    0.000000    0.000000
  0.031022044   -4.594005  -32.938850  -97.364813   19.474651    0.000000    0.000000    0.000000    0.000000
  0.031222445   -4.584262  -33.093758  -96.813150   10.126512    0.000000    0.000000    0.000000    0.000000
  0.031422846   -4.585473  -33.313744  -97.227995    9.764359    0.000000    0.000000    0.000000    0.000000
  0.031623246   -4.586281  -33.533871  -97.235435   12.923676    0.000000    0.000000    0.000000    0.000000
  0.031823647   -4.586441  -33.739944  -97.172244   18.281109    0.000000    0.000000    0.000000    0.000000
  0.032024048   -4.587135  -33.956738  -97.471661   11.157955    0.000000    0.000000    0.000000    0.000000
  0.032224449   -4.588314  -34.162434  -97.862851   16.933487    0.000000    0.000000    0.000000    0.000000
  0.032424850   -4.588487  -34.379921  -99.805693    5.233120    0.000000    0.000000    0.000000    0.000000
  0.032625251   -4.589611  -34.591572  -98.296680   15.588191    0.000000    0.000000    0.000000    0.000000
  0.032825651   -4.591400  -34.801785  -99.067316   17.652840    0.000000    0.000000    0.000000    0.000000
  0.033026052   -4.593112  -35.000023  -97.607622   19.488733    0.000000    0.000000    0.000000    0.000000
  0.033226453   -4.592585  -35.241722  -97.392600   14.132439    0.000000    0.000000    0.000000    0.000000
  0.033426854   -4.593028  -35.447010  -98.783049   14.737527    0.000000    0.000000    0.000000    0.000000
  0.033627255   -4.593802  -35.663750  -99.376805   19.402218    0.000000    0.000000    0.000000    0.000000
  0.033827655   -4.593338  -35.863815  -98.443531   19.678400    0.000000    0.000000    0.000000    0.000000
  0.034028056   -4.595357  -36.075085  -99.033266   15.154451    0.000000    0.000000    0.000000    0.000000
  0.034228457   -4.596772  -36.280960  -97.635750    8.626515    0.000000    0.000000    0.000000    0.000000
  0.034428858   -4.597280  -36.497425  -99.080382   22.801262    0.000000    0.000000    0.000000    0.000000
  0.034629259   -4.597467  -36.719727  -98.346644    8.185103    0.000000    0.000000    0.000000    0.000000
  0.034829659   -4.598252  -36.936764  -96.862444   11.563075    0.000000    0.000000    0.000000    0.000000
  0.035030060   -4.598850  -37.133278  -97.346672   14.788562    0.000000    0.000000    0.000000    0.000000
  0.035230461   -4.598116  -37.362419  -98.146405   10.363219    0.000000    0.000000    0.000000    0.000000
  0.035430862   -4.599765  -37.572144  -98.122348    9.331501    0.000000    0.000000    0.000000    0.000000
  0.035631263   -4.599539  -37.797218  -98.444419   15.173851    0.000000    0.000000    0.000000    0.000000
  0.035831663   -4.599359  -38.014435  -98.297853    9.611609    0.000000    0.000000    0.000000    0.000000
  0.036032064   -4.600640  -38.221672  -97.625612    9.539404    0.000000    0.000000    0.000000    0.000000
  0.036232465   -4.600199  -38.428242  -98.680774   15.224533    0.000000    0.000000    0.000000    0.000000
  0.036432866   -4.600320  -38.653683  -98.643116    8.799322    0.000000    0.000000    0.000000    0.000000
  0.036633267   -4.603773  -38.871552  -99.479772    5.575760    0.000000    0.000000    0.000000    0.000000
  0.036833667   -4.601294  -39.079304  -99.663520   13.485197    0.000000    0.000000    0.000000    0.000000
  0.037034068   -4.603153  -39.289944  -97.877258    8.005029    0.000000    0.000000    0.000000    0.000000
  0.037234469   -4.603579  -39.500462  -96.880246   17.004002    0.000000    0.000000    0.000000    0.000000
  0.037434870   -4.604450  -39.719650  -99.864012    7.054368    0.000000    0.000000    0.000000    0.000000
  0.037635271   -4.604777  -39.947620  -99.269585    8.722126    0.000000    0.000000    0.000000    0.000000
  0.037835671   -4.606975  -40.161430  -99.477167    3.789329    0.000000    0.000000    0.000000    0.000000
  0.038036072   -4.604992  -40.362934 -100.151621    3.848001    0.000000    0.000000    0.000000    0.000000
  0.038236473   -4.607028  -40.586750  -99.704458   15.746072    0.000000    0.000000    0.000000    0.000000
  0.038436874   -4.608899  -40.818069  -99.183560    9.211077    0.000000    0.000000    0.000000    0.000000
  0.038637275   -4.608791  -41.016083  -98.842424   13.076852    0.000000    0.000000    0.000000    0.000000
  0.038837675   -4.607596  -41.232880 -100.104588    5.075413    0.000000    0.000000    0.000000    0.000000
  0.039038076   -4.610330  -41.447880  -97.439619   10.701365    0.000000    0.000000    0.000000    0.000000
  0.039238477   -4.610358  -41.660763 -100.410922    2.688058    0.000000    0.000000    0.000000    0.000000
  0.039438878   -4.610795  -41.883045  -99.541678    0.379652    0.000000    0.000000    0.000000    0.000000
  0.039639279   -4.612358  -42.089336  -99.691671    7.010021    0.000000    0.000000    0.000000    0.000000
  0.039839679   -4.613085  -42.310200  -99.268191   18.003061    0.000000    0.000000    0.000000    0.000000
  0.040040080   -4.612807  -42.520111  -99.174898    8.964319    0.000000    0.000000    0.000000    0.000000
  0.040240481   -4.612931  -42.743378 -100.592916   14.582140    0.000000    0.000000    0.000000    0.000000
  0.040440882   -4.614899  -42.960812  -99.384677    6.376850    0.000000    0.000000    0.000000    0.000000
  0.040641283   -4.614470  -43.175369  -99.902344    0.906006    0.000000    0.000000    0.000000    0.000000
  0.040841683   -4.615515  -43.391541 -103.074710    0.601395    0.000000    0.000000    0.000000    0.000000
  0.041042084   -4.615365  -43.600754 -100.705876   -1.887966    0.000000    0.000000    0.000000    0.000000
  0.041242485   -4.613913  -43.821636  -99.617912   14.426788    0.000000    0.000000    0.000000    0.000000
  0.041442886   -4.615598  -44.028294 -100.734623    1.147338    0.000000    0.000000    0.000000    0.000000
  0.041643287   -4.617444  -44.235420 -101.455421    6.655028    0.000000    0.000000    0.000000    0.000000
  0.041843687   -4.616926  -44.463181 -101.756037   -5.832431    0.000000    0.000000    0.000000    0.000000
  0.042044088   -4.617321  -44.683353 -101.457095   -1.759329    0.000000    0.000000    0.000000    0.000000
  0.042244489   -4.619155  -44.900631  -99.461948    4.884971    0.000000    0.000000    0.000000    0.000000
  0.042444890   -4.618638  -45.114044  -99.621879    5.890007    0.000000    0.000000    0.000000    0.000000
  0.042645291   -4.617378  -45.323128 -101.374241    6.310180    0.000000    0.000000    0.000000    0.000000
  0.042845691   -4.619559  -45.530293 -102.326035   -3.093505    0.000000    0.000000    0.000000    0.000000
  0.043046092   -4.619679  -45.754986 -100.282556    1.948985    0.000000    0.000000    0.000000    0.000000
  0.043246493   -4.619601  -45.980087 -101.279982    0.236961    0.000000    0.000000    0.000000    0.000000
  0.043446894   -4.620447  -46.188354 -100.139117   -5.876221    0.000000    0.000000    0.000000    0.000000
  0.043647295   -4.621584  -46.402729 -101.774188    9.537341    0.000000    0.000000    0.000000    0.000000
  0.043847695   -4.622539  -46.631226 -101.168125    4.799079    0.000000    0.000000    0.000000    0.000000
  0.044048096   -4.622580  -46.847179  -99.401535   12.648646    0.000000    0.000000    0.000000    0.000000
  0.044248497   -4.623845  -47.052197  -99.914955   -3.343766    0.000000    0.000000    0.000000    0.000000
  0.044448898   -4.623176  -47.282070 -101.462732    2.965959    0.000000    0.000000    0.000000    0.000000
  0.044649299   -4.623287  -47.488205 -101.194224  -12.298512    0.000000    0.000000    0.000000    0.000000
  0.044849699   -4.624852  -47.709614 -100.338479   -3.256097    0.000000    0.000000    0.000000    0.000000
  0.045050100   -4.624009  -47.917061 -100.275414    6.085458    0.000000    0.000000    0.000000    0.000000
  0.045250501   -4.625638  -48.138393 -100.837379   -6.185401    0.000000    0.000000    0.000000    0.000000
  0.045450902   -4.624488  -48.356155 -100.485024   -3.027527    0.000000    0.000000    0.000000    0.000000
  0.045651303   -4.626460  -48.579548 -100.744331   -3.207430    0.000000    0.000000    0.000000    0.000000
  0.045851703   -4.625873  -48.786961 -101.588112   -3.238322    0.000000    0.000000    0.000000    0.000000
  0.046052104   -4.625698  -49.005943  -99.888443    6.041713    0.000000    0.000000    0.000000    0.000000
  0.046252505   -4.630000  -49.225140  -99.488431   -0.310506    0.000000    0.000000    0.000000    0.000000
  0.046452906   -4.627613  -49.448318 -100.561442    0.193890    0.000000    0.000000    0.000000    0.000000
  0.046653307   -4.628868  -49.672646 -102.329515   -5.937258    0.000000    0.000000    0.000000    0.000000
  0.046853707   -4.628470  -49.883911 -101.055407    1.723946    0.000000    0.000000    0.000000    0.000000
  0.047054108   -4.628847  -50.113766 -101.139060    2.659600    0.000000    0.000000    0.000000    0.000000
  0.047254509   -4.628707  -50.331627 -101.687830    7.965535    0.000000    0.000000    0.000000    0.000000
  0.047454910   -4.629885  -50.546440 -102.129920   -3.253768    0.000000    0.000000    0.000000    0.000000
  0.047655311   -4.629309  -50.752457 -101.393684    2.660561    0.000000    0.000000    0.000000    0.000000
  0.047855711   -4.630170  -50.976929 -100.176792   -2.231040    0.000000    0.000000    0.000000    0.000000
  0.048056112   -4.630563  -51.194191 -102.355214   -0.019112    0.000000    0.000000    0.000000    0.000000
  0.048256513   -4.629003  -51.425468 -101.744551   -9.677519    0.000000    0.000000    0.000000    0.000000
  0.048456914   -4.629477  -51.637341 -103.466832   -6.204598    0.000000    0.000000    0.000000    0.000000
  0.048657315   -4.631133  -51.861603 -102.859373   -1.623832    0.000000    0.000000    0.000000    0.000000
  0.048857715   -4.632729  -52.070972 -101.187412   -9.982820    0.000000    0.000000    0.000000    0.000000
  0.049058116   -4.633947  -52.289040 -101.902799    0.375310    0.000000    0.000000    0.000000    0.000000
  0.049258517   -4.631329  -52.509930 -101.756089   -3.880767    0.000000    0.000000    0.000000    0.000000
  0.049458918   -4.633704  -52.723633 -100.314664  -11.866505    0.000000    0.000000    0.000000    0.000000
  0.049659319   -4.633843  -52.939545 -100.894161   -4.980560    0.000000    0.000000    0.000000    0.000000
  0.049859719   -4.632042  -53.153816 -103.134020   -5.719426    0.000000    0.000000    0.000000    0.000000
  0.050060120   -4.633770  -53.365673 -101.516591   -5.480969    0.000000    0.000000    0.000000    0.000000
  0.050260521   -4.633036  -53.582333 -102.343311  -24.310410    0.000000    0.000000    0.000000    0.000000
  0.050460922   -4.633964  -53.806442 -103.299045   -8.613624    0.000000    0.000000    0.000000    0.000000
  0.050661323   -4.635147  -54.025467 -102.289507   -9.956990    0.000000    0.000000    0.000000    0.000000
  0.050861723   -4.635061  -54.239624 -104.528839   -4.528897    0.000000    0.000000    0.000000    0.000000
  0.051062124   -4.635647  -54.465286 -102.166019   -6.293761    0.000000    0.000000    0.000000    0.000000
  0.051262525   -4.637392  -54.665165 -102.470411    6.952617    0.000000    0.000000    0.000000    0.000000
  0.051462926   -4.635413  -54.882153 -104.084887   -7.770296    0.000000    0.000000    0.000000    0.000000
  0.051663327   -4.637865  -55.112389 -104.104345    6.111280    0.000000    0.000000    0.000000    0.000000
  0.051863727   -4.637839  -55.324062 -102.096115   -6.343577    0.000000    0.000000    0.000000    0.000000
  0.052064128   -4.639174  -55.549427 -101.889100  -14.776938    0.000000    0.000000    0.000000    0.000000
  0.052264529   -4.639320  -55.759609 -104.080700   -3.725957    0.000000    0.000000    0.000000    0.000000
  0.052464930   -4.639244  -55.965782 -102.905835   -4.669619    0.000000    0.000000    0.000000    0.000000
  0.052665331   -4.638776  -56.196949 -106.481745   -0.281042    0.000000    0.000000    0.000000    0.000000
  0.052865731   -4.641310  -56.414436 -102.932081   14.696752    0.000000    0.000000    0.000000    0.000000
