! Anritsu VNA Master:                     Model: MS2036C/10/77
! SN:                                  1601066
! /bd0/18may08.cable.cal/uu.50.2.s2p
! Existing Calibration Information:
! TYPE:                         Current Settings,       Active Cal Settings
! TIME:             	   05/08/2018 06:03:32 PM,    05/08/2018 05:57:55 PM
! INTERNAL TEMP:    	                   49.3 C,                    49.3 C
! # POINTS:         	                      500,                       500
! START FREQ:       	               20.000 MHz,                20.000 MHz
! STOP FREQ:        	              120.000 MHz,               120.000 MHz
! SOURCE POWER:     	                     High,                      High
! IFBW:             	                    50 Hz,                     50 Hz
! AVG FACTOR:       	                       1 ,                        1 
! REF PLANE 1:      	                     0 mm,                      0 mm
! REF PLANE 2:      	                     0 mm,                      0 mm
! CAL TYPE:         	                 Full S11,                  Full S11
! CAL METHOD:       	                     SOLT,                      SOLT
! CAL LINE TYPE:    	                     Coax,                      Coax
! DUT PORT 1:       	                K-Conn(F),                 K-Conn(F)
! DUT PORT 2:       	                K-Conn(F),                 K-Conn(F)
! CAL STATUS:       	        OK: Accuracy High,                        --
# GHZ S DB R 50.0
! FREQ.GHZ       S11DB        S11A       S21DB        S21A       S12DB        S12A       S22DB        S22A
  0.020000000  -39.281863   56.707230  -91.558713   35.369301    0.000000    0.000000    0.000000    0.000000
  0.020200401  -39.289206   56.457527  -91.397038   37.360878    0.000000    0.000000    0.000000    0.000000
  0.020400802  -39.113059   56.010536  -91.475520   35.521851    0.000000    0.000000    0.000000    0.000000
  0.020601202  -39.093537   56.374084  -91.301474   33.197029    0.000000    0.000000    0.000000    0.000000
  0.020801603  -39.023197   56.509193  -92.165111   36.046021    0.000000    0.000000    0.000000    0.000000
  0.021002004  -38.999853   56.006371  -90.957500   31.876015    0.000000    0.000000    0.000000    0.000000
  0.021202405  -38.864603   56.350872  -91.830765   35.756527    0.000000    0.000000    0.000000    0.000000
  0.021402806  -38.863612   55.607353  -91.873331   31.269402    0.000000    0.000000    0.000000    0.000000
  0.021603206  -38.825462   56.038029  -92.575786   31.632856    0.000000    0.000000    0.000000    0.000000
  0.021803607  -38.789548   56.044983  -92.174827   32.280552    0.000000    0.000000    0.000000    0.000000
  0.022004008  -38.744721   55.610054  -92.136883   37.025986    0.000000    0.000000    0.000000    0.000000
  0.022204409  -38.646075   55.568420  -92.328560   29.282831    0.000000    0.000000    0.000000    0.000000
  0.022404810  -38.566511   55.713173  -93.187232   33.415909    0.000000    0.000000    0.000000    0.000000
  0.022605210  -38.530391   55.357571  -93.247043   31.179432    0.000000    0.000000    0.000000    0.000000
  0.022805611  -38.450143   55.139854  -92.952609   30.487499    0.000000    0.000000    0.000000    0.000000
  0.023006012  -38.344537   55.026756  -93.700221   32.585575    0.000000    0.000000    0.000000    0.000000
  0.023206413  -38.407011   55.036041  -93.510620   26.310968    0.000000    0.000000    0.000000    0.000000
  0.023406814  -38.280964   55.129944  -92.775902   29.460426    0.000000    0.000000    0.000000    0.000000
  0.023607214  -38.218106   55.105206  -93.172114   26.478285    0.000000    0.000000    0.000000    0.000000
  0.023807615  -38.118807   54.760063  -93.663616   21.749804    0.000000    0.000000    0.000000    0.000000
  0.024008016  -38.095463   55.104485  -93.581537   34.377945    0.000000    0.000000    0.000000    0.000000
  0.024208417  -38.105292   54.222370  -93.579589   27.772404    0.000000    0.000000    0.000000    0.000000
  0.024408818  -38.014063   54.894188  -93.463482   28.355150    0.000000    0.000000    0.000000    0.000000
  0.024609218  -38.025617   54.951923  -93.293433   25.646837    0.000000    0.000000    0.000000    0.000000
  0.024809619  -37.921385   54.386822  -94.715860   27.449728    0.000000    0.000000    0.000000    0.000000
  0.025010020  -37.859433   54.622623  -94.805088   24.910645    0.000000    0.000000    0.000000    0.000000
  0.025210421  -37.870184   54.322521  -94.043035   27.763971    0.000000    0.000000    0.000000    0.000000
  0.025410822  -37.755332   54.226501  -94.255628   19.875774    0.000000    0.000000    0.000000    0.000000
  0.025611222  -37.684557   54.359200  -94.329439   19.462193    0.000000    0.000000    0.000000    0.000000
  0.025811623  -37.697844   53.729740  -95.223921   19.871765    0.000000    0.000000    0.000000    0.000000
  0.026012024  -37.646400   54.054298  -95.306182   21.283583    0.000000    0.000000    0.000000    0.000000
  0.026212425  -37.492466   53.882027  -95.139957   19.613081    0.000000    0.000000    0.000000    0.000000
  0.026412826  -37.493382   53.879372  -94.834491   21.478579    0.000000    0.000000    0.000000    0.000000
  0.026613226  -37.490434   53.888409  -95.236078   18.898260    0.000000    0.000000    0.000000    0.000000
  0.026813627  -37.447621   53.795822  -95.783841   21.023567    0.000000    0.000000    0.000000    0.000000
  0.027014028  -37.386051   53.530247  -95.124532   26.299982    0.000000    0.000000    0.000000    0.000000
  0.027214429  -37.366431   53.542564  -95.654040   16.514105    0.000000    0.000000    0.000000    0.000000
  0.027414830  -37.233342   53.490891  -96.097579   24.251097    0.000000    0.000000    0.000000    0.000000
  0.027615230  -37.241035   53.224552  -94.878139   21.435656    0.000000    0.000000    0.000000    0.000000
  0.027815631  -37.227445   53.105572  -95.885489   18.684380    0.000000    0.000000    0.000000    0.000000
  0.028016032  -37.191019   53.312244  -96.868313   23.234146    0.000000    0.000000    0.000000    0.000000
  0.028216433  -37.129402   53.410313  -95.271726   21.888823    0.000000    0.000000    0.000000    0.000000
  0.028416834  -36.998576   52.879032  -97.095948   16.705296    0.000000    0.000000    0.000000    0.000000
  0.028617234  -37.025141   52.776020  -96.009770   15.331766    0.000000    0.000000    0.000000    0.000000
  0.028817635  -36.888113   52.801620  -96.456919   19.972420    0.000000    0.000000    0.000000    0.000000
  0.029018036  -36.954753   52.478508  -96.645775   15.139205    0.000000    0.000000    0.000000    0.000000
  0.029218437  -36.890291   52.714634  -96.148457   17.330956    0.000000    0.000000    0.000000    0.000000
  0.029418838  -36.851005   52.507187  -96.441696   18.612621    0.000000    0.000000    0.000000    0.000000
  0.029619238  -36.777725   52.502659  -96.526056   12.193454    0.000000    0.000000    0.000000    0.000000
  0.029819639  -36.715291   52.611511  -96.694170   16.729475    0.000000    0.000000    0.000000    0.000000
  0.030020040  -36.695703   52.082687  -97.001709   16.077990    0.000000    0.000000    0.000000    0.000000
  0.030220441  -36.649054   52.234138  -97.776310   18.003485    0.000000    0.000000    0.000000    0.000000
  0.030420842  -36.604307   52.390385  -96.839618   20.196756    0.000000    0.000000    0.000000    0.000000
  0.030621242  -36.528539   52.111706  -97.210807   12.795704    0.000000    0.000000    0.000000    0.000000
  0.030821643  -36.512902   52.074829  -96.452221   14.517823    0.000000    0.000000    0.000000    0.000000
  0.031022044  -36.474264   51.614777  -96.920395    9.771862    0.000000    0.000000    0.000000    0.000000
  0.031222445  -36.388934   52.061878  -97.386514   17.487003    0.000000    0.000000    0.000000    0.000000
  0.031422846  -36.383364   52.327744  -96.922276   13.797266    0.000000    0.000000    0.000000    0.000000
  0.031623246  -36.389788   51.816406  -97.688596    9.484901    0.000000    0.000000    0.000000    0.000000
  0.031823647  -36.337578   51.640362  -97.569927    6.859493    0.000000    0.000000    0.000000    0.000000
  0.032024048  -36.325155   51.499615  -97.305237   19.147985    0.000000    0.000000    0.000000    0.000000
  0.032224449  -36.274180   51.126400  -96.949183   16.878544    0.000000    0.000000    0.000000    0.000000
  0.032424850  -36.186364   51.025963  -98.319243   10.942781    0.000000    0.000000    0.000000    0.000000
  0.032625251  -36.181450   51.061050  -97.611261    5.508018    0.000000    0.000000    0.000000    0.000000
  0.032825651  -36.130890   51.168156  -97.683416    2.159558    0.000000    0.000000    0.000000    0.000000
  0.033026052  -36.125229   50.928211  -98.749163    8.222898    0.000000    0.000000    0.000000    0.000000
  0.033226453  -36.085141   50.888229  -97.063493   14.090392    0.000000    0.000000    0.000000    0.000000
  0.033426854  -35.995453   50.764713  -98.707986    6.288145    0.000000    0.000000    0.000000    0.000000
  0.033627255  -35.987552   50.817955  -97.919429    8.487957    0.000000    0.000000    0.000000    0.000000
  0.033827655  -35.903106   50.209122  -97.851428    6.122475    0.000000    0.000000    0.000000    0.000000
  0.034028056  -35.902381   50.391975  -98.334365   20.149981    0.000000    0.000000    0.000000    0.000000
  0.034228457  -35.851590   50.093460  -98.516278   15.500465    0.000000    0.000000    0.000000    0.000000
  0.034428858  -35.831172   50.478516  -98.845805   10.469650    0.000000    0.000000    0.000000    0.000000
  0.034629259  -35.797425   50.334293  -96.764432   18.460052    0.000000    0.000000    0.000000    0.000000
  0.034829659  -35.797235   49.984386  -97.552496   15.707131    0.000000    0.000000    0.000000    0.000000
  0.035030060  -35.722902   49.922424  -98.903841    9.064724    0.000000    0.000000    0.000000    0.000000
  0.035230461  -35.683258   50.132530 -100.882359    5.956864    0.000000    0.000000    0.000000    0.000000
  0.035430862  -35.634701   49.464348  -98.690347    7.459344    0.000000    0.000000    0.000000    0.000000
  0.035631263  -35.635037   49.780514  -98.613573    3.982817    0.000000    0.000000    0.000000    0.000000
  0.035831663  -35.589497   49.526730  -99.318370    0.842508    0.000000    0.000000    0.000000    0.000000
  0.036032064  -35.564564   49.646416  -99.210570    3.693456    0.000000    0.000000    0.000000    0.000000
  0.036232465  -35.490389   48.995209  -97.672593    5.212075    0.000000    0.000000    0.000000    0.000000
  0.036432866  -35.549763   49.449303  -98.038775    7.705800    0.000000    0.000000    0.000000    0.000000
  0.036633267  -35.487833   49.517220 -100.007351    9.812541    0.000000    0.000000    0.000000    0.000000
  0.036833667  -35.430914   48.950619 -100.213931    3.012303    0.000000    0.000000    0.000000    0.000000
  0.037034068  -35.366680   48.988884 -100.984737   10.792521    0.000000    0.000000    0.000000    0.000000
  0.037234469  -35.340435   48.796108  -99.821429   -1.607220    0.000000    0.000000    0.000000    0.000000
  0.037434870  -35.290840   48.858517 -101.285714    2.326617    0.000000    0.000000    0.000000    0.000000
  0.037635271  -35.296540   48.747650 -100.330754    7.460663    0.000000    0.000000    0.000000    0.000000
  0.037835671  -35.254477   48.646999  -99.273708    8.849694    0.000000    0.000000    0.000000    0.000000
  0.038036072  -35.188553   48.360939  -99.757550   10.788748    0.000000    0.000000    0.000000    0.000000
  0.038236473  -35.170245   48.569859  -99.263702   12.607793    0.000000    0.000000    0.000000    0.000000
  0.038436874  -35.189009   48.719440 -100.582483    4.852925    0.000000    0.000000    0.000000    0.000000
  0.038637275  -35.090979   48.175999 -101.233946    5.061769    0.000000    0.000000    0.000000    0.000000
  0.038837675  -35.072679   48.005951  -98.907572   17.243778    0.000000    0.000000    0.000000    0.000000
  0.039038076  -35.061650   48.347298 -101.034445    6.582235    0.000000    0.000000    0.000000    0.000000
  0.039238477  -35.028065   48.047073  -99.629220    5.475447    0.000000    0.000000    0.000000    0.000000
  0.039438878  -34.992247   47.970699 -101.445118   16.253511    0.000000    0.000000    0.000000    0.000000
  0.039639279  -34.914298   47.503056  -99.526136   11.731813    0.000000    0.000000    0.000000    0.000000
  0.039839679  -34.940302   47.442848 -101.135097   -4.258917    0.000000    0.000000    0.000000    0.000000
  0.040040080  -34.892383   47.672668  -99.777507    2.313662    0.000000    0.000000    0.000000    0.000000
  0.040240481  -34.885283   47.112392 -100.929064   -3.273705    0.000000    0.000000    0.000000    0.000000
  0.040440882  -34.843903   47.201996  -98.706575    1.212343    0.000000    0.000000    0.000000    0.000000
  0.040641283  -34.796524   47.371983 -100.692158    7.046654    0.000000    0.000000    0.000000    0.000000
  0.040841683  -34.769715   47.279842 -101.568946    9.385308    0.000000    0.000000    0.000000    0.000000
  0.041042084  -34.717867   46.570049 -101.811463    6.260806    0.000000    0.000000    0.000000    0.000000
  0.041242485  -34.666879   46.528831 -100.233645    8.099013    0.000000    0.000000    0.000000    0.000000
  0.041442886  -34.683440   46.673717  -99.685029    5.918862    0.000000    0.000000    0.000000    0.000000
  0.041643287  -34.618048   46.590710 -101.326364   -1.219418    0.000000    0.000000    0.000000    0.000000
  0.041843687  -34.600374   46.460579 -100.421619   16.487812    0.000000    0.000000    0.000000    0.000000
  0.042044088  -34.603248   46.468464 -101.537379   16.544231    0.000000    0.000000    0.000000    0.000000
  0.042244489  -34.520395   46.666954 -100.449680   -2.427180    0.000000    0.000000    0.000000    0.000000
  0.042444890  -34.536764   46.209236 -100.346260    0.836702    0.000000    0.000000    0.000000    0.000000
  0.042645291  -34.478437   46.177105 -101.781709    4.873657    0.000000    0.000000    0.000000    0.000000
  0.042845691  -34.459431   45.904320 -101.357154   16.549566    0.000000    0.000000    0.000000    0.000000
  0.043046092  -34.439548   45.972744 -100.870187   16.599674    0.000000    0.000000    0.000000    0.000000
  0.043246493  -34.419234   46.022049 -101.867467   18.746532    0.000000    0.000000    0.000000    0.000000
  0.043446894  -34.398964   45.810444 -102.261283   -5.105918    0.000000    0.000000    0.000000    0.000000
  0.043647295  -34.346344   45.803013 -100.745936   17.950344    0.000000    0.000000    0.000000    0.000000
  0.043847695  -34.353103   45.834309 -101.878806    3.289462    0.000000    0.000000    0.000000    0.000000
  0.044048096  -34.340203   45.501728 -102.536591    7.892673    0.000000    0.000000    0.000000    0.000000
  0.044248497  -34.249610   45.622955 -101.321865   13.872658    0.000000    0.000000    0.000000    0.000000
  0.044448898  -34.235910   45.691460 -102.949572   -0.164303    0.000000    0.000000    0.000000    0.000000
  0.044649299  -34.208404   45.218590 -103.720571    2.611182    0.000000    0.000000    0.000000    0.000000
  0.044849699  -34.162576   45.087719 -103.028193   12.207750    0.000000    0.000000    0.000000    0.000000
  0.045050100  -34.141893   45.115170 -102.621258    9.174504    0.000000    0.000000    0.000000    0.000000
  0.045250501  -34.115267   44.741970 -102.566396    6.170714    0.000000    0.000000    0.000000    0.000000
  0.045450902  -34.055600   44.929703 -101.685765    0.843754    0.000000    0.000000    0.000000    0.000000
  0.045651303  -34.077560   44.919281 -101.842704   -1.132532    0.000000    0.000000    0.000000    0.000000
  0.045851703  -34.051168   44.646641 -102.383513    8.233540    0.000000    0.000000    0.000000    0.000000
  0.046052104  -33.995648   44.564869 -101.830080   -7.635155    0.000000    0.000000    0.000000    0.000000
  0.046252505  -33.962592   44.460175 -100.788381    0.161956    0.000000    0.000000    0.000000    0.000000
  0.046452906  -33.971458   44.278473 -103.364903    6.883767    0.000000    0.000000    0.000000    0.000000
  0.046653307  -33.950550   44.090607 -102.198239    5.362070    0.000000    0.000000    0.000000    0.000000
  0.046853707  -33.927984   43.926205 -102.608785    8.547732    0.000000    0.000000    0.000000    0.000000
  0.047054108  -33.862059   43.999886 -103.066739    4.241420    0.000000    0.000000    0.000000    0.000000
  0.047254509  -33.840332   43.812962 -101.485350   -3.476935    0.000000    0.000000    0.000000    0.000000
  0.047454910  -33.815813   43.931236 -102.496982    2.114464    0.000000    0.000000    0.000000    0.000000
  0.047655311  -33.785654   43.706875 -102.550076   10.482902    0.000000    0.000000    0.000000    0.000000
  0.047855711  -33.751549   43.448036 -101.708681    7.532999    0.000000    0.000000    0.000000    0.000000
  0.048056112  -33.731738   43.703064 -101.624906   -0.590967    0.000000    0.000000    0.000000    0.000000
  0.048256513  -33.737900   43.253376 -102.871871   -4.870571    0.000000    0.000000    0.000000    0.000000
  0.048456914  -33.687655   43.120975 -104.090917    6.935179    0.000000    0.000000    0.000000    0.000000
  0.048657315  -33.697313   43.102406 -102.098994  -13.737003    0.000000    0.000000    0.000000    0.000000
  0.048857715  -33.619485   42.981075 -102.428496    6.985825    0.000000    0.000000    0.000000    0.000000
  0.049058116  -33.609253   42.990639 -100.897936    0.623249    0.000000    0.000000    0.000000    0.000000
  0.049258517  -33.608384   42.911793 -102.745253   -9.488332    0.000000    0.000000    0.000000    0.000000
  0.049458918  -33.548869   42.675461 -102.827053    7.630022    0.000000    0.000000    0.000000    0.000000
  0.049659319  -33.576939   42.891476 -103.050862    6.340685    0.000000    0.000000    0.000000    0.000000
  0.049859719  -33.532836   42.275082 -101.327434   -0.346559    0.000000    0.000000    0.000000    0.000000
  0.050060120  -33.492450   42.175552 -102.731748    5.521580    0.000000    0.000000    0.000000    0.000000
  0.050260521  -33.477169   42.175163 -102.908882   -4.269606    0.000000    0.000000    0.000000    0.000000
  0.050460922  -33.465984   41.941910 -103.648125    1.713950    0.000000    0.000000    0.000000    0.000000
  0.050661323  -33.441989   42.066097 -103.977176   22.810696    0.000000    0.000000    0.000000    0.000000
  0.050861723  -33.427813   41.766273 -102.421651    9.020297    0.000000    0.000000    0.000000    0.000000
  0.051062124  -33.419527   41.722183 -103.874849    1.649846    0.000000    0.000000    0.000000    0.000000
  0.051262525  -33.340311   41.588718 -102.932112   -3.151014    0.000000    0.000000    0.000000    0.000000
  0.051462926  -33.342925   41.144573 -102.684310   18.108461    0.000000    0.000000    0.000000    0.000000
  0.051663327  -33.328373   41.404358 -103.447492    3.592690    0.000000    0.000000    0.000000    0.000000
  0.051863727  -33.291166   41.059479 -104.315138    2.541497    0.000000    0.000000    0.000000    0.000000
  0.052064128  -33.258488   41.034306 -102.714706   17.286963    0.000000    0.000000    0.000000    0.000000
  0.052264529  -33.221191   41.145103 -102.680058   12.131777    0.000000    0.000000    0.000000    0.000000
  0.052464930  -33.213602   40.990448 -102.684575    6.326726    0.000000    0.000000    0.000000    0.000000
  0.052665331  -33.240632   40.661911 -103.498287   11.631614    0.000000    0.000000    0.000000    0.000000
  0.052865731  -33.171803   40.805977 -103.920031   -7.017480    0.000000    0.000000    0.000000    0.000000
