! Anritsu VNA Master:                     Model: MS2036C/10/77
! SN:                                  1601066
! /bd0/18may10/256.ns.m10.s2p
! Existing Calibration Information:
! TYPE:                         Current Settings,       Active Cal Settings
! TIME:             	   05/10/2018 11:21:12 AM,    05/10/2018 11:07:23 AM
! INTERNAL TEMP:    	                   53.0 C,                    51.3 C
! # POINTS:         	                      494,                       494
! START FREQ:       	               20.000 MHz,                20.000 MHz
! STOP FREQ:        	          118.797 594 MHz,           118.797 594 MHz
! SOURCE POWER:     	                     High,                      High
! IFBW:             	                    50 Hz,                     50 Hz
! AVG FACTOR:       	                       1 ,                        1 
! REF PLANE 1:      	                     0 mm,                      0 mm
! REF PLANE 2:      	                     0 mm,                      0 mm
! CAL TYPE:         	                 Full S22,                  Full S22
! CAL METHOD:       	                     SOLT,                      SOLT
! CAL LINE TYPE:    	                     Coax,                      Coax
! DUT PORT 1:       	                K-Conn(M),                 K-Conn(M)
! DUT PORT 2:       	                K-Conn(M),                 K-Conn(M)
! CAL STATUS:       	        OK: Accuracy High,                        --
# GHZ S DB R 50.0
! FREQ.GHZ       S11DB        S11A       S21DB        S21A       S12DB        S12A       S22DB        S22A
  0.020000000    0.000000    0.000000    0.000000    0.000000  -89.927214   34.933983   -0.622758 -126.874496
  0.020200401    0.000000    0.000000    0.000000    0.000000  -89.895867   32.328159   -0.623836 -128.336227
  0.020400802    0.000000    0.000000    0.000000    0.000000  -90.449357   35.083477   -0.629854 -129.829315
  0.020601202    0.000000    0.000000    0.000000    0.000000  -90.430352   32.262409   -0.634025 -131.342331
  0.020801603    0.000000    0.000000    0.000000    0.000000  -90.871116   32.765350   -0.637020 -132.871582
  0.021002004    0.000000    0.000000    0.000000    0.000000  -90.984406   36.333794   -0.641153 -134.432083
  0.021202405    0.000000    0.000000    0.000000    0.000000  -92.198911   38.536575   -0.645174 -135.983704
  0.021402806    0.000000    0.000000    0.000000    0.000000  -92.090807   38.877880   -0.646328 -137.527496
  0.021603206    0.000000    0.000000    0.000000    0.000000  -91.762334   40.808250   -0.652878 -139.074432
  0.021803607    0.000000    0.000000    0.000000    0.000000  -91.886083   39.141209   -0.658140 -140.625916
  0.022004008    0.000000    0.000000    0.000000    0.000000  -92.347546   43.766365   -0.665346 -142.180649
  0.022204409    0.000000    0.000000    0.000000    0.000000  -92.214406   37.554665   -0.672648 -143.762436
  0.022404810    0.000000    0.000000    0.000000    0.000000  -91.528599   47.316315   -0.678662 -145.368149
  0.022605210    0.000000    0.000000    0.000000    0.000000  -92.394999   43.248486   -0.682361 -146.986526
  0.022805611    0.000000    0.000000    0.000000    0.000000  -91.892621   42.213554   -0.690268 -148.596985
  0.023006012    0.000000    0.000000    0.000000    0.000000  -91.440447   43.452759   -0.694484 -150.204086
  0.023206413    0.000000    0.000000    0.000000    0.000000  -91.282740   43.619354   -0.699689 -151.818985
  0.023406814    0.000000    0.000000    0.000000    0.000000  -91.313898   41.781132   -0.706652 -153.424637
  0.023607214    0.000000    0.000000    0.000000    0.000000  -91.168763   39.450680   -0.715447 -155.042130
  0.023807615    0.000000    0.000000    0.000000    0.000000  -91.637873   36.940914   -0.727349 -156.676910
  0.024008016    0.000000    0.000000    0.000000    0.000000  -91.041346   39.904381   -0.735977 -158.331741
  0.024208417    0.000000    0.000000    0.000000    0.000000  -91.262014   37.027710   -0.743661 -160.007904
  0.024408818    0.000000    0.000000    0.000000    0.000000  -91.500919   34.511452   -0.751725 -161.674301
  0.024609218    0.000000    0.000000    0.000000    0.000000  -91.201112   31.415701   -0.761288 -163.353302
  0.024809619    0.000000    0.000000    0.000000    0.000000  -91.738238   33.852924   -0.772487 -165.024536
  0.025010020    0.000000    0.000000    0.000000    0.000000  -92.118473   30.627077   -0.785285 -166.709122
  0.025210421    0.000000    0.000000    0.000000    0.000000  -91.639654   27.341719   -0.797248 -168.392395
  0.025410822    0.000000    0.000000    0.000000    0.000000  -92.593792   27.851955   -0.809894 -170.096863
  0.025611222    0.000000    0.000000    0.000000    0.000000  -92.530010   29.357399   -0.823921 -171.812759
  0.025811623    0.000000    0.000000    0.000000    0.000000  -92.441503   23.901672   -0.837948 -173.541931
  0.026012024    0.000000    0.000000    0.000000    0.000000  -93.383618   24.196705   -0.851088 -175.281876
  0.026212425    0.000000    0.000000    0.000000    0.000000  -92.965966   29.295551   -0.865238 -177.042618
  0.026412826    0.000000    0.000000    0.000000    0.000000  -93.904233   29.105440   -0.882440 -178.804672
  0.026613226    0.000000    0.000000    0.000000    0.000000  -93.343399   20.183041   -0.899223  179.423004
  0.026813627    0.000000    0.000000    0.000000    0.000000  -94.144462   22.036690   -0.916901  177.633316
  0.027014028    0.000000    0.000000    0.000000    0.000000  -93.934412   24.136196   -0.936056  175.849762
  0.027214429    0.000000    0.000000    0.000000    0.000000  -94.550714   27.646763   -0.954513  174.051895
  0.027414830    0.000000    0.000000    0.000000    0.000000  -94.107875   26.263075   -0.973451  172.235504
  0.027615230    0.000000    0.000000    0.000000    0.000000  -95.070012   30.039063   -0.993563  170.411774
  0.027815631    0.000000    0.000000    0.000000    0.000000  -94.699769   34.150532   -1.014313  168.577789
  0.028016032    0.000000    0.000000    0.000000    0.000000  -94.904123   32.883038   -1.036326  166.724487
  0.028216433    0.000000    0.000000    0.000000    0.000000  -94.674520   29.406782   -1.059100  164.859192
  0.028416834    0.000000    0.000000    0.000000    0.000000  -94.120462   33.479698   -1.080996  162.995850
  0.028617234    0.000000    0.000000    0.000000    0.000000  -94.967932   34.886749   -1.104959  161.130615
  0.028817635    0.000000    0.000000    0.000000    0.000000  -94.854711   33.516918   -1.128144  159.257813
  0.029018036    0.000000    0.000000    0.000000    0.000000  -94.056995   34.731186   -1.153845  157.383728
  0.029218437    0.000000    0.000000    0.000000    0.000000  -94.038921   35.813309   -1.180884  155.497711
  0.029418838    0.000000    0.000000    0.000000    0.000000  -94.740773   27.900167   -1.208936  153.592270
  0.029619238    0.000000    0.000000    0.000000    0.000000  -93.298715   31.839724   -1.237102  151.692612
  0.029819639    0.000000    0.000000    0.000000    0.000000  -93.462233   30.091696   -1.264874  149.778458
  0.030020040    0.000000    0.000000    0.000000    0.000000  -93.858989   27.266937   -1.294460  147.868958
  0.030220441    0.000000    0.000000    0.000000    0.000000  -94.102301   25.120636   -1.322193  145.943649
  0.030420842    0.000000    0.000000    0.000000    0.000000  -94.974238   25.303516   -1.353227  144.048218
  0.030621242    0.000000    0.000000    0.000000    0.000000  -94.363767   20.615358   -1.386400  142.145447
  0.030821643    0.000000    0.000000    0.000000    0.000000  -94.377855   26.644510   -1.419531  140.224503
  0.031022044    0.000000    0.000000    0.000000    0.000000  -94.599493   26.041428   -1.455154  138.283844
  0.031222445    0.000000    0.000000    0.000000    0.000000  -94.108245   20.562231   -1.485130  136.319946
  0.031422846    0.000000    0.000000    0.000000    0.000000  -94.636632   28.794359   -1.520311  134.368546
  0.031623246    0.000000    0.000000    0.000000    0.000000  -93.444508   15.268049   -1.557706  132.400574
  0.031823647    0.000000    0.000000    0.000000    0.000000  -95.482600   21.704544   -1.596150  130.435028
  0.032024048    0.000000    0.000000    0.000000    0.000000  -95.212527   24.804956   -1.635364  128.457565
  0.032224449    0.000000    0.000000    0.000000    0.000000  -94.618911   18.774145   -1.673360  126.477180
  0.032424850    0.000000    0.000000    0.000000    0.000000  -95.380231   21.488617   -1.712992  124.501839
  0.032625250    0.000000    0.000000    0.000000    0.000000  -95.920403   18.382050   -1.753146  122.476669
  0.032825651    0.000000    0.000000    0.000000    0.000000  -96.130264   21.557245   -1.794981  120.448502
  0.033026052    0.000000    0.000000    0.000000    0.000000  -96.407850   15.444048   -1.834271  118.398750
  0.033226453    0.000000    0.000000    0.000000    0.000000  -96.131747   23.491064   -1.876100  116.368607
  0.033426854    0.000000    0.000000    0.000000    0.000000  -95.906815   22.035057   -1.920526  114.329643
  0.033627254    0.000000    0.000000    0.000000    0.000000  -95.910072   16.005501   -1.963893  112.283829
  0.033827655    0.000000    0.000000    0.000000    0.000000  -96.436738   22.851677   -2.008166  110.248444
  0.034028056    0.000000    0.000000    0.000000    0.000000  -96.133994   27.790928   -2.051949  108.187927
  0.034228457    0.000000    0.000000    0.000000    0.000000  -96.562788   23.180176   -2.100037  106.107330
  0.034428858    0.000000    0.000000    0.000000    0.000000  -97.594259   37.347389   -2.147067  104.025848
  0.034629258    0.000000    0.000000    0.000000    0.000000  -95.995364   28.537445   -2.194498  101.926476
  0.034829659    0.000000    0.000000    0.000000    0.000000  -96.403850   27.090403   -2.242378   99.836617
  0.035030060    0.000000    0.000000    0.000000    0.000000  -97.142446   32.684029   -2.293317   97.738701
  0.035230461    0.000000    0.000000    0.000000    0.000000  -96.112846   27.066278   -2.345178   95.644600
  0.035430862    0.000000    0.000000    0.000000    0.000000  -96.426959   24.403120   -2.396169   93.558601
  0.035631262    0.000000    0.000000    0.000000    0.000000  -96.687185   26.157232   -2.449978   91.476257
  0.035831663    0.000000    0.000000    0.000000    0.000000  -96.770955   20.363987   -2.498909   89.390762
  0.036032064    0.000000    0.000000    0.000000    0.000000  -96.249861   19.968512   -2.553651   87.283394
  0.036232465    0.000000    0.000000    0.000000    0.000000  -95.715670   20.418440   -2.607332   85.219376
  0.036432866    0.000000    0.000000    0.000000    0.000000  -96.501947   20.360445   -2.659749   83.126488
  0.036633266    0.000000    0.000000    0.000000    0.000000  -95.000933   23.432341   -2.713698   81.056877
  0.036833667    0.000000    0.000000    0.000000    0.000000  -96.949889   25.879787   -2.771848   78.978287
  0.037034068    0.000000    0.000000    0.000000    0.000000  -96.631053   21.106998   -2.827542   76.893204
  0.037234469    0.000000    0.000000    0.000000    0.000000  -96.025638   19.673340   -2.884165   74.808167
  0.037434870    0.000000    0.000000    0.000000    0.000000  -96.572200   28.418390   -2.942394   72.712563
  0.037635270    0.000000    0.000000    0.000000    0.000000  -98.859624   23.853205   -3.008354   70.606697
  0.037835671    0.000000    0.000000    0.000000    0.000000  -97.797573   23.528130   -3.086058   68.570526
  0.038036072    0.000000    0.000000    0.000000    0.000000  -98.041794   19.193403   -3.153083   66.594826
  0.038236473    0.000000    0.000000    0.000000    0.000000  -98.120766   37.521683   -3.208244   64.618080
  0.038436874    0.000000    0.000000    0.000000    0.000000  -96.993464   26.060589   -3.262084   62.600082
  0.038637274    0.000000    0.000000    0.000000    0.000000  -98.587626   28.765438   -3.316447   60.563740
  0.038837675    0.000000    0.000000    0.000000    0.000000  -98.583051   33.726933   -3.371417   58.503937
  0.039038076    0.000000    0.000000    0.000000    0.000000  -97.647722   26.695139   -3.421418   56.499611
  0.039238477    0.000000    0.000000    0.000000    0.000000  -98.212676   25.446119   -3.478587   54.433609
  0.039438878    0.000000    0.000000    0.000000    0.000000  -98.565939   27.715054   -3.530187   52.416943
  0.039639278    0.000000    0.000000    0.000000    0.000000  -97.495154   26.367861   -3.583463   50.382187
  0.039839679    0.000000    0.000000    0.000000    0.000000  -99.309245   18.664398   -3.636470   48.320152
  0.040040080    0.000000    0.000000    0.000000    0.000000  -98.484140   26.662968   -3.689174   46.261230
  0.040240481    0.000000    0.000000    0.000000    0.000000  -98.802309   36.204403   -3.738695   44.219444
  0.040440882    0.000000    0.000000    0.000000    0.000000  -98.263893   26.544197   -3.789430   42.185486
  0.040641283    0.000000    0.000000    0.000000    0.000000  -98.546089   34.429195   -3.840512   40.151543
  0.040841683    0.000000    0.000000    0.000000    0.000000  -98.508075   41.359726   -3.889846   38.128246
  0.041042084    0.000000    0.000000    0.000000    0.000000  -97.783566   29.286427   -3.940320   36.105816
  0.041242485    0.000000    0.000000    0.000000    0.000000  -98.935336   34.725887   -3.992469   34.067123
  0.041442886    0.000000    0.000000    0.000000    0.000000  -98.498418   25.408045   -4.038662   32.019741
  0.041643287    0.000000    0.000000    0.000000    0.000000  -97.926177   30.272091   -4.085779   29.984282
  0.041843687    0.000000    0.000000    0.000000    0.000000  -98.503774   27.121191   -4.130939   27.937103
  0.042044088    0.000000    0.000000    0.000000    0.000000  -97.229738   18.612150   -4.177144   25.904076
  0.042244489    0.000000    0.000000    0.000000    0.000000  -99.085324   24.266779   -4.222739   23.886330
  0.042444890    0.000000    0.000000    0.000000    0.000000  -98.226080   29.634531   -4.267651   21.881317
  0.042645291    0.000000    0.000000    0.000000    0.000000  -97.918067   26.083042   -4.312047   19.862331
  0.042845691    0.000000    0.000000    0.000000    0.000000  -97.328917   19.690619   -4.355635   17.852083
  0.043046092    0.000000    0.000000    0.000000    0.000000  -98.726511   20.969765   -4.399324   15.857435
  0.043246493    0.000000    0.000000    0.000000    0.000000  -98.681937   32.094421   -4.442690   13.826966
  0.043446894    0.000000    0.000000    0.000000    0.000000  -98.394181   22.384218   -4.482235   11.856692
  0.043647295    0.000000    0.000000    0.000000    0.000000  -98.387171   26.283541   -4.521545    9.861049
  0.043847695    0.000000    0.000000    0.000000    0.000000  -98.309225   30.576012   -4.565580    7.893052
  0.044048096    0.000000    0.000000    0.000000    0.000000  -99.218580   28.216969   -4.604410    5.919055
  0.044248497    0.000000    0.000000    0.000000    0.000000  -98.167600   39.881153   -4.644853    3.950274
  0.044448898    0.000000    0.000000    0.000000    0.000000  -98.868524   26.566175   -4.684236    2.006625
  0.044649299    0.000000    0.000000    0.000000    0.000000  -99.799167   34.546474   -4.724400    0.055832
  0.044849699    0.000000    0.000000    0.000000    0.000000 -100.805566   36.149635   -4.764945   -1.886191
  0.045050100    0.000000    0.000000    0.000000    0.000000  -98.361778   38.736237   -4.802617   -3.814727
  0.045250501    0.000000    0.000000    0.000000    0.000000  -99.010442   31.739759   -4.838694   -5.746768
  0.045450902    0.000000    0.000000    0.000000    0.000000  -99.872928   28.960863   -4.874324   -7.655345
  0.045651303    0.000000    0.000000    0.000000    0.000000  -99.197769   29.949587   -4.910704   -9.583631
  0.045851703    0.000000    0.000000    0.000000    0.000000  -99.418707   35.577133   -4.944994  -11.464867
  0.046052104    0.000000    0.000000    0.000000    0.000000  -98.954049   28.114841   -4.980156  -13.362332
  0.046252505    0.000000    0.000000    0.000000    0.000000  -98.301643   28.543707   -5.016975  -15.230791
  0.046452906    0.000000    0.000000    0.000000    0.000000  -99.030180   34.929337   -5.052615  -17.092661
  0.046653307    0.000000    0.000000    0.000000    0.000000  -98.856530   36.957329   -5.090961  -18.970911
  0.046853707    0.000000    0.000000    0.000000    0.000000  -98.300605   39.266445   -5.126382  -20.815285
  0.047054108    0.000000    0.000000    0.000000    0.000000  -98.700538   36.255001   -5.162706  -22.667635
  0.047254509    0.000000    0.000000    0.000000    0.000000  -99.377190   24.138947   -5.196839  -24.508036
  0.047454910    0.000000    0.000000    0.000000    0.000000  -98.044959   37.997253   -5.232662  -26.326405
  0.047655311    0.000000    0.000000    0.000000    0.000000  -98.666127   19.449526   -5.266937  -28.131065
  0.047855711    0.000000    0.000000    0.000000    0.000000  -98.800421   36.066830   -5.299748  -29.911983
  0.048056112    0.000000    0.000000    0.000000    0.000000  -98.476128   35.285675   -5.334966  -31.682974
  0.048256513    0.000000    0.000000    0.000000    0.000000 -100.177139   27.775244   -5.367738  -33.457348
  0.048456914    0.000000    0.000000    0.000000    0.000000  -99.199359   30.063276   -5.398652  -35.208679
  0.048657315    0.000000    0.000000    0.000000    0.000000  -98.127508   23.162506   -5.428240  -36.980869
  0.048857715    0.000000    0.000000    0.000000    0.000000 -100.172894   37.392017   -5.459107  -38.731522
  0.049058116    0.000000    0.000000    0.000000    0.000000  -99.364947   30.031235   -5.486259  -40.510094
  0.049258517    0.000000    0.000000    0.000000    0.000000 -100.225348   26.624744   -5.514362  -42.244541
  0.049458918    0.000000    0.000000    0.000000    0.000000  -98.142585   36.862682   -5.541862  -43.950687
  0.049659319    0.000000    0.000000    0.000000    0.000000  -99.428045   25.492994   -5.570380  -45.664814
  0.049859719    0.000000    0.000000    0.000000    0.000000  -99.939752   38.105297   -5.598274  -47.363239
  0.050060120    0.000000    0.000000    0.000000    0.000000  -99.994477   25.489538   -5.623691  -49.059711
  0.050260521    0.000000    0.000000    0.000000    0.000000  -99.381111   42.017429   -5.646229  -50.739639
  0.050460922    0.000000    0.000000    0.000000    0.000000  -99.237755   29.642597   -5.667119  -52.442604
  0.050661323    0.000000    0.000000    0.000000    0.000000  -99.301589   31.376093   -5.689131  -54.128445
  0.050861723    0.000000    0.000000    0.000000    0.000000 -100.962666   31.754229   -5.706017  -55.777142
  0.051062124    0.000000    0.000000    0.000000    0.000000  -99.359644   35.812439   -5.729454  -57.413826
  0.051262525    0.000000    0.000000    0.000000    0.000000  -98.166966   31.148712   -5.748081  -59.034813
  0.051462926    0.000000    0.000000    0.000000    0.000000  -99.542063   39.675667   -5.769942  -60.646801
  0.051663327    0.000000    0.000000    0.000000    0.000000  -99.120607   44.601021   -5.783594  -62.266026
  0.051863727    0.000000    0.000000    0.000000    0.000000  -98.492324   35.578850   -5.803278  -63.877930
  0.052064128    0.000000    0.000000    0.000000    0.000000  -98.370086   32.381161   -5.813729  -65.459572
  0.052264529    0.000000    0.000000    0.000000    0.000000  -99.960428   31.869146   -5.825682  -67.046890
  0.052464930    0.000000    0.000000    0.000000    0.000000  -97.860090   29.125429   -5.838592  -68.581024
  0.052665331    0.000000    0.000000    0.000000    0.000000  -99.849820   37.511536   -5.855743  -70.123291
  0.052865731    0.000000    0.000000    0.000000    0.000000 -100.340348   24.921747   -5.866162  -71.642441
