! Anritsu VNA Master:                     Model: MS2036C/10/77
! SN:                                  1601066
! /bd0/18may09/252.ew.m4.s2p
! Existing Calibration Information:
! TYPE:                         Current Settings,       Active Cal Settings
! TIME:             	   05/09/2018 08:12:45 AM,    05/09/2018 08:04:56 AM
! INTERNAL TEMP:    	                   41.8 C,                    42.3 C
! # POINTS:         	                      500,                       500
! START FREQ:       	               20.000 MHz,                20.000 MHz
! STOP FREQ:        	              120.000 MHz,               120.000 MHz
! SOURCE POWER:     	                     High,                      High
! IFBW:             	                    50 Hz,                     50 Hz
! AVG FACTOR:       	                       1 ,                        1 
! REF PLANE 1:      	                     0 mm,                      0 mm
! REF PLANE 2:      	                     0 mm,                      0 mm
! CAL TYPE:         	                 Full S11,                  Full S11
! CAL METHOD:       	                     SOLT,                      SOLT
! CAL LINE TYPE:    	                     Coax,                      Coax
! DUT PORT 1:       	                K-Conn(F),                 K-Conn(F)
! DUT PORT 2:       	                K-Conn(F),                 K-Conn(F)
! CAL STATUS:       	        OK: Accuracy High,                        --
# GHZ S DB R 50.0
! FREQ.GHZ       S11DB        S11A       S21DB        S21A       S12DB        S12A       S22DB        S22A
  0.020000000   -0.595593 -124.223816  -90.551387   30.204268    0.000000    0.000000    0.000000    0.000000
  0.020200401   -0.593817 -125.670990  -91.252866   31.083178    0.000000    0.000000    0.000000    0.000000
  0.020400802   -0.595454 -127.104301  -92.056991   23.506683    0.000000    0.000000    0.000000    0.000000
  0.020601202   -0.595356 -128.555756  -92.045115   30.847519    0.000000    0.000000    0.000000    0.000000
  0.020801603   -0.599441 -130.037369  -92.415139   30.640902    0.000000    0.000000    0.000000    0.000000
  0.021002004   -0.605962 -131.536285  -92.207273   32.405869    0.000000    0.000000    0.000000    0.000000
  0.021202405   -0.612601 -133.067444  -93.095258   32.600246    0.000000    0.000000    0.000000    0.000000
  0.021402806   -0.616061 -134.578690  -92.972204   37.010719    0.000000    0.000000    0.000000    0.000000
  0.021603206   -0.618153 -136.076279  -93.322994   32.643871    0.000000    0.000000    0.000000    0.000000
  0.021803607   -0.622685 -137.590591  -92.551701   37.741386    0.000000    0.000000    0.000000    0.000000
  0.022004008   -0.627722 -139.129288  -94.007870   37.990387    0.000000    0.000000    0.000000    0.000000
  0.022204409   -0.630481 -140.669479  -92.606516   39.643913    0.000000    0.000000    0.000000    0.000000
  0.022404810   -0.633869 -142.218338  -92.554136   37.456764    0.000000    0.000000    0.000000    0.000000
  0.022605210   -0.636612 -143.805801  -92.303987   35.590782    0.000000    0.000000    0.000000    0.000000
  0.022805611   -0.644104 -145.379272  -93.399534   34.247730    0.000000    0.000000    0.000000    0.000000
  0.023006012   -0.646486 -146.939178  -93.335336   34.196693    0.000000    0.000000    0.000000    0.000000
  0.023206413   -0.645971 -148.520340  -93.204505   38.459248    0.000000    0.000000    0.000000    0.000000
  0.023406814   -0.648925 -150.085526  -92.661206   33.023972    0.000000    0.000000    0.000000    0.000000
  0.023607214   -0.652169 -151.676590  -93.004478   31.581251    0.000000    0.000000    0.000000    0.000000
  0.023807615   -0.661384 -153.262680  -92.963197   30.926519    0.000000    0.000000    0.000000    0.000000
  0.024008016   -0.671303 -154.881088  -92.135276   31.484379    0.000000    0.000000    0.000000    0.000000
  0.024208417   -0.679258 -156.503998  -93.346286   27.677666    0.000000    0.000000    0.000000    0.000000
  0.024408818   -0.687480 -158.155960  -92.805771   29.108593    0.000000    0.000000    0.000000    0.000000
  0.024609218   -0.696053 -159.786438  -93.138073   23.806198    0.000000    0.000000    0.000000    0.000000
  0.024809619   -0.706071 -161.418106  -92.878588   26.068590    0.000000    0.000000    0.000000    0.000000
  0.025010020   -0.717070 -163.066238  -92.865655   28.733786    0.000000    0.000000    0.000000    0.000000
  0.025210421   -0.729468 -164.721909  -93.783797   21.065220    0.000000    0.000000    0.000000    0.000000
  0.025410822   -0.743215 -166.390671  -93.983599   18.248192    0.000000    0.000000    0.000000    0.000000
  0.025611222   -0.758154 -168.099213  -93.783756   19.649620    0.000000    0.000000    0.000000    0.000000
  0.025811623   -0.767605 -169.808502  -95.186120   23.785358    0.000000    0.000000    0.000000    0.000000
  0.026012024   -0.775864 -171.496567  -94.472693   22.202963    0.000000    0.000000    0.000000    0.000000
  0.026212425   -0.788568 -173.224945  -96.020643   14.451923    0.000000    0.000000    0.000000    0.000000
  0.026412826   -0.802169 -174.940857  -95.499899   17.403551    0.000000    0.000000    0.000000    0.000000
  0.026613226   -0.815853 -176.674698  -95.469045   20.559460    0.000000    0.000000    0.000000    0.000000
  0.026813627   -0.830930 -178.416611  -95.748344   22.634026    0.000000    0.000000    0.000000    0.000000
  0.027014028   -0.847497  179.825256  -96.314798   21.187483    0.000000    0.000000    0.000000    0.000000
  0.027214429   -0.862883  178.056030  -95.893027   27.461163    0.000000    0.000000    0.000000    0.000000
  0.027414830   -0.878879  176.274246  -96.159042   22.997351    0.000000    0.000000    0.000000    0.000000
  0.027615230   -0.895867  174.471848  -95.915107   21.326984    0.000000    0.000000    0.000000    0.000000
  0.027815631   -0.915829  172.682938  -96.030960   22.186066    0.000000    0.000000    0.000000    0.000000
  0.028016032   -0.936914  170.874008  -95.920464   20.841127    0.000000    0.000000    0.000000    0.000000
  0.028216433   -0.958562  169.059174  -96.441300   20.671539    0.000000    0.000000    0.000000    0.000000
  0.028416834   -0.979238  167.232544  -95.790873   27.163761    0.000000    0.000000    0.000000    0.000000
  0.028617234   -0.997741  165.410187  -96.087386   23.034355    0.000000    0.000000    0.000000    0.000000
  0.028817635   -1.019316  163.584427  -96.473539   18.027943    0.000000    0.000000    0.000000    0.000000
  0.029018036   -1.040016  161.783295  -96.166204   26.007076    0.000000    0.000000    0.000000    0.000000
  0.029218437   -1.061274  159.958099  -95.659128   21.520206    0.000000    0.000000    0.000000    0.000000
  0.029418838   -1.086204  158.130554  -95.846592   14.416316    0.000000    0.000000    0.000000    0.000000
  0.029619238   -1.113867  156.266541  -96.056622   17.505806    0.000000    0.000000    0.000000    0.000000
  0.029819639   -1.143871  154.399628  -96.096306   19.161285    0.000000    0.000000    0.000000    0.000000
  0.030020040   -1.173341  152.479691  -95.742428   20.121552    0.000000    0.000000    0.000000    0.000000
  0.030220441   -1.204324  150.555023  -95.436401   18.320782    0.000000    0.000000    0.000000    0.000000
  0.030420842   -1.234257  148.639389  -96.226706   17.671690    0.000000    0.000000    0.000000    0.000000
  0.030621242   -1.265533  146.741043  -96.181084   15.581393    0.000000    0.000000    0.000000    0.000000
  0.030821643   -1.300347  144.815292  -97.370463   16.026594    0.000000    0.000000    0.000000    0.000000
  0.031022044   -1.336643  142.886505  -96.177280    8.416283    0.000000    0.000000    0.000000    0.000000
  0.031222445   -1.368860  140.953323  -95.860390   14.313070    0.000000    0.000000    0.000000    0.000000
  0.031422846   -1.406748  138.963852  -97.147871   13.324607    0.000000    0.000000    0.000000    0.000000
  0.031623246   -1.443465  136.962646  -96.516152    7.517370    0.000000    0.000000    0.000000    0.000000
  0.031823647   -1.480022  134.953979  -96.954821    9.409278    0.000000    0.000000    0.000000    0.000000
  0.032024048   -1.515232  132.975220  -98.417106    2.593461    0.000000    0.000000    0.000000    0.000000
  0.032224449   -1.549564  130.973251  -97.757440   14.815184    0.000000    0.000000    0.000000    0.000000
  0.032424850   -1.588522  129.009918  -97.705661   14.836337    0.000000    0.000000    0.000000    0.000000
  0.032625251   -1.625631  127.023621  -98.259134   17.776577    0.000000    0.000000    0.000000    0.000000
  0.032825651   -1.668005  125.051094  -99.356504   11.053667    0.000000    0.000000    0.000000    0.000000
  0.033026052   -1.712967  123.068481  -98.847544   12.511338    0.000000    0.000000    0.000000    0.000000
  0.033226453   -1.766124  121.081085  -98.480681   11.652414    0.000000    0.000000    0.000000    0.000000
  0.033426854   -1.819474  119.059189  -98.742256   15.454617    0.000000    0.000000    0.000000    0.000000
  0.033627255   -1.876252  117.037437  -99.108386   12.783039    0.000000    0.000000    0.000000    0.000000
  0.033827655   -1.930663  114.975197  -97.577505    9.265792    0.000000    0.000000    0.000000    0.000000
  0.034028056   -1.983518  112.863411  -98.020485    9.317247    0.000000    0.000000    0.000000    0.000000
  0.034228457   -2.034935  110.731125  -98.285209   18.059713    0.000000    0.000000    0.000000    0.000000
  0.034428858   -2.085275  108.608978  -98.391604   21.384064    0.000000    0.000000    0.000000    0.000000
  0.034629259   -2.132319  106.489479  -98.888902   18.030903    0.000000    0.000000    0.000000    0.000000
  0.034829659   -2.177320  104.389244  -97.516887    8.647884    0.000000    0.000000    0.000000    0.000000
  0.035030060   -2.225242  102.275276  -98.282341   15.723432    0.000000    0.000000    0.000000    0.000000
  0.035230461   -2.271147  100.195679  -98.171228   10.890541    0.000000    0.000000    0.000000    0.000000
  0.035430862   -2.315065   98.099190  -98.301151    5.220843    0.000000    0.000000    0.000000    0.000000
  0.035631263   -2.363589   96.024513  -98.656939   10.075534    0.000000    0.000000    0.000000    0.000000
  0.035831663   -2.412444   93.975388  -97.591609   12.468391    0.000000    0.000000    0.000000    0.000000
  0.036032064   -2.459356   91.925491  -98.454137    6.656569    0.000000    0.000000    0.000000    0.000000
  0.036232465   -2.511837   89.903885  -99.885864    2.094834    0.000000    0.000000    0.000000    0.000000
  0.036432866   -2.568102   87.870995  -98.583066    0.044585    0.000000    0.000000    0.000000    0.000000
  0.036633267   -2.625890   85.855377  -98.091110    2.782677    0.000000    0.000000    0.000000    0.000000
  0.036833667   -2.686440   83.803329  -99.122426    1.180284    0.000000    0.000000    0.000000    0.000000
  0.037034068   -2.754196   81.743546  -99.452453    3.987323    0.000000    0.000000    0.000000    0.000000
  0.037234469   -2.818934   79.659851 -101.792690    2.032674    0.000000    0.000000    0.000000    0.000000
  0.037434870   -2.882277   77.559891 -100.221350   -5.396685    0.000000    0.000000    0.000000    0.000000
  0.037635271   -2.944884   75.463097  -98.876951   16.653963    0.000000    0.000000    0.000000    0.000000
  0.037835671   -3.006483   73.326965 -100.866347    7.907537    0.000000    0.000000    0.000000    0.000000
  0.038036072   -3.064195   71.157166  -99.920207    5.050854    0.000000    0.000000    0.000000    0.000000
  0.038236473   -3.123129   68.967201 -100.962142    1.658566    0.000000    0.000000    0.000000    0.000000
  0.038436874   -3.184853   66.802055 -102.499781   10.911582    0.000000    0.000000    0.000000    0.000000
  0.038637275   -3.241376   64.685028  -99.924087   20.319435    0.000000    0.000000    0.000000    0.000000
  0.038837675   -3.297172   62.581081 -100.265297   14.318419    0.000000    0.000000    0.000000    0.000000
  0.039038076   -3.351627   60.532379 -100.400427   27.065186    0.000000    0.000000    0.000000    0.000000
  0.039238477   -3.407185   58.498241 -100.934464    3.858030    0.000000    0.000000    0.000000    0.000000
  0.039438878   -3.467612   56.485840  -98.912433    6.217844    0.000000    0.000000    0.000000    0.000000
  0.039639279   -3.532774   54.448467  -99.901783   12.317921    0.000000    0.000000    0.000000    0.000000
  0.039839679   -3.598092   52.405743  -99.347555   16.103506    0.000000    0.000000    0.000000    0.000000
  0.040040080   -3.665533   50.347294  -99.232475   18.351604    0.000000    0.000000    0.000000    0.000000
  0.040240481   -3.735511   48.255581  -98.958446    4.729780    0.000000    0.000000    0.000000    0.000000
  0.040440882   -3.799146   46.198288 -101.952520    6.611969    0.000000    0.000000    0.000000    0.000000
  0.040641283   -3.867050   44.129784  -98.193212   11.200461    0.000000    0.000000    0.000000    0.000000
  0.040841683   -3.928698   42.039780  -99.536309    0.305146    0.000000    0.000000    0.000000    0.000000
  0.041042084   -3.992601   39.970249 -100.627949    9.303998    0.000000    0.000000    0.000000    0.000000
  0.041242485   -4.058197   37.904572 -101.559539   -0.256397    0.000000    0.000000    0.000000    0.000000
  0.041442886   -4.118366   35.803654 -100.010758    8.103371    0.000000    0.000000    0.000000    0.000000
  0.041643287   -4.173522   33.728863 -100.250040   -1.143458    0.000000    0.000000    0.000000    0.000000
  0.041843687   -4.227253   31.664049 -102.743818    8.540817    0.000000    0.000000    0.000000    0.000000
  0.042044088   -4.282965   29.629368 -101.532793  -13.310231    0.000000    0.000000    0.000000    0.000000
  0.042244489   -4.335739   27.611351 -101.569423    2.043643    0.000000    0.000000    0.000000    0.000000
  0.042444890   -4.390622   25.594032 -100.898857    0.267753    0.000000    0.000000    0.000000    0.000000
  0.042645291   -4.442409   23.589449 -101.545960    4.524171    0.000000    0.000000    0.000000    0.000000
  0.042845691   -4.495841   21.594223 -101.326072   -8.363595    0.000000    0.000000    0.000000    0.000000
  0.043046092   -4.546543   19.589945 -100.752426   -2.437528    0.000000    0.000000    0.000000    0.000000
  0.043246493   -4.595680   17.615902 -100.836590    8.166773    0.000000    0.000000    0.000000    0.000000
  0.043446894   -4.647654   15.627292 -101.707598    4.252568    0.000000    0.000000    0.000000    0.000000
  0.043647295   -4.698813   13.651779 -103.379975    4.994031    0.000000    0.000000    0.000000    0.000000
  0.043847695   -4.750450   11.686604 -101.198770   13.481318    0.000000    0.000000    0.000000    0.000000
  0.044048096   -4.802678    9.730846 -101.490184   15.327184    0.000000    0.000000    0.000000    0.000000
  0.044248497   -4.853086    7.760890 -101.741283    4.068042    0.000000    0.000000    0.000000    0.000000
  0.044448898   -4.901867    5.827968 -101.405000   20.864923    0.000000    0.000000    0.000000    0.000000
  0.044649299   -4.948363    3.885639 -100.274192    6.827715    0.000000    0.000000    0.000000    0.000000
  0.044849699   -4.992917    1.953586 -100.522389    3.953392    0.000000    0.000000    0.000000    0.000000
  0.045050100   -5.035448    0.014872 -100.366237   12.631202    0.000000    0.000000    0.000000    0.000000
  0.045250501   -5.080372   -1.883023 -100.756764   12.952237    0.000000    0.000000    0.000000    0.000000
  0.045450902   -5.124257   -3.756413 -100.963433    5.770904    0.000000    0.000000    0.000000    0.000000
  0.045651303   -5.168216   -5.640429 -101.310628   -4.332128    0.000000    0.000000    0.000000    0.000000
  0.045851703   -5.209377   -7.533986 -100.942660    9.251498    0.000000    0.000000    0.000000    0.000000
  0.046052104   -5.248162   -9.405644 -100.444960    6.643868    0.000000    0.000000    0.000000    0.000000
  0.046252505   -5.290621  -11.265965 -100.369503    4.362483    0.000000    0.000000    0.000000    0.000000
  0.046452906   -5.328246  -13.142846 -101.694817    5.674338    0.000000    0.000000    0.000000    0.000000
  0.046653307   -5.363616  -15.002585 -102.085963    3.705926    0.000000    0.000000    0.000000    0.000000
  0.046853707   -5.397404  -16.848173 -100.333180   -2.812945    0.000000    0.000000    0.000000    0.000000
  0.047054108   -5.433973  -18.686743 -104.062938   -2.003669    0.000000    0.000000    0.000000    0.000000
  0.047254509   -5.467228  -20.514872 -102.397168   -3.211854    0.000000    0.000000    0.000000    0.000000
  0.047454910   -5.498079  -22.318787 -102.220788   -2.956323    0.000000    0.000000    0.000000    0.000000
  0.047655311   -5.530455  -24.086531 -102.353926   -6.441321    0.000000    0.000000    0.000000    0.000000
  0.047855711   -5.562323  -25.870838 -102.433649   -1.687094    0.000000    0.000000    0.000000    0.000000
  0.048056112   -5.590699  -27.631420 -103.557839   -2.067498    0.000000    0.000000    0.000000    0.000000
  0.048256513   -5.622917  -29.376743 -102.605500   -6.046865    0.000000    0.000000    0.000000    0.000000
  0.048456914   -5.649598  -31.122444 -102.536760   11.278302    0.000000    0.000000    0.000000    0.000000
  0.048657315   -5.675269  -32.881714 -102.743514  -11.614242    0.000000    0.000000    0.000000    0.000000
  0.048857715   -5.702115  -34.622601 -104.633212   -8.787326    0.000000    0.000000    0.000000    0.000000
  0.049058116   -5.725500  -36.350849 -103.198167   -0.006813    0.000000    0.000000    0.000000    0.000000
  0.049258517   -5.747902  -38.048424 -103.706910   -0.603064    0.000000    0.000000    0.000000    0.000000
  0.049458918   -5.770546  -39.755859 -102.404996   -8.644416    0.000000    0.000000    0.000000    0.000000
  0.049659319   -5.795433  -41.437866 -104.085672   19.931692    0.000000    0.000000    0.000000    0.000000
  0.049859719   -5.815639  -43.129536 -103.839027  -11.645796    0.000000    0.000000    0.000000    0.000000
  0.050060120   -5.838011  -44.824253 -104.339943   31.479963    0.000000    0.000000    0.000000    0.000000
  0.050260521   -5.854607  -46.496895 -102.309184   15.547577    0.000000    0.000000    0.000000    0.000000
  0.050460922   -5.873614  -48.188797 -102.805971   14.394028    0.000000    0.000000    0.000000    0.000000
  0.050661323   -5.886522  -49.825733 -104.653941   16.187042    0.000000    0.000000    0.000000    0.000000
  0.050861723   -5.894908  -51.478096 -102.309602   11.795340    0.000000    0.000000    0.000000    0.000000
  0.051062124   -5.912828  -53.091259 -102.249909   14.829876    0.000000    0.000000    0.000000    0.000000
  0.051262525   -5.920843  -54.672272 -102.737727    3.106840    0.000000    0.000000    0.000000    0.000000
  0.051462926   -5.936406  -56.216671 -103.439139    9.627059    0.000000    0.000000    0.000000    0.000000
  0.051663327   -5.948953  -57.774208 -101.268497    3.869820    0.000000    0.000000    0.000000    0.000000
  0.051863727   -5.965014  -59.326260 -101.254083    8.850642    0.000000    0.000000    0.000000    0.000000
  0.052064128   -5.980119  -60.872799 -101.461993    7.183857    0.000000    0.000000    0.000000    0.000000
  0.052264529   -5.991658  -62.435585 -100.990913   11.546282    0.000000    0.000000    0.000000    0.000000
  0.052464930   -6.010308  -64.006042 -101.141795    5.495822    0.000000    0.000000    0.000000    0.000000
  0.052665331   -6.026287  -65.548744 -103.330837   -5.348296    0.000000    0.000000    0.000000    0.000000
  0.052865731   -6.036544  -67.123322 -100.554291   -6.616934    0.000000    0.000000    0.000000    0.000000
