! Anritsu VNA Master:                     Model: MS2036C/10/77
! SN:                                  1601066
! /bd0/18may09/252.ew.m8.s2p
! Existing Calibration Information:
! TYPE:                         Current Settings,       Active Cal Settings
! TIME:             	   05/09/2018 08:23:50 AM,    05/09/2018 08:17:55 AM
! INTERNAL TEMP:    	                   41.0 C,                    41.3 C
! # POINTS:         	                      500,                       500
! START FREQ:       	               20.000 MHz,                20.000 MHz
! STOP FREQ:        	              120.000 MHz,               120.000 MHz
! SOURCE POWER:     	                     High,                      High
! IFBW:             	                    50 Hz,                     50 Hz
! AVG FACTOR:       	                       1 ,                        1 
! REF PLANE 1:      	                     0 mm,                      0 mm
! REF PLANE 2:      	                     0 mm,                      0 mm
! CAL TYPE:         	                 Full S11,                  Full S11
! CAL METHOD:       	                     SOLT,                      SOLT
! CAL LINE TYPE:    	                     Coax,                      Coax
! DUT PORT 1:       	                K-Conn(F),                 K-Conn(F)
! DUT PORT 2:       	                K-Conn(F),                 K-Conn(F)
! CAL STATUS:       	        OK: Accuracy High,                        --
# GHZ S DB R 50.0
! FREQ.GHZ       S11DB        S11A       S21DB        S21A       S12DB        S12A       S22DB        S22A
  0.020000000   -0.611251 -124.323418  -90.553047   32.303810    0.000000    0.000000    0.000000    0.000000
  0.020200401   -0.610558 -125.763016  -91.233736   32.669788    0.000000    0.000000    0.000000    0.000000
  0.020400802   -0.612872 -127.204079  -91.408725   31.453749    0.000000    0.000000    0.000000    0.000000
  0.020601202   -0.613987 -128.644516  -91.854371   33.103779    0.000000    0.000000    0.000000    0.000000
  0.020801603   -0.619308 -130.130951  -91.726202   32.507687    0.000000    0.000000    0.000000    0.000000
  0.021002004   -0.624796 -131.646576  -92.409367   32.569118    0.000000    0.000000    0.000000    0.000000
  0.021202405   -0.631381 -133.162689  -92.887986   29.274183    0.000000    0.000000    0.000000    0.000000
  0.021402806   -0.635177 -134.672699  -92.843253   30.109650    0.000000    0.000000    0.000000    0.000000
  0.021603206   -0.639041 -136.188965  -92.883319   32.875599    0.000000    0.000000    0.000000    0.000000
  0.021803607   -0.641915 -137.700104  -93.722675   39.499702    0.000000    0.000000    0.000000    0.000000
  0.022004008   -0.648009 -139.228073  -93.010557   35.147842    0.000000    0.000000    0.000000    0.000000
  0.022204409   -0.652909 -140.765884  -93.431570   38.031219    0.000000    0.000000    0.000000    0.000000
  0.022404810   -0.658978 -142.321655  -93.082472   36.671879    0.000000    0.000000    0.000000    0.000000
  0.022605210   -0.663208 -143.894577  -92.819360   35.352905    0.000000    0.000000    0.000000    0.000000
  0.022805611   -0.663020 -145.473557  -92.211888   31.360638    0.000000    0.000000    0.000000    0.000000
  0.023006012   -0.666507 -147.056976  -93.449138   38.104202    0.000000    0.000000    0.000000    0.000000
  0.023206413   -0.667887 -148.623489  -93.335955   38.392586    0.000000    0.000000    0.000000    0.000000
  0.023406814   -0.673732 -150.189987  -92.114769   30.272676    0.000000    0.000000    0.000000    0.000000
  0.023607214   -0.677493 -151.772232  -92.623968   33.522305    0.000000    0.000000    0.000000    0.000000
  0.023807615   -0.686365 -153.370758  -92.838267   29.026934    0.000000    0.000000    0.000000    0.000000
  0.024008016   -0.696263 -154.986862  -92.922214   32.457165    0.000000    0.000000    0.000000    0.000000
  0.024208417   -0.705530 -156.623444  -93.398492   30.553308    0.000000    0.000000    0.000000    0.000000
  0.024408818   -0.714950 -158.251938  -92.673953   28.176075    0.000000    0.000000    0.000000    0.000000
  0.024609218   -0.723383 -159.880386  -92.678668   25.842133    0.000000    0.000000    0.000000    0.000000
  0.024809619   -0.733648 -161.516785  -93.220210   23.787088    0.000000    0.000000    0.000000    0.000000
  0.025010020   -0.744613 -163.169388  -93.296915   21.724054    0.000000    0.000000    0.000000    0.000000
  0.025210421   -0.757420 -164.826141  -94.001378   17.002562    0.000000    0.000000    0.000000    0.000000
  0.025410822   -0.771632 -166.498657  -93.365758   21.688936    0.000000    0.000000    0.000000    0.000000
  0.025611222   -0.785283 -168.195511  -93.489977   19.520491    0.000000    0.000000    0.000000    0.000000
  0.025811623   -0.796681 -169.906540  -94.540505   15.190130    0.000000    0.000000    0.000000    0.000000
  0.026012024   -0.805063 -171.614532  -94.604768   22.540197    0.000000    0.000000    0.000000    0.000000
  0.026212425   -0.818035 -173.328339  -95.163784   18.565407    0.000000    0.000000    0.000000    0.000000
  0.026412826   -0.833266 -175.052155  -95.102915   19.014177    0.000000    0.000000    0.000000    0.000000
  0.026613226   -0.846419 -176.777008  -94.960944   21.233147    0.000000    0.000000    0.000000    0.000000
  0.026813627   -0.862652 -178.524857  -95.936901   20.869736    0.000000    0.000000    0.000000    0.000000
  0.027014028   -0.879931  179.722015  -95.381807   21.617165    0.000000    0.000000    0.000000    0.000000
  0.027214429   -0.896040  177.951813  -96.270225   25.445574    0.000000    0.000000    0.000000    0.000000
  0.027414830   -0.911071  176.168381  -95.677637   25.364500    0.000000    0.000000    0.000000    0.000000
  0.027615230   -0.927991  174.367844  -96.073770   18.807850    0.000000    0.000000    0.000000    0.000000
  0.027815631   -0.950382  172.581100  -95.817264   23.421232    0.000000    0.000000    0.000000    0.000000
  0.028016032   -0.971787  170.761826  -94.902339   24.232203    0.000000    0.000000    0.000000    0.000000
  0.028216433   -0.992973  168.953888  -96.099949   25.431520    0.000000    0.000000    0.000000    0.000000
  0.028416834   -1.014300  167.133850  -96.300978   23.778257    0.000000    0.000000    0.000000    0.000000
  0.028617234   -1.033433  165.304489  -95.292484   22.091068    0.000000    0.000000    0.000000    0.000000
  0.028817635   -1.053494  163.481964  -96.053750   23.094011    0.000000    0.000000    0.000000    0.000000
  0.029018036   -1.074939  161.677872  -95.408017   20.158825    0.000000    0.000000    0.000000    0.000000
  0.029218437   -1.096557  159.856186  -95.464458   19.786045    0.000000    0.000000    0.000000    0.000000
  0.029418838   -1.121194  158.022736  -95.692436   17.284204    0.000000    0.000000    0.000000    0.000000
  0.029619238   -1.150009  156.171616  -95.167838   21.582182    0.000000    0.000000    0.000000    0.000000
  0.029819639   -1.179584  154.298767  -95.575047   18.038044    0.000000    0.000000    0.000000    0.000000
  0.030020040   -1.209433  152.394272  -95.488201   20.056145    0.000000    0.000000    0.000000    0.000000
  0.030220441   -1.239965  150.467514  -96.456703   18.302794    0.000000    0.000000    0.000000    0.000000
  0.030420842   -1.270202  148.552261  -96.260393   13.651954    0.000000    0.000000    0.000000    0.000000
  0.030621242   -1.303491  146.647446  -96.872412   15.571064    0.000000    0.000000    0.000000    0.000000
  0.030821643   -1.337126  144.731903  -96.143107   10.790329    0.000000    0.000000    0.000000    0.000000
  0.031022044   -1.372350  142.795288  -97.262031   10.445075    0.000000    0.000000    0.000000    0.000000
  0.031222445   -1.407722  140.879959  -96.897486   11.174517    0.000000    0.000000    0.000000    0.000000
  0.031422846   -1.445296  138.875565  -97.144788   16.739304    0.000000    0.000000    0.000000    0.000000
  0.031623246   -1.482733  136.879166  -96.521158   18.442268    0.000000    0.000000    0.000000    0.000000
  0.031823647   -1.516081  134.882248  -96.664278    9.375648    0.000000    0.000000    0.000000    0.000000
  0.032024048   -1.552368  132.896591  -97.918045    3.957283    0.000000    0.000000    0.000000    0.000000
  0.032224449   -1.587667  130.906601  -97.343706    8.439976    0.000000    0.000000    0.000000    0.000000
  0.032424850   -1.623988  128.940277  -97.938180   18.166140    0.000000    0.000000    0.000000    0.000000
  0.032625251   -1.663059  126.971153  -97.020148   18.175539    0.000000    0.000000    0.000000    0.000000
  0.032825651   -1.704384  124.989525  -97.509371   20.101492    0.000000    0.000000    0.000000    0.000000
  0.033026052   -1.752045  123.019058  -98.989723   23.470110    0.000000    0.000000    0.000000    0.000000
  0.033226453   -1.801094  121.008072  -98.367522   15.364165    0.000000    0.000000    0.000000    0.000000
  0.033426854   -1.859800  119.007607  -99.001063   14.466631    0.000000    0.000000    0.000000    0.000000
  0.033627255   -1.913829  116.977974  -98.160125   13.394515    0.000000    0.000000    0.000000    0.000000
  0.033827655   -1.966968  114.904762  -98.130952   17.469650    0.000000    0.000000    0.000000    0.000000
  0.034028056   -2.018817  112.795578  -99.090141   25.051882    0.000000    0.000000    0.000000    0.000000
  0.034228457   -2.071315  110.674019  -96.411665   13.871109    0.000000    0.000000    0.000000    0.000000
  0.034428858   -2.120748  108.532440  -98.316818   16.421282    0.000000    0.000000    0.000000    0.000000
  0.034629259   -2.166312  106.434464  -97.448129   22.109810    0.000000    0.000000    0.000000    0.000000
  0.034829659   -2.212653  104.308914  -97.467216   16.150017    0.000000    0.000000    0.000000    0.000000
  0.035030060   -2.256302  102.226730  -98.981358    9.880909    0.000000    0.000000    0.000000    0.000000
  0.035230461   -2.302035  100.129272  -97.915942    8.301050    0.000000    0.000000    0.000000    0.000000
  0.035430862   -2.349630   98.052734  -98.254102    0.766754    0.000000    0.000000    0.000000    0.000000
  0.035631263   -2.393153   95.977554  -98.104964   16.303156    0.000000    0.000000    0.000000    0.000000
  0.035831663   -2.441358   93.912109  -98.734252   14.893996    0.000000    0.000000    0.000000    0.000000
  0.036032064   -2.491440   91.883583  -99.033164    8.361958    0.000000    0.000000    0.000000    0.000000
  0.036232465   -2.541671   89.864014  -98.524392    4.491241    0.000000    0.000000    0.000000    0.000000
  0.036432866   -2.594044   87.832634  -98.512675    5.929364    0.000000    0.000000    0.000000    0.000000
  0.036633267   -2.653225   85.817116  -99.236159   13.013343    0.000000    0.000000    0.000000    0.000000
  0.036833667   -2.717575   83.786545 -100.244716   11.881471    0.000000    0.000000    0.000000    0.000000
  0.037034068   -2.780832   81.716011 -100.739165    4.766214    0.000000    0.000000    0.000000    0.000000
  0.037234469   -2.844044   79.618683 -101.009257    0.954841    0.000000    0.000000    0.000000    0.000000
  0.037434870   -2.909206   77.524338  -99.724467    2.831771    0.000000    0.000000    0.000000    0.000000
  0.037635271   -2.969803   75.424164  -98.301576    8.486939    0.000000    0.000000    0.000000    0.000000
  0.037835671   -3.032027   73.296684  -98.616462   11.759623    0.000000    0.000000    0.000000    0.000000
  0.038036072   -3.089580   71.125763 -101.833505    1.421365    0.000000    0.000000    0.000000    0.000000
  0.038236473   -3.146643   68.933578  -99.804047   -2.261079    0.000000    0.000000    0.000000    0.000000
  0.038436874   -3.206439   66.764671  -97.273059   10.749990    0.000000    0.000000    0.000000    0.000000
  0.038637275   -3.263840   64.655914 -100.485203    5.921235    0.000000    0.000000    0.000000    0.000000
  0.038837675   -3.317331   62.563366 -100.249712   11.196047    0.000000    0.000000    0.000000    0.000000
  0.039038076   -3.369138   60.504772  -99.675598   11.378994    0.000000    0.000000    0.000000    0.000000
  0.039238477   -3.426002   58.469036  -99.439986   14.395392    0.000000    0.000000    0.000000    0.000000
  0.039438878   -3.485668   56.462830  -99.330124    4.407378    0.000000    0.000000    0.000000    0.000000
  0.039639279   -3.550717   54.413174 -100.134115    5.465768    0.000000    0.000000    0.000000    0.000000
  0.039839679   -3.610627   52.373035  -99.808635   15.833225    0.000000    0.000000    0.000000    0.000000
  0.040040080   -3.683034   50.308929  -99.113614    8.684720    0.000000    0.000000    0.000000    0.000000
  0.040240481   -3.747363   48.231983  -99.464063   10.995275    0.000000    0.000000    0.000000    0.000000
  0.040440882   -3.815937   46.164139  -99.411684   16.268955    0.000000    0.000000    0.000000    0.000000
  0.040641283   -3.882709   44.091660  -99.574762    4.378931    0.000000    0.000000    0.000000    0.000000
  0.040841683   -3.942910   42.028538  -99.241670    8.405082    0.000000    0.000000    0.000000    0.000000
  0.041042084   -4.006074   39.949005  -99.955142    1.612043    0.000000    0.000000    0.000000    0.000000
  0.041242485   -4.068808   37.871067  -98.146131   10.012174    0.000000    0.000000    0.000000    0.000000
  0.041442886   -4.126950   35.792370 -100.817654    3.231396    0.000000    0.000000    0.000000    0.000000
  0.041643287   -4.185484   33.721020 -101.129823   -4.590011    0.000000    0.000000    0.000000    0.000000
  0.041843687   -4.236723   31.649977  -99.823029    1.326347    0.000000    0.000000    0.000000    0.000000
  0.042044088   -4.290358   29.617474 -101.088281   -0.219774    0.000000    0.000000    0.000000    0.000000
  0.042244489   -4.343746   27.603481 -101.656173   -2.598858    0.000000    0.000000    0.000000    0.000000
  0.042444890   -4.396245   25.575972 -101.122882   -6.532928    0.000000    0.000000    0.000000    0.000000
  0.042645291   -4.448212   23.578211 -102.888518    4.623743    0.000000    0.000000    0.000000    0.000000
  0.042845691   -4.501422   21.582209 -102.974697   -1.857527    0.000000    0.000000    0.000000    0.000000
  0.043046092   -4.551744   19.589319 -100.332614    8.920550    0.000000    0.000000    0.000000    0.000000
  0.043246493   -4.602497   17.603840 -102.413381    7.776078    0.000000    0.000000    0.000000    0.000000
  0.043446894   -4.654659   15.608503 -103.240905   12.228934    0.000000    0.000000    0.000000    0.000000
  0.043647295   -4.704166   13.646980 -103.380325   -5.931760    0.000000    0.000000    0.000000    0.000000
  0.043847695   -4.756436   11.671709 -102.531293    1.237887    0.000000    0.000000    0.000000    0.000000
  0.044048096   -4.808254    9.703778 -101.969022    6.375000    0.000000    0.000000    0.000000    0.000000
  0.044248497   -4.856780    7.746724 -101.636859    2.398535    0.000000    0.000000    0.000000    0.000000
  0.044448898   -4.906068    5.809510 -102.896917    5.781126    0.000000    0.000000    0.000000    0.000000
  0.044649299   -4.951862    3.858121 -101.273493    9.461777    0.000000    0.000000    0.000000    0.000000
  0.044849699   -4.999079    1.920590 -100.574000   10.375275    0.000000    0.000000    0.000000    0.000000
  0.045050100   -5.040025   -0.008097 -100.266149    9.423636    0.000000    0.000000    0.000000    0.000000
  0.045250501   -5.082351   -1.902337 -101.243851    4.704552    0.000000    0.000000    0.000000    0.000000
  0.045450902   -5.124434   -3.809255 -101.613803    6.252072    0.000000    0.000000    0.000000    0.000000
  0.045651303   -5.167913   -5.691068 -101.378085    8.794563    0.000000    0.000000    0.000000    0.000000
  0.045851703   -5.212573   -7.561653 -102.710578   17.868385    0.000000    0.000000    0.000000    0.000000
  0.046052104   -5.254319   -9.436388  -99.538082   10.609743    0.000000    0.000000    0.000000    0.000000
  0.046252505   -5.294821  -11.313943 -101.316737   11.650130    0.000000    0.000000    0.000000    0.000000
  0.046452906   -5.333043  -13.152085  -99.561388   19.133167    0.000000    0.000000    0.000000    0.000000
  0.046653307   -5.367276  -15.020061 -100.154870   -0.293530    0.000000    0.000000    0.000000    0.000000
  0.046853707   -5.403342  -16.870081 -101.155291    9.211316    0.000000    0.000000    0.000000    0.000000
  0.047054108   -5.437915  -18.712849 -101.849830    0.931187    0.000000    0.000000    0.000000    0.000000
  0.047254509   -5.467859  -20.557077 -101.798437    2.543114    0.000000    0.000000    0.000000    0.000000
  0.047454910   -5.499694  -22.354197 -102.182782    5.930998    0.000000    0.000000    0.000000    0.000000
  0.047655311   -5.528390  -24.135006 -101.181621   10.075558    0.000000    0.000000    0.000000    0.000000
  0.047855711   -5.558020  -25.887024 -102.471139   -4.262508    0.000000    0.000000    0.000000    0.000000
  0.048056112   -5.589248  -27.647823 -101.932761  -14.533754    0.000000    0.000000    0.000000    0.000000
  0.048256513   -5.620594  -29.417105 -101.229230   -7.264344    0.000000    0.000000    0.000000    0.000000
  0.048456914   -5.651390  -31.145359 -103.246668   -2.323721    0.000000    0.000000    0.000000    0.000000
  0.048657315   -5.675044  -32.895969 -102.199686   -5.359926    0.000000    0.000000    0.000000    0.000000
  0.048857715   -5.699690  -34.647121 -104.916151  -12.042356    0.000000    0.000000    0.000000    0.000000
  0.049058116   -5.725389  -36.371086 -103.692218    9.936498    0.000000    0.000000    0.000000    0.000000
  0.049258517   -5.748662  -38.064892 -100.878485    8.425257    0.000000    0.000000    0.000000    0.000000
  0.049458918   -5.770971  -39.792530 -104.651113    4.102129    0.000000    0.000000    0.000000    0.000000
  0.049659319   -5.796427  -41.460796 -104.980665   15.253800    0.000000    0.000000    0.000000    0.000000
  0.049859719   -5.819127  -43.142647 -104.338196   11.148752    0.000000    0.000000    0.000000    0.000000
  0.050060120   -5.838431  -44.849640 -103.793766    5.889838    0.000000    0.000000    0.000000    0.000000
  0.050260521   -5.857225  -46.520973 -102.624604    7.213265    0.000000    0.000000    0.000000    0.000000
  0.050460922   -5.873143  -48.221497 -103.036539   11.572482    0.000000    0.000000    0.000000    0.000000
  0.050661323   -5.884756  -49.847965 -100.777941   13.228321    0.000000    0.000000    0.000000    0.000000
  0.050861723   -5.901578  -51.494194 -101.199105    4.140453    0.000000    0.000000    0.000000    0.000000
  0.051062124   -5.912084  -53.111496 -102.492982    2.674236    0.000000    0.000000    0.000000    0.000000
  0.051262525   -5.923904  -54.684902 -103.098707    7.173786    0.000000    0.000000    0.000000    0.000000
  0.051462926   -5.938277  -56.246372 -103.353662  -11.228877    0.000000    0.000000    0.000000    0.000000
  0.051663327   -5.950462  -57.804077 -103.794593    1.349899    0.000000    0.000000    0.000000    0.000000
  0.051863727   -5.968939  -59.349834 -100.781052    5.882831    0.000000    0.000000    0.000000    0.000000
  0.052064128   -5.981821  -60.908451 -102.472417   -3.260068    0.000000    0.000000    0.000000    0.000000
  0.052264529   -5.994712  -62.475708 -101.579740    4.342322    0.000000    0.000000    0.000000    0.000000
  0.052464930   -6.010408  -64.046333 -100.012211    1.893318    0.000000    0.000000    0.000000    0.000000
  0.052665331   -6.025972  -65.597427 -104.414931    5.528163    0.000000    0.000000    0.000000    0.000000
  0.052865731   -6.038445  -67.145073 -100.836671   -6.062142    0.000000    0.000000    0.000000    0.000000
