! Anritsu VNA Master:                     Model: MS2036C/10/77
! SN:                                  1601066
! /bd0/18may09/252.ew.m9.s2p
! Existing Calibration Information:
! TYPE:                         Current Settings,       Active Cal Settings
! TIME:             	   05/09/2018 08:25:46 AM,    05/09/2018 08:17:55 AM
! INTERNAL TEMP:    	                   40.8 C,                    41.3 C
! # POINTS:         	                      500,                       500
! START FREQ:       	               20.000 MHz,                20.000 MHz
! STOP FREQ:        	              120.000 MHz,               120.000 MHz
! SOURCE POWER:     	                     High,                      High
! IFBW:             	                    50 Hz,                     50 Hz
! AVG FACTOR:       	                       1 ,                        1 
! REF PLANE 1:      	                     0 mm,                      0 mm
! REF PLANE 2:      	                     0 mm,                      0 mm
! CAL TYPE:         	                 Full S11,                  Full S11
! CAL METHOD:       	                     SOLT,                      SOLT
! CAL LINE TYPE:    	                     Coax,                      Coax
! DUT PORT 1:       	                K-Conn(F),                 K-Conn(F)
! DUT PORT 2:       	                K-Conn(F),                 K-Conn(F)
! CAL STATUS:       	        OK: Accuracy High,                        --
# GHZ S DB R 50.0
! FREQ.GHZ       S11DB        S11A       S21DB        S21A       S12DB        S12A       S22DB        S22A
  0.020000000   -0.591761 -124.333336  -91.328469   33.346401    0.000000    0.000000    0.000000    0.000000
  0.020200401   -0.590973 -125.783005  -91.394022   27.181536    0.000000    0.000000    0.000000    0.000000
  0.020400802   -0.592567 -127.230362  -92.028392   30.986246    0.000000    0.000000    0.000000    0.000000
  0.020601202   -0.593277 -128.666428  -92.284702   31.080336    0.000000    0.000000    0.000000    0.000000
  0.020801603   -0.598787 -130.144470  -91.749102   33.245140    0.000000    0.000000    0.000000    0.000000
  0.021002004   -0.606115 -131.670609  -92.112526   31.237116    0.000000    0.000000    0.000000    0.000000
  0.021202405   -0.612366 -133.174057  -92.428951   32.537140    0.000000    0.000000    0.000000    0.000000
  0.021402806   -0.615653 -134.688568  -92.842556   32.765427    0.000000    0.000000    0.000000    0.000000
  0.021603206   -0.618804 -136.207993  -92.730130   36.796062    0.000000    0.000000    0.000000    0.000000
  0.021803607   -0.622930 -137.723877  -93.451315   34.818165    0.000000    0.000000    0.000000    0.000000
  0.022004008   -0.630698 -139.236465  -93.407218   37.784607    0.000000    0.000000    0.000000    0.000000
  0.022204409   -0.633247 -140.778824  -93.147783   30.733881    0.000000    0.000000    0.000000    0.000000
  0.022404810   -0.637825 -142.341553  -92.853722   35.162807    0.000000    0.000000    0.000000    0.000000
  0.022605210   -0.642441 -143.904877  -94.139987   40.438538    0.000000    0.000000    0.000000    0.000000
  0.022805611   -0.642358 -145.484024  -93.107338   33.492008    0.000000    0.000000    0.000000    0.000000
  0.023006012   -0.643872 -147.072296  -93.202711   33.545258    0.000000    0.000000    0.000000    0.000000
  0.023206413   -0.644882 -148.636322  -92.799975   36.302551    0.000000    0.000000    0.000000    0.000000
  0.023406814   -0.651353 -150.211823  -92.598724   36.079315    0.000000    0.000000    0.000000    0.000000
  0.023607214   -0.655905 -151.787766  -92.832179   34.032410    0.000000    0.000000    0.000000    0.000000
  0.023807615   -0.664592 -153.378632  -93.150750   29.388124    0.000000    0.000000    0.000000    0.000000
  0.024008016   -0.673295 -154.997757  -93.019932   30.241554    0.000000    0.000000    0.000000    0.000000
  0.024208417   -0.683495 -156.634583  -92.580352   32.304302    0.000000    0.000000    0.000000    0.000000
  0.024408818   -0.693030 -158.263229  -92.297711   27.887379    0.000000    0.000000    0.000000    0.000000
  0.024609218   -0.700670 -159.891739  -93.114403   24.109608    0.000000    0.000000    0.000000    0.000000
  0.024809619   -0.710717 -161.527359  -93.456972   23.785316    0.000000    0.000000    0.000000    0.000000
  0.025010020   -0.721902 -163.174301  -93.432452   24.741982    0.000000    0.000000    0.000000    0.000000
  0.025210421   -0.734688 -164.834442  -93.324436   18.357582    0.000000    0.000000    0.000000    0.000000
  0.025410822   -0.749804 -166.509735  -94.108840   18.884014    0.000000    0.000000    0.000000    0.000000
  0.025611222   -0.761746 -168.205170  -93.523075   13.437051    0.000000    0.000000    0.000000    0.000000
  0.025811623   -0.773115 -169.903580  -94.263002   17.262236    0.000000    0.000000    0.000000    0.000000
  0.026012024   -0.782608 -171.616119  -94.801778   22.138466    0.000000    0.000000    0.000000    0.000000
  0.026212425   -0.795190 -173.334457  -94.490713   20.367655    0.000000    0.000000    0.000000    0.000000
  0.026412826   -0.809178 -175.056702  -95.456758   16.799168    0.000000    0.000000    0.000000    0.000000
  0.026613226   -0.823478 -176.780014  -95.928658   21.149393    0.000000    0.000000    0.000000    0.000000
  0.026813627   -0.839340 -178.530609  -95.752845   16.029356    0.000000    0.000000    0.000000    0.000000
  0.027014028   -0.856168  179.713898  -95.572156   22.644468    0.000000    0.000000    0.000000    0.000000
  0.027214429   -0.871552  177.944870  -95.715465   24.076199    0.000000    0.000000    0.000000    0.000000
  0.027414830   -0.887787  176.165878  -96.566451   21.371618    0.000000    0.000000    0.000000    0.000000
  0.027615230   -0.904566  174.365707  -95.501096   17.538750    0.000000    0.000000    0.000000    0.000000
  0.027815631   -0.926205  172.580826  -96.222901   20.088654    0.000000    0.000000    0.000000    0.000000
  0.028016032   -0.947026  170.761612  -96.109461   24.371735    0.000000    0.000000    0.000000    0.000000
  0.028216433   -0.968951  168.950378  -95.728645   22.884827    0.000000    0.000000    0.000000    0.000000
  0.028416834   -0.990007  167.134583  -96.747204   16.986311    0.000000    0.000000    0.000000    0.000000
  0.028617234   -1.009779  165.306030  -95.920708   21.350492    0.000000    0.000000    0.000000    0.000000
  0.028817635   -1.029512  163.489456  -95.869225   23.911963    0.000000    0.000000    0.000000    0.000000
  0.029018036   -1.049651  161.684326  -96.070698   24.297991    0.000000    0.000000    0.000000    0.000000
  0.029218437   -1.072512  159.858826  -96.020834   19.101652    0.000000    0.000000    0.000000    0.000000
  0.029418838   -1.097571  158.027496  -95.985188   21.004087    0.000000    0.000000    0.000000    0.000000
  0.029619238   -1.125054  156.179123  -96.168868   17.461531    0.000000    0.000000    0.000000    0.000000
  0.029819639   -1.155502  154.304962  -95.942946   20.621552    0.000000    0.000000    0.000000    0.000000
  0.030020040   -1.186196  152.399612  -95.950161   15.583139    0.000000    0.000000    0.000000    0.000000
  0.030220441   -1.215868  150.467285  -96.054323   15.892583    0.000000    0.000000    0.000000    0.000000
  0.030420842   -1.246363  148.556717  -96.460120   22.641315    0.000000    0.000000    0.000000    0.000000
  0.030621242   -1.279090  146.649673  -96.218409   14.800268    0.000000    0.000000    0.000000    0.000000
  0.030821643   -1.313542  144.731659  -97.038674   10.215418    0.000000    0.000000    0.000000    0.000000
  0.031022044   -1.348354  142.800430  -96.642179   11.907485    0.000000    0.000000    0.000000    0.000000
  0.031222445   -1.383113  140.879547  -97.530392   13.712047    0.000000    0.000000    0.000000    0.000000
  0.031422846   -1.421111  138.884048  -97.202186    9.404087    0.000000    0.000000    0.000000    0.000000
  0.031623246   -1.457501  136.881714  -96.080631   13.966136    0.000000    0.000000    0.000000    0.000000
  0.031823647   -1.492878  134.883286  -97.934772   13.515208    0.000000    0.000000    0.000000    0.000000
  0.032024048   -1.528155  132.896118  -97.511672    7.581168    0.000000    0.000000    0.000000    0.000000
  0.032224449   -1.562440  130.909653  -97.871615    2.957338    0.000000    0.000000    0.000000    0.000000
  0.032424850   -1.600809  128.947174  -99.183844   -1.924449    0.000000    0.000000    0.000000    0.000000
  0.032625251   -1.639290  126.968834  -98.783649    6.194815    0.000000    0.000000    0.000000    0.000000
  0.032825651   -1.682122  124.990601  -98.304357   10.336089    0.000000    0.000000    0.000000    0.000000
  0.033026052   -1.728789  123.021805  -97.979203   22.116480    0.000000    0.000000    0.000000    0.000000
  0.033226453   -1.778717  121.004372  -98.587799   14.199991    0.000000    0.000000    0.000000    0.000000
  0.033426854   -1.837549  119.014885  -96.329376   12.561923    0.000000    0.000000    0.000000    0.000000
  0.033627255   -1.892790  116.988152  -99.357454   13.313936    0.000000    0.000000    0.000000    0.000000
  0.033827655   -1.944693  114.903564  -98.153214    4.276273    0.000000    0.000000    0.000000    0.000000
  0.034028056   -1.998779  112.809090  -97.660393   13.362731    0.000000    0.000000    0.000000    0.000000
  0.034228457   -2.050314  110.692375  -98.083666   19.645313    0.000000    0.000000    0.000000    0.000000
  0.034428858   -2.098784  108.536255  -98.235049   17.646061    0.000000    0.000000    0.000000    0.000000
  0.034629259   -2.146364  106.440811  -98.425173   19.683105    0.000000    0.000000    0.000000    0.000000
  0.034829659   -2.192283  104.327805  -99.373001    7.792328    0.000000    0.000000    0.000000    0.000000
  0.035030060   -2.235169  102.239021  -98.669041    9.982352    0.000000    0.000000    0.000000    0.000000
  0.035230461   -2.282148  100.142876  -97.514401   10.289957    0.000000    0.000000    0.000000    0.000000
  0.035430862   -2.328504   98.070724  -98.100029    4.566427    0.000000    0.000000    0.000000    0.000000
  0.035631263   -2.373925   95.997238  -98.952179    9.710003    0.000000    0.000000    0.000000    0.000000
  0.035831663   -2.421515   93.930595  -98.166842    7.205971    0.000000    0.000000    0.000000    0.000000
  0.036032064   -2.472593   91.898834  -98.623157    9.443351    0.000000    0.000000    0.000000    0.000000
  0.036232465   -2.523028   89.875633 -100.133490    7.879245    0.000000    0.000000    0.000000    0.000000
  0.036432866   -2.576951   87.856712  -98.854033    4.942867    0.000000    0.000000    0.000000    0.000000
  0.036633267   -2.635408   85.829979 -100.185478   10.152285    0.000000    0.000000    0.000000    0.000000
  0.036833667   -2.700864   83.805237  -99.506322   12.037081    0.000000    0.000000    0.000000    0.000000
  0.037034068   -2.764025   81.726097  -99.598756    5.429378    0.000000    0.000000    0.000000    0.000000
  0.037234469   -2.828307   79.628082  -99.577917   -0.633506    0.000000    0.000000    0.000000    0.000000
  0.037434870   -2.895139   77.542061  -99.999092    6.082705    0.000000    0.000000    0.000000    0.000000
  0.037635271   -2.955116   75.446083 -101.499199   -1.190964    0.000000    0.000000    0.000000    0.000000
  0.037835671   -3.016569   73.319725  -99.918936   16.133509    0.000000    0.000000    0.000000    0.000000
  0.038036072   -3.074418   71.141808  -99.787888   23.411591    0.000000    0.000000    0.000000    0.000000
  0.038236473   -3.133712   68.945534 -100.470284    8.499187    0.000000    0.000000    0.000000    0.000000
  0.038436874   -3.193315   66.788483 -100.414852   13.711675    0.000000    0.000000    0.000000    0.000000
  0.038637275   -3.250213   64.667297 -100.722829   17.822727    0.000000    0.000000    0.000000    0.000000
  0.038837675   -3.304976   62.575142 -101.168470    3.199941    0.000000    0.000000    0.000000    0.000000
  0.039038076   -3.357195   60.515297 -101.704172    6.794963    0.000000    0.000000    0.000000    0.000000
  0.039238477   -3.412722   58.492073  -99.623440    4.110679    0.000000    0.000000    0.000000    0.000000
  0.039438878   -3.474821   56.465717 -100.385796   18.550568    0.000000    0.000000    0.000000    0.000000
  0.039639279   -3.539377   54.424732 -100.383592   16.346460    0.000000    0.000000    0.000000    0.000000
  0.039839679   -3.603087   52.394379 -100.365876   10.921995    0.000000    0.000000    0.000000    0.000000
  0.040040080   -3.672141   50.332619  -99.469395   27.063379    0.000000    0.000000    0.000000    0.000000
  0.040240481   -3.739072   48.245125 -100.650992   17.726236    0.000000    0.000000    0.000000    0.000000
  0.040440882   -3.808904   46.177017  -99.004395   14.065116    0.000000    0.000000    0.000000    0.000000
  0.040641283   -3.874553   44.105991  -99.831815    1.221535    0.000000    0.000000    0.000000    0.000000
  0.040841683   -3.935690   42.031010  -99.949804   13.580428    0.000000    0.000000    0.000000    0.000000
  0.041042084   -3.998190   39.963139  -99.190265    3.650990    0.000000    0.000000    0.000000    0.000000
  0.041242485   -4.061592   37.876232  -99.697679   15.617603    0.000000    0.000000    0.000000    0.000000
  0.041442886   -4.121038   35.799679  -99.741262    5.734886    0.000000    0.000000    0.000000    0.000000
  0.041643287   -4.180906   33.723831 -100.775547   12.682702    0.000000    0.000000    0.000000    0.000000
  0.041843687   -4.233464   31.656233 -100.876713   -0.385724    0.000000    0.000000    0.000000    0.000000
  0.042044088   -4.286222   29.624422  -99.441633    9.693604    0.000000    0.000000    0.000000    0.000000
  0.042244489   -4.341069   27.598515 -101.890195   -6.034641    0.000000    0.000000    0.000000    0.000000
  0.042444890   -4.394005   25.564796 -101.932814   10.286506    0.000000    0.000000    0.000000    0.000000
  0.042645291   -4.445950   23.574406 -101.377678    5.259169    0.000000    0.000000    0.000000    0.000000
  0.042845691   -4.500671   21.580353 -103.609359   -1.532279    0.000000    0.000000    0.000000    0.000000
  0.043046092   -4.552669   19.596115 -101.970055    7.424916    0.000000    0.000000    0.000000    0.000000
  0.043246493   -4.603841   17.614210 -101.604847   10.746957    0.000000    0.000000    0.000000    0.000000
  0.043446894   -4.655113   15.617779 -101.324909    1.659566    0.000000    0.000000    0.000000    0.000000
  0.043647295   -4.706341   13.643371 -100.473006    8.835360    0.000000    0.000000    0.000000    0.000000
  0.043847695   -4.758406   11.678340 -100.884191    2.608060    0.000000    0.000000    0.000000    0.000000
  0.044048096   -4.809589    9.703707 -101.117010    6.149035    0.000000    0.000000    0.000000    0.000000
  0.044248497   -4.858831    7.751426 -101.133682    4.451872    0.000000    0.000000    0.000000    0.000000
  0.044448898   -4.908773    5.801456 -102.297583    0.627237    0.000000    0.000000    0.000000    0.000000
  0.044649299   -4.957699    3.865667 -101.398005   11.912550    0.000000    0.000000    0.000000    0.000000
  0.044849699   -5.002078    1.920520 -101.421177    6.998705    0.000000    0.000000    0.000000    0.000000
  0.045050100   -5.045784   -0.016849 -101.186720    7.108201    0.000000    0.000000    0.000000    0.000000
  0.045250501   -5.086561   -1.912135 -100.685825   16.531727    0.000000    0.000000    0.000000    0.000000
  0.045450902   -5.129000   -3.800358 -100.055600   12.265648    0.000000    0.000000    0.000000    0.000000
  0.045651303   -5.173505   -5.700282 -102.016454    8.384056    0.000000    0.000000    0.000000    0.000000
  0.045851703   -5.217933   -7.561984 -102.028265    7.757311    0.000000    0.000000    0.000000    0.000000
  0.046052104   -5.261666   -9.441199 -102.268475   -2.835177    0.000000    0.000000    0.000000    0.000000
  0.046252505   -5.300941  -11.308360 -101.551642   12.314850    0.000000    0.000000    0.000000    0.000000
  0.046452906   -5.338926  -13.171274 -102.784790   -1.705974    0.000000    0.000000    0.000000    0.000000
  0.046653307   -5.375475  -15.042513 -102.466410   -3.653324    0.000000    0.000000    0.000000    0.000000
  0.046853707   -5.410163  -16.883617  -99.518236    2.147148    0.000000    0.000000    0.000000    0.000000
  0.047054108   -5.444691  -18.727884 -101.505471    2.621966    0.000000    0.000000    0.000000    0.000000
  0.047254509   -5.474883  -20.563427 -100.558032    4.659643    0.000000    0.000000    0.000000    0.000000
  0.047454910   -5.505497  -22.363289 -101.184919  -10.873021    0.000000    0.000000    0.000000    0.000000
  0.047655311   -5.535846  -24.159550 -101.435255   -4.102711    0.000000    0.000000    0.000000    0.000000
  0.047855711   -5.566497  -25.912968 -101.067837   -3.381129    0.000000    0.000000    0.000000    0.000000
  0.048056112   -5.599735  -27.681999 -101.362286   -6.324528    0.000000    0.000000    0.000000    0.000000
  0.048256513   -5.628245  -29.445957 -101.460810    9.891848    0.000000    0.000000    0.000000    0.000000
  0.048456914   -5.659051  -31.183882 -103.013362   -2.744108    0.000000    0.000000    0.000000    0.000000
  0.048657315   -5.682476  -32.934391 -102.125670  -12.115176    0.000000    0.000000    0.000000    0.000000
  0.048857715   -5.710463  -34.673550 -103.252891    9.745522    0.000000    0.000000    0.000000    0.000000
  0.049058116   -5.733364  -36.407104 -102.088833   -3.029523    0.000000    0.000000    0.000000    0.000000
  0.049258517   -5.757715  -38.114803 -101.844877    2.998089    0.000000    0.000000    0.000000    0.000000
  0.049458918   -5.780311  -39.839539 -102.802626   -4.254789    0.000000    0.000000    0.000000    0.000000
  0.049659319   -5.805640  -41.506771 -102.933872   -2.262537    0.000000    0.000000    0.000000    0.000000
  0.049859719   -5.824790  -43.203503 -103.280601    0.085017    0.000000    0.000000    0.000000    0.000000
  0.050060120   -5.847687  -44.886333 -101.951925   10.340545    0.000000    0.000000    0.000000    0.000000
  0.050260521   -5.865152  -46.573719 -103.006296    6.018889    0.000000    0.000000    0.000000    0.000000
  0.050460922   -5.881612  -48.261227 -105.190193  -13.041640    0.000000    0.000000    0.000000    0.000000
  0.050661323   -5.891610  -49.901958 -103.884414   -0.376790    0.000000    0.000000    0.000000    0.000000
  0.050861723   -5.909889  -51.555355 -102.336168    4.866537    0.000000    0.000000    0.000000    0.000000
  0.051062124   -5.920971  -53.169865 -102.003870    2.133473    0.000000    0.000000    0.000000    0.000000
  0.051262525   -5.933334  -54.733532 -102.973688    0.557251    0.000000    0.000000    0.000000    0.000000
  0.051462926   -5.946491  -56.313431 -103.011292   18.333649    0.000000    0.000000    0.000000    0.000000
  0.051663327   -5.958443  -57.867290 -102.576256   14.992785    0.000000    0.000000    0.000000    0.000000
  0.051863727   -5.976632  -59.407600 -102.912069   10.335079    0.000000    0.000000    0.000000    0.000000
  0.052064128   -5.990226  -60.979103 -101.008925   16.597683    0.000000    0.000000    0.000000    0.000000
  0.052264529   -6.002157  -62.537128 -101.284374   -6.026637    0.000000    0.000000    0.000000    0.000000
  0.052464930   -6.016584  -64.107117 -101.731480   -2.577721    0.000000    0.000000    0.000000    0.000000
  0.052665331   -6.032086  -65.660873 -101.751480   -0.908279    0.000000    0.000000    0.000000    0.000000
  0.052865731   -6.047320  -67.205696 -100.395622   -0.468954    0.000000    0.000000    0.000000    0.000000
