! Anritsu VNA Master:                     Model: MS2036C/10/77
! SN:                                  1601066
! /bd0/18may09/252.ew.m7.s2p
! Existing Calibration Information:
! TYPE:                         Current Settings,       Active Cal Settings
! TIME:             	   05/09/2018 08:22:29 AM,    05/09/2018 08:17:55 AM
! INTERNAL TEMP:    	                   41.0 C,                    41.3 C
! # POINTS:         	                      500,                       500
! START FREQ:       	               20.000 MHz,                20.000 MHz
! STOP FREQ:        	              120.000 MHz,               120.000 MHz
! SOURCE POWER:     	                     High,                      High
! IFBW:             	                    50 Hz,                     50 Hz
! AVG FACTOR:       	                       1 ,                        1 
! REF PLANE 1:      	                     0 mm,                      0 mm
! REF PLANE 2:      	                     0 mm,                      0 mm
! CAL TYPE:         	                 Full S11,                  Full S11
! CAL METHOD:       	                     SOLT,                      SOLT
! CAL LINE TYPE:    	                     Coax,                      Coax
! DUT PORT 1:       	                K-Conn(F),                 K-Conn(F)
! DUT PORT 2:       	                K-Conn(F),                 K-Conn(F)
! CAL STATUS:       	        OK: Accuracy High,                        --
# GHZ S DB R 50.0
! FREQ.GHZ       S11DB        S11A       S21DB        S21A       S12DB        S12A       S22DB        S22A
  0.020000000   -0.593427 -124.341286  -90.683500   30.489954    0.000000    0.000000    0.000000    0.000000
  0.020200401   -0.593740 -125.780121  -91.104279   30.653736    0.000000    0.000000    0.000000    0.000000
  0.020400802   -0.594534 -127.229210  -91.766420   33.648926    0.000000    0.000000    0.000000    0.000000
  0.020601202   -0.596224 -128.665710  -91.543960   30.139641    0.000000    0.000000    0.000000    0.000000
  0.020801603   -0.602498 -130.152023  -92.601066   30.795778    0.000000    0.000000    0.000000    0.000000
  0.021002004   -0.607936 -131.668396  -92.758953   36.562424    0.000000    0.000000    0.000000    0.000000
  0.021202405   -0.613998 -133.175888  -92.788662   33.701637    0.000000    0.000000    0.000000    0.000000
  0.021402806   -0.618024 -134.684647  -93.556786   33.278049    0.000000    0.000000    0.000000    0.000000
  0.021603206   -0.620726 -136.201111  -92.958020   33.487186    0.000000    0.000000    0.000000    0.000000
  0.021803607   -0.625144 -137.720169  -93.230658   36.605499    0.000000    0.000000    0.000000    0.000000
  0.022004008   -0.631319 -139.236679  -92.793749   39.049622    0.000000    0.000000    0.000000    0.000000
  0.022204409   -0.635167 -140.777863  -93.280988   32.901966    0.000000    0.000000    0.000000    0.000000
  0.022404810   -0.641771 -142.342972  -93.653588   37.224693    0.000000    0.000000    0.000000    0.000000
  0.022605210   -0.644330 -143.907394  -93.239571   38.460575    0.000000    0.000000    0.000000    0.000000
  0.022805611   -0.644814 -145.486130  -93.299388   38.561676    0.000000    0.000000    0.000000    0.000000
  0.023006012   -0.646953 -147.066544  -92.749021   38.302872    0.000000    0.000000    0.000000    0.000000
  0.023206413   -0.648413 -148.632675  -92.612775   34.215527    0.000000    0.000000    0.000000    0.000000
  0.023406814   -0.654627 -150.199310  -92.851691   33.032021    0.000000    0.000000    0.000000    0.000000
  0.023607214   -0.658932 -151.784088  -92.646847   30.865562    0.000000    0.000000    0.000000    0.000000
  0.023807615   -0.667777 -153.382980  -92.617622   32.778606    0.000000    0.000000    0.000000    0.000000
  0.024008016   -0.676032 -155.000000  -92.718356   34.248268    0.000000    0.000000    0.000000    0.000000
  0.024208417   -0.685794 -156.636078  -92.244247   33.080959    0.000000    0.000000    0.000000    0.000000
  0.024408818   -0.694750 -158.258179  -92.903888   28.024649    0.000000    0.000000    0.000000    0.000000
  0.024609218   -0.704466 -159.892563  -93.160506   24.956869    0.000000    0.000000    0.000000    0.000000
  0.024809619   -0.712956 -161.528198  -93.193531   25.072502    0.000000    0.000000    0.000000    0.000000
  0.025010020   -0.724532 -163.181549  -93.583574   29.882010    0.000000    0.000000    0.000000    0.000000
  0.025210421   -0.736353 -164.831604  -94.414855   22.074139    0.000000    0.000000    0.000000    0.000000
  0.025410822   -0.750731 -166.507111  -93.726899   17.624268    0.000000    0.000000    0.000000    0.000000
  0.025611222   -0.765364 -168.202545  -94.210852   18.958597    0.000000    0.000000    0.000000    0.000000
  0.025811623   -0.777169 -169.906189  -93.761614   17.598640    0.000000    0.000000    0.000000    0.000000
  0.026012024   -0.785177 -171.625351  -94.910072   19.946489    0.000000    0.000000    0.000000    0.000000
  0.026212425   -0.797718 -173.338120  -94.695974   20.345699    0.000000    0.000000    0.000000    0.000000
  0.026412826   -0.812110 -175.061340  -95.372240   17.542271    0.000000    0.000000    0.000000    0.000000
  0.026613226   -0.825808 -176.786194  -95.281286   16.665232    0.000000    0.000000    0.000000    0.000000
  0.026813627   -0.841659 -178.536285  -96.201887   17.807690    0.000000    0.000000    0.000000    0.000000
  0.027014028   -0.859127  179.710205  -95.756855   26.511097    0.000000    0.000000    0.000000    0.000000
  0.027214429   -0.874090  177.939697  -95.852336   23.259298    0.000000    0.000000    0.000000    0.000000
  0.027414830   -0.890176  176.163788  -95.444555   24.914543    0.000000    0.000000    0.000000    0.000000
  0.027615230   -0.906019  174.361237  -96.379368   24.600670    0.000000    0.000000    0.000000    0.000000
  0.027815631   -0.927187  172.572845  -95.859885   19.343967    0.000000    0.000000    0.000000    0.000000
  0.028016032   -0.949221  170.754730  -96.534346   18.760670    0.000000    0.000000    0.000000    0.000000
  0.028216433   -0.971228  168.947769  -96.309552   23.506184    0.000000    0.000000    0.000000    0.000000
  0.028416834   -0.992913  167.119598  -95.651811   23.754740    0.000000    0.000000    0.000000    0.000000
  0.028617234   -1.011645  165.299942  -95.559292   18.913458    0.000000    0.000000    0.000000    0.000000
  0.028817635   -1.032070  163.476913  -95.681065   24.628349    0.000000    0.000000    0.000000    0.000000
  0.029018036   -1.052717  161.676895  -95.952846   23.848707    0.000000    0.000000    0.000000    0.000000
  0.029218437   -1.074749  159.848038  -95.922056   19.886246    0.000000    0.000000    0.000000    0.000000
  0.029418838   -1.099569  158.016006  -95.887018   20.605864    0.000000    0.000000    0.000000    0.000000
  0.029619238   -1.127722  156.167786  -96.877725   17.608688    0.000000    0.000000    0.000000    0.000000
  0.029819639   -1.157440  154.296051  -95.545305   17.710350    0.000000    0.000000    0.000000    0.000000
  0.030020040   -1.187809  152.393463  -95.440754   11.385716    0.000000    0.000000    0.000000    0.000000
  0.030220441   -1.217722  150.462418  -95.826349   18.752108    0.000000    0.000000    0.000000    0.000000
  0.030420842   -1.248866  148.553925  -96.879701   12.469931    0.000000    0.000000    0.000000    0.000000
  0.030621242   -1.281749  146.647583  -96.735235   17.968586    0.000000    0.000000    0.000000    0.000000
  0.030821643   -1.315451  144.732147  -96.550225    9.831967    0.000000    0.000000    0.000000    0.000000
  0.031022044   -1.351260  142.796463  -97.221810   13.849919    0.000000    0.000000    0.000000    0.000000
  0.031222445   -1.386860  140.875641  -97.165841   12.609191    0.000000    0.000000    0.000000    0.000000
  0.031422846   -1.422975  138.876984  -96.708556   16.690077    0.000000    0.000000    0.000000    0.000000
  0.031623246   -1.459719  136.872849  -96.670590   13.226159    0.000000    0.000000    0.000000    0.000000
  0.031823647   -1.495728  134.876648  -97.314578    9.601826    0.000000    0.000000    0.000000    0.000000
  0.032024048   -1.530568  132.887115  -98.689538    9.741912    0.000000    0.000000    0.000000    0.000000
  0.032224449   -1.564731  130.907486  -98.618528   11.818676    0.000000    0.000000    0.000000    0.000000
  0.032424850   -1.602568  128.939270  -97.555646    5.542958    0.000000    0.000000    0.000000    0.000000
  0.032625251   -1.640825  126.967018 -100.013603   12.952534    0.000000    0.000000    0.000000    0.000000
  0.032825651   -1.684969  124.997124  -98.612920   14.667514    0.000000    0.000000    0.000000    0.000000
  0.033026052   -1.730706  123.015160  -98.560172   13.113112    0.000000    0.000000    0.000000    0.000000
  0.033226453   -1.781130  121.008194  -97.713335   15.571484    0.000000    0.000000    0.000000    0.000000
  0.033426854   -1.838573  119.008095  -98.300278   13.875267    0.000000    0.000000    0.000000    0.000000
  0.033627255   -1.893039  116.978043  -99.334470   14.517996    0.000000    0.000000    0.000000    0.000000
  0.033827655   -1.945560  114.891594  -97.779382   17.515549    0.000000    0.000000    0.000000    0.000000
  0.034028056   -2.000546  112.790672  -98.820900   19.982225    0.000000    0.000000    0.000000    0.000000
  0.034228457   -2.051485  110.683418  -98.423334   15.022653    0.000000    0.000000    0.000000    0.000000
  0.034428858   -2.101222  108.533028  -98.433124    8.607028    0.000000    0.000000    0.000000    0.000000
  0.034629259   -2.147408  106.437950  -97.621210   12.943172    0.000000    0.000000    0.000000    0.000000
  0.034829659   -2.193781  104.316238  -99.050366    6.674772    0.000000    0.000000    0.000000    0.000000
  0.035030060   -2.237980  102.231514  -98.730562   14.247587    0.000000    0.000000    0.000000    0.000000
  0.035230461   -2.282213  100.139626  -99.007826   14.502273    0.000000    0.000000    0.000000    0.000000
  0.035430862   -2.329185   98.063034  -98.146719    8.348993    0.000000    0.000000    0.000000    0.000000
  0.035631263   -2.374248   95.989906  -99.045371   13.316919    0.000000    0.000000    0.000000    0.000000
  0.035831663   -2.423561   93.931961  -97.855978    5.098230    0.000000    0.000000    0.000000    0.000000
  0.036032064   -2.472556   91.899261 -100.344528   -3.132666    0.000000    0.000000    0.000000    0.000000
  0.036232465   -2.524049   89.872833  -98.731304    5.654038    0.000000    0.000000    0.000000    0.000000
  0.036432866   -2.577301   87.852516  -98.398555    4.706414    0.000000    0.000000    0.000000    0.000000
  0.036633267   -2.636779   85.832375  -97.720243    8.341228    0.000000    0.000000    0.000000    0.000000
  0.036833667   -2.700262   83.802658  -99.279556   -2.384936    0.000000    0.000000    0.000000    0.000000
  0.037034068   -2.764051   81.728378  -98.489587   -4.279639    0.000000    0.000000    0.000000    0.000000
  0.037234469   -2.827044   79.625328  -99.629049    7.192595    0.000000    0.000000    0.000000    0.000000
  0.037434870   -2.895129   77.537323 -100.088228    8.769735    0.000000    0.000000    0.000000    0.000000
  0.037635271   -2.955287   75.443718  -99.368683   -5.432159    0.000000    0.000000    0.000000    0.000000
  0.037835671   -3.016998   73.316162 -100.260151    5.761848    0.000000    0.000000    0.000000    0.000000
  0.038036072   -3.075895   71.144089 -101.735855   13.886446    0.000000    0.000000    0.000000    0.000000
  0.038236473   -3.134448   68.946922 -101.186802   -5.289145    0.000000    0.000000    0.000000    0.000000
  0.038436874   -3.195245   66.780586 -100.231415    9.960040    0.000000    0.000000    0.000000    0.000000
  0.038637275   -3.250017   64.670212  -99.841309   13.176009    0.000000    0.000000    0.000000    0.000000
  0.038837675   -3.304895   62.576836  -98.925931    7.233913    0.000000    0.000000    0.000000    0.000000
  0.039038076   -3.356250   60.521923  -99.022367   16.707237    0.000000    0.000000    0.000000    0.000000
  0.039238477   -3.411861   58.487198  -99.289229   12.559988    0.000000    0.000000    0.000000    0.000000
  0.039438878   -3.474035   56.478172 -100.084433   17.062601    0.000000    0.000000    0.000000    0.000000
  0.039639279   -3.540037   54.431999  -99.394048    9.352725    0.000000    0.000000    0.000000    0.000000
  0.039839679   -3.601569   52.402420 -101.159139    6.008007    0.000000    0.000000    0.000000    0.000000
  0.040040080   -3.671418   50.340439 -100.242283    9.967793    0.000000    0.000000    0.000000    0.000000
  0.040240481   -3.737549   48.254910  -99.391947    6.644229    0.000000    0.000000    0.000000    0.000000
  0.040440882   -3.805937   46.187672  -98.820397    5.983592    0.000000    0.000000    0.000000    0.000000
  0.040641283   -3.873274   44.117008  -99.999822   -2.377079    0.000000    0.000000    0.000000    0.000000
  0.040841683   -3.934800   42.040886  -98.537897    1.307465    0.000000    0.000000    0.000000    0.000000
  0.041042084   -3.996284   39.968952  -98.754911    5.839620    0.000000    0.000000    0.000000    0.000000
  0.041242485   -4.059399   37.891399  -98.554540    2.861712    0.000000    0.000000    0.000000    0.000000
  0.041442886   -4.119336   35.810993  -99.402416    4.196063    0.000000    0.000000    0.000000    0.000000
  0.041643287   -4.178008   33.743614  -98.876323    4.639365    0.000000    0.000000    0.000000    0.000000
  0.041843687   -4.230659   31.664213  -99.925403   -9.430421    0.000000    0.000000    0.000000    0.000000
  0.042044088   -4.285874   29.646870  -99.974580    8.267076    0.000000    0.000000    0.000000    0.000000
  0.042244489   -4.339970   27.618490 -100.254123   -6.990283    0.000000    0.000000    0.000000    0.000000
  0.042444890   -4.391213   25.605906 -102.368972    5.514410    0.000000    0.000000    0.000000    0.000000
  0.042645291   -4.446224   23.599400 -101.898053    7.062071    0.000000    0.000000    0.000000    0.000000
  0.042845691   -4.498262   21.605614 -102.750818    7.054701    0.000000    0.000000    0.000000    0.000000
  0.043046092   -4.551148   19.615652 -101.839425    3.239976    0.000000    0.000000    0.000000    0.000000
  0.043246493   -4.600683   17.619339 -103.633266   -7.684618    0.000000    0.000000    0.000000    0.000000
  0.043446894   -4.652236   15.635852 -100.518138   17.353111    0.000000    0.000000    0.000000    0.000000
  0.043647295   -4.702729   13.677204 -101.794903   10.446015    0.000000    0.000000    0.000000    0.000000
  0.043847695   -4.757149   11.695951 -101.071116   14.757042    0.000000    0.000000    0.000000    0.000000
  0.044048096   -4.807990    9.723987 -105.043891    6.536345    0.000000    0.000000    0.000000    0.000000
  0.044248497   -4.855506    7.762468  -99.675595   15.760607    0.000000    0.000000    0.000000    0.000000
  0.044448898   -4.907813    5.828831 -104.092551   16.639782    0.000000    0.000000    0.000000    0.000000
  0.044649299   -4.953092    3.885442 -103.484729   14.065758    0.000000    0.000000    0.000000    0.000000
  0.044849699   -4.999929    1.938731 -103.721276   18.988720    0.000000    0.000000    0.000000    0.000000
  0.045050100   -5.041081    0.003855 -101.797597    2.176304    0.000000    0.000000    0.000000    0.000000
  0.045250501   -5.082872   -1.901051 -101.227239   22.079300    0.000000    0.000000    0.000000    0.000000
  0.045450902   -5.127988   -3.787024 -102.366238   15.707904    0.000000    0.000000    0.000000    0.000000
  0.045651303   -5.171329   -5.669264 -101.515902   16.646053    0.000000    0.000000    0.000000    0.000000
  0.045851703   -5.214704   -7.537455 -100.451515   11.239779    0.000000    0.000000    0.000000    0.000000
  0.046052104   -5.257298   -9.417376 -102.769427   -1.269234    0.000000    0.000000    0.000000    0.000000
  0.046252505   -5.298015  -11.298910 -102.576334  -11.911160    0.000000    0.000000    0.000000    0.000000
  0.046452906   -5.334059  -13.150389 -101.072236    7.992480    0.000000    0.000000    0.000000    0.000000
  0.046653307   -5.370105  -15.011639 -102.751127    7.481287    0.000000    0.000000    0.000000    0.000000
  0.046853707   -5.404676  -16.855791 -101.124046   -1.888596    0.000000    0.000000    0.000000    0.000000
  0.047054108   -5.439209  -18.699671 -101.959363    1.111835    0.000000    0.000000    0.000000    0.000000
  0.047254509   -5.469466  -20.537390 -101.286548    3.786306    0.000000    0.000000    0.000000    0.000000
  0.047454910   -5.500302  -22.344995 -100.962571    1.112688    0.000000    0.000000    0.000000    0.000000
  0.047655311   -5.532006  -24.124685 -101.379495   -2.816678    0.000000    0.000000    0.000000    0.000000
  0.047855711   -5.563765  -25.873154 -102.203173  -12.168550    0.000000    0.000000    0.000000    0.000000
  0.048056112   -5.596406  -27.653353 -102.886878   -7.272662    0.000000    0.000000    0.000000    0.000000
  0.048256513   -5.624613  -29.407293 -104.583479  -10.794724    0.000000    0.000000    0.000000    0.000000
  0.048456914   -5.655995  -31.155632 -104.764858  -11.544594    0.000000    0.000000    0.000000    0.000000
  0.048657315   -5.679764  -32.920444 -102.382299   -8.333003    0.000000    0.000000    0.000000    0.000000
  0.048857715   -5.706431  -34.639313 -107.136509  -13.700527    0.000000    0.000000    0.000000    0.000000
  0.049058116   -5.730285  -36.365150 -105.682822    7.045433    0.000000    0.000000    0.000000    0.000000
  0.049258517   -5.753209  -38.075970 -104.805055   12.409854    0.000000    0.000000    0.000000    0.000000
  0.049458918   -5.778724  -39.801788 -102.324604    6.988472    0.000000    0.000000    0.000000    0.000000
  0.049659319   -5.802762  -41.464466 -102.400629   11.507624    0.000000    0.000000    0.000000    0.000000
  0.049859719   -5.823982  -43.160553 -103.991200    2.478601    0.000000    0.000000    0.000000    0.000000
  0.050060120   -5.845656  -44.860630 -103.566497    5.343043    0.000000    0.000000    0.000000    0.000000
  0.050260521   -5.863841  -46.537258 -104.602165   11.613021    0.000000    0.000000    0.000000    0.000000
  0.050460922   -5.880149  -48.224339 -102.744648   11.487760    0.000000    0.000000    0.000000    0.000000
  0.050661323   -5.890868  -49.865486 -102.488467    6.710760    0.000000    0.000000    0.000000    0.000000
  0.050861723   -5.905600  -51.526833 -101.332624    2.514554    0.000000    0.000000    0.000000    0.000000
  0.051062124   -5.918518  -53.120136 -101.911159   17.253666    0.000000    0.000000    0.000000    0.000000
  0.051262525   -5.931074  -54.708927 -100.731334   14.691957    0.000000    0.000000    0.000000    0.000000
  0.051462926   -5.944186  -56.268948  -99.683878   14.235575    0.000000    0.000000    0.000000    0.000000
  0.051663327   -5.956465  -57.825363 -101.350534    8.000741    0.000000    0.000000    0.000000    0.000000
  0.051863727   -5.972356  -59.391037 -102.284484    2.865971    0.000000    0.000000    0.000000    0.000000
  0.052064128   -5.987134  -60.946815 -100.941447    8.015595    0.000000    0.000000    0.000000    0.000000
  0.052264529   -5.999670  -62.506092 -102.272305    3.263113    0.000000    0.000000    0.000000    0.000000
  0.052464930   -6.014254  -64.067345 -102.120279   -7.801241    0.000000    0.000000    0.000000    0.000000
  0.052665331   -6.028227  -65.631340 -102.211136    4.151826    0.000000    0.000000    0.000000    0.000000
  0.052865731   -6.045069  -67.184006 -101.451298    3.127398    0.000000    0.000000    0.000000    0.000000
