! Anritsu VNA Master:                     Model: MS2036C/10/77
! SN:                                  1601066
! /bd0/18may07/256.ew.m10.s2p
! Existing Calibration Information:
! TYPE:                         Current Settings,       Active Cal Settings
! TIME:             	   05/07/2018 12:18:43 PM,    05/07/2018 12:05:13 PM
! INTERNAL TEMP:    	                   54.8 C,                    53.5 C
! # POINTS:         	                      500,                       500
! START FREQ:       	               20.000 MHz,                20.000 MHz
! STOP FREQ:        	              120.000 MHz,               120.000 MHz
! SOURCE POWER:     	                     High,                      High
! IFBW:             	                    50 Hz,                     50 Hz
! AVG FACTOR:       	                       1 ,                        1 
! REF PLANE 1:      	                     0 mm,                      0 mm
! REF PLANE 2:      	                     0 mm,                      0 mm
! CAL TYPE:         	                 Full S11,                  Full S11
! CAL METHOD:       	                     SOLT,                      SOLT
! CAL LINE TYPE:    	                     Coax,                      Coax
! DUT PORT 1:       	                K-Conn(F),                 K-Conn(F)
! DUT PORT 2:       	                K-Conn(F),                 K-Conn(F)
! CAL STATUS:       	        OK: Accuracy High,                        --
# GHZ S DB R 50.0
! FREQ.GHZ       S11DB        S11A       S21DB        S21A       S12DB        S12A       S22DB        S22A
  0.020000000   -0.635682 -125.743752  -91.034640   27.001915    0.000000    0.000000    0.000000    0.000000
  0.020200401   -0.632837 -127.208466  -90.800236   30.508142    0.000000    0.000000    0.000000    0.000000
  0.020400802   -0.634395 -128.654892  -91.595257   25.451815    0.000000    0.000000    0.000000    0.000000
  0.020601202   -0.635506 -130.124603  -92.249308   27.288166    0.000000    0.000000    0.000000    0.000000
  0.020801603   -0.639473 -131.625031  -92.433290   30.533890    0.000000    0.000000    0.000000    0.000000
  0.021002004   -0.646964 -133.136810  -91.781408   29.912155    0.000000    0.000000    0.000000    0.000000
  0.021202405   -0.653933 -134.666565  -93.395262   29.988731    0.000000    0.000000    0.000000    0.000000
  0.021402806   -0.659363 -136.197693  -93.609532   32.896484    0.000000    0.000000    0.000000    0.000000
  0.021603206   -0.665436 -137.738693  -93.083331   30.741472    0.000000    0.000000    0.000000    0.000000
  0.021803607   -0.669874 -139.284042  -93.509184   35.486259    0.000000    0.000000    0.000000    0.000000
  0.022004008   -0.674319 -140.826981  -93.562829   32.103535    0.000000    0.000000    0.000000    0.000000
  0.022204409   -0.679348 -142.388550  -92.802285   33.475044    0.000000    0.000000    0.000000    0.000000
  0.022404810   -0.685310 -143.957596  -92.948979   30.222210    0.000000    0.000000    0.000000    0.000000
  0.022605210   -0.691765 -145.545227  -93.712360   37.735130    0.000000    0.000000    0.000000    0.000000
  0.022805611   -0.697124 -147.149323  -93.679442   31.361975    0.000000    0.000000    0.000000    0.000000
  0.023006012   -0.699824 -148.746735  -92.535368   31.488493    0.000000    0.000000    0.000000    0.000000
  0.023206413   -0.700610 -150.327789  -93.235001   32.657703    0.000000    0.000000    0.000000    0.000000
  0.023406814   -0.703496 -151.922623  -93.265406   25.917154    0.000000    0.000000    0.000000    0.000000
  0.023607214   -0.708607 -153.499557  -92.834708   33.176224    0.000000    0.000000    0.000000    0.000000
  0.023807615   -0.716564 -155.107452  -93.133446   29.914667    0.000000    0.000000    0.000000    0.000000
  0.024008016   -0.725413 -156.719864  -92.914095   29.725140    0.000000    0.000000    0.000000    0.000000
  0.024208417   -0.735890 -158.347183  -92.744369   31.756664    0.000000    0.000000    0.000000    0.000000
  0.024408818   -0.745126 -159.991547  -93.301238   20.749701    0.000000    0.000000    0.000000    0.000000
  0.024609218   -0.754286 -161.633347  -93.517769   24.532917    0.000000    0.000000    0.000000    0.000000
  0.024809619   -0.763688 -163.285614  -93.130360   24.210451    0.000000    0.000000    0.000000    0.000000
  0.025010020   -0.776069 -164.927734  -93.779610   19.536894    0.000000    0.000000    0.000000    0.000000
  0.025210421   -0.789057 -166.589554  -94.332225   17.404064    0.000000    0.000000    0.000000    0.000000
  0.025410822   -0.802784 -168.273483  -94.349851   15.035902    0.000000    0.000000    0.000000    0.000000
  0.025611222   -0.816833 -169.959320  -93.850581   12.596984    0.000000    0.000000    0.000000    0.000000
  0.025811623   -0.831055 -171.678879  -94.681648   13.971835    0.000000    0.000000    0.000000    0.000000
  0.026012024   -0.842220 -173.402328  -94.301542   19.952066    0.000000    0.000000    0.000000    0.000000
  0.026212425   -0.853810 -175.122467  -95.097198   21.879156    0.000000    0.000000    0.000000    0.000000
  0.026412826   -0.866998 -176.853790  -95.715979   20.373808    0.000000    0.000000    0.000000    0.000000
  0.026613226   -0.882980 -178.605667  -95.846338   23.891853    0.000000    0.000000    0.000000    0.000000
  0.026813627   -0.899359  179.631531  -95.357710   18.191177    0.000000    0.000000    0.000000    0.000000
  0.027014028   -0.918294  177.860336  -96.013670   18.386480    0.000000    0.000000    0.000000    0.000000
  0.027214429   -0.935141  176.079727  -96.532059   14.559783    0.000000    0.000000    0.000000    0.000000
  0.027414830   -0.953777  174.274170  -96.611404   23.272465    0.000000    0.000000    0.000000    0.000000
  0.027615230   -0.969610  172.474442  -95.994916   21.781752    0.000000    0.000000    0.000000    0.000000
  0.027815631   -0.991085  170.655914  -95.458194   19.452662    0.000000    0.000000    0.000000    0.000000
  0.028016032   -1.011568  168.833649  -96.714298   24.664761    0.000000    0.000000    0.000000    0.000000
  0.028216433   -1.034068  166.989136  -96.239747   15.553167    0.000000    0.000000    0.000000    0.000000
  0.028416834   -1.056788  165.158737  -96.434239   13.700635    0.000000    0.000000    0.000000    0.000000
  0.028617234   -1.076404  163.316010  -96.888327   22.478140    0.000000    0.000000    0.000000    0.000000
  0.028817635   -1.096008  161.482895  -96.995280   23.029493    0.000000    0.000000    0.000000    0.000000
  0.029018036   -1.118222  159.663910  -95.613493   21.992949    0.000000    0.000000    0.000000    0.000000
  0.029218437   -1.138403  157.844559  -95.886735   24.035614    0.000000    0.000000    0.000000    0.000000
  0.029418838   -1.162468  156.032181  -96.735918   16.516457    0.000000    0.000000    0.000000    0.000000
  0.029619238   -1.188390  154.190842  -96.284590   15.581195    0.000000    0.000000    0.000000    0.000000
  0.029819639   -1.217718  152.333603  -96.662255   15.427516    0.000000    0.000000    0.000000    0.000000
  0.030020040   -1.248240  150.444473  -96.657838   14.972400    0.000000    0.000000    0.000000    0.000000
  0.030220441   -1.277752  148.551651  -96.185048    4.377020    0.000000    0.000000    0.000000    0.000000
  0.030420842   -1.307053  146.634201  -97.096050   15.098228    0.000000    0.000000    0.000000    0.000000
  0.030621242   -1.337864  144.749100  -96.900949    7.042049    0.000000    0.000000    0.000000    0.000000
  0.030821643   -1.370142  142.854904  -96.929777   13.870504    0.000000    0.000000    0.000000    0.000000
  0.031022044   -1.403827  140.952713  -96.900326   10.271847    0.000000    0.000000    0.000000    0.000000
  0.031222445   -1.437132  139.039200  -97.711285    3.519648    0.000000    0.000000    0.000000    0.000000
  0.031422846   -1.473585  137.080322  -96.858157   10.473999    0.000000    0.000000    0.000000    0.000000
  0.031623246   -1.510742  135.096222  -98.175658   15.390402    0.000000    0.000000    0.000000    0.000000
  0.031823647   -1.547085  133.111893  -96.645201   11.402258    0.000000    0.000000    0.000000    0.000000
  0.032024048   -1.583812  131.110138  -97.802117   15.502316    0.000000    0.000000    0.000000    0.000000
  0.032224449   -1.620072  129.122925  -97.733826   10.103818    0.000000    0.000000    0.000000    0.000000
  0.032424850   -1.656039  127.119995  -97.608250   19.282984    0.000000    0.000000    0.000000    0.000000
  0.032625251   -1.691326  125.129257  -97.547222    9.044719    0.000000    0.000000    0.000000    0.000000
  0.032825651   -1.728120  123.141151  -99.827288    8.812887    0.000000    0.000000    0.000000    0.000000
  0.033026052   -1.769811  121.148010  -97.733612    2.498048    0.000000    0.000000    0.000000    0.000000
  0.033226453   -1.811314  119.165558  -98.786526   21.046907    0.000000    0.000000    0.000000    0.000000
  0.033426854   -1.859372  117.171265  -98.174108   12.301565    0.000000    0.000000    0.000000    0.000000
  0.033627255   -1.910129  115.163544  -97.728903    7.938697    0.000000    0.000000    0.000000    0.000000
  0.033827655   -1.965740  113.128502  -98.798414   26.898632    0.000000    0.000000    0.000000    0.000000
  0.034028056   -2.014030  111.055855  -97.923290   14.077317    0.000000    0.000000    0.000000    0.000000
  0.034228457   -2.064715  108.963394  -99.222743   21.664476    0.000000    0.000000    0.000000    0.000000
  0.034428858   -2.115884  106.825775  -98.995623    6.099006    0.000000    0.000000    0.000000    0.000000
  0.034629259   -2.165146  104.688911  -99.405275   11.749803    0.000000    0.000000    0.000000    0.000000
  0.034829659   -2.209745  102.550171  -98.587974   12.595755    0.000000    0.000000    0.000000    0.000000
  0.035030060   -2.253536  100.449730  -97.819470    7.876040    0.000000    0.000000    0.000000    0.000000
  0.035230461   -2.298035   98.335495  -97.629213   11.273585    0.000000    0.000000    0.000000    0.000000
  0.035430862   -2.341651   96.213715  -99.016799   13.843953    0.000000    0.000000    0.000000    0.000000
  0.035631263   -2.384232   94.140923  -98.905971   13.069563    0.000000    0.000000    0.000000    0.000000
  0.035831663   -2.426040   92.051491  -99.290420    2.829652    0.000000    0.000000    0.000000    0.000000
  0.036032064   -2.468969   89.997787 -100.036914   -4.367142    0.000000    0.000000    0.000000    0.000000
  0.036232465   -2.517005   87.942520  -98.160360   13.216717    0.000000    0.000000    0.000000    0.000000
  0.036432866   -2.565986   85.898605  -99.835586    8.004565    0.000000    0.000000    0.000000    0.000000
  0.036633267   -2.617525   83.867203  -99.693328    2.087835    0.000000    0.000000    0.000000    0.000000
  0.036833667   -2.669773   81.830727  -99.172685   -2.851345    0.000000    0.000000    0.000000    0.000000
  0.037034068   -2.728662   79.782906 -100.178140    3.503349    0.000000    0.000000    0.000000    0.000000
  0.037234469   -2.786358   77.729134  -99.036413   -6.123236    0.000000    0.000000    0.000000    0.000000
  0.037434870   -2.847340   75.648163 -100.155665    5.471365    0.000000    0.000000    0.000000    0.000000
  0.037635271   -2.906974   73.534607 -100.290353    1.685571    0.000000    0.000000    0.000000    0.000000
  0.037835671   -2.969158   71.416855 -101.759158    1.474853    0.000000    0.000000    0.000000    0.000000
  0.038036072   -3.030425   69.259361 -100.022460    7.081981    0.000000    0.000000    0.000000    0.000000
  0.038236473   -3.092434   67.099785  -99.726822    1.556057    0.000000    0.000000    0.000000    0.000000
  0.038436874   -3.150793   64.947060 -101.300855   12.015374    0.000000    0.000000    0.000000    0.000000
  0.038637275   -3.206479   62.807804 -101.504413    1.971501    0.000000    0.000000    0.000000    0.000000
  0.038837675   -3.255850   60.655640 -101.278111    8.176430    0.000000    0.000000    0.000000    0.000000
  0.039038076   -3.304740   58.563675 -100.468688    6.059799    0.000000    0.000000    0.000000    0.000000
  0.039238477   -3.352957   56.483696  -99.937467    3.976929    0.000000    0.000000    0.000000    0.000000
  0.039438878   -3.402654   54.428165 -100.397771   13.223697    0.000000    0.000000    0.000000    0.000000
  0.039639279   -3.452979   52.368389  -99.811460    6.835392    0.000000    0.000000    0.000000    0.000000
  0.039839679   -3.511631   50.324013  -99.161036    6.250690    0.000000    0.000000    0.000000    0.000000
  0.040040080   -3.571342   48.242191  -99.601954   21.533087    0.000000    0.000000    0.000000    0.000000
  0.040240481   -3.630280   46.160690 -100.171120    5.571404    0.000000    0.000000    0.000000    0.000000
  0.040440882   -3.690784   44.070667  -99.998229    9.663695    0.000000    0.000000    0.000000    0.000000
  0.040641283   -3.751947   41.986732  -98.202133    6.074783    0.000000    0.000000    0.000000    0.000000
  0.040841683   -3.809655   39.904449 -100.562587   11.844928    0.000000    0.000000    0.000000    0.000000
  0.041042084   -3.867214   37.840008 -100.311479    9.160333    0.000000    0.000000    0.000000    0.000000
  0.041242485   -3.923680   35.766750 -100.980864    7.780356    0.000000    0.000000    0.000000    0.000000
  0.041442886   -3.977997   33.689541 -101.046716   15.125473    0.000000    0.000000    0.000000    0.000000
  0.041643287   -4.032466   31.624588 -101.846673    3.600324    0.000000    0.000000    0.000000    0.000000
  0.041843687   -4.084124   29.547880 -101.006241   -6.193769    0.000000    0.000000    0.000000    0.000000
  0.042044088   -4.134052   27.488171 -100.289178    9.776616    0.000000    0.000000    0.000000    0.000000
  0.042244489   -4.184564   25.460424 -101.707886    6.552037    0.000000    0.000000    0.000000    0.000000
  0.042444890   -4.233942   23.437071 -102.688787    2.355755    0.000000    0.000000    0.000000    0.000000
  0.042645291   -4.285009   21.430637 -103.031885  -11.148620    0.000000    0.000000    0.000000    0.000000
  0.042845691   -4.334757   19.436335 -101.754860    8.115118    0.000000    0.000000    0.000000    0.000000
  0.043046092   -4.385482   17.427128 -102.394894    8.982999    0.000000    0.000000    0.000000    0.000000
  0.043246493   -4.434060   15.436425 -102.297658   -9.684845    0.000000    0.000000    0.000000    0.000000
  0.043446894   -4.482718   13.455724 -101.808449    5.949671    0.000000    0.000000    0.000000    0.000000
  0.043647295   -4.530259   11.474395 -105.292228   -5.857133    0.000000    0.000000    0.000000    0.000000
  0.043847695   -4.581919    9.498399 -102.018467   -4.097651    0.000000    0.000000    0.000000    0.000000
  0.044048096   -4.627487    7.519743 -102.067875    8.209893    0.000000    0.000000    0.000000    0.000000
  0.044248497   -4.676075    5.545402 -102.954214    8.553313    0.000000    0.000000    0.000000    0.000000
  0.044448898   -4.721594    3.606307 -104.549724    5.803764    0.000000    0.000000    0.000000    0.000000
  0.044649299   -4.767812    1.646050 -101.801573    4.237272    0.000000    0.000000    0.000000    0.000000
  0.044849699   -4.813273   -0.287492  -99.930831   12.157295    0.000000    0.000000    0.000000    0.000000
  0.045050100   -4.855550   -2.223561 -102.022579   17.458225    0.000000    0.000000    0.000000    0.000000
  0.045250501   -4.895494   -4.164997 -102.131097   34.083248    0.000000    0.000000    0.000000    0.000000
  0.045450902   -4.932477   -6.088610 -101.287329   -6.882190    0.000000    0.000000    0.000000    0.000000
  0.045651303   -4.970757   -7.997588 -100.673835    6.017445    0.000000    0.000000    0.000000    0.000000
  0.045851703   -5.009501   -9.900057 -102.536299    8.372548    0.000000    0.000000    0.000000    0.000000
  0.046052104   -5.048136  -11.788692 -100.526709    7.392230    0.000000    0.000000    0.000000    0.000000
  0.046252505   -5.083357  -13.677888 -101.433815    3.526024    0.000000    0.000000    0.000000    0.000000
  0.046452906   -5.119378  -15.546538 -102.425919    6.420264    0.000000    0.000000    0.000000    0.000000
  0.046653307   -5.156156  -17.422098 -100.464133   -2.199341    0.000000    0.000000    0.000000    0.000000
  0.046853707   -5.189389  -19.279898 -102.772960    8.887853    0.000000    0.000000    0.000000    0.000000
  0.047054108   -5.221246  -21.133539 -101.131844    1.388505    0.000000    0.000000    0.000000    0.000000
  0.047254509   -5.252858  -22.982000 -100.173184   -1.994582    0.000000    0.000000    0.000000    0.000000
  0.047454910   -5.282966  -24.788080 -102.175013    3.241353    0.000000    0.000000    0.000000    0.000000
  0.047655311   -5.307614  -26.601871 -105.007223    7.112727    0.000000    0.000000    0.000000    0.000000
  0.047855711   -5.333697  -28.369726 -102.840161    3.713626    0.000000    0.000000    0.000000    0.000000
  0.048056112   -5.362388  -30.125420 -103.897160   10.291587    0.000000    0.000000    0.000000    0.000000
  0.048256513   -5.391729  -31.882479 -102.824097   -8.713945    0.000000    0.000000    0.000000    0.000000
  0.048456914   -5.418504  -33.626522 -102.432518   -9.026388    0.000000    0.000000    0.000000    0.000000
  0.048657315   -5.447980  -35.373722 -102.836576    0.699683    0.000000    0.000000    0.000000    0.000000
  0.048857715   -5.473614  -37.114834 -104.257523  -14.763150    0.000000    0.000000    0.000000    0.000000
  0.049058116   -5.498390  -38.851822 -101.771073    1.949569    0.000000    0.000000    0.000000    0.000000
  0.049258517   -5.521078  -40.586250 -102.491639   -7.630319    0.000000    0.000000    0.000000    0.000000
  0.049458918   -5.546339  -42.307953 -103.827100   -5.088777    0.000000    0.000000    0.000000    0.000000
  0.049659319   -5.570674  -43.997906 -102.529909    8.757966    0.000000    0.000000    0.000000    0.000000
  0.049859719   -5.597508  -45.709110 -103.533648   29.917957    0.000000    0.000000    0.000000    0.000000
  0.050060120   -5.620249  -47.390991 -103.330252    8.919541    0.000000    0.000000    0.000000    0.000000
  0.050260521   -5.642535  -49.086975 -102.820839    6.282319    0.000000    0.000000    0.000000    0.000000
  0.050460922   -5.663346  -50.777493 -106.283045   10.928858    0.000000    0.000000    0.000000    0.000000
  0.050661323   -5.679682  -52.455559 -103.360247    9.945428    0.000000    0.000000    0.000000    0.000000
  0.050861723   -5.693850  -54.112183 -103.572295   -5.314472    0.000000    0.000000    0.000000    0.000000
  0.051062124   -5.708167  -55.772839 -102.301624   17.454205    0.000000    0.000000    0.000000    0.000000
  0.051262525   -5.725071  -57.382202 -102.131469   14.459816    0.000000    0.000000    0.000000    0.000000
  0.051462926   -5.741112  -58.959606 -102.331681   18.402128    0.000000    0.000000    0.000000    0.000000
  0.051663327   -5.755081  -60.527504 -101.163541    8.611881    0.000000    0.000000    0.000000    0.000000
  0.051863727   -5.768894  -62.066380 -100.867309    6.188634    0.000000    0.000000    0.000000    0.000000
  0.052064128   -5.783386  -63.627735 -101.378542   12.816267    0.000000    0.000000    0.000000    0.000000
  0.052264529   -5.800342  -65.154854 -102.964965    8.820929    0.000000    0.000000    0.000000    0.000000
  0.052464930   -5.816305  -66.695679 -101.232170    1.834709    0.000000    0.000000    0.000000    0.000000
  0.052665331   -5.829968  -68.261238 -101.834047    2.101621    0.000000    0.000000    0.000000    0.000000
  0.052865731   -5.846528  -69.779060 -101.724020    0.003139    0.000000    0.000000    0.000000    0.000000
