! Anritsu VNA Master:                     Model: MS2036C/10/77
! SN:                                  1601066
! /bd0/18may07/256.ew.m7_.s2p
! Existing Calibration Information:
! TYPE:                         Current Settings,       Active Cal Settings
! TIME:             	   05/07/2018 12:12:58 PM,    05/07/2018 12:05:13 PM
! INTERNAL TEMP:    	                   54.3 C,                    53.5 C
! # POINTS:         	                      500,                       500
! START FREQ:       	               20.000 MHz,                20.000 MHz
! STOP FREQ:        	              120.000 MHz,               120.000 MHz
! SOURCE POWER:     	                     High,                      High
! IFBW:             	                    50 Hz,                     50 Hz
! AVG FACTOR:       	                       1 ,                        1 
! REF PLANE 1:      	                     0 mm,                      0 mm
! REF PLANE 2:      	                     0 mm,                      0 mm
! CAL TYPE:         	                 Full S11,                  Full S11
! CAL METHOD:       	                     SOLT,                      SOLT
! CAL LINE TYPE:    	                     Coax,                      Coax
! DUT PORT 1:       	                K-Conn(F),                 K-Conn(F)
! DUT PORT 2:       	                K-Conn(F),                 K-Conn(F)
! CAL STATUS:       	        OK: Accuracy High,                        --
# GHZ S DB R 50.0
! FREQ.GHZ       S11DB        S11A       S21DB        S21A       S12DB        S12A       S22DB        S22A
  0.020000000   -0.627018 -125.780205  -91.126173   31.339401    0.000000    0.000000    0.000000    0.000000
  0.020200401   -0.625862 -127.244377  -91.538587   28.548731    0.000000    0.000000    0.000000    0.000000
  0.020400802   -0.627390 -128.705109  -91.788493   28.596992    0.000000    0.000000    0.000000    0.000000
  0.020601202   -0.629195 -130.167435  -92.092013   24.726032    0.000000    0.000000    0.000000    0.000000
  0.020801603   -0.632931 -131.667328  -92.316698   29.164738    0.000000    0.000000    0.000000    0.000000
  0.021002004   -0.639120 -133.185394  -92.926516   27.967947    0.000000    0.000000    0.000000    0.000000
  0.021202405   -0.646256 -134.717590  -92.972897   30.986902    0.000000    0.000000    0.000000    0.000000
  0.021402806   -0.652111 -136.248047  -92.715612   30.981131    0.000000    0.000000    0.000000    0.000000
  0.021603206   -0.657560 -137.791199  -93.229440   26.937073    0.000000    0.000000    0.000000    0.000000
  0.021803607   -0.661080 -139.340210  -94.216319   31.071146    0.000000    0.000000    0.000000    0.000000
  0.022004008   -0.666872 -140.879974  -93.364736   29.156019    0.000000    0.000000    0.000000    0.000000
  0.022204409   -0.672905 -142.433762  -92.908752   35.634773    0.000000    0.000000    0.000000    0.000000
  0.022404810   -0.677976 -144.011063  -93.510972   33.795086    0.000000    0.000000    0.000000    0.000000
  0.022605210   -0.685345 -145.597412  -93.228134   37.014145    0.000000    0.000000    0.000000    0.000000
  0.022805611   -0.690121 -147.200317  -93.622286   35.312061    0.000000    0.000000    0.000000    0.000000
  0.023006012   -0.694884 -148.790817  -92.756580   34.477825    0.000000    0.000000    0.000000    0.000000
  0.023206413   -0.695796 -150.382095  -93.054789   35.572559    0.000000    0.000000    0.000000    0.000000
  0.023406814   -0.697166 -151.967743  -93.174251   33.627495    0.000000    0.000000    0.000000    0.000000
  0.023607214   -0.701853 -153.554230  -92.328888   31.549179    0.000000    0.000000    0.000000    0.000000
  0.023807615   -0.709870 -155.155075  -93.334496   31.712732    0.000000    0.000000    0.000000    0.000000
  0.024008016   -0.720198 -156.771515  -93.531178   31.020729    0.000000    0.000000    0.000000    0.000000
  0.024208417   -0.729265 -158.402878  -93.276881   27.615225    0.000000    0.000000    0.000000    0.000000
  0.024408818   -0.739240 -160.042206  -92.446323   22.808264    0.000000    0.000000    0.000000    0.000000
  0.024609218   -0.748116 -161.687851  -93.100800   20.905260    0.000000    0.000000    0.000000    0.000000
  0.024809619   -0.758536 -163.337784  -93.249668   21.597916    0.000000    0.000000    0.000000    0.000000
  0.025010020   -0.770659 -164.982925  -93.272610   22.543585    0.000000    0.000000    0.000000    0.000000
  0.025210421   -0.783503 -166.640442  -93.543775   22.071312    0.000000    0.000000    0.000000    0.000000
  0.025410822   -0.796807 -168.323807  -93.534720   20.049852    0.000000    0.000000    0.000000    0.000000
  0.025611222   -0.810793 -170.016693  -94.046707   16.863811    0.000000    0.000000    0.000000    0.000000
  0.025811623   -0.824778 -171.722046  -94.646900   15.293885    0.000000    0.000000    0.000000    0.000000
  0.026012024   -0.835982 -173.449326  -95.104679   22.182159    0.000000    0.000000    0.000000    0.000000
  0.026212425   -0.847691 -175.177368  -95.623249   16.014175    0.000000    0.000000    0.000000    0.000000
  0.026412826   -0.861058 -176.907013  -95.167925   18.143095    0.000000    0.000000    0.000000    0.000000
  0.026613226   -0.876878 -178.654480  -95.951451   10.718436    0.000000    0.000000    0.000000    0.000000
  0.026813627   -0.892869  179.576523  -96.658209   13.411877    0.000000    0.000000    0.000000    0.000000
  0.027014028   -0.910798  177.809433  -96.425799   20.304615    0.000000    0.000000    0.000000    0.000000
  0.027214429   -0.927935  176.027451  -96.113229   24.174105    0.000000    0.000000    0.000000    0.000000
  0.027414830   -0.946070  174.225418  -96.141078   18.473001    0.000000    0.000000    0.000000    0.000000
  0.027615230   -0.962142  172.423920  -95.604235   18.967663    0.000000    0.000000    0.000000    0.000000
  0.027815631   -0.982915  170.606049  -97.183427   22.188831    0.000000    0.000000    0.000000    0.000000
  0.028016032   -1.003780  168.771301  -96.797856   20.827623    0.000000    0.000000    0.000000    0.000000
  0.028216433   -1.026038  166.935120  -96.308300   20.553116    0.000000    0.000000    0.000000    0.000000
  0.028416834   -1.048488  165.101746  -96.202544   24.105318    0.000000    0.000000    0.000000    0.000000
  0.028617234   -1.068671  163.261322  -96.525923   21.638475    0.000000    0.000000    0.000000    0.000000
  0.028817635   -1.088679  161.421951  -96.490659   24.474298    0.000000    0.000000    0.000000    0.000000
  0.029018036   -1.110688  159.608841  -96.559468   26.254953    0.000000    0.000000    0.000000    0.000000
  0.029218437   -1.132083  157.780533  -96.954020   25.813343    0.000000    0.000000    0.000000    0.000000
  0.029418838   -1.154984  155.966354  -96.271145   20.337410    0.000000    0.000000    0.000000    0.000000
  0.029619238   -1.181806  154.127228  -96.041652   21.908426    0.000000    0.000000    0.000000    0.000000
  0.029819639   -1.211485  152.265060  -96.105059   20.537338    0.000000    0.000000    0.000000    0.000000
  0.030020040   -1.242355  150.377304  -95.640006   14.306455    0.000000    0.000000    0.000000    0.000000
  0.030220441   -1.271484  148.475510  -96.829592   16.598097    0.000000    0.000000    0.000000    0.000000
  0.030420842   -1.301372  146.561783  -96.987808   15.729656    0.000000    0.000000    0.000000    0.000000
  0.030621242   -1.331462  144.671829  -96.490409    8.529858    0.000000    0.000000    0.000000    0.000000
  0.030821643   -1.363326  142.771347  -96.598639   12.993953    0.000000    0.000000    0.000000    0.000000
  0.031022044   -1.397519  140.862320  -97.200697   13.826230    0.000000    0.000000    0.000000    0.000000
  0.031222445   -1.429331  138.947556  -96.524373   12.463689    0.000000    0.000000    0.000000    0.000000
  0.031422846   -1.465433  136.986938  -96.798694    2.651040    0.000000    0.000000    0.000000    0.000000
  0.031623246   -1.503938  135.006699  -96.683786    8.333925    0.000000    0.000000    0.000000    0.000000
  0.031823647   -1.539991  133.006912  -97.435109   10.413949    0.000000    0.000000    0.000000    0.000000
  0.032024048   -1.574910  131.008591  -97.609338    7.878674    0.000000    0.000000    0.000000    0.000000
  0.032224449   -1.611095  129.015198  -98.249896   18.632425    0.000000    0.000000    0.000000    0.000000
  0.032424850   -1.646706  127.002380  -97.406868   10.421777    0.000000    0.000000    0.000000    0.000000
  0.032625251   -1.682946  125.018608  -97.039536   15.620383    0.000000    0.000000    0.000000    0.000000
  0.032825651   -1.718974  123.037292  -98.397347    7.248709    0.000000    0.000000    0.000000    0.000000
  0.033026052   -1.760155  121.049171  -99.335033    7.907063    0.000000    0.000000    0.000000    0.000000
  0.033226453   -1.802019  119.057304  -97.629439   12.101689    0.000000    0.000000    0.000000    0.000000
  0.033426854   -1.850373  117.062927  -99.369133    7.116438    0.000000    0.000000    0.000000    0.000000
  0.033627255   -1.900650  115.065300  -98.015890    9.489098    0.000000    0.000000    0.000000    0.000000
  0.033827655   -1.956439  113.017838  -99.145033    9.520745    0.000000    0.000000    0.000000    0.000000
  0.034028056   -2.005500  110.955818  -99.003391   12.618521    0.000000    0.000000    0.000000    0.000000
  0.034228457   -2.054816  108.858643  -98.042690    8.828719    0.000000    0.000000    0.000000    0.000000
  0.034428858   -2.106834  106.730179  -98.557297   12.949653    0.000000    0.000000    0.000000    0.000000
  0.034629259   -2.156862  104.591095  -98.996766    4.445140    0.000000    0.000000    0.000000    0.000000
  0.034829659   -2.199218  102.460785  -98.923691    8.818101    0.000000    0.000000    0.000000    0.000000
  0.035030060   -2.243976  100.348808  -98.272479   13.575356    0.000000    0.000000    0.000000    0.000000
  0.035230461   -2.289329   98.252556  -97.663161   15.218762    0.000000    0.000000    0.000000    0.000000
  0.035430862   -2.331880   96.133934  -97.107322   11.696680    0.000000    0.000000    0.000000    0.000000
  0.035631263   -2.375019   94.059242  -98.613760   16.635618    0.000000    0.000000    0.000000    0.000000
  0.035831663   -2.416985   91.979111  -99.166533   14.240084    0.000000    0.000000    0.000000    0.000000
  0.036032064   -2.459457   89.923393  -98.528001    5.379016    0.000000    0.000000    0.000000    0.000000
  0.036232465   -2.506992   87.863564  -98.135326    2.126217    0.000000    0.000000    0.000000    0.000000
  0.036432866   -2.556082   85.829353  -98.440163    6.632034    0.000000    0.000000    0.000000    0.000000
  0.036633267   -2.608057   83.797852  -99.256319    7.564928    0.000000    0.000000    0.000000    0.000000
  0.036833667   -2.660231   81.757591  -99.980760    5.581361    0.000000    0.000000    0.000000    0.000000
  0.037034068   -2.718639   79.708977  -98.465106   -1.012821    0.000000    0.000000    0.000000    0.000000
  0.037234469   -2.777363   77.639412  -99.058969    4.030873    0.000000    0.000000    0.000000    0.000000
  0.037434870   -2.837728   75.569901 -100.426821   10.092996    0.000000    0.000000    0.000000    0.000000
  0.037635271   -2.897548   73.452370  -98.529588    0.058045    0.000000    0.000000    0.000000    0.000000
  0.037835671   -2.960809   71.328667  -98.842295    6.571253    0.000000    0.000000    0.000000    0.000000
  0.038036072   -3.020488   69.166512  -99.180480    5.348792    0.000000    0.000000    0.000000    0.000000
  0.038236473   -3.082488   67.001862 -100.640636    2.399449    0.000000    0.000000    0.000000    0.000000
  0.038436874   -3.140573   64.846222  -99.162565    2.634664    0.000000    0.000000    0.000000    0.000000
  0.038637275   -3.197020   62.707066 -100.087755    2.484589    0.000000    0.000000    0.000000    0.000000
  0.038837675   -3.244430   60.562981 -100.430215   12.534384    0.000000    0.000000    0.000000    0.000000
  0.039038076   -3.292867   58.452515  -99.017412    0.808390    0.000000    0.000000    0.000000    0.000000
  0.039238477   -3.340855   56.368458 -100.755583   14.113237    0.000000    0.000000    0.000000    0.000000
  0.039438878   -3.390394   54.306759 -100.133798   10.750839    0.000000    0.000000    0.000000    0.000000
  0.039639279   -3.441692   52.256966  -99.748429   15.177962    0.000000    0.000000    0.000000    0.000000
  0.039839679   -3.500013   50.208458 -100.029605   10.780000    0.000000    0.000000    0.000000    0.000000
  0.040040080   -3.560984   48.133278 -101.004031   12.985492    0.000000    0.000000    0.000000    0.000000
  0.040240481   -3.619703   46.050041 -101.539320   11.437700    0.000000    0.000000    0.000000    0.000000
  0.040440882   -3.679034   43.960583  -99.991246   11.596572    0.000000    0.000000    0.000000    0.000000
  0.040641283   -3.739851   41.893703  -99.801050    1.264915    0.000000    0.000000    0.000000    0.000000
  0.040841683   -3.799522   39.799278 -101.020455   -0.669003    0.000000    0.000000    0.000000    0.000000
  0.041042084   -3.854688   37.729702 -100.580824   12.370925    0.000000    0.000000    0.000000    0.000000
  0.041242485   -3.912835   35.653282 -100.066459   10.635817    0.000000    0.000000    0.000000    0.000000
  0.041442886   -3.965847   33.583046 -100.289980    4.934699    0.000000    0.000000    0.000000    0.000000
  0.041643287   -4.020213   31.507151 -101.257287   10.683231    0.000000    0.000000    0.000000    0.000000
  0.041843687   -4.073092   29.435871 -100.126945   -2.793550    0.000000    0.000000    0.000000    0.000000
  0.042044088   -4.121416   27.371920 -101.138173    6.406210    0.000000    0.000000    0.000000    0.000000
  0.042244489   -4.172551   25.349419  -99.806110   10.022017    0.000000    0.000000    0.000000    0.000000
  0.042444890   -4.224083   23.321297 -101.281500   -2.623743    0.000000    0.000000    0.000000    0.000000
  0.042645291   -4.274695   21.303619 -101.889784    7.346971    0.000000    0.000000    0.000000    0.000000
  0.042845691   -4.323706   19.308428 -100.817237    6.133202    0.000000    0.000000    0.000000    0.000000
  0.043046092   -4.375697   17.304554 -101.206172   -0.800559    0.000000    0.000000    0.000000    0.000000
  0.043246493   -4.423568   15.308464 -103.036405   -0.666912    0.000000    0.000000    0.000000    0.000000
  0.043446894   -4.472325   13.321555 -103.504609   -1.504649    0.000000    0.000000    0.000000    0.000000
  0.043647295   -4.522133   11.335142 -102.150221    6.810384    0.000000    0.000000    0.000000    0.000000
  0.043847695   -4.569899    9.356264 -103.363746   10.277891    0.000000    0.000000    0.000000    0.000000
  0.044048096   -4.617741    7.386951 -102.253076    1.366054    0.000000    0.000000    0.000000    0.000000
  0.044248497   -4.665125    5.406623 -100.512307   -4.440788    0.000000    0.000000    0.000000    0.000000
  0.044448898   -4.712117    3.458683 -102.408433    6.094684    0.000000    0.000000    0.000000    0.000000
  0.044649299   -4.756576    1.502938 -102.318701    1.052148    0.000000    0.000000    0.000000    0.000000
  0.044849699   -4.800720   -0.430421 -102.549068    6.524807    0.000000    0.000000    0.000000    0.000000
  0.045050100   -4.844820   -2.381128 -102.392757   24.648092    0.000000    0.000000    0.000000    0.000000
  0.045250501   -4.884089   -4.311698 -102.090894    6.169317    0.000000    0.000000    0.000000    0.000000
  0.045450902   -4.924453   -6.215724 -100.253844    6.079978    0.000000    0.000000    0.000000    0.000000
  0.045651303   -4.964434   -8.129818 -101.893374    2.863811    0.000000    0.000000    0.000000    0.000000
  0.045851703   -5.001721  -10.048815 -100.965282    9.797794    0.000000    0.000000    0.000000    0.000000
  0.046052104   -5.037984  -11.923306 -100.888396   11.018889    0.000000    0.000000    0.000000    0.000000
  0.046252505   -5.075230  -13.811380 -100.489420    3.852219    0.000000    0.000000    0.000000    0.000000
  0.046452906   -5.112839  -15.676332 -102.241891    1.268445    0.000000    0.000000    0.000000    0.000000
  0.046653307   -5.146144  -17.537930 -101.929752    4.797472    0.000000    0.000000    0.000000    0.000000
  0.046853707   -5.180754  -19.407276 -101.880448    0.765992    0.000000    0.000000    0.000000    0.000000
  0.047054108   -5.209971  -21.248207 -100.954830    8.265850    0.000000    0.000000    0.000000    0.000000
  0.047254509   -5.241730  -23.094883 -100.785718  -12.816200    0.000000    0.000000    0.000000    0.000000
  0.047454910   -5.274255  -24.912893 -101.417008   -2.010739    0.000000    0.000000    0.000000    0.000000
  0.047655311   -5.301216  -26.723791 -103.020241   -4.405631    0.000000    0.000000    0.000000    0.000000
  0.047855711   -5.327404  -28.498182 -102.482030   -3.418690    0.000000    0.000000    0.000000    0.000000
  0.048056112   -5.353933  -30.237797 -102.498774   -8.807160    0.000000    0.000000    0.000000    0.000000
  0.048256513   -5.383223  -31.995642 -102.995381    2.052280    0.000000    0.000000    0.000000    0.000000
  0.048456914   -5.410709  -33.743927 -103.289968    1.409102    0.000000    0.000000    0.000000    0.000000
  0.048657315   -5.440253  -35.481434 -104.709839   -7.324969    0.000000    0.000000    0.000000    0.000000
  0.048857715   -5.464459  -37.230595 -103.880601    7.460046    0.000000    0.000000    0.000000    0.000000
  0.049058116   -5.489870  -38.964043 -106.413754    1.830200    0.000000    0.000000    0.000000    0.000000
  0.049258517   -5.512260  -40.699345 -105.690592    4.960544    0.000000    0.000000    0.000000    0.000000
  0.049458918   -5.536609  -42.409096 -104.310155    0.879297    0.000000    0.000000    0.000000    0.000000
  0.049659319   -5.560183  -44.100262 -102.831610   22.864815    0.000000    0.000000    0.000000    0.000000
  0.049859719   -5.589428  -45.806999 -102.440144    8.571982    0.000000    0.000000    0.000000    0.000000
  0.050060120   -5.610681  -47.504017 -103.799253    4.962874    0.000000    0.000000    0.000000    0.000000
  0.050260521   -5.634485  -49.197571 -105.537087    9.117902    0.000000    0.000000    0.000000    0.000000
  0.050460922   -5.656636  -50.875103 -103.367130    6.933744    0.000000    0.000000    0.000000    0.000000
  0.050661323   -5.674467  -52.558022 -102.600114   20.460817    0.000000    0.000000    0.000000    0.000000
  0.050861723   -5.688632  -54.212444 -102.773751   -0.787059    0.000000    0.000000    0.000000    0.000000
  0.051062124   -5.703501  -55.876827 -103.313027    5.232505    0.000000    0.000000    0.000000    0.000000
  0.051262525   -5.718326  -57.473167 -101.160788    8.832209    0.000000    0.000000    0.000000    0.000000
  0.051462926   -5.735982  -59.066368 -101.868344   16.287457    0.000000    0.000000    0.000000    0.000000
  0.051663327   -5.748265  -60.640484 -102.032458   12.040408    0.000000    0.000000    0.000000    0.000000
  0.051863727   -5.760546  -62.192410 -101.911972    9.892445    0.000000    0.000000    0.000000    0.000000
  0.052064128   -5.778691  -63.735085 -101.370270   -3.068198    0.000000    0.000000    0.000000    0.000000
  0.052264529   -5.791860  -65.264595 -102.375820    4.845996    0.000000    0.000000    0.000000    0.000000
  0.052464930   -5.809425  -66.803467 -102.123676   -9.202991    0.000000    0.000000    0.000000    0.000000
  0.052665331   -5.826040  -68.363808 -101.731164   -4.924876    0.000000    0.000000    0.000000    0.000000
  0.052865731   -5.842408  -69.892990 -101.464109  -10.120550    0.000000    0.000000    0.000000    0.000000
