! Anritsu VNA Master:                     Model: MS2036C/10/77
! SN:                                  1601066
! /bd0/18may07/256.ew.m9.s2p
! Existing Calibration Information:
! TYPE:                         Current Settings,       Active Cal Settings
! TIME:             	   05/07/2018 12:17:07 PM,    05/07/2018 12:05:13 PM
! INTERNAL TEMP:    	                   54.8 C,                    53.5 C
! # POINTS:         	                      500,                       500
! START FREQ:       	               20.000 MHz,                20.000 MHz
! STOP FREQ:        	              120.000 MHz,               120.000 MHz
! SOURCE POWER:     	                     High,                      High
! IFBW:             	                    50 Hz,                     50 Hz
! AVG FACTOR:       	                       1 ,                        1 
! REF PLANE 1:      	                     0 mm,                      0 mm
! REF PLANE 2:      	                     0 mm,                      0 mm
! CAL TYPE:         	                 Full S11,                  Full S11
! CAL METHOD:       	                     SOLT,                      SOLT
! CAL LINE TYPE:    	                     Coax,                      Coax
! DUT PORT 1:       	                K-Conn(F),                 K-Conn(F)
! DUT PORT 2:       	                K-Conn(F),                 K-Conn(F)
! CAL STATUS:       	        OK: Accuracy High,                        --
# GHZ S DB R 50.0
! FREQ.GHZ       S11DB        S11A       S21DB        S21A       S12DB        S12A       S22DB        S22A
  0.020000000   -0.640453 -125.715424  -91.021372   29.511065    0.000000    0.000000    0.000000    0.000000
  0.020200401   -0.637744 -127.181717  -90.626063   27.789639    0.000000    0.000000    0.000000    0.000000
  0.020400802   -0.639034 -128.630341  -91.567032   25.590538    0.000000    0.000000    0.000000    0.000000
  0.020601202   -0.640594 -130.096436  -92.421737   29.742683    0.000000    0.000000    0.000000    0.000000
  0.020801603   -0.644157 -131.591156  -92.753190   30.860512    0.000000    0.000000    0.000000    0.000000
  0.021002004   -0.650605 -133.115326  -93.015927   28.203161    0.000000    0.000000    0.000000    0.000000
  0.021202405   -0.656996 -134.641891  -92.782252   28.045326    0.000000    0.000000    0.000000    0.000000
  0.021402806   -0.663621 -136.180344  -93.865099   30.361860    0.000000    0.000000    0.000000    0.000000
  0.021603206   -0.668409 -137.722458  -92.682151   32.018383    0.000000    0.000000    0.000000    0.000000
  0.021803607   -0.674203 -139.262085  -94.119758   32.575493    0.000000    0.000000    0.000000    0.000000
  0.022004008   -0.677059 -140.808960  -93.630766   34.958221    0.000000    0.000000    0.000000    0.000000
  0.022204409   -0.684329 -142.365799  -93.228919   32.319904    0.000000    0.000000    0.000000    0.000000
  0.022404810   -0.690034 -143.937897  -92.851611   37.755096    0.000000    0.000000    0.000000    0.000000
  0.022605210   -0.695152 -145.523254  -92.677369   36.617725    0.000000    0.000000    0.000000    0.000000
  0.022805611   -0.699245 -147.131256  -92.665594   33.175682    0.000000    0.000000    0.000000    0.000000
  0.023006012   -0.701918 -148.734436  -93.242736   33.788319    0.000000    0.000000    0.000000    0.000000
  0.023206413   -0.703179 -150.318008  -93.130848   29.560129    0.000000    0.000000    0.000000    0.000000
  0.023406814   -0.705957 -151.902634  -93.144370   32.375553    0.000000    0.000000    0.000000    0.000000
  0.023607214   -0.711037 -153.486420  -93.129020   29.666523    0.000000    0.000000    0.000000    0.000000
  0.023807615   -0.719316 -155.088318  -92.671998   24.389736    0.000000    0.000000    0.000000    0.000000
  0.024008016   -0.727043 -156.706543  -92.940772   28.139801    0.000000    0.000000    0.000000    0.000000
  0.024208417   -0.737168 -158.336807  -92.807775   22.515833    0.000000    0.000000    0.000000    0.000000
  0.024408818   -0.747311 -159.975677  -92.768962   25.775616    0.000000    0.000000    0.000000    0.000000
  0.024609218   -0.756959 -161.621368  -93.211802   23.089153    0.000000    0.000000    0.000000    0.000000
  0.024809619   -0.765842 -163.269867  -93.006616   18.043818    0.000000    0.000000    0.000000    0.000000
  0.025010020   -0.778236 -164.917908  -94.039272   21.478941    0.000000    0.000000    0.000000    0.000000
  0.025210421   -0.790155 -166.570999  -93.729919   23.388386    0.000000    0.000000    0.000000    0.000000
  0.025410822   -0.804156 -168.257416  -94.361527   14.384350    0.000000    0.000000    0.000000    0.000000
  0.025611222   -0.818573 -169.937912  -94.961506   14.630607    0.000000    0.000000    0.000000    0.000000
  0.025811623   -0.831837 -171.658813  -95.620967   18.142300    0.000000    0.000000    0.000000    0.000000
  0.026012024   -0.843008 -173.381897  -95.256240   19.420391    0.000000    0.000000    0.000000    0.000000
  0.026212425   -0.854554 -175.110077  -95.256476   17.863703    0.000000    0.000000    0.000000    0.000000
  0.026412826   -0.868662 -176.836609  -95.954042   20.498047    0.000000    0.000000    0.000000    0.000000
  0.026613226   -0.884466 -178.586075  -96.035610   16.891619    0.000000    0.000000    0.000000    0.000000
  0.026813627   -0.901199  179.651291  -96.384160   24.365355    0.000000    0.000000    0.000000    0.000000
  0.027014028   -0.918307  177.883194  -96.783070   18.003456    0.000000    0.000000    0.000000    0.000000
  0.027214429   -0.936478  176.092758  -96.954276   16.611475    0.000000    0.000000    0.000000    0.000000
  0.027414830   -0.954351  174.297836  -95.683556   18.995466    0.000000    0.000000    0.000000    0.000000
  0.027615230   -0.970241  172.495209  -95.929543   17.584534    0.000000    0.000000    0.000000    0.000000
  0.027815631   -0.992681  170.670441  -96.923774   18.559479    0.000000    0.000000    0.000000    0.000000
  0.028016032   -1.013156  168.849838  -96.869684   19.266930    0.000000    0.000000    0.000000    0.000000
  0.028216433   -1.036286  167.004044  -96.761325   20.820463    0.000000    0.000000    0.000000    0.000000
  0.028416834   -1.058093  165.170059  -96.679605   17.084589    0.000000    0.000000    0.000000    0.000000
  0.028617234   -1.077332  163.333054  -96.662620   20.476313    0.000000    0.000000    0.000000    0.000000
  0.028817635   -1.097615  161.493256  -95.901157   26.641296    0.000000    0.000000    0.000000    0.000000
  0.029018036   -1.119984  159.678223  -96.118081   22.914776    0.000000    0.000000    0.000000    0.000000
  0.029218437   -1.140008  157.857727  -96.159259   15.880381    0.000000    0.000000    0.000000    0.000000
  0.029418838   -1.163745  156.039185  -96.995977   24.033381    0.000000    0.000000    0.000000    0.000000
  0.029619238   -1.189347  154.209015  -95.784391   20.485565    0.000000    0.000000    0.000000    0.000000
  0.029819639   -1.219234  152.346161  -96.604678   24.344080    0.000000    0.000000    0.000000    0.000000
  0.030020040   -1.249240  150.460129  -95.908157   14.914399    0.000000    0.000000    0.000000    0.000000
  0.030220441   -1.279052  148.563141  -96.395823   12.441208    0.000000    0.000000    0.000000    0.000000
  0.030420842   -1.308323  146.650940  -96.403296   13.451757    0.000000    0.000000    0.000000    0.000000
  0.030621242   -1.339154  144.762405  -97.028374   14.330804    0.000000    0.000000    0.000000    0.000000
  0.030821643   -1.370026  142.866364  -97.042852    9.175689    0.000000    0.000000    0.000000    0.000000
  0.031022044   -1.403628  140.958466  -97.219261   15.069808    0.000000    0.000000    0.000000    0.000000
  0.031222445   -1.438085  139.047882  -97.220954   14.166501    0.000000    0.000000    0.000000    0.000000
  0.031422846   -1.473790  137.090561  -97.871209   15.268580    0.000000    0.000000    0.000000    0.000000
  0.031623246   -1.513073  135.103241  -96.841043   15.836781    0.000000    0.000000    0.000000    0.000000
  0.031823647   -1.548438  133.115189  -96.514680   10.087148    0.000000    0.000000    0.000000    0.000000
  0.032024048   -1.584358  131.122223  -98.613447    5.802253    0.000000    0.000000    0.000000    0.000000
  0.032224449   -1.620573  129.129791  -98.277134    6.493093    0.000000    0.000000    0.000000    0.000000
  0.032424850   -1.656754  127.126869  -97.383160   10.223891    0.000000    0.000000    0.000000    0.000000
  0.032625251   -1.691187  125.138054  -99.043224   10.258926    0.000000    0.000000    0.000000    0.000000
  0.032825651   -1.730329  123.152092  -98.867515    8.999180    0.000000    0.000000    0.000000    0.000000
  0.033026052   -1.768987  121.160805  -97.653430    8.308949    0.000000    0.000000    0.000000    0.000000
  0.033226453   -1.812659  119.179642  -97.917963   16.640257    0.000000    0.000000    0.000000    0.000000
  0.033426854   -1.860066  117.190941  -97.705242   10.459377    0.000000    0.000000    0.000000    0.000000
  0.033627255   -1.910664  115.174683  -99.553491   18.272102    0.000000    0.000000    0.000000    0.000000
  0.033827655   -1.965462  113.141396  -97.873196   10.747713    0.000000    0.000000    0.000000    0.000000
  0.034028056   -2.015044  111.070053  -98.579627   21.961546    0.000000    0.000000    0.000000    0.000000
  0.034228457   -2.065165  108.972870  -98.912747   10.126794    0.000000    0.000000    0.000000    0.000000
  0.034428858   -2.117779  106.840256 -100.482039   14.037346    0.000000    0.000000    0.000000    0.000000
  0.034629259   -2.165453  104.703812  -99.716259   17.447260    0.000000    0.000000    0.000000    0.000000
  0.034829659   -2.209014  102.570442  -97.630069   17.784781    0.000000    0.000000    0.000000    0.000000
  0.035030060   -2.254434  100.466301  -98.244454   20.482073    0.000000    0.000000    0.000000    0.000000
  0.035230461   -2.298290   98.349777  -98.644688   11.041770    0.000000    0.000000    0.000000    0.000000
  0.035430862   -2.342047   96.230553  -98.693544   11.976955    0.000000    0.000000    0.000000    0.000000
  0.035631263   -2.384513   94.160164  -99.650280    6.476785    0.000000    0.000000    0.000000    0.000000
  0.035831663   -2.426228   92.086533  -98.448954    9.893211    0.000000    0.000000    0.000000    0.000000
  0.036032064   -2.469408   90.028122  -97.949906   13.861898    0.000000    0.000000    0.000000    0.000000
  0.036232465   -2.517077   87.981621 -100.506411   -2.707817    0.000000    0.000000    0.000000    0.000000
  0.036432866   -2.565608   85.931808  -99.007710    9.659327    0.000000    0.000000    0.000000    0.000000
  0.036633267   -2.616160   83.903053  -99.228893    2.520017    0.000000    0.000000    0.000000    0.000000
  0.036833667   -2.669960   81.872818  -98.210780    4.277617    0.000000    0.000000    0.000000    0.000000
  0.037034068   -2.728258   79.821724  -99.918512   -1.831641    0.000000    0.000000    0.000000    0.000000
  0.037234469   -2.787616   77.769188 -100.127822    7.573349    0.000000    0.000000    0.000000    0.000000
  0.037434870   -2.848451   75.689713  -99.729293    9.209027    0.000000    0.000000    0.000000    0.000000
  0.037635271   -2.909116   73.577110 -100.385789    3.332289    0.000000    0.000000    0.000000    0.000000
  0.037835671   -2.970957   71.453712  -98.454551   -3.857965    0.000000    0.000000    0.000000    0.000000
  0.038036072   -3.032026   69.297836  -99.199037    8.717995    0.000000    0.000000    0.000000    0.000000
  0.038236473   -3.091635   67.142403 -101.443787    8.285900    0.000000    0.000000    0.000000    0.000000
  0.038436874   -3.153083   64.988731  -99.157881    5.470347    0.000000    0.000000    0.000000    0.000000
  0.038637275   -3.206269   62.848293 -101.396839    7.274228    0.000000    0.000000    0.000000    0.000000
  0.038837675   -3.256290   60.698936 -100.446034   13.630036    0.000000    0.000000    0.000000    0.000000
  0.039038076   -3.305525   58.603043 -101.487137   10.071589    0.000000    0.000000    0.000000    0.000000
  0.039238477   -3.354850   56.516472 -100.661191    9.067910    0.000000    0.000000    0.000000    0.000000
  0.039438878   -3.404083   54.464252 -101.543035    3.586517    0.000000    0.000000    0.000000    0.000000
  0.039639279   -3.455749   52.409004  -99.352715   10.021651    0.000000    0.000000    0.000000    0.000000
  0.039839679   -3.513844   50.359642  -99.861851   15.973111    0.000000    0.000000    0.000000    0.000000
  0.040040080   -3.573322   48.269806  -99.630964   12.706246    0.000000    0.000000    0.000000    0.000000
  0.040240481   -3.632776   46.192173 -100.069327    3.248583    0.000000    0.000000    0.000000    0.000000
  0.040440882   -3.691901   44.113071 -100.506851    1.136385    0.000000    0.000000    0.000000    0.000000
  0.040641283   -3.753509   42.023567  -99.673060   12.324018    0.000000    0.000000    0.000000    0.000000
  0.040841683   -3.811243   39.944263 -100.674624   13.611078    0.000000    0.000000    0.000000    0.000000
  0.041042084   -3.868317   37.878738 -100.888203   17.435987    0.000000    0.000000    0.000000    0.000000
  0.041242485   -3.926512   35.790421  -99.550112    0.024427    0.000000    0.000000    0.000000    0.000000
  0.041442886   -3.979245   33.729111 -100.649426   -1.143461    0.000000    0.000000    0.000000    0.000000
  0.041643287   -4.033329   31.651325 -100.381015   13.191357    0.000000    0.000000    0.000000    0.000000
  0.041843687   -4.084903   29.579893 -100.255151    0.162902    0.000000    0.000000    0.000000    0.000000
  0.042044088   -4.134381   27.529125 -101.635021    1.157148    0.000000    0.000000    0.000000    0.000000
  0.042244489   -4.185280   25.505936  -99.811563    4.049688    0.000000    0.000000    0.000000    0.000000
  0.042444890   -4.236758   23.479103 -100.227755   -3.552149    0.000000    0.000000    0.000000    0.000000
  0.042645291   -4.286075   21.460217 -103.088615    0.442162    0.000000    0.000000    0.000000    0.000000
  0.042845691   -4.336646   19.465960 -100.647398    6.044620    0.000000    0.000000    0.000000    0.000000
  0.043046092   -4.388215   17.474895 -102.540027    9.685804    0.000000    0.000000    0.000000    0.000000
  0.043246493   -4.435947   15.469483 -102.017065   -2.115187    0.000000    0.000000    0.000000    0.000000
  0.043446894   -4.485320   13.496566 -102.347004   12.331268    0.000000    0.000000    0.000000    0.000000
  0.043647295   -4.533090   11.511394 -102.666152    7.675729    0.000000    0.000000    0.000000    0.000000
  0.043847695   -4.583081    9.531930 -102.699400    1.994948    0.000000    0.000000    0.000000    0.000000
  0.044048096   -4.628882    7.558860 -102.241972   13.969433    0.000000    0.000000    0.000000    0.000000
  0.044248497   -4.679018    5.570945 -100.967873    1.916836    0.000000    0.000000    0.000000    0.000000
  0.044448898   -4.724676    3.621030 -101.672536   10.019319    0.000000    0.000000    0.000000    0.000000
  0.044649299   -4.769489    1.671709 -102.296709   16.082582    0.000000    0.000000    0.000000    0.000000
  0.044849699   -4.814921   -0.267074 -102.107848   13.848149    0.000000    0.000000    0.000000    0.000000
  0.045050100   -4.858676   -2.206344 -100.908615   16.693352    0.000000    0.000000    0.000000    0.000000
  0.045250501   -4.897892   -4.144583 -101.446133   14.325520    0.000000    0.000000    0.000000    0.000000
  0.045450902   -4.936019   -6.069774 -101.856122   -1.208139    0.000000    0.000000    0.000000    0.000000
  0.045651303   -4.974153   -7.974579 -100.183856    9.746466    0.000000    0.000000    0.000000    0.000000
  0.045851703   -5.011553   -9.888906 -101.042109   11.662183    0.000000    0.000000    0.000000    0.000000
  0.046052104   -5.050539  -11.775458 -101.238064    8.248708    0.000000    0.000000    0.000000    0.000000
  0.046252505   -5.085912  -13.664729 -102.495891   18.520657    0.000000    0.000000    0.000000    0.000000
  0.046452906   -5.121410  -15.544585 -103.366315   13.433012    0.000000    0.000000    0.000000    0.000000
  0.046653307   -5.156448  -17.410416 -101.845415   -0.724911    0.000000    0.000000    0.000000    0.000000
  0.046853707   -5.190531  -19.280109 -101.861468   -0.863375    0.000000    0.000000    0.000000    0.000000
  0.047054108   -5.220862  -21.123823 -100.236263   12.325798    0.000000    0.000000    0.000000    0.000000
  0.047254509   -5.254786  -22.963572  -99.877968   -2.618221    0.000000    0.000000    0.000000    0.000000
  0.047454910   -5.283769  -24.775105 -103.448489   -1.032706    0.000000    0.000000    0.000000    0.000000
  0.047655311   -5.309640  -26.588848 -101.785167    5.647967    0.000000    0.000000    0.000000    0.000000
  0.047855711   -5.334712  -28.354206 -102.323866    1.076182    0.000000    0.000000    0.000000    0.000000
  0.048056112   -5.363838  -30.104069 -101.492478   -0.036074    0.000000    0.000000    0.000000    0.000000
  0.048256513   -5.392006  -31.862785 -103.539733   -6.579371    0.000000    0.000000    0.000000    0.000000
  0.048456914   -5.419900  -33.595284 -104.371810    2.054040    0.000000    0.000000    0.000000    0.000000
  0.048657315   -5.448335  -35.335003 -105.627556   19.374052    0.000000    0.000000    0.000000    0.000000
  0.048857715   -5.474493  -37.073086 -103.531854    0.389664    0.000000    0.000000    0.000000    0.000000
  0.049058116   -5.499765  -38.817837 -102.722200  -13.388958    0.000000    0.000000    0.000000    0.000000
  0.049258517   -5.520841  -40.547165 -104.425063    7.137138    0.000000    0.000000    0.000000    0.000000
  0.049458918   -5.546930  -42.257229 -104.446738  -13.629433    0.000000    0.000000    0.000000    0.000000
  0.049659319   -5.569869  -43.958912 -104.307568   12.943951    0.000000    0.000000    0.000000    0.000000
  0.049859719   -5.598027  -45.660759 -104.338720   19.360970    0.000000    0.000000    0.000000    0.000000
  0.050060120   -5.620842  -47.352585 -102.744193   18.138458    0.000000    0.000000    0.000000    0.000000
  0.050260521   -5.642381  -49.046619 -105.630539   15.812391    0.000000    0.000000    0.000000    0.000000
  0.050460922   -5.663687  -50.741299 -104.005608   29.455666    0.000000    0.000000    0.000000    0.000000
  0.050661323   -5.681979  -52.423744 -104.436543    5.294361    0.000000    0.000000    0.000000    0.000000
  0.050861723   -5.696254  -54.067451 -101.153427    3.421821    0.000000    0.000000    0.000000    0.000000
  0.051062124   -5.711207  -55.728821 -103.082723    9.660238    0.000000    0.000000    0.000000    0.000000
  0.051262525   -5.726653  -57.323956 -100.956245   18.612928    0.000000    0.000000    0.000000    0.000000
  0.051462926   -5.744484  -58.915894 -101.925648    4.003478    0.000000    0.000000    0.000000    0.000000
  0.051663327   -5.755927  -60.492428 -102.910495    6.571601    0.000000    0.000000    0.000000    0.000000
  0.051863727   -5.768260  -62.029530 -101.536339   -5.155972    0.000000    0.000000    0.000000    0.000000
  0.052064128   -5.784842  -63.584621 -100.410447    5.358664    0.000000    0.000000    0.000000    0.000000
  0.052264529   -5.799949  -65.114693 -102.442807   -0.856150    0.000000    0.000000    0.000000    0.000000
  0.052464930   -5.818678  -66.660164 -101.366212   10.020181    0.000000    0.000000    0.000000    0.000000
  0.052665331   -5.833447  -68.228287 -102.665770    0.785760    0.000000    0.000000    0.000000    0.000000
  0.052865731   -5.847960  -69.747200 -102.459875   -6.683306    0.000000    0.000000    0.000000    0.000000
