! Anritsu VNA Master:                 Model: MS2034B/10/19/501
! SN:                                  1337062
! /bd0/ovro-jan-2016/dcp-ant256-z2-ant.s2p
! Existing Calibration Information:
! TYPE:                         Current Settings,       Active Cal Settings
! TIME:             	   01/12/2016 03:46:53 PM,    01/12/2016 03:37:40 PM
! INTERNAL TEMP:    	                   41.0 C,                    41.5 C
! # POINTS:         	                      500,                       500
! START FREQ:       	               10.000 MHz,                10.000 MHz
! STOP FREQ:        	              110.000 MHz,               110.000 MHz
! SOURCE POWER:     	                      Low,                       Low
! IFBW:             	                    1 kHz,                     1 kHz
! AVG FACTOR:       	                       4 ,                        4 
! REF PLANE 1:      	                 2.2245 m,                  2.2245 m
! REF PLANE 2:      	                     0 mm,                      0 mm
! CAL TYPE:         	                 Full S11,                  Full S11
! CAL METHOD:       	                     SOLT,                      SOLT
! CAL LINE TYPE:    	                     Coax,                      Coax
! DUT PORT 1:       	                K-Conn(M),                 K-Conn(M)
! DUT PORT 2:       	                N-Conn(M),                 N-Conn(M)
! CAL STATUS:       	        OK: Accuracy High,                        --
# GHZ S DB R 50.0
! FREQ.GHZ       S11DB        S11A       S21DB        S21A       S12DB        S12A       S22DB        S22A
  0.010000000   -0.688399  -17.691010  -66.890053 -158.900833    0.000000    0.000000    0.000000    0.000000
  0.010200401   -0.649613  -18.008644  -66.837281 -157.784348    0.000000    0.000000    0.000000    0.000000
  0.010400802   -0.675624  -18.352480  -64.762946 -154.447525    0.000000    0.000000    0.000000    0.000000
  0.010601202   -0.636229  -18.649107  -70.528057 -171.685837    0.000000    0.000000    0.000000    0.000000
  0.010801603   -0.713672  -19.103745  -66.079663 -175.123596    0.000000    0.000000    0.000000    0.000000
  0.011002004   -0.705241  -19.580717  -68.624100 -153.099945    0.000000    0.000000    0.000000    0.000000
  0.011202405   -0.688046  -19.917419  -70.138164 -144.001770    0.000000    0.000000    0.000000    0.000000
  0.011402806   -0.671906  -20.208754  -64.180156 -159.973190    0.000000    0.000000    0.000000    0.000000
  0.011603206   -0.727366  -20.798334  -65.356980 -157.368546    0.000000    0.000000    0.000000    0.000000
  0.011803607   -0.676041  -21.159222  -64.314950 -148.455536    0.000000    0.000000    0.000000    0.000000
  0.012004008   -0.682800  -22.171080  -64.246480 -132.245392    0.000000    0.000000    0.000000    0.000000
  0.012204409   -0.713879  -22.126282  -65.214761 -162.994904    0.000000    0.000000    0.000000    0.000000
  0.012404810   -0.695099  -22.583057  -69.050927 -158.388290    0.000000    0.000000    0.000000    0.000000
  0.012605210   -0.747572  -22.866665  -62.630702 -127.872864    0.000000    0.000000    0.000000    0.000000
  0.012805611   -0.662196  -23.517794  -63.371918 -106.555801    0.000000    0.000000    0.000000    0.000000
  0.013006012   -0.749385  -23.673529  -64.742455 -151.502304    0.000000    0.000000    0.000000    0.000000
  0.013206413   -0.675842  -23.940441  -65.253352 -171.342148    0.000000    0.000000    0.000000    0.000000
  0.013406814   -0.691834  -24.829157  -62.463716 -153.817856    0.000000    0.000000    0.000000    0.000000
  0.013607214   -0.691334  -25.385557  -61.275492 -152.143326    0.000000    0.000000    0.000000    0.000000
  0.013807615   -0.692327  -25.699236  -64.534681 -141.021072    0.000000    0.000000    0.000000    0.000000
  0.014008016   -0.773224  -26.056343  -61.993957 -156.927994    0.000000    0.000000    0.000000    0.000000
  0.014208417   -0.762393  -26.580130  -66.584356 -158.161407    0.000000    0.000000    0.000000    0.000000
  0.014408818   -0.725485  -26.902691  -64.912631 -137.389633    0.000000    0.000000    0.000000    0.000000
  0.014609218   -0.699581  -27.352680  -66.382014 -149.805603    0.000000    0.000000    0.000000    0.000000
  0.014809619   -0.722451  -28.060877  -63.663637 -156.768997    0.000000    0.000000    0.000000    0.000000
  0.015010020   -0.713098  -28.557291  -62.560083 -134.210831    0.000000    0.000000    0.000000    0.000000
  0.015210421   -0.723317  -28.773380  -63.576815 -149.399231    0.000000    0.000000    0.000000    0.000000
  0.015410822   -0.714380  -29.294832  -65.938825 -168.047028    0.000000    0.000000    0.000000    0.000000
  0.015611222   -0.766046  -29.803181  -69.931017 -131.983826    0.000000    0.000000    0.000000    0.000000
  0.015811623   -0.725277  -30.270773  -68.951323 -164.829407    0.000000    0.000000    0.000000    0.000000
  0.016012024   -0.730238  -30.844017  -63.515062  176.534698    0.000000    0.000000    0.000000    0.000000
  0.016212425   -0.697990  -31.259434  -67.242461 -155.416977    0.000000    0.000000    0.000000    0.000000
  0.016412826   -0.732425  -31.896877  -65.023021 -125.608749    0.000000    0.000000    0.000000    0.000000
  0.016613226   -0.740530  -32.342731  -66.961458  168.439362    0.000000    0.000000    0.000000    0.000000
  0.016813627   -0.781900  -33.130104  -65.991160 -162.227661    0.000000    0.000000    0.000000    0.000000
  0.017014028   -0.757336  -33.201683  -65.581918 -124.969215    0.000000    0.000000    0.000000    0.000000
  0.017214429   -0.763181  -33.664616  -68.272315 -166.082474    0.000000    0.000000    0.000000    0.000000
  0.017414830   -0.770662  -34.389961  -69.791948 -167.668518    0.000000    0.000000    0.000000    0.000000
  0.017615230   -0.782283  -34.706852  -67.188488 -142.747986    0.000000    0.000000    0.000000    0.000000
  0.017815631   -0.793547  -35.376030  -64.652411 -135.006027    0.000000    0.000000    0.000000    0.000000
  0.018016032   -0.793446  -35.954609  -66.452509 -141.026688    0.000000    0.000000    0.000000    0.000000
  0.018216433   -0.778336  -36.375713  -62.581506 -155.183243    0.000000    0.000000    0.000000    0.000000
  0.018416834   -0.820878  -36.980911  -67.154142 -130.225479    0.000000    0.000000    0.000000    0.000000
  0.018617234   -0.796237  -37.550148  -68.058687 -158.946152    0.000000    0.000000    0.000000    0.000000
  0.018817635   -0.834988  -37.705318  -67.092006 -154.704651    0.000000    0.000000    0.000000    0.000000
  0.019018036   -0.809582  -38.762455  -67.093711 -160.435196    0.000000    0.000000    0.000000    0.000000
  0.019218437   -0.817114  -38.899612  -62.784912 -157.853745    0.000000    0.000000    0.000000    0.000000
  0.019418838   -0.795550  -39.638355  -63.729065 -144.277283    0.000000    0.000000    0.000000    0.000000
  0.019619238   -0.840488  -40.276089  -63.537815 -110.852272    0.000000    0.000000    0.000000    0.000000
  0.019819639   -0.779588  -40.793480  -61.358883 -148.676376    0.000000    0.000000    0.000000    0.000000
  0.020020040   -0.828716  -41.229237  -74.404767 -157.075302    0.000000    0.000000    0.000000    0.000000
  0.020220441   -0.822413  -41.861679  -66.178925 -143.524429    0.000000    0.000000    0.000000    0.000000
  0.020420842   -0.810385  -42.465771  -63.676615 -140.471085    0.000000    0.000000    0.000000    0.000000
  0.020621242   -0.849604  -42.953117  -68.248866 -129.001816    0.000000    0.000000    0.000000    0.000000
  0.020821643   -0.827154  -43.588223  -65.441355 -161.396912    0.000000    0.000000    0.000000    0.000000
  0.021022044   -0.864233  -44.605770  -70.771622 -117.779961    0.000000    0.000000    0.000000    0.000000
  0.021222445   -0.812964  -44.950615  -66.073784  -86.355736    0.000000    0.000000    0.000000    0.000000
  0.021422846   -0.859317  -45.671909  -65.425194 -113.094734    0.000000    0.000000    0.000000    0.000000
  0.021623246   -0.858434  -46.275196  -63.939905 -129.582489    0.000000    0.000000    0.000000    0.000000
  0.021823647   -0.876038  -46.918201  -63.756234 -118.870697    0.000000    0.000000    0.000000    0.000000
  0.022024048   -0.871332  -47.656105  -64.335514 -146.925232    0.000000    0.000000    0.000000    0.000000
  0.022224449   -0.893920  -48.275967  -64.135469 -113.947815    0.000000    0.000000    0.000000    0.000000
  0.022424850   -0.908288  -48.843613  -63.404380 -135.071884    0.000000    0.000000    0.000000    0.000000
  0.022625251   -0.921093  -49.680008  -61.217573 -132.350601    0.000000    0.000000    0.000000    0.000000
  0.022825651   -0.940662  -50.375057  -61.471340 -136.095596    0.000000    0.000000    0.000000    0.000000
  0.023026052   -0.911349  -51.150852  -63.658248 -142.430923    0.000000    0.000000    0.000000    0.000000
  0.023226453   -0.913098  -51.915806  -65.481320 -145.163437    0.000000    0.000000    0.000000    0.000000
  0.023426854   -0.918290  -52.526585  -67.790520 -128.260895    0.000000    0.000000    0.000000    0.000000
  0.023627255   -0.920501  -53.533573  -62.959067 -143.475601    0.000000    0.000000    0.000000    0.000000
  0.023827655   -0.957963  -54.208939  -63.318610 -164.702484    0.000000    0.000000    0.000000    0.000000
  0.024028056   -0.957196  -54.954220  -64.722968 -135.259048    0.000000    0.000000    0.000000    0.000000
  0.024228457   -0.985623  -55.771065  -63.325090 -134.403336    0.000000    0.000000    0.000000    0.000000
  0.024428858   -1.020355  -56.401722  -67.112307 -138.658417    0.000000    0.000000    0.000000    0.000000
  0.024629259   -0.991926  -57.187847  -68.102928 -142.834518    0.000000    0.000000    0.000000    0.000000
  0.024829659   -0.990594  -58.062885  -64.797155 -123.677116    0.000000    0.000000    0.000000    0.000000
  0.025030060   -1.050456  -58.785320  -65.387945 -131.260284    0.000000    0.000000    0.000000    0.000000
  0.025230461   -1.049998  -59.865421  -65.419421 -112.790100    0.000000    0.000000    0.000000    0.000000
  0.025430862   -0.989288  -60.402538  -66.240647 -107.101433    0.000000    0.000000    0.000000    0.000000
  0.025631263   -1.037020  -61.560623  -68.990937 -119.607025    0.000000    0.000000    0.000000    0.000000
  0.025831663   -1.059087  -62.350441  -68.116349 -104.961838    0.000000    0.000000    0.000000    0.000000
  0.026032064   -1.135783  -63.296085  -67.430144  -99.399559    0.000000    0.000000    0.000000    0.000000
  0.026232465   -1.051070  -63.957851  -70.595383 -114.115540    0.000000    0.000000    0.000000    0.000000
  0.026432866   -1.075336  -65.174263  -69.717641  -92.470222    0.000000    0.000000    0.000000    0.000000
  0.026633267   -1.085543  -66.438087  -67.297384 -106.044113    0.000000    0.000000    0.000000    0.000000
  0.026833667   -1.047545  -66.443985  -68.527151  -89.306885    0.000000    0.000000    0.000000    0.000000
  0.027034068   -1.098433  -67.708900  -66.175658 -125.122711    0.000000    0.000000    0.000000    0.000000
  0.027234469   -1.102661  -68.419334  -63.993636 -141.680771    0.000000    0.000000    0.000000    0.000000
  0.027434870   -1.177879  -69.376564  -64.662342 -122.089478    0.000000    0.000000    0.000000    0.000000
  0.027635271   -1.173997  -70.526733  -64.124866 -107.828468    0.000000    0.000000    0.000000    0.000000
  0.027835671   -1.175348  -71.149506  -65.652080 -106.016930    0.000000    0.000000    0.000000    0.000000
  0.028036072   -1.236179  -71.872276  -64.168308 -111.741425    0.000000    0.000000    0.000000    0.000000
  0.028236473   -1.216148  -73.364792  -64.718512  -71.788795    0.000000    0.000000    0.000000    0.000000
  0.028436874   -1.230026  -73.980194  -62.776989 -113.009636    0.000000    0.000000    0.000000    0.000000
  0.028637275   -1.243433  -74.964035  -66.730383  -73.175209    0.000000    0.000000    0.000000    0.000000
  0.028837675   -1.315012  -75.970833  -63.057140  -96.580032    0.000000    0.000000    0.000000    0.000000
  0.029038076   -1.288669  -77.236519  -64.333922  -97.529343    0.000000    0.000000    0.000000    0.000000
  0.029238477   -1.365527  -77.886543  -63.976803  -90.389244    0.000000    0.000000    0.000000    0.000000
  0.029438878   -1.351661  -79.491501  -66.027601 -119.374054    0.000000    0.000000    0.000000    0.000000
  0.029639279   -1.377785  -80.914146  -66.123207  -37.014702    0.000000    0.000000    0.000000    0.000000
  0.029839679   -1.422772  -80.654930  -66.521219 -128.525452    0.000000    0.000000    0.000000    0.000000
  0.030040080   -1.465074  -82.219955  -62.941204  -96.710091    0.000000    0.000000    0.000000    0.000000
  0.030240481   -1.422919  -83.462395  -64.269806  -83.160767    0.000000    0.000000    0.000000    0.000000
  0.030440882   -1.534963  -84.487099  -63.112032  -75.973694    0.000000    0.000000    0.000000    0.000000
  0.030641283   -1.505258  -85.740173  -68.834134  -91.393822    0.000000    0.000000    0.000000    0.000000
  0.030841683   -1.562586  -87.094017  -64.732331  -90.481247    0.000000    0.000000    0.000000    0.000000
  0.031042084   -1.524119  -87.566002  -63.605416 -122.425949    0.000000    0.000000    0.000000    0.000000
  0.031242485   -1.590419  -88.874123  -61.460021  -85.961594    0.000000    0.000000    0.000000    0.000000
  0.031442886   -1.640297  -90.406013  -67.754935 -120.376717    0.000000    0.000000    0.000000    0.000000
  0.031643287   -1.659390  -91.440315  -66.419798  -95.027740    0.000000    0.000000    0.000000    0.000000
  0.031843687   -1.742113  -92.916260  -68.388362 -105.118248    0.000000    0.000000    0.000000    0.000000
  0.032044088   -1.735269  -93.778099  -68.673935  -78.541672    0.000000    0.000000    0.000000    0.000000
  0.032244489   -1.801333  -95.576126  -65.745025 -101.909569    0.000000    0.000000    0.000000    0.000000
  0.032444890   -1.746537  -96.044617  -63.159524 -117.569344    0.000000    0.000000    0.000000    0.000000
  0.032645291   -1.901991  -97.594093  -70.329843  -73.910339    0.000000    0.000000    0.000000    0.000000
  0.032845691   -1.907561  -98.613503  -65.085142  -90.216568    0.000000    0.000000    0.000000    0.000000
  0.033046092   -1.934420 -100.373276  -65.087429 -105.801071    0.000000    0.000000    0.000000    0.000000
  0.033246493   -1.995650 -101.295624  -64.493226  -86.828766    0.000000    0.000000    0.000000    0.000000
  0.033446894   -2.012421 -102.746025  -62.203217 -111.088371    0.000000    0.000000    0.000000    0.000000
  0.033647295   -2.022902 -103.931633  -69.911918 -112.885010    0.000000    0.000000    0.000000    0.000000
  0.033847695   -2.090479 -105.727165  -64.482684  -81.810242    0.000000    0.000000    0.000000    0.000000
  0.034048096   -2.154097 -106.672806  -66.162951  -73.624771    0.000000    0.000000    0.000000    0.000000
  0.034248497   -2.186910 -108.441307  -64.237241  -82.619949    0.000000    0.000000    0.000000    0.000000
  0.034448898   -2.262585 -109.609802  -65.886654  -90.204727    0.000000    0.000000    0.000000    0.000000
  0.034649299   -2.307623 -110.872253  -64.798533  -99.951401    0.000000    0.000000    0.000000    0.000000
  0.034849699   -2.309300 -112.126144  -61.999315  -64.519348    0.000000    0.000000    0.000000    0.000000
  0.035050100   -2.333584 -113.558380  -65.457613  -92.579269    0.000000    0.000000    0.000000    0.000000
  0.035250501   -2.388588 -114.818512  -66.253718  -76.336609    0.000000    0.000000    0.000000    0.000000
  0.035450902   -2.456541 -116.597015  -67.465337  -93.179512    0.000000    0.000000    0.000000    0.000000
  0.035651303   -2.461985 -117.916183  -68.118023  -64.271790    0.000000    0.000000    0.000000    0.000000
  0.035851703   -2.512011 -118.958138  -66.980389  -46.468178    0.000000    0.000000    0.000000    0.000000
  0.036052104   -2.613356 -120.095093  -63.666533  -65.223541    0.000000    0.000000    0.000000    0.000000
  0.036252505   -2.656793 -121.935135  -64.564729  -79.690346    0.000000    0.000000    0.000000    0.000000
  0.036452906   -2.693346 -123.033752  -63.700056  -91.342651    0.000000    0.000000    0.000000    0.000000
  0.036653307   -2.755753 -124.157967  -64.315384  -84.403526    0.000000    0.000000    0.000000    0.000000
  0.036853707   -2.736403 -125.689484  -62.827290  -81.577606    0.000000    0.000000    0.000000    0.000000
  0.037054108   -2.812895 -127.031967  -67.228304  -59.568260    0.000000    0.000000    0.000000    0.000000
  0.037254509   -2.874653 -128.691010  -68.768790  -76.517509    0.000000    0.000000    0.000000    0.000000
  0.037454910   -2.905627 -129.675751  -66.085882  -89.763817    0.000000    0.000000    0.000000    0.000000
  0.037655311   -2.970970 -131.543564  -63.738844  -79.425652    0.000000    0.000000    0.000000    0.000000
  0.037855711   -2.988050 -132.311111  -65.127608  -69.609901    0.000000    0.000000    0.000000    0.000000
  0.038056112   -3.060102 -134.085449  -65.595244  -84.281731    0.000000    0.000000    0.000000    0.000000
  0.038256513   -3.149396 -135.052689  -65.187121  -97.117775    0.000000    0.000000    0.000000    0.000000
  0.038456914   -3.168860 -136.626755  -67.999831  -86.700546    0.000000    0.000000    0.000000    0.000000
  0.038657315   -3.268556 -137.975601  -63.423232  -88.060898    0.000000    0.000000    0.000000    0.000000
  0.038857715   -3.267751 -138.889359  -65.693616  -77.287224    0.000000    0.000000    0.000000    0.000000
  0.039058116   -3.318036 -140.558182  -64.072568  -74.775787    0.000000    0.000000    0.000000    0.000000
  0.039258517   -3.339722 -141.906357  -63.192128  -90.544289    0.000000    0.000000    0.000000    0.000000
  0.039458918   -3.421892 -143.181976  -66.478381  -78.659805    0.000000    0.000000    0.000000    0.000000
  0.039659319   -3.483714 -144.301804  -69.508240  -60.701721    0.000000    0.000000    0.000000    0.000000
  0.039859719   -3.508495 -145.713394  -67.058442  -80.557053    0.000000    0.000000    0.000000    0.000000
  0.040060120   -3.560559 -147.201233  -64.135618  -72.581139    0.000000    0.000000    0.000000    0.000000
  0.040260521   -3.640272 -148.416733  -65.112228  -78.642220    0.000000    0.000000    0.000000    0.000000
  0.040460922   -3.632774 -149.403610  -64.417668  -63.244560    0.000000    0.000000    0.000000    0.000000
  0.040661323   -3.711042 -150.844177  -67.283240  -89.910080    0.000000    0.000000    0.000000    0.000000
  0.040861723   -3.749119 -152.255295  -66.055117  -80.505592    0.000000    0.000000    0.000000    0.000000
  0.041062124   -3.803397 -153.400635  -65.017645  -97.778778    0.000000    0.000000    0.000000    0.000000
  0.041262525   -3.807095 -154.616974  -66.317304  -56.493145    0.000000    0.000000    0.000000    0.000000
  0.041462926   -3.932769 -155.745819  -65.615901  -72.987328    0.000000    0.000000    0.000000    0.000000
  0.041663327   -3.949805 -157.135925  -66.024520  -67.553276    0.000000    0.000000    0.000000    0.000000
  0.041863727   -3.960929 -158.491760  -63.395268  -77.547531    0.000000    0.000000    0.000000    0.000000
  0.042064128   -4.025264 -159.504486  -68.839106  -62.964863    0.000000    0.000000    0.000000    0.000000
  0.042264529   -4.045104 -160.566803  -65.073948  -84.175972    0.000000    0.000000    0.000000    0.000000
  0.042464930   -4.125517 -161.616669  -67.056293  -40.085690    0.000000    0.000000    0.000000    0.000000
  0.042665331   -4.137121 -162.759995  -63.273825  -61.332722    0.000000    0.000000    0.000000    0.000000
  0.042865731   -4.154595 -164.335556  -63.672891  -79.552795    0.000000    0.000000    0.000000    0.000000
