! Anritsu VNA Master:                 Model: MS2034B/10/19/501
! SN:                                  1337062
! /bd0/ovro-jan-2016/dcp3-b2-balun-open.s2p
! Existing Calibration Information:
! TYPE:                         Current Settings,       Active Cal Settings
! TIME:             	   01/14/2016 12:49:04 PM,    01/14/2016 12:01:10 PM
! INTERNAL TEMP:    	                   43.3 C,                    43.8 C
! # POINTS:         	                      500,                       500
! START FREQ:       	               10.000 MHz,                10.000 MHz
! STOP FREQ:        	              110.000 MHz,               110.000 MHz
! SOURCE POWER:     	                     High,                      High
! IFBW:             	                   100 Hz,                    100 Hz
! AVG FACTOR:       	                       4 ,                        4 
! REF PLANE 1:      	                     0 mm,                      0 mm
! REF PLANE 2:      	                     0 mm,                      0 mm
! CAL TYPE:         	                 Full S11,                  Full S11
! CAL METHOD:       	                     SOLT,                      SOLT
! CAL LINE TYPE:    	                     Coax,                      Coax
! DUT PORT 1:       	                K-Conn(M),                 K-Conn(M)
! DUT PORT 2:       	                N-Conn(M),                 N-Conn(M)
! CAL STATUS:       	        OK: Accuracy High,                        --
# GHZ S DB R 50.0
! FREQ.GHZ       S11DB        S11A       S21DB        S21A       S12DB        S12A       S22DB        S22A
  0.010000000   -0.639620   -6.964180 -103.849334  143.728668    0.000000    0.000000    0.000000    0.000000
  0.010200401   -0.639144   -7.158551 -104.397000  145.666885    0.000000    0.000000    0.000000    0.000000
  0.010400802   -0.641585   -7.309937 -103.308960  150.406677    0.000000    0.000000    0.000000    0.000000
  0.010601202   -0.639370   -7.503220 -105.048087  145.507843    0.000000    0.000000    0.000000    0.000000
  0.010801603   -0.638715   -7.621967 -104.560387  149.487396    0.000000    0.000000    0.000000    0.000000
  0.011002004   -0.640769   -7.818612 -104.452152  149.300995    0.000000    0.000000    0.000000    0.000000
  0.011202405   -0.637926   -8.009962 -103.780726  138.476791    0.000000    0.000000    0.000000    0.000000
  0.011402806   -0.643390   -8.191348 -105.703154  141.902390    0.000000    0.000000    0.000000    0.000000
  0.011603206   -0.640211   -8.342587 -102.658639  147.539551    0.000000    0.000000    0.000000    0.000000
  0.011803607   -0.642350   -8.522904 -103.058484  143.328964    0.000000    0.000000    0.000000    0.000000
  0.012004008   -0.650301   -8.687026 -103.464759  142.545959    0.000000    0.000000    0.000000    0.000000
  0.012204409   -0.643824   -8.855004 -104.615444  141.408463    0.000000    0.000000    0.000000    0.000000
  0.012404810   -0.648423   -8.988906 -103.466968  142.152588    0.000000    0.000000    0.000000    0.000000
  0.012605210   -0.643211   -9.188227 -103.675865  149.457062    0.000000    0.000000    0.000000    0.000000
  0.012805611   -0.641316   -9.391100 -103.668698  149.631653    0.000000    0.000000    0.000000    0.000000
  0.013006012   -0.646357   -9.539521 -103.290347  147.254791    0.000000    0.000000    0.000000    0.000000
  0.013206413   -0.640532   -9.683269 -104.795044  147.909912    0.000000    0.000000    0.000000    0.000000
  0.013406814   -0.642168   -9.868032 -103.865279  151.223618    0.000000    0.000000    0.000000    0.000000
  0.013607214   -0.646126  -10.023905 -103.090636  151.891785    0.000000    0.000000    0.000000    0.000000
  0.013807615   -0.643982  -10.199162 -104.615156  148.316635    0.000000    0.000000    0.000000    0.000000
  0.014008016   -0.646785  -10.366221 -103.548070  149.452072    0.000000    0.000000    0.000000    0.000000
  0.014208417   -0.645583  -10.520595 -102.825632  150.074768    0.000000    0.000000    0.000000    0.000000
  0.014408818   -0.646989  -10.694389 -104.938087  147.005783    0.000000    0.000000    0.000000    0.000000
  0.014609218   -0.645507  -10.847150 -102.681485  150.008118    0.000000    0.000000    0.000000    0.000000
  0.014809619   -0.645697  -11.019938 -104.059371  142.383270    0.000000    0.000000    0.000000    0.000000
  0.015010020   -0.644502  -11.195616 -104.422022  148.847000    0.000000    0.000000    0.000000    0.000000
  0.015210421   -0.646388  -11.355423 -104.395950  145.480591    0.000000    0.000000    0.000000    0.000000
  0.015410822   -0.646127  -11.511809 -104.380326  139.047638    0.000000    0.000000    0.000000    0.000000
  0.015611222   -0.647170  -11.664187 -105.278673  151.199310    0.000000    0.000000    0.000000    0.000000
  0.015811623   -0.646053  -11.829092 -104.029210  145.156494    0.000000    0.000000    0.000000    0.000000
  0.016012024   -0.648837  -11.990561 -103.484032  140.118591    0.000000    0.000000    0.000000    0.000000
  0.016212425   -0.648472  -12.150910 -103.327840  137.089569    0.000000    0.000000    0.000000    0.000000
  0.016412826   -0.645937  -12.320920 -102.804187  141.761169    0.000000    0.000000    0.000000    0.000000
  0.016613226   -0.647349  -12.474642 -103.569734  143.964142    0.000000    0.000000    0.000000    0.000000
  0.016813627   -0.646485  -12.629189 -102.969064  137.338425    0.000000    0.000000    0.000000    0.000000
  0.017014028   -0.647844  -12.811501 -102.278943  133.388794    0.000000    0.000000    0.000000    0.000000
  0.017214429   -0.646818  -12.950720 -103.358487  145.721603    0.000000    0.000000    0.000000    0.000000
  0.017414830   -0.647130  -13.119477 -103.796814  144.175613    0.000000    0.000000    0.000000    0.000000
  0.017615230   -0.647382  -13.274887 -104.847264  151.327972    0.000000    0.000000    0.000000    0.000000
  0.017815631   -0.648609  -13.429214 -104.585198  142.520782    0.000000    0.000000    0.000000    0.000000
  0.018016032   -0.649829  -13.594723 -103.699233  142.994995    0.000000    0.000000    0.000000    0.000000
  0.018216433   -0.651708  -13.754846 -104.411961  145.086121    0.000000    0.000000    0.000000    0.000000
  0.018416834   -0.651618  -13.914540 -103.387819  144.746429    0.000000    0.000000    0.000000    0.000000
  0.018617234   -0.651202  -14.055655 -105.285941  145.045288    0.000000    0.000000    0.000000    0.000000
  0.018817635   -0.653248  -14.225553 -104.141403  137.252945    0.000000    0.000000    0.000000    0.000000
  0.019018036   -0.653910  -14.386168 -104.674839  136.509033    0.000000    0.000000    0.000000    0.000000
  0.019218437   -0.657163  -14.538273 -104.821957  148.298935    0.000000    0.000000    0.000000    0.000000
  0.019418838   -0.653938  -14.701110 -104.799763  141.701447    0.000000    0.000000    0.000000    0.000000
  0.019619238   -0.656273  -14.867671 -104.511562  138.112335    0.000000    0.000000    0.000000    0.000000
  0.019819639   -0.656691  -15.026001 -102.808284  140.730225    0.000000    0.000000    0.000000    0.000000
  0.020020040   -0.657528  -15.186941 -105.178084  144.909302    0.000000    0.000000    0.000000    0.000000
  0.020220441   -0.658538  -15.347962 -105.396569  140.632858    0.000000    0.000000    0.000000    0.000000
  0.020420842   -0.660189  -15.495825 -105.234667  142.072296    0.000000    0.000000    0.000000    0.000000
  0.020621242   -0.662163  -15.652466 -104.416683  143.688263    0.000000    0.000000    0.000000    0.000000
  0.020821643   -0.659677  -15.821211 -105.002390  151.203186    0.000000    0.000000    0.000000    0.000000
  0.021022044   -0.660075  -15.994680 -104.718837  145.099686    0.000000    0.000000    0.000000    0.000000
  0.021222445   -0.659637  -16.149857 -104.087948  151.305862    0.000000    0.000000    0.000000    0.000000
  0.021422846   -0.660302  -16.307777 -105.255068  136.153915    0.000000    0.000000    0.000000    0.000000
  0.021623246   -0.660688  -16.463249 -105.091450  147.959259    0.000000    0.000000    0.000000    0.000000
  0.021823647   -0.662699  -16.631348 -104.385266  141.887344    0.000000    0.000000    0.000000    0.000000
  0.022024048   -0.661127  -16.788275 -105.763246  145.200287    0.000000    0.000000    0.000000    0.000000
  0.022224449   -0.660116  -16.957005 -104.469172  139.700760    0.000000    0.000000    0.000000    0.000000
  0.022424850   -0.660930  -17.127869 -105.029516  139.732254    0.000000    0.000000    0.000000    0.000000
  0.022625251   -0.659670  -17.287611 -104.510090  144.398346    0.000000    0.000000    0.000000    0.000000
  0.022825651   -0.662048  -17.446234 -106.023263  139.198502    0.000000    0.000000    0.000000    0.000000
  0.023026052   -0.663401  -17.622013 -106.083491  142.715561    0.000000    0.000000    0.000000    0.000000
  0.023226453   -0.660777  -17.760317 -104.670806  140.458633    0.000000    0.000000    0.000000    0.000000
  0.023426854   -0.658365  -17.927742 -105.146306  142.037491    0.000000    0.000000    0.000000    0.000000
  0.023627255   -0.658756  -18.068243 -104.833072  143.109207    0.000000    0.000000    0.000000    0.000000
  0.023827655   -0.663336  -18.224407 -104.184594  139.695801    0.000000    0.000000    0.000000    0.000000
  0.024028056   -0.659614  -18.391924 -106.084879  142.689865    0.000000    0.000000    0.000000    0.000000
  0.024228457   -0.661562  -18.552654 -106.270515  135.994278    0.000000    0.000000    0.000000    0.000000
  0.024428858   -0.658451  -18.701981 -104.670850  145.834091    0.000000    0.000000    0.000000    0.000000
  0.024629259   -0.656076  -18.856707 -105.334401  144.634003    0.000000    0.000000    0.000000    0.000000
  0.024829659   -0.651712  -19.008795 -105.826830  140.608658    0.000000    0.000000    0.000000    0.000000
  0.025030060   -0.653318  -19.169128 -103.692966  139.582718    0.000000    0.000000    0.000000    0.000000
  0.025230461   -0.652751  -19.325241 -106.535863  145.844635    0.000000    0.000000    0.000000    0.000000
  0.025430862   -0.652825  -19.478193 -104.831675  151.154755    0.000000    0.000000    0.000000    0.000000
  0.025631263   -0.649940  -19.639868 -105.630190  134.513962    0.000000    0.000000    0.000000    0.000000
  0.025831663   -0.648227  -19.716021 -105.853662  145.383820    0.000000    0.000000    0.000000    0.000000
  0.026032064   -0.647203  -19.944576 -107.690201  146.069855    0.000000    0.000000    0.000000    0.000000
  0.026232465   -0.648652  -20.116602 -107.186861  151.895737    0.000000    0.000000    0.000000    0.000000
  0.026432866   -0.646429  -20.249525 -105.867378  142.515854    0.000000    0.000000    0.000000    0.000000
  0.026633267   -0.644507  -20.387575 -105.465879  147.365646    0.000000    0.000000    0.000000    0.000000
  0.026833667   -0.650358  -20.556698 -106.640464  145.135101    0.000000    0.000000    0.000000    0.000000
  0.027034068   -0.646221  -20.691608 -105.454117  146.486832    0.000000    0.000000    0.000000    0.000000
  0.027234469   -0.646089  -20.849312 -105.910018  141.924423    0.000000    0.000000    0.000000    0.000000
  0.027434870   -0.646772  -20.999647 -106.092490  147.050125    0.000000    0.000000    0.000000    0.000000
  0.027635271   -0.645489  -21.134756 -105.491214  148.981949    0.000000    0.000000    0.000000    0.000000
  0.027835671   -0.646208  -21.286482 -106.697230  147.505646    0.000000    0.000000    0.000000    0.000000
  0.028036072   -0.650739  -21.452045 -106.409389  135.416580    0.000000    0.000000    0.000000    0.000000
  0.028236473   -0.645431  -21.592993 -106.814992  144.683594    0.000000    0.000000    0.000000    0.000000
  0.028436874   -0.647994  -21.724693 -107.491968  152.535187    0.000000    0.000000    0.000000    0.000000
  0.028637275   -0.651107  -21.889263 -105.686422  144.134415    0.000000    0.000000    0.000000    0.000000
  0.028837675   -0.650124  -22.046654 -106.635791  156.317322    0.000000    0.000000    0.000000    0.000000
  0.029038076   -0.651846  -22.181255 -105.864502  144.603577    0.000000    0.000000    0.000000    0.000000
  0.029238477   -0.659102  -22.331028 -107.761661  144.206451    0.000000    0.000000    0.000000    0.000000
  0.029438878   -0.653456  -22.488783 -108.379274  130.376907    0.000000    0.000000    0.000000    0.000000
  0.029639279   -0.654751  -22.618158 -107.296535  140.902435    0.000000    0.000000    0.000000    0.000000
  0.029839679   -0.654910  -22.779926 -107.039246  141.535141    0.000000    0.000000    0.000000    0.000000
  0.030040080   -0.656929  -22.939035 -106.690410  141.707672    0.000000    0.000000    0.000000    0.000000
  0.030240481   -0.657721  -23.093338 -106.525948  140.562851    0.000000    0.000000    0.000000    0.000000
  0.030440882   -0.655817  -23.260853 -106.723540  153.348434    0.000000    0.000000    0.000000    0.000000
  0.030641283   -0.659068  -23.397913 -106.992255  143.212280    0.000000    0.000000    0.000000    0.000000
  0.030841683   -0.659003  -23.570930 -106.029670  141.891098    0.000000    0.000000    0.000000    0.000000
  0.031042084   -0.662208  -23.742519 -107.183278  143.078033    0.000000    0.000000    0.000000    0.000000
  0.031242485   -0.664155  -23.851658 -107.320267  141.108459    0.000000    0.000000    0.000000    0.000000
  0.031442886   -0.668532  -24.039661 -106.440252  148.711380    0.000000    0.000000    0.000000    0.000000
  0.031643287   -0.670718  -24.199635 -106.436840  141.091949    0.000000    0.000000    0.000000    0.000000
  0.031843687   -0.670360  -24.376274 -107.260865  137.462082    0.000000    0.000000    0.000000    0.000000
  0.032044088   -0.667795  -24.509501 -106.205735  142.575027    0.000000    0.000000    0.000000    0.000000
  0.032244489   -0.672414  -24.690355 -107.355047  139.703125    0.000000    0.000000    0.000000    0.000000
  0.032444890   -0.668501  -24.853085 -107.513355  145.232498    0.000000    0.000000    0.000000    0.000000
  0.032645291   -0.669949  -25.012373 -106.607693  150.601349    0.000000    0.000000    0.000000    0.000000
  0.032845691   -0.667996  -25.166849 -106.178114  147.663376    0.000000    0.000000    0.000000    0.000000
  0.033046092   -0.669367  -25.352303 -106.444870  146.673203    0.000000    0.000000    0.000000    0.000000
  0.033246493   -0.671540  -25.514555 -107.367589  136.913971    0.000000    0.000000    0.000000    0.000000
  0.033446894   -0.668725  -25.676538 -106.679177  141.811111    0.000000    0.000000    0.000000    0.000000
  0.033647295   -0.669164  -25.826067 -106.117971  143.959366    0.000000    0.000000    0.000000    0.000000
  0.033847695   -0.668597  -26.006641 -106.758433  139.308121    0.000000    0.000000    0.000000    0.000000
  0.034048096   -0.666336  -26.157713 -108.633543  135.950333    0.000000    0.000000    0.000000    0.000000
  0.034248497   -0.667476  -26.309988 -107.696747  148.557373    0.000000    0.000000    0.000000    0.000000
  0.034448898   -0.663933  -26.463570 -107.713145  143.235947    0.000000    0.000000    0.000000    0.000000
  0.034649299   -0.664105  -26.629303 -107.379437  145.723587    0.000000    0.000000    0.000000    0.000000
  0.034849699   -0.661798  -26.787651 -106.722937  149.714066    0.000000    0.000000    0.000000    0.000000
  0.035050100   -0.660904  -26.946363 -108.131570  149.947205    0.000000    0.000000    0.000000    0.000000
  0.035250501   -0.660837  -27.089449 -106.577885  138.260849    0.000000    0.000000    0.000000    0.000000
  0.035450902   -0.658650  -27.262920 -107.276135  139.946609    0.000000    0.000000    0.000000    0.000000
  0.035651303   -0.659268  -27.408085 -106.266254  134.468277    0.000000    0.000000    0.000000    0.000000
  0.035851703   -0.659119  -27.534584 -107.360352  142.506439    0.000000    0.000000    0.000000    0.000000
  0.036052104   -0.658290  -27.681343 -106.644131  136.521530    0.000000    0.000000    0.000000    0.000000
  0.036252505   -0.656053  -27.838879 -106.116677  138.478409    0.000000    0.000000    0.000000    0.000000
  0.036452906   -0.658288  -27.985720 -106.917069  144.224228    0.000000    0.000000    0.000000    0.000000
  0.036653307   -0.659879  -28.122292 -106.366919  140.584625    0.000000    0.000000    0.000000    0.000000
  0.036853707   -0.655546  -28.272392 -106.607247  142.085724    0.000000    0.000000    0.000000    0.000000
  0.037054108   -0.658782  -28.420902 -107.432819  149.058670    0.000000    0.000000    0.000000    0.000000
  0.037254509   -0.657477  -28.565670 -106.130184  137.352997    0.000000    0.000000    0.000000    0.000000
  0.037454910   -0.657941  -28.701271 -106.634840  146.170914    0.000000    0.000000    0.000000    0.000000
  0.037655311   -0.660291  -28.852945 -107.129218  145.189377    0.000000    0.000000    0.000000    0.000000
  0.037855711   -0.659498  -29.003250 -106.018794  137.922379    0.000000    0.000000    0.000000    0.000000
  0.038056112   -0.661254  -29.140692 -106.070413  141.468826    0.000000    0.000000    0.000000    0.000000
  0.038256513   -0.662945  -29.294790 -105.707546  134.768875    0.000000    0.000000    0.000000    0.000000
  0.038456914   -0.665378  -29.436670 -106.421597  141.979340    0.000000    0.000000    0.000000    0.000000
  0.038657315   -0.665572  -29.588230 -106.101252  138.552780    0.000000    0.000000    0.000000    0.000000
  0.038857715   -0.669827  -29.749842 -105.633330  140.264130    0.000000    0.000000    0.000000    0.000000
  0.039058116   -0.673940  -29.890472 -107.899112  136.224899    0.000000    0.000000    0.000000    0.000000
  0.039258517   -0.674770  -30.052528 -107.442799  140.381882    0.000000    0.000000    0.000000    0.000000
  0.039458918   -0.677817  -30.204834 -105.645467  137.121155    0.000000    0.000000    0.000000    0.000000
  0.039659319   -0.677607  -30.355598 -107.068162  132.072189    0.000000    0.000000    0.000000    0.000000
  0.039859719   -0.682395  -30.514431 -106.326463  138.339478    0.000000    0.000000    0.000000    0.000000
  0.040060120   -0.684452  -30.686937 -106.451621  139.812592    0.000000    0.000000    0.000000    0.000000
  0.040260521   -0.685684  -30.839466 -107.944523  140.688202    0.000000    0.000000    0.000000    0.000000
  0.040460922   -0.684065  -31.025898 -105.760359  138.201553    0.000000    0.000000    0.000000    0.000000
  0.040661323   -0.684876  -31.186462 -106.455823  142.332458    0.000000    0.000000    0.000000    0.000000
  0.040861723   -0.687070  -31.363050 -106.616090  142.479141    0.000000    0.000000    0.000000    0.000000
  0.041062124   -0.687461  -31.534147 -107.327745  140.124985    0.000000    0.000000    0.000000    0.000000
  0.041262525   -0.688027  -31.691120 -106.029243  142.615997    0.000000    0.000000    0.000000    0.000000
  0.041462926   -0.687422  -31.855261 -106.356934  139.569885    0.000000    0.000000    0.000000    0.000000
  0.041663327   -0.687710  -32.028988 -106.667656  146.652985    0.000000    0.000000    0.000000    0.000000
  0.041863727   -0.687016  -32.182941 -106.005755  135.772202    0.000000    0.000000    0.000000    0.000000
  0.042064128   -0.684263  -32.352001 -106.902956  137.224380    0.000000    0.000000    0.000000    0.000000
  0.042264529   -0.686349  -32.524197 -106.644916  138.939117    0.000000    0.000000    0.000000    0.000000
  0.042464930   -0.685500  -32.696091 -106.913649  141.925751    0.000000    0.000000    0.000000    0.000000
  0.042665331   -0.679758  -32.850983 -106.392278  142.561432    0.000000    0.000000    0.000000    0.000000
  0.042865731   -0.678478  -33.018543 -106.744898  138.774536    0.000000    0.000000    0.000000    0.000000
