! Anritsu VNA Master:                 Model: MS2034B/10/19/501
! SN:                                  1337062
! /bd0/ovro-jan-2016/dcp3-y1-balun-short.s2p
! Existing Calibration Information:
! TYPE:                         Current Settings,       Active Cal Settings
! TIME:             	   01/14/2016 12:09:33 PM,    01/14/2016 12:01:10 PM
! INTERNAL TEMP:    	                   44.0 C,                    43.8 C
! # POINTS:         	                      500,                       500
! START FREQ:       	               10.000 MHz,                10.000 MHz
! STOP FREQ:        	              110.000 MHz,               110.000 MHz
! SOURCE POWER:     	                     High,                      High
! IFBW:             	                   100 Hz,                    100 Hz
! AVG FACTOR:       	                       4 ,                        4 
! REF PLANE 1:      	                     0 mm,                      0 mm
! REF PLANE 2:      	                     0 mm,                      0 mm
! CAL TYPE:         	                 Full S11,                  Full S11
! CAL METHOD:       	                     SOLT,                      SOLT
! CAL LINE TYPE:    	                     Coax,                      Coax
! DUT PORT 1:       	                K-Conn(M),                 K-Conn(M)
! DUT PORT 2:       	                N-Conn(M),                 N-Conn(M)
! CAL STATUS:       	        OK: Accuracy High,                        --
# GHZ S DB R 50.0
! FREQ.GHZ       S11DB        S11A       S21DB        S21A       S12DB        S12A       S22DB        S22A
  0.010000000   -0.203896  170.077927 -104.848437  130.790161    0.000000    0.000000    0.000000    0.000000
  0.010200401   -0.209449  169.887268 -104.513265  129.045593    0.000000    0.000000    0.000000    0.000000
  0.010400802   -0.215415  169.723602 -105.641295  132.683548    0.000000    0.000000    0.000000    0.000000
  0.010601202   -0.219297  169.496780 -105.512961  130.002808    0.000000    0.000000    0.000000    0.000000
  0.010801603   -0.222139  169.284058 -104.178066  128.544556    0.000000    0.000000    0.000000    0.000000
  0.011002004   -0.219824  169.134888 -105.444952  121.034531    0.000000    0.000000    0.000000    0.000000
  0.011202405   -0.227908  168.943329 -105.432071  128.072159    0.000000    0.000000    0.000000    0.000000
  0.011402806   -0.225673  168.793152 -105.810407  134.714172    0.000000    0.000000    0.000000    0.000000
  0.011603206   -0.230061  168.570648 -105.027383  128.833832    0.000000    0.000000    0.000000    0.000000
  0.011803607   -0.230744  168.386810 -105.595700  134.855637    0.000000    0.000000    0.000000    0.000000
  0.012004008   -0.228636  168.238846 -106.667830  136.330261    0.000000    0.000000    0.000000    0.000000
  0.012204409   -0.236508  168.029785 -105.338764  130.547821    0.000000    0.000000    0.000000    0.000000
  0.012404810   -0.238515  167.836792 -105.376589  132.937286    0.000000    0.000000    0.000000    0.000000
  0.012605210   -0.240457  167.634262 -105.580810  133.432358    0.000000    0.000000    0.000000    0.000000
  0.012805611   -0.244952  167.440002 -106.767865  129.792191    0.000000    0.000000    0.000000    0.000000
  0.013006012   -0.242682  167.251434 -105.580993  132.136475    0.000000    0.000000    0.000000    0.000000
  0.013206413   -0.249115  167.092148 -106.337408  123.315308    0.000000    0.000000    0.000000    0.000000
  0.013406814   -0.247060  166.875687 -107.587477  123.135460    0.000000    0.000000    0.000000    0.000000
  0.013607214   -0.250984  166.675476 -106.717374  132.048294    0.000000    0.000000    0.000000    0.000000
  0.013807615   -0.252072  166.496597 -107.661730  133.310837    0.000000    0.000000    0.000000    0.000000
  0.014008016   -0.254117  166.305496 -109.036220  134.845200    0.000000    0.000000    0.000000    0.000000
  0.014208417   -0.255737  166.118301 -107.766621  135.647141    0.000000    0.000000    0.000000    0.000000
  0.014408818   -0.255824  165.942673 -108.155986  123.398270    0.000000    0.000000    0.000000    0.000000
  0.014609218   -0.256425  165.743637 -106.236453  137.381973    0.000000    0.000000    0.000000    0.000000
  0.014809619   -0.260416  165.561676 -108.354032  141.276566    0.000000    0.000000    0.000000    0.000000
  0.015010020   -0.259551  165.367264 -110.092203  133.377594    0.000000    0.000000    0.000000    0.000000
  0.015210421   -0.262586  165.180496 -107.326511  137.628952    0.000000    0.000000    0.000000    0.000000
  0.015410822   -0.262812  165.003616 -106.491542  138.208420    0.000000    0.000000    0.000000    0.000000
  0.015611222   -0.263685  164.823700 -108.114828  140.584930    0.000000    0.000000    0.000000    0.000000
  0.015811623   -0.264217  164.626266 -106.192578  139.510422    0.000000    0.000000    0.000000    0.000000
  0.016012024   -0.266322  164.458603 -108.181911  143.323059    0.000000    0.000000    0.000000    0.000000
  0.016212425   -0.267490  164.276306 -108.273894  141.450012    0.000000    0.000000    0.000000    0.000000
  0.016412826   -0.272031  164.095779 -107.005767  141.506149    0.000000    0.000000    0.000000    0.000000
  0.016613226   -0.271609  163.930649 -108.014827  139.370361    0.000000    0.000000    0.000000    0.000000
  0.016813627   -0.272537  163.734558 -108.184759  133.759521    0.000000    0.000000    0.000000    0.000000
  0.017014028   -0.275459  163.564789 -107.210454  143.762802    0.000000    0.000000    0.000000    0.000000
  0.017214429   -0.276221  163.393097 -108.167280  133.869934    0.000000    0.000000    0.000000    0.000000
  0.017414830   -0.279870  163.215347 -108.727085  137.341843    0.000000    0.000000    0.000000    0.000000
  0.017615230   -0.282012  163.043533 -108.510904  134.201477    0.000000    0.000000    0.000000    0.000000
  0.017815631   -0.282626  162.855255 -108.706891  147.914642    0.000000    0.000000    0.000000    0.000000
  0.018016032   -0.284469  162.669327 -107.172359  143.616150    0.000000    0.000000    0.000000    0.000000
  0.018216433   -0.288329  162.503952 -108.251923  147.891235    0.000000    0.000000    0.000000    0.000000
  0.018416834   -0.291654  162.333496 -106.306866  144.183716    0.000000    0.000000    0.000000    0.000000
  0.018617234   -0.294048  162.148102 -107.019205  138.326202    0.000000    0.000000    0.000000    0.000000
  0.018817635   -0.297841  161.967545 -108.243625  140.456314    0.000000    0.000000    0.000000    0.000000
  0.019018036   -0.301415  161.786530 -107.100344  146.887131    0.000000    0.000000    0.000000    0.000000
  0.019218437   -0.302866  161.593216 -108.559755  147.175232    0.000000    0.000000    0.000000    0.000000
  0.019418838   -0.307444  161.418213 -107.426106  143.552399    0.000000    0.000000    0.000000    0.000000
  0.019619238   -0.311767  161.239243 -107.715483  134.227142    0.000000    0.000000    0.000000    0.000000
  0.019819639   -0.314972  161.054840 -107.975374  152.563797    0.000000    0.000000    0.000000    0.000000
  0.020020040   -0.316894  160.856659 -108.493927  143.096039    0.000000    0.000000    0.000000    0.000000
  0.020220441   -0.321529  160.664474 -108.339402  152.938461    0.000000    0.000000    0.000000    0.000000
  0.020420842   -0.323246  160.477448 -108.393924  151.797867    0.000000    0.000000    0.000000    0.000000
  0.020621242   -0.323866  160.282211 -106.847053  146.615234    0.000000    0.000000    0.000000    0.000000
  0.020821643   -0.330172  160.100296 -108.170535  148.916046    0.000000    0.000000    0.000000    0.000000
  0.021022044   -0.332420  159.902603 -108.693160  148.536316    0.000000    0.000000    0.000000    0.000000
  0.021222445   -0.335824  159.717453 -109.507948  147.417374    0.000000    0.000000    0.000000    0.000000
  0.021422846   -0.339392  159.522034 -108.054472  156.747940    0.000000    0.000000    0.000000    0.000000
  0.021623246   -0.339739  159.321838 -107.039830  146.868576    0.000000    0.000000    0.000000    0.000000
  0.021823647   -0.338954  159.123779 -108.353743  145.662552    0.000000    0.000000    0.000000    0.000000
  0.022024048   -0.344945  158.933823 -107.945841  146.690079    0.000000    0.000000    0.000000    0.000000
  0.022224449   -0.344972  158.728409 -107.152068  144.152863    0.000000    0.000000    0.000000    0.000000
  0.022424850   -0.347491  158.541092 -108.465739  149.053772    0.000000    0.000000    0.000000    0.000000
  0.022625251   -0.347553  158.352356 -106.924925  143.812927    0.000000    0.000000    0.000000    0.000000
  0.022825651   -0.348604  158.154526 -107.853475  139.606628    0.000000    0.000000    0.000000    0.000000
  0.023026052   -0.344082  157.963348 -108.214895  140.294388    0.000000    0.000000    0.000000    0.000000
  0.023226453   -0.347189  157.765793 -107.612497  144.065033    0.000000    0.000000    0.000000    0.000000
  0.023426854   -0.345285  157.567627 -106.157140  142.976868    0.000000    0.000000    0.000000    0.000000
  0.023627255   -0.347163  157.378067 -107.845473  141.616791    0.000000    0.000000    0.000000    0.000000
  0.023827655   -0.346072  157.190247 -106.721104  141.609665    0.000000    0.000000    0.000000    0.000000
  0.024028056   -0.346330  157.003372 -107.172024  149.963287    0.000000    0.000000    0.000000    0.000000
  0.024228457   -0.344946  156.826248 -105.618030  147.384888    0.000000    0.000000    0.000000    0.000000
  0.024428858   -0.343521  156.659576 -106.684772  147.458939    0.000000    0.000000    0.000000    0.000000
  0.024629259   -0.344772  156.478500 -105.659187  138.039032    0.000000    0.000000    0.000000    0.000000
  0.024829659   -0.344603  156.338608 -106.855164  146.426865    0.000000    0.000000    0.000000    0.000000
  0.025030060   -0.345091  156.162964 -106.542694  140.776306    0.000000    0.000000    0.000000    0.000000
  0.025230461   -0.344357  155.965012 -108.229930  140.441925    0.000000    0.000000    0.000000    0.000000
  0.025430862   -0.343523  155.788635 -105.765529  132.129532    0.000000    0.000000    0.000000    0.000000
  0.025631263   -0.342901  155.612671 -107.647835  143.847641    0.000000    0.000000    0.000000    0.000000
  0.025831663   -0.346435  155.446442 -107.787420  133.297333    0.000000    0.000000    0.000000    0.000000
  0.026032064   -0.343255  155.267029 -106.087234  142.991165    0.000000    0.000000    0.000000    0.000000
  0.026232465   -0.341347  155.103775 -107.738510  133.783615    0.000000    0.000000    0.000000    0.000000
  0.026432866   -0.344086  154.917084 -107.031545  145.635666    0.000000    0.000000    0.000000    0.000000
  0.026633267   -0.343282  154.745438 -106.324160  136.779190    0.000000    0.000000    0.000000    0.000000
  0.026833667   -0.342188  154.570206 -106.370779  134.799225    0.000000    0.000000    0.000000    0.000000
  0.027034068   -0.347413  154.378143 -107.791753  146.100037    0.000000    0.000000    0.000000    0.000000
  0.027234469   -0.348741  154.227600 -107.082024  149.565842    0.000000    0.000000    0.000000    0.000000
  0.027434870   -0.349495  154.087326 -106.770482  130.284058    0.000000    0.000000    0.000000    0.000000
  0.027635271   -0.355369  153.888504 -105.728642  141.155182    0.000000    0.000000    0.000000    0.000000
  0.027835671   -0.356471  153.704834 -105.988052  140.471161    0.000000    0.000000    0.000000    0.000000
  0.028036072   -0.349933  153.545975 -106.375628  140.430130    0.000000    0.000000    0.000000    0.000000
  0.028236473   -0.354654  153.360260 -106.533711  147.751343    0.000000    0.000000    0.000000    0.000000
  0.028436874   -0.361559  153.181900 -107.973826  139.733063    0.000000    0.000000    0.000000    0.000000
  0.028637275   -0.364086  153.003006 -106.777695  135.187164    0.000000    0.000000    0.000000    0.000000
  0.028837675   -0.366738  152.805237 -106.135656  142.263000    0.000000    0.000000    0.000000    0.000000
  0.029038076   -0.371204  152.629547 -106.118274  130.587097    0.000000    0.000000    0.000000    0.000000
  0.029238477   -0.371858  152.498077 -105.504920  132.448563    0.000000    0.000000    0.000000    0.000000
  0.029438878   -0.373337  152.298477 -106.009884  136.864197    0.000000    0.000000    0.000000    0.000000
  0.029639279   -0.375914  152.112747 -105.239249  137.194351    0.000000    0.000000    0.000000    0.000000
  0.029839679   -0.377187  151.927185 -107.712909  149.458893    0.000000    0.000000    0.000000    0.000000
  0.030040080   -0.382348  151.737030 -106.021383  145.353806    0.000000    0.000000    0.000000    0.000000
  0.030240481   -0.382610  151.559677 -105.668979  137.516449    0.000000    0.000000    0.000000    0.000000
  0.030440882   -0.380252  151.408295 -106.796109  150.618393    0.000000    0.000000    0.000000    0.000000
  0.030641283   -0.386630  151.204025 -105.977614  140.575470    0.000000    0.000000    0.000000    0.000000
  0.030841683   -0.390622  150.995590 -105.525770  133.020172    0.000000    0.000000    0.000000    0.000000
  0.031042084   -0.390789  150.842957 -105.737447  132.121521    0.000000    0.000000    0.000000    0.000000
  0.031242485   -0.392463  150.624802 -105.933421  134.575317    0.000000    0.000000    0.000000    0.000000
  0.031442886   -0.392967  150.454926 -105.659250  137.878799    0.000000    0.000000    0.000000    0.000000
  0.031643287   -0.397361  150.281158 -105.226532  137.887619    0.000000    0.000000    0.000000    0.000000
  0.031843687   -0.395493  150.090042 -104.407427  139.800415    0.000000    0.000000    0.000000    0.000000
  0.032044088   -0.404865  149.931900 -105.441114  143.576279    0.000000    0.000000    0.000000    0.000000
  0.032244489   -0.395381  149.728790 -105.272326  136.355499    0.000000    0.000000    0.000000    0.000000
  0.032444890   -0.399160  149.511566 -105.850605  143.846527    0.000000    0.000000    0.000000    0.000000
  0.032645291   -0.400532  149.358322 -106.266388  139.179413    0.000000    0.000000    0.000000    0.000000
  0.032845691   -0.406591  149.163315 -106.887063  143.464050    0.000000    0.000000    0.000000    0.000000
  0.033046092   -0.407627  148.993118 -106.475690  139.763168    0.000000    0.000000    0.000000    0.000000
  0.033246493   -0.407579  148.818771 -106.531928  144.544510    0.000000    0.000000    0.000000    0.000000
  0.033446894   -0.408290  148.646118 -105.794791  137.309662    0.000000    0.000000    0.000000    0.000000
  0.033647295   -0.408390  148.489319 -107.541196  135.214020    0.000000    0.000000    0.000000    0.000000
  0.033847695   -0.412148  148.301636 -106.431690  146.384735    0.000000    0.000000    0.000000    0.000000
  0.034048096   -0.411449  148.110046 -107.152786  138.441528    0.000000    0.000000    0.000000    0.000000
  0.034248497   -0.414718  147.940460 -106.813807  150.982300    0.000000    0.000000    0.000000    0.000000
  0.034448898   -0.415014  147.769958 -106.567450  141.992828    0.000000    0.000000    0.000000    0.000000
  0.034649299   -0.416863  147.578018 -106.675437  143.585526    0.000000    0.000000    0.000000    0.000000
  0.034849699   -0.416587  147.409164 -106.350579  147.924957    0.000000    0.000000    0.000000    0.000000
  0.035050100   -0.419371  147.235245 -105.492819  133.530914    0.000000    0.000000    0.000000    0.000000
  0.035250501   -0.421321  147.059280 -105.657574  136.260895    0.000000    0.000000    0.000000    0.000000
  0.035450902   -0.421054  146.875854 -106.049520  136.106140    0.000000    0.000000    0.000000    0.000000
  0.035651303   -0.421439  146.702179 -105.498637  137.982086    0.000000    0.000000    0.000000    0.000000
  0.035851703   -0.426119  146.506790 -106.368588  147.374115    0.000000    0.000000    0.000000    0.000000
  0.036052104   -0.425939  146.353531 -105.216387  147.309875    0.000000    0.000000    0.000000    0.000000
  0.036252505   -0.426649  146.167038 -106.115859  138.369675    0.000000    0.000000    0.000000    0.000000
  0.036452906   -0.428582  145.992935 -106.809411  140.386383    0.000000    0.000000    0.000000    0.000000
  0.036653307   -0.428056  145.812256 -104.743060  141.277924    0.000000    0.000000    0.000000    0.000000
  0.036853707   -0.430100  145.628738 -105.138934  150.962173    0.000000    0.000000    0.000000    0.000000
  0.037054108   -0.434452  145.463562 -106.360768  144.337967    0.000000    0.000000    0.000000    0.000000
  0.037254509   -0.435003  145.269241 -104.712397  134.640488    0.000000    0.000000    0.000000    0.000000
  0.037454910   -0.437909  145.122955 -105.093995  143.820068    0.000000    0.000000    0.000000    0.000000
  0.037655311   -0.440684  144.933044 -105.962932  144.005402    0.000000    0.000000    0.000000    0.000000
  0.037855711   -0.440459  144.745056 -105.161291  138.345459    0.000000    0.000000    0.000000    0.000000
  0.038056112   -0.444361  144.570190 -104.817902  141.137177    0.000000    0.000000    0.000000    0.000000
  0.038256513   -0.446947  144.386169 -104.729321  137.561844    0.000000    0.000000    0.000000    0.000000
  0.038456914   -0.448987  144.212921 -104.862412  140.345978    0.000000    0.000000    0.000000    0.000000
  0.038657315   -0.448125  144.024612 -104.426340  144.462921    0.000000    0.000000    0.000000    0.000000
  0.038857715   -0.450292  143.851639 -106.131453  148.214432    0.000000    0.000000    0.000000    0.000000
  0.039058116   -0.455906  143.649475 -105.798140  147.781815    0.000000    0.000000    0.000000    0.000000
  0.039258517   -0.460792  143.458771 -105.981358  145.185257    0.000000    0.000000    0.000000    0.000000
  0.039458918   -0.462085  143.279861 -105.785243  139.355103    0.000000    0.000000    0.000000    0.000000
  0.039659319   -0.460791  143.102249 -104.748719  140.879852    0.000000    0.000000    0.000000    0.000000
  0.039859719   -0.464188  142.899841 -106.512918  146.648438    0.000000    0.000000    0.000000    0.000000
  0.040060120   -0.467065  142.701462 -105.425177  149.900208    0.000000    0.000000    0.000000    0.000000
  0.040260521   -0.465724  142.514877 -105.798120  144.344360    0.000000    0.000000    0.000000    0.000000
  0.040460922   -0.468528  142.333878 -105.535328  140.961273    0.000000    0.000000    0.000000    0.000000
  0.040661323   -0.468119  142.144043 -106.058504  146.980072    0.000000    0.000000    0.000000    0.000000
  0.040861723   -0.471019  141.936539 -106.396838  146.583298    0.000000    0.000000    0.000000    0.000000
  0.041062124   -0.474547  141.752670 -106.049032  141.658493    0.000000    0.000000    0.000000    0.000000
  0.041262525   -0.472377  141.572830 -105.876962  141.153717    0.000000    0.000000    0.000000    0.000000
  0.041462926   -0.474371  141.374969 -106.632998  148.485764    0.000000    0.000000    0.000000    0.000000
  0.041663327   -0.476232  141.178406 -105.790963  142.914291    0.000000    0.000000    0.000000    0.000000
  0.041863727   -0.474291  141.009720 -106.529402  145.164093    0.000000    0.000000    0.000000    0.000000
  0.042064128   -0.472897  140.818649 -105.312802  146.324051    0.000000    0.000000    0.000000    0.000000
  0.042264529   -0.475446  140.617584 -106.314891  136.441193    0.000000    0.000000    0.000000    0.000000
  0.042464930   -0.474613  140.410019 -104.843353  141.194183    0.000000    0.000000    0.000000    0.000000
  0.042665331   -0.477211  140.258682 -106.421259  140.568542    0.000000    0.000000    0.000000    0.000000
  0.042865731   -0.476007  140.062088 -106.191401  142.129593    0.000000    0.000000    0.000000    0.000000
