! Anritsu VNA Master:                 Model: MS2034B/10/19/501
! SN:                                  1337062
! /bd0/ovro-jan-2016/dcp3-b1-balun-open.s2p
! Existing Calibration Information:
! TYPE:                         Current Settings,       Active Cal Settings
! TIME:             	   01/14/2016 12:38:27 PM,    01/14/2016 12:01:10 PM
! INTERNAL TEMP:    	                   41.8 C,                    43.8 C
! # POINTS:         	                      500,                       500
! START FREQ:       	               10.000 MHz,                10.000 MHz
! STOP FREQ:        	              110.000 MHz,               110.000 MHz
! SOURCE POWER:     	                     High,                      High
! IFBW:             	                   100 Hz,                    100 Hz
! AVG FACTOR:       	                       4 ,                        4 
! REF PLANE 1:      	                     0 mm,                      0 mm
! REF PLANE 2:      	                     0 mm,                      0 mm
! CAL TYPE:         	                 Full S11,                  Full S11
! CAL METHOD:       	                     SOLT,                      SOLT
! CAL LINE TYPE:    	                     Coax,                      Coax
! DUT PORT 1:       	                K-Conn(M),                 K-Conn(M)
! DUT PORT 2:       	                N-Conn(M),                 N-Conn(M)
! CAL STATUS:       	        OK: Accuracy High,                        --
# GHZ S DB R 50.0
! FREQ.GHZ       S11DB        S11A       S21DB        S21A       S12DB        S12A       S22DB        S22A
  0.010000000   -0.629926   -7.080453 -104.491440  147.630661    0.000000    0.000000    0.000000    0.000000
  0.010200401   -0.629785   -7.272260 -106.263208  147.471893    0.000000    0.000000    0.000000    0.000000
  0.010400802   -0.631685   -7.433159 -103.714244  150.090485    0.000000    0.000000    0.000000    0.000000
  0.010601202   -0.629269   -7.632652 -104.769410  149.385040    0.000000    0.000000    0.000000    0.000000
  0.010801603   -0.629739   -7.761498 -105.078633  145.022827    0.000000    0.000000    0.000000    0.000000
  0.011002004   -0.632813   -7.946351 -104.605477  153.663849    0.000000    0.000000    0.000000    0.000000
  0.011202405   -0.630967   -8.140846 -103.307079  147.347183    0.000000    0.000000    0.000000    0.000000
  0.011402806   -0.634495   -8.325597 -104.715088  149.937302    0.000000    0.000000    0.000000    0.000000
  0.011603206   -0.631067   -8.490764 -103.134042  148.404434    0.000000    0.000000    0.000000    0.000000
  0.011803607   -0.634654   -8.663664 -103.445624  146.388199    0.000000    0.000000    0.000000    0.000000
  0.012004008   -0.639576   -8.849765 -103.959686  147.257278    0.000000    0.000000    0.000000    0.000000
  0.012204409   -0.637195   -9.002229 -104.252232  141.724121    0.000000    0.000000    0.000000    0.000000
  0.012404810   -0.638678   -9.156719 -103.698067  143.436752    0.000000    0.000000    0.000000    0.000000
  0.012605210   -0.635057   -9.351974 -103.849269  148.891312    0.000000    0.000000    0.000000    0.000000
  0.012805611   -0.634685   -9.543218 -104.654170  149.251587    0.000000    0.000000    0.000000    0.000000
  0.013006012   -0.637212   -9.703426 -104.207507  144.897049    0.000000    0.000000    0.000000    0.000000
  0.013206413   -0.631324   -9.846841 -104.368469  149.434906    0.000000    0.000000    0.000000    0.000000
  0.013406814   -0.633708  -10.046114 -103.158934  141.450577    0.000000    0.000000    0.000000    0.000000
  0.013607214   -0.636370  -10.202033 -104.803441  143.707306    0.000000    0.000000    0.000000    0.000000
  0.013807615   -0.635711  -10.382949 -103.070671  144.125381    0.000000    0.000000    0.000000    0.000000
  0.014008016   -0.636934  -10.561492 -104.412228  153.651779    0.000000    0.000000    0.000000    0.000000
  0.014208417   -0.637770  -10.717487 -103.187492  152.455276    0.000000    0.000000    0.000000    0.000000
  0.014408818   -0.637024  -10.895510 -103.288434  148.798218    0.000000    0.000000    0.000000    0.000000
  0.014609218   -0.635620  -11.054041 -102.891364  149.132874    0.000000    0.000000    0.000000    0.000000
  0.014809619   -0.635725  -11.235193 -105.372171  147.619446    0.000000    0.000000    0.000000    0.000000
  0.015010020   -0.635563  -11.411016 -103.488001  141.855316    0.000000    0.000000    0.000000    0.000000
  0.015210421   -0.637438  -11.568043 -104.001628  139.162460    0.000000    0.000000    0.000000    0.000000
  0.015410822   -0.637487  -11.728016 -103.257514  145.301620    0.000000    0.000000    0.000000    0.000000
  0.015611222   -0.637237  -11.888991 -104.887559  147.288269    0.000000    0.000000    0.000000    0.000000
  0.015811623   -0.636361  -12.056800 -104.207286  151.316757    0.000000    0.000000    0.000000    0.000000
  0.016012024   -0.638577  -12.224557 -103.778963  147.927139    0.000000    0.000000    0.000000    0.000000
  0.016212425   -0.638807  -12.383439 -104.499817  145.931992    0.000000    0.000000    0.000000    0.000000
  0.016412826   -0.636255  -12.561460 -103.154619  148.385254    0.000000    0.000000    0.000000    0.000000
  0.016613226   -0.637324  -12.714874 -103.879384  145.786331    0.000000    0.000000    0.000000    0.000000
  0.016813627   -0.637091  -12.875313 -102.623554  146.805634    0.000000    0.000000    0.000000    0.000000
  0.017014028   -0.637755  -13.054177 -104.715038  136.124252    0.000000    0.000000    0.000000    0.000000
  0.017214429   -0.636971  -13.205809 -103.537833  145.016846    0.000000    0.000000    0.000000    0.000000
  0.017414830   -0.636656  -13.374719 -104.346559  137.609329    0.000000    0.000000    0.000000    0.000000
  0.017615230   -0.637385  -13.531124 -104.926709  144.410141    0.000000    0.000000    0.000000    0.000000
  0.017815631   -0.637762  -13.690900 -104.821484  142.151093    0.000000    0.000000    0.000000    0.000000
  0.018016032   -0.638840  -13.860769 -103.711307  137.878036    0.000000    0.000000    0.000000    0.000000
  0.018216433   -0.641834  -14.021880 -103.390838  141.713409    0.000000    0.000000    0.000000    0.000000
  0.018416834   -0.640498  -14.184524 -105.078342  137.325455    0.000000    0.000000    0.000000    0.000000
  0.018617234   -0.641593  -14.329432 -104.829228  141.069977    0.000000    0.000000    0.000000    0.000000
  0.018817635   -0.643009  -14.501016 -103.554470  150.764481    0.000000    0.000000    0.000000    0.000000
  0.019018036   -0.643998  -14.675114 -104.812713  142.235992    0.000000    0.000000    0.000000    0.000000
  0.019218437   -0.646833  -14.827075 -105.310716  138.666687    0.000000    0.000000    0.000000    0.000000
  0.019418838   -0.643195  -14.986793 -104.420980  141.573792    0.000000    0.000000    0.000000    0.000000
  0.019619238   -0.646081  -15.157441 -104.344662  136.256653    0.000000    0.000000    0.000000    0.000000
  0.019819639   -0.644973  -15.314149 -104.122437  143.022552    0.000000    0.000000    0.000000    0.000000
  0.020020040   -0.646219  -15.489510 -104.844890  149.464722    0.000000    0.000000    0.000000    0.000000
  0.020220441   -0.647377  -15.652024 -104.679280  143.378143    0.000000    0.000000    0.000000    0.000000
  0.020420842   -0.649248  -15.804296 -106.492463  137.881668    0.000000    0.000000    0.000000    0.000000
  0.020621242   -0.651355  -15.960343 -105.608673  147.319763    0.000000    0.000000    0.000000    0.000000
  0.020821643   -0.649168  -16.130449 -105.021856  143.846603    0.000000    0.000000    0.000000    0.000000
  0.021022044   -0.648714  -16.308971 -104.329669  151.539398    0.000000    0.000000    0.000000    0.000000
  0.021222445   -0.650752  -16.469841 -105.934042  148.601181    0.000000    0.000000    0.000000    0.000000
  0.021422846   -0.648873  -16.631836 -105.950233  142.475296    0.000000    0.000000    0.000000    0.000000
  0.021623246   -0.650011  -16.791712 -105.981470  141.992706    0.000000    0.000000    0.000000    0.000000
  0.021823647   -0.652624  -16.962734 -104.352264  143.671738    0.000000    0.000000    0.000000    0.000000
  0.022024048   -0.650610  -17.121962 -104.899485  144.614380    0.000000    0.000000    0.000000    0.000000
  0.022224449   -0.649738  -17.290642 -104.964174  142.255783    0.000000    0.000000    0.000000    0.000000
  0.022424850   -0.652341  -17.464647 -105.335718  140.739182    0.000000    0.000000    0.000000    0.000000
  0.022625251   -0.649388  -17.628889 -103.744340  137.746933    0.000000    0.000000    0.000000    0.000000
  0.022825651   -0.650805  -17.801128 -104.653172  140.166367    0.000000    0.000000    0.000000    0.000000
  0.023026052   -0.652973  -17.963766 -106.317424  134.157242    0.000000    0.000000    0.000000    0.000000
  0.023226453   -0.649307  -18.126123 -105.349459  135.888077    0.000000    0.000000    0.000000    0.000000
  0.023426854   -0.647033  -18.277288 -105.381570  138.356827    0.000000    0.000000    0.000000    0.000000
  0.023627255   -0.647962  -18.424679 -104.877366  143.249359    0.000000    0.000000    0.000000    0.000000
  0.023827655   -0.651156  -18.591257 -105.320979  150.350830    0.000000    0.000000    0.000000    0.000000
  0.024028056   -0.648436  -18.762348 -104.679364  136.520096    0.000000    0.000000    0.000000    0.000000
  0.024228457   -0.650459  -18.920933 -104.517506  134.611801    0.000000    0.000000    0.000000    0.000000
  0.024428858   -0.647578  -19.072479 -104.734693  135.871002    0.000000    0.000000    0.000000    0.000000
  0.024629259   -0.645434  -19.236601 -105.628509  140.728851    0.000000    0.000000    0.000000    0.000000
  0.024829659   -0.637691  -19.340158 -105.858049  151.563873    0.000000    0.000000    0.000000    0.000000
  0.025030060   -0.640314  -19.508236 -106.623134  147.847168    0.000000    0.000000    0.000000    0.000000
  0.025230461   -0.638499  -19.663307 -107.181402  140.559265    0.000000    0.000000    0.000000    0.000000
  0.025430862   -0.638575  -19.818562 -105.130475  146.192398    0.000000    0.000000    0.000000    0.000000
  0.025631263   -0.634749  -19.982464 -107.718865  142.482925    0.000000    0.000000    0.000000    0.000000
  0.025831663   -0.630423  -20.118532 -106.865445  142.623123    0.000000    0.000000    0.000000    0.000000
  0.026032064   -0.634650  -20.287045 -105.514552  147.999619    0.000000    0.000000    0.000000    0.000000
  0.026232465   -0.637868  -20.454798 -106.884743  148.316635    0.000000    0.000000    0.000000    0.000000
  0.026432866   -0.632756  -20.605480 -106.984882  148.641220    0.000000    0.000000    0.000000    0.000000
  0.026633267   -0.631646  -20.743401 -105.291855  141.635788    0.000000    0.000000    0.000000    0.000000
  0.026833667   -0.637805  -20.910866 -107.416397  133.941437    0.000000    0.000000    0.000000    0.000000
  0.027034068   -0.631541  -21.053392 -106.399672  137.673325    0.000000    0.000000    0.000000    0.000000
  0.027234469   -0.631876  -21.212069 -106.664458  139.181427    0.000000    0.000000    0.000000    0.000000
  0.027434870   -0.634523  -21.367891 -106.536977  138.534515    0.000000    0.000000    0.000000    0.000000
  0.027635271   -0.633652  -21.506475 -106.341167  141.791901    0.000000    0.000000    0.000000    0.000000
  0.027835671   -0.634690  -21.659912 -107.677372  140.796982    0.000000    0.000000    0.000000    0.000000
  0.028036072   -0.636809  -21.841640 -106.468216  145.226410    0.000000    0.000000    0.000000    0.000000
  0.028236473   -0.632203  -21.977640 -108.002876  150.506683    0.000000    0.000000    0.000000    0.000000
  0.028436874   -0.633274  -22.100437 -107.936086  143.718491    0.000000    0.000000    0.000000    0.000000
  0.028637275   -0.636658  -22.276834 -107.866449  138.879456    0.000000    0.000000    0.000000    0.000000
  0.028837675   -0.636786  -22.438313 -107.562865  147.803497    0.000000    0.000000    0.000000    0.000000
  0.029038076   -0.638724  -22.568085 -106.043740  140.030548    0.000000    0.000000    0.000000    0.000000
  0.029238477   -0.649158  -22.741369 -106.690615  142.289230    0.000000    0.000000    0.000000    0.000000
  0.029438878   -0.641226  -22.879776 -108.130445  143.341629    0.000000    0.000000    0.000000    0.000000
  0.029639279   -0.642649  -23.024038 -108.968517  146.821960    0.000000    0.000000    0.000000    0.000000
  0.029839679   -0.644742  -23.181000 -107.279836  143.574280    0.000000    0.000000    0.000000    0.000000
  0.030040080   -0.645103  -23.347336 -104.975305  149.661697    0.000000    0.000000    0.000000    0.000000
  0.030240481   -0.647399  -23.494205 -106.630627  141.057266    0.000000    0.000000    0.000000    0.000000
  0.030440882   -0.646895  -23.674612 -107.146239  149.657944    0.000000    0.000000    0.000000    0.000000
  0.030641283   -0.650188  -23.799288 -107.911512  141.054504    0.000000    0.000000    0.000000    0.000000
  0.030841683   -0.650191  -23.987385 -107.558163  144.697525    0.000000    0.000000    0.000000    0.000000
  0.031042084   -0.653546  -24.149399 -107.521123  142.867859    0.000000    0.000000    0.000000    0.000000
  0.031242485   -0.655013  -24.292624 -106.298711  140.804047    0.000000    0.000000    0.000000    0.000000
  0.031442886   -0.658723  -24.468719 -107.723955  143.851608    0.000000    0.000000    0.000000    0.000000
  0.031643287   -0.660681  -24.613380 -106.569184  139.924423    0.000000    0.000000    0.000000    0.000000
  0.031843687   -0.662689  -24.810875 -107.107688  142.032196    0.000000    0.000000    0.000000    0.000000
  0.032044088   -0.661050  -24.934605 -105.797606  142.411011    0.000000    0.000000    0.000000    0.000000
  0.032244489   -0.664426  -25.130985 -107.237698  145.495758    0.000000    0.000000    0.000000    0.000000
  0.032444890   -0.658156  -25.292269 -107.115018  138.279907    0.000000    0.000000    0.000000    0.000000
  0.032645291   -0.664082  -25.451969 -108.347516  147.324829    0.000000    0.000000    0.000000    0.000000
  0.032845691   -0.661125  -25.604450 -106.982885  146.242081    0.000000    0.000000    0.000000    0.000000
  0.033046092   -0.662468  -25.786091 -106.507395  143.133759    0.000000    0.000000    0.000000    0.000000
  0.033246493   -0.663019  -25.968613 -107.596356  150.471039    0.000000    0.000000    0.000000    0.000000
  0.033446894   -0.661746  -26.125494 -107.431719  148.591446    0.000000    0.000000    0.000000    0.000000
  0.033647295   -0.662416  -26.283422 -108.760199  144.929108    0.000000    0.000000    0.000000    0.000000
  0.033847695   -0.660737  -26.472210 -106.830464  150.812271    0.000000    0.000000    0.000000    0.000000
  0.034048096   -0.658322  -26.621799 -107.532188  148.014389    0.000000    0.000000    0.000000    0.000000
  0.034248497   -0.660440  -26.779875 -107.546076  145.423035    0.000000    0.000000    0.000000    0.000000
  0.034448898   -0.657749  -26.936831 -107.180451  142.561005    0.000000    0.000000    0.000000    0.000000
  0.034649299   -0.657978  -27.104866 -108.160720  150.765350    0.000000    0.000000    0.000000    0.000000
  0.034849699   -0.656529  -27.260649 -106.749053  143.401016    0.000000    0.000000    0.000000    0.000000
  0.035050100   -0.655618  -27.418648 -107.092935  141.333939    0.000000    0.000000    0.000000    0.000000
  0.035250501   -0.654177  -27.572083 -107.279227  144.723801    0.000000    0.000000    0.000000    0.000000
  0.035450902   -0.652007  -27.745762 -107.362451  144.403702    0.000000    0.000000    0.000000    0.000000
  0.035651303   -0.651766  -27.900023 -106.043701  142.798065    0.000000    0.000000    0.000000    0.000000
  0.035851703   -0.652280  -28.032452 -106.522254  139.030533    0.000000    0.000000    0.000000    0.000000
  0.036052104   -0.650332  -28.181303 -106.936349  143.448318    0.000000    0.000000    0.000000    0.000000
  0.036252505   -0.648824  -28.345600 -107.132380  141.421448    0.000000    0.000000    0.000000    0.000000
  0.036452906   -0.650118  -28.497440 -106.962391  132.228531    0.000000    0.000000    0.000000    0.000000
  0.036653307   -0.651261  -28.639574 -107.844652  145.866058    0.000000    0.000000    0.000000    0.000000
  0.036853707   -0.648256  -28.792055 -107.468525  133.792694    0.000000    0.000000    0.000000    0.000000
  0.037054108   -0.651405  -28.937677 -106.515471  138.113754    0.000000    0.000000    0.000000    0.000000
  0.037254509   -0.649422  -29.082094 -107.124888  143.716080    0.000000    0.000000    0.000000    0.000000
  0.037454910   -0.650926  -29.222254 -106.599542  141.588898    0.000000    0.000000    0.000000    0.000000
  0.037655311   -0.653026  -29.371737 -106.564507  139.235489    0.000000    0.000000    0.000000    0.000000
  0.037855711   -0.651135  -29.524988 -107.226013  139.005722    0.000000    0.000000    0.000000    0.000000
  0.038056112   -0.654233  -29.670855 -106.250505  139.514038    0.000000    0.000000    0.000000    0.000000
  0.038256513   -0.654893  -29.829325 -106.336120  143.214844    0.000000    0.000000    0.000000    0.000000
  0.038456914   -0.657085  -29.977205 -107.483876  140.501297    0.000000    0.000000    0.000000    0.000000
  0.038657315   -0.656434  -30.136007 -106.924089  134.855133    0.000000    0.000000    0.000000    0.000000
  0.038857715   -0.660961  -30.298317 -106.514743  138.308075    0.000000    0.000000    0.000000    0.000000
  0.039058116   -0.664109  -30.448030 -106.443846  140.705078    0.000000    0.000000    0.000000    0.000000
  0.039258517   -0.666126  -30.607895 -107.333847  141.971817    0.000000    0.000000    0.000000    0.000000
  0.039458918   -0.670151  -30.767561 -108.175558  138.092133    0.000000    0.000000    0.000000    0.000000
  0.039659319   -0.670428  -30.916861 -106.893066  142.660187    0.000000    0.000000    0.000000    0.000000
  0.039859719   -0.674127  -31.082394 -106.435406  145.842957    0.000000    0.000000    0.000000    0.000000
  0.040060120   -0.677575  -31.253723 -108.372391  144.552933    0.000000    0.000000    0.000000    0.000000
  0.040260521   -0.678437  -31.407234 -107.004430  142.942581    0.000000    0.000000    0.000000    0.000000
  0.040460922   -0.677027  -31.601768 -106.926915  139.505692    0.000000    0.000000    0.000000    0.000000
  0.040661323   -0.677933  -31.759335 -107.200868  139.196518    0.000000    0.000000    0.000000    0.000000
  0.040861723   -0.678185  -31.939333 -106.802289  142.784149    0.000000    0.000000    0.000000    0.000000
  0.041062124   -0.680525  -32.127831 -106.458973  139.426117    0.000000    0.000000    0.000000    0.000000
  0.041262525   -0.681046  -32.283058 -107.900501  138.848236    0.000000    0.000000    0.000000    0.000000
  0.041462926   -0.680375  -32.460297 -106.646281  144.186539    0.000000    0.000000    0.000000    0.000000
  0.041663327   -0.679339  -32.637417 -107.143919  136.549774    0.000000    0.000000    0.000000    0.000000
  0.041863727   -0.678842  -32.799896 -107.363372  147.026901    0.000000    0.000000    0.000000    0.000000
  0.042064128   -0.676767  -32.969490 -106.924878  140.208618    0.000000    0.000000    0.000000    0.000000
  0.042264529   -0.678893  -33.138180 -107.421183  142.776901    0.000000    0.000000    0.000000    0.000000
  0.042464930   -0.677059  -33.314133 -107.756976  146.119156    0.000000    0.000000    0.000000    0.000000
  0.042665331   -0.671418  -33.469818 -106.786050  140.747086    0.000000    0.000000    0.000000    0.000000
  0.042865731   -0.669832  -33.649834 -107.232390  137.427246    0.000000    0.000000    0.000000    0.000000
