! Anritsu VNA Master:                 Model: MS2034B/10/19/501
! SN:                                  1337062
! /bd0/ovro-jan-2016/dcp3-y2-balun-load.s2p
! Existing Calibration Information:
! TYPE:                         Current Settings,       Active Cal Settings
! TIME:             	   01/14/2016 12:14:39 PM,    01/14/2016 12:01:10 PM
! INTERNAL TEMP:    	                   44.0 C,                    43.8 C
! # POINTS:         	                      500,                       500
! START FREQ:       	               10.000 MHz,                10.000 MHz
! STOP FREQ:        	              110.000 MHz,               110.000 MHz
! SOURCE POWER:     	                     High,                      High
! IFBW:             	                   100 Hz,                    100 Hz
! AVG FACTOR:       	                       4 ,                        4 
! REF PLANE 1:      	                     0 mm,                      0 mm
! REF PLANE 2:      	                     0 mm,                      0 mm
! CAL TYPE:         	                 Full S11,                  Full S11
! CAL METHOD:       	                     SOLT,                      SOLT
! CAL LINE TYPE:    	                     Coax,                      Coax
! DUT PORT 1:       	                K-Conn(M),                 K-Conn(M)
! DUT PORT 2:       	                N-Conn(M),                 N-Conn(M)
! CAL STATUS:       	        OK: Accuracy High,                        --
# GHZ S DB R 50.0
! FREQ.GHZ       S11DB        S11A       S21DB        S21A       S12DB        S12A       S22DB        S22A
  0.010000000   -9.422574  174.813568 -104.910477  133.626862    0.000000    0.000000    0.000000    0.000000
  0.010200401   -9.428128  174.698837 -106.698304  136.653214    0.000000    0.000000    0.000000    0.000000
  0.010400802   -9.429778  174.676590 -104.320712  139.061127    0.000000    0.000000    0.000000    0.000000
  0.010601202   -9.452590  174.508453 -105.277903  133.094345    0.000000    0.000000    0.000000    0.000000
  0.010801603   -9.454071  174.396088 -104.926006  132.882980    0.000000    0.000000    0.000000    0.000000
  0.011002004   -9.456219  174.342133 -105.721586  133.384430    0.000000    0.000000    0.000000    0.000000
  0.011202405   -9.459009  174.228577 -105.832152  140.062317    0.000000    0.000000    0.000000    0.000000
  0.011402806   -9.458190  174.150284 -105.519646  132.343948    0.000000    0.000000    0.000000    0.000000
  0.011603206   -9.461953  174.049301 -105.742835  129.048813    0.000000    0.000000    0.000000    0.000000
  0.011803607   -9.464683  173.971130 -106.296476  130.955414    0.000000    0.000000    0.000000    0.000000
  0.012004008   -9.463938  173.894257 -105.239737  139.941010    0.000000    0.000000    0.000000    0.000000
  0.012204409   -9.465971  173.789856 -105.860527  136.117249    0.000000    0.000000    0.000000    0.000000
  0.012404810   -9.468846  173.743805 -105.771263  142.659668    0.000000    0.000000    0.000000    0.000000
  0.012605210   -9.466240  173.611832 -106.261144  129.459671    0.000000    0.000000    0.000000    0.000000
  0.012805611   -9.471985  173.499420 -105.485537  135.364182    0.000000    0.000000    0.000000    0.000000
  0.013006012   -9.470096  173.426620 -104.877256  136.239655    0.000000    0.000000    0.000000    0.000000
  0.013206413   -9.471205  173.352005 -106.843379  146.474319    0.000000    0.000000    0.000000    0.000000
  0.013406814   -9.471455  173.244751 -106.548469  132.686310    0.000000    0.000000    0.000000    0.000000
  0.013607214   -9.473668  173.162674 -106.468995  137.789566    0.000000    0.000000    0.000000    0.000000
  0.013807615   -9.471741  173.080124 -105.612802  128.087616    0.000000    0.000000    0.000000    0.000000
  0.014008016   -9.472799  172.990982 -105.658068  148.184952    0.000000    0.000000    0.000000    0.000000
  0.014208417   -9.476602  172.899261 -107.191678  134.784515    0.000000    0.000000    0.000000    0.000000
  0.014408818   -9.477081  172.836624 -107.122041  146.778381    0.000000    0.000000    0.000000    0.000000
  0.014609218   -9.476849  172.756470 -107.310010  137.744598    0.000000    0.000000    0.000000    0.000000
  0.014809619   -9.481957  172.663483 -106.024469  133.927124    0.000000    0.000000    0.000000    0.000000
  0.015010020   -9.481003  172.563171 -105.815243  145.046494    0.000000    0.000000    0.000000    0.000000
  0.015210421   -9.481621  172.485367 -106.838758  138.460373    0.000000    0.000000    0.000000    0.000000
  0.015410822   -9.484866  172.419495 -106.231160  140.806824    0.000000    0.000000    0.000000    0.000000
  0.015611222   -9.485538  172.308594 -105.212918  143.971725    0.000000    0.000000    0.000000    0.000000
  0.015811623   -9.486055  172.216995 -105.675723  132.710037    0.000000    0.000000    0.000000    0.000000
  0.016012024   -9.487545  172.164200 -105.686511  136.565704    0.000000    0.000000    0.000000    0.000000
  0.016212425   -9.492123  172.073380 -106.323290  133.037399    0.000000    0.000000    0.000000    0.000000
  0.016412826   -9.484781  172.128235 -106.009279  130.411774    0.000000    0.000000    0.000000    0.000000
  0.016613226   -9.489285  172.045532 -107.318754  140.369324    0.000000    0.000000    0.000000    0.000000
  0.016813627   -9.495954  171.890030 -106.644300  138.141937    0.000000    0.000000    0.000000    0.000000
  0.017014028   -9.494501  171.882141 -107.366877  144.278046    0.000000    0.000000    0.000000    0.000000
  0.017214429   -9.496968  171.816071 -106.623454  136.894684    0.000000    0.000000    0.000000    0.000000
  0.017414830   -9.496593  171.694122 -106.996564  143.429413    0.000000    0.000000    0.000000    0.000000
  0.017615230   -9.499157  171.632629 -106.931777  141.681534    0.000000    0.000000    0.000000    0.000000
  0.017815631   -9.501090  171.527176 -106.986330  138.252213    0.000000    0.000000    0.000000    0.000000
  0.018016032   -9.508107  171.363190 -106.675425  145.439178    0.000000    0.000000    0.000000    0.000000
  0.018216433   -9.506628  171.334320 -107.266900  149.760590    0.000000    0.000000    0.000000    0.000000
  0.018416834   -9.510939  171.281281 -105.820678  140.661819    0.000000    0.000000    0.000000    0.000000
  0.018617234   -9.511881  171.180038 -106.733368  138.529083    0.000000    0.000000    0.000000    0.000000
  0.018817635   -9.518443  171.092819 -106.383509  146.753616    0.000000    0.000000    0.000000    0.000000
  0.019018036   -9.522727  171.012161 -106.980348  152.445541    0.000000    0.000000    0.000000    0.000000
  0.019218437   -9.529663  170.837418 -106.947051  154.056946    0.000000    0.000000    0.000000    0.000000
  0.019418838   -9.528493  170.819733 -106.400347  136.393127    0.000000    0.000000    0.000000    0.000000
  0.019619238   -9.531736  170.745789 -107.029124  140.015198    0.000000    0.000000    0.000000    0.000000
  0.019819639   -9.533631  170.631073 -105.785553  140.786469    0.000000    0.000000    0.000000    0.000000
  0.020020040   -9.536868  170.542465 -106.511353  146.432877    0.000000    0.000000    0.000000    0.000000
  0.020220441   -9.541651  170.429306 -107.189833  145.899109    0.000000    0.000000    0.000000    0.000000
  0.020420842   -9.543525  170.307922 -106.236412  148.269379    0.000000    0.000000    0.000000    0.000000
  0.020621242   -9.546125  170.155243 -107.578307  149.640762    0.000000    0.000000    0.000000    0.000000
  0.020821643   -9.549376  170.153076 -106.326632  148.201172    0.000000    0.000000    0.000000    0.000000
  0.021022044   -9.549294  170.040939 -107.944539  145.694077    0.000000    0.000000    0.000000    0.000000
  0.021222445   -9.551391  169.962830 -108.225788  157.230469    0.000000    0.000000    0.000000    0.000000
  0.021422846   -9.551567  169.873032 -107.680414  142.786453    0.000000    0.000000    0.000000    0.000000
  0.021623246   -9.550485  169.749664 -106.745264  150.694290    0.000000    0.000000    0.000000    0.000000
  0.021823647   -9.553750  169.607651 -105.747125  143.742920    0.000000    0.000000    0.000000    0.000000
  0.022024048   -9.559672  169.598282 -107.353854  147.073807    0.000000    0.000000    0.000000    0.000000
  0.022224449   -9.559814  169.488541 -106.552761  140.516830    0.000000    0.000000    0.000000    0.000000
  0.022424850   -9.557455  169.362930 -107.323650  152.356949    0.000000    0.000000    0.000000    0.000000
  0.022625251   -9.558036  169.282913 -106.731803  143.897308    0.000000    0.000000    0.000000    0.000000
  0.022825651   -9.563024  169.189453 -106.291648  154.412750    0.000000    0.000000    0.000000    0.000000
  0.023026052   -9.558181  169.027069 -106.626066  149.100372    0.000000    0.000000    0.000000    0.000000
  0.023226453   -9.557003  168.982559 -106.697860  144.304565    0.000000    0.000000    0.000000    0.000000
  0.023426854   -9.560021  168.931702 -105.831982  142.780701    0.000000    0.000000    0.000000    0.000000
  0.023627255   -9.562021  168.832703 -105.442302  136.511124    0.000000    0.000000    0.000000    0.000000
  0.023827655   -9.564481  168.747971 -108.292264  148.117905    0.000000    0.000000    0.000000    0.000000
  0.024028056   -9.561777  168.636780 -106.493932  151.976898    0.000000    0.000000    0.000000    0.000000
  0.024228457   -9.560902  168.524689 -106.457706  145.218338    0.000000    0.000000    0.000000    0.000000
  0.024428858   -9.562120  168.487244 -106.805826  144.408508    0.000000    0.000000    0.000000    0.000000
  0.024629259   -9.565281  168.411118 -106.265385  142.573120    0.000000    0.000000    0.000000    0.000000
  0.024829659   -9.544457  168.428513 -107.270642  133.029007    0.000000    0.000000    0.000000    0.000000
  0.025030060   -9.549031  168.373627 -106.743389  135.483627    0.000000    0.000000    0.000000    0.000000
  0.025230461   -9.548618  168.234863 -110.863771  153.517563    0.000000    0.000000    0.000000    0.000000
  0.025430862   -9.544805  168.116440 -106.631105  144.946533    0.000000    0.000000    0.000000    0.000000
  0.025631263   -9.548089  168.076645 -105.312704  140.515823    0.000000    0.000000    0.000000    0.000000
  0.025831663   -9.551638  168.016937 -106.918574  152.204803    0.000000    0.000000    0.000000    0.000000
  0.026032064   -9.551826  167.910522 -108.370281  148.804626    0.000000    0.000000    0.000000    0.000000
  0.026232465   -9.551683  167.810410 -106.838080  137.856308    0.000000    0.000000    0.000000    0.000000
  0.026432866   -9.551837  167.730637 -106.381637  149.403778    0.000000    0.000000    0.000000    0.000000
  0.026633267   -9.553738  167.621902 -107.309920  146.234573    0.000000    0.000000    0.000000    0.000000
  0.026833667   -9.547395  167.487396 -108.593298  149.419113    0.000000    0.000000    0.000000    0.000000
  0.027034068   -9.554150  167.431808 -106.252239  141.098602    0.000000    0.000000    0.000000    0.000000
  0.027234469   -9.557020  167.344513 -107.846588  149.489670    0.000000    0.000000    0.000000    0.000000
  0.027434870   -9.559628  167.271210 -107.616044  139.149292    0.000000    0.000000    0.000000    0.000000
  0.027635271   -9.561753  167.199005 -106.098458  150.194214    0.000000    0.000000    0.000000    0.000000
  0.027835671   -9.565279  167.082565 -106.985706  143.704147    0.000000    0.000000    0.000000    0.000000
  0.028036072   -9.556154  166.944199 -106.217404  143.077637    0.000000    0.000000    0.000000    0.000000
  0.028236473   -9.561088  166.884964 -106.519508  140.329132    0.000000    0.000000    0.000000    0.000000
  0.028436874   -9.568712  166.812378 -107.047476  141.351746    0.000000    0.000000    0.000000    0.000000
  0.028637275   -9.573129  166.730591 -107.992250  138.798874    0.000000    0.000000    0.000000    0.000000
  0.028837675   -9.572120  166.629059 -105.328097  143.207626    0.000000    0.000000    0.000000    0.000000
  0.029038076   -9.579297  166.538284 -106.356238  138.723495    0.000000    0.000000    0.000000    0.000000
  0.029238477   -9.572010  166.454132 -106.885609  143.540298    0.000000    0.000000    0.000000    0.000000
  0.029438878   -9.578719  166.372116 -106.708216  134.621368    0.000000    0.000000    0.000000    0.000000
  0.029639279   -9.581542  166.269028 -107.371616  150.251328    0.000000    0.000000    0.000000    0.000000
  0.029839679   -9.579789  166.187759 -106.873262  149.922684    0.000000    0.000000    0.000000    0.000000
  0.030040080   -9.588146  166.069519 -105.478796  136.757538    0.000000    0.000000    0.000000    0.000000
  0.030240481   -9.590778  165.961151 -107.446855  139.657120    0.000000    0.000000    0.000000    0.000000
  0.030440882   -9.576445  165.868927 -105.767723  134.815201    0.000000    0.000000    0.000000    0.000000
  0.030641283   -9.588355  165.795639 -106.109091  136.673172    0.000000    0.000000    0.000000    0.000000
  0.030841683   -9.593890  165.681763 -104.919896  141.713058    0.000000    0.000000    0.000000    0.000000
  0.031042084   -9.590185  165.612778 -107.579324  138.605057    0.000000    0.000000    0.000000    0.000000
  0.031242485   -9.593766  165.508987 -105.669157  135.210953    0.000000    0.000000    0.000000    0.000000
  0.031442886   -9.594191  165.408234 -105.503336  139.464996    0.000000    0.000000    0.000000    0.000000
  0.031643287   -9.595804  165.327820 -106.764209  138.875671    0.000000    0.000000    0.000000    0.000000
  0.031843687   -9.588427  165.193787 -105.420521  135.114044    0.000000    0.000000    0.000000    0.000000
  0.032044088   -9.601696  165.139938 -106.919764  138.494446    0.000000    0.000000    0.000000    0.000000
  0.032244489   -9.592399  165.040024 -106.923203  138.410995    0.000000    0.000000    0.000000    0.000000
  0.032444890   -9.594429  164.933777 -106.114476  137.079376    0.000000    0.000000    0.000000    0.000000
  0.032645291   -9.595831  164.847961 -105.864661  138.788467    0.000000    0.000000    0.000000    0.000000
  0.032845691   -9.601255  164.749374 -105.099695  146.487503    0.000000    0.000000    0.000000    0.000000
  0.033046092   -9.585470  164.752640 -106.326694  135.980911    0.000000    0.000000    0.000000    0.000000
  0.033246493   -9.582887  164.643250 -106.447731  143.395401    0.000000    0.000000    0.000000    0.000000
  0.033446894   -9.583687  164.546661 -106.576345  145.591339    0.000000    0.000000    0.000000    0.000000
  0.033647295   -9.584980  164.472672 -107.154637  140.372482    0.000000    0.000000    0.000000    0.000000
  0.033847695   -9.586765  164.384933 -106.396751  142.102783    0.000000    0.000000    0.000000    0.000000
  0.034048096   -9.587132  164.302032 -107.746306  136.816147    0.000000    0.000000    0.000000    0.000000
  0.034248497   -9.587176  164.213913 -106.971601  148.111710    0.000000    0.000000    0.000000    0.000000
  0.034448898   -9.588328  164.122269 -106.823657  146.070053    0.000000    0.000000    0.000000    0.000000
  0.034649299   -9.592280  164.035355 -106.487465  143.037964    0.000000    0.000000    0.000000    0.000000
  0.034849699   -9.591210  163.963074 -107.000041  143.541214    0.000000    0.000000    0.000000    0.000000
  0.035050100   -9.592500  163.867172 -106.552295  146.666840    0.000000    0.000000    0.000000    0.000000
  0.035250501   -9.596051  163.795837 -106.440084  132.476028    0.000000    0.000000    0.000000    0.000000
  0.035450902   -9.597627  163.712173 -105.122632  142.587021    0.000000    0.000000    0.000000    0.000000
  0.035651303   -9.596989  163.637497 -106.013983  141.378540    0.000000    0.000000    0.000000    0.000000
  0.035851703   -9.602974  163.524780 -105.923830  141.260895    0.000000    0.000000    0.000000    0.000000
  0.036052104   -9.601504  163.458557 -106.528771  145.889999    0.000000    0.000000    0.000000    0.000000
  0.036252505   -9.601492  163.374039 -106.258635  141.397171    0.000000    0.000000    0.000000    0.000000
  0.036452906   -9.603672  163.261642 -105.870281  143.201172    0.000000    0.000000    0.000000    0.000000
  0.036653307   -9.607027  163.179672 -106.720507  138.742905    0.000000    0.000000    0.000000    0.000000
  0.036853707   -9.609049  163.105453 -106.381472  138.689072    0.000000    0.000000    0.000000    0.000000
  0.037054108   -9.609927  163.013290 -107.296763  139.458740    0.000000    0.000000    0.000000    0.000000
  0.037254509   -9.613945  162.905838 -106.763295  138.373276    0.000000    0.000000    0.000000    0.000000
  0.037454910   -9.613062  162.840424 -105.240521  140.096329    0.000000    0.000000    0.000000    0.000000
  0.037655311   -9.616345  162.760345 -105.594085  146.204330    0.000000    0.000000    0.000000    0.000000
  0.037855711   -9.616881  162.662048 -105.147873  139.992477    0.000000    0.000000    0.000000    0.000000
  0.038056112   -9.617524  162.586777 -107.218256  132.875488    0.000000    0.000000    0.000000    0.000000
  0.038256513   -9.618008  162.502716 -105.237869  141.801895    0.000000    0.000000    0.000000    0.000000
  0.038456914   -9.622635  162.407074 -106.590736  144.850494    0.000000    0.000000    0.000000    0.000000
  0.038657315   -9.622303  162.309753 -106.028436  140.213013    0.000000    0.000000    0.000000    0.000000
  0.038857715   -9.623728  162.222992 -106.025086  139.230530    0.000000    0.000000    0.000000    0.000000
  0.039058116   -9.628561  162.115189 -105.913851  144.732956    0.000000    0.000000    0.000000    0.000000
  0.039258517   -9.631094  162.032043 -107.650884  149.701691    0.000000    0.000000    0.000000    0.000000
  0.039458918   -9.631662  161.941879 -106.678959  144.912598    0.000000    0.000000    0.000000    0.000000
  0.039659319   -9.632270  161.866943 -106.320735  137.937408    0.000000    0.000000    0.000000    0.000000
  0.039859719   -9.634248  161.739792 -106.321415  138.916397    0.000000    0.000000    0.000000    0.000000
  0.040060120   -9.637311  161.649292 -106.479868  142.889069    0.000000    0.000000    0.000000    0.000000
  0.040260521   -9.636563  161.557358 -106.790748  145.134323    0.000000    0.000000    0.000000    0.000000
  0.040460922   -9.634889  161.455887 -105.943285  147.801392    0.000000    0.000000    0.000000    0.000000
  0.040661323   -9.637809  161.364899 -106.407897  143.639740    0.000000    0.000000    0.000000    0.000000
  0.040861723   -9.638779  161.280731 -106.772333  136.921341    0.000000    0.000000    0.000000    0.000000
  0.041062124   -9.639083  161.189377 -106.707524  147.393631    0.000000    0.000000    0.000000    0.000000
  0.041262525   -9.635444  161.073990 -106.851900  138.836945    0.000000    0.000000    0.000000    0.000000
  0.041462926   -9.638775  160.996246 -105.503565  141.817810    0.000000    0.000000    0.000000    0.000000
  0.041663327   -9.639730  160.906906 -106.523306  145.624207    0.000000    0.000000    0.000000    0.000000
  0.041863727   -9.637488  160.812317 -107.016052  144.378769    0.000000    0.000000    0.000000    0.000000
  0.042064128   -9.636392  160.683075 -106.449636  144.509781    0.000000    0.000000    0.000000    0.000000
  0.042264529   -9.640064  160.603638 -105.705450  139.416138    0.000000    0.000000    0.000000    0.000000
  0.042464930   -9.641635  160.526428 -105.770646  140.811890    0.000000    0.000000    0.000000    0.000000
  0.042665331   -9.640469  160.450577 -105.713474  144.348190    0.000000    0.000000    0.000000    0.000000
  0.042865731   -9.640532  160.313492 -105.456062  139.217590    0.000000    0.000000    0.000000    0.000000
