! Anritsu VNA Master:                     Model: MS2036C/10/77
! SN:                                  1601066
! /card0/usr/20ohm2.s2p
! Existing Calibration Information:
! TYPE:                         Current Settings,       Active Cal Settings
! TIME:             	   12/20/2017 03:51:43 PM,    12/20/2017 03:36:34 PM
! INTERNAL TEMP:    	                   44.3 C,                    44.5 C
! # POINTS:         	                      501,                       501
! START FREQ:       	               10.000 MHz,                10.000 MHz
! STOP FREQ:        	              110.000 MHz,               110.000 MHz
! SOURCE POWER:     	                     High,                      High
! IFBW:             	                   100 Hz,                    100 Hz
! AVG FACTOR:       	                       1 ,                        1 
! REF PLANE 1:      	                     0 mm,                      0 mm
! REF PLANE 2:      	                     0 mm,                      0 mm
! CAL TYPE:         	                 Full S11,                  Full S11
! CAL METHOD:       	                     SOLT,                      SOLT
! CAL LINE TYPE:    	                     Coax,                      Coax
! DUT PORT 1:       	                K-Conn(F),                 K-Conn(F)
! DUT PORT 2:       	                K-Conn(F),                 K-Conn(F)
! CAL STATUS:       	        OK: Accuracy High,                        --
# GHZ S DB R 50.0
! FREQ.GHZ       S11DB        S11A       S21DB        S21A       S12DB        S12A       S22DB        S22A
  0.010000000   -7.460387  167.533478  -82.722221   78.767235    0.000000    0.000000    0.000000    0.000000
  0.010200000   -7.449943  167.343002  -82.541802   77.999786    0.000000    0.000000    0.000000    0.000000
  0.010400000   -7.452099  167.094223  -82.426415   75.347664    0.000000    0.000000    0.000000    0.000000
  0.010600000   -7.454721  166.816803  -82.870168   72.877022    0.000000    0.000000    0.000000    0.000000
  0.010800000   -7.456559  166.572647  -83.327063   69.786728    0.000000    0.000000    0.000000    0.000000
  0.011000000   -7.459406  166.295364  -83.492150   67.463409    0.000000    0.000000    0.000000    0.000000
  0.011200000   -7.454168  166.021774  -83.830179   64.971390    0.000000    0.000000    0.000000    0.000000
  0.011400000   -7.456612  165.758759  -84.343664   65.088020    0.000000    0.000000    0.000000    0.000000
  0.011600000   -7.461982  165.537659  -84.228758   62.454674    0.000000    0.000000    0.000000    0.000000
  0.011800000   -7.459676  165.267242  -85.100176   63.148335    0.000000    0.000000    0.000000    0.000000
  0.012000000   -7.464915  165.028702  -85.191698   59.901108    0.000000    0.000000    0.000000    0.000000
  0.012200000   -7.461066  164.732422  -85.170917   59.585171    0.000000    0.000000    0.000000    0.000000
  0.012400000   -7.461891  164.494247  -85.079921   60.760994    0.000000    0.000000    0.000000    0.000000
  0.012600000   -7.461713  164.233582  -86.010210   60.013512    0.000000    0.000000    0.000000    0.000000
  0.012800000   -7.464329  163.999100  -85.891027   56.520596    0.000000    0.000000    0.000000    0.000000
  0.013000000   -7.465320  163.785660  -86.147537   59.425549    0.000000    0.000000    0.000000    0.000000
  0.013200000   -7.469933  163.515747  -86.722770   58.137478    0.000000    0.000000    0.000000    0.000000
  0.013400000   -7.467698  163.289032  -86.862598   62.089752    0.000000    0.000000    0.000000    0.000000
  0.013600000   -7.464950  163.038010  -86.750894   58.360874    0.000000    0.000000    0.000000    0.000000
  0.013800000   -7.454504  162.798569  -86.937214   59.386833    0.000000    0.000000    0.000000    0.000000
  0.014000000   -7.463275  162.581528  -87.029470   57.612251    0.000000    0.000000    0.000000    0.000000
  0.014200000   -7.461834  162.353424  -87.423346   55.207745    0.000000    0.000000    0.000000    0.000000
  0.014400000   -7.465352  162.109711  -87.692537   56.896305    0.000000    0.000000    0.000000    0.000000
  0.014600000   -7.469779  161.880310  -87.937769   57.516914    0.000000    0.000000    0.000000    0.000000
  0.014800000   -7.472335  161.621368  -87.491835   56.350895    0.000000    0.000000    0.000000    0.000000
  0.015000000   -7.473056  161.373550  -88.439425   57.863205    0.000000    0.000000    0.000000    0.000000
  0.015200000   -7.477185  161.134247  -87.768272   54.446392    0.000000    0.000000    0.000000    0.000000
  0.015400000   -7.480292  160.865723  -87.917830   57.115795    0.000000    0.000000    0.000000    0.000000
  0.015600000   -7.477191  160.704483  -87.860182   55.856766    0.000000    0.000000    0.000000    0.000000
  0.015800000   -7.483692  160.362076  -87.940536   53.762363    0.000000    0.000000    0.000000    0.000000
  0.016000000   -7.490088  160.136337  -87.754437   55.934544    0.000000    0.000000    0.000000    0.000000
  0.016200000   -7.491100  159.872482  -88.126709   50.129398    0.000000    0.000000    0.000000    0.000000
  0.016400000   -7.490701  159.634323  -88.657827   51.425461    0.000000    0.000000    0.000000    0.000000
  0.016600000   -7.492957  159.372543  -88.716471   47.602146    0.000000    0.000000    0.000000    0.000000
  0.016800000   -7.491206  159.136246  -88.160892   49.335873    0.000000    0.000000    0.000000    0.000000
  0.017000000   -7.495355  158.856415  -88.196984   50.334785    0.000000    0.000000    0.000000    0.000000
  0.017200000   -7.491249  158.622055  -88.879220   43.622108    0.000000    0.000000    0.000000    0.000000
  0.017400000   -7.495460  158.354858  -88.561950   46.918877    0.000000    0.000000    0.000000    0.000000
  0.017600000   -7.500708  158.090012  -89.497541   43.573765    0.000000    0.000000    0.000000    0.000000
  0.017800000   -7.496970  157.823868  -89.006933   42.087685    0.000000    0.000000    0.000000    0.000000
  0.018000000   -7.499272  157.565979  -89.667069   38.058537    0.000000    0.000000    0.000000    0.000000
  0.018200000   -7.496217  157.312836  -89.788172   41.356655    0.000000    0.000000    0.000000    0.000000
  0.018400000   -7.499611  157.064377  -90.012789   37.403088    0.000000    0.000000    0.000000    0.000000
  0.018600000   -7.498539  156.811951  -89.981292   39.789669    0.000000    0.000000    0.000000    0.000000
  0.018800000   -7.496526  156.556030  -90.940664   43.011368    0.000000    0.000000    0.000000    0.000000
  0.019000000   -7.496298  156.327621  -91.020409   38.316746    0.000000    0.000000    0.000000    0.000000
  0.019200000   -7.494568  156.078262  -90.922568   37.707878    0.000000    0.000000    0.000000    0.000000
  0.019400000   -7.493310  155.847656  -91.141959   40.068989    0.000000    0.000000    0.000000    0.000000
  0.019600000   -7.494862  155.599228  -90.964803   36.160828    0.000000    0.000000    0.000000    0.000000
  0.019800000   -7.496551  155.356659  -91.183098   38.269627    0.000000    0.000000    0.000000    0.000000
  0.020000000   -7.493441  155.135101  -91.510794   35.900051    0.000000    0.000000    0.000000    0.000000
  0.020200000   -7.492415  154.888855  -91.994787   41.559517    0.000000    0.000000    0.000000    0.000000
  0.020400000   -7.488043  154.654755  -91.743979   33.679565    0.000000    0.000000    0.000000    0.000000
  0.020600000   -7.486254  154.405655  -91.823478   40.021637    0.000000    0.000000    0.000000    0.000000
  0.020800000   -7.482089  154.172928  -92.647897   38.360966    0.000000    0.000000    0.000000    0.000000
  0.021000000   -7.482051  153.895554  -91.118850   41.988701    0.000000    0.000000    0.000000    0.000000
  0.021200000   -7.481445  153.678391  -91.386307   37.838654    0.000000    0.000000    0.000000    0.000000
  0.021400000   -7.485109  153.446167  -91.417149   37.282799    0.000000    0.000000    0.000000    0.000000
  0.021600000   -7.488440  153.233551  -92.562109   36.237469    0.000000    0.000000    0.000000    0.000000
  0.021800000   -7.489565  152.997009  -92.706625   37.711292    0.000000    0.000000    0.000000    0.000000
  0.022000000   -7.495433  152.773270  -92.662415   36.250607    0.000000    0.000000    0.000000    0.000000
  0.022200000   -7.494398  152.523331  -92.411162   36.883911    0.000000    0.000000    0.000000    0.000000
  0.022400000   -7.498072  152.286774  -92.377553   40.518219    0.000000    0.000000    0.000000    0.000000
  0.022600000   -7.501639  152.055725  -91.619853   33.793797    0.000000    0.000000    0.000000    0.000000
  0.022800000   -7.501089  151.797684  -92.038565   35.202862    0.000000    0.000000    0.000000    0.000000
  0.023000000   -7.507712  151.571548  -92.581912   28.748098    0.000000    0.000000    0.000000    0.000000
  0.023200000   -7.505859  151.334244  -91.997653   27.767090    0.000000    0.000000    0.000000    0.000000
  0.023400000   -7.505991  151.060699  -92.749545   25.899042    0.000000    0.000000    0.000000    0.000000
  0.023600000   -7.505502  150.823120  -92.045234   28.734217    0.000000    0.000000    0.000000    0.000000
  0.023800000   -7.507391  150.570557  -93.208029   24.812235    0.000000    0.000000    0.000000    0.000000
  0.024000000   -7.500746  150.328979  -93.954734   27.487423    0.000000    0.000000    0.000000    0.000000
  0.024200000   -7.505365  150.060577  -92.454664   27.277519    0.000000    0.000000    0.000000    0.000000
  0.024400000   -7.504418  149.779388  -93.204093   22.326550    0.000000    0.000000    0.000000    0.000000
  0.024600000   -7.507540  149.491226  -94.123365   22.474537    0.000000    0.000000    0.000000    0.000000
  0.024800000   -7.506632  149.263275  -93.104700   28.204000    0.000000    0.000000    0.000000    0.000000
  0.025000000   -7.505801  149.013443  -94.232843   19.644190    0.000000    0.000000    0.000000    0.000000
  0.025200000   -7.506214  148.775024  -94.691680   23.727161    0.000000    0.000000    0.000000    0.000000
  0.025400000   -7.506634  148.540924  -93.600480   27.683895    0.000000    0.000000    0.000000    0.000000
  0.025600000   -7.507133  148.300110  -95.196168   26.057400    0.000000    0.000000    0.000000    0.000000
  0.025800000   -7.507756  148.096420  -94.976588   19.598372    0.000000    0.000000    0.000000    0.000000
  0.026000000   -7.507765  147.872345  -95.045560   18.286692    0.000000    0.000000    0.000000    0.000000
  0.026200000   -7.507422  147.635803  -94.496182   22.377329    0.000000    0.000000    0.000000    0.000000
  0.026400000   -7.515574  147.388168  -94.271001   22.840984    0.000000    0.000000    0.000000    0.000000
  0.026600000   -7.514563  147.153000  -95.456567   27.665190    0.000000    0.000000    0.000000    0.000000
  0.026800000   -7.516798  146.911591  -95.600482   14.688543    0.000000    0.000000    0.000000    0.000000
  0.027000000   -7.517452  146.628998  -96.310307   22.953159    0.000000    0.000000    0.000000    0.000000
  0.027200000   -7.515280  146.372559  -94.838417   18.477043    0.000000    0.000000    0.000000    0.000000
  0.027400000   -7.511104  146.091919  -96.202322   22.746017    0.000000    0.000000    0.000000    0.000000
  0.027600000   -7.506293  145.835480  -95.650781   26.565580    0.000000    0.000000    0.000000    0.000000
  0.027800000   -7.505313  145.576263  -96.048814   24.185043    0.000000    0.000000    0.000000    0.000000
  0.028000000   -7.504569  145.289734  -95.848221   21.937435    0.000000    0.000000    0.000000    0.000000
  0.028200000   -7.506228  145.080917  -96.042524   26.970669    0.000000    0.000000    0.000000    0.000000
  0.028400000   -7.504650  144.849625  -95.389107   27.006315    0.000000    0.000000    0.000000    0.000000
  0.028600000   -7.505233  144.624298  -95.448195   21.695635    0.000000    0.000000    0.000000    0.000000
  0.028800000   -7.500293  144.413025  -95.758764   16.341209    0.000000    0.000000    0.000000    0.000000
  0.029000000   -7.499079  144.206497  -96.277034   17.642199    0.000000    0.000000    0.000000    0.000000
  0.029200000   -7.498594  144.029404  -96.830017   24.393948    0.000000    0.000000    0.000000    0.000000
  0.029400000   -7.499499  143.827393  -95.956893   18.720871    0.000000    0.000000    0.000000    0.000000
  0.029600000   -7.500069  143.619186  -97.532339   16.982821    0.000000    0.000000    0.000000    0.000000
  0.029800000   -7.503507  143.355881  -96.655932   21.797501    0.000000    0.000000    0.000000    0.000000
  0.030000000   -7.509037  143.129562  -96.093145   15.823617    0.000000    0.000000    0.000000    0.000000
  0.030200000   -7.508730  142.859772  -96.607948   15.771930    0.000000    0.000000    0.000000    0.000000
  0.030400000   -7.511762  142.629913  -96.800728    9.568683    0.000000    0.000000    0.000000    0.000000
  0.030600000   -7.511922  142.310333  -96.544359   20.566189    0.000000    0.000000    0.000000    0.000000
  0.030800000   -7.514942  142.092010  -96.226494   16.327087    0.000000    0.000000    0.000000    0.000000
  0.031000000   -7.514976  141.817566  -97.383439    8.620169    0.000000    0.000000    0.000000    0.000000
  0.031200000   -7.508148  141.592575  -96.240460    8.761421    0.000000    0.000000    0.000000    0.000000
  0.031400000   -7.512313  141.343414  -96.231237   12.970768    0.000000    0.000000    0.000000    0.000000
  0.031600000   -7.514054  141.066895  -99.450511   13.218750    0.000000    0.000000    0.000000    0.000000
  0.031800000   -7.512504  140.820389  -96.837260   25.177044    0.000000    0.000000    0.000000    0.000000
  0.032000000   -7.508675  140.582474  -97.677004   11.396317    0.000000    0.000000    0.000000    0.000000
  0.032200000   -7.505689  140.298370  -97.664335    8.200174    0.000000    0.000000    0.000000    0.000000
  0.032400000   -7.500803  140.034805  -96.962393    2.179929    0.000000    0.000000    0.000000    0.000000
  0.032600000   -7.491802  139.834869 -101.293480    4.559959    0.000000    0.000000    0.000000    0.000000
  0.032800000   -7.487862  139.597885  -98.716946   22.361031    0.000000    0.000000    0.000000    0.000000
  0.033000000   -7.484572  139.370346  -97.882990    7.177726    0.000000    0.000000    0.000000    0.000000
  0.033200000   -7.487779  139.172058  -96.934629   10.372602    0.000000    0.000000    0.000000    0.000000
  0.033400000   -7.487052  138.955322  -98.443315   12.217423    0.000000    0.000000    0.000000    0.000000
  0.033600000   -7.489956  138.758209  -97.569941   12.169599    0.000000    0.000000    0.000000    0.000000
  0.033800000   -7.489739  138.547256  -97.418917   10.930138    0.000000    0.000000    0.000000    0.000000
  0.034000000   -7.491328  138.306274  -98.341916   12.068683    0.000000    0.000000    0.000000    0.000000
  0.034200000   -7.499918  138.046005 -100.654356   16.142408    0.000000    0.000000    0.000000    0.000000
  0.034400000   -7.500652  137.796509  -98.791509   15.833767    0.000000    0.000000    0.000000    0.000000
  0.034600000   -7.503563  137.537079  -99.400615    5.003857    0.000000    0.000000    0.000000    0.000000
  0.034800000   -7.508795  137.259857  -99.173570   24.298651    0.000000    0.000000    0.000000    0.000000
  0.035000000   -7.511110  136.988419  -97.720842   15.496957    0.000000    0.000000    0.000000    0.000000
  0.035200000   -7.515715  136.738235  -97.473519    1.910053    0.000000    0.000000    0.000000    0.000000
  0.035400000   -7.508274  136.485062  -98.388500   10.299256    0.000000    0.000000    0.000000    0.000000
  0.035600000   -7.508280  136.218124  -98.423288    7.211596    0.000000    0.000000    0.000000    0.000000
  0.035800000   -7.503245  135.951157  -98.774177    9.681847    0.000000    0.000000    0.000000    0.000000
  0.036000000   -7.498840  135.723450 -100.424228    6.561761    0.000000    0.000000    0.000000    0.000000
  0.036200000   -7.492071  135.452011  -97.917526    3.187310    0.000000    0.000000    0.000000    0.000000
  0.036400000   -7.488625  135.220490  -97.974602    8.181936    0.000000    0.000000    0.000000    0.000000
  0.036600000   -7.482088  135.002884  -97.423581    7.890071    0.000000    0.000000    0.000000    0.000000
  0.036800000   -7.481537  134.766754  -99.843809   -2.070729    0.000000    0.000000    0.000000    0.000000
  0.037000000   -7.481949  134.598953  -99.017600    6.217862    0.000000    0.000000    0.000000    0.000000
  0.037200000   -7.486434  134.370239  -98.991982   -0.887230    0.000000    0.000000    0.000000    0.000000
  0.037400000   -7.485511  134.138184  -98.008244    6.176624    0.000000    0.000000    0.000000    0.000000
  0.037600000   -7.489247  133.896729  -97.677553    1.763590    0.000000    0.000000    0.000000    0.000000
  0.037800000   -7.495849  133.673157 -101.664213  -12.265210    0.000000    0.000000    0.000000    0.000000
  0.038000000   -7.492913  133.403564  -99.944899   13.961486    0.000000    0.000000    0.000000    0.000000
  0.038200000   -7.497723  133.151978  -98.911947    7.160768    0.000000    0.000000    0.000000    0.000000
  0.038400000   -7.501147  132.893005  -99.964133   15.136027    0.000000    0.000000    0.000000    0.000000
  0.038600000   -7.503264  132.632507 -101.098441    2.547731    0.000000    0.000000    0.000000    0.000000
  0.038800000   -7.503012  132.350800 -100.329892   -2.260263    0.000000    0.000000    0.000000    0.000000
  0.039000000   -7.500078  132.115570  -99.033777   16.872770    0.000000    0.000000    0.000000    0.000000
  0.039200000   -7.498800  131.869049 -100.628131  -14.817966    0.000000    0.000000    0.000000    0.000000
  0.039400000   -7.499178  131.633270 -101.577039   19.348663    0.000000    0.000000    0.000000    0.000000
  0.039600000   -7.492963  131.367264 -102.209947   17.997826    0.000000    0.000000    0.000000    0.000000
  0.039800000   -7.491794  131.115158 -100.461504   10.657870    0.000000    0.000000    0.000000    0.000000
  0.040000000   -7.483794  130.841980  -99.790771   13.218254    0.000000    0.000000    0.000000    0.000000
  0.040200000   -7.481097  130.617828  -99.299290   -4.595939    0.000000    0.000000    0.000000    0.000000
  0.040400000   -7.469774  130.403442 -101.135291   12.240519    0.000000    0.000000    0.000000    0.000000
  0.040600000   -7.464917  130.216507  -99.632670    7.433551    0.000000    0.000000    0.000000    0.000000
  0.040800000   -7.465161  130.045990 -101.165078    9.345743    0.000000    0.000000    0.000000    0.000000
  0.041000000   -7.475294  129.835831  -99.876263   13.442571    0.000000    0.000000    0.000000    0.000000
  0.041200000   -7.477420  129.644318 -101.165827   -2.979521    0.000000    0.000000    0.000000    0.000000
  0.041400000   -7.487438  129.397354  -99.068512   -3.428996    0.000000    0.000000    0.000000    0.000000
  0.041600000   -7.493141  129.174759 -100.530771    9.364296    0.000000    0.000000    0.000000    0.000000
  0.041800000   -7.499063  128.913376 -100.936753   -2.878028    0.000000    0.000000    0.000000    0.000000
  0.042000000   -7.501811  128.670471 -100.650539   14.971703    0.000000    0.000000    0.000000    0.000000
  0.042200000   -7.508624  128.406097 -100.840509   -0.043503    0.000000    0.000000    0.000000    0.000000
  0.042400000   -7.510250  128.140625  -99.008859   10.889885    0.000000    0.000000    0.000000    0.000000
  0.042600000   -7.508723  127.886055 -100.068239    5.470796    0.000000    0.000000    0.000000    0.000000
  0.042800000   -7.508550  127.602234  -99.509305    6.793698    0.000000    0.000000    0.000000    0.000000
