! Anritsu VNA Master:                     Model: MS2036C/10/77
! SN:                                  1601066
! /card0/usr/50ohm2.s2p
! Existing Calibration Information:
! TYPE:                         Current Settings,       Active Cal Settings
! TIME:             	   12/20/2017 03:53:16 PM,    12/20/2017 03:36:34 PM
! INTERNAL TEMP:    	                   44.3 C,                    44.5 C
! # POINTS:         	                      501,                       501
! START FREQ:       	               10.000 MHz,                10.000 MHz
! STOP FREQ:        	              110.000 MHz,               110.000 MHz
! SOURCE POWER:     	                     High,                      High
! IFBW:             	                   100 Hz,                    100 Hz
! AVG FACTOR:       	                       1 ,                        1 
! REF PLANE 1:      	                     0 mm,                      0 mm
! REF PLANE 2:      	                     0 mm,                      0 mm
! CAL TYPE:         	                 Full S11,                  Full S11
! CAL METHOD:       	                     SOLT,                      SOLT
! CAL LINE TYPE:    	                     Coax,                      Coax
! DUT PORT 1:       	                K-Conn(F),                 K-Conn(F)
! DUT PORT 2:       	                K-Conn(F),                 K-Conn(F)
! CAL STATUS:       	        OK: Accuracy High,                        --
# GHZ S DB R 50.0
! FREQ.GHZ       S11DB        S11A       S21DB        S21A       S12DB        S12A       S22DB        S22A
  0.010000000  -45.105077   54.840115  -83.210367   77.364670    0.000000    0.000000    0.000000    0.000000
  0.010200000  -44.908965   55.648571  -83.531841   76.669655    0.000000    0.000000    0.000000    0.000000
  0.010400000  -44.700109   55.560619  -83.073607   73.710976    0.000000    0.000000    0.000000    0.000000
  0.010600000  -44.418179   56.529995  -84.093882   74.137825    0.000000    0.000000    0.000000    0.000000
  0.010800000  -44.237304   57.602566  -84.030584   72.168289    0.000000    0.000000    0.000000    0.000000
  0.011000000  -43.682985   56.344341  -83.883339   71.193405    0.000000    0.000000    0.000000    0.000000
  0.011200000  -43.653930   57.560928  -84.558767   69.328964    0.000000    0.000000    0.000000    0.000000
  0.011400000  -43.534465   58.367451  -84.672426   68.844734    0.000000    0.000000    0.000000    0.000000
  0.011600000  -43.249383   58.891029  -84.544585   69.433128    0.000000    0.000000    0.000000    0.000000
  0.011800000  -43.455324   58.699799  -85.126515   69.570999    0.000000    0.000000    0.000000    0.000000
  0.012000000  -43.390805   57.904404  -84.580746   66.279816    0.000000    0.000000    0.000000    0.000000
  0.012200000  -43.041912   58.984238  -85.596520   63.343781    0.000000    0.000000    0.000000    0.000000
  0.012400000  -43.219978   60.603058  -85.615139   61.626411    0.000000    0.000000    0.000000    0.000000
  0.012600000  -43.156296   61.608845  -85.521335   62.662811    0.000000    0.000000    0.000000    0.000000
  0.012800000  -42.939063   60.619923  -85.647558   63.482372    0.000000    0.000000    0.000000    0.000000
  0.013000000  -43.111863   60.732895  -85.814287   62.852528    0.000000    0.000000    0.000000    0.000000
  0.013200000  -42.803398   61.261032  -86.288275   61.948353    0.000000    0.000000    0.000000    0.000000
  0.013400000  -42.720904   62.402260  -86.348574   59.196182    0.000000    0.000000    0.000000    0.000000
  0.013600000  -42.851075   61.503647  -86.267611   59.324707    0.000000    0.000000    0.000000    0.000000
  0.013800000  -43.089818   62.342346  -86.736650   59.627872    0.000000    0.000000    0.000000    0.000000
  0.014000000  -42.976421   62.368214  -86.809432   59.220268    0.000000    0.000000    0.000000    0.000000
  0.014200000  -43.094011   61.868019  -86.287396   54.673206    0.000000    0.000000    0.000000    0.000000
  0.014400000  -43.002129   59.797153  -87.049844   56.704662    0.000000    0.000000    0.000000    0.000000
  0.014600000  -42.881239   58.386356  -87.411260   54.493736    0.000000    0.000000    0.000000    0.000000
  0.014800000  -42.958449   58.761730  -87.569199   56.231873    0.000000    0.000000    0.000000    0.000000
  0.015000000  -42.920069   60.210281  -87.717981   56.825607    0.000000    0.000000    0.000000    0.000000
  0.015200000  -42.851648   57.670258  -87.955335   52.842621    0.000000    0.000000    0.000000    0.000000
  0.015400000  -42.685554   56.416485  -87.786704   52.302608    0.000000    0.000000    0.000000    0.000000
  0.015600000  -42.609023   56.293755  -87.744254   53.281391    0.000000    0.000000    0.000000    0.000000
  0.015800000  -42.491867   56.011353  -88.321694   46.722603    0.000000    0.000000    0.000000    0.000000
  0.016000000  -42.393514   54.841949  -88.528355   48.168888    0.000000    0.000000    0.000000    0.000000
  0.016200000  -42.230361   53.453300  -88.546322   50.169388    0.000000    0.000000    0.000000    0.000000
  0.016400000  -41.977204   54.092907  -88.828489   45.711918    0.000000    0.000000    0.000000    0.000000
  0.016600000  -41.881539   52.331955  -88.799792   48.043404    0.000000    0.000000    0.000000    0.000000
  0.016800000  -41.782832   53.254105  -89.420341   49.162567    0.000000    0.000000    0.000000    0.000000
  0.017000000  -41.571771   52.223228  -89.464752   49.272720    0.000000    0.000000    0.000000    0.000000
  0.017200000  -41.469127   54.614803  -89.122667   43.993919    0.000000    0.000000    0.000000    0.000000
  0.017400000  -41.305600   53.998459  -88.604139   44.330563    0.000000    0.000000    0.000000    0.000000
  0.017600000  -41.251837   52.268681  -89.445557   45.336185    0.000000    0.000000    0.000000    0.000000
  0.017800000  -41.048201   53.252773  -89.303521   42.747559    0.000000    0.000000    0.000000    0.000000
  0.018000000  -40.852581   53.248749  -89.148802   40.686947    0.000000    0.000000    0.000000    0.000000
  0.018200000  -40.531339   54.757221  -89.731718   45.056892    0.000000    0.000000    0.000000    0.000000
  0.018400000  -40.644563   53.989624  -90.707202   45.557755    0.000000    0.000000    0.000000    0.000000
  0.018600000  -40.429721   55.492039  -90.520116   43.659916    0.000000    0.000000    0.000000    0.000000
  0.018800000  -40.511735   55.315586  -91.009476   39.086159    0.000000    0.000000    0.000000    0.000000
  0.019000000  -40.426200   55.212803  -90.664214   42.645214    0.000000    0.000000    0.000000    0.000000
  0.019200000  -40.300792   56.070343  -90.708959   33.287937    0.000000    0.000000    0.000000    0.000000
  0.019400000  -40.240068   56.471317  -90.579425   40.402958    0.000000    0.000000    0.000000    0.000000
  0.019600000  -40.318538   56.837299  -90.845997   36.496098    0.000000    0.000000    0.000000    0.000000
  0.019800000  -40.273561   56.571205  -91.120723   40.124802    0.000000    0.000000    0.000000    0.000000
  0.020000000  -40.243462   57.398941  -91.058786   33.664181    0.000000    0.000000    0.000000    0.000000
  0.020200000  -40.160462   57.838226  -91.424095   42.352882    0.000000    0.000000    0.000000    0.000000
  0.020400000  -40.250231   58.424351  -91.990160   38.020977    0.000000    0.000000    0.000000    0.000000
  0.020600000  -40.275666   57.574505  -91.447118   33.375332    0.000000    0.000000    0.000000    0.000000
  0.020800000  -40.323989   58.092808  -91.775160   37.849934    0.000000    0.000000    0.000000    0.000000
  0.021000000  -40.149985   57.658306  -91.905815   33.324341    0.000000    0.000000    0.000000    0.000000
  0.021200000  -40.122748   57.653305  -91.753104   37.386654    0.000000    0.000000    0.000000    0.000000
  0.021400000  -40.208874   57.457546  -92.172513   35.202038    0.000000    0.000000    0.000000    0.000000
  0.021600000  -40.176141   56.578495  -92.331986   38.211452    0.000000    0.000000    0.000000    0.000000
  0.021800000  -40.203713   56.488522  -91.361162   32.206955    0.000000    0.000000    0.000000    0.000000
  0.022000000  -40.195926   56.572311  -91.670304   28.234257    0.000000    0.000000    0.000000    0.000000
  0.022200000  -40.056301   56.300526  -91.464854   31.459721    0.000000    0.000000    0.000000    0.000000
  0.022400000  -40.049590   54.436268  -92.521508   25.275921    0.000000    0.000000    0.000000    0.000000
  0.022600000  -40.105483   53.852993  -92.999749   33.332325    0.000000    0.000000    0.000000    0.000000
  0.022800000  -39.992560   54.004742  -91.985404   30.799030    0.000000    0.000000    0.000000    0.000000
  0.023000000  -39.931765   53.079781  -92.411211   32.406204    0.000000    0.000000    0.000000    0.000000
  0.023200000  -39.791047   53.147575  -92.775003   30.233963    0.000000    0.000000    0.000000    0.000000
  0.023400000  -39.639496   52.461639  -93.965835   27.007444    0.000000    0.000000    0.000000    0.000000
  0.023600000  -39.461185   53.036663  -93.296012   26.213093    0.000000    0.000000    0.000000    0.000000
  0.023800000  -39.469911   52.174065  -93.743332   21.392723    0.000000    0.000000    0.000000    0.000000
  0.024000000  -39.502806   53.353310  -94.000567   26.559296    0.000000    0.000000    0.000000    0.000000
  0.024200000  -39.275427   52.159275  -93.839043   22.311415    0.000000    0.000000    0.000000    0.000000
  0.024400000  -39.201139   52.801628  -92.986245   25.502329    0.000000    0.000000    0.000000    0.000000
  0.024600000  -39.079292   52.560814  -94.036163   24.291117    0.000000    0.000000    0.000000    0.000000
  0.024800000  -39.116670   52.352367  -93.872121   22.716568    0.000000    0.000000    0.000000    0.000000
  0.025000000  -38.961185   52.074753  -93.379063   24.894661    0.000000    0.000000    0.000000    0.000000
  0.025200000  -39.009706   52.404362  -94.940745   38.022640    0.000000    0.000000    0.000000    0.000000
  0.025400000  -38.889718   52.390873  -94.510898   29.254715    0.000000    0.000000    0.000000    0.000000
  0.025600000  -38.849512   52.795395  -94.184085   29.346001    0.000000    0.000000    0.000000    0.000000
  0.025800000  -38.724205   51.929424  -94.953666   21.745440    0.000000    0.000000    0.000000    0.000000
  0.026000000  -38.689845   52.921535  -95.106481   24.479486    0.000000    0.000000    0.000000    0.000000
  0.026200000  -38.822918   53.082550  -94.530250   23.038252    0.000000    0.000000    0.000000    0.000000
  0.026400000  -38.744940   51.993080  -94.426358   25.991579    0.000000    0.000000    0.000000    0.000000
  0.026600000  -38.656638   52.469471  -95.982502   24.801855    0.000000    0.000000    0.000000    0.000000
  0.026800000  -38.756268   52.812748  -94.871880   21.888927    0.000000    0.000000    0.000000    0.000000
  0.027000000  -38.655093   52.395203  -95.590969   24.796946    0.000000    0.000000    0.000000    0.000000
  0.027200000  -38.638223   52.283836  -94.981151   16.142294    0.000000    0.000000    0.000000    0.000000
  0.027400000  -38.665296   52.236614  -95.797856   19.941992    0.000000    0.000000    0.000000    0.000000
  0.027600000  -38.601684   52.629898  -94.714571   25.506441    0.000000    0.000000    0.000000    0.000000
  0.027800000  -38.572093   52.304283  -96.387017   20.788551    0.000000    0.000000    0.000000    0.000000
  0.028000000  -38.422002   52.134254  -95.050029   23.616989    0.000000    0.000000    0.000000    0.000000
  0.028200000  -38.591311   51.209507  -96.408614   24.276726    0.000000    0.000000    0.000000    0.000000
  0.028400000  -38.458895   51.460117  -98.159346   24.269722    0.000000    0.000000    0.000000    0.000000
  0.028600000  -38.469097   50.323456  -96.521823   11.753197    0.000000    0.000000    0.000000    0.000000
  0.028800000  -38.413110   50.598206  -95.785229   14.880243    0.000000    0.000000    0.000000    0.000000
  0.029000000  -38.256339   50.360916  -96.540950   22.093334    0.000000    0.000000    0.000000    0.000000
  0.029200000  -38.254988   50.324532  -95.770733   19.543764    0.000000    0.000000    0.000000    0.000000
  0.029400000  -38.202262   49.677402  -97.253102   16.187271    0.000000    0.000000    0.000000    0.000000
  0.029600000  -38.132996   49.746536  -96.932621   16.816750    0.000000    0.000000    0.000000    0.000000
  0.029800000  -38.064605   49.165825  -96.636825   19.611599    0.000000    0.000000    0.000000    0.000000
  0.030000000  -38.040312   48.294952  -96.859988   18.882421    0.000000    0.000000    0.000000    0.000000
  0.030200000  -37.874232   48.820465  -95.351668   24.902950    0.000000    0.000000    0.000000    0.000000
  0.030400000  -37.782821   48.692150  -97.562576   18.076887    0.000000    0.000000    0.000000    0.000000
  0.030600000  -37.593809   48.304924  -97.137650   10.616400    0.000000    0.000000    0.000000    0.000000
  0.030800000  -37.631741   48.067371  -97.183336   12.563335    0.000000    0.000000    0.000000    0.000000
  0.031000000  -37.514337   48.566208  -96.837995   11.867582    0.000000    0.000000    0.000000    0.000000
  0.031200000  -37.427078   48.827789  -96.195991   19.332346    0.000000    0.000000    0.000000    0.000000
  0.031400000  -37.412514   48.801384  -97.946356    9.874251    0.000000    0.000000    0.000000    0.000000
  0.031600000  -37.460307   48.729462  -96.610195   17.685535    0.000000    0.000000    0.000000    0.000000
  0.031800000  -37.368672   49.358418  -96.264255   13.805157    0.000000    0.000000    0.000000    0.000000
  0.032000000  -37.408189   49.921902  -96.265029   15.554967    0.000000    0.000000    0.000000    0.000000
  0.032200000  -37.268514   49.338230  -97.914553   29.754807    0.000000    0.000000    0.000000    0.000000
  0.032400000  -37.195856   50.001266  -97.702540    7.929270    0.000000    0.000000    0.000000    0.000000
  0.032600000  -37.213942   49.918591  -96.207583   13.275882    0.000000    0.000000    0.000000    0.000000
  0.032800000  -37.071114   50.213383  -97.791129   16.384026    0.000000    0.000000    0.000000    0.000000
  0.033000000  -37.129673   50.278011  -99.171226   15.735219    0.000000    0.000000    0.000000    0.000000
  0.033200000  -37.054584   49.866325  -97.654886   12.892409    0.000000    0.000000    0.000000    0.000000
  0.033400000  -37.117647   50.115330  -97.773662   18.601402    0.000000    0.000000    0.000000    0.000000
  0.033600000  -37.146017   50.148594  -97.846555    5.915483    0.000000    0.000000    0.000000    0.000000
  0.033800000  -37.228386   50.350758  -97.859025   16.146893    0.000000    0.000000    0.000000    0.000000
  0.034000000  -37.326660   49.891499  -99.196156    5.809237    0.000000    0.000000    0.000000    0.000000
  0.034200000  -37.301446   49.393787  -97.985561   20.153679    0.000000    0.000000    0.000000    0.000000
  0.034400000  -37.257708   49.588104  -99.352193   14.067714    0.000000    0.000000    0.000000    0.000000
  0.034600000  -37.235568   49.656643  -97.601546    4.988297    0.000000    0.000000    0.000000    0.000000
  0.034800000  -37.235080   49.488346  -98.985259   13.484749    0.000000    0.000000    0.000000    0.000000
  0.035000000  -37.110826   48.486019  -99.554151   18.920521    0.000000    0.000000    0.000000    0.000000
  0.035200000  -37.174102   47.933949  -96.777198    3.649752    0.000000    0.000000    0.000000    0.000000
  0.035400000  -37.160711   48.372101  -98.963449   19.101736    0.000000    0.000000    0.000000    0.000000
  0.035600000  -37.174730   47.225586 -100.160792    9.779709    0.000000    0.000000    0.000000    0.000000
  0.035800000  -37.126488   46.894516  -99.366352   12.683358    0.000000    0.000000    0.000000    0.000000
  0.036000000  -37.062338   46.487461  -97.003107    3.265275    0.000000    0.000000    0.000000    0.000000
  0.036200000  -37.047843   46.264664  -99.431877   11.147897    0.000000    0.000000    0.000000    0.000000
  0.036400000  -36.969406   46.402382  -98.693883    9.400032    0.000000    0.000000    0.000000    0.000000
  0.036600000  -36.914815   46.168594 -100.685106   13.755582    0.000000    0.000000    0.000000    0.000000
  0.036800000  -36.808583   45.407108  -97.925331    4.190446    0.000000    0.000000    0.000000    0.000000
  0.037000000  -36.859676   45.955593  -97.998248   16.802668    0.000000    0.000000    0.000000    0.000000
  0.037200000  -36.731158   44.858181 -100.975156    1.937225    0.000000    0.000000    0.000000    0.000000
  0.037400000  -36.667426   44.977917 -101.215024   12.707086    0.000000    0.000000    0.000000    0.000000
  0.037600000  -36.609234   45.088570 -100.183074    5.421652    0.000000    0.000000    0.000000    0.000000
  0.037800000  -36.496701   44.100792 -100.878389    4.032049    0.000000    0.000000    0.000000    0.000000
  0.038000000  -36.427016   45.070080 -100.012443    6.312514    0.000000    0.000000    0.000000    0.000000
  0.038200000  -36.479492   45.163975 -100.794795   12.902990    0.000000    0.000000    0.000000    0.000000
  0.038400000  -36.290396   44.968811 -101.105251   25.902885    0.000000    0.000000    0.000000    0.000000
  0.038600000  -36.292424   45.269936 -101.367072   -3.590131    0.000000    0.000000    0.000000    0.000000
  0.038800000  -36.245107   44.808052  -99.722666   -5.178763    0.000000    0.000000    0.000000    0.000000
  0.039000000  -36.178331   45.770550  -98.539038    0.264189    0.000000    0.000000    0.000000    0.000000
  0.039200000  -36.064341   45.740414 -100.141744   18.406092    0.000000    0.000000    0.000000    0.000000
  0.039400000  -36.274610   45.361462  -98.069020    7.204700    0.000000    0.000000    0.000000    0.000000
  0.039600000  -36.109667   45.680344  -99.267513   13.390685    0.000000    0.000000    0.000000    0.000000
  0.039800000  -36.193554   45.317589  -98.191373   11.124934    0.000000    0.000000    0.000000    0.000000
  0.040000000  -36.007284   45.564144 -102.619583   11.134176    0.000000    0.000000    0.000000    0.000000
  0.040200000  -36.053359   45.824104  -98.061976    6.683503    0.000000    0.000000    0.000000    0.000000
  0.040400000  -36.076641   46.097145  -98.120108   -4.458230    0.000000    0.000000    0.000000    0.000000
  0.040600000  -36.138657   45.460522 -100.656078    2.102645    0.000000    0.000000    0.000000    0.000000
  0.040800000  -36.158981   45.970890 -100.571410    1.729083    0.000000    0.000000    0.000000    0.000000
  0.041000000  -36.135463   45.088020  -98.693569    3.443752    0.000000    0.000000    0.000000    0.000000
  0.041200000  -36.120498   44.846813 -100.169010   20.149565    0.000000    0.000000    0.000000    0.000000
  0.041400000  -36.133916   44.870201  -98.551317   18.453382    0.000000    0.000000    0.000000    0.000000
  0.041600000  -36.137609   44.713795  -99.084053   12.349709    0.000000    0.000000    0.000000    0.000000
  0.041800000  -36.086229   44.048054 -101.541155   -1.712133    0.000000    0.000000    0.000000    0.000000
  0.042000000  -36.065531   43.378162  -99.894401   -2.972378    0.000000    0.000000    0.000000    0.000000
  0.042200000  -36.004589   43.785294 -100.982352    2.426236    0.000000    0.000000    0.000000    0.000000
  0.042400000  -36.022043   43.529320 -100.575911   29.248997    0.000000    0.000000    0.000000    0.000000
  0.042600000  -36.015843   42.977970 -102.316450    5.460464    0.000000    0.000000    0.000000    0.000000
  0.042800000  -35.979123   42.816555 -100.184933    6.204401    0.000000    0.000000    0.000000    0.000000
