! Anritsu VNA Master:                     Model: MS2036C/10/77
! SN:                                  1601066
! /card0/usr/ns.20ohm.s2p
! Existing Calibration Information:
! TYPE:                         Current Settings,       Active Cal Settings
! TIME:             	   12/21/2017 04:52:52 PM,    12/21/2017 04:46:01 PM
! INTERNAL TEMP:    	                   41.0 C,                    41.5 C
! # POINTS:         	                      501,                       501
! START FREQ:       	               10.000 MHz,                10.000 MHz
! STOP FREQ:        	              110.000 MHz,               110.000 MHz
! SOURCE POWER:     	                     High,                      High
! IFBW:             	                   100 Hz,                    100 Hz
! AVG FACTOR:       	                       1 ,                        1 
! REF PLANE 1:      	                     0 mm,                      0 mm
! REF PLANE 2:      	                     0 mm,                      0 mm
! CAL TYPE:         	                 Full S11,                  Full S11
! CAL METHOD:       	                     SOLT,                      SOLT
! CAL LINE TYPE:    	                     Coax,                      Coax
! DUT PORT 1:       	                K-Conn(F),                 K-Conn(F)
! DUT PORT 2:       	                K-Conn(F),                 K-Conn(F)
! CAL STATUS:       	        OK: Accuracy High,                        --
# GHZ S DB R 50.0
! FREQ.GHZ       S11DB        S11A       S21DB        S21A       S12DB        S12A       S22DB        S22A
  0.010000000   -7.207146  167.741943  -82.087047   79.329033    0.000000    0.000000    0.000000    0.000000
  0.010200000   -7.195390  167.499435  -82.312812   78.476326    0.000000    0.000000    0.000000    0.000000
  0.010400000   -7.201130  167.234573  -83.309491   73.548828    0.000000    0.000000    0.000000    0.000000
  0.010600000   -7.198412  167.013580  -83.226399   74.419014    0.000000    0.000000    0.000000    0.000000
  0.010800000   -7.202277  166.765427  -83.239645   71.231293    0.000000    0.000000    0.000000    0.000000
  0.011000000   -7.200181  166.515182  -83.378964   70.235237    0.000000    0.000000    0.000000    0.000000
  0.011200000   -7.201946  166.263702  -84.160962   64.065437    0.000000    0.000000    0.000000    0.000000
  0.011400000   -7.204911  166.005432  -84.399350   66.033035    0.000000    0.000000    0.000000    0.000000
  0.011600000   -7.205814  165.776962  -84.265192   64.749008    0.000000    0.000000    0.000000    0.000000
  0.011800000   -7.208222  165.532074  -84.864284   62.467918    0.000000    0.000000    0.000000    0.000000
  0.012000000   -7.208005  165.253571  -85.482532   64.654533    0.000000    0.000000    0.000000    0.000000
  0.012200000   -7.208539  164.982941  -85.374911   60.053127    0.000000    0.000000    0.000000    0.000000
  0.012400000   -7.212244  164.757156  -85.614599   62.545006    0.000000    0.000000    0.000000    0.000000
  0.012600000   -7.211584  164.483124  -85.586950   58.787281    0.000000    0.000000    0.000000    0.000000
  0.012800000   -7.212686  164.263672  -86.319905   59.207947    0.000000    0.000000    0.000000    0.000000
  0.013000000   -7.215871  164.010040  -86.713850   59.685814    0.000000    0.000000    0.000000    0.000000
  0.013200000   -7.220178  163.787872  -86.816486   61.239162    0.000000    0.000000    0.000000    0.000000
  0.013400000   -7.218131  163.515182  -87.170131   60.387089    0.000000    0.000000    0.000000    0.000000
  0.013600000   -7.215221  163.301071  -86.892316   60.134045    0.000000    0.000000    0.000000    0.000000
  0.013800000   -7.213816  163.050995  -87.309084   57.404869    0.000000    0.000000    0.000000    0.000000
  0.014000000   -7.215247  162.819656  -87.798225   56.935852    0.000000    0.000000    0.000000    0.000000
  0.014200000   -7.215545  162.563004  -87.353615   60.260807    0.000000    0.000000    0.000000    0.000000
  0.014400000   -7.218236  162.325256  -87.761280   60.499180    0.000000    0.000000    0.000000    0.000000
  0.014600000   -7.217223  162.103760  -87.830074   62.028515    0.000000    0.000000    0.000000    0.000000
  0.014800000   -7.223517  161.830963  -87.113811   58.224373    0.000000    0.000000    0.000000    0.000000
  0.015000000   -7.225072  161.611038  -87.841844   56.271523    0.000000    0.000000    0.000000    0.000000
  0.015200000   -7.227302  161.366776  -87.871883   56.939369    0.000000    0.000000    0.000000    0.000000
  0.015400000   -7.224249  161.107361  -88.036812   58.113853    0.000000    0.000000    0.000000    0.000000
  0.015600000   -7.232389  160.809647  -87.885804   56.212509    0.000000    0.000000    0.000000    0.000000
  0.015800000   -7.231960  160.641907  -88.135639   50.643757    0.000000    0.000000    0.000000    0.000000
  0.016000000   -7.233800  160.380020  -87.844858   51.711735    0.000000    0.000000    0.000000    0.000000
  0.016200000   -7.236845  160.151871  -88.460339   54.216301    0.000000    0.000000    0.000000    0.000000
  0.016400000   -7.237956  159.917236  -88.430948   52.571922    0.000000    0.000000    0.000000    0.000000
  0.016600000   -7.235205  159.674042  -88.446619   48.076950    0.000000    0.000000    0.000000    0.000000
  0.016800000   -7.236711  159.428680  -88.702133   48.307590    0.000000    0.000000    0.000000    0.000000
  0.017000000   -7.236621  159.177246  -88.710506   45.869431    0.000000    0.000000    0.000000    0.000000
  0.017200000   -7.235236  158.956375  -89.192537   46.505943    0.000000    0.000000    0.000000    0.000000
  0.017400000   -7.236689  158.718613  -89.084966   44.549606    0.000000    0.000000    0.000000    0.000000
  0.017600000   -7.238774  158.454361  -88.909939   46.203159    0.000000    0.000000    0.000000    0.000000
  0.017800000   -7.238753  158.207993  -89.372198   45.884502    0.000000    0.000000    0.000000    0.000000
  0.018000000   -7.235546  157.971695  -89.479405   40.400414    0.000000    0.000000    0.000000    0.000000
  0.018200000   -7.240443  157.711288  -89.476300   42.681274    0.000000    0.000000    0.000000    0.000000
  0.018400000   -7.242272  157.481354  -89.926431   43.105408    0.000000    0.000000    0.000000    0.000000
  0.018600000   -7.245620  157.226273  -90.346822   44.264091    0.000000    0.000000    0.000000    0.000000
  0.018800000   -7.243266  156.996826  -90.314519   38.655556    0.000000    0.000000    0.000000    0.000000
  0.019000000   -7.243349  156.765961  -91.045764   36.374790    0.000000    0.000000    0.000000    0.000000
  0.019200000   -7.243110  156.535309  -91.164143   42.306774    0.000000    0.000000    0.000000    0.000000
  0.019400000   -7.241917  156.255753  -91.892002   39.990578    0.000000    0.000000    0.000000    0.000000
  0.019600000   -7.246636  156.033539  -91.347654   41.850552    0.000000    0.000000    0.000000    0.000000
  0.019800000   -7.247235  155.779221  -91.706255   39.500446    0.000000    0.000000    0.000000    0.000000
  0.020000000   -7.247069  155.533478  -91.295896   38.289528    0.000000    0.000000    0.000000    0.000000
  0.020200000   -7.248412  155.301270  -91.594710   40.328072    0.000000    0.000000    0.000000    0.000000
  0.020400000   -7.241952  155.046066  -91.544522   40.561855    0.000000    0.000000    0.000000    0.000000
  0.020600000   -7.240252  154.808609  -92.314298   37.186249    0.000000    0.000000    0.000000    0.000000
  0.020800000   -7.239863  154.573090  -91.618686   41.027695    0.000000    0.000000    0.000000    0.000000
  0.021000000   -7.240683  154.293488  -91.802347   37.422325    0.000000    0.000000    0.000000    0.000000
  0.021200000   -7.241531  154.077927  -92.170911   33.499733    0.000000    0.000000    0.000000    0.000000
  0.021400000   -7.244774  153.834473  -92.122338   38.203938    0.000000    0.000000    0.000000    0.000000
  0.021600000   -7.242968  153.607147  -92.182679   36.700172    0.000000    0.000000    0.000000    0.000000
  0.021800000   -7.247695  153.350494  -92.049032   29.992758    0.000000    0.000000    0.000000    0.000000
  0.022000000   -7.249679  153.123474  -92.883796   39.259525    0.000000    0.000000    0.000000    0.000000
  0.022200000   -7.245235  152.883041  -92.232110   34.838345    0.000000    0.000000    0.000000    0.000000
  0.022400000   -7.243833  152.664963  -92.161787   40.468685    0.000000    0.000000    0.000000    0.000000
  0.022600000   -7.247950  152.432419  -92.745105   29.504591    0.000000    0.000000    0.000000    0.000000
  0.022800000   -7.253288  152.192093  -91.780246   31.306761    0.000000    0.000000    0.000000    0.000000
  0.023000000   -7.254413  151.980392  -92.403622   26.112492    0.000000    0.000000    0.000000    0.000000
  0.023200000   -7.251664  151.710297  -93.485380   30.255501    0.000000    0.000000    0.000000    0.000000
  0.023400000   -7.251067  151.438141  -93.036312   23.792627    0.000000    0.000000    0.000000    0.000000
  0.023600000   -7.251374  151.238403  -92.528906   34.033642    0.000000    0.000000    0.000000    0.000000
  0.023800000   -7.252844  151.001724  -92.281164   27.575026    0.000000    0.000000    0.000000    0.000000
  0.024000000   -7.250839  150.744415  -93.441552   25.310055    0.000000    0.000000    0.000000    0.000000
  0.024200000   -7.248847  150.489426  -93.899764   24.947620    0.000000    0.000000    0.000000    0.000000
  0.024400000   -7.251551  150.246292  -93.814647   20.737625    0.000000    0.000000    0.000000    0.000000
  0.024600000   -7.251976  149.996460  -93.930833   30.055372    0.000000    0.000000    0.000000    0.000000
  0.024800000   -7.252579  149.717453  -94.738119   29.487993    0.000000    0.000000    0.000000    0.000000
  0.025000000   -7.253583  149.492798  -94.434345   21.392487    0.000000    0.000000    0.000000    0.000000
  0.025200000   -7.251050  149.274521  -94.080876   24.489830    0.000000    0.000000    0.000000    0.000000
  0.025400000   -7.253313  149.040909  -93.696978   27.515123    0.000000    0.000000    0.000000    0.000000
  0.025600000   -7.258299  148.831558  -94.241424   20.946047    0.000000    0.000000    0.000000    0.000000
  0.025800000   -7.256505  148.599884  -93.929732   25.355553    0.000000    0.000000    0.000000    0.000000
  0.026000000   -7.261754  148.388321  -94.645136   18.321636    0.000000    0.000000    0.000000    0.000000
  0.026200000   -7.263774  148.163712  -94.919063   24.745508    0.000000    0.000000    0.000000    0.000000
  0.026400000   -7.267049  147.899078  -95.344711   26.971081    0.000000    0.000000    0.000000    0.000000
  0.026600000   -7.266352  147.654648  -94.428229   27.851408    0.000000    0.000000    0.000000    0.000000
  0.026800000   -7.273534  147.369888  -96.151396   22.530689    0.000000    0.000000    0.000000    0.000000
  0.027000000   -7.273743  147.139526  -95.848543   24.251184    0.000000    0.000000    0.000000    0.000000
  0.027200000   -7.273740  146.841827  -96.345193   21.150158    0.000000    0.000000    0.000000    0.000000
  0.027400000   -7.265126  146.566345  -95.701266   22.695107    0.000000    0.000000    0.000000    0.000000
  0.027600000   -7.261149  146.305603  -96.505196   16.314476    0.000000    0.000000    0.000000    0.000000
  0.027800000   -7.257958  146.056442  -95.998184   22.653124    0.000000    0.000000    0.000000    0.000000
  0.028000000   -7.260484  145.785095  -95.027961   19.307604    0.000000    0.000000    0.000000    0.000000
  0.028200000   -7.258279  145.550323  -96.289814   20.553272    0.000000    0.000000    0.000000    0.000000
  0.028400000   -7.253364  145.346008  -96.247386   20.805880    0.000000    0.000000    0.000000    0.000000
  0.028600000   -7.251708  145.112610  -95.945869   17.510624    0.000000    0.000000    0.000000    0.000000
  0.028800000   -7.251256  144.920670  -95.896812   20.552626    0.000000    0.000000    0.000000    0.000000
  0.029000000   -7.248010  144.719818  -96.867846   24.481726    0.000000    0.000000    0.000000    0.000000
  0.029200000   -7.246791  144.519318  -96.064564   21.528006    0.000000    0.000000    0.000000    0.000000
  0.029400000   -7.249104  144.339157  -95.544685   17.535120    0.000000    0.000000    0.000000    0.000000
  0.029600000   -7.245233  144.126923  -96.162765   22.658026    0.000000    0.000000    0.000000    0.000000
  0.029800000   -7.250167  143.901520  -98.035261   14.577860    0.000000    0.000000    0.000000    0.000000
  0.030000000   -7.254412  143.655960  -96.177120   16.478264    0.000000    0.000000    0.000000    0.000000
  0.030200000   -7.256310  143.412628  -96.181264   24.485447    0.000000    0.000000    0.000000    0.000000
  0.030400000   -7.258398  143.164536  -96.963459   19.045975    0.000000    0.000000    0.000000    0.000000
  0.030600000   -7.258191  142.897293  -95.366800   18.923473    0.000000    0.000000    0.000000    0.000000
  0.030800000   -7.260212  142.660980  -96.108571   17.597536    0.000000    0.000000    0.000000    0.000000
  0.031000000   -7.261204  142.410492  -96.685606   20.438719    0.000000    0.000000    0.000000    0.000000
  0.031200000   -7.255179  142.204742  -97.865402   13.986378    0.000000    0.000000    0.000000    0.000000
  0.031400000   -7.258505  141.927505  -95.980766    8.369509    0.000000    0.000000    0.000000    0.000000
  0.031600000   -7.256812  141.666763  -98.853880    6.222930    0.000000    0.000000    0.000000    0.000000
  0.031800000   -7.253884  141.471970  -98.743841   15.899869    0.000000    0.000000    0.000000    0.000000
  0.032000000   -7.254495  141.212509  -97.046780   10.984496    0.000000    0.000000    0.000000    0.000000
  0.032200000   -7.252598  140.947266  -97.926181    9.632389    0.000000    0.000000    0.000000    0.000000
  0.032400000   -7.248944  140.697830  -96.511285   14.314487    0.000000    0.000000    0.000000    0.000000
  0.032600000   -7.241335  140.523590  -99.541837   -2.048877    0.000000    0.000000    0.000000    0.000000
  0.032800000   -7.240852  140.284897  -98.573419   12.650394    0.000000    0.000000    0.000000    0.000000
  0.033000000   -7.240136  140.069412  -98.334479   12.224630    0.000000    0.000000    0.000000    0.000000
  0.033200000   -7.239766  139.871521  -97.878384   19.067595    0.000000    0.000000    0.000000    0.000000
  0.033400000   -7.238691  139.658005  -99.238604   16.020636    0.000000    0.000000    0.000000    0.000000
  0.033600000   -7.245993  139.456284  -97.326968   11.349788    0.000000    0.000000    0.000000    0.000000
  0.033800000   -7.255447  139.202698  -98.757046    5.002778    0.000000    0.000000    0.000000    0.000000
  0.034000000   -7.251884  138.942337  -97.290405   14.676215    0.000000    0.000000    0.000000    0.000000
  0.034200000   -7.257195  138.680710  -96.774751   16.195398    0.000000    0.000000    0.000000    0.000000
  0.034400000   -7.263061  138.416046  -99.261953   15.137484    0.000000    0.000000    0.000000    0.000000
  0.034600000   -7.264621  138.148438 -100.920957   14.960137    0.000000    0.000000    0.000000    0.000000
  0.034800000   -7.268772  137.881073  -97.417704   13.684741    0.000000    0.000000    0.000000    0.000000
  0.035000000   -7.270411  137.604523  -96.785237   11.665877    0.000000    0.000000    0.000000    0.000000
  0.035200000   -7.266747  137.351517  -97.542564   -0.402352    0.000000    0.000000    0.000000    0.000000
  0.035400000   -7.260901  137.076050  -99.299937    2.152457    0.000000    0.000000    0.000000    0.000000
  0.035600000   -7.260670  136.809372  -98.958596    4.457164    0.000000    0.000000    0.000000    0.000000
  0.035800000   -7.252918  136.551987 -100.337662    7.936088    0.000000    0.000000    0.000000    0.000000
  0.036000000   -7.242976  136.294647  -97.308162   12.941988    0.000000    0.000000    0.000000    0.000000
  0.036200000   -7.237393  136.057648  -99.294886   18.940956    0.000000    0.000000    0.000000    0.000000
  0.036400000   -7.232461  135.838470  -99.863812   11.398913    0.000000    0.000000    0.000000    0.000000
  0.036600000   -7.226095  135.617310  -99.586666   10.956675    0.000000    0.000000    0.000000    0.000000
  0.036800000   -7.224755  135.409546  -99.084905    4.603292    0.000000    0.000000    0.000000    0.000000
  0.037000000   -7.222520  135.234024  -99.637534    6.263320    0.000000    0.000000    0.000000    0.000000
  0.037200000   -7.227219  135.039398  -98.972889   17.030613    0.000000    0.000000    0.000000    0.000000
  0.037400000   -7.230649  134.817169 -100.164885    4.401634    0.000000    0.000000    0.000000    0.000000
  0.037600000   -7.227636  134.566666  -98.681770    3.498406    0.000000    0.000000    0.000000    0.000000
  0.037800000   -7.233165  134.322372  -98.461922   16.740988    0.000000    0.000000    0.000000    0.000000
  0.038000000   -7.238734  134.117935  -99.925009    4.027519    0.000000    0.000000    0.000000    0.000000
  0.038200000   -7.243729  133.869644  -99.625902   10.872468    0.000000    0.000000    0.000000    0.000000
  0.038400000   -7.244575  133.606384  -98.357825    4.719632    0.000000    0.000000    0.000000    0.000000
  0.038600000   -7.246484  133.372452  -98.938097   11.758440    0.000000    0.000000    0.000000    0.000000
  0.038800000   -7.247131  133.132935  -99.207206   10.230687    0.000000    0.000000    0.000000    0.000000
  0.039000000   -7.247347  132.889008 -100.181799    6.979659    0.000000    0.000000    0.000000    0.000000
  0.039200000   -7.248158  132.642975 -100.641029   21.590063    0.000000    0.000000    0.000000    0.000000
  0.039400000   -7.239932  132.380615  -99.661430   25.390612    0.000000    0.000000    0.000000    0.000000
  0.039600000   -7.243704  132.120987  -99.963336   -1.226405    0.000000    0.000000    0.000000    0.000000
  0.039800000   -7.234561  131.847992  -98.917827    7.078775    0.000000    0.000000    0.000000    0.000000
  0.040000000   -7.229970  131.616730 -101.956231   23.298265    0.000000    0.000000    0.000000    0.000000
  0.040200000   -7.224419  131.392853 -100.213808   20.923077    0.000000    0.000000    0.000000    0.000000
  0.040400000   -7.221454  131.210129  -97.911692   13.957572    0.000000    0.000000    0.000000    0.000000
  0.040600000   -7.222518  131.002151 -100.879798    5.371634    0.000000    0.000000    0.000000    0.000000
  0.040800000   -7.222198  130.848099 -101.991755   -3.670153    0.000000    0.000000    0.000000    0.000000
  0.041000000   -7.227660  130.630173 -100.912721   10.327041    0.000000    0.000000    0.000000    0.000000
  0.041200000   -7.232303  130.404785  -99.558400   23.100193    0.000000    0.000000    0.000000    0.000000
  0.041400000   -7.244827  130.176651 -101.991504   13.012510    0.000000    0.000000    0.000000    0.000000
  0.041600000   -7.247901  129.889496  -99.825603    7.968431    0.000000    0.000000    0.000000    0.000000
  0.041800000   -7.256952  129.631531 -102.354356    3.644656    0.000000    0.000000    0.000000    0.000000
  0.042000000   -7.259823  129.414001  -99.817452    8.393666    0.000000    0.000000    0.000000    0.000000
  0.042200000   -7.260889  129.138367 -101.229160   15.156445    0.000000    0.000000    0.000000    0.000000
  0.042400000   -7.263592  128.861740  -97.951461    6.408313    0.000000    0.000000    0.000000    0.000000
  0.042600000   -7.261612  128.576431  -99.196355    1.061785    0.000000    0.000000    0.000000    0.000000
  0.042800000   -7.257744  128.336761 -103.165295    3.966388    0.000000    0.000000    0.000000    0.000000
