! Anritsu VNA Master:                     Model: MS2036C/10/77
! SN:                                  1601066
! /card0/usr/50ohm1.s2p
! Existing Calibration Information:
! TYPE:                         Current Settings,       Active Cal Settings
! TIME:             	   12/20/2017 03:46:22 PM,    12/20/2017 03:36:34 PM
! INTERNAL TEMP:    	                   44.5 C,                    44.5 C
! # POINTS:         	                      501,                       501
! START FREQ:       	               10.000 MHz,                10.000 MHz
! STOP FREQ:        	              110.000 MHz,               110.000 MHz
! SOURCE POWER:     	                     High,                      High
! IFBW:             	                   100 Hz,                    100 Hz
! AVG FACTOR:       	                       1 ,                        1 
! REF PLANE 1:      	                     0 mm,                      0 mm
! REF PLANE 2:      	                     0 mm,                      0 mm
! CAL TYPE:         	                 Full S11,                  Full S11
! CAL METHOD:       	                     SOLT,                      SOLT
! CAL LINE TYPE:    	                     Coax,                      Coax
! DUT PORT 1:       	                K-Conn(F),                 K-Conn(F)
! DUT PORT 2:       	                K-Conn(F),                 K-Conn(F)
! CAL STATUS:       	        OK: Accuracy High,                        --
# GHZ S DB R 50.0
! FREQ.GHZ       S11DB        S11A       S21DB        S21A       S12DB        S12A       S22DB        S22A
  0.010000000  -45.205685   60.056808  -83.569022   76.910034    0.000000    0.000000    0.000000    0.000000
  0.010200000  -44.944785   62.380802  -83.503830   76.875099    0.000000    0.000000    0.000000    0.000000
  0.010400000  -44.783855   60.485424  -83.778580   76.161018    0.000000    0.000000    0.000000    0.000000
  0.010600000  -44.468431   62.633430  -83.743607   71.244843    0.000000    0.000000    0.000000    0.000000
  0.010800000  -44.477808   61.034931  -83.774012   73.312881    0.000000    0.000000    0.000000    0.000000
  0.011000000  -44.394481   61.523064  -84.348686   72.425232    0.000000    0.000000    0.000000    0.000000
  0.011200000  -44.108576   63.455757  -84.269866   71.041054    0.000000    0.000000    0.000000    0.000000
  0.011400000  -43.972554   61.209198  -84.645980   70.863449    0.000000    0.000000    0.000000    0.000000
  0.011600000  -43.657783   61.004669  -84.508616   68.901840    0.000000    0.000000    0.000000    0.000000
  0.011800000  -43.772756   60.855640  -84.856597   66.870811    0.000000    0.000000    0.000000    0.000000
  0.012000000  -43.863602   60.603455  -85.248231   68.965897    0.000000    0.000000    0.000000    0.000000
  0.012200000  -43.325176   61.647793  -85.163445   63.956654    0.000000    0.000000    0.000000    0.000000
  0.012400000  -43.613415   61.014027  -85.454598   66.306236    0.000000    0.000000    0.000000    0.000000
  0.012600000  -43.467249   62.337902  -85.539881   66.465584    0.000000    0.000000    0.000000    0.000000
  0.012800000  -43.293488   60.612259  -85.593229   63.763432    0.000000    0.000000    0.000000    0.000000
  0.013000000  -43.333898   60.972824  -85.927423   59.251411    0.000000    0.000000    0.000000    0.000000
  0.013200000  -43.224139   60.467972  -86.033367   60.016140    0.000000    0.000000    0.000000    0.000000
  0.013400000  -43.175281   63.074009  -86.472308   62.068523    0.000000    0.000000    0.000000    0.000000
  0.013600000  -43.195786   61.664558  -86.652891   58.873814    0.000000    0.000000    0.000000    0.000000
  0.013800000  -43.052664   62.826313  -86.408084   58.786079    0.000000    0.000000    0.000000    0.000000
  0.014000000  -42.926940   62.472237  -86.655878   58.486225    0.000000    0.000000    0.000000    0.000000
  0.014200000  -43.098955   62.310368  -86.741388   57.187248    0.000000    0.000000    0.000000    0.000000
  0.014400000  -42.878178   61.025410  -87.192897   56.501156    0.000000    0.000000    0.000000    0.000000
  0.014600000  -42.706395   60.017761  -87.075250   56.127674    0.000000    0.000000    0.000000    0.000000
  0.014800000  -42.790759   60.602348  -87.429295   55.403587    0.000000    0.000000    0.000000    0.000000
  0.015000000  -42.796635   62.024792  -87.760332   54.695087    0.000000    0.000000    0.000000    0.000000
  0.015200000  -42.690256   59.563339  -88.208428   53.130043    0.000000    0.000000    0.000000    0.000000
  0.015400000  -42.574287   58.374008  -87.659537   52.005486    0.000000    0.000000    0.000000    0.000000
  0.015600000  -42.372460   59.001934  -88.112613   49.192600    0.000000    0.000000    0.000000    0.000000
  0.015800000  -42.314684   57.997425  -88.009712   46.763737    0.000000    0.000000    0.000000    0.000000
  0.016000000  -42.206038   58.474628  -88.024663   48.149826    0.000000    0.000000    0.000000    0.000000
  0.016200000  -41.997261   57.389194  -88.948437   50.237553    0.000000    0.000000    0.000000    0.000000
  0.016400000  -41.953138   58.031719  -88.394267   48.492046    0.000000    0.000000    0.000000    0.000000
  0.016600000  -41.843553   56.456940  -89.114140   46.810234    0.000000    0.000000    0.000000    0.000000
  0.016800000  -41.733022   57.506901  -88.584876   47.307606    0.000000    0.000000    0.000000    0.000000
  0.017000000  -41.569505   57.687824  -88.925626   47.130783    0.000000    0.000000    0.000000    0.000000
  0.017200000  -41.681763   57.619907  -89.541802   44.932915    0.000000    0.000000    0.000000    0.000000
  0.017400000  -41.396442   57.186176  -89.348580   45.064545    0.000000    0.000000    0.000000    0.000000
  0.017600000  -41.419607   56.442158  -89.466218   48.642426    0.000000    0.000000    0.000000    0.000000
  0.017800000  -41.286692   55.834404  -89.318418   46.432068    0.000000    0.000000    0.000000    0.000000
  0.018000000  -41.143241   56.268764  -89.901611   44.785030    0.000000    0.000000    0.000000    0.000000
  0.018200000  -40.912233   57.224915  -90.280284   40.567928    0.000000    0.000000    0.000000    0.000000
  0.018400000  -40.897314   56.543900  -89.599042   39.874443    0.000000    0.000000    0.000000    0.000000
  0.018600000  -40.885317   57.414162  -90.800234   34.415443    0.000000    0.000000    0.000000    0.000000
  0.018800000  -40.874015   57.824497  -90.976013   37.946548    0.000000    0.000000    0.000000    0.000000
  0.019000000  -40.892400   57.856743  -90.385675   37.254860    0.000000    0.000000    0.000000    0.000000
  0.019200000  -40.736453   57.023354  -90.617287   38.302956    0.000000    0.000000    0.000000    0.000000
  0.019400000  -40.643896   58.131489  -90.364252   45.666965    0.000000    0.000000    0.000000    0.000000
  0.019600000  -40.639261   58.271000  -90.711411   35.846794    0.000000    0.000000    0.000000    0.000000
  0.019800000  -40.607278   57.203808  -91.077098   35.012959    0.000000    0.000000    0.000000    0.000000
  0.020000000  -40.572137   57.949867  -91.045247   41.235214    0.000000    0.000000    0.000000    0.000000
  0.020200000  -40.462050   58.087502  -91.926493   38.931759    0.000000    0.000000    0.000000    0.000000
  0.020400000  -40.558121   57.838303  -91.671276   37.994682    0.000000    0.000000    0.000000    0.000000
  0.020600000  -40.495010   58.555328  -91.068720   35.899529    0.000000    0.000000    0.000000    0.000000
  0.020800000  -40.447949   57.325752  -91.588480   35.921669    0.000000    0.000000    0.000000    0.000000
  0.021000000  -40.216349   57.647385  -91.962229   37.205341    0.000000    0.000000    0.000000    0.000000
  0.021200000  -40.164566   58.566360  -91.515838   31.530052    0.000000    0.000000    0.000000    0.000000
  0.021400000  -40.306856   57.738705  -91.458735   27.784594    0.000000    0.000000    0.000000    0.000000
  0.021600000  -40.148743   56.785526  -92.460083   37.496956    0.000000    0.000000    0.000000    0.000000
  0.021800000  -40.207856   57.256451  -91.260429   30.930668    0.000000    0.000000    0.000000    0.000000
  0.022000000  -40.064240   57.879070  -92.709646   35.685543    0.000000    0.000000    0.000000    0.000000
  0.022200000  -40.148790   57.077297  -92.367109   31.420721    0.000000    0.000000    0.000000    0.000000
  0.022400000  -40.062508   56.290276  -92.263380   37.053291    0.000000    0.000000    0.000000    0.000000
  0.022600000  -39.841663   55.345234  -92.593156   34.507038    0.000000    0.000000    0.000000    0.000000
  0.022800000  -39.849374   55.718582  -92.616043   35.493729    0.000000    0.000000    0.000000    0.000000
  0.023000000  -39.872797   54.690556  -93.435007   34.079407    0.000000    0.000000    0.000000    0.000000
  0.023200000  -39.831502   54.910355  -92.653567   32.944340    0.000000    0.000000    0.000000    0.000000
  0.023400000  -39.597709   54.281055  -92.800815   29.869352    0.000000    0.000000    0.000000    0.000000
  0.023600000  -39.513884   54.987537  -93.006566   23.044302    0.000000    0.000000    0.000000    0.000000
  0.023800000  -39.641390   54.721664  -93.567591   30.485353    0.000000    0.000000    0.000000    0.000000
  0.024000000  -39.512357   55.737923  -93.161799   28.966829    0.000000    0.000000    0.000000    0.000000
  0.024200000  -39.391502   54.178524  -93.646629   23.523619    0.000000    0.000000    0.000000    0.000000
  0.024400000  -39.278781   54.507523  -94.254285   27.150078    0.000000    0.000000    0.000000    0.000000
  0.024600000  -39.219191   54.584152  -94.779355   30.522797    0.000000    0.000000    0.000000    0.000000
  0.024800000  -39.332770   54.273869  -93.671102   22.247322    0.000000    0.000000    0.000000    0.000000
  0.025000000  -39.249975   54.343307  -94.001290   30.067778    0.000000    0.000000    0.000000    0.000000
  0.025200000  -39.231731   53.777561  -93.833087   28.425661    0.000000    0.000000    0.000000    0.000000
  0.025400000  -39.199262   53.756172  -94.396067   20.282644    0.000000    0.000000    0.000000    0.000000
  0.025600000  -39.092493   54.467281  -95.098285   17.139091    0.000000    0.000000    0.000000    0.000000
  0.025800000  -39.002853   54.606251  -94.386868   29.117762    0.000000    0.000000    0.000000    0.000000
  0.026000000  -38.904557   53.973255  -95.063293   24.054544    0.000000    0.000000    0.000000    0.000000
  0.026200000  -39.137878   54.530289  -95.702742   29.601715    0.000000    0.000000    0.000000    0.000000
  0.026400000  -38.967924   52.925667  -94.984977   19.184565    0.000000    0.000000    0.000000    0.000000
  0.026600000  -38.925124   54.050339  -94.628898   21.435394    0.000000    0.000000    0.000000    0.000000
  0.026800000  -38.913633   52.916466  -95.102407   26.195911    0.000000    0.000000    0.000000    0.000000
  0.027000000  -38.769415   53.436195  -95.234012   19.585215    0.000000    0.000000    0.000000    0.000000
  0.027200000  -38.765949   53.133842  -96.397969   20.734558    0.000000    0.000000    0.000000    0.000000
  0.027400000  -38.720829   53.111618  -95.144620   18.580225    0.000000    0.000000    0.000000    0.000000
  0.027600000  -38.799870   53.237469  -95.219804   22.979774    0.000000    0.000000    0.000000    0.000000
  0.027800000  -38.666324   53.262554  -95.984802   22.762096    0.000000    0.000000    0.000000    0.000000
  0.028000000  -38.574408   53.244560  -95.540138   20.974411    0.000000    0.000000    0.000000    0.000000
  0.028200000  -38.716309   51.877014  -96.257957   24.805376    0.000000    0.000000    0.000000    0.000000
  0.028400000  -38.509095   52.279114  -95.568206   20.201218    0.000000    0.000000    0.000000    0.000000
  0.028600000  -38.515918   50.835632  -96.410450   19.762859    0.000000    0.000000    0.000000    0.000000
  0.028800000  -38.492155   51.498066  -95.488195   20.220579    0.000000    0.000000    0.000000    0.000000
  0.029000000  -38.350160   50.820423  -95.889291   14.581464    0.000000    0.000000    0.000000    0.000000
  0.029200000  -38.400952   51.716434  -97.085201   25.485786    0.000000    0.000000    0.000000    0.000000
  0.029400000  -38.253592   51.017841  -96.429075   31.158161    0.000000    0.000000    0.000000    0.000000
  0.029600000  -38.218761   51.066013  -97.261752   18.612644    0.000000    0.000000    0.000000    0.000000
  0.029800000  -38.179035   50.329052  -96.481344   19.217157    0.000000    0.000000    0.000000    0.000000
  0.030000000  -38.112235   49.941689  -96.951365   17.539581    0.000000    0.000000    0.000000    0.000000
  0.030200000  -38.012030   50.629269  -95.823719   22.530626    0.000000    0.000000    0.000000    0.000000
  0.030400000  -37.919047   50.516956  -97.102794   16.829885    0.000000    0.000000    0.000000    0.000000
  0.030600000  -37.791891   49.853111  -98.714524   18.552721    0.000000    0.000000    0.000000    0.000000
  0.030800000  -37.838502   50.180157  -95.840946   17.418768    0.000000    0.000000    0.000000    0.000000
  0.031000000  -37.807165   49.826164  -97.797144   12.969230    0.000000    0.000000    0.000000    0.000000
  0.031200000  -37.624547   50.411774  -97.056559   12.854249    0.000000    0.000000    0.000000    0.000000
  0.031400000  -37.635120   50.289516  -98.007605   12.852513    0.000000    0.000000    0.000000    0.000000
  0.031600000  -37.711190   50.352749  -97.776567    6.971344    0.000000    0.000000    0.000000    0.000000
  0.031800000  -37.560464   50.658768  -97.411342   12.750691    0.000000    0.000000    0.000000    0.000000
  0.032000000  -37.627053   50.489986  -97.026744   18.664024    0.000000    0.000000    0.000000    0.000000
  0.032200000  -37.448758   50.273827  -97.668964    6.990353    0.000000    0.000000    0.000000    0.000000
  0.032400000  -37.485222   50.657375  -98.081805    9.200479    0.000000    0.000000    0.000000    0.000000
  0.032600000  -37.430789   50.993801  -97.543088   -0.113996    0.000000    0.000000    0.000000    0.000000
  0.032800000  -37.382813   51.363991  -97.441193    3.681550    0.000000    0.000000    0.000000    0.000000
  0.033000000  -37.386780   50.409523  -97.377000    2.821425    0.000000    0.000000    0.000000    0.000000
  0.033200000  -37.354681   49.784134  -97.918486    5.478877    0.000000    0.000000    0.000000    0.000000
  0.033400000  -37.297665   50.017475  -97.106320   16.025190    0.000000    0.000000    0.000000    0.000000
  0.033600000  -37.379784   49.962875  -97.644889    9.257540    0.000000    0.000000    0.000000    0.000000
  0.033800000  -37.367460   50.714714  -98.438489   14.656541    0.000000    0.000000    0.000000    0.000000
  0.034000000  -37.411754   50.082905  -97.107091    0.297734    0.000000    0.000000    0.000000    0.000000
  0.034200000  -37.440198   49.651802  -98.327384   18.671631    0.000000    0.000000    0.000000    0.000000
  0.034400000  -37.405111   49.243755  -98.192891    6.638818    0.000000    0.000000    0.000000    0.000000
  0.034600000  -37.283393   48.903328  -98.415932   18.801031    0.000000    0.000000    0.000000    0.000000
  0.034800000  -37.263778   49.021179  -99.485629    5.061723    0.000000    0.000000    0.000000    0.000000
  0.035000000  -37.205265   48.448624  -99.650000   22.104937    0.000000    0.000000    0.000000    0.000000
  0.035200000  -37.246896   47.960613  -99.269869    9.729136    0.000000    0.000000    0.000000    0.000000
  0.035400000  -37.285835   48.353413  -99.143310   23.747528    0.000000    0.000000    0.000000    0.000000
  0.035600000  -37.133503   47.854988  -98.899203   17.779573    0.000000    0.000000    0.000000    0.000000
  0.035800000  -37.140969   47.817898  -97.399000    7.962906    0.000000    0.000000    0.000000    0.000000
  0.036000000  -37.112465   47.238842  -98.827313    5.499791    0.000000    0.000000    0.000000    0.000000
  0.036200000  -37.092678   47.609409  -97.925372    4.993098    0.000000    0.000000    0.000000    0.000000
  0.036400000  -36.952480   46.957909  -97.592055   11.568310    0.000000    0.000000    0.000000    0.000000
  0.036600000  -36.871606   46.967865  -97.831164    8.994856    0.000000    0.000000    0.000000    0.000000
  0.036800000  -36.810530   46.551067  -97.141687   16.564501    0.000000    0.000000    0.000000    0.000000
  0.037000000  -36.875179   46.804688  -98.764037   15.094279    0.000000    0.000000    0.000000    0.000000
  0.037200000  -36.716568   46.114399  -96.587340    1.793785    0.000000    0.000000    0.000000    0.000000
  0.037400000  -36.674892   46.241428  -99.423999    0.569620    0.000000    0.000000    0.000000    0.000000
  0.037600000  -36.685988   46.111038 -100.226393    1.951877    0.000000    0.000000    0.000000    0.000000
  0.037800000  -36.667349   45.869011 -100.094011   14.281050    0.000000    0.000000    0.000000    0.000000
  0.038000000  -36.522233   46.429970 -102.047931  -10.539376    0.000000    0.000000    0.000000    0.000000
  0.038200000  -36.485394   46.151371  -97.025546    8.603786    0.000000    0.000000    0.000000    0.000000
  0.038400000  -36.438234   45.759541  -99.260557    9.260173    0.000000    0.000000    0.000000    0.000000
  0.038600000  -36.359138   46.094517  -98.713501   21.935776    0.000000    0.000000    0.000000    0.000000
  0.038800000  -36.294336   45.948849  -99.982716    7.169288    0.000000    0.000000    0.000000    0.000000
  0.039000000  -36.339045   46.332592  -99.010702   -3.068572    0.000000    0.000000    0.000000    0.000000
  0.039200000  -36.223722   46.454334  -98.151732    6.143370    0.000000    0.000000    0.000000    0.000000
  0.039400000  -36.184173   45.718060  -99.403250   16.731882    0.000000    0.000000    0.000000    0.000000
  0.039600000  -36.111531   45.863567 -101.596558    4.039849    0.000000    0.000000    0.000000    0.000000
  0.039800000  -36.283147   46.217583  -99.406035   20.867403    0.000000    0.000000    0.000000    0.000000
  0.040000000  -36.071560   46.282887 -100.706777   13.885485    0.000000    0.000000    0.000000    0.000000
  0.040200000  -36.207935   45.895725  -98.814097   21.710402    0.000000    0.000000    0.000000    0.000000
  0.040400000  -36.165779   46.510345 -100.230468    1.638929    0.000000    0.000000    0.000000    0.000000
  0.040600000  -36.177687   46.498844 -101.267070    0.371752    0.000000    0.000000    0.000000    0.000000
  0.040800000  -36.242949   46.061039 -101.885846    6.620251    0.000000    0.000000    0.000000    0.000000
  0.041000000  -36.154405   45.820217  -99.998097    3.713602    0.000000    0.000000    0.000000    0.000000
  0.041200000  -36.160752   45.591644 -101.504179    3.679317    0.000000    0.000000    0.000000    0.000000
  0.041400000  -36.064321   44.955708 -100.729516   11.413006    0.000000    0.000000    0.000000    0.000000
  0.041600000  -36.160850   44.919014  -99.210623    3.346969    0.000000    0.000000    0.000000    0.000000
  0.041800000  -36.126310   44.514450  -99.650416   14.329262    0.000000    0.000000    0.000000    0.000000
  0.042000000  -36.132014   44.456768 -102.310415   11.891404    0.000000    0.000000    0.000000    0.000000
  0.042200000  -36.042701   44.676064 -101.301888   11.234796    0.000000    0.000000    0.000000    0.000000
  0.042400000  -36.008884   43.550743 -100.659886    1.610529    0.000000    0.000000    0.000000    0.000000
  0.042600000  -36.025560   43.969547  -99.972052    1.721412    0.000000    0.000000    0.000000    0.000000
  0.042800000  -35.934272   42.704159 -101.293832   -5.943998    0.000000    0.000000    0.000000    0.000000
