! Anritsu VNA Master:                     Model: MS2036C/10/77
! SN:                                  1601066
! /card0/usr/ns.msr2.s2p
! Existing Calibration Information:
! TYPE:                         Current Settings,       Active Cal Settings
! TIME:             	   12/21/2017 05:17:33 PM,    12/21/2017 05:13:10 PM
! INTERNAL TEMP:    	                   39.8 C,                    40.0 C
! # POINTS:         	                      501,                       501
! START FREQ:       	               10.000 MHz,                10.000 MHz
! STOP FREQ:        	              110.000 MHz,               110.000 MHz
! SOURCE POWER:     	                     High,                      High
! IFBW:             	                   100 Hz,                    100 Hz
! AVG FACTOR:       	                       1 ,                        1 
! REF PLANE 1:      	                     0 mm,                      0 mm
! REF PLANE 2:      	                     0 mm,                      0 mm
! CAL TYPE:         	                 Full S11,                  Full S11
! CAL METHOD:       	                     SOLT,                      SOLT
! CAL LINE TYPE:    	                     Coax,                      Coax
! DUT PORT 1:       	                K-Conn(F),                 K-Conn(F)
! DUT PORT 2:       	                K-Conn(F),                 K-Conn(F)
! CAL STATUS:       	        OK: Accuracy High,                        --
# GHZ S DB R 50.0
! FREQ.GHZ       S11DB        S11A       S21DB        S21A       S12DB        S12A       S22DB        S22A
  0.010000000   -0.570168  -58.605331  -85.253691   84.229668    0.000000    0.000000    0.000000    0.000000
  0.010200000   -0.557335  -59.806938  -84.481253   87.941666    0.000000    0.000000    0.000000    0.000000
  0.010400000   -0.567205  -61.083965  -84.897263   86.357986    0.000000    0.000000    0.000000    0.000000
  0.010600000   -0.561327  -62.314125  -84.543154   83.656357    0.000000    0.000000    0.000000    0.000000
  0.010800000   -0.564808  -63.574356  -84.187055   84.981102    0.000000    0.000000    0.000000    0.000000
  0.011000000   -0.566891  -64.855545  -84.130992   83.448029    0.000000    0.000000    0.000000    0.000000
  0.011200000   -0.565014  -66.110245  -84.152037   79.877846    0.000000    0.000000    0.000000    0.000000
  0.011400000   -0.566209  -67.361458  -83.314985   78.621155    0.000000    0.000000    0.000000    0.000000
  0.011600000   -0.564961  -68.578217  -83.694788   79.284592    0.000000    0.000000    0.000000    0.000000
  0.011800000   -0.569939  -69.854439  -83.538462   74.751396    0.000000    0.000000    0.000000    0.000000
  0.012000000   -0.573475  -71.124451  -83.848430   73.336510    0.000000    0.000000    0.000000    0.000000
  0.012200000   -0.574611  -72.417343  -83.582215   67.407394    0.000000    0.000000    0.000000    0.000000
  0.012400000   -0.572167  -73.677055  -84.153167   65.492195    0.000000    0.000000    0.000000    0.000000
  0.012600000   -0.570874  -74.956940  -84.113263   63.825981    0.000000    0.000000    0.000000    0.000000
  0.012800000   -0.570315  -76.218742  -84.010235   62.462437    0.000000    0.000000    0.000000    0.000000
  0.013000000   -0.572396  -77.506905  -84.790163   59.400078    0.000000    0.000000    0.000000    0.000000
  0.013200000   -0.571673  -78.757835  -84.870228   55.488441    0.000000    0.000000    0.000000    0.000000
  0.013400000   -0.573585  -80.039803  -85.231221   57.613289    0.000000    0.000000    0.000000    0.000000
  0.013600000   -0.574213  -81.313347  -85.541974   51.508610    0.000000    0.000000    0.000000    0.000000
  0.013800000   -0.574822  -82.611420  -85.759332   49.511112    0.000000    0.000000    0.000000    0.000000
  0.014000000   -0.578520  -83.884514  -86.441466   51.227634    0.000000    0.000000    0.000000    0.000000
  0.014200000   -0.579850  -85.186005  -87.037532   48.338165    0.000000    0.000000    0.000000    0.000000
  0.014400000   -0.582601  -86.476585  -87.052538   48.015667    0.000000    0.000000    0.000000    0.000000
  0.014600000   -0.587026  -87.781799  -88.378659   45.343357    0.000000    0.000000    0.000000    0.000000
  0.014800000   -0.590288  -89.115196  -88.437264   42.590664    0.000000    0.000000    0.000000    0.000000
  0.015000000   -0.596441  -90.399734  -89.407623   50.765179    0.000000    0.000000    0.000000    0.000000
  0.015200000   -0.594608  -91.736526  -88.588181   49.311058    0.000000    0.000000    0.000000    0.000000
  0.015400000   -0.593634  -93.057594  -88.983585   50.486416    0.000000    0.000000    0.000000    0.000000
  0.015600000   -0.596645  -94.416191  -89.449154   55.232651    0.000000    0.000000    0.000000    0.000000
  0.015800000   -0.592361  -95.649750  -89.520039   48.158791    0.000000    0.000000    0.000000    0.000000
  0.016000000   -0.592047  -96.957840  -89.048974   52.149612    0.000000    0.000000    0.000000    0.000000
  0.016200000   -0.591631  -98.281036  -89.463465   53.313923    0.000000    0.000000    0.000000    0.000000
  0.016400000   -0.590573  -99.623222  -89.568758   53.488647    0.000000    0.000000    0.000000    0.000000
  0.016600000   -0.587226 -100.998726  -89.633730   56.145599    0.000000    0.000000    0.000000    0.000000
  0.016800000   -0.583515 -102.338814  -89.237368   53.179459    0.000000    0.000000    0.000000    0.000000
  0.017000000   -0.580556 -103.704506  -90.065837   57.709957    0.000000    0.000000    0.000000    0.000000
  0.017200000   -0.578738 -105.065819  -89.176794   55.543846    0.000000    0.000000    0.000000    0.000000
  0.017400000   -0.583869 -106.392006  -89.647248   55.842609    0.000000    0.000000    0.000000    0.000000
  0.017600000   -0.589468 -107.734283  -89.644174   52.541920    0.000000    0.000000    0.000000    0.000000
  0.017800000   -0.589388 -109.092087  -88.864069   53.178936    0.000000    0.000000    0.000000    0.000000
  0.018000000   -0.592827 -110.464142  -88.968067   42.888031    0.000000    0.000000    0.000000    0.000000
  0.018200000   -0.593126 -111.840836  -89.218064   47.207649    0.000000    0.000000    0.000000    0.000000
  0.018400000   -0.591874 -113.221611  -88.914741   48.383873    0.000000    0.000000    0.000000    0.000000
  0.018600000   -0.588695 -114.615257  -89.108442   42.270592    0.000000    0.000000    0.000000    0.000000
  0.018800000   -0.587822 -116.002129  -89.860181   37.904228    0.000000    0.000000    0.000000    0.000000
  0.019000000   -0.588519 -117.434013  -89.993809   37.936596    0.000000    0.000000    0.000000    0.000000
  0.019200000   -0.589832 -118.823914  -90.124452   39.379311    0.000000    0.000000    0.000000    0.000000
  0.019400000   -0.592190 -120.258087  -90.335205   36.527729    0.000000    0.000000    0.000000    0.000000
  0.019600000   -0.592999 -121.712181  -90.523702   37.593124    0.000000    0.000000    0.000000    0.000000
  0.019800000   -0.593412 -123.153854  -90.726094   35.506378    0.000000    0.000000    0.000000    0.000000
  0.020000000   -0.591253 -124.572624  -90.554781   30.841536    0.000000    0.000000    0.000000    0.000000
  0.020200000   -0.587224 -126.006775  -91.297980   27.517647    0.000000    0.000000    0.000000    0.000000
  0.020400000   -0.588294 -127.433762  -91.723551   28.939919    0.000000    0.000000    0.000000    0.000000
  0.020600000   -0.591834 -128.874191  -91.867544   33.457790    0.000000    0.000000    0.000000    0.000000
  0.020800000   -0.597461 -130.335434  -92.088103   33.508247    0.000000    0.000000    0.000000    0.000000
  0.021000000   -0.605247 -131.828796  -93.696256   27.557859    0.000000    0.000000    0.000000    0.000000
  0.021200000   -0.612230 -133.331406  -92.583073   26.451485    0.000000    0.000000    0.000000    0.000000
  0.021400000   -0.616119 -134.814682  -92.156823   33.353172    0.000000    0.000000    0.000000    0.000000
  0.021600000   -0.621069 -136.312164  -93.476959   37.816315    0.000000    0.000000    0.000000    0.000000
  0.021800000   -0.623115 -137.808563  -93.865645   36.495136    0.000000    0.000000    0.000000    0.000000
  0.022000000   -0.630728 -139.319702  -93.638151   40.676552    0.000000    0.000000    0.000000    0.000000
  0.022200000   -0.637620 -140.837219  -93.660925   43.033356    0.000000    0.000000    0.000000    0.000000
  0.022400000   -0.641863 -142.350525  -93.646050   46.334515    0.000000    0.000000    0.000000    0.000000
  0.022600000   -0.646311 -143.911072  -92.646708   39.634007    0.000000    0.000000    0.000000    0.000000
  0.022800000   -0.655014 -145.471176  -92.475091   39.813530    0.000000    0.000000    0.000000    0.000000
  0.023000000   -0.656883 -147.010239  -92.368090   39.217110    0.000000    0.000000    0.000000    0.000000
  0.023200000   -0.656760 -148.550278  -92.131284   32.576370    0.000000    0.000000    0.000000    0.000000
  0.023400000   -0.662380 -150.145966  -92.538632   41.461239    0.000000    0.000000    0.000000    0.000000
  0.023600000   -0.668821 -151.604935  -92.412033   32.444500    0.000000    0.000000    0.000000    0.000000
  0.023800000   -0.675558 -153.178619  -92.784306   35.131340    0.000000    0.000000    0.000000    0.000000
  0.024000000   -0.685794 -154.740356  -93.421726   37.123787    0.000000    0.000000    0.000000    0.000000
  0.024200000   -0.691804 -156.323685  -92.254899   30.404652    0.000000    0.000000    0.000000    0.000000
  0.024400000   -0.701476 -157.930618  -92.871019   27.731609    0.000000    0.000000    0.000000    0.000000
  0.024600000   -0.707553 -159.529694  -93.581021   27.358156    0.000000    0.000000    0.000000    0.000000
  0.024800000   -0.715397 -161.117004  -93.828551   30.012066    0.000000    0.000000    0.000000    0.000000
  0.025000000   -0.723452 -162.725357  -93.141741   22.553020    0.000000    0.000000    0.000000    0.000000
  0.025200000   -0.733786 -164.351028  -93.320400   26.911301    0.000000    0.000000    0.000000    0.000000
  0.025400000   -0.745503 -165.995132  -92.828755   22.311098    0.000000    0.000000    0.000000    0.000000
  0.025600000   -0.758232 -167.649475  -93.583306   19.282051    0.000000    0.000000    0.000000    0.000000
  0.025800000   -0.766667 -169.335724  -93.864993   20.152657    0.000000    0.000000    0.000000    0.000000
  0.026000000   -0.774900 -171.015152  -95.669682   18.244951    0.000000    0.000000    0.000000    0.000000
  0.026200000   -0.783873 -172.704605  -95.450197   18.271305    0.000000    0.000000    0.000000    0.000000
  0.026400000   -0.795318 -174.395828  -96.578281   28.549366    0.000000    0.000000    0.000000    0.000000
  0.026600000   -0.807363 -176.104736  -95.679521   21.346115    0.000000    0.000000    0.000000    0.000000
  0.026800000   -0.821558 -177.807343  -96.440014   18.416983    0.000000    0.000000    0.000000    0.000000
  0.027000000   -0.835574 -179.524658  -96.321313   26.821432    0.000000    0.000000    0.000000    0.000000
  0.027200000   -0.849409  178.718826  -96.133714   20.618874    0.000000    0.000000    0.000000    0.000000
  0.027400000   -0.864382  176.986526  -95.566211   22.010075    0.000000    0.000000    0.000000    0.000000
  0.027600000   -0.877806  175.222168  -96.745921   26.174372    0.000000    0.000000    0.000000    0.000000
  0.027800000   -0.897008  173.453949  -96.072399   21.233084    0.000000    0.000000    0.000000    0.000000
  0.028000000   -0.914868  171.671356  -95.913113   26.341122    0.000000    0.000000    0.000000    0.000000
  0.028200000   -0.936986  169.881058  -95.741872   23.073380    0.000000    0.000000    0.000000    0.000000
  0.028400000   -0.956867  168.105728  -96.422705   22.109755    0.000000    0.000000    0.000000    0.000000
  0.028600000   -0.975478  166.303757  -97.487022   28.100359    0.000000    0.000000    0.000000    0.000000
  0.028800000   -0.994100  164.512955  -96.108029   27.104275    0.000000    0.000000    0.000000    0.000000
  0.029000000   -1.013827  162.722122  -95.308623   20.297926    0.000000    0.000000    0.000000    0.000000
  0.029200000   -1.033861  160.943268  -96.624950   22.249798    0.000000    0.000000    0.000000    0.000000
  0.029400000   -1.057983  159.146317  -96.105319   25.879917    0.000000    0.000000    0.000000    0.000000
  0.029600000   -1.086412  157.334229  -96.311062   18.295618    0.000000    0.000000    0.000000    0.000000
  0.029800000   -1.114212  155.497543  -96.009880   19.851244    0.000000    0.000000    0.000000    0.000000
  0.030000000   -1.144379  153.637344  -95.795570   17.628349    0.000000    0.000000    0.000000    0.000000
  0.030200000   -1.172527  151.755371  -95.832460    9.621998    0.000000    0.000000    0.000000    0.000000
  0.030400000   -1.202132  149.892197  -96.257270   14.489415    0.000000    0.000000    0.000000    0.000000
  0.030600000   -1.232007  148.009933  -96.230814   18.604778    0.000000    0.000000    0.000000    0.000000
  0.030800000   -1.266213  146.143570  -97.513228    3.196996    0.000000    0.000000    0.000000    0.000000
  0.031000000   -1.299551  144.253967  -96.410232    6.956565    0.000000    0.000000    0.000000    0.000000
  0.031200000   -1.333581  142.391663  -97.109755    7.243315    0.000000    0.000000    0.000000    0.000000
  0.031400000   -1.371412  140.438950  -96.581237   16.817570    0.000000    0.000000    0.000000    0.000000
  0.031600000   -1.404418  138.492935  -97.132960   11.156821    0.000000    0.000000    0.000000    0.000000
  0.031800000   -1.437587  136.533813  -95.805423    5.633420    0.000000    0.000000    0.000000    0.000000
  0.032000000   -1.470567  134.598419  -97.234550    8.298064    0.000000    0.000000    0.000000    0.000000
  0.032200000   -1.502223  132.668182  -96.305142    8.843610    0.000000    0.000000    0.000000    0.000000
  0.032400000   -1.533030  130.729492  -98.898993   12.412240    0.000000    0.000000    0.000000    0.000000
  0.032600000   -1.569755  128.827194  -96.961591    6.688934    0.000000    0.000000    0.000000    0.000000
  0.032800000   -1.606841  126.906319  -98.322400   16.855461    0.000000    0.000000    0.000000    0.000000
  0.033000000   -1.642420  124.938354  -98.050665   10.420648    0.000000    0.000000    0.000000    0.000000
  0.033200000   -1.689878  123.018875  -97.710358   11.788629    0.000000    0.000000    0.000000    0.000000
  0.033400000   -1.733067  121.031830 -100.362356    6.278809    0.000000    0.000000    0.000000    0.000000
  0.033600000   -1.784067  119.031891  -97.291468   20.704222    0.000000    0.000000    0.000000    0.000000
  0.033800000   -1.828584  116.968025  -98.240235   13.148314    0.000000    0.000000    0.000000    0.000000
  0.034000000   -1.876523  114.889885  -99.248357    9.609747    0.000000    0.000000    0.000000    0.000000
  0.034200000   -1.919438  112.777534  -95.913713   17.296520    0.000000    0.000000    0.000000    0.000000
  0.034400000   -1.963394  110.660088  -96.197076   23.219831    0.000000    0.000000    0.000000    0.000000
  0.034600000   -2.005106  108.551460  -98.753867   14.145197    0.000000    0.000000    0.000000    0.000000
  0.034800000   -2.044630  106.438446  -99.726623   12.067411    0.000000    0.000000    0.000000    0.000000
  0.035000000   -2.085394  104.326027  -99.500184    4.145451    0.000000    0.000000    0.000000    0.000000
  0.035200000   -2.122228  102.241196  -98.862612   22.607027    0.000000    0.000000    0.000000    0.000000
  0.035400000   -2.160917  100.141884  -96.447851   12.798206    0.000000    0.000000    0.000000    0.000000
  0.035600000   -2.205390   98.071259 -100.217632   10.333211    0.000000    0.000000    0.000000    0.000000
  0.035800000   -2.247907   95.971199  -98.599822    9.144238    0.000000    0.000000    0.000000    0.000000
  0.036000000   -2.293113   93.920555  -99.032607   -5.811068    0.000000    0.000000    0.000000    0.000000
  0.036200000   -2.342428   91.864594  -99.185624   10.836335    0.000000    0.000000    0.000000    0.000000
  0.036400000   -2.388197   89.836205 -100.137872    6.661644    0.000000    0.000000    0.000000    0.000000
  0.036600000   -2.447249   87.819557  -98.696377    6.440568    0.000000    0.000000    0.000000    0.000000
  0.036800000   -2.505390   85.754883  -99.830423    5.696113    0.000000    0.000000    0.000000    0.000000
  0.037000000   -2.564153   83.661789  -99.039846   -2.626265    0.000000    0.000000    0.000000    0.000000
  0.037200000   -2.630618   81.552780 -100.747505   -2.002689    0.000000    0.000000    0.000000    0.000000
  0.037400000   -2.693923   79.453522 -100.376101   13.642190    0.000000    0.000000    0.000000    0.000000
  0.037600000   -2.756236   77.305321  -99.098843    7.102607    0.000000    0.000000    0.000000    0.000000
  0.037800000   -2.818359   75.106636  -98.913377   -6.253920    0.000000    0.000000    0.000000    0.000000
  0.038000000   -2.880686   72.903908 -100.924374   14.586526    0.000000    0.000000    0.000000    0.000000
  0.038200000   -2.948219   70.657921  -98.103736   16.540825    0.000000    0.000000    0.000000    0.000000
  0.038400000   -3.020208   68.552834 -102.228456    5.538720    0.000000    0.000000    0.000000    0.000000
  0.038600000   -3.078848   66.477890 -101.604241   14.250180    0.000000    0.000000    0.000000    0.000000
  0.038800000   -3.125553   64.393303 -101.263768   -8.709922    0.000000    0.000000    0.000000    0.000000
  0.039000000   -3.173333   62.321999  -99.913190   25.091274    0.000000    0.000000    0.000000    0.000000
  0.039200000   -3.221403   60.227154  -98.722043   10.315370    0.000000    0.000000    0.000000    0.000000
  0.039400000   -3.281902   58.176868 -105.107306    9.068000    0.000000    0.000000    0.000000    0.000000
  0.039600000   -3.339188   56.128410 -100.185502   23.640276    0.000000    0.000000    0.000000    0.000000
  0.039800000   -3.403435   54.045410  -98.238692   29.783020    0.000000    0.000000    0.000000    0.000000
  0.040000000   -3.471404   51.942997  -99.444791   16.444927    0.000000    0.000000    0.000000    0.000000
  0.040200000   -3.536785   49.871265  -98.743513   16.620892    0.000000    0.000000    0.000000    0.000000
  0.040400000   -3.599179   47.738327  -99.631231   -0.038155    0.000000    0.000000    0.000000    0.000000
  0.040600000   -3.664641   45.640163 -100.078055   13.511124    0.000000    0.000000    0.000000    0.000000
  0.040800000   -3.730868   43.485863 -100.229149   20.160721    0.000000    0.000000    0.000000    0.000000
  0.041000000   -3.792667   41.377258 -101.418805   -1.399286    0.000000    0.000000    0.000000    0.000000
  0.041200000   -3.853737   39.257919 -100.324183   13.318711    0.000000    0.000000    0.000000    0.000000
  0.041400000   -3.914601   37.095490  -98.818158    8.819057    0.000000    0.000000    0.000000    0.000000
  0.041600000   -3.972459   34.973858 -102.142042    9.223234    0.000000    0.000000    0.000000    0.000000
  0.041800000   -4.026320   32.844696  -98.715642   -5.869921    0.000000    0.000000    0.000000    0.000000
  0.042000000   -4.081074   30.751608 -101.042543   14.759250    0.000000    0.000000    0.000000    0.000000
  0.042200000   -4.137055   28.646271 -102.995218  -13.912159    0.000000    0.000000    0.000000    0.000000
  0.042400000   -4.187792   26.607962  -98.512088    6.221126    0.000000    0.000000    0.000000    0.000000
  0.042600000   -4.244125   24.565798 -102.501985   -7.218920    0.000000    0.000000    0.000000    0.000000
  0.042800000   -4.295020   22.501379 -101.027697  -11.202602    0.000000    0.000000    0.000000    0.000000
