! Anritsu VNA Master:                     Model: MS2036C/10/77
! SN:                                  1601066
! /card0/usr/200ohm4.s2p
! Existing Calibration Information:
! TYPE:                         Current Settings,       Active Cal Settings
! TIME:             	   12/20/2017 04:20:50 PM,    12/20/2017 04:05:21 PM
! INTERNAL TEMP:    	                   41.8 C,                    43.3 C
! # POINTS:         	                      501,                       501
! START FREQ:       	               10.000 MHz,                10.000 MHz
! STOP FREQ:        	              110.000 MHz,               110.000 MHz
! SOURCE POWER:     	                     High,                      High
! IFBW:             	                   100 Hz,                    100 Hz
! AVG FACTOR:       	                       1 ,                        1 
! REF PLANE 1:      	                     0 mm,                      0 mm
! REF PLANE 2:      	                     0 mm,                      0 mm
! CAL TYPE:         	                 Full S11,                  Full S11
! CAL METHOD:       	                     SOLT,                      SOLT
! CAL LINE TYPE:    	                     Coax,                      Coax
! DUT PORT 1:       	                K-Conn(F),                 K-Conn(F)
! DUT PORT 2:       	                K-Conn(F),                 K-Conn(F)
! CAL STATUS:       	        OK: Accuracy High,                        --
# GHZ S DB R 50.0
! FREQ.GHZ       S11DB        S11A       S21DB        S21A       S12DB        S12A       S22DB        S22A
  0.010000000   -4.518280  -11.222030  -84.721384   76.301140    0.000000    0.000000    0.000000    0.000000
  0.010200000   -4.509397  -11.384413  -84.483591   74.297729    0.000000    0.000000    0.000000    0.000000
  0.010400000   -4.507468  -11.620289  -84.399069   74.567009    0.000000    0.000000    0.000000    0.000000
  0.010600000   -4.506621  -11.809860  -85.505523   76.129845    0.000000    0.000000    0.000000    0.000000
  0.010800000   -4.509314  -12.027329  -84.934758   77.050125    0.000000    0.000000    0.000000    0.000000
  0.011000000   -4.510773  -12.236839  -85.529933   77.615463    0.000000    0.000000    0.000000    0.000000
  0.011200000   -4.510619  -12.463469  -85.149427   78.069527    0.000000    0.000000    0.000000    0.000000
  0.011400000   -4.511912  -12.680098  -84.549187   74.442963    0.000000    0.000000    0.000000    0.000000
  0.011600000   -4.510330  -12.916046  -85.364712   74.321701    0.000000    0.000000    0.000000    0.000000
  0.011800000   -4.512356  -13.119909  -85.320826   74.908020    0.000000    0.000000    0.000000    0.000000
  0.012000000   -4.518678  -13.370877  -85.013566   70.145111    0.000000    0.000000    0.000000    0.000000
  0.012200000   -4.518583  -13.590984  -85.006875   72.444771    0.000000    0.000000    0.000000    0.000000
  0.012400000   -4.524214  -13.836573  -85.102910   68.753250    0.000000    0.000000    0.000000    0.000000
  0.012600000   -4.526977  -14.079982  -85.203720   70.966507    0.000000    0.000000    0.000000    0.000000
  0.012800000   -4.527117  -14.297177  -84.943017   68.189751    0.000000    0.000000    0.000000    0.000000
  0.013000000   -4.532928  -14.527671  -85.412202   68.629990    0.000000    0.000000    0.000000    0.000000
  0.013200000   -4.534305  -14.761789  -85.077281   64.359688    0.000000    0.000000    0.000000    0.000000
  0.013400000   -4.537463  -15.008282  -85.747376   62.240196    0.000000    0.000000    0.000000    0.000000
  0.013600000   -4.536212  -15.240199  -85.651180   58.845345    0.000000    0.000000    0.000000    0.000000
  0.013800000   -4.534668  -15.469165  -85.923837   59.266407    0.000000    0.000000    0.000000    0.000000
  0.014000000   -4.539737  -15.717694  -86.211526   57.301170    0.000000    0.000000    0.000000    0.000000
  0.014200000   -4.540580  -15.974520  -86.050038   54.495350    0.000000    0.000000    0.000000    0.000000
  0.014400000   -4.541028  -16.208323  -86.140541   53.524529    0.000000    0.000000    0.000000    0.000000
  0.014600000   -4.541313  -16.451477  -86.400678   53.789997    0.000000    0.000000    0.000000    0.000000
  0.014800000   -4.540528  -16.683758  -86.884201   51.352840    0.000000    0.000000    0.000000    0.000000
  0.015000000   -4.540591  -16.916065  -87.199191   49.428288    0.000000    0.000000    0.000000    0.000000
  0.015200000   -4.543047  -17.149281  -87.187403   47.273251    0.000000    0.000000    0.000000    0.000000
  0.015400000   -4.542551  -17.399717  -87.569691   48.624153    0.000000    0.000000    0.000000    0.000000
  0.015600000   -4.542834  -17.639118  -88.032469   47.949200    0.000000    0.000000    0.000000    0.000000
  0.015800000   -4.543150  -17.865623  -88.319864   42.272984    0.000000    0.000000    0.000000    0.000000
  0.016000000   -4.543368  -18.101982  -89.151309   41.945518    0.000000    0.000000    0.000000    0.000000
  0.016200000   -4.545504  -18.305790  -89.229893   48.039066    0.000000    0.000000    0.000000    0.000000
  0.016400000   -4.545489  -18.539858  -89.070242   42.719032    0.000000    0.000000    0.000000    0.000000
  0.016600000   -4.544724  -18.748674  -89.772647   46.265400    0.000000    0.000000    0.000000    0.000000
  0.016800000   -4.543512  -18.948933  -90.462846   45.920269    0.000000    0.000000    0.000000    0.000000
  0.017000000   -4.541754  -19.192532  -90.724058   47.130116    0.000000    0.000000    0.000000    0.000000
  0.017200000   -4.533267  -19.414900  -89.755274   43.361465    0.000000    0.000000    0.000000    0.000000
  0.017400000   -4.533733  -19.619242  -90.780555   45.996052    0.000000    0.000000    0.000000    0.000000
  0.017600000   -4.531883  -19.855104  -90.293587   48.862755    0.000000    0.000000    0.000000    0.000000
  0.017800000   -4.531993  -20.059864  -89.929870   44.317402    0.000000    0.000000    0.000000    0.000000
  0.018000000   -4.533028  -20.261181  -90.070905   46.542572    0.000000    0.000000    0.000000    0.000000
  0.018200000   -4.535698  -20.504362  -90.141063   47.810646    0.000000    0.000000    0.000000    0.000000
  0.018400000   -4.539384  -20.707329  -90.184154   42.813412    0.000000    0.000000    0.000000    0.000000
  0.018600000   -4.537669  -20.926294  -90.848395   50.349335    0.000000    0.000000    0.000000    0.000000
  0.018800000   -4.540194  -21.163359  -89.991126   46.446911    0.000000    0.000000    0.000000    0.000000
  0.019000000   -4.539762  -21.390388  -90.511184   46.526154    0.000000    0.000000    0.000000    0.000000
  0.019200000   -4.541394  -21.592272  -90.298070   46.708408    0.000000    0.000000    0.000000    0.000000
  0.019400000   -4.546900  -21.810568  -90.956406   44.310577    0.000000    0.000000    0.000000    0.000000
  0.019600000   -4.548454  -22.051060  -90.471491   41.983574    0.000000    0.000000    0.000000    0.000000
  0.019800000   -4.549243  -22.284645  -89.729642   44.056606    0.000000    0.000000    0.000000    0.000000
  0.020000000   -4.552477  -22.505133  -90.759819   40.132420    0.000000    0.000000    0.000000    0.000000
  0.020200000   -4.551538  -22.756365  -90.717980   35.672173    0.000000    0.000000    0.000000    0.000000
  0.020400000   -4.551715  -22.987371  -91.321479   38.010918    0.000000    0.000000    0.000000    0.000000
  0.020600000   -4.552069  -23.227715  -90.956808   32.958679    0.000000    0.000000    0.000000    0.000000
  0.020800000   -4.551495  -23.467957  -90.843713   35.947914    0.000000    0.000000    0.000000    0.000000
  0.021000000   -4.551297  -23.725969  -90.603585   37.321476    0.000000    0.000000    0.000000    0.000000
  0.021200000   -4.556837  -23.967424  -91.531829   31.079403    0.000000    0.000000    0.000000    0.000000
  0.021400000   -4.557611  -24.203243  -91.373854   33.733036    0.000000    0.000000    0.000000    0.000000
  0.021600000   -4.556042  -24.455492  -92.251399   28.669918    0.000000    0.000000    0.000000    0.000000
  0.021800000   -4.557974  -24.677746  -92.162671   34.630375    0.000000    0.000000    0.000000    0.000000
  0.022000000   -4.560614  -24.899891  -91.983867   31.238758    0.000000    0.000000    0.000000    0.000000
  0.022200000   -4.559197  -25.160728  -93.088605   25.731983    0.000000    0.000000    0.000000    0.000000
  0.022400000   -4.557583  -25.365044  -92.100347   27.373190    0.000000    0.000000    0.000000    0.000000
  0.022600000   -4.556045  -25.575443  -92.632638   20.542589    0.000000    0.000000    0.000000    0.000000
  0.022800000   -4.560403  -25.794291  -94.042776   27.284529    0.000000    0.000000    0.000000    0.000000
  0.023000000   -4.563408  -26.046492  -93.589089   34.860447    0.000000    0.000000    0.000000    0.000000
  0.023200000   -4.564193  -26.278339  -93.257093   21.115955    0.000000    0.000000    0.000000    0.000000
  0.023400000   -4.557903  -26.523348  -93.809598   24.324675    0.000000    0.000000    0.000000    0.000000
  0.023600000   -4.561077  -26.752716  -93.163651   32.528980    0.000000    0.000000    0.000000    0.000000
  0.023800000   -4.558751  -26.964579  -94.062900   38.020828    0.000000    0.000000    0.000000    0.000000
  0.024000000   -4.559101  -27.195145  -95.321385   25.980856    0.000000    0.000000    0.000000    0.000000
  0.024200000   -4.553267  -27.418680  -94.685909   30.270090    0.000000    0.000000    0.000000    0.000000
  0.024400000   -4.554676  -27.649143  -93.206639   29.895496    0.000000    0.000000    0.000000    0.000000
  0.024600000   -4.553566  -27.888670  -93.696645   32.563263    0.000000    0.000000    0.000000    0.000000
  0.024800000   -4.557112  -28.100193  -93.961560   25.162016    0.000000    0.000000    0.000000    0.000000
  0.025000000   -4.555434  -28.309910  -92.980059   28.115988    0.000000    0.000000    0.000000    0.000000
  0.025200000   -4.556830  -28.537369  -94.192992   25.871996    0.000000    0.000000    0.000000    0.000000
  0.025400000   -4.559724  -28.737789  -94.729780   30.293470    0.000000    0.000000    0.000000    0.000000
  0.025600000   -4.561114  -28.940212  -94.470692   27.231216    0.000000    0.000000    0.000000    0.000000
  0.025800000   -4.563827  -29.139309  -93.680409   29.438372    0.000000    0.000000    0.000000    0.000000
  0.026000000   -4.566530  -29.338207  -95.135174   26.458036    0.000000    0.000000    0.000000    0.000000
  0.026200000   -4.569397  -29.550823  -95.342461   19.398802    0.000000    0.000000    0.000000    0.000000
  0.026400000   -4.573900  -29.792772  -93.502819   30.466999    0.000000    0.000000    0.000000    0.000000
  0.026600000   -4.578144  -29.999485  -94.631002   31.025375    0.000000    0.000000    0.000000    0.000000
  0.026800000   -4.580158  -30.272419  -95.148904   30.669035    0.000000    0.000000    0.000000    0.000000
  0.027000000   -4.580561  -30.510445  -94.903169    7.604391    0.000000    0.000000    0.000000    0.000000
  0.027200000   -4.580365  -30.775866  -94.928647   28.143890    0.000000    0.000000    0.000000    0.000000
  0.027400000   -4.580935  -31.018772  -94.851117   19.674801    0.000000    0.000000    0.000000    0.000000
  0.027600000   -4.583314  -31.264114  -95.222646   21.193081    0.000000    0.000000    0.000000    0.000000
  0.027800000   -4.586235  -31.534765  -96.180128   20.617336    0.000000    0.000000    0.000000    0.000000
  0.028000000   -4.586820  -31.784479  -96.414269   15.839671    0.000000    0.000000    0.000000    0.000000
  0.028200000   -4.587766  -32.054165  -95.383531   22.956730    0.000000    0.000000    0.000000    0.000000
  0.028400000   -4.584208  -32.303608  -95.826828   22.133831    0.000000    0.000000    0.000000    0.000000
  0.028600000   -4.579116  -32.519905  -96.980491   17.448816    0.000000    0.000000    0.000000    0.000000
  0.028800000   -4.576459  -32.724976  -96.428190   19.041151    0.000000    0.000000    0.000000    0.000000
  0.029000000   -4.573616  -32.937111  -96.852231   12.108260    0.000000    0.000000    0.000000    0.000000
  0.029200000   -4.570560  -33.125416  -95.906074   16.493513    0.000000    0.000000    0.000000    0.000000
  0.029400000   -4.575603  -33.318237  -98.080289   15.501161    0.000000    0.000000    0.000000    0.000000
  0.029600000   -4.575655  -33.515739  -95.753638   16.487129    0.000000    0.000000    0.000000    0.000000
  0.029800000   -4.579635  -33.739849  -97.792205   14.252220    0.000000    0.000000    0.000000    0.000000
  0.030000000   -4.586177  -33.953415  -96.872485   17.627707    0.000000    0.000000    0.000000    0.000000
  0.030200000   -4.594074  -34.203041  -97.768243   28.287771    0.000000    0.000000    0.000000    0.000000
  0.030400000   -4.596662  -34.461178  -96.672943   18.799685    0.000000    0.000000    0.000000    0.000000
  0.030600000   -4.597373  -34.709347  -97.471188   17.371042    0.000000    0.000000    0.000000    0.000000
  0.030800000   -4.594024  -34.961750  -96.497823   18.781630    0.000000    0.000000    0.000000    0.000000
  0.031000000   -4.591947  -35.223755  -97.284660   17.986393    0.000000    0.000000    0.000000    0.000000
  0.031200000   -4.584814  -35.445541  -97.185674   13.004658    0.000000    0.000000    0.000000    0.000000
  0.031400000   -4.584174  -35.674744  -96.819431   12.644852    0.000000    0.000000    0.000000    0.000000
  0.031600000   -4.584420  -35.911804  -98.296815   14.029710    0.000000    0.000000    0.000000    0.000000
  0.031800000   -4.577551  -36.128311  -97.973225   16.247189    0.000000    0.000000    0.000000    0.000000
  0.032000000   -4.574364  -36.376045  -97.332366   11.867389    0.000000    0.000000    0.000000    0.000000
  0.032200000   -4.570147  -36.567875  -96.717971    8.121706    0.000000    0.000000    0.000000    0.000000
  0.032400000   -4.564130  -36.789120  -97.699607   14.407488    0.000000    0.000000    0.000000    0.000000
  0.032600000   -4.560600  -36.994289  -97.493233   22.245474    0.000000    0.000000    0.000000    0.000000
  0.032800000   -4.558877  -37.180202  -97.642497   16.015024    0.000000    0.000000    0.000000    0.000000
  0.033000000   -4.555778  -37.377953  -97.534334   17.151583    0.000000    0.000000    0.000000    0.000000
  0.033200000   -4.559189  -37.570770  -98.066566   12.624511    0.000000    0.000000    0.000000    0.000000
  0.033400000   -4.560633  -37.797688  -99.172512   10.973890    0.000000    0.000000    0.000000    0.000000
  0.033600000   -4.563876  -38.004398  -97.590311    7.046569    0.000000    0.000000    0.000000    0.000000
  0.033800000   -4.565762  -38.243782  -97.747577    6.424240    0.000000    0.000000    0.000000    0.000000
  0.034000000   -4.565897  -38.468197  -99.954501   17.351721    0.000000    0.000000    0.000000    0.000000
  0.034200000   -4.568933  -38.688393  -97.412881   17.402447    0.000000    0.000000    0.000000    0.000000
  0.034400000   -4.573145  -38.914452  -98.216433   12.742635    0.000000    0.000000    0.000000    0.000000
  0.034600000   -4.579872  -39.186607  -98.374161    3.657703    0.000000    0.000000    0.000000    0.000000
  0.034800000   -4.580200  -39.419979  -99.279818   21.176899    0.000000    0.000000    0.000000    0.000000
  0.035000000   -4.588110  -39.676819  -98.272333   19.961117    0.000000    0.000000    0.000000    0.000000
  0.035200000   -4.587451  -39.925510  -99.848452   17.651232    0.000000    0.000000    0.000000    0.000000
  0.035400000   -4.588192  -40.158321  -98.711232    1.987175    0.000000    0.000000    0.000000    0.000000
  0.035600000   -4.586252  -40.416229  -99.350071    8.927724    0.000000    0.000000    0.000000    0.000000
  0.035800000   -4.585943  -40.635845  -98.437417   10.610004    0.000000    0.000000    0.000000    0.000000
  0.036000000   -4.585175  -40.896713  -98.973994   17.572124    0.000000    0.000000    0.000000    0.000000
  0.036200000   -4.578139  -41.144745  -98.293379   13.024837    0.000000    0.000000    0.000000    0.000000
  0.036400000   -4.575907  -41.391342 -102.438544   16.927296    0.000000    0.000000    0.000000    0.000000
  0.036600000   -4.565512  -41.612560  -97.968725   14.796287    0.000000    0.000000    0.000000    0.000000
  0.036800000   -4.565366  -41.803440 -101.070777   21.779278    0.000000    0.000000    0.000000    0.000000
  0.037000000   -4.558478  -41.990444 -102.263848   16.621059    0.000000    0.000000    0.000000    0.000000
  0.037200000   -4.562322  -42.145233  -99.866789   11.649914    0.000000    0.000000    0.000000    0.000000
  0.037400000   -4.563922  -42.331360  -99.118016   12.918622    0.000000    0.000000    0.000000    0.000000
  0.037600000   -4.566767  -42.564850 -100.622549   12.132407    0.000000    0.000000    0.000000    0.000000
  0.037800000   -4.573783  -42.746326  -99.412272    9.639124    0.000000    0.000000    0.000000    0.000000
  0.038000000   -4.586897  -42.992470 -102.040579   18.016853    0.000000    0.000000    0.000000    0.000000
  0.038200000   -4.591149  -43.227852  -99.108122   22.475147    0.000000    0.000000    0.000000    0.000000
  0.038400000   -4.597831  -43.473251  -99.508950    4.042610    0.000000    0.000000    0.000000    0.000000
  0.038600000   -4.601273  -43.729744 -100.078914   11.140377    0.000000    0.000000    0.000000    0.000000
  0.038800000   -4.606147  -43.981213  -98.270873    9.856385    0.000000    0.000000    0.000000    0.000000
  0.039000000   -4.604667  -44.249485 -102.612591   24.792435    0.000000    0.000000    0.000000    0.000000
  0.039200000   -4.600247  -44.505836  -98.527216    4.574452    0.000000    0.000000    0.000000    0.000000
  0.039400000   -4.601112  -44.748562  -98.932456    1.665250    0.000000    0.000000    0.000000    0.000000
  0.039600000   -4.594262  -45.001034  -98.478999   -1.920701    0.000000    0.000000    0.000000    0.000000
  0.039800000   -4.588771  -45.264484 -101.054433   -2.355172    0.000000    0.000000    0.000000    0.000000
  0.040000000   -4.590496  -45.472988 -100.485338   -5.011395    0.000000    0.000000    0.000000    0.000000
  0.040200000   -4.580710  -45.658443 -101.069644    7.737363    0.000000    0.000000    0.000000    0.000000
  0.040400000   -4.582684  -45.862339 -101.048763    8.519037    0.000000    0.000000    0.000000    0.000000
  0.040600000   -4.583579  -46.106461 -102.283315   -0.890701    0.000000    0.000000    0.000000    0.000000
  0.040800000   -4.582886  -46.295048  -99.304943   17.042410    0.000000    0.000000    0.000000    0.000000
  0.041000000   -4.583896  -46.518795 -100.117146    3.332850    0.000000    0.000000    0.000000    0.000000
  0.041200000   -4.592399  -46.736504 -102.738364  -15.545743    0.000000    0.000000    0.000000    0.000000
  0.041400000   -4.595045  -46.990631 -100.335047   13.874296    0.000000    0.000000    0.000000    0.000000
  0.041600000   -4.598103  -47.257656  -99.295195   -0.317454    0.000000    0.000000    0.000000    0.000000
  0.041800000   -4.601949  -47.472107 -105.903457    6.270480    0.000000    0.000000    0.000000    0.000000
  0.042000000   -4.604502  -47.724976 -100.487060   -7.984409    0.000000    0.000000    0.000000    0.000000
  0.042200000   -4.603483  -47.965584 -101.013658   -2.986597    0.000000    0.000000    0.000000    0.000000
  0.042400000   -4.605731  -48.192364 -103.366185   18.673311    0.000000    0.000000    0.000000    0.000000
  0.042600000   -4.606328  -48.435146 -102.416207    8.703737    0.000000    0.000000    0.000000    0.000000
  0.042800000   -4.603899  -48.658051 -100.696773    9.827672    0.000000    0.000000    0.000000    0.000000
