! Anritsu VNA Master:                     Model: MS2036C/10/77
! SN:                                  1601066
! /card0/usr/254.ns.sma.r200.31.s2p
! Existing Calibration Information:
! TYPE:                         Current Settings,       Active Cal Settings
! TIME:             	   12/20/2017 02:10:55 PM,    12/20/2017 02:00:00 PM
! INTERNAL TEMP:    	                   47.3 C,                    47.0 C
! # POINTS:         	                      501,                       501
! START FREQ:       	               10.000 MHz,                10.000 MHz
! STOP FREQ:        	              110.000 MHz,               110.000 MHz
! SOURCE POWER:     	                     High,                      High
! IFBW:             	                   100 Hz,                    100 Hz
! AVG FACTOR:       	                       1 ,                        1 
! REF PLANE 1:      	                     0 mm,                      0 mm
! REF PLANE 2:      	                     0 mm,                      0 mm
! CAL TYPE:         	                 Full S11,                  Full S11
! CAL METHOD:       	                     SOLT,                      SOLT
! CAL LINE TYPE:    	                     Coax,                      Coax
! DUT PORT 1:       	                N-Conn(F),                 N-Conn(F)
! DUT PORT 2:       	                K-Conn(F),                 K-Conn(F)
! CAL STATUS:       	        OK: Accuracy High,                        --
# GHZ S DB R 50.0
! FREQ.GHZ       S11DB        S11A       S21DB        S21A       S12DB        S12A       S22DB        S22A
  0.010000000   -4.550120  -10.704996  -84.388643   76.666824    0.000000    0.000000    0.000000    0.000000
  0.010200000   -4.535953  -10.873667  -84.599721   73.417282    0.000000    0.000000    0.000000    0.000000
  0.010400000   -4.539054  -11.116386  -85.387297   72.919411    0.000000    0.000000    0.000000    0.000000
  0.010600000   -4.538787  -11.283973  -85.263266   77.168594    0.000000    0.000000    0.000000    0.000000
  0.010800000   -4.540941  -11.520958  -85.247629   76.961349    0.000000    0.000000    0.000000    0.000000
  0.011000000   -4.541323  -11.745956  -84.850443   75.041199    0.000000    0.000000    0.000000    0.000000
  0.011200000   -4.539295  -11.972331  -85.003302   75.927719    0.000000    0.000000    0.000000    0.000000
  0.011400000   -4.543107  -12.221659  -85.266762   74.196007    0.000000    0.000000    0.000000    0.000000
  0.011600000   -4.544435  -12.399601  -84.699436   74.873123    0.000000    0.000000    0.000000    0.000000
  0.011800000   -4.539694  -12.627506  -84.916260   70.356155    0.000000    0.000000    0.000000    0.000000
  0.012000000   -4.540639  -12.846279  -85.165013   75.143440    0.000000    0.000000    0.000000    0.000000
  0.012200000   -4.543299  -13.063153  -85.898138   72.297745    0.000000    0.000000    0.000000    0.000000
  0.012400000   -4.542913  -13.295770  -85.149389   71.333435    0.000000    0.000000    0.000000    0.000000
  0.012600000   -4.542064  -13.528452  -85.549874   67.748909    0.000000    0.000000    0.000000    0.000000
  0.012800000   -4.544491  -13.742920  -85.120500   65.426895    0.000000    0.000000    0.000000    0.000000
  0.013000000   -4.545595  -13.954536  -85.073596   64.739586    0.000000    0.000000    0.000000    0.000000
  0.013200000   -4.544518  -14.167957  -85.379169   65.870033    0.000000    0.000000    0.000000    0.000000
  0.013400000   -4.545893  -14.371195  -85.458505   58.370113    0.000000    0.000000    0.000000    0.000000
  0.013600000   -4.546354  -14.592204  -85.487339   61.957119    0.000000    0.000000    0.000000    0.000000
  0.013800000   -4.543693  -14.800512  -85.448118   56.856567    0.000000    0.000000    0.000000    0.000000
  0.014000000   -4.542990  -15.018959  -86.143845   56.506607    0.000000    0.000000    0.000000    0.000000
  0.014200000   -4.546214  -15.253576  -86.348765   54.015453    0.000000    0.000000    0.000000    0.000000
  0.014400000   -4.545600  -15.451312  -86.393430   51.348785    0.000000    0.000000    0.000000    0.000000
  0.014600000   -4.545752  -15.689790  -87.102793   51.755402    0.000000    0.000000    0.000000    0.000000
  0.014800000   -4.548570  -15.896967  -87.206901   50.043564    0.000000    0.000000    0.000000    0.000000
  0.015000000   -4.549210  -16.108898  -87.532335   45.585163    0.000000    0.000000    0.000000    0.000000
  0.015200000   -4.548034  -16.325039  -87.307936   46.932461    0.000000    0.000000    0.000000    0.000000
  0.015400000   -4.550670  -16.565483  -87.782692   47.760490    0.000000    0.000000    0.000000    0.000000
  0.015600000   -4.549757  -16.775459  -88.221866   42.683250    0.000000    0.000000    0.000000    0.000000
  0.015800000   -4.552359  -17.015574  -88.621181   43.443317    0.000000    0.000000    0.000000    0.000000
  0.016000000   -4.554600  -17.230570  -88.549583   42.735069    0.000000    0.000000    0.000000    0.000000
  0.016200000   -4.556181  -17.438875  -89.498357   43.194130    0.000000    0.000000    0.000000    0.000000
  0.016400000   -4.558553  -17.662975  -89.400742   42.952061    0.000000    0.000000    0.000000    0.000000
  0.016600000   -4.558670  -17.887053  -89.852577   48.596409    0.000000    0.000000    0.000000    0.000000
  0.016800000   -4.558434  -18.118706  -90.065194   43.478584    0.000000    0.000000    0.000000    0.000000
  0.017000000   -4.561590  -18.356647  -90.175991   42.695354    0.000000    0.000000    0.000000    0.000000
  0.017200000   -4.556521  -18.561729  -90.139951   44.802494    0.000000    0.000000    0.000000    0.000000
  0.017400000   -4.554929  -18.793522  -90.474518   43.384579    0.000000    0.000000    0.000000    0.000000
  0.017600000   -4.555434  -19.011478  -90.638211   47.262733    0.000000    0.000000    0.000000    0.000000
  0.017800000   -4.554362  -19.211660  -90.330578   46.390896    0.000000    0.000000    0.000000    0.000000
  0.018000000   -4.556744  -19.442661  -90.200909   47.500374    0.000000    0.000000    0.000000    0.000000
  0.018200000   -4.554787  -19.647743  -90.807886   52.167763    0.000000    0.000000    0.000000    0.000000
  0.018400000   -4.558004  -19.870165  -90.040009   46.026249    0.000000    0.000000    0.000000    0.000000
  0.018600000   -4.560002  -20.087328  -90.181335   47.900078    0.000000    0.000000    0.000000    0.000000
  0.018800000   -4.560181  -20.321632  -90.416285   44.704838    0.000000    0.000000    0.000000    0.000000
  0.019000000   -4.558948  -20.515059  -90.902473   40.252190    0.000000    0.000000    0.000000    0.000000
  0.019200000   -4.560264  -20.736679  -90.522835   44.494915    0.000000    0.000000    0.000000    0.000000
  0.019400000   -4.561899  -20.939266  -90.888652   44.780735    0.000000    0.000000    0.000000    0.000000
  0.019600000   -4.563137  -21.149817  -90.645558   41.969444    0.000000    0.000000    0.000000    0.000000
  0.019800000   -4.561664  -21.355188  -91.151136   42.981163    0.000000    0.000000    0.000000    0.000000
  0.020000000   -4.557946  -21.557116  -90.251131   37.137192    0.000000    0.000000    0.000000    0.000000
  0.020200000   -4.558104  -21.772476  -90.632427   40.947281    0.000000    0.000000    0.000000    0.000000
  0.020400000   -4.559880  -22.007736  -90.638848   39.512062    0.000000    0.000000    0.000000    0.000000
  0.020600000   -4.555962  -22.222584  -90.802079   37.294472    0.000000    0.000000    0.000000    0.000000
  0.020800000   -4.556842  -22.432198  -91.068072   28.948412    0.000000    0.000000    0.000000    0.000000
  0.021000000   -4.558537  -22.645252  -91.486762   33.991756    0.000000    0.000000    0.000000    0.000000
  0.021200000   -4.558654  -22.859484  -91.147787   32.272556    0.000000    0.000000    0.000000    0.000000
  0.021400000   -4.561500  -23.108162  -91.267057   32.540894    0.000000    0.000000    0.000000    0.000000
  0.021600000   -4.561298  -23.312597  -92.160243   25.331566    0.000000    0.000000    0.000000    0.000000
  0.021800000   -4.561177  -23.513868  -91.932560   31.116224    0.000000    0.000000    0.000000    0.000000
  0.022000000   -4.563996  -23.726192  -92.131871   27.806326    0.000000    0.000000    0.000000    0.000000
  0.022200000   -4.567584  -23.948885  -92.994369   27.765116    0.000000    0.000000    0.000000    0.000000
  0.022400000   -4.567074  -24.160967  -93.536150   28.087412    0.000000    0.000000    0.000000    0.000000
  0.022600000   -4.566995  -24.370625  -92.506909   29.151320    0.000000    0.000000    0.000000    0.000000
  0.022800000   -4.572263  -24.563704  -93.422362   26.745001    0.000000    0.000000    0.000000    0.000000
  0.023000000   -4.575109  -24.810635  -93.855375   35.670216    0.000000    0.000000    0.000000    0.000000
  0.023200000   -4.578269  -25.031546  -92.685015   24.558893    0.000000    0.000000    0.000000    0.000000
  0.023400000   -4.576824  -25.269701  -93.523100   29.990965    0.000000    0.000000    0.000000    0.000000
  0.023600000   -4.574977  -25.472475  -94.708725   34.181599    0.000000    0.000000    0.000000    0.000000
  0.023800000   -4.576356  -25.711580  -94.001666   33.665215    0.000000    0.000000    0.000000    0.000000
  0.024000000   -4.571176  -25.937855  -92.993863   30.615236    0.000000    0.000000    0.000000    0.000000
  0.024200000   -4.571091  -26.178097  -93.509468   37.032837    0.000000    0.000000    0.000000    0.000000
  0.024400000   -4.569291  -26.409861  -94.385881   28.203243    0.000000    0.000000    0.000000    0.000000
  0.024600000   -4.570086  -26.628017  -93.499728   33.365864    0.000000    0.000000    0.000000    0.000000
  0.024800000   -4.570257  -26.879763  -94.724355   25.862392    0.000000    0.000000    0.000000    0.000000
  0.025000000   -4.570245  -27.066761  -93.546751   23.670444    0.000000    0.000000    0.000000    0.000000
  0.025200000   -4.567164  -27.292496  -93.557869   29.595333    0.000000    0.000000    0.000000    0.000000
  0.025400000   -4.571674  -27.474539  -94.395514   25.436359    0.000000    0.000000    0.000000    0.000000
  0.025600000   -4.574883  -27.676666  -94.086273   26.631042    0.000000    0.000000    0.000000    0.000000
  0.025800000   -4.574041  -27.856514  -94.233445   28.590839    0.000000    0.000000    0.000000    0.000000
  0.026000000   -4.572081  -28.048082  -94.093622   28.288321    0.000000    0.000000    0.000000    0.000000
  0.026200000   -4.577370  -28.269901  -94.140203   18.966835    0.000000    0.000000    0.000000    0.000000
  0.026400000   -4.581981  -28.477308  -95.920657   21.818773    0.000000    0.000000    0.000000    0.000000
  0.026600000   -4.580350  -28.694691  -94.023870   22.826794    0.000000    0.000000    0.000000    0.000000
  0.026800000   -4.581154  -28.915764  -94.869038   21.649975    0.000000    0.000000    0.000000    0.000000
  0.027000000   -4.584354  -29.128923  -94.836217   17.400711    0.000000    0.000000    0.000000    0.000000
  0.027200000   -4.582475  -29.350485  -94.321184   26.543783    0.000000    0.000000    0.000000    0.000000
  0.027400000   -4.581870  -29.588472  -95.587876   18.957806    0.000000    0.000000    0.000000    0.000000
  0.027600000   -4.584060  -29.806211  -95.248363   14.566836    0.000000    0.000000    0.000000    0.000000
  0.027800000   -4.585867  -30.056295  -94.850352   19.685171    0.000000    0.000000    0.000000    0.000000
  0.028000000   -4.587559  -30.276064  -95.765869   18.113071    0.000000    0.000000    0.000000    0.000000
  0.028200000   -4.591179  -30.526690  -96.240827   20.270639    0.000000    0.000000    0.000000    0.000000
  0.028400000   -4.589222  -30.768490  -96.206328   14.560645    0.000000    0.000000    0.000000    0.000000
  0.028600000   -4.584375  -30.973265  -95.922525   19.328768    0.000000    0.000000    0.000000    0.000000
  0.028800000   -4.582041  -31.176811  -97.728308   15.103051    0.000000    0.000000    0.000000    0.000000
  0.029000000   -4.580681  -31.355270  -96.969982   19.066221    0.000000    0.000000    0.000000    0.000000
  0.029200000   -4.583121  -31.548365  -96.721581   25.828766    0.000000    0.000000    0.000000    0.000000
  0.029400000   -4.582898  -31.734192  -97.694455   21.435589    0.000000    0.000000    0.000000    0.000000
  0.029600000   -4.583942  -31.920326  -96.999414   15.537308    0.000000    0.000000    0.000000    0.000000
  0.029800000   -4.589185  -32.116798  -97.485966   19.623671    0.000000    0.000000    0.000000    0.000000
  0.030000000   -4.593372  -32.344738  -97.931179   17.028278    0.000000    0.000000    0.000000    0.000000
  0.030200000   -4.602605  -32.562042  -98.330803   14.700570    0.000000    0.000000    0.000000    0.000000
  0.030400000   -4.605174  -32.807823  -97.596145   13.990429    0.000000    0.000000    0.000000    0.000000
  0.030600000   -4.604948  -33.058689  -98.213054   18.427973    0.000000    0.000000    0.000000    0.000000
  0.030800000   -4.605984  -33.302456  -98.081948   11.297229    0.000000    0.000000    0.000000    0.000000
  0.031000000   -4.604979  -33.575066  -96.938396   24.295546    0.000000    0.000000    0.000000    0.000000
  0.031200000   -4.599277  -33.821266  -96.512804   25.864676    0.000000    0.000000    0.000000    0.000000
  0.031400000   -4.599777  -34.052872  -97.984706   25.770931    0.000000    0.000000    0.000000    0.000000
  0.031600000   -4.596905  -34.295528  -96.733870   19.657856    0.000000    0.000000    0.000000    0.000000
  0.031800000   -4.595415  -34.525867  -95.962778   16.469925    0.000000    0.000000    0.000000    0.000000
  0.032000000   -4.590274  -34.758636  -96.467616   -0.139415    0.000000    0.000000    0.000000    0.000000
  0.032200000   -4.585220  -34.949493  -96.447115   15.947143    0.000000    0.000000    0.000000    0.000000
  0.032400000   -4.578512  -35.167900  -97.770179   19.305714    0.000000    0.000000    0.000000    0.000000
  0.032600000   -4.571726  -35.356083  -97.442406    9.493000    0.000000    0.000000    0.000000    0.000000
  0.032800000   -4.568083  -35.555145  -97.217443   11.585015    0.000000    0.000000    0.000000    0.000000
  0.033000000   -4.565633  -35.751122  -98.692678   -3.133605    0.000000    0.000000    0.000000    0.000000
  0.033200000   -4.567233  -35.935474  -98.627145   10.701861    0.000000    0.000000    0.000000    0.000000
  0.033400000   -4.566990  -36.140011  -99.884108   14.249207    0.000000    0.000000    0.000000    0.000000
  0.033600000   -4.568762  -36.336437  -97.790833    9.310675    0.000000    0.000000    0.000000    0.000000
  0.033800000   -4.569793  -36.536339  -97.230727   11.871401    0.000000    0.000000    0.000000    0.000000
  0.034000000   -4.571459  -36.730728  -98.493252   13.850855    0.000000    0.000000    0.000000    0.000000
  0.034200000   -4.575676  -36.963589  -99.295320    4.312913    0.000000    0.000000    0.000000    0.000000
  0.034400000   -4.577881  -37.187561  -95.959599   11.729964    0.000000    0.000000    0.000000    0.000000
  0.034600000   -4.584282  -37.397652  -97.333001   13.813786    0.000000    0.000000    0.000000    0.000000
  0.034800000   -4.588051  -37.626900  -98.223518   12.656271    0.000000    0.000000    0.000000    0.000000
  0.035000000   -4.593599  -37.841667  -99.504556   -1.189655    0.000000    0.000000    0.000000    0.000000
  0.035200000   -4.595368  -38.066086  -98.758422   -7.777642    0.000000    0.000000    0.000000    0.000000
  0.035400000   -4.597683  -38.305164 -101.243693   11.046221    0.000000    0.000000    0.000000    0.000000
  0.035600000   -4.599348  -38.532413  -98.639542    1.983854    0.000000    0.000000    0.000000    0.000000
  0.035800000   -4.599475  -38.730377  -99.030250   11.531075    0.000000    0.000000    0.000000    0.000000
  0.036000000   -4.597606  -38.978291  -97.897454    4.756119    0.000000    0.000000    0.000000    0.000000
  0.036200000   -4.601075  -39.189022  -99.054739    6.759230    0.000000    0.000000    0.000000    0.000000
  0.036400000   -4.593991  -39.432640  -98.559505    4.969909    0.000000    0.000000    0.000000    0.000000
  0.036600000   -4.593849  -39.641663  -96.932453   20.135321    0.000000    0.000000    0.000000    0.000000
  0.036800000   -4.589545  -39.857769 -101.849084   -7.629449    0.000000    0.000000    0.000000    0.000000
  0.037000000   -4.587771  -40.039879  -98.827832    6.000464    0.000000    0.000000    0.000000    0.000000
  0.037200000   -4.588556  -40.193291  -97.832871    5.244904    0.000000    0.000000    0.000000    0.000000
  0.037400000   -4.591915  -40.387787 -100.273266    6.742490    0.000000    0.000000    0.000000    0.000000
  0.037600000   -4.597715  -40.566170  -99.075171   -4.073473    0.000000    0.000000    0.000000    0.000000
  0.037800000   -4.606892  -40.790939  -97.177178    1.594492    0.000000    0.000000    0.000000    0.000000
  0.038000000   -4.614105  -41.032501 -100.094202    1.011369    0.000000    0.000000    0.000000    0.000000
  0.038200000   -4.621383  -41.257923  -97.911920   22.809944    0.000000    0.000000    0.000000    0.000000
  0.038400000   -4.627478  -41.537384 -101.340067    9.695139    0.000000    0.000000    0.000000    0.000000
  0.038600000   -4.632538  -41.781155  -99.312482    2.595499    0.000000    0.000000    0.000000    0.000000
  0.038800000   -4.630834  -42.063358 -100.669600   11.994628    0.000000    0.000000    0.000000    0.000000
  0.039000000   -4.634136  -42.287487 -100.543083    6.828595    0.000000    0.000000    0.000000    0.000000
  0.039200000   -4.633267  -42.540253 -101.053317   10.539365    0.000000    0.000000    0.000000    0.000000
  0.039400000   -4.627983  -42.794033 -100.994725   -0.968487    0.000000    0.000000    0.000000    0.000000
  0.039600000   -4.624193  -43.030773  -99.486502   14.557887    0.000000    0.000000    0.000000    0.000000
  0.039800000   -4.617664  -43.267536 -100.206012   -5.875995    0.000000    0.000000    0.000000    0.000000
  0.040000000   -4.613570  -43.503159 -103.915038  -11.824385    0.000000    0.000000    0.000000    0.000000
  0.040200000   -4.609110  -43.677063  -99.411237   15.209569    0.000000    0.000000    0.000000    0.000000
  0.040400000   -4.605502  -43.893150 -100.885907   12.854330    0.000000    0.000000    0.000000    0.000000
  0.040600000   -4.605172  -44.098793 -100.000627    5.247536    0.000000    0.000000    0.000000    0.000000
  0.040800000   -4.604911  -44.278519 -102.707430    3.493837    0.000000    0.000000    0.000000    0.000000
  0.041000000   -4.608694  -44.493164 -100.309149    7.587248    0.000000    0.000000    0.000000    0.000000
  0.041200000   -4.609344  -44.701210 -103.611543    0.881125    0.000000    0.000000    0.000000    0.000000
  0.041400000   -4.615918  -44.910599 -100.785728   14.401500    0.000000    0.000000    0.000000    0.000000
  0.041600000   -4.617752  -45.140232 -102.875935    7.889489    0.000000    0.000000    0.000000    0.000000
  0.041800000   -4.620190  -45.379093  -99.676797   -4.387120    0.000000    0.000000    0.000000    0.000000
  0.042000000   -4.621804  -45.595551 -100.978603    8.146182    0.000000    0.000000    0.000000    0.000000
  0.042200000   -4.623778  -45.843937 -102.598094  -14.056109    0.000000    0.000000    0.000000    0.000000
  0.042400000   -4.626677  -46.044594 -100.600120   28.230379    0.000000    0.000000    0.000000    0.000000
  0.042600000   -4.625249  -46.293232 -102.772551   18.957996    0.000000    0.000000    0.000000    0.000000
  0.042800000   -4.625522  -46.481163 -100.950325   -8.026299    0.000000    0.000000    0.000000    0.000000
