! Anritsu VNA Master:                     Model: MS2036C/10/77
! SN:                                  1601066
! /card0/usr/254.ew.sma.r50.22.s2p
! Existing Calibration Information:
! TYPE:                         Current Settings,       Active Cal Settings
! TIME:             	   12/20/2017 01:10:04 PM,    12/20/2017 12:55:07 PM
! INTERNAL TEMP:    	                   44.3 C,                    44.3 C
! # POINTS:         	                      501,                       501
! START FREQ:       	               10.000 MHz,                10.000 MHz
! STOP FREQ:        	              110.000 MHz,               110.000 MHz
! SOURCE POWER:     	                     High,                      High
! IFBW:             	                   100 Hz,                    100 Hz
! AVG FACTOR:       	                       1 ,                        1 
! REF PLANE 1:      	                     0 mm,                      0 mm
! REF PLANE 2:      	                     0 mm,                      0 mm
! CAL TYPE:         	                 Full S11,                  Full S11
! CAL METHOD:       	                     SOLT,                      SOLT
! CAL LINE TYPE:    	                     Coax,                      Coax
! DUT PORT 1:       	                N-Conn(F),                 N-Conn(F)
! DUT PORT 2:       	                K-Conn(F),                 K-Conn(F)
! CAL STATUS:       	        OK: Accuracy High,                        --
# GHZ S DB R 50.0
! FREQ.GHZ       S11DB        S11A       S21DB        S21A       S12DB        S12A       S22DB        S22A
  0.010000000  -45.123374   67.543694  -83.304667   77.374542    0.000000    0.000000    0.000000    0.000000
  0.010200000  -44.874203   67.118935  -83.145931   74.297928    0.000000    0.000000    0.000000    0.000000
  0.010400000  -45.049961   67.226585  -83.287953   71.677544    0.000000    0.000000    0.000000    0.000000
  0.010600000  -44.931954   67.186722  -83.931681   76.707016    0.000000    0.000000    0.000000    0.000000
  0.010800000  -44.895639   64.847328  -83.857618   72.471741    0.000000    0.000000    0.000000    0.000000
  0.011000000  -44.648404   66.094467  -84.293283   70.276047    0.000000    0.000000    0.000000    0.000000
  0.011200000  -44.786744   62.385891  -84.433385   69.302299    0.000000    0.000000    0.000000    0.000000
  0.011400000  -44.569769   64.406990  -84.870383   69.788109    0.000000    0.000000    0.000000    0.000000
  0.011600000  -44.373086   62.666637  -84.568765   67.946701    0.000000    0.000000    0.000000    0.000000
  0.011800000  -44.305371   61.563671  -85.007885   69.072540    0.000000    0.000000    0.000000    0.000000
  0.012000000  -43.850093   61.625751  -84.691333   67.093857    0.000000    0.000000    0.000000    0.000000
  0.012200000  -43.951963   61.024940  -85.326600   68.895737    0.000000    0.000000    0.000000    0.000000
  0.012400000  -44.114500   61.282745  -85.311919   63.052650    0.000000    0.000000    0.000000    0.000000
  0.012600000  -43.666128   60.914360  -85.270079   63.209610    0.000000    0.000000    0.000000    0.000000
  0.012800000  -43.537338   60.621262  -85.945581   60.795799    0.000000    0.000000    0.000000    0.000000
  0.013000000  -43.419993   60.144398  -86.239730   62.305546    0.000000    0.000000    0.000000    0.000000
  0.013200000  -43.345467   59.001625  -86.161957   61.109375    0.000000    0.000000    0.000000    0.000000
  0.013400000  -43.123897   59.790047  -86.487743   56.717457    0.000000    0.000000    0.000000    0.000000
  0.013600000  -43.039387   59.939377  -86.762204   63.177139    0.000000    0.000000    0.000000    0.000000
  0.013800000  -42.931453   59.243149  -86.789308   57.887909    0.000000    0.000000    0.000000    0.000000
  0.014000000  -42.726842   60.372200  -86.342725   56.701046    0.000000    0.000000    0.000000    0.000000
  0.014200000  -42.654547   59.090130  -87.287987   60.212917    0.000000    0.000000    0.000000    0.000000
  0.014400000  -42.551104   60.615559  -87.333616   54.603325    0.000000    0.000000    0.000000    0.000000
  0.014600000  -42.333750   60.545326  -87.345479   55.587524    0.000000    0.000000    0.000000    0.000000
  0.014800000  -42.304839   60.560364  -87.337073   52.687897    0.000000    0.000000    0.000000    0.000000
  0.015000000  -42.131462   62.268219  -87.260424   51.560219    0.000000    0.000000    0.000000    0.000000
  0.015200000  -42.075338   60.086178  -87.959063   48.764164    0.000000    0.000000    0.000000    0.000000
  0.015400000  -41.925690   61.575916  -88.061993   52.079262    0.000000    0.000000    0.000000    0.000000
  0.015600000  -41.970541   61.051880  -88.132381   51.251053    0.000000    0.000000    0.000000    0.000000
  0.015800000  -41.799410   60.995071  -88.124654   48.508781    0.000000    0.000000    0.000000    0.000000
  0.016000000  -41.832816   60.832649  -88.567394   47.996811    0.000000    0.000000    0.000000    0.000000
  0.016200000  -41.809836   61.197414  -88.502118   50.467720    0.000000    0.000000    0.000000    0.000000
  0.016400000  -41.657214   61.416542  -88.961403   45.753597    0.000000    0.000000    0.000000    0.000000
  0.016600000  -41.542958   61.769588  -88.430227   50.965115    0.000000    0.000000    0.000000    0.000000
  0.016800000  -41.727074   62.020439  -89.106384   47.102158    0.000000    0.000000    0.000000    0.000000
  0.017000000  -41.725897   61.312401  -88.917522   46.868607    0.000000    0.000000    0.000000    0.000000
  0.017200000  -41.640884   61.576572  -89.429045   45.178032    0.000000    0.000000    0.000000    0.000000
  0.017400000  -41.582048   61.337837  -89.968662   39.553921    0.000000    0.000000    0.000000    0.000000
  0.017600000  -41.561838   59.880829  -89.072456   44.001446    0.000000    0.000000    0.000000    0.000000
  0.017800000  -41.439703   59.808830  -89.839389   48.060936    0.000000    0.000000    0.000000    0.000000
  0.018000000  -41.704044   59.808060  -89.947464   41.453350    0.000000    0.000000    0.000000    0.000000
  0.018200000  -41.368816   58.983498  -90.422460   41.701385    0.000000    0.000000    0.000000    0.000000
  0.018400000  -41.522180   58.746811  -89.848648   40.505268    0.000000    0.000000    0.000000    0.000000
  0.018600000  -41.125759   58.634811  -90.306629   38.995476    0.000000    0.000000    0.000000    0.000000
  0.018800000  -41.182925   57.717579  -89.682450   40.706203    0.000000    0.000000    0.000000    0.000000
  0.019000000  -41.235910   57.590393  -90.713046   39.146160    0.000000    0.000000    0.000000    0.000000
  0.019200000  -41.074051   57.286148  -90.821299   40.482941    0.000000    0.000000    0.000000    0.000000
  0.019400000  -41.107683   56.662552  -90.639854   37.725086    0.000000    0.000000    0.000000    0.000000
  0.019600000  -40.981948   56.337887  -91.693444   36.818066    0.000000    0.000000    0.000000    0.000000
  0.019800000  -40.664307   55.509380  -90.664946   36.073895    0.000000    0.000000    0.000000    0.000000
  0.020000000  -40.648634   56.009182  -91.001812   43.528538    0.000000    0.000000    0.000000    0.000000
  0.020200000  -40.428235   55.558796  -90.410632   28.073448    0.000000    0.000000    0.000000    0.000000
  0.020400000  -40.345593   55.546261  -90.751778   35.764725    0.000000    0.000000    0.000000    0.000000
  0.020600000  -40.425814   55.017975  -90.650257   40.851727    0.000000    0.000000    0.000000    0.000000
  0.020800000  -40.116441   55.270527  -91.298445   39.313717    0.000000    0.000000    0.000000    0.000000
  0.021000000  -40.124572   56.129688  -91.011788   34.373760    0.000000    0.000000    0.000000    0.000000
  0.021200000  -39.933101   56.075363  -91.950401   32.725784    0.000000    0.000000    0.000000    0.000000
  0.021400000  -39.695788   55.243797  -92.097842   29.990807    0.000000    0.000000    0.000000    0.000000
  0.021600000  -39.966244   56.156906  -92.692392   29.584909    0.000000    0.000000    0.000000    0.000000
  0.021800000  -39.579057   55.940746  -91.642629   32.125904    0.000000    0.000000    0.000000    0.000000
  0.022000000  -39.651040   56.752872  -91.924134   30.465294    0.000000    0.000000    0.000000    0.000000
  0.022200000  -39.560586   56.976608  -93.082527   35.354820    0.000000    0.000000    0.000000    0.000000
  0.022400000  -39.433117   57.211613  -93.329721   30.171879    0.000000    0.000000    0.000000    0.000000
  0.022600000  -39.335354   57.848457  -92.877842   30.690277    0.000000    0.000000    0.000000    0.000000
  0.022800000  -39.328328   57.492092  -93.485027   31.136318    0.000000    0.000000    0.000000    0.000000
  0.023000000  -39.350744   57.769615  -92.692480   26.543842    0.000000    0.000000    0.000000    0.000000
  0.023200000  -39.379028   56.819626  -93.178083   29.747406    0.000000    0.000000    0.000000    0.000000
  0.023400000  -39.239137   57.773106  -93.692401   27.030376    0.000000    0.000000    0.000000    0.000000
  0.023600000  -39.443661   57.600563  -93.214842   24.161873    0.000000    0.000000    0.000000    0.000000
  0.023800000  -39.148379   58.201813  -93.436595   25.488140    0.000000    0.000000    0.000000    0.000000
  0.024000000  -39.260773   57.658749  -93.632250   25.036957    0.000000    0.000000    0.000000    0.000000
  0.024200000  -39.229126   58.095268  -93.147765   24.381495    0.000000    0.000000    0.000000    0.000000
  0.024400000  -39.201002   57.513157  -94.132380   30.898249    0.000000    0.000000    0.000000    0.000000
  0.024600000  -39.258955   56.946861  -94.410160   25.169353    0.000000    0.000000    0.000000    0.000000
  0.024800000  -39.217492   57.121243  -94.670857   26.130283    0.000000    0.000000    0.000000    0.000000
  0.025000000  -39.172942   56.963657  -93.167524   23.978579    0.000000    0.000000    0.000000    0.000000
  0.025200000  -39.227277   55.964161  -94.740978   23.600452    0.000000    0.000000    0.000000    0.000000
  0.025400000  -39.117473   55.502010  -93.429897   28.192549    0.000000    0.000000    0.000000    0.000000
  0.025600000  -39.156019   56.095413  -94.363490   27.126329    0.000000    0.000000    0.000000    0.000000
  0.025800000  -39.113609   55.189106  -94.297036   28.490658    0.000000    0.000000    0.000000    0.000000
  0.026000000  -38.919874   53.696777  -94.569182   22.003588    0.000000    0.000000    0.000000    0.000000
  0.026200000  -38.982457   54.318180  -95.080552   21.075342    0.000000    0.000000    0.000000    0.000000
  0.026400000  -39.046885   54.986763  -95.007268   19.125385    0.000000    0.000000    0.000000    0.000000
  0.026600000  -38.806673   53.510464  -95.703639   20.610563    0.000000    0.000000    0.000000    0.000000
  0.026800000  -38.761542   53.736134  -94.677311   20.126158    0.000000    0.000000    0.000000    0.000000
  0.027000000  -38.699372   53.206619  -95.470849   25.310345    0.000000    0.000000    0.000000    0.000000
  0.027200000  -38.616660   53.449699  -95.431251   16.535917    0.000000    0.000000    0.000000    0.000000
  0.027400000  -38.425436   52.603016  -95.299001   20.454454    0.000000    0.000000    0.000000    0.000000
  0.027600000  -38.384884   52.831356  -95.358274   29.091965    0.000000    0.000000    0.000000    0.000000
  0.027800000  -38.175706   52.687725  -95.462630   19.866598    0.000000    0.000000    0.000000    0.000000
  0.028000000  -38.179214   52.218338  -96.075608   27.237700    0.000000    0.000000    0.000000    0.000000
  0.028200000  -38.211471   53.072548  -94.794834   15.884217    0.000000    0.000000    0.000000    0.000000
  0.028400000  -38.003629   53.212166  -95.636086   18.655678    0.000000    0.000000    0.000000    0.000000
  0.028600000  -37.949275   52.981857  -94.778596   21.574350    0.000000    0.000000    0.000000    0.000000
  0.028800000  -37.937190   53.490852  -97.044165   20.095041    0.000000    0.000000    0.000000    0.000000
  0.029000000  -37.925039   53.443348  -96.030115   25.045416    0.000000    0.000000    0.000000    0.000000
  0.029200000  -37.967188   52.545238  -97.652214   16.000772    0.000000    0.000000    0.000000    0.000000
  0.029400000  -37.861990   52.966873  -97.350249   12.547190    0.000000    0.000000    0.000000    0.000000
  0.029600000  -37.704875   53.691105  -95.907520   19.303787    0.000000    0.000000    0.000000    0.000000
  0.029800000  -37.689751   53.617825  -96.547613   16.259375    0.000000    0.000000    0.000000    0.000000
  0.030000000  -37.724934   53.568497  -95.873651   12.522624    0.000000    0.000000    0.000000    0.000000
  0.030200000  -37.720987   53.255341  -97.683832   16.561710    0.000000    0.000000    0.000000    0.000000
  0.030400000  -37.656684   53.854008  -97.773460   15.485954    0.000000    0.000000    0.000000    0.000000
  0.030600000  -37.696437   53.728977  -97.580203   13.920467    0.000000    0.000000    0.000000    0.000000
  0.030800000  -37.652412   53.482746  -97.390289   13.346142    0.000000    0.000000    0.000000    0.000000
  0.031000000  -37.661580   53.145054  -97.256967   21.682550    0.000000    0.000000    0.000000    0.000000
  0.031200000  -37.534349   53.967453  -96.788322   21.798506    0.000000    0.000000    0.000000    0.000000
  0.031400000  -37.501834   53.236820  -99.330098   22.271852    0.000000    0.000000    0.000000    0.000000
  0.031600000  -37.641646   53.880482  -96.833652   12.609881    0.000000    0.000000    0.000000    0.000000
  0.031800000  -37.633540   53.572269  -97.535875    7.846873    0.000000    0.000000    0.000000    0.000000
  0.032000000  -37.604479   53.965076  -97.764941   13.452755    0.000000    0.000000    0.000000    0.000000
  0.032200000  -37.550453   52.245430  -98.527570   10.800180    0.000000    0.000000    0.000000    0.000000
  0.032400000  -37.534104   52.857300  -96.751812    1.878523    0.000000    0.000000    0.000000    0.000000
  0.032600000  -37.505539   52.327358  -96.748731   19.742640    0.000000    0.000000    0.000000    0.000000
  0.032800000  -37.487420   52.250011  -98.901980   30.079090    0.000000    0.000000    0.000000    0.000000
  0.033000000  -37.485700   51.534164  -98.028615    9.573377    0.000000    0.000000    0.000000    0.000000
  0.033200000  -37.415416   51.077675  -98.439012   13.933421    0.000000    0.000000    0.000000    0.000000
  0.033400000  -37.363060   51.071362  -98.100951   12.207678    0.000000    0.000000    0.000000    0.000000
  0.033600000  -37.238091   50.755806  -99.280128   11.334704    0.000000    0.000000    0.000000    0.000000
  0.033800000  -37.302191   50.129040  -98.217845   -2.282147    0.000000    0.000000    0.000000    0.000000
  0.034000000  -37.174510   50.018452  -96.783376    3.619536    0.000000    0.000000    0.000000    0.000000
  0.034200000  -37.051412   49.501060  -97.875936   12.692432    0.000000    0.000000    0.000000    0.000000
  0.034400000  -36.987359   49.122498  -99.508581    2.771432    0.000000    0.000000    0.000000    0.000000
  0.034600000  -36.987561   49.648582  -98.546217   10.203067    0.000000    0.000000    0.000000    0.000000
  0.034800000  -36.798818   49.486542  -97.242656    9.799471    0.000000    0.000000    0.000000    0.000000
  0.035000000  -36.859462   49.601357  -98.530788    7.214788    0.000000    0.000000    0.000000    0.000000
  0.035200000  -36.728198   49.015438 -100.781473   10.980685    0.000000    0.000000    0.000000    0.000000
  0.035400000  -36.794591   49.544201  -98.527806    5.903711    0.000000    0.000000    0.000000    0.000000
  0.035600000  -36.700566   49.592663  -98.890988    4.008177    0.000000    0.000000    0.000000    0.000000
  0.035800000  -36.544340   49.849533  -99.810750   22.037724    0.000000    0.000000    0.000000    0.000000
  0.036000000  -36.535662   49.544731  -98.712869   18.128721    0.000000    0.000000    0.000000    0.000000
  0.036200000  -36.393113   49.838158  -99.224998   13.209196    0.000000    0.000000    0.000000    0.000000
  0.036400000  -36.427574   49.807770  -99.335542   -0.820151    0.000000    0.000000    0.000000    0.000000
  0.036600000  -36.463544   50.200710  -98.665157    2.235060    0.000000    0.000000    0.000000    0.000000
  0.036800000  -36.495305   50.651485  -97.801066   13.209467    0.000000    0.000000    0.000000    0.000000
  0.037000000  -36.321566   51.591682  -98.877303    9.105669    0.000000    0.000000    0.000000    0.000000
  0.037200000  -36.458838   50.780861  -99.343721    3.324169    0.000000    0.000000    0.000000    0.000000
  0.037400000  -36.459712   50.037857  -98.399835    1.454445    0.000000    0.000000    0.000000    0.000000
  0.037600000  -36.498096   50.302074  -97.938018    8.586380    0.000000    0.000000    0.000000    0.000000
  0.037800000  -36.494339   50.602703 -100.426205    6.404885    0.000000    0.000000    0.000000    0.000000
  0.038000000  -36.419937   50.615067  -99.362558   16.889614    0.000000    0.000000    0.000000    0.000000
  0.038200000  -36.426584   50.072594  -99.607041   13.551805    0.000000    0.000000    0.000000    0.000000
  0.038400000  -36.466004   49.604164 -100.379722   18.125246    0.000000    0.000000    0.000000    0.000000
  0.038600000  -36.532929   49.610130  -99.806323    4.913856    0.000000    0.000000    0.000000    0.000000
  0.038800000  -36.537018   49.489468  -99.584550   12.629906    0.000000    0.000000    0.000000    0.000000
  0.039000000  -36.490620   48.800789 -100.159149   13.230035    0.000000    0.000000    0.000000    0.000000
  0.039200000  -36.568202   49.147797 -100.056726    2.562482    0.000000    0.000000    0.000000    0.000000
  0.039400000  -36.449550   47.992783  -99.959969   -5.923085    0.000000    0.000000    0.000000    0.000000
  0.039600000  -36.515099   48.056870  -98.526343   13.562859    0.000000    0.000000    0.000000    0.000000
  0.039800000  -36.395408   47.763618 -101.388585    7.540693    0.000000    0.000000    0.000000    0.000000
  0.040000000  -36.366139   47.627792 -102.803673   12.404196    0.000000    0.000000    0.000000    0.000000
  0.040200000  -36.372718   47.041454  -99.713051    4.501252    0.000000    0.000000    0.000000    0.000000
  0.040400000  -36.385844   46.225117 -101.513055   14.605117    0.000000    0.000000    0.000000    0.000000
  0.040600000  -36.301263   45.887936 -105.062815   22.349337    0.000000    0.000000    0.000000    0.000000
  0.040800000  -36.280890   44.890953 -100.331210   -1.150134    0.000000    0.000000    0.000000    0.000000
  0.041000000  -36.143499   45.077190  -98.537728   -4.047223    0.000000    0.000000    0.000000    0.000000
  0.041200000  -36.158175   44.996616 -100.328183   -0.898833    0.000000    0.000000    0.000000    0.000000
  0.041400000  -36.128151   44.573761 -101.296994    0.529144    0.000000    0.000000    0.000000    0.000000
  0.041600000  -35.942981   43.977016 -100.839598  -14.373664    0.000000    0.000000    0.000000    0.000000
  0.041800000  -35.836614   43.944054 -101.628617    1.906468    0.000000    0.000000    0.000000    0.000000
  0.042000000  -35.846281   44.326923 -100.854230    7.030421    0.000000    0.000000    0.000000    0.000000
  0.042200000  -35.737804   44.559502 -101.687194   13.834126    0.000000    0.000000    0.000000    0.000000
  0.042400000  -35.652207   43.385742 -100.917745  -12.772175    0.000000    0.000000    0.000000    0.000000
  0.042600000  -35.564441   44.119370 -101.383404  -18.698877    0.000000    0.000000    0.000000    0.000000
  0.042800000  -35.497735   43.966366 -103.759962    1.961940    0.000000    0.000000    0.000000    0.000000
