! Anritsu VNA Master:                     Model: MS2036C/10/77
! SN:                                  1601066
! /card0/usr/254.ns.sma.me2.s2p
! Existing Calibration Information:
! TYPE:                         Current Settings,       Active Cal Settings
! TIME:             	   12/20/2017 01:56:26 PM,    12/20/2017 01:40:30 PM
! INTERNAL TEMP:    	                   47.0 C,                    46.0 C
! # POINTS:         	                      501,                       501
! START FREQ:       	               10.000 MHz,                10.000 MHz
! STOP FREQ:        	              110.000 MHz,               110.000 MHz
! SOURCE POWER:     	                     High,                      High
! IFBW:             	                   100 Hz,                    100 Hz
! AVG FACTOR:       	                       1 ,                        1 
! REF PLANE 1:      	                     0 mm,                      0 mm
! REF PLANE 2:      	                     0 mm,                      0 mm
! CAL TYPE:         	                 Full S11,                  Full S11
! CAL METHOD:       	                     SOLT,                      SOLT
! CAL LINE TYPE:    	                     Coax,                      Coax
! DUT PORT 1:       	                N-Conn(F),                 N-Conn(F)
! DUT PORT 2:       	                K-Conn(F),                 K-Conn(F)
! CAL STATUS:       	        OK: Accuracy High,                        --
# GHZ S DB R 50.0
! FREQ.GHZ       S11DB        S11A       S21DB        S21A       S12DB        S12A       S22DB        S22A
  0.010000000   -0.612150  -58.929302  -85.230266   77.775452    0.000000    0.000000    0.000000    0.000000
  0.010200000   -0.598279  -60.119045  -84.730884   88.093269    0.000000    0.000000    0.000000    0.000000
  0.010400000   -0.601789  -61.408764  -84.419577   86.032196    0.000000    0.000000    0.000000    0.000000
  0.010600000   -0.601739  -62.641037  -84.771311   85.502617    0.000000    0.000000    0.000000    0.000000
  0.010800000   -0.601633  -63.932468  -84.337710   83.066483    0.000000    0.000000    0.000000    0.000000
  0.011000000   -0.605309  -65.208275  -84.534745   83.818794    0.000000    0.000000    0.000000    0.000000
  0.011200000   -0.602403  -66.466675  -83.890145   78.532822    0.000000    0.000000    0.000000    0.000000
  0.011400000   -0.607995  -67.697159  -84.033576   80.176186    0.000000    0.000000    0.000000    0.000000
  0.011600000   -0.603678  -68.944191  -83.767508   76.640968    0.000000    0.000000    0.000000    0.000000
  0.011800000   -0.605230  -70.210075  -83.893098   75.176277    0.000000    0.000000    0.000000    0.000000
  0.012000000   -0.607774  -71.460861  -83.728946   75.713524    0.000000    0.000000    0.000000    0.000000
  0.012200000   -0.603440  -72.757141  -84.188481   69.294350    0.000000    0.000000    0.000000    0.000000
  0.012400000   -0.600204  -74.025719  -84.361255   65.203735    0.000000    0.000000    0.000000    0.000000
  0.012600000   -0.598458  -75.308929  -84.055105   62.895756    0.000000    0.000000    0.000000    0.000000
  0.012800000   -0.596967  -76.580589  -84.488432   62.252235    0.000000    0.000000    0.000000    0.000000
  0.013000000   -0.597426  -77.830849  -85.005222   54.298134    0.000000    0.000000    0.000000    0.000000
  0.013200000   -0.595064  -79.134079  -84.823757   56.764210    0.000000    0.000000    0.000000    0.000000
  0.013400000   -0.590964  -80.412231  -85.384398   54.052757    0.000000    0.000000    0.000000    0.000000
  0.013600000   -0.590649  -81.681351  -85.905570   50.481384    0.000000    0.000000    0.000000    0.000000
  0.013800000   -0.585898  -82.952812  -86.365560   47.751377    0.000000    0.000000    0.000000    0.000000
  0.014000000   -0.587966  -84.254280  -86.648309   47.432247    0.000000    0.000000    0.000000    0.000000
  0.014200000   -0.592185  -85.572647  -86.507434   47.316750    0.000000    0.000000    0.000000    0.000000
  0.014400000   -0.591076  -86.881256  -86.979738   47.888268    0.000000    0.000000    0.000000    0.000000
  0.014600000   -0.593935  -88.195343  -87.787023   44.237637    0.000000    0.000000    0.000000    0.000000
  0.014800000   -0.599005  -89.547256  -88.380317   48.016689    0.000000    0.000000    0.000000    0.000000
  0.015000000   -0.599509  -90.880074  -89.239211   43.455654    0.000000    0.000000    0.000000    0.000000
  0.015200000   -0.602940  -92.236176  -89.188707   44.483749    0.000000    0.000000    0.000000    0.000000
  0.015400000   -0.600230  -93.570694  -89.419546   52.910637    0.000000    0.000000    0.000000    0.000000
  0.015600000   -0.600231  -94.860138  -89.534796   43.458546    0.000000    0.000000    0.000000    0.000000
  0.015800000   -0.593718  -96.247528  -89.850723   48.634254    0.000000    0.000000    0.000000    0.000000
  0.016000000   -0.593713  -97.600479  -89.931057   49.047703    0.000000    0.000000    0.000000    0.000000
  0.016200000   -0.594897  -98.954041  -89.796623   54.138268    0.000000    0.000000    0.000000    0.000000
  0.016400000   -0.594590 -100.341110  -89.798963   54.485043    0.000000    0.000000    0.000000    0.000000
  0.016600000   -0.590864 -101.742767  -89.426495   48.144855    0.000000    0.000000    0.000000    0.000000
  0.016800000   -0.587555 -103.150070  -89.540097   53.920082    0.000000    0.000000    0.000000    0.000000
  0.017000000   -0.587594 -104.553123  -89.280487   51.129059    0.000000    0.000000    0.000000    0.000000
  0.017200000   -0.585295 -105.950043  -89.575017   53.883820    0.000000    0.000000    0.000000    0.000000
  0.017400000   -0.587025 -107.318672  -89.494011   49.632202    0.000000    0.000000    0.000000    0.000000
  0.017600000   -0.594816 -108.689240  -89.367550   52.233955    0.000000    0.000000    0.000000    0.000000
  0.017800000   -0.596973 -110.074669  -89.484675   45.210567    0.000000    0.000000    0.000000    0.000000
  0.018000000   -0.598659 -111.490326  -89.808351   47.550129    0.000000    0.000000    0.000000    0.000000
  0.018200000   -0.601435 -112.904289  -88.719131   41.749485    0.000000    0.000000    0.000000    0.000000
  0.018400000   -0.601287 -114.329529  -89.700198   39.822067    0.000000    0.000000    0.000000    0.000000
  0.018600000   -0.603769 -115.718155  -89.282865   45.168217    0.000000    0.000000    0.000000    0.000000
  0.018800000   -0.604859 -117.145447  -89.519449   43.336605    0.000000    0.000000    0.000000    0.000000
  0.019000000   -0.603439 -118.583328  -89.088068   41.387554    0.000000    0.000000    0.000000    0.000000
  0.019200000   -0.605617 -120.028061  -89.829158   31.829046    0.000000    0.000000    0.000000    0.000000
  0.019400000   -0.609224 -121.461693  -90.189272   33.765411    0.000000    0.000000    0.000000    0.000000
  0.019600000   -0.608304 -122.911888  -90.865317   29.064070    0.000000    0.000000    0.000000    0.000000
  0.019800000   -0.609504 -124.375023  -91.157347   34.117519    0.000000    0.000000    0.000000    0.000000
  0.020000000   -0.606429 -125.809746  -90.542950   34.123154    0.000000    0.000000    0.000000    0.000000
  0.020200000   -0.607213 -127.261627  -91.487249   38.994514    0.000000    0.000000    0.000000    0.000000
  0.020400000   -0.604616 -128.683212  -91.788756   27.252712    0.000000    0.000000    0.000000    0.000000
  0.020600000   -0.607505 -130.146683  -91.731926   27.296600    0.000000    0.000000    0.000000    0.000000
  0.020800000   -0.612116 -131.618973  -93.565552   28.757433    0.000000    0.000000    0.000000    0.000000
  0.021000000   -0.617953 -133.137543  -92.091562   30.062483    0.000000    0.000000    0.000000    0.000000
  0.021200000   -0.623533 -134.640533  -92.502442   32.370853    0.000000    0.000000    0.000000    0.000000
  0.021400000   -0.629641 -136.157990  -92.197363   37.906830    0.000000    0.000000    0.000000    0.000000
  0.021600000   -0.632989 -137.676819  -93.067959   29.115234    0.000000    0.000000    0.000000    0.000000
  0.021800000   -0.633536 -139.220230  -94.345395   29.024244    0.000000    0.000000    0.000000    0.000000
  0.022000000   -0.642963 -140.733383  -93.156872   35.426624    0.000000    0.000000    0.000000    0.000000
  0.022200000   -0.652466 -142.291138  -93.030209   43.325218    0.000000    0.000000    0.000000    0.000000
  0.022400000   -0.655909 -143.873688  -93.498794   36.351570    0.000000    0.000000    0.000000    0.000000
  0.022600000   -0.658251 -145.468643  -93.072303   31.276533    0.000000    0.000000    0.000000    0.000000
  0.022800000   -0.661255 -147.064240  -92.153606   38.092175    0.000000    0.000000    0.000000    0.000000
  0.023000000   -0.665243 -148.655838  -93.571581   38.808022    0.000000    0.000000    0.000000    0.000000
  0.023200000   -0.669860 -150.240204  -92.170536   38.406593    0.000000    0.000000    0.000000    0.000000
  0.023400000   -0.675411 -151.882095  -92.759917   29.815565    0.000000    0.000000    0.000000    0.000000
  0.023600000   -0.680016 -153.409653  -92.085073   34.422859    0.000000    0.000000    0.000000    0.000000
  0.023800000   -0.687141 -155.027100  -93.153365   24.549931    0.000000    0.000000    0.000000    0.000000
  0.024000000   -0.696953 -156.657547  -93.701787   29.218487    0.000000    0.000000    0.000000    0.000000
  0.024200000   -0.707854 -158.279083  -92.361264   22.163202    0.000000    0.000000    0.000000    0.000000
  0.024400000   -0.714851 -159.931259  -92.615869   25.028652    0.000000    0.000000    0.000000    0.000000
  0.024600000   -0.724902 -161.571655  -93.195170   25.229921    0.000000    0.000000    0.000000    0.000000
  0.024800000   -0.732795 -163.207718  -92.943033   16.138449    0.000000    0.000000    0.000000    0.000000
  0.025000000   -0.741376 -164.842728  -92.336055   21.239607    0.000000    0.000000    0.000000    0.000000
  0.025200000   -0.750731 -166.506027  -93.380143   26.275291    0.000000    0.000000    0.000000    0.000000
  0.025400000   -0.762057 -168.178284  -94.467439   13.830024    0.000000    0.000000    0.000000    0.000000
  0.025600000   -0.773997 -169.878738  -92.957433   21.166656    0.000000    0.000000    0.000000    0.000000
  0.025800000   -0.782571 -171.589157  -94.250937   24.162004    0.000000    0.000000    0.000000    0.000000
  0.026000000   -0.789673 -173.309692  -94.766491   16.663673    0.000000    0.000000    0.000000    0.000000
  0.026200000   -0.799281 -175.017654  -94.572360   17.879955    0.000000    0.000000    0.000000    0.000000
  0.026400000   -0.809249 -176.747910  -96.659439   22.547710    0.000000    0.000000    0.000000    0.000000
  0.026600000   -0.821197 -178.480545  -95.833853   26.892170    0.000000    0.000000    0.000000    0.000000
  0.026800000   -0.835180  179.767395  -95.314474   19.338797    0.000000    0.000000    0.000000    0.000000
  0.027000000   -0.848958  178.013962  -95.508448   22.650837    0.000000    0.000000    0.000000    0.000000
  0.027200000   -0.861575  176.238861  -95.656471   20.319168    0.000000    0.000000    0.000000    0.000000
  0.027400000   -0.874983  174.453262  -95.390439   22.283291    0.000000    0.000000    0.000000    0.000000
  0.027600000   -0.889234  172.670364  -97.407664   26.584518    0.000000    0.000000    0.000000    0.000000
  0.027800000   -0.908571  170.868759  -95.949689   25.700563    0.000000    0.000000    0.000000    0.000000
  0.028000000   -0.925348  169.044571  -97.019515   22.521845    0.000000    0.000000    0.000000    0.000000
  0.028200000   -0.948513  167.228653  -96.316294    9.588024    0.000000    0.000000    0.000000    0.000000
  0.028400000   -0.967447  165.397919  -96.132636   24.593321    0.000000    0.000000    0.000000    0.000000
  0.028600000   -0.986296  163.559479  -95.740596   28.758173    0.000000    0.000000    0.000000    0.000000
  0.028800000   -1.003642  161.734726  -96.514212   26.486559    0.000000    0.000000    0.000000    0.000000
  0.029000000   -1.023608  159.925369  -96.405768   20.039639    0.000000    0.000000    0.000000    0.000000
  0.029200000   -1.043067  158.103302  -96.267999   23.257744    0.000000    0.000000    0.000000    0.000000
  0.029400000   -1.067033  156.263718  -96.316966   21.902645    0.000000    0.000000    0.000000    0.000000
  0.029600000   -1.091247  154.420059  -96.676395   20.285547    0.000000    0.000000    0.000000    0.000000
  0.029800000   -1.121724  152.554886  -95.195926   11.072772    0.000000    0.000000    0.000000    0.000000
  0.030000000   -1.150573  150.640182  -95.071872   22.150862    0.000000    0.000000    0.000000    0.000000
  0.030200000   -1.179530  148.731171  -97.138667   18.153608    0.000000    0.000000    0.000000    0.000000
  0.030400000   -1.207294  146.797897  -95.747642   14.748272    0.000000    0.000000    0.000000    0.000000
  0.030600000   -1.237594  144.900787  -96.589237   17.766920    0.000000    0.000000    0.000000    0.000000
  0.030800000   -1.269512  142.978073  -97.463711   11.719298    0.000000    0.000000    0.000000    0.000000
  0.031000000   -1.302136  141.054260  -97.723221   17.649521    0.000000    0.000000    0.000000    0.000000
  0.031200000   -1.334368  139.104462  -95.846179   17.420258    0.000000    0.000000    0.000000    0.000000
  0.031400000   -1.369210  137.147583  -98.694873   14.574196    0.000000    0.000000    0.000000    0.000000
  0.031600000   -1.406044  135.142807  -95.999209   14.127211    0.000000    0.000000    0.000000    0.000000
  0.031800000   -1.440669  133.141434  -99.358017    8.843860    0.000000    0.000000    0.000000    0.000000
  0.032000000   -1.470791  131.148422  -98.241820   11.549237    0.000000    0.000000    0.000000    0.000000
  0.032200000   -1.501684  129.159912  -96.164976   12.060496    0.000000    0.000000    0.000000    0.000000
  0.032400000   -1.533508  127.164818  -99.254577    7.458969    0.000000    0.000000    0.000000    0.000000
  0.032600000   -1.564578  125.212616  -97.526864    8.738996    0.000000    0.000000    0.000000    0.000000
  0.032800000   -1.602563  123.216965  -97.075722    4.557117    0.000000    0.000000    0.000000    0.000000
  0.033000000   -1.643754  121.265976  -97.963744    8.562677    0.000000    0.000000    0.000000    0.000000
  0.033200000   -1.686570  119.247368  -97.981877    3.611177    0.000000    0.000000    0.000000    0.000000
  0.033400000   -1.732980  117.302437  -98.923169   13.124197    0.000000    0.000000    0.000000    0.000000
  0.033600000   -1.787407  115.269524 -100.585514   15.909918    0.000000    0.000000    0.000000    0.000000
  0.033800000   -1.831294  113.228600  -98.673708    9.785631    0.000000    0.000000    0.000000    0.000000
  0.034000000   -1.880464  111.141777  -98.721706   18.211061    0.000000    0.000000    0.000000    0.000000
  0.034200000   -1.923474  109.059937 -100.484000    7.112731    0.000000    0.000000    0.000000    0.000000
  0.034400000   -1.967738  106.935135  -98.371146   10.857814    0.000000    0.000000    0.000000    0.000000
  0.034600000   -2.013081  104.809456  -98.775934   17.171284    0.000000    0.000000    0.000000    0.000000
  0.034800000   -2.053239  102.700531  -99.732073   22.562450    0.000000    0.000000    0.000000    0.000000
  0.035000000   -2.091168  100.595688  -98.386492   16.125437    0.000000    0.000000    0.000000    0.000000
  0.035200000   -2.130346   98.488571  -99.081845    2.012568    0.000000    0.000000    0.000000    0.000000
  0.035400000   -2.168650   96.399170  -99.251801   21.651035    0.000000    0.000000    0.000000    0.000000
  0.035600000   -2.208753   94.329910  -97.919615   13.370523    0.000000    0.000000    0.000000    0.000000
  0.035800000   -2.245975   92.261192  -99.542003    7.191988    0.000000    0.000000    0.000000    0.000000
  0.036000000   -2.289070   90.201065  -98.539998   17.663055    0.000000    0.000000    0.000000    0.000000
  0.036200000   -2.334764   88.163795  -99.257407    6.235988    0.000000    0.000000    0.000000    0.000000
  0.036400000   -2.379558   86.110832  -96.827184    5.126076    0.000000    0.000000    0.000000    0.000000
  0.036600000   -2.430869   84.083549  -96.782469   17.475725    0.000000    0.000000    0.000000    0.000000
  0.036800000   -2.490117   82.061256  -98.910045   -0.229333    0.000000    0.000000    0.000000    0.000000
  0.037000000   -2.541305   80.021202 -101.091519    6.076838    0.000000    0.000000    0.000000    0.000000
  0.037200000   -2.602897   77.921394  -99.598488   11.159081    0.000000    0.000000    0.000000    0.000000
  0.037400000   -2.662916   75.851830  -98.872805    8.071845    0.000000    0.000000    0.000000    0.000000
  0.037600000   -2.727976   73.719292 -100.111452   10.182192    0.000000    0.000000    0.000000    0.000000
  0.037800000   -2.782772   71.574837 -100.873403   -6.202108    0.000000    0.000000    0.000000    0.000000
  0.038000000   -2.847602   69.414246  -98.793311    3.624372    0.000000    0.000000    0.000000    0.000000
  0.038200000   -2.913047   67.242775  -99.318022    2.654009    0.000000    0.000000    0.000000    0.000000
  0.038400000   -2.973581   65.142380 -101.966641    5.010346    0.000000    0.000000    0.000000    0.000000
  0.038600000   -3.023862   63.053356 -100.807981   11.814690    0.000000    0.000000    0.000000    0.000000
  0.038800000   -3.076486   60.953579  -97.827713   22.604242    0.000000    0.000000    0.000000    0.000000
  0.039000000   -3.121621   58.923386  -98.556990   13.085506    0.000000    0.000000    0.000000    0.000000
  0.039200000   -3.172515   56.913074  -98.751260   16.630041    0.000000    0.000000    0.000000    0.000000
  0.039400000   -3.220246   54.932995  -99.459774    7.698089    0.000000    0.000000    0.000000    0.000000
  0.039600000   -3.276259   52.941586  -99.077682   16.542557    0.000000    0.000000    0.000000    0.000000
  0.039800000   -3.338150   50.912388  -99.136424    8.094127    0.000000    0.000000    0.000000    0.000000
  0.040000000   -3.400165   48.904812  -99.855697   13.346178    0.000000    0.000000    0.000000    0.000000
  0.040200000   -3.463042   46.865982 -101.074515   14.427261    0.000000    0.000000    0.000000    0.000000
  0.040400000   -3.523347   44.835648  -99.860215  -10.474827    0.000000    0.000000    0.000000    0.000000
  0.040600000   -3.581190   42.803116  -97.916084    1.129837    0.000000    0.000000    0.000000    0.000000
  0.040800000   -3.642440   40.759430 -101.449122    3.986817    0.000000    0.000000    0.000000    0.000000
  0.041000000   -3.698266   38.703194  -99.627583    6.765558    0.000000    0.000000    0.000000    0.000000
  0.041200000   -3.754537   36.677311 -100.147806   -6.407439    0.000000    0.000000    0.000000    0.000000
  0.041400000   -3.807405   34.611191 -100.498814   15.673012    0.000000    0.000000    0.000000    0.000000
  0.041600000   -3.864296   32.569530 -100.675174    5.567117    0.000000    0.000000    0.000000    0.000000
  0.041800000   -3.914230   30.532261 -101.687214   19.861313    0.000000    0.000000    0.000000    0.000000
  0.042000000   -3.963018   28.480101  -99.237342    5.229493    0.000000    0.000000    0.000000    0.000000
  0.042200000   -4.012219   26.461998  -99.594722    1.670181    0.000000    0.000000    0.000000    0.000000
  0.042400000   -4.058470   24.482090 -103.239208    7.901105    0.000000    0.000000    0.000000    0.000000
  0.042600000   -4.108368   22.465853 -103.980845   -9.380142    0.000000    0.000000    0.000000    0.000000
  0.042800000   -4.158478   20.481750 -101.452776   21.811195    0.000000    0.000000    0.000000    0.000000
