! Anritsu VNA Master:                     Model: MS2036C/10/77
! SN:                                  1601066
! /card0/usr/254.ns.sma.r200.21.s2p
! Existing Calibration Information:
! TYPE:                         Current Settings,       Active Cal Settings
! TIME:             	   12/20/2017 01:49:05 PM,    12/20/2017 01:40:30 PM
! INTERNAL TEMP:    	                   46.8 C,                    46.0 C
! # POINTS:         	                      501,                       501
! START FREQ:       	               10.000 MHz,                10.000 MHz
! STOP FREQ:        	              110.000 MHz,               110.000 MHz
! SOURCE POWER:     	                     High,                      High
! IFBW:             	                   100 Hz,                    100 Hz
! AVG FACTOR:       	                       1 ,                        1 
! REF PLANE 1:      	                     0 mm,                      0 mm
! REF PLANE 2:      	                     0 mm,                      0 mm
! CAL TYPE:         	                 Full S11,                  Full S11
! CAL METHOD:       	                     SOLT,                      SOLT
! CAL LINE TYPE:    	                     Coax,                      Coax
! DUT PORT 1:       	                N-Conn(F),                 N-Conn(F)
! DUT PORT 2:       	                K-Conn(F),                 K-Conn(F)
! CAL STATUS:       	        OK: Accuracy High,                        --
# GHZ S DB R 50.0
! FREQ.GHZ       S11DB        S11A       S21DB        S21A       S12DB        S12A       S22DB        S22A
  0.010000000   -4.546382  -10.721397  -84.336596   75.789505    0.000000    0.000000    0.000000    0.000000
  0.010200000   -4.536037  -10.926496  -84.439042   75.723961    0.000000    0.000000    0.000000    0.000000
  0.010400000   -4.534963  -11.137955  -84.333044   76.882538    0.000000    0.000000    0.000000    0.000000
  0.010600000   -4.536507  -11.352196  -84.629823   77.692169    0.000000    0.000000    0.000000    0.000000
  0.010800000   -4.536383  -11.566786  -84.936782   73.374550    0.000000    0.000000    0.000000    0.000000
  0.011000000   -4.537962  -11.806380  -84.857186   74.968712    0.000000    0.000000    0.000000    0.000000
  0.011200000   -4.539261  -12.030564  -85.393867   77.358772    0.000000    0.000000    0.000000    0.000000
  0.011400000   -4.537886  -12.246427  -85.322699   71.403404    0.000000    0.000000    0.000000    0.000000
  0.011600000   -4.538569  -12.453920  -85.051432   74.710800    0.000000    0.000000    0.000000    0.000000
  0.011800000   -4.537891  -12.683558  -85.348877   74.580742    0.000000    0.000000    0.000000    0.000000
  0.012000000   -4.538423  -12.898542  -84.698795   71.438721    0.000000    0.000000    0.000000    0.000000
  0.012200000   -4.537788  -13.126035  -85.452031   73.644836    0.000000    0.000000    0.000000    0.000000
  0.012400000   -4.538756  -13.366640  -85.535930   67.110245    0.000000    0.000000    0.000000    0.000000
  0.012600000   -4.539526  -13.583862  -85.372088   68.376999    0.000000    0.000000    0.000000    0.000000
  0.012800000   -4.540687  -13.790511  -85.199896   66.574615    0.000000    0.000000    0.000000    0.000000
  0.013000000   -4.542236  -13.997938  -85.327614   66.192284    0.000000    0.000000    0.000000    0.000000
  0.013200000   -4.540618  -14.199142  -85.819491   63.967194    0.000000    0.000000    0.000000    0.000000
  0.013400000   -4.540726  -14.428916  -85.485493   62.530716    0.000000    0.000000    0.000000    0.000000
  0.013600000   -4.538620  -14.623158  -85.852882   59.370888    0.000000    0.000000    0.000000    0.000000
  0.013800000   -4.536161  -14.834948  -86.147903   57.132786    0.000000    0.000000    0.000000    0.000000
  0.014000000   -4.539379  -15.052490  -86.155258   55.330002    0.000000    0.000000    0.000000    0.000000
  0.014200000   -4.541238  -15.276182  -86.078298   54.451405    0.000000    0.000000    0.000000    0.000000
  0.014400000   -4.540677  -15.480238  -86.379352   50.498730    0.000000    0.000000    0.000000    0.000000
  0.014600000   -4.538464  -15.694757  -86.203444   48.818699    0.000000    0.000000    0.000000    0.000000
  0.014800000   -4.543950  -15.904775  -87.081388   51.588909    0.000000    0.000000    0.000000    0.000000
  0.015000000   -4.542543  -16.114815  -87.193434   49.233280    0.000000    0.000000    0.000000    0.000000
  0.015200000   -4.545338  -16.329000  -87.775985   47.069363    0.000000    0.000000    0.000000    0.000000
  0.015400000   -4.545635  -16.566198  -87.600719   45.269909    0.000000    0.000000    0.000000    0.000000
  0.015600000   -4.547523  -16.867308  -88.019660   45.413605    0.000000    0.000000    0.000000    0.000000
  0.015800000   -4.547916  -16.998922  -88.713188   46.438988    0.000000    0.000000    0.000000    0.000000
  0.016000000   -4.549174  -17.221195  -88.480762   42.344818    0.000000    0.000000    0.000000    0.000000
  0.016200000   -4.553138  -17.410055  -88.955377   44.206142    0.000000    0.000000    0.000000    0.000000
  0.016400000   -4.554999  -17.628391  -89.251874   44.961208    0.000000    0.000000    0.000000    0.000000
  0.016600000   -4.557211  -17.854445  -89.798883   47.100071    0.000000    0.000000    0.000000    0.000000
  0.016800000   -4.558864  -18.071344  -89.694674   45.152634    0.000000    0.000000    0.000000    0.000000
  0.017000000   -4.558317  -18.293995  -89.051005   46.990303    0.000000    0.000000    0.000000    0.000000
  0.017200000   -4.554364  -18.525610  -90.330554   45.025288    0.000000    0.000000    0.000000    0.000000
  0.017400000   -4.553550  -18.763134  -90.220033   43.718964    0.000000    0.000000    0.000000    0.000000
  0.017600000   -4.556606  -18.988132  -89.792100   47.956997    0.000000    0.000000    0.000000    0.000000
  0.017800000   -4.554285  -19.203695  -90.051559   47.173565    0.000000    0.000000    0.000000    0.000000
  0.018000000   -4.555424  -19.427782  -90.259284   44.975578    0.000000    0.000000    0.000000    0.000000
  0.018200000   -4.558807  -19.644875  -89.906395   47.801018    0.000000    0.000000    0.000000    0.000000
  0.018400000   -4.561176  -19.881229  -90.677214   41.424366    0.000000    0.000000    0.000000    0.000000
  0.018600000   -4.564446  -20.074839  -90.506604   43.534702    0.000000    0.000000    0.000000    0.000000
  0.018800000   -4.565842  -20.308392  -90.559175   48.922615    0.000000    0.000000    0.000000    0.000000
  0.019000000   -4.562746  -20.539850  -90.171222   45.044949    0.000000    0.000000    0.000000    0.000000
  0.019200000   -4.563440  -20.753836  -90.428219   41.534573    0.000000    0.000000    0.000000    0.000000
  0.019400000   -4.565566  -20.956831  -90.600184   41.614967    0.000000    0.000000    0.000000    0.000000
  0.019600000   -4.562941  -21.184536  -90.481191   42.072678    0.000000    0.000000    0.000000    0.000000
  0.019800000   -4.566855  -21.403557  -90.367491   39.407997    0.000000    0.000000    0.000000    0.000000
  0.020000000   -4.561040  -21.600595  -90.077039   36.465321    0.000000    0.000000    0.000000    0.000000
  0.020200000   -4.559840  -21.834845  -91.816948   38.153236    0.000000    0.000000    0.000000    0.000000
  0.020400000   -4.559532  -22.035120  -90.790001   32.294037    0.000000    0.000000    0.000000    0.000000
  0.020600000   -4.557086  -22.257412  -91.302440   34.793945    0.000000    0.000000    0.000000    0.000000
  0.020800000   -4.557233  -22.491619  -90.636580   32.364189    0.000000    0.000000    0.000000    0.000000
  0.021000000   -4.558833  -22.716177  -90.578072   32.114342    0.000000    0.000000    0.000000    0.000000
  0.021200000   -4.560373  -22.935448  -91.717213   30.484678    0.000000    0.000000    0.000000    0.000000
  0.021400000   -4.560637  -23.150604  -92.145949   26.278008    0.000000    0.000000    0.000000    0.000000
  0.021600000   -4.561812  -23.367338  -92.178835   33.780800    0.000000    0.000000    0.000000    0.000000
  0.021800000   -4.559552  -23.595631  -92.044054   27.512346    0.000000    0.000000    0.000000    0.000000
  0.022000000   -4.563607  -23.785194  -92.469379   27.864990    0.000000    0.000000    0.000000    0.000000
  0.022200000   -4.567017  -23.991669  -92.923042   26.168825    0.000000    0.000000    0.000000    0.000000
  0.022400000   -4.567176  -24.192829  -93.195458   27.652842    0.000000    0.000000    0.000000    0.000000
  0.022600000   -4.565787  -24.406496  -93.078951   28.985744    0.000000    0.000000    0.000000    0.000000
  0.022800000   -4.564830  -24.616112  -92.747114   26.546597    0.000000    0.000000    0.000000    0.000000
  0.023000000   -4.566791  -24.841022  -92.981436   29.560240    0.000000    0.000000    0.000000    0.000000
  0.023200000   -4.572480  -25.053438  -93.053885   29.927235    0.000000    0.000000    0.000000    0.000000
  0.023400000   -4.577463  -25.378092  -93.471772   29.975842    0.000000    0.000000    0.000000    0.000000
  0.023600000   -4.572248  -25.502581  -93.967981   28.117289    0.000000    0.000000    0.000000    0.000000
  0.023800000   -4.572217  -25.733852  -94.146377   27.649128    0.000000    0.000000    0.000000    0.000000
  0.024000000   -4.568006  -25.952698  -94.938088   28.516186    0.000000    0.000000    0.000000    0.000000
  0.024200000   -4.564568  -26.175962  -94.204620   27.615263    0.000000    0.000000    0.000000    0.000000
  0.024400000   -4.562899  -26.414351  -94.637268   32.696423    0.000000    0.000000    0.000000    0.000000
  0.024600000   -4.565288  -26.633617  -94.604931   27.543564    0.000000    0.000000    0.000000    0.000000
  0.024800000   -4.565582  -26.857615  -94.031459   28.916462    0.000000    0.000000    0.000000    0.000000
  0.025000000   -4.568422  -27.058979  -94.192988   19.161058    0.000000    0.000000    0.000000    0.000000
  0.025200000   -4.563922  -27.272415  -94.383855   26.066536    0.000000    0.000000    0.000000    0.000000
  0.025400000   -4.564844  -27.477119  -93.714768   29.357571    0.000000    0.000000    0.000000    0.000000
  0.025600000   -4.569047  -27.657141  -94.497215   23.415468    0.000000    0.000000    0.000000    0.000000
  0.025800000   -4.572856  -27.840981  -94.756295   22.439751    0.000000    0.000000    0.000000    0.000000
  0.026000000   -4.572057  -28.052290  -94.580131   28.678448    0.000000    0.000000    0.000000    0.000000
  0.026200000   -4.575084  -28.260250  -94.231586   27.946642    0.000000    0.000000    0.000000    0.000000
  0.026400000   -4.579511  -28.472116  -95.295459   26.458071    0.000000    0.000000    0.000000    0.000000
  0.026600000   -4.581805  -28.693745  -94.974418   23.987419    0.000000    0.000000    0.000000    0.000000
  0.026800000   -4.583628  -28.922560  -95.105438   20.875507    0.000000    0.000000    0.000000    0.000000
  0.027000000   -4.582860  -29.157566  -95.490136   23.339911    0.000000    0.000000    0.000000    0.000000
  0.027200000   -4.584010  -29.373672  -95.726938   24.412876    0.000000    0.000000    0.000000    0.000000
  0.027400000   -4.583274  -29.607353  -94.698260   22.437492    0.000000    0.000000    0.000000    0.000000
  0.027600000   -4.584652  -29.854467  -95.719626   10.971092    0.000000    0.000000    0.000000    0.000000
  0.027800000   -4.588017  -30.084156  -95.377465   21.790163    0.000000    0.000000    0.000000    0.000000
  0.028000000   -4.589182  -30.330723  -96.543306   21.273138    0.000000    0.000000    0.000000    0.000000
  0.028200000   -4.589586  -30.587311  -95.957404   15.043759    0.000000    0.000000    0.000000    0.000000
  0.028400000   -4.588852  -30.814548  -96.227095   17.823177    0.000000    0.000000    0.000000    0.000000
  0.028600000   -4.582961  -31.040068  -95.876299   15.286174    0.000000    0.000000    0.000000    0.000000
  0.028800000   -4.581101  -31.239130  -96.430328   17.023476    0.000000    0.000000    0.000000    0.000000
  0.029000000   -4.579761  -31.431749  -96.360844   19.228582    0.000000    0.000000    0.000000    0.000000
  0.029200000   -4.580228  -31.610727  -96.795257   11.947636    0.000000    0.000000    0.000000    0.000000
  0.029400000   -4.579003  -31.791935  -97.110530   12.544934    0.000000    0.000000    0.000000    0.000000
  0.029600000   -4.580306  -31.996923  -96.613989   25.614492    0.000000    0.000000    0.000000    0.000000
  0.029800000   -4.583992  -32.178238  -97.185745   12.848859    0.000000    0.000000    0.000000    0.000000
  0.030000000   -4.590514  -32.383202  -95.944432   28.344576    0.000000    0.000000    0.000000    0.000000
  0.030200000   -4.598022  -32.612587  -97.539679   24.122808    0.000000    0.000000    0.000000    0.000000
  0.030400000   -4.599094  -32.853291  -96.829733   18.517597    0.000000    0.000000    0.000000    0.000000
  0.030600000   -4.599944  -33.096889  -97.374677   19.645506    0.000000    0.000000    0.000000    0.000000
  0.030800000   -4.599699  -33.358601  -98.399139   13.547204    0.000000    0.000000    0.000000    0.000000
  0.031000000   -4.598201  -33.615814  -96.423698   18.581776    0.000000    0.000000    0.000000    0.000000
  0.031200000   -4.593011  -33.856903  -97.628626   19.291857    0.000000    0.000000    0.000000    0.000000
  0.031400000   -4.593852  -34.071770  -96.557006    5.217084    0.000000    0.000000    0.000000    0.000000
  0.031600000   -4.589905  -34.298866  -97.126313   19.341963    0.000000    0.000000    0.000000    0.000000
  0.031800000   -4.582442  -34.543774  -96.690480   19.322206    0.000000    0.000000    0.000000    0.000000
  0.032000000   -4.579282  -34.739780  -96.224716   13.831868    0.000000    0.000000    0.000000    0.000000
  0.032200000   -4.575730  -34.933826  -96.664661   21.190296    0.000000    0.000000    0.000000    0.000000
  0.032400000   -4.569039  -35.138016  -97.593554   17.430124    0.000000    0.000000    0.000000    0.000000
  0.032600000   -4.565080  -35.332596  -98.218684   30.369877    0.000000    0.000000    0.000000    0.000000
  0.032800000   -4.563060  -35.498978  -98.140709    7.341770    0.000000    0.000000    0.000000    0.000000
  0.033000000   -4.557822  -35.709282  -97.637497    9.991720    0.000000    0.000000    0.000000    0.000000
  0.033200000   -4.558467  -35.896221  -96.240061    9.415448    0.000000    0.000000    0.000000    0.000000
  0.033400000   -4.561620  -36.064407  -98.222682   21.908884    0.000000    0.000000    0.000000    0.000000
  0.033600000   -4.562818  -36.303043  -97.381993   15.172970    0.000000    0.000000    0.000000    0.000000
  0.033800000   -4.564209  -36.501705  -97.756055    7.801370    0.000000    0.000000    0.000000    0.000000
  0.034000000   -4.566978  -36.682934  -98.033647   12.079727    0.000000    0.000000    0.000000    0.000000
  0.034200000   -4.571327  -36.904404  -98.359865   10.995345    0.000000    0.000000    0.000000    0.000000
  0.034400000   -4.573027  -37.130054  -98.237317    3.031683    0.000000    0.000000    0.000000    0.000000
  0.034600000   -4.579859  -37.342258  -98.217107   10.195440    0.000000    0.000000    0.000000    0.000000
  0.034800000   -4.581574  -37.577320  -98.811629    5.232069    0.000000    0.000000    0.000000    0.000000
  0.035000000   -4.588887  -37.819252 -100.019066    1.594438    0.000000    0.000000    0.000000    0.000000
  0.035200000   -4.591964  -38.038761  -98.815275    4.956707    0.000000    0.000000    0.000000    0.000000
  0.035400000   -4.592248  -38.267704  -98.573035   15.884187    0.000000    0.000000    0.000000    0.000000
  0.035600000   -4.594993  -38.486813  -98.586958   -0.126476    0.000000    0.000000    0.000000    0.000000
  0.035800000   -4.596713  -38.706291  -99.142882    4.585166    0.000000    0.000000    0.000000    0.000000
  0.036000000   -4.595260  -38.930759  -98.492556   -5.240031    0.000000    0.000000    0.000000    0.000000
  0.036200000   -4.592023  -39.160202  -97.474513   14.744292    0.000000    0.000000    0.000000    0.000000
  0.036400000   -4.590707  -39.394077  -98.711515   23.346792    0.000000    0.000000    0.000000    0.000000
  0.036600000   -4.587403  -39.614529  -98.902023   17.594959    0.000000    0.000000    0.000000    0.000000
  0.036800000   -4.581415  -39.811512  -99.519499   23.044043    0.000000    0.000000    0.000000    0.000000
  0.037000000   -4.581863  -40.000946  -96.533185    6.434706    0.000000    0.000000    0.000000    0.000000
  0.037200000   -4.580157  -40.138008 -100.994550    8.159177    0.000000    0.000000    0.000000    0.000000
  0.037400000   -4.583650  -40.352913  -96.951903   11.848166    0.000000    0.000000    0.000000    0.000000
  0.037600000   -4.587241  -40.550159  -98.048747    0.226930    0.000000    0.000000    0.000000    0.000000
  0.037800000   -4.599401  -40.750011  -98.743744    9.435293    0.000000    0.000000    0.000000    0.000000
  0.038000000   -4.607214  -41.010387  -98.361104   12.472326    0.000000    0.000000    0.000000    0.000000
  0.038200000   -4.612445  -41.224899 -100.549836    5.382411    0.000000    0.000000    0.000000    0.000000
  0.038400000   -4.619126  -41.469353  -98.588223    1.034441    0.000000    0.000000    0.000000    0.000000
  0.038600000   -4.621406  -41.710258  -99.411663    0.963976    0.000000    0.000000    0.000000    0.000000
  0.038800000   -4.624491  -41.964699  -98.359053    8.023781    0.000000    0.000000    0.000000    0.000000
  0.039000000   -4.622418  -42.217670  -99.309363   11.463419    0.000000    0.000000    0.000000    0.000000
  0.039200000   -4.621706  -42.491123  -98.979114   15.075752    0.000000    0.000000    0.000000    0.000000
  0.039400000   -4.619790  -42.704884  -98.851763   -3.670880    0.000000    0.000000    0.000000    0.000000
  0.039600000   -4.616305  -42.948135 -100.975827   15.512026    0.000000    0.000000    0.000000    0.000000
  0.039800000   -4.608836  -43.177105  -98.836303    0.167643    0.000000    0.000000    0.000000    0.000000
  0.040000000   -4.607698  -43.396290  -98.814467    6.106010    0.000000    0.000000    0.000000    0.000000
  0.040200000   -4.600151  -43.575809  -99.543863   12.710762    0.000000    0.000000    0.000000    0.000000
  0.040400000   -4.597799  -43.799812 -105.541968   -0.838368    0.000000    0.000000    0.000000    0.000000
  0.040600000   -4.599176  -43.950790 -100.866177   11.302669    0.000000    0.000000    0.000000    0.000000
  0.040800000   -4.597328  -44.163033  -99.610382   -4.786674    0.000000    0.000000    0.000000    0.000000
  0.041000000   -4.604067  -44.354862 -102.156613    2.872462    0.000000    0.000000    0.000000    0.000000
  0.041200000   -4.609873  -44.586914 -101.372991    7.940882    0.000000    0.000000    0.000000    0.000000
  0.041400000   -4.610393  -44.784733 -101.317384   -2.864060    0.000000    0.000000    0.000000    0.000000
  0.041600000   -4.616469  -45.033707 -102.809698   13.282806    0.000000    0.000000    0.000000    0.000000
  0.041800000   -4.623384  -45.278854 -104.625239   -4.348312    0.000000    0.000000    0.000000    0.000000
  0.042000000   -4.621250  -45.493500 -101.510160  -10.949785    0.000000    0.000000    0.000000    0.000000
  0.042200000   -4.622312  -45.724308 -101.164566    7.117467    0.000000    0.000000    0.000000    0.000000
  0.042400000   -4.624501  -45.941235  -99.222670   -4.858930    0.000000    0.000000    0.000000    0.000000
  0.042600000   -4.624265  -46.174728 -101.339201    6.359724    0.000000    0.000000    0.000000    0.000000
  0.042800000   -4.627633  -46.379543 -102.926655    8.206664    0.000000    0.000000    0.000000    0.000000
