! Anritsu VNA Master:                     Model: MS2036C/10/77
! SN:                                  1601066
! /card0/usr/254.ew.sma.r20.22.s2p
! Existing Calibration Information:
! TYPE:                         Current Settings,       Active Cal Settings
! TIME:             	   12/20/2017 01:08:24 PM,    12/20/2017 12:55:07 PM
! INTERNAL TEMP:    	                   44.3 C,                    44.3 C
! # POINTS:         	                      501,                       501
! START FREQ:       	               10.000 MHz,                10.000 MHz
! STOP FREQ:        	              110.000 MHz,               110.000 MHz
! SOURCE POWER:     	                     High,                      High
! IFBW:             	                   100 Hz,                    100 Hz
! AVG FACTOR:       	                       1 ,                        1 
! REF PLANE 1:      	                     0 mm,                      0 mm
! REF PLANE 2:      	                     0 mm,                      0 mm
! CAL TYPE:         	                 Full S11,                  Full S11
! CAL METHOD:       	                     SOLT,                      SOLT
! CAL LINE TYPE:    	                     Coax,                      Coax
! DUT PORT 1:       	                N-Conn(F),                 N-Conn(F)
! DUT PORT 2:       	                K-Conn(F),                 K-Conn(F)
! CAL STATUS:       	        OK: Accuracy High,                        --
# GHZ S DB R 50.0
! FREQ.GHZ       S11DB        S11A       S21DB        S21A       S12DB        S12A       S22DB        S22A
  0.010000000   -7.190339  167.878204  -82.694792   80.539963    0.000000    0.000000    0.000000    0.000000
  0.010200000   -7.180661  167.684311  -82.938899   79.489426    0.000000    0.000000    0.000000    0.000000
  0.010400000   -7.182706  167.510269  -82.547897   74.881744    0.000000    0.000000    0.000000    0.000000
  0.010600000   -7.185095  167.244324  -82.633269   72.002838    0.000000    0.000000    0.000000    0.000000
  0.010800000   -7.185710  167.028961  -83.096747   72.410080    0.000000    0.000000    0.000000    0.000000
  0.011000000   -7.190186  166.756958  -83.736387   69.889992    0.000000    0.000000    0.000000    0.000000
  0.011200000   -7.188462  166.543823  -83.714535   68.958267    0.000000    0.000000    0.000000    0.000000
  0.011400000   -7.189737  166.288376  -84.274460   66.186996    0.000000    0.000000    0.000000    0.000000
  0.011600000   -7.193028  166.051834  -84.370557   65.623543    0.000000    0.000000    0.000000    0.000000
  0.011800000   -7.196496  165.828384  -84.894601   62.818348    0.000000    0.000000    0.000000    0.000000
  0.012000000   -7.196515  165.567032  -85.172308   58.734127    0.000000    0.000000    0.000000    0.000000
  0.012200000   -7.199775  165.322968  -85.327293   61.699108    0.000000    0.000000    0.000000    0.000000
  0.012400000   -7.201411  165.085236  -85.899520   60.826920    0.000000    0.000000    0.000000    0.000000
  0.012600000   -7.202274  164.818207  -86.470022   59.187263    0.000000    0.000000    0.000000    0.000000
  0.012800000   -7.205224  164.557587  -86.019708   57.731251    0.000000    0.000000    0.000000    0.000000
  0.013000000   -7.207994  164.341034  -86.377813   56.556587    0.000000    0.000000    0.000000    0.000000
  0.013200000   -7.213524  164.098007  -87.252014   59.489540    0.000000    0.000000    0.000000    0.000000
  0.013400000   -7.214748  163.856049  -87.050232   57.930496    0.000000    0.000000    0.000000    0.000000
  0.013600000   -7.210290  163.600494  -87.201913   58.081886    0.000000    0.000000    0.000000    0.000000
  0.013800000   -7.204299  163.364212  -87.476706   59.192829    0.000000    0.000000    0.000000    0.000000
  0.014000000   -7.206612  163.120132  -87.350071   60.555031    0.000000    0.000000    0.000000    0.000000
  0.014200000   -7.210169  162.867142  -87.742121   59.950455    0.000000    0.000000    0.000000    0.000000
  0.014400000   -7.209263  162.609207  -87.674474   62.070545    0.000000    0.000000    0.000000    0.000000
  0.014600000   -7.212007  162.362198  -87.667935   58.134342    0.000000    0.000000    0.000000    0.000000
  0.014800000   -7.214016  162.136703  -87.922658   57.167206    0.000000    0.000000    0.000000    0.000000
  0.015000000   -7.212723  161.886536  -88.266692   55.946148    0.000000    0.000000    0.000000    0.000000
  0.015200000   -7.216141  161.646561  -87.710529   60.337326    0.000000    0.000000    0.000000    0.000000
  0.015400000   -7.216744  161.384277  -87.590369   55.193806    0.000000    0.000000    0.000000    0.000000
  0.015600000   -7.208889  161.197662  -87.845157   53.438164    0.000000    0.000000    0.000000    0.000000
  0.015800000   -7.215941  160.924194  -88.195511   52.961884    0.000000    0.000000    0.000000    0.000000
  0.016000000   -7.217204  160.681366  -88.255008   55.855587    0.000000    0.000000    0.000000    0.000000
  0.016200000   -7.215816  160.460495  -88.025814   54.526760    0.000000    0.000000    0.000000    0.000000
  0.016400000   -7.217103  160.237122  -88.138988   47.956112    0.000000    0.000000    0.000000    0.000000
  0.016600000   -7.214502  159.999466  -88.792492   45.806648    0.000000    0.000000    0.000000    0.000000
  0.016800000   -7.214568  159.774292  -88.423336   49.094128    0.000000    0.000000    0.000000    0.000000
  0.017000000   -7.218233  159.540649  -88.667023   44.142712    0.000000    0.000000    0.000000    0.000000
  0.017200000   -7.217340  159.321320  -88.333275   47.681477    0.000000    0.000000    0.000000    0.000000
  0.017400000   -7.217033  159.071930  -88.449434   40.473297    0.000000    0.000000    0.000000    0.000000
  0.017600000   -7.220320  158.826523  -88.580596   40.882431    0.000000    0.000000    0.000000    0.000000
  0.017800000   -7.221268  158.600845  -88.926286   42.260170    0.000000    0.000000    0.000000    0.000000
  0.018000000   -7.219928  158.378906  -89.732370   41.154057    0.000000    0.000000    0.000000    0.000000
  0.018200000   -7.223753  158.125031  -89.050578   38.738010    0.000000    0.000000    0.000000    0.000000
  0.018400000   -7.226487  157.897552  -89.526647   39.612034    0.000000    0.000000    0.000000    0.000000
  0.018600000   -7.231130  157.663971  -89.927432   36.161087    0.000000    0.000000    0.000000    0.000000
  0.018800000   -7.232142  157.423874  -90.172120   35.424374    0.000000    0.000000    0.000000    0.000000
  0.019000000   -7.232456  157.200684  -90.784213   43.147057    0.000000    0.000000    0.000000    0.000000
  0.019200000   -7.227253  156.980392  -90.934772   34.085720    0.000000    0.000000    0.000000    0.000000
  0.019400000   -7.235307  156.730347  -91.767798   35.940937    0.000000    0.000000    0.000000    0.000000
  0.019600000   -7.237169  156.512939  -91.236324   37.951603    0.000000    0.000000    0.000000    0.000000
  0.019800000   -7.239280  156.234879  -90.837382   37.874985    0.000000    0.000000    0.000000    0.000000
  0.020000000   -7.240952  155.990173  -92.419525   36.109776    0.000000    0.000000    0.000000    0.000000
  0.020200000   -7.240386  155.762100  -91.357014   41.243332    0.000000    0.000000    0.000000    0.000000
  0.020400000   -7.236716  155.504150  -92.211745   34.484581    0.000000    0.000000    0.000000    0.000000
  0.020600000   -7.235245  155.278809  -91.772537   38.284363    0.000000    0.000000    0.000000    0.000000
  0.020800000   -7.233357  155.015182  -92.332703   37.921360    0.000000    0.000000    0.000000    0.000000
  0.021000000   -7.234376  154.736237  -92.096147   45.428921    0.000000    0.000000    0.000000    0.000000
  0.021200000   -7.232950  154.504288  -91.655445   36.755199    0.000000    0.000000    0.000000    0.000000
  0.021400000   -7.234702  154.241074  -91.667259   35.888084    0.000000    0.000000    0.000000    0.000000
  0.021600000   -7.233173  154.034515  -91.788092   31.329138    0.000000    0.000000    0.000000    0.000000
  0.021800000   -7.236545  153.792526  -92.495184   34.459694    0.000000    0.000000    0.000000    0.000000
  0.022000000   -7.233804  153.569305  -92.488799   32.304443    0.000000    0.000000    0.000000    0.000000
  0.022200000   -7.234908  153.344711  -92.414574   33.583103    0.000000    0.000000    0.000000    0.000000
  0.022400000   -7.233339  153.078629  -92.763356   32.034737    0.000000    0.000000    0.000000    0.000000
  0.022600000   -7.232465  152.873901  -92.648732   33.071968    0.000000    0.000000    0.000000    0.000000
  0.022800000   -7.232098  152.635239  -92.190874   34.380295    0.000000    0.000000    0.000000    0.000000
  0.023000000   -7.233619  152.410675  -93.101144   34.274860    0.000000    0.000000    0.000000    0.000000
  0.023200000   -7.236486  152.184174  -92.354168   32.151608    0.000000    0.000000    0.000000    0.000000
  0.023400000   -7.233278  151.920746  -92.244477   32.057457    0.000000    0.000000    0.000000    0.000000
  0.023600000   -7.231202  151.727219  -92.853907   29.780062    0.000000    0.000000    0.000000    0.000000
  0.023800000   -7.229697  151.470688  -93.030143   31.202391    0.000000    0.000000    0.000000    0.000000
  0.024000000   -7.228442  151.245621  -93.032743   27.241756    0.000000    0.000000    0.000000    0.000000
  0.024200000   -7.228100  151.005646  -92.956217   19.639563    0.000000    0.000000    0.000000    0.000000
  0.024400000   -7.232011  150.765289  -93.574159   19.665232    0.000000    0.000000    0.000000    0.000000
  0.024600000   -7.229229  150.530045  -93.531523   19.178362    0.000000    0.000000    0.000000    0.000000
  0.024800000   -7.232842  150.277283  -93.579845   23.137907    0.000000    0.000000    0.000000    0.000000
  0.025000000   -7.229667  150.070190  -93.550631   19.567135    0.000000    0.000000    0.000000    0.000000
  0.025200000   -7.231829  149.838852  -94.254163   26.128170    0.000000    0.000000    0.000000    0.000000
  0.025400000   -7.231504  149.621689  -94.519744   32.339432    0.000000    0.000000    0.000000    0.000000
  0.025600000   -7.234297  149.407806  -93.929447   20.056950    0.000000    0.000000    0.000000    0.000000
  0.025800000   -7.237712  149.204056  -94.127005   30.067860    0.000000    0.000000    0.000000    0.000000
  0.026000000   -7.241438  148.991745  -95.782219   26.472939    0.000000    0.000000    0.000000    0.000000
  0.026200000   -7.244047  148.748505  -94.826276   16.010893    0.000000    0.000000    0.000000    0.000000
  0.026400000   -7.247117  148.521362  -95.958158   21.033121    0.000000    0.000000    0.000000    0.000000
  0.026600000   -7.252720  148.269058  -95.477191   23.278120    0.000000    0.000000    0.000000    0.000000
  0.026800000   -7.253708  148.008606  -95.252867   15.043630    0.000000    0.000000    0.000000    0.000000
  0.027000000   -7.256105  147.748352  -95.642354   17.240534    0.000000    0.000000    0.000000    0.000000
  0.027200000   -7.255638  147.488434  -96.043430   20.654148    0.000000    0.000000    0.000000    0.000000
  0.027400000   -7.250606  147.186569  -95.469831   20.979279    0.000000    0.000000    0.000000    0.000000
  0.027600000   -7.249130  146.940887  -96.114810   23.177946    0.000000    0.000000    0.000000    0.000000
  0.027800000   -7.246411  146.664948  -95.932700   29.641047    0.000000    0.000000    0.000000    0.000000
  0.028000000   -7.244796  146.421951  -96.258512   25.832212    0.000000    0.000000    0.000000    0.000000
  0.028200000   -7.242246  146.183441  -96.897491   25.046621    0.000000    0.000000    0.000000    0.000000
  0.028400000   -7.239587  145.924515  -95.520104   26.301981    0.000000    0.000000    0.000000    0.000000
  0.028600000   -7.238030  145.705017  -95.158316   23.360065    0.000000    0.000000    0.000000    0.000000
  0.028800000   -7.236875  145.502533  -95.662426   18.993885    0.000000    0.000000    0.000000    0.000000
  0.029000000   -7.233504  145.307343  -96.108871   20.364105    0.000000    0.000000    0.000000    0.000000
  0.029200000   -7.231344  145.123795  -96.462757   20.042665    0.000000    0.000000    0.000000    0.000000
  0.029400000   -7.227625  144.941177  -96.254099   19.537182    0.000000    0.000000    0.000000    0.000000
  0.029600000   -7.226762  144.728714  -97.030517   17.458838    0.000000    0.000000    0.000000    0.000000
  0.029800000   -7.229888  144.516876  -96.426703   21.550846    0.000000    0.000000    0.000000    0.000000
  0.030000000   -7.231294  144.286346  -96.251897   13.024887    0.000000    0.000000    0.000000    0.000000
  0.030200000   -7.235135  144.061676  -96.818461   14.723284    0.000000    0.000000    0.000000    0.000000
  0.030400000   -7.235115  143.806305  -96.709560   19.053541    0.000000    0.000000    0.000000    0.000000
  0.030600000   -7.236897  143.564575  -96.893267   11.586959    0.000000    0.000000    0.000000    0.000000
  0.030800000   -7.235699  143.329712  -96.410994   16.514236    0.000000    0.000000    0.000000    0.000000
  0.031000000   -7.239810  143.088196  -96.426818   11.862690    0.000000    0.000000    0.000000    0.000000
  0.031200000   -7.228024  142.899460  -97.250028   15.861581    0.000000    0.000000    0.000000    0.000000
  0.031400000   -7.234581  142.629150  -98.320718   15.055879    0.000000    0.000000    0.000000    0.000000
  0.031600000   -7.234768  142.398193  -97.475417   17.783684    0.000000    0.000000    0.000000    0.000000
  0.031800000   -7.236395  142.151428  -96.424681   11.082671    0.000000    0.000000    0.000000    0.000000
  0.032000000   -7.233890  141.932495  -97.651696    0.686800    0.000000    0.000000    0.000000    0.000000
  0.032200000   -7.230931  141.685013  -98.065089   10.513422    0.000000    0.000000    0.000000    0.000000
  0.032400000   -7.230954  141.424194  -97.068470   19.614998    0.000000    0.000000    0.000000    0.000000
  0.032600000   -7.227768  141.204300  -97.205832   12.488289    0.000000    0.000000    0.000000    0.000000
  0.032800000   -7.224701  140.994949  -99.057397   14.298453    0.000000    0.000000    0.000000    0.000000
  0.033000000   -7.220186  140.807007  -99.406139   11.688088    0.000000    0.000000    0.000000    0.000000
  0.033200000   -7.222455  140.567566  -97.669489   12.814621    0.000000    0.000000    0.000000    0.000000
  0.033400000   -7.227172  140.369492  -99.276268   22.084167    0.000000    0.000000    0.000000    0.000000
  0.033600000   -7.227684  140.193466  -98.281550    9.224730    0.000000    0.000000    0.000000    0.000000
  0.033800000   -7.233210  139.969574  -99.994708    5.728700    0.000000    0.000000    0.000000    0.000000
  0.034000000   -7.238133  139.702972  -98.186265   23.194464    0.000000    0.000000    0.000000    0.000000
  0.034200000   -7.236555  139.426941  -99.126406   12.787827    0.000000    0.000000    0.000000    0.000000
  0.034400000   -7.244364  139.146347  -98.569720   26.057444    0.000000    0.000000    0.000000    0.000000
  0.034600000   -7.244184  138.893127  -98.246142   11.927396    0.000000    0.000000    0.000000    0.000000
  0.034800000   -7.250350  138.624207  -98.465181    8.212239    0.000000    0.000000    0.000000    0.000000
  0.035000000   -7.248318  138.340408 -100.061506    8.507909    0.000000    0.000000    0.000000    0.000000
  0.035200000   -7.249707  138.099457  -99.504396   21.061255    0.000000    0.000000    0.000000    0.000000
  0.035400000   -7.246373  137.853851  -97.244891    5.230631    0.000000    0.000000    0.000000    0.000000
  0.035600000   -7.242198  137.575912  -98.342227   11.340013    0.000000    0.000000    0.000000    0.000000
  0.035800000   -7.236956  137.310150  -99.303508   13.520908    0.000000    0.000000    0.000000    0.000000
  0.036000000   -7.228706  137.068176 -101.235848    8.048800    0.000000    0.000000    0.000000    0.000000
  0.036200000   -7.222080  136.833740  -99.345344   20.377930    0.000000    0.000000    0.000000    0.000000
  0.036400000   -7.216460  136.612076  -96.874439    4.644102    0.000000    0.000000    0.000000    0.000000
  0.036600000   -7.214140  136.409286  -97.265124   15.126977    0.000000    0.000000    0.000000    0.000000
  0.036800000   -7.209445  136.224045  -99.168873   16.814098    0.000000    0.000000    0.000000    0.000000
  0.037000000   -7.203400  136.036621  -98.279906    9.299975    0.000000    0.000000    0.000000    0.000000
  0.037200000   -7.205173  135.851349  -99.779831    1.413109    0.000000    0.000000    0.000000    0.000000
  0.037400000   -7.209528  135.608688 -100.340094   -8.535196    0.000000    0.000000    0.000000    0.000000
  0.037600000   -7.211380  135.403809  -98.389850    9.320226    0.000000    0.000000    0.000000    0.000000
  0.037800000   -7.213662  135.190659 -100.504986   -5.364239    0.000000    0.000000    0.000000    0.000000
  0.038000000   -7.215412  134.946625  -99.573974    9.692115    0.000000    0.000000    0.000000    0.000000
  0.038200000   -7.223085  134.706665 -100.027035    2.615286    0.000000    0.000000    0.000000    0.000000
  0.038400000   -7.225671  134.465668 -102.009702    7.141551    0.000000    0.000000    0.000000    0.000000
  0.038600000   -7.231031  134.247375 -100.999867   16.210785    0.000000    0.000000    0.000000    0.000000
  0.038800000   -7.227785  134.025650 -103.090332   -6.891834    0.000000    0.000000    0.000000    0.000000
  0.039000000   -7.232342  133.776352 -100.845488   -9.868577    0.000000    0.000000    0.000000    0.000000
  0.039200000   -7.233885  133.549835 -100.914529   -0.196991    0.000000    0.000000    0.000000    0.000000
  0.039400000   -7.229576  133.314682  -99.953772   14.301582    0.000000    0.000000    0.000000    0.000000
  0.039600000   -7.227520  133.068024 -101.534924   24.949312    0.000000    0.000000    0.000000    0.000000
  0.039800000   -7.223244  132.783096 -101.038175    5.022810    0.000000    0.000000    0.000000    0.000000
  0.040000000   -7.223316  132.534943  -98.326766    1.344980    0.000000    0.000000    0.000000    0.000000
  0.040200000   -7.217340  132.342743  -98.658755    9.155455    0.000000    0.000000    0.000000    0.000000
  0.040400000   -7.215053  132.121246 -102.447897   14.643513    0.000000    0.000000    0.000000    0.000000
  0.040600000   -7.211214  131.888107  -99.965655   21.021841    0.000000    0.000000    0.000000    0.000000
  0.040800000   -7.219182  131.708984 -101.959045   -3.756181    0.000000    0.000000    0.000000    0.000000
  0.041000000   -7.218820  131.522110 -100.539178    7.293063    0.000000    0.000000    0.000000    0.000000
  0.041200000   -7.224471  131.307602  -99.937623    6.511445    0.000000    0.000000    0.000000    0.000000
  0.041400000   -7.231041  131.083740 -100.618782   14.564801    0.000000    0.000000    0.000000    0.000000
  0.041600000   -7.239747  130.800125  -99.035332   11.892105    0.000000    0.000000    0.000000    0.000000
  0.041800000   -7.243493  130.545746 -100.611852   -4.006474    0.000000    0.000000    0.000000    0.000000
  0.042000000   -7.246178  130.314194 -100.704394   15.064188    0.000000    0.000000    0.000000    0.000000
  0.042200000   -7.247715  130.044678  -99.726676   -5.492462    0.000000    0.000000    0.000000    0.000000
  0.042400000   -7.250213  129.776230 -101.662448   22.535603    0.000000    0.000000    0.000000    0.000000
  0.042600000   -7.250027  129.515976 -100.001557    7.626325    0.000000    0.000000    0.000000    0.000000
  0.042800000   -7.245909  129.258698  -98.724140   -0.938174    0.000000    0.000000    0.000000    0.000000
