! Anritsu VNA Master:                     Model: MS2036C/10/77
! SN:                                  1601066
! /card0/usr/254.ew.sma.r20.11.s2p
! Existing Calibration Information:
! TYPE:                         Current Settings,       Active Cal Settings
! TIME:             	   12/20/2017 12:35:13 PM,    12/20/2017 12:32:09 PM
! INTERNAL TEMP:    	                   45.5 C,                    45.8 C
! # POINTS:         	                      501,                       501
! START FREQ:       	               10.000 MHz,                10.000 MHz
! STOP FREQ:        	              110.000 MHz,               110.000 MHz
! SOURCE POWER:     	                     High,                      High
! IFBW:             	                   100 Hz,                    100 Hz
! AVG FACTOR:       	                       1 ,                        1 
! REF PLANE 1:      	                     0 mm,                      0 mm
! REF PLANE 2:      	                     0 mm,                      0 mm
! CAL TYPE:         	                 Full S11,                  Full S11
! CAL METHOD:       	                     SOLT,                      SOLT
! CAL LINE TYPE:    	                     Coax,                      Coax
! DUT PORT 1:       	                N-Conn(F),                 N-Conn(F)
! DUT PORT 2:       	                K-Conn(F),                 K-Conn(F)
! CAL STATUS:       	        OK: Accuracy High,                        --
# GHZ S DB R 50.0
! FREQ.GHZ       S11DB        S11A       S21DB        S21A       S12DB        S12A       S22DB        S22A
  0.010000000  -60.876766   91.431038  -82.227022   79.143570    0.000000    0.000000    0.000000    0.000000
  0.010200000  -61.306531   89.182022  -82.522836   74.389580    0.000000    0.000000    0.000000    0.000000
  0.010400000  -60.415238   88.750381  -82.971803   73.074585    0.000000    0.000000    0.000000    0.000000
  0.010600000  -60.655351   88.133598  -83.064143   73.097633    0.000000    0.000000    0.000000    0.000000
  0.010800000  -60.661156   91.076019  -83.115124   69.530418    0.000000    0.000000    0.000000    0.000000
  0.011000000  -60.245474   86.100685  -83.494241   67.952324    0.000000    0.000000    0.000000    0.000000
  0.011200000  -60.085789   88.899239  -84.173553   65.310448    0.000000    0.000000    0.000000    0.000000
  0.011400000  -59.872593   87.499405  -83.891495   66.988480    0.000000    0.000000    0.000000    0.000000
  0.011600000  -59.789104   86.359589  -84.504085   62.509529    0.000000    0.000000    0.000000    0.000000
  0.011800000  -59.905921   86.686394  -84.456777   64.766762    0.000000    0.000000    0.000000    0.000000
  0.012000000  -59.856237   86.442551  -84.377269   58.356575    0.000000    0.000000    0.000000    0.000000
  0.012200000  -59.697378   85.217751  -85.289348   62.893562    0.000000    0.000000    0.000000    0.000000
  0.012400000  -59.513358   84.014435  -86.188413   59.190418    0.000000    0.000000    0.000000    0.000000
  0.012600000  -59.393444   85.403786  -86.451551   56.383007    0.000000    0.000000    0.000000    0.000000
  0.012800000  -59.286664   85.759109  -85.901484   59.350376    0.000000    0.000000    0.000000    0.000000
  0.013000000  -59.134760   82.991356  -86.249882   58.449657    0.000000    0.000000    0.000000    0.000000
  0.013200000  -58.970979   84.710754  -87.159464   59.665123    0.000000    0.000000    0.000000    0.000000
  0.013400000  -58.932225   80.326782  -87.271145   58.677288    0.000000    0.000000    0.000000    0.000000
  0.013600000  -58.618601   83.855927  -87.146441   56.375927    0.000000    0.000000    0.000000    0.000000
  0.013800000  -58.518746   82.355507  -87.334472   58.543613    0.000000    0.000000    0.000000    0.000000
  0.014000000  -58.687280   81.317154  -88.042777   55.449547    0.000000    0.000000    0.000000    0.000000
  0.014200000  -58.149284   80.310524  -87.632088   59.511055    0.000000    0.000000    0.000000    0.000000
  0.014400000  -58.299371   81.760727  -88.075768   57.933273    0.000000    0.000000    0.000000    0.000000
  0.014600000  -58.094273   80.565331  -87.951963   58.821239    0.000000    0.000000    0.000000    0.000000
  0.014800000  -57.944437   80.792633  -87.785615   58.653915    0.000000    0.000000    0.000000    0.000000
  0.015000000  -57.921646   79.905830  -87.765668   58.191032    0.000000    0.000000    0.000000    0.000000
  0.015200000  -57.508338   80.440002  -88.059440   59.741150    0.000000    0.000000    0.000000    0.000000
  0.015400000  -57.581907   80.248703  -88.045552   59.881718    0.000000    0.000000    0.000000    0.000000
  0.015600000  -58.116319   77.988045  -87.967766   53.576244    0.000000    0.000000    0.000000    0.000000
  0.015800000  -57.401653   78.472244  -88.212499   52.951145    0.000000    0.000000    0.000000    0.000000
  0.016000000  -57.301301   78.268806  -88.002943   54.137306    0.000000    0.000000    0.000000    0.000000
  0.016200000  -57.085659   77.788765  -88.109260   49.644741    0.000000    0.000000    0.000000    0.000000
  0.016400000  -56.908654   77.508484  -88.495840   51.852779    0.000000    0.000000    0.000000    0.000000
  0.016600000  -56.933221   77.853035  -88.525682   54.741447    0.000000    0.000000    0.000000    0.000000
  0.016800000  -56.728415   77.778168  -88.473399   48.892136    0.000000    0.000000    0.000000    0.000000
  0.017000000  -56.887825   78.427391  -88.646479   47.054695    0.000000    0.000000    0.000000    0.000000
  0.017200000  -56.670491   77.316254  -89.031953   42.393200    0.000000    0.000000    0.000000    0.000000
  0.017400000  -56.453254   77.406792  -89.192059   43.668602    0.000000    0.000000    0.000000    0.000000
  0.017600000  -56.547198   76.714378  -89.377033   43.235649    0.000000    0.000000    0.000000    0.000000
  0.017800000  -56.340269   76.573143  -89.563991   42.255001    0.000000    0.000000    0.000000    0.000000
  0.018000000  -56.173145   77.015816  -89.538288   37.979454    0.000000    0.000000    0.000000    0.000000
  0.018200000  -56.083613   77.484612  -89.608226   41.545929    0.000000    0.000000    0.000000    0.000000
  0.018400000  -56.066221   76.498764  -90.443104   40.905865    0.000000    0.000000    0.000000    0.000000
  0.018600000  -55.934445   77.017281  -90.016538   36.408443    0.000000    0.000000    0.000000    0.000000
  0.018800000  -55.846446   76.314255  -90.057386   37.983982    0.000000    0.000000    0.000000    0.000000
  0.019000000  -55.742661   76.623215  -90.979060   34.108833    0.000000    0.000000    0.000000    0.000000
  0.019200000  -55.646623   76.151489  -90.731640   40.262772    0.000000    0.000000    0.000000    0.000000
  0.019400000  -55.624212   75.662315  -91.386981   37.300919    0.000000    0.000000    0.000000    0.000000
  0.019600000  -55.454883   75.574158  -91.743605   31.402744    0.000000    0.000000    0.000000    0.000000
  0.019800000  -55.358057   74.778755  -91.226351   39.550911    0.000000    0.000000    0.000000    0.000000
  0.020000000  -55.246653   75.285042  -92.447224   35.604012    0.000000    0.000000    0.000000    0.000000
  0.020200000  -55.195522   75.018799  -92.156562   35.910900    0.000000    0.000000    0.000000    0.000000
  0.020400000  -55.116390   74.974457  -91.837128   37.339516    0.000000    0.000000    0.000000    0.000000
  0.020600000  -55.108348   74.675377  -92.550403   41.365868    0.000000    0.000000    0.000000    0.000000
  0.020800000  -54.846866   73.978638  -91.953659   40.240128    0.000000    0.000000    0.000000    0.000000
  0.021000000  -54.921173   74.057350  -92.334822   35.696163    0.000000    0.000000    0.000000    0.000000
  0.021200000  -54.612876   73.580360  -91.648789   35.391129    0.000000    0.000000    0.000000    0.000000
  0.021400000  -54.772444   72.796356  -91.963030   34.388000    0.000000    0.000000    0.000000    0.000000
  0.021600000  -54.693514   73.837723  -92.422051   37.004997    0.000000    0.000000    0.000000    0.000000
  0.021800000  -54.553484   73.056129  -91.511986   42.895485    0.000000    0.000000    0.000000    0.000000
  0.022000000  -54.304967   73.146355  -92.499971   41.595078    0.000000    0.000000    0.000000    0.000000
  0.022200000  -54.343356   73.651421  -91.871433   36.338634    0.000000    0.000000    0.000000    0.000000
  0.022400000  -54.219001   72.756828  -93.186511   33.022694    0.000000    0.000000    0.000000    0.000000
  0.022600000  -54.094269   72.630333  -92.863334   31.913437    0.000000    0.000000    0.000000    0.000000
  0.022800000  -54.011692   72.106895  -92.995116   30.901423    0.000000    0.000000    0.000000    0.000000
  0.023000000  -54.226191   70.673752  -92.842937   28.638020    0.000000    0.000000    0.000000    0.000000
  0.023200000  -54.024522   71.284302  -92.065605   26.735361    0.000000    0.000000    0.000000    0.000000
  0.023400000  -53.394854   69.981377  -93.133685   30.142523    0.000000    0.000000    0.000000    0.000000
  0.023600000  -53.769222   71.105591  -92.486505   26.661932    0.000000    0.000000    0.000000    0.000000
  0.023800000  -53.679310   70.580902  -92.728506   28.789938    0.000000    0.000000    0.000000    0.000000
  0.024000000  -53.653658   71.188019  -92.609975   27.841438    0.000000    0.000000    0.000000    0.000000
  0.024200000  -53.605850   70.031776  -94.196009   24.549427    0.000000    0.000000    0.000000    0.000000
  0.024400000  -53.451379   70.618599  -93.488831   23.421133    0.000000    0.000000    0.000000    0.000000
  0.024600000  -53.393991   70.472221  -92.612696   24.279596    0.000000    0.000000    0.000000    0.000000
  0.024800000  -53.405731   70.177773  -93.929013   24.556988    0.000000    0.000000    0.000000    0.000000
  0.025000000  -53.401557   69.722298  -94.215795   20.103525    0.000000    0.000000    0.000000    0.000000
  0.025200000  -53.169940   69.642105  -94.029360   21.699804    0.000000    0.000000    0.000000    0.000000
  0.025400000  -53.092170   69.639786  -94.189587   23.847178    0.000000    0.000000    0.000000    0.000000
  0.025600000  -53.080578   69.830444  -94.972869   15.478962    0.000000    0.000000    0.000000    0.000000
  0.025800000  -53.089927   69.544373  -94.668699   20.839558    0.000000    0.000000    0.000000    0.000000
  0.026000000  -52.965622   68.525345  -95.523038   20.726849    0.000000    0.000000    0.000000    0.000000
  0.026200000  -52.987047   69.149139  -94.929450   18.463469    0.000000    0.000000    0.000000    0.000000
  0.026400000  -52.865334   68.542595  -96.083802   25.644272    0.000000    0.000000    0.000000    0.000000
  0.026600000  -52.741517   68.347786  -95.944460   17.600748    0.000000    0.000000    0.000000    0.000000
  0.026800000  -52.654580   68.357574  -95.224783   28.798464    0.000000    0.000000    0.000000    0.000000
  0.027000000  -52.586795   67.826195  -95.175958   17.464314    0.000000    0.000000    0.000000    0.000000
  0.027200000  -52.561968   67.533157  -96.800411   28.460691    0.000000    0.000000    0.000000    0.000000
  0.027400000  -52.442723   67.613884  -95.175122   24.212801    0.000000    0.000000    0.000000    0.000000
  0.027600000  -52.394924   67.188385  -96.006139   18.573925    0.000000    0.000000    0.000000    0.000000
  0.027800000  -52.296597   67.038597  -96.502800   30.244293    0.000000    0.000000    0.000000    0.000000
  0.028000000  -52.214045   66.660675  -95.220921   17.930441    0.000000    0.000000    0.000000    0.000000
  0.028200000  -52.163981   66.266182  -95.383549   22.478613    0.000000    0.000000    0.000000    0.000000
  0.028400000  -52.133781   66.410515  -96.018302   23.637999    0.000000    0.000000    0.000000    0.000000
  0.028600000  -52.098535   66.338173  -96.824945   19.652353    0.000000    0.000000    0.000000    0.000000
  0.028800000  -51.988111   65.992416  -95.684336   21.549297    0.000000    0.000000    0.000000    0.000000
  0.029000000  -51.927008   65.822800  -95.684250   28.102581    0.000000    0.000000    0.000000    0.000000
  0.029200000  -51.871212   66.344894  -96.073170   25.063894    0.000000    0.000000    0.000000    0.000000
  0.029400000  -51.863073   66.149834  -95.580140   22.697027    0.000000    0.000000    0.000000    0.000000
  0.029600000  -51.801201   65.831253  -96.212238   16.010996    0.000000    0.000000    0.000000    0.000000
  0.029800000  -51.725369   64.679169  -97.391528    7.311520    0.000000    0.000000    0.000000    0.000000
  0.030000000  -51.753790   65.711121  -97.595494   17.922134    0.000000    0.000000    0.000000    0.000000
  0.030200000  -51.653459   65.525574  -96.809261   11.534330    0.000000    0.000000    0.000000    0.000000
  0.030400000  -51.504675   64.381195  -96.685034   17.922781    0.000000    0.000000    0.000000    0.000000
  0.030600000  -51.569852   64.200836  -96.105388    2.724218    0.000000    0.000000    0.000000    0.000000
  0.030800000  -51.502486   63.867664  -97.643179   19.255333    0.000000    0.000000    0.000000    0.000000
  0.031000000  -51.327049   64.618477  -97.572220   21.981703    0.000000    0.000000    0.000000    0.000000
  0.031200000  -51.268356   64.134285  -95.441515    8.086658    0.000000    0.000000    0.000000    0.000000
  0.031400000  -51.247647   64.465683  -95.357695    6.879142    0.000000    0.000000    0.000000    0.000000
  0.031600000  -51.104115   64.088707  -98.439089   15.677548    0.000000    0.000000    0.000000    0.000000
  0.031800000  -51.091144   63.777641  -97.163216   13.714418    0.000000    0.000000    0.000000    0.000000
  0.032000000  -50.947313   64.101227  -98.232139   -0.283742    0.000000    0.000000    0.000000    0.000000
  0.032200000  -50.979647   63.426243  -97.976014   12.233535    0.000000    0.000000    0.000000    0.000000
  0.032400000  -50.907079   63.677452  -97.882258   16.049248    0.000000    0.000000    0.000000    0.000000
  0.032600000  -50.818538   63.111923  -98.938227   20.345173    0.000000    0.000000    0.000000    0.000000
  0.032800000  -50.807826   62.755455  -97.025448   17.380537    0.000000    0.000000    0.000000    0.000000
  0.033000000  -50.733965   63.177219  -97.935909   18.583899    0.000000    0.000000    0.000000    0.000000
  0.033200000  -50.717078   63.470592  -96.905704   16.169334    0.000000    0.000000    0.000000    0.000000
  0.033400000  -50.711202   62.412655  -96.681090   12.899973    0.000000    0.000000    0.000000    0.000000
  0.033600000  -50.526259   62.680092  -99.528956    5.666258    0.000000    0.000000    0.000000    0.000000
  0.033800000  -50.456103   62.067528  -96.236081   11.688910    0.000000    0.000000    0.000000    0.000000
  0.034000000  -50.394409   62.074154  -97.815562    8.261102    0.000000    0.000000    0.000000    0.000000
  0.034200000  -50.527479   61.977436  -98.472599   15.030105    0.000000    0.000000    0.000000    0.000000
  0.034400000  -50.364032   61.180592  -98.200380   15.001155    0.000000    0.000000    0.000000    0.000000
  0.034600000  -50.264827   61.560715  -96.904905    8.349660    0.000000    0.000000    0.000000    0.000000
  0.034800000  -50.308362   61.077026  -97.735712   15.453448    0.000000    0.000000    0.000000    0.000000
  0.035000000  -50.186300   60.895180  -99.592265    7.468546    0.000000    0.000000    0.000000    0.000000
  0.035200000  -50.148262   60.763630  -98.930949   10.087642    0.000000    0.000000    0.000000    0.000000
  0.035400000  -50.081581   60.646416  -99.514402   10.467553    0.000000    0.000000    0.000000    0.000000
  0.035600000  -50.012086   60.826653  -98.551464    2.790591    0.000000    0.000000    0.000000    0.000000
  0.035800000  -49.981077   59.942722  -99.224101    1.039680    0.000000    0.000000    0.000000    0.000000
  0.036000000  -49.892735   59.560432  -98.318804    4.650826    0.000000    0.000000    0.000000    0.000000
  0.036200000  -49.831452   59.912548  -97.991480    7.620948    0.000000    0.000000    0.000000    0.000000
  0.036400000  -49.817486   59.772018  -99.580349   13.725584    0.000000    0.000000    0.000000    0.000000
  0.036600000  -49.756689   59.996056  -99.970144    2.035546    0.000000    0.000000    0.000000    0.000000
  0.036800000  -49.671269   59.458164 -100.182707    6.121764    0.000000    0.000000    0.000000    0.000000
  0.037000000  -49.639290   59.544018  -98.699488    9.333461    0.000000    0.000000    0.000000    0.000000
  0.037200000  -49.598879   59.573345  -98.649187    9.071777    0.000000    0.000000    0.000000    0.000000
  0.037400000  -49.614867   59.218636  -98.979097   -2.203910    0.000000    0.000000    0.000000    0.000000
  0.037600000  -49.566540   58.861629  -97.682702   -6.461503    0.000000    0.000000    0.000000    0.000000
  0.037800000  -49.534635   58.966415  -99.838026   14.422068    0.000000    0.000000    0.000000    0.000000
  0.038000000  -49.534079   58.751137  -99.963391   13.032548    0.000000    0.000000    0.000000    0.000000
  0.038200000  -49.403908   58.600136 -100.423565   13.793278    0.000000    0.000000    0.000000    0.000000
  0.038400000  -49.350295   58.179939 -100.600789   -3.522075    0.000000    0.000000    0.000000    0.000000
  0.038600000  -49.382390   57.979202 -100.906113    4.697114    0.000000    0.000000    0.000000    0.000000
  0.038800000  -49.272178   57.615276  -99.820384    7.942986    0.000000    0.000000    0.000000    0.000000
  0.039000000  -49.232768   57.401428 -100.635119   17.745348    0.000000    0.000000    0.000000    0.000000
  0.039200000  -49.129754   57.768066 -100.297697    8.809703    0.000000    0.000000    0.000000    0.000000
  0.039400000  -49.055544   57.230568 -100.540812   10.050219    0.000000    0.000000    0.000000    0.000000
  0.039600000  -49.043641   56.988914 -100.257525   -2.040444    0.000000    0.000000    0.000000    0.000000
  0.039800000  -49.043445   57.218796 -100.561897    6.740057    0.000000    0.000000    0.000000    0.000000
  0.040000000  -48.926616   56.700077 -100.147359    7.609727    0.000000    0.000000    0.000000    0.000000
  0.040200000  -48.893704   56.609718 -102.398790   20.779909    0.000000    0.000000    0.000000    0.000000
  0.040400000  -48.844813   56.840771  -99.800242   -6.010119    0.000000    0.000000    0.000000    0.000000
  0.040600000  -48.779902   56.603676  -99.023071   13.225967    0.000000    0.000000    0.000000    0.000000
  0.040800000  -48.765766   56.456936 -101.823308    6.733320    0.000000    0.000000    0.000000    0.000000
  0.041000000  -48.761914   56.133667  -98.339273   -2.715433    0.000000    0.000000    0.000000    0.000000
  0.041200000  -48.715246   56.465359  -99.725550   13.115263    0.000000    0.000000    0.000000    0.000000
  0.041400000  -48.579107   56.082767 -100.122383   13.189435    0.000000    0.000000    0.000000    0.000000
  0.041600000  -48.532528   55.476589 -101.073499  -10.358794    0.000000    0.000000    0.000000    0.000000
  0.041800000  -48.571171   55.391098 -101.759561    2.603126    0.000000    0.000000    0.000000    0.000000
  0.042000000  -48.449199   55.193119  -99.933852    5.071459    0.000000    0.000000    0.000000    0.000000
  0.042200000  -48.476343   54.985786 -100.334576   -8.644938    0.000000    0.000000    0.000000    0.000000
  0.042400000  -48.444170   54.593204  -99.028588   -2.577688    0.000000    0.000000    0.000000    0.000000
  0.042600000  -48.392393   54.518597 -100.718412   -1.217550    0.000000    0.000000    0.000000    0.000000
  0.042800000  -48.347163   54.287064 -100.419170   12.383343    0.000000    0.000000    0.000000    0.000000
