! Anritsu VNA Master:                     Model: MS2036C/10/77
! SN:                                  1601066
! /card0/usr/254.ns.sma.r20.32.s2p
! Existing Calibration Information:
! TYPE:                         Current Settings,       Active Cal Settings
! TIME:             	   12/20/2017 02:12:32 PM,    12/20/2017 02:00:00 PM
! INTERNAL TEMP:    	                   47.5 C,                    47.0 C
! # POINTS:         	                      501,                       501
! START FREQ:       	               10.000 MHz,                10.000 MHz
! STOP FREQ:        	              110.000 MHz,               110.000 MHz
! SOURCE POWER:     	                     High,                      High
! IFBW:             	                   100 Hz,                    100 Hz
! AVG FACTOR:       	                       1 ,                        1 
! REF PLANE 1:      	                     0 mm,                      0 mm
! REF PLANE 2:      	                     0 mm,                      0 mm
! CAL TYPE:         	                 Full S11,                  Full S11
! CAL METHOD:       	                     SOLT,                      SOLT
! CAL LINE TYPE:    	                     Coax,                      Coax
! DUT PORT 1:       	                N-Conn(F),                 N-Conn(F)
! DUT PORT 2:       	                K-Conn(F),                 K-Conn(F)
! CAL STATUS:       	        OK: Accuracy High,                        --
# GHZ S DB R 50.0
! FREQ.GHZ       S11DB        S11A       S21DB        S21A       S12DB        S12A       S22DB        S22A
  0.010000000   -7.214909  167.696014  -82.281360   77.629951    0.000000    0.000000    0.000000    0.000000
  0.010200000   -7.203230  167.558243  -82.457610   73.887260    0.000000    0.000000    0.000000    0.000000
  0.010400000   -7.200544  167.254944  -82.905726   74.477303    0.000000    0.000000    0.000000    0.000000
  0.010600000   -7.204863  167.055069  -82.605586   72.999016    0.000000    0.000000    0.000000    0.000000
  0.010800000   -7.208218  166.820892  -82.801666   69.572205    0.000000    0.000000    0.000000    0.000000
  0.011000000   -7.210051  166.584152  -83.585766   67.470108    0.000000    0.000000    0.000000    0.000000
  0.011200000   -7.204306  166.305328  -83.218578   67.030586    0.000000    0.000000    0.000000    0.000000
  0.011400000   -7.207460  166.110733  -84.045667   66.339676    0.000000    0.000000    0.000000    0.000000
  0.011600000   -7.214648  165.872971  -84.512778   66.289284    0.000000    0.000000    0.000000    0.000000
  0.011800000   -7.214515  165.616943  -84.362937   63.036873    0.000000    0.000000    0.000000    0.000000
  0.012000000   -7.222098  165.341614  -85.116282   61.773399    0.000000    0.000000    0.000000    0.000000
  0.012200000   -7.217704  165.121231  -85.353528   59.751724    0.000000    0.000000    0.000000    0.000000
  0.012400000   -7.220872  164.851807  -85.800816   58.174744    0.000000    0.000000    0.000000    0.000000
  0.012600000   -7.222448  164.633881  -85.830851   60.083916    0.000000    0.000000    0.000000    0.000000
  0.012800000   -7.223191  164.382065  -86.386858   58.762646    0.000000    0.000000    0.000000    0.000000
  0.013000000   -7.229612  164.128143  -86.270405   57.792545    0.000000    0.000000    0.000000    0.000000
  0.013200000   -7.231245  163.888428  -86.638751   60.963139    0.000000    0.000000    0.000000    0.000000
  0.013400000   -7.233763  163.631226  -86.779451   59.514698    0.000000    0.000000    0.000000    0.000000
  0.013600000   -7.227918  163.398804  -87.323495   55.982105    0.000000    0.000000    0.000000    0.000000
  0.013800000   -7.229359  163.148575  -86.990363   60.553082    0.000000    0.000000    0.000000    0.000000
  0.014000000   -7.227090  162.925278  -87.864880   58.151112    0.000000    0.000000    0.000000    0.000000
  0.014200000   -7.230662  162.663910  -87.830227   58.590851    0.000000    0.000000    0.000000    0.000000
  0.014400000   -7.229284  162.414642  -87.833249   59.289074    0.000000    0.000000    0.000000    0.000000
  0.014600000   -7.232018  162.199020  -87.659130   58.803474    0.000000    0.000000    0.000000    0.000000
  0.014800000   -7.232616  161.947525  -88.051821   57.296593    0.000000    0.000000    0.000000    0.000000
  0.015000000   -7.236408  161.692139  -87.792196   58.840515    0.000000    0.000000    0.000000    0.000000
  0.015200000   -7.236954  161.447784  -87.999754   56.183640    0.000000    0.000000    0.000000    0.000000
  0.015400000   -7.238837  161.193512  -88.330890   54.071095    0.000000    0.000000    0.000000    0.000000
  0.015600000   -7.238308  160.996552  -87.410187   49.591103    0.000000    0.000000    0.000000    0.000000
  0.015800000   -7.239697  160.718567  -88.339736   55.087452    0.000000    0.000000    0.000000    0.000000
  0.016000000   -7.241290  160.476486  -88.487207   53.737698    0.000000    0.000000    0.000000    0.000000
  0.016200000   -7.240350  160.226929  -88.495824   54.186794    0.000000    0.000000    0.000000    0.000000
  0.016400000   -7.241272  160.016479  -88.532440   53.775578    0.000000    0.000000    0.000000    0.000000
  0.016600000   -7.241361  159.781326  -89.178007   50.168957    0.000000    0.000000    0.000000    0.000000
  0.016800000   -7.238667  159.545181  -88.182642   48.678104    0.000000    0.000000    0.000000    0.000000
  0.017000000   -7.241463  159.283020  -88.654976   42.901894    0.000000    0.000000    0.000000    0.000000
  0.017200000   -7.241299  159.096771  -88.443479   49.131569    0.000000    0.000000    0.000000    0.000000
  0.017400000   -7.239592  158.845535  -88.356175   44.134468    0.000000    0.000000    0.000000    0.000000
  0.017600000   -7.245356  158.576187  -89.312525   44.929214    0.000000    0.000000    0.000000    0.000000
  0.017800000   -7.245497  158.335663  -89.672706   41.258820    0.000000    0.000000    0.000000    0.000000
  0.018000000   -7.249160  158.111542  -89.899198   39.551888    0.000000    0.000000    0.000000    0.000000
  0.018200000   -7.248866  157.871429  -89.764722   40.447014    0.000000    0.000000    0.000000    0.000000
  0.018400000   -7.257641  157.645584  -90.193364   36.405952    0.000000    0.000000    0.000000    0.000000
  0.018600000   -7.253233  157.395996  -90.862360   39.663918    0.000000    0.000000    0.000000    0.000000
  0.018800000   -7.256991  157.178131  -90.724282   30.888605    0.000000    0.000000    0.000000    0.000000
  0.019000000   -7.258354  156.910721  -90.294094   28.604042    0.000000    0.000000    0.000000    0.000000
  0.019200000   -7.258442  156.684326  -91.447155   37.535042    0.000000    0.000000    0.000000    0.000000
  0.019400000   -7.256284  156.455765  -91.382050   35.571384    0.000000    0.000000    0.000000    0.000000
  0.019600000   -7.262049  156.207077  -91.423606   30.508432    0.000000    0.000000    0.000000    0.000000
  0.019800000   -7.265662  155.970154  -90.887806   34.051353    0.000000    0.000000    0.000000    0.000000
  0.020000000   -7.269469  155.735779  -92.348491   38.133209    0.000000    0.000000    0.000000    0.000000
  0.020200000   -7.265650  155.490570  -91.636349   38.668114    0.000000    0.000000    0.000000    0.000000
  0.020400000   -7.261266  155.252350  -92.381056   33.701569    0.000000    0.000000    0.000000    0.000000
  0.020600000   -7.258404  155.015503  -91.938847   42.003189    0.000000    0.000000    0.000000    0.000000
  0.020800000   -7.255754  154.753448  -92.504002   35.974411    0.000000    0.000000    0.000000    0.000000
  0.021000000   -7.258989  154.497208  -91.703081   36.638176    0.000000    0.000000    0.000000    0.000000
  0.021200000   -7.256813  154.235168  -92.087454   40.739895    0.000000    0.000000    0.000000    0.000000
  0.021400000   -7.254892  153.992722  -92.017858   34.703651    0.000000    0.000000    0.000000    0.000000
  0.021600000   -7.257598  153.763260  -92.651231   37.768742    0.000000    0.000000    0.000000    0.000000
  0.021800000   -7.259017  153.538605  -92.778610   38.717590    0.000000    0.000000    0.000000    0.000000
  0.022000000   -7.262895  153.296707  -92.824678   36.717648    0.000000    0.000000    0.000000    0.000000
  0.022200000   -7.260981  153.073349  -93.026776   38.289146    0.000000    0.000000    0.000000    0.000000
  0.022400000   -7.261020  152.819565  -93.217071   39.560040    0.000000    0.000000    0.000000    0.000000
  0.022600000   -7.259817  152.619324  -92.272531   31.614180    0.000000    0.000000    0.000000    0.000000
  0.022800000   -7.265150  152.376541  -93.994323   31.594511    0.000000    0.000000    0.000000    0.000000
  0.023000000   -7.264096  152.138901  -92.425811   31.637838    0.000000    0.000000    0.000000    0.000000
  0.023200000   -7.266888  151.909134  -92.505917   33.463547    0.000000    0.000000    0.000000    0.000000
  0.023400000   -7.264295  151.617050  -92.288302   27.817492    0.000000    0.000000    0.000000    0.000000
  0.023600000   -7.262986  151.432800  -93.834491   20.964794    0.000000    0.000000    0.000000    0.000000
  0.023800000   -7.261074  151.165863  -92.365090   25.853086    0.000000    0.000000    0.000000    0.000000
  0.024000000   -7.262150  150.949234  -92.534359   28.502357    0.000000    0.000000    0.000000    0.000000
  0.024200000   -7.262530  150.683136  -94.054975   22.283924    0.000000    0.000000    0.000000    0.000000
  0.024400000   -7.261970  150.432922  -93.577735   26.696238    0.000000    0.000000    0.000000    0.000000
  0.024600000   -7.262875  150.185577  -94.315301   22.950663    0.000000    0.000000    0.000000    0.000000
  0.024800000   -7.262162  149.937927  -92.950083   24.594353    0.000000    0.000000    0.000000    0.000000
  0.025000000   -7.261561  149.676407  -94.032566   26.666603    0.000000    0.000000    0.000000    0.000000
  0.025200000   -7.258524  149.476807  -94.337844   18.074774    0.000000    0.000000    0.000000    0.000000
  0.025400000   -7.259815  149.269653  -94.691089   15.178513    0.000000    0.000000    0.000000    0.000000
  0.025600000   -7.263626  149.046173  -93.447544   21.541784    0.000000    0.000000    0.000000    0.000000
  0.025800000   -7.267155  148.817535  -95.682802   17.339247    0.000000    0.000000    0.000000    0.000000
  0.026000000   -7.268407  148.610519  -94.957441   20.160042    0.000000    0.000000    0.000000    0.000000
  0.026200000   -7.269724  148.371796  -94.564361   21.752104    0.000000    0.000000    0.000000    0.000000
  0.026400000   -7.272351  148.123413  -95.936572   26.825571    0.000000    0.000000    0.000000    0.000000
  0.026600000   -7.278598  147.903961  -95.016403   24.492405    0.000000    0.000000    0.000000    0.000000
  0.026800000   -7.279285  147.615936  -95.881316   14.114828    0.000000    0.000000    0.000000    0.000000
  0.027000000   -7.279730  147.366669  -95.454330   24.659977    0.000000    0.000000    0.000000    0.000000
  0.027200000   -7.280641  147.063080  -94.757680   17.249851    0.000000    0.000000    0.000000    0.000000
  0.027400000   -7.280281  146.813934  -95.264685   24.296461    0.000000    0.000000    0.000000    0.000000
  0.027600000   -7.271589  146.539932  -95.072953   23.442844    0.000000    0.000000    0.000000    0.000000
  0.027800000   -7.270663  146.315582  -95.316295   27.438232    0.000000    0.000000    0.000000    0.000000
  0.028000000   -7.270603  146.044434  -96.108829   26.296204    0.000000    0.000000    0.000000    0.000000
  0.028200000   -7.268231  145.778168  -96.019982   22.194630    0.000000    0.000000    0.000000    0.000000
  0.028400000   -7.265299  145.557999  -96.231096   19.731277    0.000000    0.000000    0.000000    0.000000
  0.028600000   -7.260821  145.331421  -96.166528   19.080101    0.000000    0.000000    0.000000    0.000000
  0.028800000   -7.259032  145.132721  -96.311225   20.595531    0.000000    0.000000    0.000000    0.000000
  0.029000000   -7.257543  144.924820  -96.372602   23.202177    0.000000    0.000000    0.000000    0.000000
  0.029200000   -7.253625  144.749100  -95.370473   15.092385    0.000000    0.000000    0.000000    0.000000
  0.029400000   -7.251782  144.570099  -95.746150   24.755482    0.000000    0.000000    0.000000    0.000000
  0.029600000   -7.254054  144.366119  -96.938438   20.269371    0.000000    0.000000    0.000000    0.000000
  0.029800000   -7.254448  144.164597  -97.386433   14.299941    0.000000    0.000000    0.000000    0.000000
  0.030000000   -7.257855  143.932556  -97.238937   16.000839    0.000000    0.000000    0.000000    0.000000
  0.030200000   -7.258848  143.690842  -97.183620   17.162176    0.000000    0.000000    0.000000    0.000000
  0.030400000   -7.258397  143.438950  -96.950638   14.141068    0.000000    0.000000    0.000000    0.000000
  0.030600000   -7.261830  143.179123  -96.748017    9.617218    0.000000    0.000000    0.000000    0.000000
  0.030800000   -7.261909  142.931946  -97.327467   14.573295    0.000000    0.000000    0.000000    0.000000
  0.031000000   -7.264810  142.702515  -99.052223    9.760151    0.000000    0.000000    0.000000    0.000000
  0.031200000   -7.259653  142.524536  -96.847538   -3.531875    0.000000    0.000000    0.000000    0.000000
  0.031400000   -7.263772  142.248764  -96.825422   22.322683    0.000000    0.000000    0.000000    0.000000
  0.031600000   -7.265842  142.003098  -96.871476   13.312735    0.000000    0.000000    0.000000    0.000000
  0.031800000   -7.263954  141.731110  -97.620676   17.260014    0.000000    0.000000    0.000000    0.000000
  0.032000000   -7.259619  141.513794  -96.277078    3.854977    0.000000    0.000000    0.000000    0.000000
  0.032200000   -7.265252  141.273666  -96.846010   12.560923    0.000000    0.000000    0.000000    0.000000
  0.032400000   -7.259023  141.009003  -98.525664   14.075035    0.000000    0.000000    0.000000    0.000000
  0.032600000   -7.256994  140.779266  -97.275738    2.308102    0.000000    0.000000    0.000000    0.000000
  0.032800000   -7.252327  140.574326  -96.835543   16.498106    0.000000    0.000000    0.000000    0.000000
  0.033000000   -7.248842  140.361862  -97.698167    9.849422    0.000000    0.000000    0.000000    0.000000
  0.033200000   -7.250586  140.152283  -98.586586    4.497428    0.000000    0.000000    0.000000    0.000000
  0.033400000   -7.250869  139.943359  -99.116544   -0.512268    0.000000    0.000000    0.000000    0.000000
  0.033600000   -7.252595  139.741470  -97.886128   16.618444    0.000000    0.000000    0.000000    0.000000
  0.033800000   -7.257233  139.516418  -97.282266   17.400217    0.000000    0.000000    0.000000    0.000000
  0.034000000   -7.263969  139.232056  -97.204469   10.269957    0.000000    0.000000    0.000000    0.000000
  0.034200000   -7.265080  138.982559  -97.320244    9.052378    0.000000    0.000000    0.000000    0.000000
  0.034400000   -7.269159  138.726486  -98.199780   23.697643    0.000000    0.000000    0.000000    0.000000
  0.034600000   -7.276643  138.442886  -98.958027   12.743796    0.000000    0.000000    0.000000    0.000000
  0.034800000   -7.274854  138.154572  -99.227994   19.218498    0.000000    0.000000    0.000000    0.000000
  0.035000000   -7.281425  137.880402  -99.444388   11.112353    0.000000    0.000000    0.000000    0.000000
  0.035200000   -7.278749  137.631393  -98.832292    9.019103    0.000000    0.000000    0.000000    0.000000
  0.035400000   -7.274857  137.373840  -98.058438    7.675516    0.000000    0.000000    0.000000    0.000000
  0.035600000   -7.270340  137.085510  -98.329250   16.631466    0.000000    0.000000    0.000000    0.000000
  0.035800000   -7.268419  136.802383  -97.827093    2.347190    0.000000    0.000000    0.000000    0.000000
  0.036000000   -7.260034  136.536987 -101.246172    5.357881    0.000000    0.000000    0.000000    0.000000
  0.036200000   -7.252954  136.334717 -100.044565   21.817410    0.000000    0.000000    0.000000    0.000000
  0.036400000   -7.248427  136.096146  -98.999646   13.674216    0.000000    0.000000    0.000000    0.000000
  0.036600000   -7.236294  135.879852  -99.221342    6.097192    0.000000    0.000000    0.000000    0.000000
  0.036800000   -7.233124  135.692261  -98.444193    6.758833    0.000000    0.000000    0.000000    0.000000
  0.037000000   -7.233512  135.478348  -98.912665   14.666062    0.000000    0.000000    0.000000    0.000000
  0.037200000   -7.232441  135.279480  -99.845091    9.199762    0.000000    0.000000    0.000000    0.000000
  0.037400000   -7.230914  135.060440  -99.092189   -9.697261    0.000000    0.000000    0.000000    0.000000
  0.037600000   -7.232313  134.840881  -99.953645    2.595172    0.000000    0.000000    0.000000    0.000000
  0.037800000   -7.235813  134.605972 -100.840574   26.262089    0.000000    0.000000    0.000000    0.000000
  0.038000000   -7.236393  134.392593  -99.338568    9.562563    0.000000    0.000000    0.000000    0.000000
  0.038200000   -7.244956  134.124130 -101.301095   -2.693674    0.000000    0.000000    0.000000    0.000000
  0.038400000   -7.243492  133.909500 -100.130104   15.415984    0.000000    0.000000    0.000000    0.000000
  0.038600000   -7.246621  133.683807 -100.018139   13.364917    0.000000    0.000000    0.000000    0.000000
  0.038800000   -7.247070  133.430588 -102.028215  -10.784561    0.000000    0.000000    0.000000    0.000000
  0.039000000   -7.247311  133.193222 -101.392862   22.264086    0.000000    0.000000    0.000000    0.000000
  0.039200000   -7.246560  132.964920  -98.399674    8.199127    0.000000    0.000000    0.000000    0.000000
  0.039400000   -7.245006  132.734024  -98.905025   12.948467    0.000000    0.000000    0.000000    0.000000
  0.039600000   -7.240141  132.494797  -99.977765   12.671372    0.000000    0.000000    0.000000    0.000000
  0.039800000   -7.238676  132.232224 -101.559855    5.434513    0.000000    0.000000    0.000000    0.000000
  0.040000000   -7.235109  132.016525 -101.344530   12.813896    0.000000    0.000000    0.000000    0.000000
  0.040200000   -7.225551  131.772400  -99.764089   12.991787    0.000000    0.000000    0.000000    0.000000
  0.040400000   -7.221841  131.583725  -99.897090    8.619208    0.000000    0.000000    0.000000    0.000000
  0.040600000   -7.218577  131.407135  -99.079751   19.245903    0.000000    0.000000    0.000000    0.000000
  0.040800000   -7.223517  131.207184 -100.296311    5.527087    0.000000    0.000000    0.000000    0.000000
  0.041000000   -7.221269  131.058121 -100.737689    3.637917    0.000000    0.000000    0.000000    0.000000
  0.041200000   -7.231546  130.828293  -99.193075   23.325020    0.000000    0.000000    0.000000    0.000000
  0.041400000   -7.237596  130.617294 -100.301842    3.151853    0.000000    0.000000    0.000000    0.000000
  0.041600000   -7.243563  130.370163  -98.814485   -8.540479    0.000000    0.000000    0.000000    0.000000
  0.041800000   -7.252462  130.132111 -101.082614    2.447146    0.000000    0.000000    0.000000    0.000000
  0.042000000   -7.254105  129.890152 -100.999378    4.679199    0.000000    0.000000    0.000000    0.000000
  0.042200000   -7.259517  129.637817 -102.572649    2.814838    0.000000    0.000000    0.000000    0.000000
  0.042400000   -7.263997  129.366302 -100.565050    8.070858    0.000000    0.000000    0.000000    0.000000
  0.042600000   -7.261407  129.132278  -99.956543    3.656304    0.000000    0.000000    0.000000    0.000000
  0.042800000   -7.260956  128.839081 -101.766207   -1.360350    0.000000    0.000000    0.000000    0.000000
