! Anritsu VNA Master:                     Model: MS2036C/10/77
! SN:                                  1601066
! /card0/usr/254.ns.sma.r0.32.s2p
! Existing Calibration Information:
! TYPE:                         Current Settings,       Active Cal Settings
! TIME:             	   12/20/2017 02:14:05 PM,    12/20/2017 02:00:00 PM
! INTERNAL TEMP:    	                   47.5 C,                    47.0 C
! # POINTS:         	                      501,                       501
! START FREQ:       	               10.000 MHz,                10.000 MHz
! STOP FREQ:        	              110.000 MHz,               110.000 MHz
! SOURCE POWER:     	                     High,                      High
! IFBW:             	                   100 Hz,                    100 Hz
! AVG FACTOR:       	                       1 ,                        1 
! REF PLANE 1:      	                     0 mm,                      0 mm
! REF PLANE 2:      	                     0 mm,                      0 mm
! CAL TYPE:         	                 Full S11,                  Full S11
! CAL METHOD:       	                     SOLT,                      SOLT
! CAL LINE TYPE:    	                     Coax,                      Coax
! DUT PORT 1:       	                N-Conn(F),                 N-Conn(F)
! DUT PORT 2:       	                K-Conn(F),                 K-Conn(F)
! CAL STATUS:       	        OK: Accuracy High,                        --
# GHZ S DB R 50.0
! FREQ.GHZ       S11DB        S11A       S21DB        S21A       S12DB        S12A       S22DB        S22A
  0.010000000  -44.200911   66.149300  -83.134824   76.886276    0.000000    0.000000    0.000000    0.000000
  0.010200000  -43.868480   63.034027  -83.215868   76.683975    0.000000    0.000000    0.000000    0.000000
  0.010400000  -43.914065   65.137955  -83.268605   75.180389    0.000000    0.000000    0.000000    0.000000
  0.010600000  -43.898641   64.649612  -84.198697   73.455200    0.000000    0.000000    0.000000    0.000000
  0.010800000  -43.783654   64.099724  -84.113570   72.018166    0.000000    0.000000    0.000000    0.000000
  0.011000000  -43.858402   62.872952  -83.697397   68.779007    0.000000    0.000000    0.000000    0.000000
  0.011200000  -43.563233   64.961266  -84.220310   70.608948    0.000000    0.000000    0.000000    0.000000
  0.011400000  -43.792773   63.094883  -84.465472   66.901901    0.000000    0.000000    0.000000    0.000000
  0.011600000  -43.655301   62.433182  -84.822146   67.170120    0.000000    0.000000    0.000000    0.000000
  0.011800000  -43.175489   63.518711  -85.000067   62.504631    0.000000    0.000000    0.000000    0.000000
  0.012000000  -42.966046   61.364845  -85.085427   65.667336    0.000000    0.000000    0.000000    0.000000
  0.012200000  -43.205877   60.936344  -85.750400   67.173477    0.000000    0.000000    0.000000    0.000000
  0.012400000  -42.858307   61.905243  -85.549818   64.657265    0.000000    0.000000    0.000000    0.000000
  0.012600000  -42.827080   60.329933  -85.611550   61.254250    0.000000    0.000000    0.000000    0.000000
  0.012800000  -42.790874   60.222694  -85.662028   59.695381    0.000000    0.000000    0.000000    0.000000
  0.013000000  -42.613843   59.704651  -85.624166   64.877083    0.000000    0.000000    0.000000    0.000000
  0.013200000  -42.501022   59.399315  -86.183664   58.503078    0.000000    0.000000    0.000000    0.000000
  0.013400000  -42.435516   59.459602  -85.831523   60.693718    0.000000    0.000000    0.000000    0.000000
  0.013600000  -42.260762   60.194206  -86.240414   60.918968    0.000000    0.000000    0.000000    0.000000
  0.013800000  -42.074424   58.950153  -86.757852   58.752419    0.000000    0.000000    0.000000    0.000000
  0.014000000  -42.166154   59.929581  -86.980761   59.527740    0.000000    0.000000    0.000000    0.000000
  0.014200000  -41.865070   59.617271  -87.031713   56.857239    0.000000    0.000000    0.000000    0.000000
  0.014400000  -41.601657   59.684414  -87.529979   55.379902    0.000000    0.000000    0.000000    0.000000
  0.014600000  -41.914866   59.702057  -87.788490   54.873627    0.000000    0.000000    0.000000    0.000000
  0.014800000  -41.525393   60.811298  -87.274059   52.151257    0.000000    0.000000    0.000000    0.000000
  0.015000000  -41.336230   59.529190  -87.758374   54.158226    0.000000    0.000000    0.000000    0.000000
  0.015200000  -41.307279   59.908775  -87.387008   51.461174    0.000000    0.000000    0.000000    0.000000
  0.015400000  -41.212500   59.608494  -88.256348   51.762657    0.000000    0.000000    0.000000    0.000000
  0.015600000  -41.108730   59.586838  -88.384614   46.210846    0.000000    0.000000    0.000000    0.000000
  0.015800000  -41.154231   60.651978  -88.217959   48.778545    0.000000    0.000000    0.000000    0.000000
  0.016000000  -40.955399   59.330662  -88.243451   48.947025    0.000000    0.000000    0.000000    0.000000
  0.016200000  -40.882228   59.985706  -88.595073   46.280338    0.000000    0.000000    0.000000    0.000000
  0.016400000  -41.028630   60.233143  -88.971732   44.912022    0.000000    0.000000    0.000000    0.000000
  0.016600000  -40.911430   59.331108  -89.123832   47.142902    0.000000    0.000000    0.000000    0.000000
  0.016800000  -40.926861   60.036774  -88.808815   48.585526    0.000000    0.000000    0.000000    0.000000
  0.017000000  -40.894600   60.513859  -88.831634   43.630089    0.000000    0.000000    0.000000    0.000000
  0.017200000  -40.735416   59.720421  -89.087103   53.163704    0.000000    0.000000    0.000000    0.000000
  0.017400000  -40.675303   59.542011  -89.121958   45.803326    0.000000    0.000000    0.000000    0.000000
  0.017600000  -40.557550   60.027809  -89.798996   38.607742    0.000000    0.000000    0.000000    0.000000
  0.017800000  -40.494458   59.125698  -90.504189   39.791733    0.000000    0.000000    0.000000    0.000000
  0.018000000  -40.592986   58.723911  -90.288488   39.522919    0.000000    0.000000    0.000000    0.000000
  0.018200000  -40.530990   58.499260  -90.899455   39.623177    0.000000    0.000000    0.000000    0.000000
  0.018400000  -40.330903   57.368801  -90.285373   41.059158    0.000000    0.000000    0.000000    0.000000
  0.018600000  -40.357217   57.504372  -90.310594   41.827160    0.000000    0.000000    0.000000    0.000000
  0.018800000  -40.416571   58.260147  -90.024836   39.580040    0.000000    0.000000    0.000000    0.000000
  0.019000000  -40.052664   57.650360  -90.377470   39.416069    0.000000    0.000000    0.000000    0.000000
  0.019200000  -40.184889   57.528477  -90.558064   45.857044    0.000000    0.000000    0.000000    0.000000
  0.019400000  -40.101034   57.634125  -90.786002   39.417576    0.000000    0.000000    0.000000    0.000000
  0.019600000  -39.899263   56.473404  -90.876243   39.206406    0.000000    0.000000    0.000000    0.000000
  0.019800000  -39.852066   56.775761  -90.006660   41.874348    0.000000    0.000000    0.000000    0.000000
  0.020000000  -39.796812   55.520256  -91.515956   41.868774    0.000000    0.000000    0.000000    0.000000
  0.020200000  -39.665813   55.822044  -90.898584   40.863262    0.000000    0.000000    0.000000    0.000000
  0.020400000  -39.737529   56.427170  -92.023195   35.326023    0.000000    0.000000    0.000000    0.000000
  0.020600000  -39.568262   55.775280  -91.272114   31.808962    0.000000    0.000000    0.000000    0.000000
  0.020800000  -39.474802   56.236019  -91.792694   33.162781    0.000000    0.000000    0.000000    0.000000
  0.021000000  -39.351146   55.975731  -91.543349   34.080399    0.000000    0.000000    0.000000    0.000000
  0.021200000  -39.112607   55.746532  -91.282354   38.055954    0.000000    0.000000    0.000000    0.000000
  0.021400000  -39.205907   55.894600  -91.343852   34.832787    0.000000    0.000000    0.000000    0.000000
  0.021600000  -39.040466   56.449234  -92.550808   34.253918    0.000000    0.000000    0.000000    0.000000
  0.021800000  -39.079868   55.809933  -92.249155   34.698582    0.000000    0.000000    0.000000    0.000000
  0.022000000  -38.919094   55.224064  -92.591440   30.467155    0.000000    0.000000    0.000000    0.000000
  0.022200000  -39.024090   55.920406  -92.764594   31.137449    0.000000    0.000000    0.000000    0.000000
  0.022400000  -38.810733   56.022690  -92.066233   32.903336    0.000000    0.000000    0.000000    0.000000
  0.022600000  -38.743353   56.037739  -92.854747   31.084877    0.000000    0.000000    0.000000    0.000000
  0.022800000  -38.751921   55.586613  -92.227284   26.946943    0.000000    0.000000    0.000000    0.000000
  0.023000000  -38.611257   55.801361  -92.849269   33.821152    0.000000    0.000000    0.000000    0.000000
  0.023200000  -38.757087   55.831657  -92.741530   29.469561    0.000000    0.000000    0.000000    0.000000
  0.023400000  -38.542419   55.335865  -92.289587   28.117292    0.000000    0.000000    0.000000    0.000000
  0.023600000  -38.566961   55.267143  -93.621199   33.500370    0.000000    0.000000    0.000000    0.000000
  0.023800000  -38.434388   55.868446  -92.699016   29.461123    0.000000    0.000000    0.000000    0.000000
  0.024000000  -38.450666   55.643982  -93.433041   29.624460    0.000000    0.000000    0.000000    0.000000
  0.024200000  -38.403158   55.758385  -93.962681   31.009312    0.000000    0.000000    0.000000    0.000000
  0.024400000  -38.395187   55.980083  -94.291744   26.910938    0.000000    0.000000    0.000000    0.000000
  0.024600000  -38.324737   55.421154  -93.295099   29.474005    0.000000    0.000000    0.000000    0.000000
  0.024800000  -38.237568   55.222603  -94.395983   25.840420    0.000000    0.000000    0.000000    0.000000
  0.025000000  -38.101866   55.074112  -94.365241   21.521475    0.000000    0.000000    0.000000    0.000000
  0.025200000  -38.224827   55.208935  -94.243982   23.882454    0.000000    0.000000    0.000000    0.000000
  0.025400000  -38.152403   55.219864  -94.346462   22.875032    0.000000    0.000000    0.000000    0.000000
  0.025600000  -38.054922   54.779327  -95.212156   25.299078    0.000000    0.000000    0.000000    0.000000
  0.025800000  -38.075520   54.744370  -94.770025   15.480139    0.000000    0.000000    0.000000    0.000000
  0.026000000  -37.992786   54.369251  -95.154512   24.153225    0.000000    0.000000    0.000000    0.000000
  0.026200000  -37.901822   54.194180  -94.728703   25.310915    0.000000    0.000000    0.000000    0.000000
  0.026400000  -37.876049   54.930973  -94.153590   27.534750    0.000000    0.000000    0.000000    0.000000
  0.026600000  -37.887912   53.519650  -94.625987   18.189753    0.000000    0.000000    0.000000    0.000000
  0.026800000  -37.748253   53.178185  -95.143990   15.139341    0.000000    0.000000    0.000000    0.000000
  0.027000000  -37.638635   53.432037  -95.148917   22.099955    0.000000    0.000000    0.000000    0.000000
  0.027200000  -37.592203   53.118343  -96.718587   20.268097    0.000000    0.000000    0.000000    0.000000
  0.027400000  -37.551233   52.953037  -97.317835   21.765667    0.000000    0.000000    0.000000    0.000000
  0.027600000  -37.405773   53.339348  -95.821821   17.615862    0.000000    0.000000    0.000000    0.000000
  0.027800000  -37.425367   53.289913  -95.464805   17.510698    0.000000    0.000000    0.000000    0.000000
  0.028000000  -37.347028   53.023849  -95.764311   13.833885    0.000000    0.000000    0.000000    0.000000
  0.028200000  -37.203400   53.219810  -96.370309   22.108988    0.000000    0.000000    0.000000    0.000000
  0.028400000  -37.262231   53.154228  -95.378833   23.768757    0.000000    0.000000    0.000000    0.000000
  0.028600000  -37.235787   53.242302  -96.127652   20.435749    0.000000    0.000000    0.000000    0.000000
  0.028800000  -37.213318   52.981014  -95.535032   20.714161    0.000000    0.000000    0.000000    0.000000
  0.029000000  -37.073889   53.047138  -96.752498   20.089445    0.000000    0.000000    0.000000    0.000000
  0.029200000  -37.030350   52.871159  -96.038862   20.471798    0.000000    0.000000    0.000000    0.000000
  0.029400000  -37.058511   52.957348  -96.258265   23.771427    0.000000    0.000000    0.000000    0.000000
  0.029600000  -37.008101   53.319546  -96.466256   12.507922    0.000000    0.000000    0.000000    0.000000
  0.029800000  -37.036868   53.396133  -96.769678   16.039351    0.000000    0.000000    0.000000    0.000000
  0.030000000  -36.976622   52.909145  -96.307893   13.081473    0.000000    0.000000    0.000000    0.000000
  0.030200000  -36.848473   53.103756  -96.900294   18.525021    0.000000    0.000000    0.000000    0.000000
  0.030400000  -36.825097   52.930111  -96.379384   14.351897    0.000000    0.000000    0.000000    0.000000
  0.030600000  -36.784050   52.242580  -96.048927   23.163862    0.000000    0.000000    0.000000    0.000000
  0.030800000  -36.686206   52.973186  -95.810523   21.102104    0.000000    0.000000    0.000000    0.000000
  0.031000000  -36.713013   52.365055  -96.457845   17.877205    0.000000    0.000000    0.000000    0.000000
  0.031200000  -36.764001   52.238987 -100.483939    0.996557    0.000000    0.000000    0.000000    0.000000
  0.031400000  -36.706984   52.195004  -95.752287   11.403677    0.000000    0.000000    0.000000    0.000000
  0.031600000  -36.677770   53.027992  -99.296189   16.965494    0.000000    0.000000    0.000000    0.000000
  0.031800000  -36.619620   52.348610  -96.444167    6.877075    0.000000    0.000000    0.000000    0.000000
  0.032000000  -36.661774   52.457108  -98.079807   29.866512    0.000000    0.000000    0.000000    0.000000
  0.032200000  -36.606321   51.328449  -99.126255   16.013029    0.000000    0.000000    0.000000    0.000000
  0.032400000  -36.485169   51.593601  -99.005234   11.718680    0.000000    0.000000    0.000000    0.000000
  0.032600000  -36.550860   51.451782  -98.775251    3.283032    0.000000    0.000000    0.000000    0.000000
  0.032800000  -36.536717   51.629490  -98.431321   14.077494    0.000000    0.000000    0.000000    0.000000
  0.033000000  -36.465134   51.167542  -97.752839    5.249792    0.000000    0.000000    0.000000    0.000000
  0.033200000  -36.578515   51.487015  -95.965133   -0.396599    0.000000    0.000000    0.000000    0.000000
  0.033400000  -36.434181   50.925282  -97.321667   18.595598    0.000000    0.000000    0.000000    0.000000
  0.033600000  -36.396565   50.876106  -98.917492   23.936245    0.000000    0.000000    0.000000    0.000000
  0.033800000  -36.340595   50.426994  -97.646264   18.414871    0.000000    0.000000    0.000000    0.000000
  0.034000000  -36.200270   48.914337  -99.046546    3.371724    0.000000    0.000000    0.000000    0.000000
  0.034200000  -36.149287   49.660194  -98.676546   14.907839    0.000000    0.000000    0.000000    0.000000
  0.034400000  -36.122939   49.445000  -99.900400   12.950106    0.000000    0.000000    0.000000    0.000000
  0.034600000  -36.036215   49.085434 -100.787854    3.454028    0.000000    0.000000    0.000000    0.000000
  0.034800000  -35.981671   49.404102  -98.244013   13.534039    0.000000    0.000000    0.000000    0.000000
  0.035000000  -35.897718   48.920418  -99.228721   25.336210    0.000000    0.000000    0.000000    0.000000
  0.035200000  -35.800515   49.093094  -98.679273    9.579232    0.000000    0.000000    0.000000    0.000000
  0.035400000  -35.800643   48.988964  -98.175614    1.783407    0.000000    0.000000    0.000000    0.000000
  0.035600000  -35.710529   49.346104  -97.897958    8.037382    0.000000    0.000000    0.000000    0.000000
  0.035800000  -35.501323   48.554199  -99.015864    6.317435    0.000000    0.000000    0.000000    0.000000
  0.036000000  -35.669376   48.550503  -98.276947    1.369161    0.000000    0.000000    0.000000    0.000000
  0.036200000  -35.449018   49.180401 -100.189168   -4.446231    0.000000    0.000000    0.000000    0.000000
  0.036400000  -35.483727   48.625198 -100.662612   19.130882    0.000000    0.000000    0.000000    0.000000
  0.036600000  -35.384131   49.597267  -98.042275   24.533218    0.000000    0.000000    0.000000    0.000000
  0.036800000  -35.341415   49.984142  -98.381571   10.733130    0.000000    0.000000    0.000000    0.000000
  0.037000000  -35.342010   49.866982  -97.287562    6.072721    0.000000    0.000000    0.000000    0.000000
  0.037200000  -35.386026   49.605206 -100.022852    3.619540    0.000000    0.000000    0.000000    0.000000
  0.037400000  -35.255543   50.339474 -100.791150    3.091368    0.000000    0.000000    0.000000    0.000000
  0.037600000  -35.169353   50.168560 -100.124404    5.325752    0.000000    0.000000    0.000000    0.000000
  0.037800000  -35.289615   50.342300  -99.513870    9.923871    0.000000    0.000000    0.000000    0.000000
  0.038000000  -35.299283   50.699142  -98.895319    4.195085    0.000000    0.000000    0.000000    0.000000
  0.038200000  -35.235498   49.982323  -99.461239   16.620121    0.000000    0.000000    0.000000    0.000000
  0.038400000  -35.254868   50.164948 -100.094155   18.361921    0.000000    0.000000    0.000000    0.000000
  0.038600000  -35.292600   50.807472  -99.480172    2.042585    0.000000    0.000000    0.000000    0.000000
  0.038800000  -35.271637   50.133179  -98.849741    7.469459    0.000000    0.000000    0.000000    0.000000
  0.039000000  -35.249351   50.294918 -101.068980    1.386961    0.000000    0.000000    0.000000    0.000000
  0.039200000  -35.195562   50.905056 -101.698647    3.864394    0.000000    0.000000    0.000000    0.000000
  0.039400000  -35.247943   50.599724  -97.781508    9.459564    0.000000    0.000000    0.000000    0.000000
  0.039600000  -35.235158   50.119366 -100.550908    7.118800    0.000000    0.000000    0.000000    0.000000
  0.039800000  -35.172758   49.913952  -99.099200    3.898659    0.000000    0.000000    0.000000    0.000000
  0.040000000  -35.242204   50.315960  -98.532328   24.313019    0.000000    0.000000    0.000000    0.000000
  0.040200000  -35.085083   50.054077 -100.444453    1.874712    0.000000    0.000000    0.000000    0.000000
  0.040400000  -35.186301   50.223091 -101.537403   -2.126173    0.000000    0.000000    0.000000    0.000000
  0.040600000  -35.192492   49.480385 -100.109120   18.395023    0.000000    0.000000    0.000000    0.000000
  0.040800000  -35.167908   48.925972 -101.487230    0.266451    0.000000    0.000000    0.000000    0.000000
  0.041000000  -35.198508   49.839680 -102.887321    7.120088    0.000000    0.000000    0.000000    0.000000
  0.041200000  -35.243417   48.337429 -100.937385   -6.036114    0.000000    0.000000    0.000000    0.000000
  0.041400000  -35.191702   48.527355  -99.518369   -0.590023    0.000000    0.000000    0.000000    0.000000
  0.041600000  -35.208090   48.048084 -101.013236   10.689281    0.000000    0.000000    0.000000    0.000000
  0.041800000  -35.183129   47.756725 -100.543280   12.354503    0.000000    0.000000    0.000000    0.000000
  0.042000000  -35.122555   47.442177  -99.184453   17.830585    0.000000    0.000000    0.000000    0.000000
  0.042200000  -35.049082   47.066418 -102.757961   14.163170    0.000000    0.000000    0.000000    0.000000
  0.042400000  -35.059749   47.023048 -101.816157    3.491496    0.000000    0.000000    0.000000    0.000000
  0.042600000  -35.088023   47.232548 -100.089157    2.569228    0.000000    0.000000    0.000000    0.000000
  0.042800000  -34.912684   46.469391 -101.301505    8.204414    0.000000    0.000000    0.000000    0.000000
