! Anritsu VNA Master:                     Model: MS2036C/10/77
! SN:                                  1601066
! /card0/usr/254.ew.sma.me2.s2p
! Existing Calibration Information:
! TYPE:                         Current Settings,       Active Cal Settings
! TIME:             	   12/20/2017 12:58:32 PM,    12/20/2017 12:55:07 PM
! INTERNAL TEMP:    	                   44.3 C,                    44.3 C
! # POINTS:         	                      501,                       501
! START FREQ:       	               10.000 MHz,                10.000 MHz
! STOP FREQ:        	              110.000 MHz,               110.000 MHz
! SOURCE POWER:     	                     High,                      High
! IFBW:             	                   100 Hz,                    100 Hz
! AVG FACTOR:       	                       1 ,                        1 
! REF PLANE 1:      	                     0 mm,                      0 mm
! REF PLANE 2:      	                     0 mm,                      0 mm
! CAL TYPE:         	                 Full S11,                  Full S11
! CAL METHOD:       	                     SOLT,                      SOLT
! CAL LINE TYPE:    	                     Coax,                      Coax
! DUT PORT 1:       	                N-Conn(F),                 N-Conn(F)
! DUT PORT 2:       	                K-Conn(F),                 K-Conn(F)
! CAL STATUS:       	        OK: Accuracy High,                        --
# GHZ S DB R 50.0
! FREQ.GHZ       S11DB        S11A       S21DB        S21A       S12DB        S12A       S22DB        S22A
  0.010000000   -0.628888  -58.432858  -84.814205   78.866745    0.000000    0.000000    0.000000    0.000000
  0.010200000   -0.614531  -59.631847  -84.735282   84.572098    0.000000    0.000000    0.000000    0.000000
  0.010400000   -0.610807  -60.908882  -85.110527   80.576424    0.000000    0.000000    0.000000    0.000000
  0.010600000   -0.615489  -62.157017  -84.954300   84.292145    0.000000    0.000000    0.000000    0.000000
  0.010800000   -0.618021  -63.432610  -84.540327   84.057602    0.000000    0.000000    0.000000    0.000000
  0.011000000   -0.617294  -64.715736  -84.167489   83.080269    0.000000    0.000000    0.000000    0.000000
  0.011200000   -0.613129  -65.950691  -84.076378   80.876511    0.000000    0.000000    0.000000    0.000000
  0.011400000   -0.615595  -67.237076  -83.726743   81.570709    0.000000    0.000000    0.000000    0.000000
  0.011600000   -0.616155  -68.477081  -83.762626   76.484909    0.000000    0.000000    0.000000    0.000000
  0.011800000   -0.615615  -69.717606  -83.723415   73.383156    0.000000    0.000000    0.000000    0.000000
  0.012000000   -0.617670  -71.008873  -84.480943   71.063286    0.000000    0.000000    0.000000    0.000000
  0.012200000   -0.613920  -72.296822  -83.526822   70.133575    0.000000    0.000000    0.000000    0.000000
  0.012400000   -0.612516  -73.595253  -84.324966   65.548920    0.000000    0.000000    0.000000    0.000000
  0.012600000   -0.610989  -74.867630  -84.033692   60.945465    0.000000    0.000000    0.000000    0.000000
  0.012800000   -0.609845  -76.149940  -84.549694   61.594070    0.000000    0.000000    0.000000    0.000000
  0.013000000   -0.607833  -77.444992  -84.654149   57.661938    0.000000    0.000000    0.000000    0.000000
  0.013200000   -0.604296  -78.719994  -85.241022   58.115574    0.000000    0.000000    0.000000    0.000000
  0.013400000   -0.604649  -80.000267  -85.022496   55.652790    0.000000    0.000000    0.000000    0.000000
  0.013600000   -0.600066  -81.283714  -85.556390   50.008888    0.000000    0.000000    0.000000    0.000000
  0.013800000   -0.596725  -82.577003  -86.148317   49.824383    0.000000    0.000000    0.000000    0.000000
  0.014000000   -0.599637  -83.869453  -86.509652   48.251278    0.000000    0.000000    0.000000    0.000000
  0.014200000   -0.601860  -85.188210  -87.148353   48.397156    0.000000    0.000000    0.000000    0.000000
  0.014400000   -0.602038  -86.512115  -87.004533   48.115894    0.000000    0.000000    0.000000    0.000000
  0.014600000   -0.606221  -87.823006  -87.576677   48.365467    0.000000    0.000000    0.000000    0.000000
  0.014800000   -0.607608  -89.155869  -88.525895   47.546070    0.000000    0.000000    0.000000    0.000000
  0.015000000   -0.609677  -90.504448  -88.819926   44.205227    0.000000    0.000000    0.000000    0.000000
  0.015200000   -0.606690  -91.822647  -89.168997   49.693691    0.000000    0.000000    0.000000    0.000000
  0.015400000   -0.606537  -93.152405  -89.825207   46.283127    0.000000    0.000000    0.000000    0.000000
  0.015600000   -0.608572  -94.435020  -89.386131   52.767403    0.000000    0.000000    0.000000    0.000000
  0.015800000   -0.597684  -95.811752  -89.275230   53.522671    0.000000    0.000000    0.000000    0.000000
  0.016000000   -0.596984  -97.146843  -89.961618   56.743397    0.000000    0.000000    0.000000    0.000000
  0.016200000   -0.596560  -98.519890  -90.279127   52.364567    0.000000    0.000000    0.000000    0.000000
  0.016400000   -0.594981  -99.878181  -89.601195   54.398830    0.000000    0.000000    0.000000    0.000000
  0.016600000   -0.592895 -101.246880  -88.768179   54.657505    0.000000    0.000000    0.000000    0.000000
  0.016800000   -0.590933 -102.655769  -89.612425   58.296600    0.000000    0.000000    0.000000    0.000000
  0.017000000   -0.584952 -104.039658  -89.530369   54.974579    0.000000    0.000000    0.000000    0.000000
  0.017200000   -0.582784 -105.391289  -89.566630   51.635201    0.000000    0.000000    0.000000    0.000000
  0.017400000   -0.590399 -106.774857  -88.952473   54.048103    0.000000    0.000000    0.000000    0.000000
  0.017600000   -0.593795 -108.135872  -89.064498   53.747665    0.000000    0.000000    0.000000    0.000000
  0.017800000   -0.595225 -109.508980  -88.537564   50.550846    0.000000    0.000000    0.000000    0.000000
  0.018000000   -0.595738 -110.902451  -88.754814   49.899578    0.000000    0.000000    0.000000    0.000000
  0.018200000   -0.599193 -112.294037  -89.035274   45.762669    0.000000    0.000000    0.000000    0.000000
  0.018400000   -0.595459 -113.703506  -89.222565   45.540531    0.000000    0.000000    0.000000    0.000000
  0.018600000   -0.597855 -115.103142  -89.345867   43.238522    0.000000    0.000000    0.000000    0.000000
  0.018800000   -0.592588 -116.517784  -88.768607   39.851532    0.000000    0.000000    0.000000    0.000000
  0.019000000   -0.589864 -117.961670  -89.645200   40.676758    0.000000    0.000000    0.000000    0.000000
  0.019200000   -0.588168 -119.402283  -89.251325   34.940491    0.000000    0.000000    0.000000    0.000000
  0.019400000   -0.591105 -120.846359  -90.473323   36.513901    0.000000    0.000000    0.000000    0.000000
  0.019600000   -0.589026 -122.314285  -90.258135   35.190102    0.000000    0.000000    0.000000    0.000000
  0.019800000   -0.588592 -123.772659  -90.532540   32.500759    0.000000    0.000000    0.000000    0.000000
  0.020000000   -0.582702 -125.252708  -91.859138   30.530939    0.000000    0.000000    0.000000    0.000000
  0.020200000   -0.578331 -126.682632  -91.509221   33.346466    0.000000    0.000000    0.000000    0.000000
  0.020400000   -0.578836 -128.134537  -91.564701   28.929775    0.000000    0.000000    0.000000    0.000000
  0.020600000   -0.576283 -129.610565  -91.678173   32.643719    0.000000    0.000000    0.000000    0.000000
  0.020800000   -0.581182 -131.097260  -92.772855   30.777243    0.000000    0.000000    0.000000    0.000000
  0.021000000   -0.585806 -132.608444  -92.088875   37.304108    0.000000    0.000000    0.000000    0.000000
  0.021200000   -0.590701 -134.137833  -92.451644   35.504971    0.000000    0.000000    0.000000    0.000000
  0.021400000   -0.594097 -135.650620  -93.558377   28.387058    0.000000    0.000000    0.000000    0.000000
  0.021600000   -0.597581 -137.182449  -93.690706   29.648779    0.000000    0.000000    0.000000    0.000000
  0.021800000   -0.600173 -138.703110  -92.477246   34.936134    0.000000    0.000000    0.000000    0.000000
  0.022000000   -0.603476 -140.243484  -93.395382   36.265617    0.000000    0.000000    0.000000    0.000000
  0.022200000   -0.606731 -141.809708  -92.545855   34.103096    0.000000    0.000000    0.000000    0.000000
  0.022400000   -0.609846 -143.364243  -93.315304   33.942467    0.000000    0.000000    0.000000    0.000000
  0.022600000   -0.615437 -144.942703  -94.283579   34.847839    0.000000    0.000000    0.000000    0.000000
  0.022800000   -0.618439 -146.534317  -92.395147   37.402477    0.000000    0.000000    0.000000    0.000000
  0.023000000   -0.617854 -148.121704  -92.586709   34.483147    0.000000    0.000000    0.000000    0.000000
  0.023200000   -0.617914 -149.695190  -92.769127   41.257877    0.000000    0.000000    0.000000    0.000000
  0.023400000   -0.621625 -151.285278  -92.921814   34.657375    0.000000    0.000000    0.000000    0.000000
  0.023600000   -0.623839 -152.894058  -93.373282   34.707878    0.000000    0.000000    0.000000    0.000000
  0.023800000   -0.633005 -154.496277  -93.109414   24.612204    0.000000    0.000000    0.000000    0.000000
  0.024000000   -0.639740 -156.118637  -93.281162   32.093735    0.000000    0.000000    0.000000    0.000000
  0.024200000   -0.649584 -157.763062  -92.645849   28.875307    0.000000    0.000000    0.000000    0.000000
  0.024400000   -0.655044 -159.414749  -92.439311   29.499508    0.000000    0.000000    0.000000    0.000000
  0.024600000   -0.662210 -161.071930  -93.800580   31.403811    0.000000    0.000000    0.000000    0.000000
  0.024800000   -0.672299 -162.726318  -92.754257   21.238369    0.000000    0.000000    0.000000    0.000000
  0.025000000   -0.678409 -164.387146  -92.864482   25.918209    0.000000    0.000000    0.000000    0.000000
  0.025200000   -0.690093 -166.053497  -93.586754   25.549948    0.000000    0.000000    0.000000    0.000000
  0.025400000   -0.702796 -167.749619  -93.774874   21.345406    0.000000    0.000000    0.000000    0.000000
  0.025600000   -0.713395 -169.458771  -94.762595   13.724929    0.000000    0.000000    0.000000    0.000000
  0.025800000   -0.722488 -171.184204  -94.014887   11.522864    0.000000    0.000000    0.000000    0.000000
  0.026000000   -0.732725 -172.903351  -94.618788   18.155369    0.000000    0.000000    0.000000    0.000000
  0.026200000   -0.741683 -174.636032  -95.263315   17.003103    0.000000    0.000000    0.000000    0.000000
  0.026400000   -0.752839 -176.370514  -95.772711   13.144152    0.000000    0.000000    0.000000    0.000000
  0.026600000   -0.767050 -178.109833  -95.359649   12.164921    0.000000    0.000000    0.000000    0.000000
  0.026800000   -0.777587 -179.871658  -96.012277   14.134514    0.000000    0.000000    0.000000    0.000000
  0.027000000   -0.793541  178.367798  -95.082490   21.933689    0.000000    0.000000    0.000000    0.000000
  0.027200000   -0.805646  176.597839  -96.166390   16.008057    0.000000    0.000000    0.000000    0.000000
  0.027400000   -0.819681  174.812012  -96.628358   12.444349    0.000000    0.000000    0.000000    0.000000
  0.027600000   -0.833876  173.006073  -95.684849   21.413134    0.000000    0.000000    0.000000    0.000000
  0.027800000   -0.852249  171.199295  -96.462539   22.793726    0.000000    0.000000    0.000000    0.000000
  0.028000000   -0.868682  169.389969  -96.295972   21.340376    0.000000    0.000000    0.000000    0.000000
  0.028200000   -0.888977  167.577072  -96.292673   28.979124    0.000000    0.000000    0.000000    0.000000
  0.028400000   -0.907431  165.732864  -95.640145   26.526613    0.000000    0.000000    0.000000    0.000000
  0.028600000   -0.923252  163.899307  -94.828420   15.968419    0.000000    0.000000    0.000000    0.000000
  0.028800000   -0.939533  162.068634  -96.621119   19.860088    0.000000    0.000000    0.000000    0.000000
  0.029000000   -0.957018  160.264923  -94.945304   22.893665    0.000000    0.000000    0.000000    0.000000
  0.029200000   -0.976170  158.440659  -95.075828   24.371958    0.000000    0.000000    0.000000    0.000000
  0.029400000   -0.996293  156.613144  -95.279609   29.715893    0.000000    0.000000    0.000000    0.000000
  0.029600000   -1.019598  154.750488  -95.842799   21.621132    0.000000    0.000000    0.000000    0.000000
  0.029800000   -1.047153  152.882629  -95.486471   22.088625    0.000000    0.000000    0.000000    0.000000
  0.030000000   -1.075587  150.975998  -95.857116   19.976532    0.000000    0.000000    0.000000    0.000000
  0.030200000   -1.101820  149.050034  -95.841722   18.906408    0.000000    0.000000    0.000000    0.000000
  0.030400000   -1.127133  147.115265  -96.499854   18.422548    0.000000    0.000000    0.000000    0.000000
  0.030600000   -1.154208  145.187897  -97.253678   15.392632    0.000000    0.000000    0.000000    0.000000
  0.030800000   -1.184758  143.272873  -97.162072   12.932031    0.000000    0.000000    0.000000    0.000000
  0.031000000   -1.216313  141.330048  -98.684725   10.137120    0.000000    0.000000    0.000000    0.000000
  0.031200000   -1.244063  139.421295  -96.842227    7.256130    0.000000    0.000000    0.000000    0.000000
  0.031400000   -1.279508  137.401764  -97.277307   23.270878    0.000000    0.000000    0.000000    0.000000
  0.031600000   -1.313706  135.409744  -96.994895   11.811838    0.000000    0.000000    0.000000    0.000000
  0.031800000   -1.345252  133.393921  -97.046271   14.291553    0.000000    0.000000    0.000000    0.000000
  0.032000000   -1.375152  131.385498  -96.706231    8.678361    0.000000    0.000000    0.000000    0.000000
  0.032200000   -1.408543  129.379333  -96.726527   12.632729    0.000000    0.000000    0.000000    0.000000
  0.032400000   -1.439249  127.389534  -99.040684   17.789011    0.000000    0.000000    0.000000    0.000000
  0.032600000   -1.470141  125.402031 -100.202455   16.180553    0.000000    0.000000    0.000000    0.000000
  0.032800000   -1.504781  123.431351  -98.094659    0.325268    0.000000    0.000000    0.000000    0.000000
  0.033000000   -1.542035  121.427612  -97.084377   11.600070    0.000000    0.000000    0.000000    0.000000
  0.033200000   -1.586632  119.443436  -99.152699   10.325974    0.000000    0.000000    0.000000    0.000000
  0.033400000   -1.632387  117.436226  -97.931564    9.343223    0.000000    0.000000    0.000000    0.000000
  0.033600000   -1.684636  115.420555  -99.022930   13.880873    0.000000    0.000000    0.000000    0.000000
  0.033800000   -1.735012  113.373451  -97.250474   28.334759    0.000000    0.000000    0.000000    0.000000
  0.034000000   -1.778640  111.285988  -98.426246   12.924577    0.000000    0.000000    0.000000    0.000000
  0.034200000   -1.823293  109.163261  -97.671153   16.340124    0.000000    0.000000    0.000000    0.000000
  0.034400000   -1.871195  107.021950  -97.979826    9.200161    0.000000    0.000000    0.000000    0.000000
  0.034600000   -1.910250  104.908775  -97.293607    3.866308    0.000000    0.000000    0.000000    0.000000
  0.034800000   -1.951061  102.789734  -97.487772    5.234994    0.000000    0.000000    0.000000    0.000000
  0.035000000   -1.991456  100.694252  -99.726408    0.355507    0.000000    0.000000    0.000000    0.000000
  0.035200000   -2.028969   98.591751  -98.546535    0.099988    0.000000    0.000000    0.000000    0.000000
  0.035400000   -2.065509   96.516808  -98.725674   10.762659    0.000000    0.000000    0.000000    0.000000
  0.035600000   -2.102374   94.426949  -98.901105    5.892549    0.000000    0.000000    0.000000    0.000000
  0.035800000   -2.143915   92.359924  -98.249152    5.423561    0.000000    0.000000    0.000000    0.000000
  0.036000000   -2.185952   90.298248  -98.009039   17.064405    0.000000    0.000000    0.000000    0.000000
  0.036200000   -2.227522   88.265800  -98.399087    1.942263    0.000000    0.000000    0.000000    0.000000
  0.036400000   -2.276672   86.234283  -98.607591   -2.366443    0.000000    0.000000    0.000000    0.000000
  0.036600000   -2.324738   84.205971  -98.204358   10.479802    0.000000    0.000000    0.000000    0.000000
  0.036800000   -2.380961   82.162170 -100.456682   15.684474    0.000000    0.000000    0.000000    0.000000
  0.037000000   -2.431285   80.116287  -99.408377   18.062786    0.000000    0.000000    0.000000    0.000000
  0.037200000   -2.495056   78.036110 -100.344658    3.627564    0.000000    0.000000    0.000000    0.000000
  0.037400000   -2.552800   75.899475 -100.069279   22.279987    0.000000    0.000000    0.000000    0.000000
  0.037600000   -2.610795   73.803230  -98.762477    9.131657    0.000000    0.000000    0.000000    0.000000
  0.037800000   -2.668120   71.681496  -99.262658   -1.268509    0.000000    0.000000    0.000000    0.000000
  0.038000000   -2.723470   69.540756 -102.045090   15.019984    0.000000    0.000000    0.000000    0.000000
  0.038200000   -2.781750   67.366043 -104.148189   25.375299    0.000000    0.000000    0.000000    0.000000
  0.038400000   -2.832067   65.235359 -102.423390   13.451388    0.000000    0.000000    0.000000    0.000000
  0.038600000   -2.883618   63.118073 -101.521531    6.851091    0.000000    0.000000    0.000000    0.000000
  0.038800000   -2.925783   61.042118 -100.791923    8.916339    0.000000    0.000000    0.000000    0.000000
  0.039000000   -2.971509   58.953876 -100.254725    8.996091    0.000000    0.000000    0.000000    0.000000
  0.039200000   -3.018177   56.935852 -100.037726    5.705245    0.000000    0.000000    0.000000    0.000000
  0.039400000   -3.066858   54.915268  -97.908033   14.083951    0.000000    0.000000    0.000000    0.000000
  0.039600000   -3.120350   52.919384 -101.383470   25.126486    0.000000    0.000000    0.000000    0.000000
  0.039800000   -3.175506   50.880222  -99.071440   30.485788    0.000000    0.000000    0.000000    0.000000
  0.040000000   -3.235718   48.852329  -98.820855   12.115034    0.000000    0.000000    0.000000    0.000000
  0.040200000   -3.295805   46.814922 -100.355644   12.040178    0.000000    0.000000    0.000000    0.000000
  0.040400000   -3.357008   44.752838  -98.672860    5.417090    0.000000    0.000000    0.000000    0.000000
  0.040600000   -3.410287   42.695896  -99.665836    0.672725    0.000000    0.000000    0.000000    0.000000
  0.040800000   -3.468902   40.622501 -100.208709    1.030473    0.000000    0.000000    0.000000    0.000000
  0.041000000   -3.525261   38.590294 -100.147374   -0.583815    0.000000    0.000000    0.000000    0.000000
  0.041200000   -3.574384   36.536987  -99.608596   -4.261943    0.000000    0.000000    0.000000    0.000000
  0.041400000   -3.629949   34.490414  -98.878005   -3.618606    0.000000    0.000000    0.000000    0.000000
  0.041600000   -3.680018   32.434536  -99.454783    9.867715    0.000000    0.000000    0.000000    0.000000
  0.041800000   -3.727147   30.391151 -101.564542    3.537311    0.000000    0.000000    0.000000    0.000000
  0.042000000   -3.775310   28.390247 -100.810199   14.496472    0.000000    0.000000    0.000000    0.000000
  0.042200000   -3.820944   26.379026 -102.079488   -6.585429    0.000000    0.000000    0.000000    0.000000
  0.042400000   -3.865943   24.391916 -100.196393   -0.385367    0.000000    0.000000    0.000000    0.000000
  0.042600000   -3.912044   22.424574 -101.205596    1.998728    0.000000    0.000000    0.000000    0.000000
  0.042800000   -3.958078   20.454662  -99.835693   17.930071    0.000000    0.000000    0.000000    0.000000
