! Anritsu VNA Master:                     Model: MS2036C/10/77
! SN:                                  1601066
! /card0/usr/255.ew.sma.r50.v2.s2p
! Existing Calibration Information:
! TYPE:                         Current Settings,       Active Cal Settings
! TIME:             	   12/17/2017 06:16:52 PM,    12/17/2017 06:11:23 PM
! INTERNAL TEMP:    	                   43.8 C,                    43.8 C
! # POINTS:         	                      501,                       501
! START FREQ:       	               10.000 MHz,                10.000 MHz
! STOP FREQ:        	          107.903 125 MHz,           107.903 125 MHz
! SOURCE POWER:     	                     High,                      High
! IFBW:             	                   100 Hz,                    100 Hz
! AVG FACTOR:       	                       1 ,                        1 
! REF PLANE 1:      	                     0 mm,                      0 mm
! REF PLANE 2:      	                     0 mm,                      0 mm
! CAL TYPE:         	                 Full S11,                  Full S11
! CAL METHOD:       	                     SOLT,                      SOLT
! CAL LINE TYPE:    	                     Coax,                      Coax
! DUT PORT 1:       	                K-Conn(F),                 K-Conn(F)
! DUT PORT 2:       	                K-Conn(F),                 K-Conn(F)
! CAL STATUS:       	        OK: Accuracy High,                        --
# GHZ S DB R 50.0
! FREQ.GHZ       S11DB        S11A       S21DB        S21A       S12DB        S12A       S22DB        S22A
  0.010000000  -44.766784   64.691994  -83.161867   75.710419    0.000000    0.000000    0.000000    0.000000
  0.010195806  -44.610662   64.297852  -83.597043   73.159828    0.000000    0.000000    0.000000    0.000000
  0.010391613  -44.628591   64.273262  -83.793713   73.944115    0.000000    0.000000    0.000000    0.000000
  0.010587419  -44.483041   64.839813  -84.003956   73.918159    0.000000    0.000000    0.000000    0.000000
  0.010783225  -44.342461   63.866177  -84.428024   73.970016    0.000000    0.000000    0.000000    0.000000
  0.010979031  -43.991175   63.598076  -84.087096   73.467628    0.000000    0.000000    0.000000    0.000000
  0.011174837  -43.814194   65.568672  -84.279210   71.666382    0.000000    0.000000    0.000000    0.000000
  0.011370644  -43.760967   64.367813  -84.335489   69.379532    0.000000    0.000000    0.000000    0.000000
  0.011566450  -43.751787   65.463310  -84.867326   71.400078    0.000000    0.000000    0.000000    0.000000
  0.011762256  -43.842086   66.071907  -84.667369   68.173386    0.000000    0.000000    0.000000    0.000000
  0.011958062  -43.304921   65.661461  -85.324626   66.267197    0.000000    0.000000    0.000000    0.000000
  0.012153869  -43.213514   64.125191  -85.304878   64.180153    0.000000    0.000000    0.000000    0.000000
  0.012349675  -43.231081   65.770424  -85.262353   63.019184    0.000000    0.000000    0.000000    0.000000
  0.012545481  -43.019532   63.822701  -85.825704   65.550316    0.000000    0.000000    0.000000    0.000000
  0.012741288  -43.028457   63.289551  -86.015780   65.508522    0.000000    0.000000    0.000000    0.000000
  0.012937094  -43.132669   63.087944  -86.120755   62.694740    0.000000    0.000000    0.000000    0.000000
  0.013132900  -42.986846   64.986206  -85.765162   60.714294    0.000000    0.000000    0.000000    0.000000
  0.013328706  -42.760037   64.828293  -86.851700   63.627926    0.000000    0.000000    0.000000    0.000000
  0.013524512  -42.528621   64.058968  -86.595101   58.094460    0.000000    0.000000    0.000000    0.000000
  0.013720319  -42.669561   65.711494  -86.640642   57.676502    0.000000    0.000000    0.000000    0.000000
  0.013916125  -42.523639   64.343323  -86.829817   59.284122    0.000000    0.000000    0.000000    0.000000
  0.014111931  -42.462946   63.425220  -87.350673   59.562523    0.000000    0.000000    0.000000    0.000000
  0.014307738  -42.462155   64.860741  -87.332479   56.798744    0.000000    0.000000    0.000000    0.000000
  0.014503544  -42.433992   64.742424  -87.088561   56.323013    0.000000    0.000000    0.000000    0.000000
  0.014699350  -42.438881   64.278847  -87.635667   55.452736    0.000000    0.000000    0.000000    0.000000
  0.014895156  -42.326434   63.931732  -87.124935   56.730865    0.000000    0.000000    0.000000    0.000000
  0.015090962  -42.213232   63.113640  -87.869474   54.693466    0.000000    0.000000    0.000000    0.000000
  0.015286769  -42.024890   63.888088  -87.778728   50.300274    0.000000    0.000000    0.000000    0.000000
  0.015482575  -41.924056   62.955162  -87.860837   48.474518    0.000000    0.000000    0.000000    0.000000
  0.015678381  -41.973637   63.347694  -88.873297   55.098644    0.000000    0.000000    0.000000    0.000000
  0.015874188  -41.820636   63.596008  -88.762991   49.597710    0.000000    0.000000    0.000000    0.000000
  0.016069994  -41.997796   63.109123  -88.136682   48.558189    0.000000    0.000000    0.000000    0.000000
  0.016265800  -41.647711   62.853401  -88.130520   45.518303    0.000000    0.000000    0.000000    0.000000
  0.016461606  -41.709189   62.486866  -88.979229   46.905983    0.000000    0.000000    0.000000    0.000000
  0.016657412  -41.544725   62.016151  -88.693924   48.953815    0.000000    0.000000    0.000000    0.000000
  0.016853219  -41.461010   62.578758  -89.192301   49.608524    0.000000    0.000000    0.000000    0.000000
  0.017049025  -41.327104   62.500225  -89.664935   45.479031    0.000000    0.000000    0.000000    0.000000
  0.017244831  -41.363004   62.086639  -89.740112   47.606583    0.000000    0.000000    0.000000    0.000000
  0.017440638  -41.232812   61.690228  -89.072493   42.511009    0.000000    0.000000    0.000000    0.000000
  0.017636444  -41.226609   61.673283  -90.309408   44.565727    0.000000    0.000000    0.000000    0.000000
  0.017832250  -41.125339   62.234314  -89.501129   45.841225    0.000000    0.000000    0.000000    0.000000
  0.018028056  -41.031642   61.283249  -90.113821   45.537930    0.000000    0.000000    0.000000    0.000000
  0.018223862  -40.871127   62.089226  -89.758806   45.964142    0.000000    0.000000    0.000000    0.000000
  0.018419669  -40.806042   62.117020  -89.787679   43.623863    0.000000    0.000000    0.000000    0.000000
  0.018615475  -40.678569   61.511879  -91.039145   42.037483    0.000000    0.000000    0.000000    0.000000
  0.018811281  -40.569833   61.521767  -89.945029   47.363522    0.000000    0.000000    0.000000    0.000000
  0.019007087  -40.665422   61.491615  -90.259870   38.297050    0.000000    0.000000    0.000000    0.000000
  0.019202894  -40.572589   61.612411  -90.749758   38.077309    0.000000    0.000000    0.000000    0.000000
  0.019398700  -40.388317   60.915760  -90.819736   43.608788    0.000000    0.000000    0.000000    0.000000
  0.019594506  -40.432110   60.956905  -90.244899   35.027946    0.000000    0.000000    0.000000    0.000000
  0.019790313  -40.450815   60.917568  -91.794709   40.194969    0.000000    0.000000    0.000000    0.000000
  0.019986119  -40.278684   61.304935  -90.556201   38.800816    0.000000    0.000000    0.000000    0.000000
  0.020181925  -40.375361   60.510632  -90.902482   38.606846    0.000000    0.000000    0.000000    0.000000
  0.020377731  -40.445779   62.041256  -91.809063   32.205154    0.000000    0.000000    0.000000    0.000000
  0.020573537  -40.255567   60.458092  -90.997064   36.439220    0.000000    0.000000    0.000000    0.000000
  0.020769344  -40.095254   61.147720  -90.943310   36.537048    0.000000    0.000000    0.000000    0.000000
  0.020965150  -40.180917   60.668102  -91.760598   34.056435    0.000000    0.000000    0.000000    0.000000
  0.021160956  -40.021536   60.542564  -91.827634   41.172527    0.000000    0.000000    0.000000    0.000000
  0.021356762  -39.959985   61.487801  -91.039541   40.162724    0.000000    0.000000    0.000000    0.000000
  0.021552569  -40.127912   61.569279  -91.067892   36.636078    0.000000    0.000000    0.000000    0.000000
  0.021748375  -39.982765   60.235909  -92.076564   33.493492    0.000000    0.000000    0.000000    0.000000
  0.021944181  -39.999341   60.432045  -92.378958   30.284187    0.000000    0.000000    0.000000    0.000000
  0.022139988  -39.903949   59.917118  -91.650569   36.278965    0.000000    0.000000    0.000000    0.000000
  0.022335794  -39.973591   59.408192  -93.190531   28.567345    0.000000    0.000000    0.000000    0.000000
  0.022531600  -39.874990   60.054642  -93.113381   29.363575    0.000000    0.000000    0.000000    0.000000
  0.022727406  -39.752264   58.926323  -92.395537   35.705074    0.000000    0.000000    0.000000    0.000000
  0.022923213  -39.673772   60.230103  -93.976371   30.322321    0.000000    0.000000    0.000000    0.000000
  0.023119019  -39.627231   58.932415  -92.553385   35.129204    0.000000    0.000000    0.000000    0.000000
  0.023314825  -39.657800   58.081306  -93.007195   29.809595    0.000000    0.000000    0.000000    0.000000
  0.023510631  -39.610220   58.541866  -93.289426   33.593708    0.000000    0.000000    0.000000    0.000000
  0.023706438  -39.540119   58.275208  -93.776689   21.534641    0.000000    0.000000    0.000000    0.000000
  0.023902244  -39.451668   58.698128  -94.101276   23.718674    0.000000    0.000000    0.000000    0.000000
  0.024098050  -39.382018   58.294727  -93.621354   26.814453    0.000000    0.000000    0.000000    0.000000
  0.024293856  -39.365497   57.035175  -93.519801   29.116360    0.000000    0.000000    0.000000    0.000000
  0.024489662  -39.208284   57.938179  -93.788385   29.358898    0.000000    0.000000    0.000000    0.000000
  0.024685469  -39.173442   57.168335  -93.315175   25.464869    0.000000    0.000000    0.000000    0.000000
  0.024881275  -39.205760   57.383480  -93.475893   18.679983    0.000000    0.000000    0.000000    0.000000
  0.025077081  -39.063151   55.771904  -93.337488   29.170769    0.000000    0.000000    0.000000    0.000000
  0.025272888  -39.105569   55.839378  -93.900703   16.292091    0.000000    0.000000    0.000000    0.000000
  0.025468694  -39.033908   55.516930  -93.781772   24.407015    0.000000    0.000000    0.000000    0.000000
  0.025664500  -38.933806   56.421505  -94.673437   22.649591    0.000000    0.000000    0.000000    0.000000
  0.025860306  -38.849578   56.033417  -94.354371   24.673101    0.000000    0.000000    0.000000    0.000000
  0.026056112  -38.879761   55.771313  -95.407998   29.986385    0.000000    0.000000    0.000000    0.000000
  0.026251919  -38.707335   55.572304  -95.679361   21.011293    0.000000    0.000000    0.000000    0.000000
  0.026447725  -38.671954   56.276794  -95.421423   24.591936    0.000000    0.000000    0.000000    0.000000
  0.026643531  -38.635092   55.039524  -95.239959   16.694803    0.000000    0.000000    0.000000    0.000000
  0.026839338  -38.605935   55.540127  -95.690688   16.207233    0.000000    0.000000    0.000000    0.000000
  0.027035144  -38.527467   55.995140  -95.346236   26.147135    0.000000    0.000000    0.000000    0.000000
  0.027230950  -38.427851   55.155212  -96.755437   25.058870    0.000000    0.000000    0.000000    0.000000
  0.027426756  -38.310514   54.899384  -95.165659   25.970970    0.000000    0.000000    0.000000    0.000000
  0.027622562  -38.359003   55.401283  -96.098678   17.329517    0.000000    0.000000    0.000000    0.000000
  0.027818369  -38.283965   55.722073  -95.458266   20.421574    0.000000    0.000000    0.000000    0.000000
  0.028014175  -38.292699   55.596222  -95.193607   16.610350    0.000000    0.000000    0.000000    0.000000
  0.028209981  -38.195781   55.380253  -95.579918   23.680204    0.000000    0.000000    0.000000    0.000000
  0.028405788  -38.200937   54.941700  -96.320167   23.477676    0.000000    0.000000    0.000000    0.000000
  0.028601594  -38.181117   55.064018  -96.295566   18.975958    0.000000    0.000000    0.000000    0.000000
  0.028797400  -38.181196   54.689175  -96.724409   16.490314    0.000000    0.000000    0.000000    0.000000
  0.028993206  -38.246731   55.821526  -96.201352   17.975176    0.000000    0.000000    0.000000    0.000000
  0.029189013  -38.149574   55.674503  -95.247393   20.271818    0.000000    0.000000    0.000000    0.000000
  0.029384819  -38.074186   54.773289  -96.446555   21.233227    0.000000    0.000000    0.000000    0.000000
  0.029580625  -38.153282   55.279427  -95.792132   14.554117    0.000000    0.000000    0.000000    0.000000
  0.029776431  -38.135957   54.998775  -96.007804   21.443480    0.000000    0.000000    0.000000    0.000000
  0.029972237  -38.080271   54.320637  -97.222849   28.839893    0.000000    0.000000    0.000000    0.000000
  0.030168044  -38.125296   53.838837  -97.498656   20.957062    0.000000    0.000000    0.000000    0.000000
  0.030363850  -37.957003   53.375488  -97.004490   16.359232    0.000000    0.000000    0.000000    0.000000
  0.030559656  -37.937729   53.708118  -96.788825   21.296442    0.000000    0.000000    0.000000    0.000000
  0.030755463  -37.990088   53.459412  -96.731952   14.276127    0.000000    0.000000    0.000000    0.000000
  0.030951269  -37.913198   52.876598  -97.469925   19.365215    0.000000    0.000000    0.000000    0.000000
  0.031147075  -37.906471   52.505516  -98.302180   15.081824    0.000000    0.000000    0.000000    0.000000
  0.031342881  -37.698015   52.540604  -97.188944   15.591973    0.000000    0.000000    0.000000    0.000000
  0.031538687  -37.766564   53.131981  -98.263025    9.745234    0.000000    0.000000    0.000000    0.000000
  0.031734494  -37.824330   52.811134  -98.811635    2.364915    0.000000    0.000000    0.000000    0.000000
  0.031930300  -37.739991   51.800129  -97.286710    5.157270    0.000000    0.000000    0.000000    0.000000
  0.032126106  -37.691121   51.633396  -97.023328   10.628499    0.000000    0.000000    0.000000    0.000000
  0.032321913  -37.608655   50.862797  -96.399398   23.434677    0.000000    0.000000    0.000000    0.000000
  0.032517719  -37.586232   50.706963  -98.078176   -3.904264    0.000000    0.000000    0.000000    0.000000
  0.032713525  -37.341309   50.624184  -97.305082   25.816536    0.000000    0.000000    0.000000    0.000000
  0.032909331  -37.542055   50.420113  -98.014488   14.535346    0.000000    0.000000    0.000000    0.000000
  0.033105137  -37.380995   50.028427  -97.897184    6.494867    0.000000    0.000000    0.000000    0.000000
  0.033300944  -37.341448   49.735886  -95.772024    8.285422    0.000000    0.000000    0.000000    0.000000
  0.033496750  -37.249261   49.835617  -98.554507    6.917460    0.000000    0.000000    0.000000    0.000000
  0.033692556  -37.156093   50.127728  -96.107777    4.566427    0.000000    0.000000    0.000000    0.000000
  0.033888362  -37.147099   48.698219  -96.999188   18.370216    0.000000    0.000000    0.000000    0.000000
  0.034084169  -37.205323   48.452175  -97.424581    4.313853    0.000000    0.000000    0.000000    0.000000
  0.034279975  -37.088205   49.682701 -100.359329   12.591376    0.000000    0.000000    0.000000    0.000000
  0.034475781  -36.935699   48.543228  -98.047089   17.024591    0.000000    0.000000    0.000000    0.000000
  0.034671588  -36.932727   48.529552  -99.993620    7.151739    0.000000    0.000000    0.000000    0.000000
  0.034867394  -36.885589   48.726124  -99.169555   12.431494    0.000000    0.000000    0.000000    0.000000
  0.035063200  -36.860033   49.080769  -99.326753   17.470053    0.000000    0.000000    0.000000    0.000000
  0.035259006  -36.783803   49.514473  -97.561040   19.185131    0.000000    0.000000    0.000000    0.000000
  0.035454812  -36.698433   48.499199 -100.628124   27.853609    0.000000    0.000000    0.000000    0.000000
  0.035650619  -36.614854   48.192097  -98.483896    7.000980    0.000000    0.000000    0.000000    0.000000
  0.035846425  -36.480853   48.232151  -98.435627    0.752549    0.000000    0.000000    0.000000    0.000000
  0.036042231  -36.540548   48.420803  -98.258953   16.645800    0.000000    0.000000    0.000000    0.000000
  0.036238037  -36.491109   48.190811 -100.977338   14.223574    0.000000    0.000000    0.000000    0.000000
  0.036433844  -36.416038   49.182899 -100.479614    5.660509    0.000000    0.000000    0.000000    0.000000
  0.036629650  -36.460446   48.531136 -101.112641    9.918998    0.000000    0.000000    0.000000    0.000000
  0.036825456  -36.409987   48.465248  -99.136571    9.407418    0.000000    0.000000    0.000000    0.000000
  0.037021262  -36.326131   48.431389  -99.045276    9.262978    0.000000    0.000000    0.000000    0.000000
  0.037217069  -36.347748   48.397305 -100.234542   11.469335    0.000000    0.000000    0.000000    0.000000
  0.037412875  -36.385873   48.312946  -99.962197   10.280339    0.000000    0.000000    0.000000    0.000000
  0.037608681  -36.268639   48.641182  -99.155063    8.800436    0.000000    0.000000    0.000000    0.000000
  0.037804487  -36.236796   48.589149  -99.748047  -12.015083    0.000000    0.000000    0.000000    0.000000
  0.038000294  -36.162459   47.427895  -99.897977    7.826461    0.000000    0.000000    0.000000    0.000000
  0.038196100  -36.186307   47.556393  -99.269450   14.202221    0.000000    0.000000    0.000000    0.000000
  0.038391906  -36.208535   47.647873 -101.369112   18.574629    0.000000    0.000000    0.000000    0.000000
  0.038587713  -36.093588   47.261299 -104.416900   -4.457867    0.000000    0.000000    0.000000    0.000000
  0.038783519  -36.121242   47.484894 -100.142120    8.231412    0.000000    0.000000    0.000000    0.000000
  0.038979325  -36.047451   47.306679  -98.330524    9.622043    0.000000    0.000000    0.000000    0.000000
  0.039175131  -36.086341   46.913738  -98.610877   17.811892    0.000000    0.000000    0.000000    0.000000
  0.039370938  -36.042639   47.534229 -100.133412    6.172892    0.000000    0.000000    0.000000    0.000000
  0.039566744  -35.909220   47.116829  -99.466027    3.465846    0.000000    0.000000    0.000000    0.000000
  0.039762550  -35.900633   47.183521  -98.687661   -0.919605    0.000000    0.000000    0.000000    0.000000
  0.039958356  -35.875737   46.475353 -100.284132    7.629743    0.000000    0.000000    0.000000    0.000000
  0.040154163  -35.758138   47.092499 -102.291504   -2.183185    0.000000    0.000000    0.000000    0.000000
  0.040349969  -35.761809   46.859207 -101.249402    2.105990    0.000000    0.000000    0.000000    0.000000
  0.040545775  -35.741943   46.506165  -99.660589    9.569466    0.000000    0.000000    0.000000    0.000000
  0.040741581  -35.726270   45.949711 -100.081849   19.792198    0.000000    0.000000    0.000000    0.000000
  0.040937387  -35.764296   46.031513 -100.984223    3.475738    0.000000    0.000000    0.000000    0.000000
  0.041133194  -35.749142   46.541447 -101.195982    1.668880    0.000000    0.000000    0.000000    0.000000
  0.041329000  -35.705523   46.748550 -101.828202    9.050873    0.000000    0.000000    0.000000    0.000000
  0.041524806  -35.666639   46.038925 -102.636462    1.423621    0.000000    0.000000    0.000000    0.000000
  0.041720612  -35.584391   45.559021 -100.444822   15.429288    0.000000    0.000000    0.000000    0.000000
  0.041916419  -35.465581   45.944950 -101.691878    2.913496    0.000000    0.000000    0.000000    0.000000
  0.042112225  -35.565483   46.009384  -98.835877   14.898961    0.000000    0.000000    0.000000    0.000000
