! Anritsu VNA Master:                     Model: MS2036C/10/77
! SN:                                  1601066
! /card0/usr/255.ns.sma.r200.21.s2p
! Existing Calibration Information:
! TYPE:                         Current Settings,       Active Cal Settings
! TIME:             	   12/19/2017 07:14:22 PM,    12/19/2017 06:59:48 PM
! INTERNAL TEMP:    	                   40.0 C,                    39.3 C
! # POINTS:         	                      501,                       501
! START FREQ:       	               10.000 MHz,                10.000 MHz
! STOP FREQ:        	              110.000 MHz,               110.000 MHz
! SOURCE POWER:     	                     High,                      High
! IFBW:             	                   100 Hz,                    100 Hz
! AVG FACTOR:       	                       1 ,                        1 
! REF PLANE 1:      	                     0 mm,                      0 mm
! REF PLANE 2:      	                     0 mm,                      0 mm
! CAL TYPE:         	                 Full S11,                  Full S11
! CAL METHOD:       	                     SOLT,                      SOLT
! CAL LINE TYPE:    	                     Coax,                      Coax
! DUT PORT 1:       	                N-Conn(F),                 N-Conn(F)
! DUT PORT 2:       	                K-Conn(F),                 K-Conn(F)
! CAL STATUS:       	        OK: Accuracy High,                        --
# GHZ S DB R 50.0
! FREQ.GHZ       S11DB        S11A       S21DB        S21A       S12DB        S12A       S22DB        S22A
  0.010000000   -4.551534  -10.920725  -84.808153   76.915024    0.000000    0.000000    0.000000    0.000000
  0.010200000   -4.540076  -11.105106  -84.383799   74.730118    0.000000    0.000000    0.000000    0.000000
  0.010400000   -4.540344  -11.303565  -84.748551   78.328117    0.000000    0.000000    0.000000    0.000000
  0.010600000   -4.542023  -11.534348  -84.837602   75.863007    0.000000    0.000000    0.000000    0.000000
  0.010800000   -4.546138  -11.738043  -85.201992   78.968582    0.000000    0.000000    0.000000    0.000000
  0.011000000   -4.546125  -11.977044  -85.310807   75.369171    0.000000    0.000000    0.000000    0.000000
  0.011200000   -4.545534  -12.181005  -84.957023   74.654350    0.000000    0.000000    0.000000    0.000000
  0.011400000   -4.546234  -12.406864  -85.143069   74.808174    0.000000    0.000000    0.000000    0.000000
  0.011600000   -4.545145  -12.628826  -85.361965   75.176544    0.000000    0.000000    0.000000    0.000000
  0.011800000   -4.544957  -12.874795  -85.317994   72.709702    0.000000    0.000000    0.000000    0.000000
  0.012000000   -4.546726  -13.082497  -84.949643   73.985611    0.000000    0.000000    0.000000    0.000000
  0.012200000   -4.549622  -13.313689  -84.919245   75.733765    0.000000    0.000000    0.000000    0.000000
  0.012400000   -4.549908  -13.534539  -84.671180   72.249924    0.000000    0.000000    0.000000    0.000000
  0.012600000   -4.549728  -13.766112  -84.761915   69.887596    0.000000    0.000000    0.000000    0.000000
  0.012800000   -4.552403  -13.955529  -85.179705   67.873077    0.000000    0.000000    0.000000    0.000000
  0.013000000   -4.553147  -14.187123  -85.263252   66.509384    0.000000    0.000000    0.000000    0.000000
  0.013200000   -4.552927  -14.431650  -85.132352   64.259659    0.000000    0.000000    0.000000    0.000000
  0.013400000   -4.553812  -14.652333  -85.642633   64.410889    0.000000    0.000000    0.000000    0.000000
  0.013600000   -4.552041  -14.860115  -85.664103   57.120296    0.000000    0.000000    0.000000    0.000000
  0.013800000   -4.551324  -15.099752  -85.490423   59.972496    0.000000    0.000000    0.000000    0.000000
  0.014000000   -4.554306  -15.317005  -85.982659   54.498676    0.000000    0.000000    0.000000    0.000000
  0.014200000   -4.553105  -15.553686  -86.258574   56.615906    0.000000    0.000000    0.000000    0.000000
  0.014400000   -4.553365  -15.791187  -86.280366   56.176620    0.000000    0.000000    0.000000    0.000000
  0.014600000   -4.555182  -16.017929  -86.331269   53.546207    0.000000    0.000000    0.000000    0.000000
  0.014800000   -4.553806  -16.220848  -86.936554   49.496075    0.000000    0.000000    0.000000    0.000000
  0.015000000   -4.553737  -16.445421  -87.623650   49.400578    0.000000    0.000000    0.000000    0.000000
  0.015200000   -4.556308  -16.666269  -87.531776   50.413433    0.000000    0.000000    0.000000    0.000000
  0.015400000   -4.557912  -16.921396  -87.968727   51.262951    0.000000    0.000000    0.000000    0.000000
  0.015600000   -4.558075  -17.072594  -88.303722   46.644291    0.000000    0.000000    0.000000    0.000000
  0.015800000   -4.557744  -17.368750  -88.383675   46.354553    0.000000    0.000000    0.000000    0.000000
  0.016000000   -4.556288  -17.581120  -88.509826   42.346180    0.000000    0.000000    0.000000    0.000000
  0.016200000   -4.559604  -17.774282  -88.876787   50.319099    0.000000    0.000000    0.000000    0.000000
  0.016400000   -4.560585  -17.990498  -90.187542   43.818295    0.000000    0.000000    0.000000    0.000000
  0.016600000   -4.558846  -18.216322  -88.999102   46.130840    0.000000    0.000000    0.000000    0.000000
  0.016800000   -4.560056  -18.431580  -89.474912   45.752094    0.000000    0.000000    0.000000    0.000000
  0.017000000   -4.558457  -18.659719  -89.890195   45.027706    0.000000    0.000000    0.000000    0.000000
  0.017200000   -4.557033  -18.875790  -89.890656   47.922489    0.000000    0.000000    0.000000    0.000000
  0.017400000   -4.552706  -19.074587  -90.177568   48.672783    0.000000    0.000000    0.000000    0.000000
  0.017600000   -4.555663  -19.296278  -89.801062   44.285374    0.000000    0.000000    0.000000    0.000000
  0.017800000   -4.556523  -19.510950  -90.078443   45.973133    0.000000    0.000000    0.000000    0.000000
  0.018000000   -4.559132  -19.703028  -90.563670   49.004677    0.000000    0.000000    0.000000    0.000000
  0.018200000   -4.558960  -19.916212  -91.005156   46.629009    0.000000    0.000000    0.000000    0.000000
  0.018400000   -4.562735  -20.158623  -91.038788   45.887478    0.000000    0.000000    0.000000    0.000000
  0.018600000   -4.563433  -20.368019  -90.146039   46.502930    0.000000    0.000000    0.000000    0.000000
  0.018800000   -4.566794  -20.581230  -90.649195   52.324959    0.000000    0.000000    0.000000    0.000000
  0.019000000   -4.565777  -20.800625  -90.082421   49.782028    0.000000    0.000000    0.000000    0.000000
  0.019200000   -4.566892  -20.990904  -90.913447   44.954315    0.000000    0.000000    0.000000    0.000000
  0.019400000   -4.572371  -21.232697  -90.141900   41.740078    0.000000    0.000000    0.000000    0.000000
  0.019600000   -4.569458  -21.452682  -91.120174   47.452164    0.000000    0.000000    0.000000    0.000000
  0.019800000   -4.571955  -21.664602  -90.518363   44.529041    0.000000    0.000000    0.000000    0.000000
  0.020000000   -4.569143  -21.896328  -91.582410   37.617050    0.000000    0.000000    0.000000    0.000000
  0.020200000   -4.569987  -22.113388  -91.392134   37.037193    0.000000    0.000000    0.000000    0.000000
  0.020400000   -4.572488  -22.327133  -90.515471   36.489635    0.000000    0.000000    0.000000    0.000000
  0.020600000   -4.568316  -22.553822  -90.315336   42.218941    0.000000    0.000000    0.000000    0.000000
  0.020800000   -4.568969  -22.789507  -90.561747   37.249912    0.000000    0.000000    0.000000    0.000000
  0.021000000   -4.570262  -23.025640  -91.141675   34.268574    0.000000    0.000000    0.000000    0.000000
  0.021200000   -4.576087  -23.265713  -91.537416   27.568651    0.000000    0.000000    0.000000    0.000000
  0.021400000   -4.575820  -23.482817  -91.222347   35.429859    0.000000    0.000000    0.000000    0.000000
  0.021600000   -4.573545  -23.735666  -91.918508   32.667133    0.000000    0.000000    0.000000    0.000000
  0.021800000   -4.575044  -23.958757  -92.240539   31.838913    0.000000    0.000000    0.000000    0.000000
  0.022000000   -4.578807  -24.166883  -92.465488   31.545952    0.000000    0.000000    0.000000    0.000000
  0.022200000   -4.577364  -24.401312  -93.004838   28.814564    0.000000    0.000000    0.000000    0.000000
  0.022400000   -4.578448  -24.612356  -93.357977   28.280670    0.000000    0.000000    0.000000    0.000000
  0.022600000   -4.575576  -24.830338  -92.068110   32.868092    0.000000    0.000000    0.000000    0.000000
  0.022800000   -4.577051  -25.060892  -93.204744   31.306641    0.000000    0.000000    0.000000    0.000000
  0.023000000   -4.583243  -25.277561  -93.256140   26.125914    0.000000    0.000000    0.000000    0.000000
  0.023200000   -4.584396  -25.504570  -93.679081   28.731028    0.000000    0.000000    0.000000    0.000000
  0.023400000   -4.584484  -25.768038  -93.031533   28.224609    0.000000    0.000000    0.000000    0.000000
  0.023600000   -4.582970  -25.981346  -92.297282   29.975615    0.000000    0.000000    0.000000    0.000000
  0.023800000   -4.580312  -26.217545  -93.750943   31.535110    0.000000    0.000000    0.000000    0.000000
  0.024000000   -4.574605  -26.428684  -93.322329   26.013203    0.000000    0.000000    0.000000    0.000000
  0.024200000   -4.571659  -26.653185  -93.726312   20.883709    0.000000    0.000000    0.000000    0.000000
  0.024400000   -4.571894  -26.887409  -93.545541   33.745697    0.000000    0.000000    0.000000    0.000000
  0.024600000   -4.575454  -27.114622  -93.638330   33.541557    0.000000    0.000000    0.000000    0.000000
  0.024800000   -4.575885  -27.334759  -94.825961   26.701908    0.000000    0.000000    0.000000    0.000000
  0.025000000   -4.575361  -27.551519  -94.295878   34.303738    0.000000    0.000000    0.000000    0.000000
  0.025200000   -4.578130  -27.763781  -93.511650   30.912689    0.000000    0.000000    0.000000    0.000000
  0.025400000   -4.576163  -27.959230  -93.826519   25.217060    0.000000    0.000000    0.000000    0.000000
  0.025600000   -4.578952  -28.145315  -93.934908   34.130768    0.000000    0.000000    0.000000    0.000000
  0.025800000   -4.579382  -28.351690  -94.246696   32.908188    0.000000    0.000000    0.000000    0.000000
  0.026000000   -4.583474  -28.546646  -93.144924   29.209246    0.000000    0.000000    0.000000    0.000000
  0.026200000   -4.585545  -28.767738  -94.251525   23.780754    0.000000    0.000000    0.000000    0.000000
  0.026400000   -4.587206  -28.995680  -94.412639   30.259630    0.000000    0.000000    0.000000    0.000000
  0.026600000   -4.588337  -29.202442  -93.639935   20.614439    0.000000    0.000000    0.000000    0.000000
  0.026800000   -4.588797  -29.427265  -94.775708   19.901413    0.000000    0.000000    0.000000    0.000000
  0.027000000   -4.592021  -29.685919  -94.238145   19.675230    0.000000    0.000000    0.000000    0.000000
  0.027200000   -4.591044  -29.931047  -94.044648   27.569008    0.000000    0.000000    0.000000    0.000000
  0.027400000   -4.590408  -30.163864  -94.414019   22.849773    0.000000    0.000000    0.000000    0.000000
  0.027600000   -4.591223  -30.388506  -94.826433   21.002201    0.000000    0.000000    0.000000    0.000000
  0.027800000   -4.595014  -30.622831  -95.239573   20.764183    0.000000    0.000000    0.000000    0.000000
  0.028000000   -4.596107  -30.886847  -95.738808   19.433035    0.000000    0.000000    0.000000    0.000000
  0.028200000   -4.596413  -31.129875  -95.782649   19.304989    0.000000    0.000000    0.000000    0.000000
  0.028400000   -4.591893  -31.369061  -96.143396   16.069450    0.000000    0.000000    0.000000    0.000000
  0.028600000   -4.586067  -31.567942  -96.286975   15.948998    0.000000    0.000000    0.000000    0.000000
  0.028800000   -4.583641  -31.761896  -95.484391   23.748514    0.000000    0.000000    0.000000    0.000000
  0.029000000   -4.582356  -31.958776  -96.117755   15.144440    0.000000    0.000000    0.000000    0.000000
  0.029200000   -4.583653  -32.127045  -96.297214   14.302106    0.000000    0.000000    0.000000    0.000000
  0.029400000   -4.585126  -32.319279  -95.360910   19.698820    0.000000    0.000000    0.000000    0.000000
  0.029600000   -4.589583  -32.531219  -97.491340   21.672604    0.000000    0.000000    0.000000    0.000000
  0.029800000   -4.591543  -32.730389  -96.325693    9.320775    0.000000    0.000000    0.000000    0.000000
  0.030000000   -4.600822  -32.941902  -96.020010   17.580719    0.000000    0.000000    0.000000    0.000000
  0.030200000   -4.604823  -33.173111  -97.649048   18.008049    0.000000    0.000000    0.000000    0.000000
  0.030400000   -4.605530  -33.430939  -97.847474   20.474489    0.000000    0.000000    0.000000    0.000000
  0.030600000   -4.603392  -33.682564  -98.027265   14.152354    0.000000    0.000000    0.000000    0.000000
  0.030800000   -4.605662  -33.947094  -98.053327   18.883162    0.000000    0.000000    0.000000    0.000000
  0.031000000   -4.603679  -34.191166  -97.486243   22.673792    0.000000    0.000000    0.000000    0.000000
  0.031200000   -4.599921  -34.411407  -99.682197   11.589044    0.000000    0.000000    0.000000    0.000000
  0.031400000   -4.599101  -34.662457  -95.675883   15.679862    0.000000    0.000000    0.000000    0.000000
  0.031600000   -4.593235  -34.870853  -97.049911   22.529522    0.000000    0.000000    0.000000    0.000000
  0.031800000   -4.591584  -35.079758  -97.199103   10.851682    0.000000    0.000000    0.000000    0.000000
  0.032000000   -4.583148  -35.296597  -97.903951   15.359304    0.000000    0.000000    0.000000    0.000000
  0.032200000   -4.582313  -35.505337  -95.751377   14.158716    0.000000    0.000000    0.000000    0.000000
  0.032400000   -4.571785  -35.681065  -97.313596   19.095434    0.000000    0.000000    0.000000    0.000000
  0.032600000   -4.567345  -35.871147  -96.874657   15.616119    0.000000    0.000000    0.000000    0.000000
  0.032800000   -4.567418  -36.057495  -98.249760   21.676292    0.000000    0.000000    0.000000    0.000000
  0.033000000   -4.565206  -36.244404 -100.565769   10.613606    0.000000    0.000000    0.000000    0.000000
  0.033200000   -4.569730  -36.449188 -100.613433   15.214526    0.000000    0.000000    0.000000    0.000000
  0.033400000   -4.573348  -36.658485  -97.273899    7.354445    0.000000    0.000000    0.000000    0.000000
  0.033600000   -4.573990  -36.869686  -96.668462    3.055288    0.000000    0.000000    0.000000    0.000000
  0.033800000   -4.577525  -37.087292  -98.246772   15.810222    0.000000    0.000000    0.000000    0.000000
  0.034000000   -4.581639  -37.295788  -98.970769    4.487150    0.000000    0.000000    0.000000    0.000000
  0.034200000   -4.580837  -37.542229  -97.338039   10.796693    0.000000    0.000000    0.000000    0.000000
  0.034400000   -4.589277  -37.765659  -97.186569   12.168080    0.000000    0.000000    0.000000    0.000000
  0.034600000   -4.594113  -37.998379 -100.851682    3.620561    0.000000    0.000000    0.000000    0.000000
  0.034800000   -4.596862  -38.239311  -97.914161   18.817719    0.000000    0.000000    0.000000    0.000000
  0.035000000   -4.603519  -38.499714  -98.551228    4.919896    0.000000    0.000000    0.000000    0.000000
  0.035200000   -4.604921  -38.725872  -97.634772    9.073575    0.000000    0.000000    0.000000    0.000000
  0.035400000   -4.606679  -38.946079  -98.103157    3.934748    0.000000    0.000000    0.000000    0.000000
  0.035600000   -4.605199  -39.222652  -98.350173   19.899820    0.000000    0.000000    0.000000    0.000000
  0.035800000   -4.604556  -39.430614  -97.318735   10.683616    0.000000    0.000000    0.000000    0.000000
  0.036000000   -4.605275  -39.676971  -99.776515    6.303630    0.000000    0.000000    0.000000    0.000000
  0.036200000   -4.600093  -39.923279  -98.536428    1.594423    0.000000    0.000000    0.000000    0.000000
  0.036400000   -4.593874  -40.151279  -98.326146   16.949625    0.000000    0.000000    0.000000    0.000000
  0.036600000   -4.594683  -40.364517 -101.044674    7.614021    0.000000    0.000000    0.000000    0.000000
  0.036800000   -4.588840  -40.541416  -99.633635    8.918707    0.000000    0.000000    0.000000    0.000000
  0.037000000   -4.585400  -40.727043 -101.325461   33.990318    0.000000    0.000000    0.000000    0.000000
  0.037200000   -4.589229  -40.890312  -99.036416   -1.068285    0.000000    0.000000    0.000000    0.000000
  0.037400000   -4.593942  -41.102020  -98.649829    8.916380    0.000000    0.000000    0.000000    0.000000
  0.037600000   -4.600391  -41.305923  -99.406276   10.673498    0.000000    0.000000    0.000000    0.000000
  0.037800000   -4.607647  -41.550053  -99.376648   15.616970    0.000000    0.000000    0.000000    0.000000
  0.038000000   -4.612775  -41.771431 -100.053196   16.075014    0.000000    0.000000    0.000000    0.000000
  0.038200000   -4.621854  -42.030827  -98.948326   21.144665    0.000000    0.000000    0.000000    0.000000
  0.038400000   -4.625275  -42.279202 -100.694206   -7.260870    0.000000    0.000000    0.000000    0.000000
  0.038600000   -4.629423  -42.533947  -99.362339   -1.319435    0.000000    0.000000    0.000000    0.000000
  0.038800000   -4.629581  -42.780640 -100.963278   15.464560    0.000000    0.000000    0.000000    0.000000
  0.039000000   -4.625935  -43.037766 -100.623171    4.624395    0.000000    0.000000    0.000000    0.000000
  0.039200000   -4.622439  -43.284599  -99.689792   23.687841    0.000000    0.000000    0.000000    0.000000
  0.039400000   -4.617608  -43.503983  -98.589644    8.548805    0.000000    0.000000    0.000000    0.000000
  0.039600000   -4.613896  -43.741615  -99.789811   11.833825    0.000000    0.000000    0.000000    0.000000
  0.039800000   -4.606963  -43.947578 -100.835890    0.444200    0.000000    0.000000    0.000000    0.000000
  0.040000000   -4.601899  -44.163692  -99.330583   19.379368    0.000000    0.000000    0.000000    0.000000
  0.040200000   -4.600400  -44.369999  -99.605098   -4.096932    0.000000    0.000000    0.000000    0.000000
  0.040400000   -4.599008  -44.558399 -100.743551    1.522814    0.000000    0.000000    0.000000    0.000000
  0.040600000   -4.598194  -44.736195  -99.682597   -0.747256    0.000000    0.000000    0.000000    0.000000
  0.040800000   -4.598268  -44.928322 -101.285404    5.622938    0.000000    0.000000    0.000000    0.000000
  0.041000000   -4.604202  -45.150822 -102.833381    6.086639    0.000000    0.000000    0.000000    0.000000
  0.041200000   -4.607255  -45.360077  -99.550033   -1.343920    0.000000    0.000000    0.000000    0.000000
  0.041400000   -4.611959  -45.582333 -104.046850    7.949883    0.000000    0.000000    0.000000    0.000000
  0.041600000   -4.615808  -45.826756 -101.333134   -2.373116    0.000000    0.000000    0.000000    0.000000
  0.041800000   -4.618516  -46.053131 -102.672891    6.940173    0.000000    0.000000    0.000000    0.000000
  0.042000000   -4.621637  -46.278618  -99.266198    5.001512    0.000000    0.000000    0.000000    0.000000
  0.042200000   -4.625783  -46.502396 -100.214484   -5.439270    0.000000    0.000000    0.000000    0.000000
  0.042400000   -4.623993  -46.716328 -102.882323   10.076193    0.000000    0.000000    0.000000    0.000000
  0.042600000   -4.625751  -46.947350 -100.409271  -13.860204    0.000000    0.000000    0.000000    0.000000
  0.042800000   -4.626505  -47.168434 -100.125020    0.210542    0.000000    0.000000    0.000000    0.000000
