! Anritsu VNA Master:                     Model: MS2036C/10/77
! SN:                                  1601066
! /card0/usr/255.ew.n.r20.1.s2p
! Existing Calibration Information:
! TYPE:                         Current Settings,       Active Cal Settings
! TIME:             	   12/17/2017 06:41:52 PM,    12/17/2017 06:38:14 PM
! INTERNAL TEMP:    	                   43.8 C,                    43.8 C
! # POINTS:         	                      501,                       501
! START FREQ:       	               10.000 MHz,                10.000 MHz
! STOP FREQ:        	          107.903 125 MHz,           107.903 125 MHz
! SOURCE POWER:     	                     High,                      High
! IFBW:             	                   100 Hz,                    100 Hz
! AVG FACTOR:       	                       1 ,                        1 
! REF PLANE 1:      	                     0 mm,                      0 mm
! REF PLANE 2:      	                     0 mm,                      0 mm
! CAL TYPE:         	                 Full S11,                  Full S11
! CAL METHOD:       	                     SOLT,                      SOLT
! CAL LINE TYPE:    	                     Coax,                      Coax
! DUT PORT 1:       	                N-Conn(F),                 N-Conn(F)
! DUT PORT 2:       	                K-Conn(F),                 K-Conn(F)
! CAL STATUS:       	        OK: Accuracy High,                        --
# GHZ S DB R 50.0
! FREQ.GHZ       S11DB        S11A       S21DB        S21A       S12DB        S12A       S22DB        S22A
  0.010000000   -7.223535  167.033936  -82.508005   78.018227    0.000000    0.000000    0.000000    0.000000
  0.010195806   -7.214946  166.806946  -82.787488   78.158356    0.000000    0.000000    0.000000    0.000000
  0.010391613   -7.213758  166.566559  -82.856928   73.664810    0.000000    0.000000    0.000000    0.000000
  0.010587419   -7.213684  166.309448  -83.028808   72.944458    0.000000    0.000000    0.000000    0.000000
  0.010783225   -7.213874  166.056381  -83.112670   71.563576    0.000000    0.000000    0.000000    0.000000
  0.010979031   -7.218230  165.811264  -83.539204   70.778313    0.000000    0.000000    0.000000    0.000000
  0.011174837   -7.219999  165.545853  -83.954677   68.836464    0.000000    0.000000    0.000000    0.000000
  0.011370644   -7.222580  165.303360  -83.911104   65.343971    0.000000    0.000000    0.000000    0.000000
  0.011566450   -7.219969  165.042923  -84.748786   65.148949    0.000000    0.000000    0.000000    0.000000
  0.011762256   -7.224384  164.805984  -84.451550   65.016762    0.000000    0.000000    0.000000    0.000000
  0.011958062   -7.223230  164.515045  -85.230912   64.003967    0.000000    0.000000    0.000000    0.000000
  0.012153869   -7.226192  164.271378  -84.708892   62.501591    0.000000    0.000000    0.000000    0.000000
  0.012349675   -7.222761  164.019196  -85.522977   61.935112    0.000000    0.000000    0.000000    0.000000
  0.012545481   -7.225282  163.749557  -86.085408   58.002594    0.000000    0.000000    0.000000    0.000000
  0.012741288   -7.228429  163.471573  -86.477081   59.986568    0.000000    0.000000    0.000000    0.000000
  0.012937094   -7.229079  163.258209  -86.567864   61.328514    0.000000    0.000000    0.000000    0.000000
  0.013132900   -7.236029  163.010284  -87.010673   55.530487    0.000000    0.000000    0.000000    0.000000
  0.013328706   -7.235414  162.755295  -86.552676   56.813946    0.000000    0.000000    0.000000    0.000000
  0.013524512   -7.233077  162.528854  -87.101368   58.243279    0.000000    0.000000    0.000000    0.000000
  0.013720319   -7.231720  162.277527  -87.166980   58.410645    0.000000    0.000000    0.000000    0.000000
  0.013916125   -7.230195  162.012970  -87.831050   62.230904    0.000000    0.000000    0.000000    0.000000
  0.014111931   -7.233671  161.777893  -87.749851   59.561707    0.000000    0.000000    0.000000    0.000000
  0.014307738   -7.234885  161.520752  -87.919872   60.150608    0.000000    0.000000    0.000000    0.000000
  0.014503544   -7.237276  161.289047  -87.861237   54.876476    0.000000    0.000000    0.000000    0.000000
  0.014699350   -7.238323  161.011017  -88.126806   62.565380    0.000000    0.000000    0.000000    0.000000
  0.014895156   -7.240199  160.790878  -88.032109   57.422302    0.000000    0.000000    0.000000    0.000000
  0.015090962   -7.241669  160.514359  -88.064254   57.023964    0.000000    0.000000    0.000000    0.000000
  0.015286769   -7.245673  160.271652  -87.729688   58.270592    0.000000    0.000000    0.000000    0.000000
  0.015482575   -7.247162  160.019485  -88.745473   54.255817    0.000000    0.000000    0.000000    0.000000
  0.015678381   -7.249662  159.750168  -88.622740   57.325073    0.000000    0.000000    0.000000    0.000000
  0.015874188   -7.246318  159.514801  -87.608626   53.480881    0.000000    0.000000    0.000000    0.000000
  0.016069994   -7.249269  159.263245  -88.379888   50.622227    0.000000    0.000000    0.000000    0.000000
  0.016265800   -7.251242  159.037766  -88.059672   53.020782    0.000000    0.000000    0.000000    0.000000
  0.016461606   -7.253578  158.765167  -88.924018   51.677361    0.000000    0.000000    0.000000    0.000000
  0.016657412   -7.253222  158.537521  -88.836887   47.523746    0.000000    0.000000    0.000000    0.000000
  0.016853219   -7.251417  158.280624  -88.564403   48.641071    0.000000    0.000000    0.000000    0.000000
  0.017049025   -7.253916  158.006393  -88.329821   45.343651    0.000000    0.000000    0.000000    0.000000
  0.017244831   -7.253006  157.764618  -88.705119   44.329136    0.000000    0.000000    0.000000    0.000000
  0.017440638   -7.255999  157.527863  -88.897747   45.923138    0.000000    0.000000    0.000000    0.000000
  0.017636444   -7.255133  157.247177  -89.202715   42.462387    0.000000    0.000000    0.000000    0.000000
  0.017832250   -7.261061  157.002655  -89.717195   38.272594    0.000000    0.000000    0.000000    0.000000
  0.018028056   -7.257907  156.755020  -89.773871   36.453285    0.000000    0.000000    0.000000    0.000000
  0.018223862   -7.259391  156.498871  -89.600416   41.665730    0.000000    0.000000    0.000000    0.000000
  0.018419669   -7.259811  156.247665  -90.545263   37.554256    0.000000    0.000000    0.000000    0.000000
  0.018615475   -7.263685  156.024750  -89.973898   37.188335    0.000000    0.000000    0.000000    0.000000
  0.018811281   -7.267426  155.773209  -90.347568   37.662495    0.000000    0.000000    0.000000    0.000000
  0.019007087   -7.263407  155.503708  -90.701797   36.961433    0.000000    0.000000    0.000000    0.000000
  0.019202894   -7.263128  155.275208  -90.384396   37.306282    0.000000    0.000000    0.000000    0.000000
  0.019398700   -7.264030  155.033493  -90.189229   37.736889    0.000000    0.000000    0.000000    0.000000
  0.019594506   -7.265963  154.791565  -91.712903   44.935398    0.000000    0.000000    0.000000    0.000000
  0.019790313   -7.268372  154.536118  -90.934451   41.740105    0.000000    0.000000    0.000000    0.000000
  0.019986119   -7.267313  154.258545  -90.992624   33.403316    0.000000    0.000000    0.000000    0.000000
  0.020181925   -7.263079  154.023865  -92.163683   39.361301    0.000000    0.000000    0.000000    0.000000
  0.020377731   -7.267037  153.772659  -92.354562   36.378483    0.000000    0.000000    0.000000    0.000000
  0.020573537   -7.258859  153.522598  -91.765373   38.603603    0.000000    0.000000    0.000000    0.000000
  0.020769344   -7.257853  153.281479  -91.688682   37.962997    0.000000    0.000000    0.000000    0.000000
  0.020965150   -7.260035  153.015579  -91.744616   36.771599    0.000000    0.000000    0.000000    0.000000
  0.021160956   -7.257658  152.775543  -92.007613   39.163040    0.000000    0.000000    0.000000    0.000000
  0.021356762   -7.260236  152.539124  -92.261277   35.868237    0.000000    0.000000    0.000000    0.000000
  0.021552569   -7.261543  152.307816  -93.193567   41.060913    0.000000    0.000000    0.000000    0.000000
  0.021748375   -7.261392  152.054092  -92.369856   40.401985    0.000000    0.000000    0.000000    0.000000
  0.021944181   -7.265740  151.822891  -92.472651   36.247665    0.000000    0.000000    0.000000    0.000000
  0.022139988   -7.266923  151.580154  -92.736496   39.171803    0.000000    0.000000    0.000000    0.000000
  0.022335794   -7.264562  151.333130  -92.283050   36.891106    0.000000    0.000000    0.000000    0.000000
  0.022531600   -7.269662  151.095505  -92.587757   35.372662    0.000000    0.000000    0.000000    0.000000
  0.022727406   -7.267665  150.861496  -93.370137   37.681293    0.000000    0.000000    0.000000    0.000000
  0.022923213   -7.271279  150.643280  -93.399242   28.416294    0.000000    0.000000    0.000000    0.000000
  0.023119019   -7.276055  150.371475  -92.371415   34.842648    0.000000    0.000000    0.000000    0.000000
  0.023314825   -7.271231  150.116577  -92.709614   28.653839    0.000000    0.000000    0.000000    0.000000
  0.023510631   -7.271980  149.888489  -93.222061   24.417458    0.000000    0.000000    0.000000    0.000000
  0.023706438   -7.275262  149.600616  -91.998293   28.335754    0.000000    0.000000    0.000000    0.000000
  0.023902244   -7.273053  149.359787  -91.823445   26.128139    0.000000    0.000000    0.000000    0.000000
  0.024098050   -7.270137  149.101395  -93.634112   28.933893    0.000000    0.000000    0.000000    0.000000
  0.024293856   -7.271751  148.846695  -93.212368   24.920086    0.000000    0.000000    0.000000    0.000000
  0.024489662   -7.272922  148.573715  -93.415319   23.717510    0.000000    0.000000    0.000000    0.000000
  0.024685469   -7.274055  148.295074  -94.176594   19.800140    0.000000    0.000000    0.000000    0.000000
  0.024881275   -7.275554  148.060669  -93.828549   26.533775    0.000000    0.000000    0.000000    0.000000
  0.025077081   -7.271110  147.816635  -95.082295   22.924896    0.000000    0.000000    0.000000    0.000000
  0.025272888   -7.269700  147.569199  -94.177952   24.176586    0.000000    0.000000    0.000000    0.000000
  0.025468694   -7.270667  147.350403  -94.616493   16.880932    0.000000    0.000000    0.000000    0.000000
  0.025664500   -7.276855  147.113968  -94.698920   19.074495    0.000000    0.000000    0.000000    0.000000
  0.025860306   -7.277768  146.874283  -94.980175   24.707169    0.000000    0.000000    0.000000    0.000000
  0.026056112   -7.278332  146.636215  -95.133407   26.936417    0.000000    0.000000    0.000000    0.000000
  0.026251919   -7.280801  146.398636  -93.895397   18.975092    0.000000    0.000000    0.000000    0.000000
  0.026447725   -7.285009  146.140961  -95.232270   29.132730    0.000000    0.000000    0.000000    0.000000
  0.026643531   -7.289088  145.910172  -94.962956   18.023102    0.000000    0.000000    0.000000    0.000000
  0.026839338   -7.286288  145.647247  -96.108730   20.859482    0.000000    0.000000    0.000000    0.000000
  0.027035144   -7.287638  145.366882  -95.295987   22.914865    0.000000    0.000000    0.000000    0.000000
  0.027230950   -7.285107  145.085068  -95.456116   22.265352    0.000000    0.000000    0.000000    0.000000
  0.027426756   -7.279114  144.816437  -96.395768   10.775029    0.000000    0.000000    0.000000    0.000000
  0.027622562   -7.278481  144.538391  -95.464654   19.777443    0.000000    0.000000    0.000000    0.000000
  0.027818369   -7.273091  144.292084  -96.091981   17.322624    0.000000    0.000000    0.000000    0.000000
  0.028014175   -7.275722  144.010712  -96.302934   22.788065    0.000000    0.000000    0.000000    0.000000
  0.028209981   -7.274432  143.771927  -95.738005   20.981934    0.000000    0.000000    0.000000    0.000000
  0.028405788   -7.269994  143.541412  -96.208479   24.765474    0.000000    0.000000    0.000000    0.000000
  0.028601594   -7.269058  143.313690  -96.848639   23.489300    0.000000    0.000000    0.000000    0.000000
  0.028797400   -7.266582  143.099258  -95.799483   21.667128    0.000000    0.000000    0.000000    0.000000
  0.028993206   -7.260769  142.899857  -97.953971   13.409610    0.000000    0.000000    0.000000    0.000000
  0.029189013   -7.263066  142.709442  -96.743587   12.677473    0.000000    0.000000    0.000000    0.000000
  0.029384819   -7.262891  142.516983  -96.082886   21.878029    0.000000    0.000000    0.000000    0.000000
  0.029580625   -7.262781  142.318344  -96.675140   22.751627    0.000000    0.000000    0.000000    0.000000
  0.029776431   -7.267454  142.093948  -96.080377   18.588062    0.000000    0.000000    0.000000    0.000000
  0.029972237   -7.270854  141.842590  -97.406539   20.945089    0.000000    0.000000    0.000000    0.000000
  0.030168044   -7.273193  141.628143  -97.181337   13.471786    0.000000    0.000000    0.000000    0.000000
  0.030363850   -7.277418  141.359268  -97.941968   17.532621    0.000000    0.000000    0.000000    0.000000
  0.030559656   -7.279386  141.066116  -96.538175   14.668685    0.000000    0.000000    0.000000    0.000000
  0.030755463   -7.278688  140.833786  -97.494009   12.237404    0.000000    0.000000    0.000000    0.000000
  0.030951269   -7.283624  140.570862  -97.420507   11.185024    0.000000    0.000000    0.000000    0.000000
  0.031147075   -7.277554  140.354843  -97.055627   12.019605    0.000000    0.000000    0.000000    0.000000
  0.031342881   -7.277396  140.070480  -97.071408   18.458126    0.000000    0.000000    0.000000    0.000000
  0.031538687   -7.283061  139.825684  -96.837342   19.138563    0.000000    0.000000    0.000000    0.000000
  0.031734494   -7.286958  139.535797  -97.893302   11.423049    0.000000    0.000000    0.000000    0.000000
  0.031930300   -7.280065  139.278244  -97.927746    3.069780    0.000000    0.000000    0.000000    0.000000
  0.032126106   -7.283592  139.020950  -97.949135    9.484221    0.000000    0.000000    0.000000    0.000000
  0.032321913   -7.276982  138.749176  -98.984739   13.371774    0.000000    0.000000    0.000000    0.000000
  0.032517719   -7.271720  138.521851  -96.448603   19.859945    0.000000    0.000000    0.000000    0.000000
  0.032713525   -7.268675  138.319962  -99.668193   17.536713    0.000000    0.000000    0.000000    0.000000
  0.032909331   -7.259998  138.066925  -98.590266   18.372532    0.000000    0.000000    0.000000    0.000000
  0.033105137   -7.261840  137.865021  -96.856775   16.357054    0.000000    0.000000    0.000000    0.000000
  0.033300944   -7.263923  137.657715  -98.528427   18.399450    0.000000    0.000000    0.000000    0.000000
  0.033496750   -7.264342  137.420197  -97.515447   12.551278    0.000000    0.000000    0.000000    0.000000
  0.033692556   -7.270039  137.210632  -99.456608    3.790503    0.000000    0.000000    0.000000    0.000000
  0.033888362   -7.271570  136.959122  -96.276509   13.813810    0.000000    0.000000    0.000000    0.000000
  0.034084169   -7.274426  136.681503  -99.190576   22.072424    0.000000    0.000000    0.000000    0.000000
  0.034279975   -7.276885  136.367798  -99.274280   16.092911    0.000000    0.000000    0.000000    0.000000
  0.034475781   -7.278876  136.116119  -99.212575   17.982052    0.000000    0.000000    0.000000    0.000000
  0.034671588   -7.284210  135.825958  -98.779466   26.859699    0.000000    0.000000    0.000000    0.000000
  0.034867394   -7.288961  135.560272  -98.921024    8.676165    0.000000    0.000000    0.000000    0.000000
  0.035063200   -7.284731  135.308258  -99.116191   15.201713    0.000000    0.000000    0.000000    0.000000
  0.035259006   -7.282300  134.999908  -98.820651   17.677650    0.000000    0.000000    0.000000    0.000000
  0.035454812   -7.278759  134.760330  -99.495376   13.347456    0.000000    0.000000    0.000000    0.000000
  0.035650619   -7.277865  134.478943  -97.319310   15.579137    0.000000    0.000000    0.000000    0.000000
  0.035846425   -7.268801  134.211349  -99.001165    2.049932    0.000000    0.000000    0.000000    0.000000
  0.036042231   -7.262242  133.976807  -99.321723    1.370881    0.000000    0.000000    0.000000    0.000000
  0.036238037   -7.259847  133.729385  -98.007429   15.985489    0.000000    0.000000    0.000000    0.000000
  0.036433844   -7.249634  133.515381  -98.885439   16.914867    0.000000    0.000000    0.000000    0.000000
  0.036629650   -7.242542  133.302917  -98.505254    3.369648    0.000000    0.000000    0.000000    0.000000
  0.036825456   -7.242200  133.092010  -99.203003   10.263558    0.000000    0.000000    0.000000    0.000000
  0.037021262   -7.241196  132.922974  -98.253796    7.230396    0.000000    0.000000    0.000000    0.000000
  0.037217069   -7.244633  132.714508  -97.735691   10.673205    0.000000    0.000000    0.000000    0.000000
  0.037412875   -7.246311  132.469299  -99.746901    5.961383    0.000000    0.000000    0.000000    0.000000
  0.037608681   -7.245763  132.245102  -99.695770    8.977326    0.000000    0.000000    0.000000    0.000000
  0.037804487   -7.253191  132.023483  -98.336784    5.132864    0.000000    0.000000    0.000000    0.000000
  0.038000294   -7.254312  131.778305  -99.572348    9.122765    0.000000    0.000000    0.000000    0.000000
  0.038196100   -7.262808  131.534409 -103.506092    1.092123    0.000000    0.000000    0.000000    0.000000
  0.038391906   -7.261859  131.232346  -99.928410   22.313601    0.000000    0.000000    0.000000    0.000000
  0.038587713   -7.266354  131.004959 -101.730769    4.420354    0.000000    0.000000    0.000000    0.000000
  0.038783519   -7.269998  130.759094 -101.098894    9.753683    0.000000    0.000000    0.000000    0.000000
  0.038979325   -7.266890  130.495895 -100.211977    4.071282    0.000000    0.000000    0.000000    0.000000
  0.039175131   -7.268338  130.274796  -99.936109    0.288891    0.000000    0.000000    0.000000    0.000000
  0.039370938   -7.268617  130.006027 -103.247112   21.746471    0.000000    0.000000    0.000000    0.000000
  0.039566744   -7.263528  129.754944 -101.244333   15.423166    0.000000    0.000000    0.000000    0.000000
  0.039762550   -7.260078  129.465012  -99.637106   16.682922    0.000000    0.000000    0.000000    0.000000
  0.039958356   -7.248880  129.217789 -100.557960    7.660429    0.000000    0.000000    0.000000    0.000000
  0.040154163   -7.244300  128.996811 -100.230685    5.058659    0.000000    0.000000    0.000000    0.000000
  0.040349969   -7.241119  128.807510 -100.446268    5.224941    0.000000    0.000000    0.000000    0.000000
  0.040545775   -7.243521  128.583099 -100.002890    7.123546    0.000000    0.000000    0.000000    0.000000
  0.040741581   -7.240943  128.372787 -100.228828    9.855705    0.000000    0.000000    0.000000    0.000000
  0.040937387   -7.242261  128.184433 -100.000558   -3.046110    0.000000    0.000000    0.000000    0.000000
  0.041133194   -7.252825  127.996895 -100.982164   19.350121    0.000000    0.000000    0.000000    0.000000
  0.041329000   -7.257959  127.765343 -100.197043   12.065427    0.000000    0.000000    0.000000    0.000000
  0.041524806   -7.264349  127.510231  -99.024932   -9.957257    0.000000    0.000000    0.000000    0.000000
  0.041720612   -7.271310  127.289238  -99.538109   13.615273    0.000000    0.000000    0.000000    0.000000
  0.041916419   -7.278810  126.999168 -101.678646    4.694003    0.000000    0.000000    0.000000    0.000000
  0.042112225   -7.280715  126.733574 -101.429434    8.940721    0.000000    0.000000    0.000000    0.000000
