! Anritsu VNA Master:                     Model: MS2036C/10/77
! SN:                                  1601066
! /card0/usr/255.ew.sma.r50.22.s2p
! Existing Calibration Information:
! TYPE:                         Current Settings,       Active Cal Settings
! TIME:             	   12/19/2017 06:24:42 PM,    12/19/2017 06:04:41 PM
! INTERNAL TEMP:    	                   41.8 C,                    39.8 C
! # POINTS:         	                      501,                       501
! START FREQ:       	               10.000 MHz,                10.000 MHz
! STOP FREQ:        	              110.000 MHz,               110.000 MHz
! SOURCE POWER:     	                     High,                      High
! IFBW:             	                   100 Hz,                    100 Hz
! AVG FACTOR:       	                       1 ,                        1 
! REF PLANE 1:      	                     0 mm,                      0 mm
! REF PLANE 2:      	                     0 mm,                      0 mm
! CAL TYPE:         	                 Full S11,                  Full S11
! CAL METHOD:       	                     SOLT,                      SOLT
! CAL LINE TYPE:    	                     Coax,                      Coax
! DUT PORT 1:       	                N-Conn(F),                 N-Conn(F)
! DUT PORT 2:       	                K-Conn(F),                 K-Conn(F)
! CAL STATUS:       	        OK: Accuracy High,                        --
# GHZ S DB R 50.0
! FREQ.GHZ       S11DB        S11A       S21DB        S21A       S12DB        S12A       S22DB        S22A
  0.010000000  -45.322864   73.165291  -83.228839   80.071960    0.000000    0.000000    0.000000    0.000000
  0.010200000  -45.494015   71.721428  -83.663309   78.137527    0.000000    0.000000    0.000000    0.000000
  0.010400000  -45.491107   73.209084  -83.707695   78.048943    0.000000    0.000000    0.000000    0.000000
  0.010600000  -45.322399   72.564934  -83.517994   75.595871    0.000000    0.000000    0.000000    0.000000
  0.010800000  -45.247002   69.971626  -84.180082   72.446075    0.000000    0.000000    0.000000    0.000000
  0.011000000  -45.510115   69.838692  -84.231355   74.190079    0.000000    0.000000    0.000000    0.000000
  0.011200000  -45.197518   70.051544  -84.204436   69.575401    0.000000    0.000000    0.000000    0.000000
  0.011400000  -45.292654   68.195160  -84.334913   64.384476    0.000000    0.000000    0.000000    0.000000
  0.011600000  -45.056939   66.482216  -84.948178   68.884308    0.000000    0.000000    0.000000    0.000000
  0.011800000  -45.189047   68.521996  -84.545911   66.932198    0.000000    0.000000    0.000000    0.000000
  0.012000000  -44.778308   64.252563  -84.891768   67.306755    0.000000    0.000000    0.000000    0.000000
  0.012200000  -44.838459   64.693512  -85.179410   67.811768    0.000000    0.000000    0.000000    0.000000
  0.012400000  -44.759765   62.715351  -85.905620   66.134773    0.000000    0.000000    0.000000    0.000000
  0.012600000  -44.367307   64.235832  -85.734207   66.241974    0.000000    0.000000    0.000000    0.000000
  0.012800000  -44.253686   62.037174  -85.944154   60.923561    0.000000    0.000000    0.000000    0.000000
  0.013000000  -43.963097   61.268921  -85.959597   62.206413    0.000000    0.000000    0.000000    0.000000
  0.013200000  -43.892753   62.778057  -86.654628   61.231838    0.000000    0.000000    0.000000    0.000000
  0.013400000  -43.469828   61.814579  -86.051622   56.421440    0.000000    0.000000    0.000000    0.000000
  0.013600000  -43.434159   62.460384  -86.359047   60.213295    0.000000    0.000000    0.000000    0.000000
  0.013800000  -43.182249   60.827629  -86.806224   60.544777    0.000000    0.000000    0.000000    0.000000
  0.014000000  -42.929702   60.541962  -87.225468   57.481911    0.000000    0.000000    0.000000    0.000000
  0.014200000  -42.851002   61.279625  -87.065950   56.233833    0.000000    0.000000    0.000000    0.000000
  0.014400000  -42.845944   61.347385  -86.958536   56.235966    0.000000    0.000000    0.000000    0.000000
  0.014600000  -42.537272   61.848026  -87.223476   53.145657    0.000000    0.000000    0.000000    0.000000
  0.014800000  -42.546785   62.514946  -87.675056   54.347527    0.000000    0.000000    0.000000    0.000000
  0.015000000  -42.383607   62.499733  -87.431679   54.639828    0.000000    0.000000    0.000000    0.000000
  0.015200000  -42.319528   62.890804  -87.986996   50.859570    0.000000    0.000000    0.000000    0.000000
  0.015400000  -42.136799   64.366577  -88.358497   56.899929    0.000000    0.000000    0.000000    0.000000
  0.015600000  -42.061553   64.847061  -87.943710   51.246288    0.000000    0.000000    0.000000    0.000000
  0.015800000  -42.131589   65.061813  -88.174057   52.390747    0.000000    0.000000    0.000000    0.000000
  0.016000000  -41.915419   63.757820  -89.023833   46.330818    0.000000    0.000000    0.000000    0.000000
  0.016200000  -42.047279   65.478111  -88.465196   47.971188    0.000000    0.000000    0.000000    0.000000
  0.016400000  -42.089770   64.832062  -88.652610   43.785664    0.000000    0.000000    0.000000    0.000000
  0.016600000  -42.256676   64.905899  -88.718681   45.511723    0.000000    0.000000    0.000000    0.000000
  0.016800000  -42.040087   64.913208  -89.129970   44.577637    0.000000    0.000000    0.000000    0.000000
  0.017000000  -42.037203   65.382416  -89.338388   44.592903    0.000000    0.000000    0.000000    0.000000
  0.017200000  -42.071834   64.224640  -89.343457   46.806145    0.000000    0.000000    0.000000    0.000000
  0.017400000  -42.081133   64.523453  -89.543309   43.704113    0.000000    0.000000    0.000000    0.000000
  0.017600000  -42.182500   64.295219  -89.844708   43.494949    0.000000    0.000000    0.000000    0.000000
  0.017800000  -41.966993   63.182713  -90.287778   45.357437    0.000000    0.000000    0.000000    0.000000
  0.018000000  -41.886610   62.435005  -90.006427   42.157524    0.000000    0.000000    0.000000    0.000000
  0.018200000  -42.079253   62.027153  -90.659573   38.923027    0.000000    0.000000    0.000000    0.000000
  0.018400000  -42.018803   62.480099  -90.198795   40.011879    0.000000    0.000000    0.000000    0.000000
  0.018600000  -42.043551   59.325577  -90.340918   41.015007    0.000000    0.000000    0.000000    0.000000
  0.018800000  -41.807398   59.253433  -90.891702   40.628235    0.000000    0.000000    0.000000    0.000000
  0.019000000  -41.702051   59.012703  -90.290960   44.881824    0.000000    0.000000    0.000000    0.000000
  0.019200000  -41.535769   59.332916  -91.424692   42.518459    0.000000    0.000000    0.000000    0.000000
  0.019400000  -41.506615   57.704613  -90.628314   38.776497    0.000000    0.000000    0.000000    0.000000
  0.019600000  -41.252650   56.821636  -91.663430   41.731960    0.000000    0.000000    0.000000    0.000000
  0.019800000  -41.135070   57.559727  -90.791762   40.809082    0.000000    0.000000    0.000000    0.000000
  0.020000000  -41.012063   57.373901  -90.670401   39.298733    0.000000    0.000000    0.000000    0.000000
  0.020200000  -40.905579   56.159595  -90.263813   39.941425    0.000000    0.000000    0.000000    0.000000
  0.020400000  -40.800923   57.351631  -91.025067   40.246605    0.000000    0.000000    0.000000    0.000000
  0.020600000  -40.561217   56.504520  -91.241567   31.706398    0.000000    0.000000    0.000000    0.000000
  0.020800000  -40.327960   56.851322  -92.606829   41.549583    0.000000    0.000000    0.000000    0.000000
  0.021000000  -40.234358   57.096901  -91.233372   35.930424    0.000000    0.000000    0.000000    0.000000
  0.021200000  -40.304975   56.681412  -91.725741   32.918930    0.000000    0.000000    0.000000    0.000000
  0.021400000  -40.156253   57.585754  -92.496464   33.668095    0.000000    0.000000    0.000000    0.000000
  0.021600000  -40.026328   57.693481  -92.018950   35.329155    0.000000    0.000000    0.000000    0.000000
  0.021800000  -39.945891   58.403759  -92.005712   34.108387    0.000000    0.000000    0.000000    0.000000
  0.022000000  -39.825751   57.541763  -92.159263   34.910088    0.000000    0.000000    0.000000    0.000000
  0.022200000  -39.793995   58.016079  -92.597313   29.335049    0.000000    0.000000    0.000000    0.000000
  0.022400000  -39.608756   57.475899  -90.930640   31.904222    0.000000    0.000000    0.000000    0.000000
  0.022600000  -39.707646   58.586399  -91.531992   33.020954    0.000000    0.000000    0.000000    0.000000
  0.022800000  -39.590218   58.514019  -93.263972   39.202621    0.000000    0.000000    0.000000    0.000000
  0.023000000  -39.665623   58.453312  -92.986592   33.856758    0.000000    0.000000    0.000000    0.000000
  0.023200000  -39.693235   58.716446  -93.777945   31.830269    0.000000    0.000000    0.000000    0.000000
  0.023400000  -39.477146   58.377155  -92.678063   27.985418    0.000000    0.000000    0.000000    0.000000
  0.023600000  -39.399642   59.673080  -93.272554   22.375116    0.000000    0.000000    0.000000    0.000000
  0.023800000  -39.456842   59.429749  -93.899106   28.871202    0.000000    0.000000    0.000000    0.000000
  0.024000000  -39.348388   59.253559  -93.057607   30.120523    0.000000    0.000000    0.000000    0.000000
  0.024200000  -39.306210   58.783489  -93.539713   23.865772    0.000000    0.000000    0.000000    0.000000
  0.024400000  -39.396923   58.615261  -93.627291   21.941505    0.000000    0.000000    0.000000    0.000000
  0.024600000  -39.312015   59.003456  -94.156098   23.390171    0.000000    0.000000    0.000000    0.000000
  0.024800000  -39.355932   59.057785  -94.196812   26.537067    0.000000    0.000000    0.000000    0.000000
  0.025000000  -39.168580   58.963398  -92.747979   27.249174    0.000000    0.000000    0.000000    0.000000
  0.025200000  -39.144165   58.208717  -93.872914   24.099178    0.000000    0.000000    0.000000    0.000000
  0.025400000  -39.129853   57.841763  -94.481993   20.697002    0.000000    0.000000    0.000000    0.000000
  0.025600000  -39.079496   57.220482  -94.007043   28.960928    0.000000    0.000000    0.000000    0.000000
  0.025800000  -39.047513   58.561455  -95.036476   23.242668    0.000000    0.000000    0.000000    0.000000
  0.026000000  -38.986465   57.258118  -94.326618   27.167797    0.000000    0.000000    0.000000    0.000000
  0.026200000  -39.019219   58.237827  -94.252928   21.347713    0.000000    0.000000    0.000000    0.000000
  0.026400000  -38.775329   57.359657  -95.166549   21.444317    0.000000    0.000000    0.000000    0.000000
  0.026600000  -38.850642   58.653000  -93.929873   22.569498    0.000000    0.000000    0.000000    0.000000
  0.026800000  -38.789511   57.407814  -95.631858   25.414120    0.000000    0.000000    0.000000    0.000000
  0.027000000  -38.728823   57.943138  -95.779519   22.199177    0.000000    0.000000    0.000000    0.000000
  0.027200000  -38.656239   57.975437  -95.244605   19.996527    0.000000    0.000000    0.000000    0.000000
  0.027400000  -38.599817   58.116077  -95.752388   23.044901    0.000000    0.000000    0.000000    0.000000
  0.027600000  -38.576187   57.704414  -95.513201   18.528175    0.000000    0.000000    0.000000    0.000000
  0.027800000  -38.684592   57.814800  -95.554901   20.697319    0.000000    0.000000    0.000000    0.000000
  0.028000000  -38.633041   58.925926  -94.763964   19.202593    0.000000    0.000000    0.000000    0.000000
  0.028200000  -38.492287   57.878189  -96.066495   17.721794    0.000000    0.000000    0.000000    0.000000
  0.028400000  -38.472810   58.761086  -96.102883   24.385939    0.000000    0.000000    0.000000    0.000000
  0.028600000  -38.574326   58.096550  -96.622682   18.360607    0.000000    0.000000    0.000000    0.000000
  0.028800000  -38.510122   58.818794  -96.050408   22.409285    0.000000    0.000000    0.000000    0.000000
  0.029000000  -38.582507   59.090454  -97.133274   23.106159    0.000000    0.000000    0.000000    0.000000
  0.029200000  -38.491903   59.625187  -96.817724   14.456537    0.000000    0.000000    0.000000    0.000000
  0.029400000  -38.592472   58.488487  -96.796970   21.577904    0.000000    0.000000    0.000000    0.000000
  0.029600000  -38.705566   58.404396  -97.577683   12.441748    0.000000    0.000000    0.000000    0.000000
  0.029800000  -38.664451   57.772682  -97.014740   27.193230    0.000000    0.000000    0.000000    0.000000
  0.030000000  -38.698585   57.923965  -95.725532   20.539408    0.000000    0.000000    0.000000    0.000000
  0.030200000  -38.694573   57.513206  -97.240692   22.141832    0.000000    0.000000    0.000000    0.000000
  0.030400000  -38.690899   57.447876  -96.112329   22.392214    0.000000    0.000000    0.000000    0.000000
  0.030600000  -38.708192   55.652439  -97.177669   18.420351    0.000000    0.000000    0.000000    0.000000
  0.030800000  -38.688440   56.004856  -98.303143   20.354902    0.000000    0.000000    0.000000    0.000000
  0.031000000  -38.647502   55.308964  -96.400150   17.255903    0.000000    0.000000    0.000000    0.000000
  0.031200000  -38.766165   55.020523  -97.190663   13.210607    0.000000    0.000000    0.000000    0.000000
  0.031400000  -38.633218   54.168671  -96.112956   15.758116    0.000000    0.000000    0.000000    0.000000
  0.031600000  -38.608688   53.097622  -98.440052   17.303888    0.000000    0.000000    0.000000    0.000000
  0.031800000  -38.558819   52.438206  -97.482733   20.850739    0.000000    0.000000    0.000000    0.000000
  0.032000000  -38.606570   51.967995  -95.695838   23.786398    0.000000    0.000000    0.000000    0.000000
  0.032200000  -38.447674   51.542759  -97.488345   20.859608    0.000000    0.000000    0.000000    0.000000
  0.032400000  -38.380291   51.017269  -97.240600   25.444180    0.000000    0.000000    0.000000    0.000000
  0.032600000  -38.141392   50.091759  -98.797842   13.516535    0.000000    0.000000    0.000000    0.000000
  0.032800000  -38.096096   49.933243  -97.395661   21.085669    0.000000    0.000000    0.000000    0.000000
  0.033000000  -37.861800   49.865498  -96.469321   13.953876    0.000000    0.000000    0.000000    0.000000
  0.033200000  -37.876636   49.732784  -97.008297   15.832962    0.000000    0.000000    0.000000    0.000000
  0.033400000  -37.619822   49.544601  -96.928061   26.245686    0.000000    0.000000    0.000000    0.000000
  0.033600000  -37.629591   49.809139  -99.718607   13.991901    0.000000    0.000000    0.000000    0.000000
  0.033800000  -37.534687   49.439175  -97.183073   15.865515    0.000000    0.000000    0.000000    0.000000
  0.034000000  -37.353364   49.484932  -98.357383    8.742654    0.000000    0.000000    0.000000    0.000000
  0.034200000  -37.184422   49.583214  -99.297701   18.995836    0.000000    0.000000    0.000000    0.000000
  0.034400000  -37.140344   49.091255  -97.518481    7.820732    0.000000    0.000000    0.000000    0.000000
  0.034600000  -37.149678   49.732403  -98.018658   12.039979    0.000000    0.000000    0.000000    0.000000
  0.034800000  -37.085666   50.345577  -99.222780   -3.047237    0.000000    0.000000    0.000000    0.000000
  0.035000000  -36.951996   49.602932  -97.486895    5.311670    0.000000    0.000000    0.000000    0.000000
  0.035200000  -36.958844   50.525043  -99.975263   10.379322    0.000000    0.000000    0.000000    0.000000
  0.035400000  -36.920935   51.706947  -97.907548   11.909131    0.000000    0.000000    0.000000    0.000000
  0.035600000  -36.845727   52.547592  -99.212383   12.690122    0.000000    0.000000    0.000000    0.000000
  0.035800000  -36.975745   52.445217  -99.986989    4.620023    0.000000    0.000000    0.000000    0.000000
  0.036000000  -36.859941   52.768452  -98.352304   12.214099    0.000000    0.000000    0.000000    0.000000
  0.036200000  -36.772548   52.411514  -97.891545    8.766906    0.000000    0.000000    0.000000    0.000000
  0.036400000  -37.070305   52.917286  -99.457078    5.483297    0.000000    0.000000    0.000000    0.000000
  0.036600000  -36.987540   52.894318  -99.921249   -2.403430    0.000000    0.000000    0.000000    0.000000
  0.036800000  -36.970951   52.911972  -98.078830   11.828604    0.000000    0.000000    0.000000    0.000000
  0.037000000  -37.018133   52.406334  -98.611530    7.982484    0.000000    0.000000    0.000000    0.000000
  0.037200000  -37.291979   53.209518 -100.232208   12.967636    0.000000    0.000000    0.000000    0.000000
  0.037400000  -37.188423   52.028397 -100.669324   -3.112105    0.000000    0.000000    0.000000    0.000000
  0.037600000  -37.294387   51.202084 -100.753176    4.783363    0.000000    0.000000    0.000000    0.000000
  0.037800000  -37.223148   50.974552  -98.908845   13.152985    0.000000    0.000000    0.000000    0.000000
  0.038000000  -37.319125   50.147377 -100.706124    9.875833    0.000000    0.000000    0.000000    0.000000
  0.038200000  -37.450814   49.902542 -100.684049   28.628588    0.000000    0.000000    0.000000    0.000000
  0.038400000  -37.299587   49.516396  -98.373045    0.965773    0.000000    0.000000    0.000000    0.000000
  0.038600000  -37.275637   47.427406 -100.476215    1.754029    0.000000    0.000000    0.000000    0.000000
  0.038800000  -37.116654   46.715454 -100.531202   21.857828    0.000000    0.000000    0.000000    0.000000
  0.039000000  -37.213564   46.924232  -99.271061   -1.054649    0.000000    0.000000    0.000000    0.000000
  0.039200000  -37.114544   46.098137  -98.858922   12.401990    0.000000    0.000000    0.000000    0.000000
  0.039400000  -36.914804   45.000572 -100.058541    8.696219    0.000000    0.000000    0.000000    0.000000
  0.039600000  -36.959591   43.947235 -102.566219   -7.267724    0.000000    0.000000    0.000000    0.000000
  0.039800000  -36.799204   44.125824 -100.324433   10.709771    0.000000    0.000000    0.000000    0.000000
  0.040000000  -36.521386   43.500111  -97.707128   -4.661901    0.000000    0.000000    0.000000    0.000000
  0.040200000  -36.512689   43.094948 -104.808445   20.609798    0.000000    0.000000    0.000000    0.000000
  0.040400000  -36.355539   42.850655  -98.278916    4.490126    0.000000    0.000000    0.000000    0.000000
  0.040600000  -36.104556   42.316319  -99.304597   14.213335    0.000000    0.000000    0.000000    0.000000
  0.040800000  -36.054082   42.207500 -104.740315   10.728918    0.000000    0.000000    0.000000    0.000000
  0.041000000  -35.902679   43.356709  -99.653621   17.335794    0.000000    0.000000    0.000000    0.000000
  0.041200000  -35.833593   42.847328 -101.835483   -6.875013    0.000000    0.000000    0.000000    0.000000
  0.041400000  -35.740025   43.201550  -99.840650    7.796572    0.000000    0.000000    0.000000    0.000000
  0.041600000  -35.575832   43.892502 -101.202412   15.046642    0.000000    0.000000    0.000000    0.000000
  0.041800000  -35.537049   43.331848 -101.137165    6.875627    0.000000    0.000000    0.000000    0.000000
  0.042000000  -35.417869   43.897877  -99.817322   -2.794425    0.000000    0.000000    0.000000    0.000000
  0.042200000  -35.269314   45.216911  -99.174589   -1.893898    0.000000    0.000000    0.000000    0.000000
  0.042400000  -35.275851   45.341713 -100.379825   -6.855289    0.000000    0.000000    0.000000    0.000000
  0.042600000  -35.167943   45.921013  -99.229037   14.474822    0.000000    0.000000    0.000000    0.000000
  0.042800000  -35.056122   46.805161 -100.498344   11.774615    0.000000    0.000000    0.000000    0.000000
