! Anritsu VNA Master:                     Model: MS2036C/10/77
! SN:                                  1601066
! /card0/usr/255.ew.n.r50.1_1.s2p
! Existing Calibration Information:
! TYPE:                         Current Settings,       Active Cal Settings
! TIME:             	   12/17/2017 06:46:24 PM,    12/17/2017 06:38:14 PM
! INTERNAL TEMP:    	                   43.5 C,                    43.8 C
! # POINTS:         	                      501,                       501
! START FREQ:       	               10.000 MHz,                10.000 MHz
! STOP FREQ:        	          107.903 125 MHz,           107.903 125 MHz
! SOURCE POWER:     	                     High,                      High
! IFBW:             	                   100 Hz,                    100 Hz
! AVG FACTOR:       	                       1 ,                        1 
! REF PLANE 1:      	                     0 mm,                      0 mm
! REF PLANE 2:      	                     0 mm,                      0 mm
! CAL TYPE:         	                 Full S11,                  Full S11
! CAL METHOD:       	                     SOLT,                      SOLT
! CAL LINE TYPE:    	                     Coax,                      Coax
! DUT PORT 1:       	                N-Conn(F),                 N-Conn(F)
! DUT PORT 2:       	                K-Conn(F),                 K-Conn(F)
! CAL STATUS:       	        OK: Accuracy High,                        --
# GHZ S DB R 50.0
! FREQ.GHZ       S11DB        S11A       S21DB        S21A       S12DB        S12A       S22DB        S22A
  0.010000000   -4.539860  -11.698750  -84.296585   75.244102    0.000000    0.000000    0.000000    0.000000
  0.010195806   -4.528378  -11.853812  -84.349895   76.346390    0.000000    0.000000    0.000000    0.000000
  0.010391613   -4.523734  -12.106990  -84.640727   75.482124    0.000000    0.000000    0.000000    0.000000
  0.010587419   -4.534289  -12.306405  -85.218320   74.805321    0.000000    0.000000    0.000000    0.000000
  0.010783225   -4.531980  -12.542023  -85.097894   77.180412    0.000000    0.000000    0.000000    0.000000
  0.010979031   -4.536533  -12.746103  -84.953589   73.063957    0.000000    0.000000    0.000000    0.000000
  0.011174837   -4.537734  -12.990286  -84.530390   74.316696    0.000000    0.000000    0.000000    0.000000
  0.011370644   -4.535327  -13.229676  -85.520213   78.268669    0.000000    0.000000    0.000000    0.000000
  0.011566450   -4.532514  -13.433184  -85.125334   74.145737    0.000000    0.000000    0.000000    0.000000
  0.011762256   -4.538139  -13.674899  -85.225426   76.966560    0.000000    0.000000    0.000000    0.000000
  0.011958062   -4.537530  -13.909674  -85.074048   72.495995    0.000000    0.000000    0.000000    0.000000
  0.012153869   -4.541768  -14.142644  -85.281985   71.281746    0.000000    0.000000    0.000000    0.000000
  0.012349675   -4.544005  -14.386271  -85.081923   67.153503    0.000000    0.000000    0.000000    0.000000
  0.012545481   -4.545023  -14.632386  -85.137741   69.027107    0.000000    0.000000    0.000000    0.000000
  0.012741288   -4.543450  -14.844386  -85.088395   65.790359    0.000000    0.000000    0.000000    0.000000
  0.012937094   -4.550001  -15.100505  -85.342674   65.277817    0.000000    0.000000    0.000000    0.000000
  0.013132900   -4.553234  -15.329620  -85.281585   65.252983    0.000000    0.000000    0.000000    0.000000
  0.013328706   -4.550969  -15.562820  -85.549703   62.613922    0.000000    0.000000    0.000000    0.000000
  0.013524512   -4.549654  -15.813019  -85.678805   59.953400    0.000000    0.000000    0.000000    0.000000
  0.013720319   -4.546760  -16.058840  -85.863022   61.124680    0.000000    0.000000    0.000000    0.000000
  0.013916125   -4.547770  -16.289661  -85.684966   57.165123    0.000000    0.000000    0.000000    0.000000
  0.014111931   -4.550613  -16.542965  -86.050344   54.578053    0.000000    0.000000    0.000000    0.000000
  0.014307738   -4.546530  -16.785404  -86.368579   55.636883    0.000000    0.000000    0.000000    0.000000
  0.014503544   -4.549858  -17.037741  -86.708823   53.857101    0.000000    0.000000    0.000000    0.000000
  0.014699350   -4.551026  -17.273207  -86.786106   49.110168    0.000000    0.000000    0.000000    0.000000
  0.014895156   -4.549324  -17.501345  -87.133552   48.185726    0.000000    0.000000    0.000000    0.000000
  0.015090962   -4.550664  -17.759756  -87.600121   45.239182    0.000000    0.000000    0.000000    0.000000
  0.015286769   -4.553698  -17.976160  -87.783870   45.766159    0.000000    0.000000    0.000000    0.000000
  0.015482575   -4.552878  -18.232815  -87.854951   46.777340    0.000000    0.000000    0.000000    0.000000
  0.015678381   -4.551364  -18.458479  -87.908360   48.074512    0.000000    0.000000    0.000000    0.000000
  0.015874188   -4.549429  -18.713449  -89.047640   45.763870    0.000000    0.000000    0.000000    0.000000
  0.016069994   -4.551701  -18.917562  -88.537784   46.379025    0.000000    0.000000    0.000000    0.000000
  0.016265800   -4.552943  -19.152250  -89.180421   45.560413    0.000000    0.000000    0.000000    0.000000
  0.016461606   -4.554045  -19.354799  -88.978995   45.580376    0.000000    0.000000    0.000000    0.000000
  0.016657412   -4.556877  -19.586266  -89.466926   45.742725    0.000000    0.000000    0.000000    0.000000
  0.016853219   -4.554813  -19.801847  -89.507593   43.968300    0.000000    0.000000    0.000000    0.000000
  0.017049025   -4.548673  -20.032633  -89.275365   46.836380    0.000000    0.000000    0.000000    0.000000
  0.017244831   -4.546986  -20.225718  -89.583020   42.760139    0.000000    0.000000    0.000000    0.000000
  0.017440638   -4.544623  -20.463017  -90.792565   46.052742    0.000000    0.000000    0.000000    0.000000
  0.017636444   -4.548306  -20.697636  -89.761016   43.937260    0.000000    0.000000    0.000000    0.000000
  0.017832250   -4.548034  -20.916105  -90.777585   49.743431    0.000000    0.000000    0.000000    0.000000
  0.018028056   -4.551905  -21.111319  -89.887825   42.466927    0.000000    0.000000    0.000000    0.000000
  0.018223862   -4.550605  -21.339979  -89.988520   49.753220    0.000000    0.000000    0.000000    0.000000
  0.018419669   -4.554307  -21.589678  -90.297180   46.740471    0.000000    0.000000    0.000000    0.000000
  0.018615475   -4.559408  -21.813566  -90.325351   48.186367    0.000000    0.000000    0.000000    0.000000
  0.018811281   -4.556215  -22.024910  -91.013734   52.579315    0.000000    0.000000    0.000000    0.000000
  0.019007087   -4.556646  -22.258629  -90.263854   42.136478    0.000000    0.000000    0.000000    0.000000
  0.019202894   -4.558249  -22.470083  -90.880920   38.342754    0.000000    0.000000    0.000000    0.000000
  0.019398700   -4.563265  -22.713299  -90.183928   42.454082    0.000000    0.000000    0.000000    0.000000
  0.019594506   -4.561402  -22.924646  -90.371153   41.923851    0.000000    0.000000    0.000000    0.000000
  0.019790313   -4.564768  -23.164259  -90.271242   42.893745    0.000000    0.000000    0.000000    0.000000
  0.019986119   -4.564692  -23.388111  -90.472163   40.208679    0.000000    0.000000    0.000000    0.000000
  0.020181925   -4.564926  -23.626776  -90.417154   37.747616    0.000000    0.000000    0.000000    0.000000
  0.020377731   -4.564660  -23.870678  -91.499486   35.325565    0.000000    0.000000    0.000000    0.000000
  0.020573537   -4.563340  -24.108091  -91.011317   31.476521    0.000000    0.000000    0.000000    0.000000
  0.020769344   -4.565564  -24.355284  -90.615261   36.040585    0.000000    0.000000    0.000000    0.000000
  0.020965150   -4.560932  -24.585905  -90.603284   35.058720    0.000000    0.000000    0.000000    0.000000
  0.021160956   -4.563002  -24.840565  -91.750925   38.434456    0.000000    0.000000    0.000000    0.000000
  0.021356762   -4.564078  -25.105099  -91.237896   29.038143    0.000000    0.000000    0.000000    0.000000
  0.021552569   -4.564177  -25.332270  -92.003495   30.381269    0.000000    0.000000    0.000000    0.000000
  0.021748375   -4.568396  -25.585876  -92.822450   31.629038    0.000000    0.000000    0.000000    0.000000
  0.021944181   -4.568382  -25.802513  -92.145892   34.229649    0.000000    0.000000    0.000000    0.000000
  0.022139988   -4.569234  -26.029882  -93.596121   27.685001    0.000000    0.000000    0.000000    0.000000
  0.022335794   -4.570170  -26.256071  -93.379871   28.523911    0.000000    0.000000    0.000000    0.000000
  0.022531600   -4.567921  -26.482895  -92.483613   25.685287    0.000000    0.000000    0.000000    0.000000
  0.022727406   -4.568804  -26.704926  -93.470748   28.718145    0.000000    0.000000    0.000000    0.000000
  0.022923213   -4.569189  -26.940342  -93.118639   32.979458    0.000000    0.000000    0.000000    0.000000
  0.023119019   -4.573019  -27.154680  -93.522909   25.597647    0.000000    0.000000    0.000000    0.000000
  0.023314825   -4.574325  -27.403393  -94.326759   29.613146    0.000000    0.000000    0.000000    0.000000
  0.023510631   -4.574573  -27.635616  -94.703355   31.233191    0.000000    0.000000    0.000000    0.000000
  0.023706438   -4.570450  -27.852339  -94.769905   31.486492    0.000000    0.000000    0.000000    0.000000
  0.023902244   -4.569209  -28.098431  -93.863363   37.890926    0.000000    0.000000    0.000000    0.000000
  0.024098050   -4.564942  -28.314987  -94.125515   35.443760    0.000000    0.000000    0.000000    0.000000
  0.024293856   -4.565657  -28.574245  -93.491408   30.840115    0.000000    0.000000    0.000000    0.000000
  0.024489662   -4.566396  -28.807608  -93.787915   25.078747    0.000000    0.000000    0.000000    0.000000
  0.024685469   -4.563623  -29.036100  -94.774120   29.815504    0.000000    0.000000    0.000000    0.000000
  0.024881275   -4.566733  -29.254597  -94.462572   27.527035    0.000000    0.000000    0.000000    0.000000
  0.025077081   -4.568733  -29.493631  -94.399596   27.950012    0.000000    0.000000    0.000000    0.000000
  0.025272888   -4.569118  -29.687855  -94.753230   25.885233    0.000000    0.000000    0.000000    0.000000
  0.025468694   -4.572989  -29.902058  -93.995756   35.029617    0.000000    0.000000    0.000000    0.000000
  0.025664500   -4.575361  -30.103888  -93.900032   29.311539    0.000000    0.000000    0.000000    0.000000
  0.025860306   -4.578736  -30.304262  -95.336323   27.986668    0.000000    0.000000    0.000000    0.000000
  0.026056112   -4.579552  -30.536833  -94.228178   25.811220    0.000000    0.000000    0.000000    0.000000
  0.026251919   -4.584656  -30.764576  -94.548721   27.314032    0.000000    0.000000    0.000000    0.000000
  0.026447725   -4.585533  -31.019783  -94.413779   22.971907    0.000000    0.000000    0.000000    0.000000
  0.026643531   -4.589533  -31.243334  -95.705358   21.912180    0.000000    0.000000    0.000000    0.000000
  0.026839338   -4.589706  -31.526241  -94.624444   18.134645    0.000000    0.000000    0.000000    0.000000
  0.027035144   -4.588365  -31.766565  -94.298106   24.559099    0.000000    0.000000    0.000000    0.000000
  0.027230950   -4.590949  -32.046440  -95.893917   19.465139    0.000000    0.000000    0.000000    0.000000
  0.027426756   -4.591065  -32.302429  -94.843206   20.591595    0.000000    0.000000    0.000000    0.000000
  0.027622562   -4.590036  -32.553646  -95.734343   22.958832    0.000000    0.000000    0.000000    0.000000
  0.027818369   -4.593628  -32.812664  -95.486781   10.904869    0.000000    0.000000    0.000000    0.000000
  0.028014175   -4.592820  -33.095058  -95.557073   22.238657    0.000000    0.000000    0.000000    0.000000
  0.028209981   -4.590963  -33.365833  -95.160730   10.375713    0.000000    0.000000    0.000000    0.000000
  0.028405788   -4.587225  -33.613216  -96.093283   22.767689    0.000000    0.000000    0.000000    0.000000
  0.028601594   -4.580525  -33.845055  -96.847727   14.423519    0.000000    0.000000    0.000000    0.000000
  0.028797400   -4.577241  -34.051743  -95.314663   18.515293    0.000000    0.000000    0.000000    0.000000
  0.028993206   -4.577885  -34.249302  -97.660959   16.323524    0.000000    0.000000    0.000000    0.000000
  0.029189013   -4.572140  -34.436333  -96.483861   17.212893    0.000000    0.000000    0.000000    0.000000
  0.029384819   -4.572542  -34.612858  -96.819866   18.647575    0.000000    0.000000    0.000000    0.000000
  0.029580625   -4.574901  -34.827824  -98.285816   16.687576    0.000000    0.000000    0.000000    0.000000
  0.029776431   -4.576544  -35.013844  -96.578219   26.439180    0.000000    0.000000    0.000000    0.000000
  0.029972237   -4.582468  -35.240379  -98.287682   16.424963    0.000000    0.000000    0.000000    0.000000
  0.030168044   -4.588207  -35.487965  -98.222832   20.581623    0.000000    0.000000    0.000000    0.000000
  0.030363850   -4.589422  -35.719475  -98.117872   16.949261    0.000000    0.000000    0.000000    0.000000
  0.030559656   -4.590813  -35.951130  -97.271308   20.451694    0.000000    0.000000    0.000000    0.000000
  0.030755463   -4.588037  -36.214367  -97.320326   19.794918    0.000000    0.000000    0.000000    0.000000
  0.030951269   -4.589668  -36.468029  -98.643818    8.590749    0.000000    0.000000    0.000000    0.000000
  0.031147075   -4.582726  -36.690151  -98.413416    8.947942    0.000000    0.000000    0.000000    0.000000
  0.031342881   -4.583023  -36.926437  -97.961354   12.064326    0.000000    0.000000    0.000000    0.000000
  0.031538687   -4.581390  -37.173435  -96.587339   22.872206    0.000000    0.000000    0.000000    0.000000
  0.031734494   -4.574331  -37.362530  -97.072903   20.177076    0.000000    0.000000    0.000000    0.000000
  0.031930300   -4.574532  -37.581501  -96.110525   31.125702    0.000000    0.000000    0.000000    0.000000
  0.032126106   -4.569487  -37.789265  -98.072500    6.186706    0.000000    0.000000    0.000000    0.000000
  0.032321913   -4.565654  -37.999298  -98.373836   15.791339    0.000000    0.000000    0.000000    0.000000
  0.032517719   -4.560443  -38.184345  -98.152746   22.320242    0.000000    0.000000    0.000000    0.000000
  0.032713525   -4.557748  -38.375237  -97.325142   12.772645    0.000000    0.000000    0.000000    0.000000
  0.032909331   -4.562768  -38.568810  -99.104351   18.418377    0.000000    0.000000    0.000000    0.000000
  0.033105137   -4.560328  -38.758408  -97.454794   17.168383    0.000000    0.000000    0.000000    0.000000
  0.033300944   -4.562546  -38.981216  -98.592434   18.966377    0.000000    0.000000    0.000000    0.000000
  0.033496750   -4.570730  -39.172760  -97.923840    8.897528    0.000000    0.000000    0.000000    0.000000
  0.033692556   -4.574163  -39.423042  -97.328649    3.389851    0.000000    0.000000    0.000000    0.000000
  0.033888362   -4.577975  -39.646996  -99.741468   16.407621    0.000000    0.000000    0.000000    0.000000
  0.034084169   -4.580170  -39.882561  -97.202836   12.908505    0.000000    0.000000    0.000000    0.000000
  0.034279975   -4.584347  -40.127525  -97.945181   11.640408    0.000000    0.000000    0.000000    0.000000
  0.034475781   -4.591002  -40.390064 -101.660282    2.520468    0.000000    0.000000    0.000000    0.000000
  0.034671588   -4.594169  -40.636047  -98.465336    7.417288    0.000000    0.000000    0.000000    0.000000
  0.034867394   -4.599989  -40.897488  -98.387647    5.173938    0.000000    0.000000    0.000000    0.000000
  0.035063200   -4.604619  -41.192638  -98.746108   -7.199878    0.000000    0.000000    0.000000    0.000000
  0.035259006   -4.606878  -41.446877  -99.339733    5.193669    0.000000    0.000000    0.000000    0.000000
  0.035454812   -4.608419  -41.694763  -98.823776   11.549726    0.000000    0.000000    0.000000    0.000000
  0.035650619   -4.606926  -41.939323  -97.756029   11.144870    0.000000    0.000000    0.000000    0.000000
  0.035846425   -4.607190  -42.182766 -100.042693   22.558092    0.000000    0.000000    0.000000    0.000000
  0.036042231   -4.604707  -42.455582  -98.203140   13.708763    0.000000    0.000000    0.000000    0.000000
  0.036238037   -4.595348  -42.698948 -100.375506    5.098022    0.000000    0.000000    0.000000    0.000000
  0.036433844   -4.594212  -42.951080 -101.885281    6.037758    0.000000    0.000000    0.000000    0.000000
  0.036629650   -4.589212  -43.158531  -98.412189   -9.526923    0.000000    0.000000    0.000000    0.000000
  0.036825456   -4.587867  -43.369156  -98.715752   12.162880    0.000000    0.000000    0.000000    0.000000
  0.037021262   -4.581384  -43.585342 -101.926636    4.888380    0.000000    0.000000    0.000000    0.000000
  0.037217069   -4.583626  -43.767700  -99.995502   17.278296    0.000000    0.000000    0.000000    0.000000
  0.037412875   -4.589507  -43.964127  -98.339695    0.873611    0.000000    0.000000    0.000000    0.000000
  0.037608681   -4.595269  -44.189159  -99.234246   22.248854    0.000000    0.000000    0.000000    0.000000
  0.037804487   -4.601666  -44.404179  -97.667655   17.839006    0.000000    0.000000    0.000000    0.000000
  0.038000294   -4.609279  -44.661747  -98.997985   15.644902    0.000000    0.000000    0.000000    0.000000
  0.038196100   -4.616410  -44.919624  -98.315736    8.664465    0.000000    0.000000    0.000000    0.000000
  0.038391906   -4.625723  -45.158508  -98.820712   12.460190    0.000000    0.000000    0.000000    0.000000
  0.038587713   -4.625370  -45.425552  -98.435864    6.573194    0.000000    0.000000    0.000000    0.000000
  0.038783519   -4.626483  -45.692150  -99.404513    5.961964    0.000000    0.000000    0.000000    0.000000
  0.038979325   -4.629219  -45.949684 -100.540881   -3.493395    0.000000    0.000000    0.000000    0.000000
  0.039175131   -4.628772  -46.241283  -99.861176   19.568214    0.000000    0.000000    0.000000    0.000000
  0.039370938   -4.623962  -46.481239 -100.533908   15.251896    0.000000    0.000000    0.000000    0.000000
  0.039566744   -4.619724  -46.743908  -99.284467    7.005641    0.000000    0.000000    0.000000    0.000000
  0.039762550   -4.616708  -46.980228 -100.521891    0.622360    0.000000    0.000000    0.000000    0.000000
  0.039958356   -4.609053  -47.219769  -97.834904   12.427375    0.000000    0.000000    0.000000    0.000000
  0.040154163   -4.606183  -47.452293  -99.143832    1.892074    0.000000    0.000000    0.000000    0.000000
  0.040349969   -4.602653  -47.675270  -98.624673   -9.817001    0.000000    0.000000    0.000000    0.000000
  0.040545775   -4.600917  -47.874519 -101.350406    9.461817    0.000000    0.000000    0.000000    0.000000
  0.040741581   -4.605962  -48.101978  -99.709910  -15.042858    0.000000    0.000000    0.000000    0.000000
  0.040937387   -4.606836  -48.330708 -101.512405   17.145596    0.000000    0.000000    0.000000    0.000000
  0.041133194   -4.609041  -48.566776 -101.296000    9.076705    0.000000    0.000000    0.000000    0.000000
  0.041329000   -4.614407  -48.819466 -100.029757   -0.291718    0.000000    0.000000    0.000000    0.000000
  0.041524806   -4.617299  -49.080502 -101.073183    3.147695    0.000000    0.000000    0.000000    0.000000
  0.041720612   -4.621682  -49.362331 -102.078866   -7.943854    0.000000    0.000000    0.000000    0.000000
  0.041916419   -4.622334  -49.596317 -103.372488   15.349751    0.000000    0.000000    0.000000    0.000000
  0.042112225   -4.623239  -49.860538 -103.489200    7.673496    0.000000    0.000000    0.000000    0.000000
