! Anritsu VNA Master:                     Model: MS2036C/10/77
! SN:                                  1601066
! /card0/usr/255.ew.n.r20.2.s2p
! Existing Calibration Information:
! TYPE:                         Current Settings,       Active Cal Settings
! TIME:             	   12/17/2017 06:52:24 PM,    12/17/2017 06:38:14 PM
! INTERNAL TEMP:    	                   43.0 C,                    43.8 C
! # POINTS:         	                      501,                       501
! START FREQ:       	               10.000 MHz,                10.000 MHz
! STOP FREQ:        	          107.903 125 MHz,           107.903 125 MHz
! SOURCE POWER:     	                     High,                      High
! IFBW:             	                   100 Hz,                    100 Hz
! AVG FACTOR:       	                       1 ,                        1 
! REF PLANE 1:      	                     0 mm,                      0 mm
! REF PLANE 2:      	                     0 mm,                      0 mm
! CAL TYPE:         	                 Full S11,                  Full S11
! CAL METHOD:       	                     SOLT,                      SOLT
! CAL LINE TYPE:    	                     Coax,                      Coax
! DUT PORT 1:       	                N-Conn(F),                 N-Conn(F)
! DUT PORT 2:       	                K-Conn(F),                 K-Conn(F)
! CAL STATUS:       	        OK: Accuracy High,                        --
# GHZ S DB R 50.0
! FREQ.GHZ       S11DB        S11A       S21DB        S21A       S12DB        S12A       S22DB        S22A
  0.010000000   -7.258645  166.643585  -82.789245   77.657478    0.000000    0.000000    0.000000    0.000000
  0.010195806   -7.250024  166.397263  -82.955956   77.503990    0.000000    0.000000    0.000000    0.000000
  0.010391613   -7.250064  166.109482  -82.393343   74.057434    0.000000    0.000000    0.000000    0.000000
  0.010587419   -7.251585  165.832077  -83.088122   71.595070    0.000000    0.000000    0.000000    0.000000
  0.010783225   -7.256875  165.552048  -83.545883   70.805023    0.000000    0.000000    0.000000    0.000000
  0.010979031   -7.255423  165.264053  -84.004176   69.633469    0.000000    0.000000    0.000000    0.000000
  0.011174837   -7.261253  164.959717  -83.902109   66.117020    0.000000    0.000000    0.000000    0.000000
  0.011370644   -7.257056  164.672562  -84.040842   65.158272    0.000000    0.000000    0.000000    0.000000
  0.011566450   -7.253961  164.404495  -84.507113   64.712410    0.000000    0.000000    0.000000    0.000000
  0.011762256   -7.255977  164.154846  -84.902986   63.914658    0.000000    0.000000    0.000000    0.000000
  0.011958062   -7.248795  163.878174  -85.144069   62.576233    0.000000    0.000000    0.000000    0.000000
  0.012153869   -7.251423  163.587891  -85.555469   62.288895    0.000000    0.000000    0.000000    0.000000
  0.012349675   -7.249853  163.312469  -85.641585   65.612259    0.000000    0.000000    0.000000    0.000000
  0.012545481   -7.249325  163.050964  -86.054721   60.920055    0.000000    0.000000    0.000000    0.000000
  0.012741288   -7.245679  162.793823  -86.230006   61.390320    0.000000    0.000000    0.000000    0.000000
  0.012937094   -7.248960  162.586899  -86.293932   59.527142    0.000000    0.000000    0.000000    0.000000
  0.013132900   -7.251717  162.346481  -86.796430   58.065048    0.000000    0.000000    0.000000    0.000000
  0.013328706   -7.250289  162.088837  -87.241518   55.378017    0.000000    0.000000    0.000000    0.000000
  0.013524512   -7.246167  161.856430  -87.188563   58.102261    0.000000    0.000000    0.000000    0.000000
  0.013720319   -7.245257  161.621368  -87.259632   59.032848    0.000000    0.000000    0.000000    0.000000
  0.013916125   -7.246246  161.377640  -87.217257   55.213779    0.000000    0.000000    0.000000    0.000000
  0.014111931   -7.248940  161.152679  -88.060543   60.066406    0.000000    0.000000    0.000000    0.000000
  0.014307738   -7.253533  160.924332  -87.834147   59.181705    0.000000    0.000000    0.000000    0.000000
  0.014503544   -7.254628  160.673996  -87.172595   59.583279    0.000000    0.000000    0.000000    0.000000
  0.014699350   -7.258881  160.410324  -87.350480   56.307781    0.000000    0.000000    0.000000    0.000000
  0.014895156   -7.263598  160.170319  -87.436013   56.225391    0.000000    0.000000    0.000000    0.000000
  0.015090962   -7.267918  159.904007  -88.104147   57.125549    0.000000    0.000000    0.000000    0.000000
  0.015286769   -7.272633  159.652679  -87.722993   57.236389    0.000000    0.000000    0.000000    0.000000
  0.015482575   -7.274865  159.380386  -88.100731   57.790340    0.000000    0.000000    0.000000    0.000000
  0.015678381   -7.279282  159.111603  -88.122436   54.353046    0.000000    0.000000    0.000000    0.000000
  0.015874188   -7.282580  158.850189  -87.890274   54.330143    0.000000    0.000000    0.000000    0.000000
  0.016069994   -7.285459  158.581650  -88.649632   55.315517    0.000000    0.000000    0.000000    0.000000
  0.016265800   -7.289732  158.318054  -88.565312   52.508785    0.000000    0.000000    0.000000    0.000000
  0.016461606   -7.289779  158.035202  -88.098565   49.944855    0.000000    0.000000    0.000000    0.000000
  0.016657412   -7.292469  157.753555  -88.626430   51.207954    0.000000    0.000000    0.000000    0.000000
  0.016853219   -7.289183  157.491531  -88.888044   47.059994    0.000000    0.000000    0.000000    0.000000
  0.017049025   -7.292590  157.192108  -89.147846   47.333763    0.000000    0.000000    0.000000    0.000000
  0.017244831   -7.291222  156.903763  -89.000313   45.104027    0.000000    0.000000    0.000000    0.000000
  0.017440638   -7.294467  156.656540  -88.221251   44.386051    0.000000    0.000000    0.000000    0.000000
  0.017636444   -7.291696  156.339691  -89.342017   42.145359    0.000000    0.000000    0.000000    0.000000
  0.017832250   -7.291586  156.078918  -89.448163   47.687664    0.000000    0.000000    0.000000    0.000000
  0.018028056   -7.292070  155.802353  -89.364833   44.736469    0.000000    0.000000    0.000000    0.000000
  0.018223862   -7.291336  155.543381  -90.359306   39.055614    0.000000    0.000000    0.000000    0.000000
  0.018419669   -7.288835  155.273087  -89.811510   38.495914    0.000000    0.000000    0.000000    0.000000
  0.018615475   -7.288658  155.026642  -90.255307   37.933262    0.000000    0.000000    0.000000    0.000000
  0.018811281   -7.289551  154.765411  -90.628791   39.305443    0.000000    0.000000    0.000000    0.000000
  0.019007087   -7.284817  154.509811  -90.876494   37.023464    0.000000    0.000000    0.000000    0.000000
  0.019202894   -7.280543  154.282623  -90.745720   39.610374    0.000000    0.000000    0.000000    0.000000
  0.019398700   -7.281546  154.035797  -91.113964   37.134335    0.000000    0.000000    0.000000    0.000000
  0.019594506   -7.286576  153.816833  -90.663483   30.066435    0.000000    0.000000    0.000000    0.000000
  0.019790313   -7.286146  153.558380  -91.791855   30.663527    0.000000    0.000000    0.000000    0.000000
  0.019986119   -7.283331  153.301376  -91.424190   41.966412    0.000000    0.000000    0.000000    0.000000
  0.020181925   -7.278694  153.059692  -92.639013   37.176052    0.000000    0.000000    0.000000    0.000000
  0.020377731   -7.283030  152.840698  -92.156796   34.035015    0.000000    0.000000    0.000000    0.000000
  0.020573537   -7.277284  152.575684  -92.456509   32.460846    0.000000    0.000000    0.000000    0.000000
  0.020769344   -7.281353  152.336700  -92.633984   39.519714    0.000000    0.000000    0.000000    0.000000
  0.020965150   -7.282349  152.069016  -92.225884   37.311802    0.000000    0.000000    0.000000    0.000000
  0.021160956   -7.284217  151.837067  -91.709944   36.723591    0.000000    0.000000    0.000000    0.000000
  0.021356762   -7.287940  151.575882  -92.233417   29.039742    0.000000    0.000000    0.000000    0.000000
  0.021552569   -7.291921  151.341034  -92.289842   39.402874    0.000000    0.000000    0.000000    0.000000
  0.021748375   -7.296295  151.089615  -93.071387   34.598164    0.000000    0.000000    0.000000    0.000000
  0.021944181   -7.299192  150.827881  -92.401690   36.356503    0.000000    0.000000    0.000000    0.000000
  0.022139988   -7.303219  150.565353  -91.484769   38.584171    0.000000    0.000000    0.000000    0.000000
  0.022335794   -7.305765  150.292664  -92.748611   35.589298    0.000000    0.000000    0.000000    0.000000
  0.022531600   -7.310467  150.042465  -93.143765   39.631763    0.000000    0.000000    0.000000    0.000000
  0.022727406   -7.308931  149.768097  -93.184288   30.592178    0.000000    0.000000    0.000000    0.000000
  0.022923213   -7.312832  149.513763  -92.861953   34.565140    0.000000    0.000000    0.000000    0.000000
  0.023119019   -7.313755  149.193741  -92.590072   37.219936    0.000000    0.000000    0.000000    0.000000
  0.023314825   -7.310738  148.928818  -93.229892   33.762661    0.000000    0.000000    0.000000    0.000000
  0.023510631   -7.309022  148.637238  -92.744955   35.362717    0.000000    0.000000    0.000000    0.000000
  0.023706438   -7.313176  148.338806  -92.895201   31.712957    0.000000    0.000000    0.000000    0.000000
  0.023902244   -7.305340  148.051178  -93.125979   26.377504    0.000000    0.000000    0.000000    0.000000
  0.024098050   -7.301138  147.761734  -93.750412   29.647699    0.000000    0.000000    0.000000    0.000000
  0.024293856   -7.299443  147.495102  -93.480871   31.009869    0.000000    0.000000    0.000000    0.000000
  0.024489662   -7.296053  147.194260  -94.467967   21.663591    0.000000    0.000000    0.000000    0.000000
  0.024685469   -7.290495  146.931732  -93.333334   29.042255    0.000000    0.000000    0.000000    0.000000
  0.024881275   -7.288294  146.678940  -93.680461   22.989664    0.000000    0.000000    0.000000    0.000000
  0.025077081   -7.283644  146.432632  -94.079329   26.744755    0.000000    0.000000    0.000000    0.000000
  0.025272888   -7.279301  146.232819  -93.593382   20.441803    0.000000    0.000000    0.000000    0.000000
  0.025468694   -7.273186  146.045090  -94.407411   23.945961    0.000000    0.000000    0.000000    0.000000
  0.025664500   -7.275421  145.798721  -94.194734   23.794260    0.000000    0.000000    0.000000    0.000000
  0.025860306   -7.273821  145.603531  -95.475732   11.567103    0.000000    0.000000    0.000000    0.000000
  0.026056112   -7.273738  145.401031  -94.356010   27.696705    0.000000    0.000000    0.000000    0.000000
  0.026251919   -7.277289  145.223160  -95.492440   25.959751    0.000000    0.000000    0.000000    0.000000
  0.026447725   -7.281856  145.001419  -94.601625   22.061865    0.000000    0.000000    0.000000    0.000000
  0.026643531   -7.282849  144.788834  -94.846935   24.917578    0.000000    0.000000    0.000000    0.000000
  0.026839338   -7.283814  144.575455  -95.642532   24.212559    0.000000    0.000000    0.000000    0.000000
  0.027035144   -7.287163  144.330948  -95.219371   21.698261    0.000000    0.000000    0.000000    0.000000
  0.027230950   -7.287692  144.086182  -95.359620   22.429136    0.000000    0.000000    0.000000    0.000000
  0.027426756   -7.286242  143.860703  -96.147059   14.438273    0.000000    0.000000    0.000000    0.000000
  0.027622562   -7.292564  143.612167  -96.486172    9.991672    0.000000    0.000000    0.000000    0.000000
  0.027818369   -7.294436  143.393753  -96.779661   20.256651    0.000000    0.000000    0.000000    0.000000
  0.028014175   -7.300770  143.112259  -96.096244   24.250179    0.000000    0.000000    0.000000    0.000000
  0.028209981   -7.306875  142.881638  -96.236657   22.305422    0.000000    0.000000    0.000000    0.000000
  0.028405788   -7.311177  142.630829  -96.070722   22.345835    0.000000    0.000000    0.000000    0.000000
  0.028601594   -7.318943  142.405823  -98.263145   12.982060    0.000000    0.000000    0.000000    0.000000
  0.028797400   -7.325195  142.171692  -96.249983   22.628910    0.000000    0.000000    0.000000    0.000000
  0.028993206   -7.328994  141.933075  -96.364380   22.476786    0.000000    0.000000    0.000000    0.000000
  0.029189013   -7.336797  141.696915  -96.199609   23.994377    0.000000    0.000000    0.000000    0.000000
  0.029384819   -7.342665  141.453384  -96.644753   21.242060    0.000000    0.000000    0.000000    0.000000
  0.029580625   -7.350125  141.186569  -96.567363   22.263063    0.000000    0.000000    0.000000    0.000000
  0.029776431   -7.356691  140.881073  -95.508000   14.374459    0.000000    0.000000    0.000000    0.000000
  0.029972237   -7.366176  140.554184  -96.206809   16.387825    0.000000    0.000000    0.000000    0.000000
  0.030168044   -7.373283  140.247360  -96.825019   20.245237    0.000000    0.000000    0.000000    0.000000
  0.030363850   -7.376505  139.884262  -95.936678   10.473608    0.000000    0.000000    0.000000    0.000000
  0.030559656   -7.377827  139.510986  -97.312415   18.072252    0.000000    0.000000    0.000000    0.000000
  0.030755463   -7.377010  139.179214  -96.622540   13.485537    0.000000    0.000000    0.000000    0.000000
  0.030951269   -7.379124  138.829483  -96.500258    7.012198    0.000000    0.000000    0.000000    0.000000
  0.031147075   -7.370225  138.510849  -97.445399   30.575338    0.000000    0.000000    0.000000    0.000000
  0.031342881   -7.364550  138.174850  -98.153110    7.355258    0.000000    0.000000    0.000000    0.000000
  0.031538687   -7.366127  137.847458  -95.622978   14.012282    0.000000    0.000000    0.000000    0.000000
  0.031734494   -7.355225  137.509125  -95.167995   18.067696    0.000000    0.000000    0.000000    0.000000
  0.031930300   -7.343207  137.195999  -97.374814   16.325842    0.000000    0.000000    0.000000    0.000000
  0.032126106   -7.337464  136.872910  -97.302716   -1.736473    0.000000    0.000000    0.000000    0.000000
  0.032321913   -7.324894  136.607834  -98.261786   10.029784    0.000000    0.000000    0.000000    0.000000
  0.032517719   -7.308277  136.356415  -98.313868   10.726273    0.000000    0.000000    0.000000    0.000000
  0.032713525   -7.294128  136.125488  -97.797626    4.272961    0.000000    0.000000    0.000000    0.000000
  0.032909331   -7.277157  135.927551  -96.024894    7.426615    0.000000    0.000000    0.000000    0.000000
  0.033105137   -7.273066  135.728210  -98.364503   25.006041    0.000000    0.000000    0.000000    0.000000
  0.033300944   -7.263240  135.531601  -97.034944   18.531345    0.000000    0.000000    0.000000    0.000000
  0.033496750   -7.260570  135.338715  -98.512656   -1.824789    0.000000    0.000000    0.000000    0.000000
  0.033692556   -7.258027  135.186417  -98.869744   15.992619    0.000000    0.000000    0.000000    0.000000
  0.033888362   -7.259161  134.958878  -98.351540    7.145990    0.000000    0.000000    0.000000    0.000000
  0.034084169   -7.260443  134.753265  -99.080676   11.625662    0.000000    0.000000    0.000000    0.000000
  0.034279975   -7.259217  134.522766  -95.777080   21.601456    0.000000    0.000000    0.000000    0.000000
  0.034475781   -7.261229  134.319809  -98.085928   18.946230    0.000000    0.000000    0.000000    0.000000
  0.034671588   -7.262351  134.079926  -98.029670   24.626001    0.000000    0.000000    0.000000    0.000000
  0.034867394   -7.270699  133.883804  -98.172448   14.852903    0.000000    0.000000    0.000000    0.000000
  0.035063200   -7.270638  133.659668  -98.160586   24.091930    0.000000    0.000000    0.000000    0.000000
  0.035259006   -7.267965  133.419510  -96.985641    7.589492    0.000000    0.000000    0.000000    0.000000
  0.035454812   -7.268725  133.211304 -100.833048   14.439423    0.000000    0.000000    0.000000    0.000000
  0.035650619   -7.272330  132.956696  -97.744133   13.374126    0.000000    0.000000    0.000000    0.000000
  0.035846425   -7.270591  132.736328  -98.839307   25.179958    0.000000    0.000000    0.000000    0.000000
  0.036042231   -7.266621  132.496307 -100.045649   10.611301    0.000000    0.000000    0.000000    0.000000
  0.036238037   -7.268437  132.259064  -97.574287   12.227657    0.000000    0.000000    0.000000    0.000000
  0.036433844   -7.265313  132.038803  -98.708891   15.494870    0.000000    0.000000    0.000000    0.000000
  0.036629650   -7.268914  131.816559  -97.933588    9.328804    0.000000    0.000000    0.000000    0.000000
  0.036825456   -7.273710  131.608444  -98.221706    4.012519    0.000000    0.000000    0.000000    0.000000
  0.037021262   -7.276413  131.402878  -99.927707   -4.599800    0.000000    0.000000    0.000000    0.000000
  0.037217069   -7.286138  131.164764  -98.499637   10.070600    0.000000    0.000000    0.000000    0.000000
  0.037412875   -7.292076  130.889648  -99.485630    2.421723    0.000000    0.000000    0.000000    0.000000
  0.037608681   -7.293824  130.624069  -98.709693    9.503729    0.000000    0.000000    0.000000    0.000000
  0.037804487   -7.301471  130.352982 -101.722640   17.885180    0.000000    0.000000    0.000000    0.000000
  0.038000294   -7.307895  130.051346  -99.381024    5.166396    0.000000    0.000000    0.000000    0.000000
  0.038196100   -7.310675  129.751343  -99.155293   10.382679    0.000000    0.000000    0.000000    0.000000
  0.038391906   -7.314921  129.443359 -100.423158    9.724675    0.000000    0.000000    0.000000    0.000000
  0.038587713   -7.315606  129.147995 -100.866672   11.333149    0.000000    0.000000    0.000000    0.000000
  0.038783519   -7.317348  128.878738 -100.935803   -0.977096    0.000000    0.000000    0.000000    0.000000
  0.038979325   -7.313192  128.575943  -99.066701    3.671472    0.000000    0.000000    0.000000    0.000000
  0.039175131   -7.312031  128.333496  -98.887563   13.238779    0.000000    0.000000    0.000000    0.000000
  0.039370938   -7.304482  128.051178 -100.132090   -0.838954    0.000000    0.000000    0.000000    0.000000
  0.039566744   -7.300535  127.793480 -101.681148    9.388627    0.000000    0.000000    0.000000    0.000000
  0.039762550   -7.293353  127.501122 -100.340672   10.923155    0.000000    0.000000    0.000000    0.000000
  0.039958356   -7.281547  127.259087 -100.956695   16.438425    0.000000    0.000000    0.000000    0.000000
  0.040154163   -7.273801  127.054192  -99.969225   18.798641    0.000000    0.000000    0.000000    0.000000
  0.040349969   -7.265509  126.858391  -99.590647   23.185953    0.000000    0.000000    0.000000    0.000000
  0.040545775   -7.267975  126.655586 -103.708509   -3.023017    0.000000    0.000000    0.000000    0.000000
  0.040741581   -7.262520  126.490570 -100.922042    7.935831    0.000000    0.000000    0.000000    0.000000
  0.040937387   -7.272560  126.318512  -99.540536    0.107350    0.000000    0.000000    0.000000    0.000000
  0.041133194   -7.279941  126.130615  -98.284542   25.842693    0.000000    0.000000    0.000000    0.000000
  0.041329000   -7.283019  125.926994  -98.440490    2.852760    0.000000    0.000000    0.000000    0.000000
  0.041524806   -7.298914  125.704636 -101.468896    2.831073    0.000000    0.000000    0.000000    0.000000
  0.041720612   -7.307034  125.487183 -100.088971   15.690814    0.000000    0.000000    0.000000    0.000000
  0.041916419   -7.320154  125.203094 -100.486871   13.906244    0.000000    0.000000    0.000000    0.000000
  0.042112225   -7.328026  124.940048 -101.839917    9.286636    0.000000    0.000000    0.000000    0.000000
