! Anritsu VNA Master:                     Model: MS2036C/10/77
! SN:                                  1601066
! /card0/usr/255.ew.n.r50.1.s2p
! Existing Calibration Information:
! TYPE:                         Current Settings,       Active Cal Settings
! TIME:             	   12/17/2017 06:44:37 PM,    12/17/2017 06:38:14 PM
! INTERNAL TEMP:    	                   43.5 C,                    43.8 C
! # POINTS:         	                      501,                       501
! START FREQ:       	               10.000 MHz,                10.000 MHz
! STOP FREQ:        	          107.903 125 MHz,           107.903 125 MHz
! SOURCE POWER:     	                     High,                      High
! IFBW:             	                   100 Hz,                    100 Hz
! AVG FACTOR:       	                       1 ,                        1 
! REF PLANE 1:      	                     0 mm,                      0 mm
! REF PLANE 2:      	                     0 mm,                      0 mm
! CAL TYPE:         	                 Full S11,                  Full S11
! CAL METHOD:       	                     SOLT,                      SOLT
! CAL LINE TYPE:    	                     Coax,                      Coax
! DUT PORT 1:       	                N-Conn(F),                 N-Conn(F)
! DUT PORT 2:       	                K-Conn(F),                 K-Conn(F)
! CAL STATUS:       	        OK: Accuracy High,                        --
# GHZ S DB R 50.0
! FREQ.GHZ       S11DB        S11A       S21DB        S21A       S12DB        S12A       S22DB        S22A
  0.010000000  -44.950910   62.198959  -83.406582   78.539391    0.000000    0.000000    0.000000    0.000000
  0.010195806  -44.448744   62.288723  -83.169672   77.359924    0.000000    0.000000    0.000000    0.000000
  0.010391613  -44.197488   61.433685  -83.783767   76.365143    0.000000    0.000000    0.000000    0.000000
  0.010587419  -44.341132   62.828751  -84.100278   71.702110    0.000000    0.000000    0.000000    0.000000
  0.010783225  -44.366727   62.740330  -84.394144   70.327446    0.000000    0.000000    0.000000    0.000000
  0.010979031  -43.985400   62.357311  -84.357217   69.948143    0.000000    0.000000    0.000000    0.000000
  0.011174837  -43.771325   61.420898  -84.595451   69.523506    0.000000    0.000000    0.000000    0.000000
  0.011370644  -43.791730   62.373581  -84.532475   71.060936    0.000000    0.000000    0.000000    0.000000
  0.011566450  -43.516403   62.315346  -84.757017   67.479919    0.000000    0.000000    0.000000    0.000000
  0.011762256  -43.510019   62.461205  -84.785862   64.855202    0.000000    0.000000    0.000000    0.000000
  0.011958062  -43.512479   64.219780  -84.900781   62.711411    0.000000    0.000000    0.000000    0.000000
  0.012153869  -43.256459   62.114422  -84.876017   60.081020    0.000000    0.000000    0.000000    0.000000
  0.012349675  -43.191175   62.907845  -85.215790   65.391251    0.000000    0.000000    0.000000    0.000000
  0.012545481  -42.926977   64.067940  -85.689075   63.687164    0.000000    0.000000    0.000000    0.000000
  0.012741288  -42.933320   63.240276  -85.802614   63.868752    0.000000    0.000000    0.000000    0.000000
  0.012937094  -42.980367   64.142693  -85.930541   62.785843    0.000000    0.000000    0.000000    0.000000
  0.013132900  -42.882472   61.426048  -85.590527   61.419651    0.000000    0.000000    0.000000    0.000000
  0.013328706  -42.843285   62.402683  -85.932731   59.722691    0.000000    0.000000    0.000000    0.000000
  0.013524512  -42.846323   62.471313  -86.825736   60.109100    0.000000    0.000000    0.000000    0.000000
  0.013720319  -42.875947   62.325386  -86.801549   57.267284    0.000000    0.000000    0.000000    0.000000
  0.013916125  -42.791897   61.851749  -87.193065   57.268173    0.000000    0.000000    0.000000    0.000000
  0.014111931  -42.793961   61.100147  -86.701544   59.850250    0.000000    0.000000    0.000000    0.000000
  0.014307738  -42.816690   60.304657  -87.599481   52.633297    0.000000    0.000000    0.000000    0.000000
  0.014503544  -42.626460   60.315208  -86.942029   53.922348    0.000000    0.000000    0.000000    0.000000
  0.014699350  -42.394621   60.290318  -87.182968   53.885628    0.000000    0.000000    0.000000    0.000000
  0.014895156  -42.466068   59.424694  -87.570657   56.647751    0.000000    0.000000    0.000000    0.000000
  0.015090962  -42.390493   60.381569  -87.521594   52.246185    0.000000    0.000000    0.000000    0.000000
  0.015286769  -42.466164   59.087650  -87.889226   53.558414    0.000000    0.000000    0.000000    0.000000
  0.015482575  -42.208301   58.016582  -88.304671   50.423447    0.000000    0.000000    0.000000    0.000000
  0.015678381  -42.163404   57.217739  -88.050391   51.072365    0.000000    0.000000    0.000000    0.000000
  0.015874188  -41.987976   57.702232  -88.343106   53.558361    0.000000    0.000000    0.000000    0.000000
  0.016069994  -41.947643   56.725819  -88.466921   45.281143    0.000000    0.000000    0.000000    0.000000
  0.016265800  -42.081091   57.113911  -88.477284   49.020187    0.000000    0.000000    0.000000    0.000000
  0.016461606  -41.572126   55.241104  -88.876932   43.433842    0.000000    0.000000    0.000000    0.000000
  0.016657412  -41.617493   56.707973  -88.846598   45.183311    0.000000    0.000000    0.000000    0.000000
  0.016853219  -41.455206   57.014946  -89.494551   50.869415    0.000000    0.000000    0.000000    0.000000
  0.017049025  -41.134051   55.926777  -90.080356   45.913601    0.000000    0.000000    0.000000    0.000000
  0.017244831  -41.077559   55.651020  -90.045870   48.945038    0.000000    0.000000    0.000000    0.000000
  0.017440638  -41.083200   55.176208  -89.639396   43.017849    0.000000    0.000000    0.000000    0.000000
  0.017636444  -41.067357   56.810638  -89.358528   42.605450    0.000000    0.000000    0.000000    0.000000
  0.017832250  -40.925711   54.679680  -89.145607   43.873497    0.000000    0.000000    0.000000    0.000000
  0.018028056  -40.669015   55.547188  -89.529608   40.386478    0.000000    0.000000    0.000000    0.000000
  0.018223862  -40.494261   55.430305  -89.351432   42.445198    0.000000    0.000000    0.000000    0.000000
  0.018419669  -40.595690   55.436565  -90.255335   42.487732    0.000000    0.000000    0.000000    0.000000
  0.018615475  -40.555593   55.877468  -90.043804   37.927277    0.000000    0.000000    0.000000    0.000000
  0.018811281  -40.366508   54.700565  -90.206573   43.151848    0.000000    0.000000    0.000000    0.000000
  0.019007087  -40.349095   56.254234  -90.149111   45.835609    0.000000    0.000000    0.000000    0.000000
  0.019202894  -40.192050   56.677067  -90.435334   39.378216    0.000000    0.000000    0.000000    0.000000
  0.019398700  -40.285206   57.360653  -90.948231   42.919838    0.000000    0.000000    0.000000    0.000000
  0.019594506  -40.096119   56.583878  -90.501787   41.471878    0.000000    0.000000    0.000000    0.000000
  0.019790313  -40.031530   56.737316  -91.554877   44.905762    0.000000    0.000000    0.000000    0.000000
  0.019986119  -39.916047   56.626175  -91.286334   36.794220    0.000000    0.000000    0.000000    0.000000
  0.020181925  -39.927742   57.072311  -90.793536   40.735031    0.000000    0.000000    0.000000    0.000000
  0.020377731  -39.928720   56.427055  -90.709380   34.202202    0.000000    0.000000    0.000000    0.000000
  0.020573537  -39.804844   56.863930  -91.449173   29.460331    0.000000    0.000000    0.000000    0.000000
  0.020769344  -39.881951   57.856888  -91.395589   40.005718    0.000000    0.000000    0.000000    0.000000
  0.020965150  -39.789658   56.493702  -91.545822   33.589199    0.000000    0.000000    0.000000    0.000000
  0.021160956  -39.696534   56.877922  -91.784719   36.072071    0.000000    0.000000    0.000000    0.000000
  0.021356762  -39.791800   56.018257  -92.138309   33.868439    0.000000    0.000000    0.000000    0.000000
  0.021552569  -39.834348   55.521626  -91.884513   39.472252    0.000000    0.000000    0.000000    0.000000
  0.021748375  -39.775138   56.438393  -92.232925   31.748211    0.000000    0.000000    0.000000    0.000000
  0.021944181  -39.591666   56.351048  -92.021834   34.138786    0.000000    0.000000    0.000000    0.000000
  0.022139988  -39.592798   56.591831  -92.126844   37.882839    0.000000    0.000000    0.000000    0.000000
  0.022335794  -39.522655   56.634087  -92.389541   30.662472    0.000000    0.000000    0.000000    0.000000
  0.022531600  -39.666869   54.884487  -91.839497   37.838943    0.000000    0.000000    0.000000    0.000000
  0.022727406  -39.474217   55.522865  -92.971981   30.128006    0.000000    0.000000    0.000000    0.000000
  0.022923213  -39.501199   53.992092  -92.643476   34.950806    0.000000    0.000000    0.000000    0.000000
  0.023119019  -39.349696   54.641483  -91.911566   35.001305    0.000000    0.000000    0.000000    0.000000
  0.023314825  -39.376901   54.851547  -93.548183   34.207069    0.000000    0.000000    0.000000    0.000000
  0.023510631  -39.406495   53.790012  -92.972265   32.394768    0.000000    0.000000    0.000000    0.000000
  0.023706438  -39.116114   53.598675  -94.340249   29.275215    0.000000    0.000000    0.000000    0.000000
  0.023902244  -39.118878   53.702923  -93.122469   24.247026    0.000000    0.000000    0.000000    0.000000
  0.024098050  -39.051564   53.456009  -93.728073   30.120010    0.000000    0.000000    0.000000    0.000000
  0.024293856  -39.084529   53.685719  -93.298710   25.700945    0.000000    0.000000    0.000000    0.000000
  0.024489662  -38.991816   53.245995  -93.771489   28.345074    0.000000    0.000000    0.000000    0.000000
  0.024685469  -38.884684   52.802696  -94.636127   31.120684    0.000000    0.000000    0.000000    0.000000
  0.024881275  -38.821582   53.075153  -93.553074   28.138092    0.000000    0.000000    0.000000    0.000000
  0.025077081  -38.722623   53.125492  -93.935301   22.121151    0.000000    0.000000    0.000000    0.000000
  0.025272888  -38.604861   52.537334  -94.409716   22.566616    0.000000    0.000000    0.000000    0.000000
  0.025468694  -38.681966   53.156773  -94.197766   20.427326    0.000000    0.000000    0.000000    0.000000
  0.025664500  -38.504663   52.706554  -93.834993   25.468136    0.000000    0.000000    0.000000    0.000000
  0.025860306  -38.438975   52.867500  -94.505107   21.440971    0.000000    0.000000    0.000000    0.000000
  0.026056112  -38.365346   52.682087  -95.011450   29.430923    0.000000    0.000000    0.000000    0.000000
  0.026251919  -38.398608   52.506397  -94.648789   20.257023    0.000000    0.000000    0.000000    0.000000
  0.026447725  -38.352975   52.280014  -95.765343   19.047731    0.000000    0.000000    0.000000    0.000000
  0.026643531  -38.347768   52.719093  -94.284072   19.198206    0.000000    0.000000    0.000000    0.000000
  0.026839338  -38.318534   52.229038  -94.410179   12.767694    0.000000    0.000000    0.000000    0.000000
  0.027035144  -38.254777   52.146366  -95.994635   12.323666    0.000000    0.000000    0.000000    0.000000
  0.027230950  -38.163288   52.561371  -96.120028   25.517822    0.000000    0.000000    0.000000    0.000000
  0.027426756  -38.227226   53.033287  -94.880885   20.484978    0.000000    0.000000    0.000000    0.000000
  0.027622562  -38.137400   52.079967  -96.168872   20.565363    0.000000    0.000000    0.000000    0.000000
  0.027818369  -38.055765   52.316273  -95.851071   20.678719    0.000000    0.000000    0.000000    0.000000
  0.028014175  -38.029484   51.975449  -95.162388   27.444305    0.000000    0.000000    0.000000    0.000000
  0.028209981  -38.082995   51.472328  -96.550261   18.596722    0.000000    0.000000    0.000000    0.000000
  0.028405788  -38.016123   51.212605  -95.955718   17.687437    0.000000    0.000000    0.000000    0.000000
  0.028601594  -37.955597   51.350636  -96.003418   18.683796    0.000000    0.000000    0.000000    0.000000
  0.028797400  -37.975595   51.024265  -96.906662   24.690065    0.000000    0.000000    0.000000    0.000000
  0.028993206  -37.928842   51.276272  -97.060599   27.882805    0.000000    0.000000    0.000000    0.000000
  0.029189013  -37.875058   50.795940  -96.314501   16.265852    0.000000    0.000000    0.000000    0.000000
  0.029384819  -37.919409   50.537941  -96.880531   25.738972    0.000000    0.000000    0.000000    0.000000
  0.029580625  -37.900383   49.995594  -97.294827   12.770635    0.000000    0.000000    0.000000    0.000000
  0.029776431  -37.776904   49.165657  -97.182119   19.868778    0.000000    0.000000    0.000000    0.000000
  0.029972237  -37.654590   49.335083  -97.115350   18.328362    0.000000    0.000000    0.000000    0.000000
  0.030168044  -37.690228   49.088669  -96.287111   14.298662    0.000000    0.000000    0.000000    0.000000
  0.030363850  -37.667111   48.417385  -96.266109   14.751510    0.000000    0.000000    0.000000    0.000000
  0.030559656  -37.534700   48.515659  -97.245538   22.581638    0.000000    0.000000    0.000000    0.000000
  0.030755463  -37.464540   48.540428  -96.937982   19.221529    0.000000    0.000000    0.000000    0.000000
  0.030951269  -37.436042   48.175991  -97.658547   12.742892    0.000000    0.000000    0.000000    0.000000
  0.031147075  -37.308170   48.310619  -97.533879   18.131727    0.000000    0.000000    0.000000    0.000000
  0.031342881  -37.185379   48.431980  -97.812541   13.208396    0.000000    0.000000    0.000000    0.000000
  0.031538687  -37.216281   47.600414  -96.379164   23.175915    0.000000    0.000000    0.000000    0.000000
  0.031734494  -37.196429   47.194157  -97.979131    7.654123    0.000000    0.000000    0.000000    0.000000
  0.031930300  -37.112043   47.350338  -96.812135    9.275164    0.000000    0.000000    0.000000    0.000000
  0.032126106  -37.020081   46.900002  -97.849350   26.695515    0.000000    0.000000    0.000000    0.000000
  0.032321913  -36.886835   47.832386  -97.192450   16.045721    0.000000    0.000000    0.000000    0.000000
  0.032517719  -36.872998   46.964218  -98.587749   22.494390    0.000000    0.000000    0.000000    0.000000
  0.032713525  -36.783917   47.196049  -97.351261    7.531705    0.000000    0.000000    0.000000    0.000000
  0.032909331  -36.758402   47.921185  -97.511975    0.643957    0.000000    0.000000    0.000000    0.000000
  0.033105137  -36.672097   47.339592  -98.253041    6.818646    0.000000    0.000000    0.000000    0.000000
  0.033300944  -36.663672   46.962212  -98.903598   24.012974    0.000000    0.000000    0.000000    0.000000
  0.033496750  -36.577095   47.593719  -97.367111    3.236964    0.000000    0.000000    0.000000    0.000000
  0.033692556  -36.569551   47.926105  -97.139106   15.419350    0.000000    0.000000    0.000000    0.000000
  0.033888362  -36.470495   47.866528  -98.942109   17.750277    0.000000    0.000000    0.000000    0.000000
  0.034084169  -36.415629   47.528740 -101.072079   15.607110    0.000000    0.000000    0.000000    0.000000
  0.034279975  -36.388901   48.129353  -96.520665    8.824785    0.000000    0.000000    0.000000    0.000000
  0.034475781  -36.402412   47.777916  -96.988122   12.575006    0.000000    0.000000    0.000000    0.000000
  0.034671588  -36.365121   47.819386  -99.374402   14.348182    0.000000    0.000000    0.000000    0.000000
  0.034867394  -36.351553   47.357212  -97.988544    1.455819    0.000000    0.000000    0.000000    0.000000
  0.035063200  -36.330012   48.186371  -99.053744   14.415361    0.000000    0.000000    0.000000    0.000000
  0.035259006  -36.222162   47.329685  -98.875843   11.725766    0.000000    0.000000    0.000000    0.000000
  0.035454812  -36.223137   48.415592  -98.481559   15.328266    0.000000    0.000000    0.000000    0.000000
  0.035650619  -36.223030   47.951389  -97.748425   10.269775    0.000000    0.000000    0.000000    0.000000
  0.035846425  -36.136805   48.237663  -99.747990    2.776933    0.000000    0.000000    0.000000    0.000000
  0.036042231  -36.298787   48.446568  -98.819568   -7.411129    0.000000    0.000000    0.000000    0.000000
  0.036238037  -36.147236   47.158493  -98.273239    7.165876    0.000000    0.000000    0.000000    0.000000
  0.036433844  -36.052096   48.034683  -98.660737    7.397416    0.000000    0.000000    0.000000    0.000000
  0.036629650  -36.085784   48.401512  -99.319275   17.869349    0.000000    0.000000    0.000000    0.000000
  0.036825456  -36.092861   48.324829  -98.635546   -1.552122    0.000000    0.000000    0.000000    0.000000
  0.037021262  -36.079785   48.153671  -98.198701    8.505438    0.000000    0.000000    0.000000    0.000000
  0.037217069  -36.126983   47.899685 -100.441408   20.266115    0.000000    0.000000    0.000000    0.000000
  0.037412875  -36.094454   47.767490  -99.026524   17.575703    0.000000    0.000000    0.000000    0.000000
  0.037608681  -36.084465   48.590553  -99.020084    5.045255    0.000000    0.000000    0.000000    0.000000
  0.037804487  -36.068994   47.903336 -100.650817   -1.999876    0.000000    0.000000    0.000000    0.000000
  0.038000294  -36.093571   47.341465 -100.586696   12.093336    0.000000    0.000000    0.000000    0.000000
  0.038196100  -36.185061   48.415806  -99.366824   -1.104414    0.000000    0.000000    0.000000    0.000000
  0.038391906  -36.032519   47.561840  -98.495056    7.827085    0.000000    0.000000    0.000000    0.000000
  0.038587713  -35.967444   47.332668  -99.604461   16.984972    0.000000    0.000000    0.000000    0.000000
  0.038783519  -36.006026   47.167694 -102.891786   16.165487    0.000000    0.000000    0.000000    0.000000
  0.038979325  -35.936954   47.544205 -100.168874    8.877737    0.000000    0.000000    0.000000    0.000000
  0.039175131  -36.041910   47.065121  -99.973984   15.602283    0.000000    0.000000    0.000000    0.000000
  0.039370938  -35.870326   47.537357 -100.435967    7.383199    0.000000    0.000000    0.000000    0.000000
  0.039566744  -35.965106   46.839565 -102.496164   12.938164    0.000000    0.000000    0.000000    0.000000
  0.039762550  -35.879683   46.775398 -102.225356   12.622495    0.000000    0.000000    0.000000    0.000000
  0.039958356  -35.946878   47.176880  -98.961735   17.245039    0.000000    0.000000    0.000000    0.000000
  0.040154163  -35.884111   47.506294 -102.295252   -0.877447    0.000000    0.000000    0.000000    0.000000
  0.040349969  -35.959864   46.789577 -100.091114    5.321440    0.000000    0.000000    0.000000    0.000000
  0.040545775  -35.982438   46.937431 -101.298543    0.771762    0.000000    0.000000    0.000000    0.000000
  0.040741581  -36.083303   46.782406 -100.728851    6.907954    0.000000    0.000000    0.000000    0.000000
  0.040937387  -36.013376   45.951420  -98.913507   -1.376913    0.000000    0.000000    0.000000    0.000000
  0.041133194  -36.080988   45.367683 -100.949888   13.814531    0.000000    0.000000    0.000000    0.000000
  0.041329000  -35.985952   45.271549 -100.693472   -4.210674    0.000000    0.000000    0.000000    0.000000
  0.041524806  -35.959434   44.998730 -103.468157   -3.228531    0.000000    0.000000    0.000000    0.000000
  0.041720612  -36.089720   44.882740 -103.430189   -7.130183    0.000000    0.000000    0.000000    0.000000
  0.041916419  -35.996416   43.969677  -99.201551    5.364970    0.000000    0.000000    0.000000    0.000000
  0.042112225  -35.991498   44.123768 -100.598617    6.452603    0.000000    0.000000    0.000000    0.000000
