! Anritsu VNA Master:                     Model: MS2036C/10/77
! SN:                                  1601066
! /card0/usr/255.ew.n.r200.2.s2p
! Existing Calibration Information:
! TYPE:                         Current Settings,       Active Cal Settings
! TIME:             	   12/17/2017 06:57:46 PM,    12/17/2017 06:38:14 PM
! INTERNAL TEMP:    	                   42.3 C,                    43.8 C
! # POINTS:         	                      501,                       501
! START FREQ:       	               10.000 MHz,                10.000 MHz
! STOP FREQ:        	          107.903 125 MHz,           107.903 125 MHz
! SOURCE POWER:     	                     High,                      High
! IFBW:             	                   100 Hz,                    100 Hz
! AVG FACTOR:       	                       1 ,                        1 
! REF PLANE 1:      	                     0 mm,                      0 mm
! REF PLANE 2:      	                     0 mm,                      0 mm
! CAL TYPE:         	                 Full S11,                  Full S11
! CAL METHOD:       	                     SOLT,                      SOLT
! CAL LINE TYPE:    	                     Coax,                      Coax
! DUT PORT 1:       	                N-Conn(F),                 N-Conn(F)
! DUT PORT 2:       	                K-Conn(F),                 K-Conn(F)
! CAL STATUS:       	        OK: Accuracy High,                        --
# GHZ S DB R 50.0
! FREQ.GHZ       S11DB        S11A       S21DB        S21A       S12DB        S12A       S22DB        S22A
  0.010000000   -4.531208  -12.182845  -83.642122   75.370270    0.000000    0.000000    0.000000    0.000000
  0.010195806   -4.519396  -12.349626  -84.415871   76.178436    0.000000    0.000000    0.000000    0.000000
  0.010391613   -4.517828  -12.556522  -84.997802   78.422775    0.000000    0.000000    0.000000    0.000000
  0.010587419   -4.518053  -12.764513  -84.855174   75.937416    0.000000    0.000000    0.000000    0.000000
  0.010783225   -4.522805  -12.988668  -85.001900   77.079643    0.000000    0.000000    0.000000    0.000000
  0.010979031   -4.525784  -13.191599  -84.892363   77.009460    0.000000    0.000000    0.000000    0.000000
  0.011174837   -4.526430  -13.412196  -84.870452   75.303932    0.000000    0.000000    0.000000    0.000000
  0.011370644   -4.525769  -13.646820  -85.662484   75.354393    0.000000    0.000000    0.000000    0.000000
  0.011566450   -4.527445  -13.850072  -85.004367   72.133904    0.000000    0.000000    0.000000    0.000000
  0.011762256   -4.529435  -14.064147  -85.373486   74.110245    0.000000    0.000000    0.000000    0.000000
  0.011958062   -4.531141  -14.326658  -84.943984   74.699661    0.000000    0.000000    0.000000    0.000000
  0.012153869   -4.535995  -14.555466  -84.692156   72.949631    0.000000    0.000000    0.000000    0.000000
  0.012349675   -4.539066  -14.798747  -84.856690   74.296494    0.000000    0.000000    0.000000    0.000000
  0.012545481   -4.543147  -15.061279  -85.238094   67.793587    0.000000    0.000000    0.000000    0.000000
  0.012741288   -4.543360  -15.300853  -85.299615   68.285461    0.000000    0.000000    0.000000    0.000000
  0.012937094   -4.549353  -15.547703  -85.222664   63.871777    0.000000    0.000000    0.000000    0.000000
  0.013132900   -4.551507  -15.811755  -85.393061   61.620903    0.000000    0.000000    0.000000    0.000000
  0.013328706   -4.551611  -16.058889  -85.473059   63.651180    0.000000    0.000000    0.000000    0.000000
  0.013524512   -4.549935  -16.320444  -85.849682   63.546749    0.000000    0.000000    0.000000    0.000000
  0.013720319   -4.549528  -16.580605  -85.753435   59.761841    0.000000    0.000000    0.000000    0.000000
  0.013916125   -4.550943  -16.840887  -85.779581   58.558414    0.000000    0.000000    0.000000    0.000000
  0.014111931   -4.551961  -17.101313  -86.395424   57.103939    0.000000    0.000000    0.000000    0.000000
  0.014307738   -4.550094  -17.374153  -85.826635   54.829578    0.000000    0.000000    0.000000    0.000000
  0.014503544   -4.549533  -17.632265  -86.622506   50.533615    0.000000    0.000000    0.000000    0.000000
  0.014699350   -4.550891  -17.882496  -86.778515   47.397491    0.000000    0.000000    0.000000    0.000000
  0.014895156   -4.551131  -18.120869  -87.516939   47.757233    0.000000    0.000000    0.000000    0.000000
  0.015090962   -4.549616  -18.383768  -87.567190   45.944717    0.000000    0.000000    0.000000    0.000000
  0.015286769   -4.551801  -18.619677  -87.899116   49.539536    0.000000    0.000000    0.000000    0.000000
  0.015482575   -4.549113  -18.875418  -88.152613   42.287601    0.000000    0.000000    0.000000    0.000000
  0.015678381   -4.547057  -19.099159  -88.180515   44.794792    0.000000    0.000000    0.000000    0.000000
  0.015874188   -4.547561  -19.346649  -88.896540   42.351326    0.000000    0.000000    0.000000    0.000000
  0.016069994   -4.547185  -19.570820  -88.584415   46.914154    0.000000    0.000000    0.000000    0.000000
  0.016265800   -4.547572  -19.798841  -89.223982   42.700089    0.000000    0.000000    0.000000    0.000000
  0.016461606   -4.547680  -20.001730  -89.422808   44.819099    0.000000    0.000000    0.000000    0.000000
  0.016657412   -4.548526  -20.223894  -89.720644   45.615608    0.000000    0.000000    0.000000    0.000000
  0.016853219   -4.547396  -20.436092  -90.669980   49.131634    0.000000    0.000000    0.000000    0.000000
  0.017049025   -4.541691  -20.676609  -89.783478   45.394012    0.000000    0.000000    0.000000    0.000000
  0.017244831   -4.540382  -20.876450  -90.101333   48.766117    0.000000    0.000000    0.000000    0.000000
  0.017440638   -4.538398  -21.114439  -90.200766   50.897915    0.000000    0.000000    0.000000    0.000000
  0.017636444   -4.540997  -21.341171  -90.500463   49.527443    0.000000    0.000000    0.000000    0.000000
  0.017832250   -4.541329  -21.548660  -90.283567   44.052193    0.000000    0.000000    0.000000    0.000000
  0.018028056   -4.547203  -21.767000  -90.733976   54.723328    0.000000    0.000000    0.000000    0.000000
  0.018223862   -4.548075  -21.996105  -90.068570   46.321529    0.000000    0.000000    0.000000    0.000000
  0.018419669   -4.551136  -22.248043  -90.161579   48.630962    0.000000    0.000000    0.000000    0.000000
  0.018615475   -4.555931  -22.477169  -90.293538   41.089451    0.000000    0.000000    0.000000    0.000000
  0.018811281   -4.553899  -22.717457  -90.224676   40.745392    0.000000    0.000000    0.000000    0.000000
  0.019007087   -4.555541  -22.954866  -90.179864   49.371059    0.000000    0.000000    0.000000    0.000000
  0.019202894   -4.558030  -23.195705  -89.921609   41.113121    0.000000    0.000000    0.000000    0.000000
  0.019398700   -4.562124  -23.439167  -90.101291   45.858765    0.000000    0.000000    0.000000    0.000000
  0.019594506   -4.560478  -23.693253  -90.769489   40.275188    0.000000    0.000000    0.000000    0.000000
  0.019790313   -4.563152  -23.947142  -89.900044   44.894245    0.000000    0.000000    0.000000    0.000000
  0.019986119   -4.564671  -24.181583  -90.812003   39.471737    0.000000    0.000000    0.000000    0.000000
  0.020181925   -4.563271  -24.448662  -90.589616   41.563728    0.000000    0.000000    0.000000    0.000000
  0.020377731   -4.563069  -24.697145  -90.079368   34.982597    0.000000    0.000000    0.000000    0.000000
  0.020573537   -4.560175  -24.967228  -90.852434   39.217487    0.000000    0.000000    0.000000    0.000000
  0.020769344   -4.561294  -25.217112  -91.012263   30.363544    0.000000    0.000000    0.000000    0.000000
  0.020965150   -4.557684  -25.471922  -91.229109   40.301453    0.000000    0.000000    0.000000    0.000000
  0.021160956   -4.559860  -25.742443  -91.659196   36.245121    0.000000    0.000000    0.000000    0.000000
  0.021356762   -4.558603  -25.997927  -91.845942   34.700695    0.000000    0.000000    0.000000    0.000000
  0.021552569   -4.556970  -26.261736  -91.627443   32.529182    0.000000    0.000000    0.000000    0.000000
  0.021748375   -4.557587  -26.476105  -91.312286   27.624882    0.000000    0.000000    0.000000    0.000000
  0.021944181   -4.556602  -26.700230  -92.672983   29.602999    0.000000    0.000000    0.000000    0.000000
  0.022139988   -4.555750  -26.920410  -93.112575   24.580956    0.000000    0.000000    0.000000    0.000000
  0.022335794   -4.557043  -27.130821  -92.492499   27.001860    0.000000    0.000000    0.000000    0.000000
  0.022531600   -4.555614  -27.359116  -92.513112   18.527256    0.000000    0.000000    0.000000    0.000000
  0.022727406   -4.554734  -27.571564  -93.125345   30.479580    0.000000    0.000000    0.000000    0.000000
  0.022923213   -4.553820  -27.781858  -92.564347   25.064531    0.000000    0.000000    0.000000    0.000000
  0.023119019   -4.559152  -27.998741  -93.002186   30.186434    0.000000    0.000000    0.000000    0.000000
  0.023314825   -4.561339  -28.214748  -95.589976   22.474665    0.000000    0.000000    0.000000    0.000000
  0.023510631   -4.562920  -28.459114  -93.975854   29.158716    0.000000    0.000000    0.000000    0.000000
  0.023706438   -4.560800  -28.639875  -93.648410   21.782181    0.000000    0.000000    0.000000    0.000000
  0.023902244   -4.560484  -28.877609  -95.391060   27.075960    0.000000    0.000000    0.000000    0.000000
  0.024098050   -4.558920  -29.096107  -93.539199   33.664085    0.000000    0.000000    0.000000    0.000000
  0.024293856   -4.560178  -29.347889  -93.713893   26.782906    0.000000    0.000000    0.000000    0.000000
  0.024489662   -4.565613  -29.577341  -93.441136   29.722105    0.000000    0.000000    0.000000    0.000000
  0.024685469   -4.567349  -29.827808  -93.604886   32.659668    0.000000    0.000000    0.000000    0.000000
  0.024881275   -4.571138  -30.052895  -94.450219   25.984369    0.000000    0.000000    0.000000    0.000000
  0.025077081   -4.576973  -30.309156  -94.144065   26.360708    0.000000    0.000000    0.000000    0.000000
  0.025272888   -4.579177  -30.533571  -94.144964   28.863140    0.000000    0.000000    0.000000    0.000000
  0.025468694   -4.585672  -30.771166  -94.889939   28.100773    0.000000    0.000000    0.000000    0.000000
  0.025664500   -4.591567  -31.007320  -93.465023   21.112234    0.000000    0.000000    0.000000    0.000000
  0.025860306   -4.593891  -31.246557  -93.875132   28.838114    0.000000    0.000000    0.000000    0.000000
  0.026056112   -4.598491  -31.521973  -93.799533   29.708687    0.000000    0.000000    0.000000    0.000000
  0.026251919   -4.603598  -31.792547  -94.095576   25.946625    0.000000    0.000000    0.000000    0.000000
  0.026447725   -4.604622  -32.082962  -95.373645   28.240273    0.000000    0.000000    0.000000    0.000000
  0.026643531   -4.607235  -32.375492  -94.585652   20.976162    0.000000    0.000000    0.000000    0.000000
  0.026839338   -4.606756  -32.691353  -94.768547   15.318216    0.000000    0.000000    0.000000    0.000000
  0.027035144   -4.603512  -32.976608  -95.134548   25.003519    0.000000    0.000000    0.000000    0.000000
  0.027230950   -4.603629  -33.296326  -96.145784   19.000481    0.000000    0.000000    0.000000    0.000000
  0.027426756   -4.601295  -33.603565  -94.522248   16.957661    0.000000    0.000000    0.000000    0.000000
  0.027622562   -4.598572  -33.897346  -95.339682   20.006628    0.000000    0.000000    0.000000    0.000000
  0.027818369   -4.597295  -34.181622  -95.065857   23.308010    0.000000    0.000000    0.000000    0.000000
  0.028014175   -4.592833  -34.496574  -95.887797   21.884745    0.000000    0.000000    0.000000    0.000000
  0.028209981   -4.584231  -34.762905  -95.890045   12.301693    0.000000    0.000000    0.000000    0.000000
  0.028405788   -4.576122  -35.030499  -96.382378   14.094114    0.000000    0.000000    0.000000    0.000000
  0.028601594   -4.568865  -35.275692  -96.329721   21.418354    0.000000    0.000000    0.000000    0.000000
  0.028797400   -4.558614  -35.479378  -96.537742   14.647701    0.000000    0.000000    0.000000    0.000000
  0.028993206   -4.553672  -35.651131  -96.220374   16.750992    0.000000    0.000000    0.000000    0.000000
  0.029189013   -4.546036  -35.814751  -96.729777   15.756345    0.000000    0.000000    0.000000    0.000000
  0.029384819   -4.541548  -35.974369  -97.947664   14.679890    0.000000    0.000000    0.000000    0.000000
  0.029580625   -4.542518  -36.146530  -96.423217   20.282818    0.000000    0.000000    0.000000    0.000000
  0.029776431   -4.541796  -36.307430  -96.837543   21.263288    0.000000    0.000000    0.000000    0.000000
  0.029972237   -4.546271  -36.473183  -96.120850   11.772093    0.000000    0.000000    0.000000    0.000000
  0.030168044   -4.549975  -36.681614  -97.153576   11.181233    0.000000    0.000000    0.000000    0.000000
  0.030363850   -4.551509  -36.870731  -96.485301   11.126138    0.000000    0.000000    0.000000    0.000000
  0.030559656   -4.553456  -37.072987  -97.427364   24.725368    0.000000    0.000000    0.000000    0.000000
  0.030755463   -4.552572  -37.276386  -97.876720   22.074207    0.000000    0.000000    0.000000    0.000000
  0.030951269   -4.553822  -37.481445  -98.034765   20.327072    0.000000    0.000000    0.000000    0.000000
  0.031147075   -4.548298  -37.660206  -96.907770   12.036514    0.000000    0.000000    0.000000    0.000000
  0.031342881   -4.554865  -37.844643  -96.975526   -5.605266    0.000000    0.000000    0.000000    0.000000
  0.031538687   -4.554516  -38.052998  -95.154440   21.503923    0.000000    0.000000    0.000000    0.000000
  0.031734494   -4.555558  -38.238590  -97.035180    7.642939    0.000000    0.000000    0.000000    0.000000
  0.031930300   -4.556452  -38.430603  -96.540515    7.327622    0.000000    0.000000    0.000000    0.000000
  0.032126106   -4.554718  -38.631130  -99.488113   23.858799    0.000000    0.000000    0.000000    0.000000
  0.032321913   -4.557795  -38.811199  -97.170937   12.635070    0.000000    0.000000    0.000000    0.000000
  0.032517719   -4.559780  -39.015297  -97.237558   10.986058    0.000000    0.000000    0.000000    0.000000
  0.032713525   -4.560750  -39.198750  -95.990266   16.099964    0.000000    0.000000    0.000000    0.000000
  0.032909331   -4.566062  -39.428947  -96.756913   11.751704    0.000000    0.000000    0.000000    0.000000
  0.033105137   -4.573865  -39.651115  -95.827684   12.815077    0.000000    0.000000    0.000000    0.000000
  0.033300944   -4.577286  -39.893982  -97.434332   12.349738    0.000000    0.000000    0.000000    0.000000
  0.033496750   -4.590294  -40.130733  -97.285320   15.793443    0.000000    0.000000    0.000000    0.000000
  0.033692556   -4.596158  -40.415817  -99.594189   14.756255    0.000000    0.000000    0.000000    0.000000
  0.033888362   -4.603016  -40.702477  -98.786445   18.218699    0.000000    0.000000    0.000000    0.000000
  0.034084169   -4.608775  -40.989788  -95.797915    9.039986    0.000000    0.000000    0.000000    0.000000
  0.034279975   -4.614680  -41.278008 -100.674491    5.954188    0.000000    0.000000    0.000000    0.000000
  0.034475781   -4.621065  -41.595081  -98.322597    7.804504    0.000000    0.000000    0.000000    0.000000
  0.034671588   -4.625292  -41.915009 -100.111194    5.836526    0.000000    0.000000    0.000000    0.000000
  0.034867394   -4.627962  -42.246780  -97.827121   -3.216768    0.000000    0.000000    0.000000    0.000000
  0.035063200   -4.630771  -42.565834  -97.649512   15.913646    0.000000    0.000000    0.000000    0.000000
  0.035259006   -4.631371  -42.866009  -99.617718   11.727737    0.000000    0.000000    0.000000    0.000000
  0.035454812   -4.626845  -43.160339  -97.426095    9.318018    0.000000    0.000000    0.000000    0.000000
  0.035650619   -4.624748  -43.466789  -99.550687   18.157515    0.000000    0.000000    0.000000    0.000000
  0.035846425   -4.620097  -43.751751  -99.051160   15.844456    0.000000    0.000000    0.000000    0.000000
  0.036042231   -4.612828  -44.035702 -100.580759    8.808287    0.000000    0.000000    0.000000    0.000000
  0.036238037   -4.600534  -44.303375  -98.161357   18.822422    0.000000    0.000000    0.000000    0.000000
  0.036433844   -4.595880  -44.558281  -99.656307    3.373219    0.000000    0.000000    0.000000    0.000000
  0.036629650   -4.586658  -44.786007  -97.345624    5.709585    0.000000    0.000000    0.000000    0.000000
  0.036825456   -4.581086  -44.994232 -100.007391   13.571499    0.000000    0.000000    0.000000    0.000000
  0.037021262   -4.577003  -45.185005  -98.885863    7.274056    0.000000    0.000000    0.000000    0.000000
  0.037217069   -4.574659  -45.363392 -100.191397   20.016020    0.000000    0.000000    0.000000    0.000000
  0.037412875   -4.578369  -45.548035  -99.236397    8.521166    0.000000    0.000000    0.000000    0.000000
  0.037608681   -4.582843  -45.753372 -101.165818    8.463283    0.000000    0.000000    0.000000    0.000000
  0.037804487   -4.587365  -45.963467  -98.205894   15.063310    0.000000    0.000000    0.000000    0.000000
  0.038000294   -4.593019  -46.217617 -100.159544   10.332213    0.000000    0.000000    0.000000    0.000000
  0.038196100   -4.600968  -46.456123  -99.432518    2.688880    0.000000    0.000000    0.000000    0.000000
  0.038391906   -4.608998  -46.670231  -98.814416   26.859369    0.000000    0.000000    0.000000    0.000000
  0.038587713   -4.610560  -46.928089 -100.625912   12.877732    0.000000    0.000000    0.000000    0.000000
  0.038783519   -4.611515  -47.175518 -100.192858   10.518183    0.000000    0.000000    0.000000    0.000000
  0.038979325   -4.617543  -47.443153  -99.899736   21.179827    0.000000    0.000000    0.000000    0.000000
  0.039175131   -4.617174  -47.722057  -99.864907    7.024974    0.000000    0.000000    0.000000    0.000000
  0.039370938   -4.612778  -47.977596  -99.462799    5.001319    0.000000    0.000000    0.000000    0.000000
  0.039566744   -4.610119  -48.240688  -98.659641    2.834824    0.000000    0.000000    0.000000    0.000000
  0.039762550   -4.603242  -48.434200  -99.840508   -4.135400    0.000000    0.000000    0.000000    0.000000
  0.039958356   -4.601970  -48.687649 -100.939927   20.604876    0.000000    0.000000    0.000000    0.000000
  0.040154163   -4.596930  -48.921177 -100.075271    0.908151    0.000000    0.000000    0.000000    0.000000
  0.040349969   -4.595398  -49.172176 -101.714214   14.047247    0.000000    0.000000    0.000000    0.000000
  0.040545775   -4.593685  -49.393845 -101.954939   -6.681375    0.000000    0.000000    0.000000    0.000000
  0.040741581   -4.597924  -49.637360  -99.766116    4.793220    0.000000    0.000000    0.000000    0.000000
  0.040937387   -4.600323  -49.889065 -101.209803    2.442231    0.000000    0.000000    0.000000    0.000000
  0.041133194   -4.602804  -50.152454 -101.086797   -7.563475    0.000000    0.000000    0.000000    0.000000
  0.041329000   -4.606200  -50.415573 -101.790131   -1.824420    0.000000    0.000000    0.000000    0.000000
  0.041524806   -4.609392  -50.707462 -100.961654  -18.538658    0.000000    0.000000    0.000000    0.000000
  0.041720612   -4.607436  -50.997391 -101.076976    2.353883    0.000000    0.000000    0.000000    0.000000
  0.041916419   -4.605076  -51.253464  -99.838377   -8.861913    0.000000    0.000000    0.000000    0.000000
  0.042112225   -4.606979  -51.526798 -102.737486    1.799022    0.000000    0.000000    0.000000    0.000000
