! Anritsu VNA Master:                     Model: MS2036C/10/77
! SN:                                  1601066
! /card0/usr/255.ew.sma.r20.11.s2p
! Existing Calibration Information:
! TYPE:                         Current Settings,       Active Cal Settings
! TIME:             	   12/19/2017 06:06:56 PM,    12/19/2017 06:04:41 PM
! INTERNAL TEMP:    	                   40.0 C,                    39.8 C
! # POINTS:         	                      501,                       501
! START FREQ:       	               10.000 MHz,                10.000 MHz
! STOP FREQ:        	              110.000 MHz,               110.000 MHz
! SOURCE POWER:     	                     High,                      High
! IFBW:             	                   100 Hz,                    100 Hz
! AVG FACTOR:       	                       1 ,                        1 
! REF PLANE 1:      	                     0 mm,                      0 mm
! REF PLANE 2:      	                     0 mm,                      0 mm
! CAL TYPE:         	                 Full S11,                  Full S11
! CAL METHOD:       	                     SOLT,                      SOLT
! CAL LINE TYPE:    	                     Coax,                      Coax
! DUT PORT 1:       	                N-Conn(F),                 N-Conn(F)
! DUT PORT 2:       	                K-Conn(F),                 K-Conn(F)
! CAL STATUS:       	        OK: Accuracy High,                        --
# GHZ S DB R 50.0
! FREQ.GHZ       S11DB        S11A       S21DB        S21A       S12DB        S12A       S22DB        S22A
  0.010000000   -7.207343  167.795044  -82.588676   79.761253    0.000000    0.000000    0.000000    0.000000
  0.010200000   -7.196844  167.606216  -83.161251   75.766068    0.000000    0.000000    0.000000    0.000000
  0.010400000   -7.197497  167.371811  -82.804605   75.896492    0.000000    0.000000    0.000000    0.000000
  0.010600000   -7.202831  167.134720  -83.678644   72.844917    0.000000    0.000000    0.000000    0.000000
  0.010800000   -7.201309  166.900055  -83.115904   73.171425    0.000000    0.000000    0.000000    0.000000
  0.011000000   -7.200760  166.631805  -83.717307   66.399300    0.000000    0.000000    0.000000    0.000000
  0.011200000   -7.205355  166.406219  -84.049389   68.632889    0.000000    0.000000    0.000000    0.000000
  0.011400000   -7.204198  166.183136  -84.158433   66.128174    0.000000    0.000000    0.000000    0.000000
  0.011600000   -7.206994  165.944443  -84.285520   64.513748    0.000000    0.000000    0.000000    0.000000
  0.011800000   -7.206378  165.722748  -84.849760   63.203236    0.000000    0.000000    0.000000    0.000000
  0.012000000   -7.212585  165.443451  -85.564655   60.375778    0.000000    0.000000    0.000000    0.000000
  0.012200000   -7.209973  165.207489  -85.216966   62.620716    0.000000    0.000000    0.000000    0.000000
  0.012400000   -7.212216  164.938995  -85.497486   60.751179    0.000000    0.000000    0.000000    0.000000
  0.012600000   -7.213921  164.694870  -85.710407   59.224678    0.000000    0.000000    0.000000    0.000000
  0.012800000   -7.220664  164.471268  -86.669582   61.864994    0.000000    0.000000    0.000000    0.000000
  0.013000000   -7.222611  164.201721  -86.880437   58.717335    0.000000    0.000000    0.000000    0.000000
  0.013200000   -7.220843  163.966965  -86.736412   56.961155    0.000000    0.000000    0.000000    0.000000
  0.013400000   -7.226391  163.719177  -86.955152   59.385544    0.000000    0.000000    0.000000    0.000000
  0.013600000   -7.221630  163.480072  -87.419357   60.407349    0.000000    0.000000    0.000000    0.000000
  0.013800000   -7.219124  163.246918  -87.315129   57.973381    0.000000    0.000000    0.000000    0.000000
  0.014000000   -7.226076  163.011337  -87.532392   56.617592    0.000000    0.000000    0.000000    0.000000
  0.014200000   -7.226959  162.752487  -87.836869   60.893082    0.000000    0.000000    0.000000    0.000000
  0.014400000   -7.225467  162.526855  -87.577445   61.909943    0.000000    0.000000    0.000000    0.000000
  0.014600000   -7.224422  162.280884  -87.504338   58.161362    0.000000    0.000000    0.000000    0.000000
  0.014800000   -7.228659  162.029129  -87.669310   59.677608    0.000000    0.000000    0.000000    0.000000
  0.015000000   -7.232487  161.793365  -87.419002   57.541031    0.000000    0.000000    0.000000    0.000000
  0.015200000   -7.229866  161.548477  -88.108543   56.171581    0.000000    0.000000    0.000000    0.000000
  0.015400000   -7.230906  161.322327  -87.813407   56.087090    0.000000    0.000000    0.000000    0.000000
  0.015600000   -7.231099  161.058472  -88.697249   56.040939    0.000000    0.000000    0.000000    0.000000
  0.015800000   -7.233747  160.819366  -87.875554   54.569870    0.000000    0.000000    0.000000    0.000000
  0.016000000   -7.237011  160.595261  -88.159939   53.339294    0.000000    0.000000    0.000000    0.000000
  0.016200000   -7.235102  160.360184  -87.771625   51.230267    0.000000    0.000000    0.000000    0.000000
  0.016400000   -7.238748  160.145111  -88.254869   50.435406    0.000000    0.000000    0.000000    0.000000
  0.016600000   -7.236291  159.915222  -88.111876   47.207317    0.000000    0.000000    0.000000    0.000000
  0.016800000   -7.233459  159.666092  -88.946131   47.762119    0.000000    0.000000    0.000000    0.000000
  0.017000000   -7.235782  159.444626  -88.237813   47.415951    0.000000    0.000000    0.000000    0.000000
  0.017200000   -7.235581  159.194794  -88.553242   44.376453    0.000000    0.000000    0.000000    0.000000
  0.017400000   -7.236635  158.967499  -88.853478   43.485687    0.000000    0.000000    0.000000    0.000000
  0.017600000   -7.239039  158.712280  -89.429429   40.681126    0.000000    0.000000    0.000000    0.000000
  0.017800000   -7.239058  158.473480  -89.533517   43.879482    0.000000    0.000000    0.000000    0.000000
  0.018000000   -7.239514  158.213791  -89.118947   38.449520    0.000000    0.000000    0.000000    0.000000
  0.018200000   -7.243933  158.017456  -90.111566   40.564850    0.000000    0.000000    0.000000    0.000000
  0.018400000   -7.241624  157.768936  -89.735278   42.160103    0.000000    0.000000    0.000000    0.000000
  0.018600000   -7.249748  157.524918  -90.263885   36.814125    0.000000    0.000000    0.000000    0.000000
  0.018800000   -7.249338  157.278961  -91.443763   39.862438    0.000000    0.000000    0.000000    0.000000
  0.019000000   -7.247759  157.051178  -90.636195   35.117298    0.000000    0.000000    0.000000    0.000000
  0.019200000   -7.244422  156.811584  -90.870843   40.434601    0.000000    0.000000    0.000000    0.000000
  0.019400000   -7.250131  156.588730  -91.284505   32.830166    0.000000    0.000000    0.000000    0.000000
  0.019600000   -7.253228  156.343643  -90.622425   39.485126    0.000000    0.000000    0.000000    0.000000
  0.019800000   -7.252861  156.101974  -91.734247   38.046368    0.000000    0.000000    0.000000    0.000000
  0.020000000   -7.252921  155.864700  -90.582519   35.889381    0.000000    0.000000    0.000000    0.000000
  0.020200000   -7.252978  155.645248  -91.536619   39.781120    0.000000    0.000000    0.000000    0.000000
  0.020400000   -7.248788  155.382919  -91.630054   35.968056    0.000000    0.000000    0.000000    0.000000
  0.020600000   -7.248266  155.137009  -92.907280   32.402382    0.000000    0.000000    0.000000    0.000000
  0.020800000   -7.245294  154.899948  -91.360126   38.872196    0.000000    0.000000    0.000000    0.000000
  0.021000000   -7.246175  154.617996  -92.703283   35.222813    0.000000    0.000000    0.000000    0.000000
  0.021200000   -7.246004  154.404678  -91.924227   45.572571    0.000000    0.000000    0.000000    0.000000
  0.021400000   -7.249114  154.149857  -93.074514   35.966282    0.000000    0.000000    0.000000    0.000000
  0.021600000   -7.251477  153.945068  -91.516600   34.259922    0.000000    0.000000    0.000000    0.000000
  0.021800000   -7.250138  153.708298  -92.536499   42.489174    0.000000    0.000000    0.000000    0.000000
  0.022000000   -7.252991  153.482544  -91.373975   31.469810    0.000000    0.000000    0.000000    0.000000
  0.022200000   -7.254851  153.222824  -92.307774   36.816345    0.000000    0.000000    0.000000    0.000000
  0.022400000   -7.254389  152.998062  -92.492044   32.289997    0.000000    0.000000    0.000000    0.000000
  0.022600000   -7.257931  152.757675  -92.101776   34.408073    0.000000    0.000000    0.000000    0.000000
  0.022800000   -7.259379  152.555756  -91.984444   32.206886    0.000000    0.000000    0.000000    0.000000
  0.023000000   -7.259282  152.324890  -92.429996   33.765114    0.000000    0.000000    0.000000    0.000000
  0.023200000   -7.259654  152.071686  -93.150013   25.079311    0.000000    0.000000    0.000000    0.000000
  0.023400000   -7.258932  151.811859  -91.598135   26.601965    0.000000    0.000000    0.000000    0.000000
  0.023600000   -7.260919  151.583084  -92.680540   32.036762    0.000000    0.000000    0.000000    0.000000
  0.023800000   -7.257458  151.355423  -92.147523   27.686726    0.000000    0.000000    0.000000    0.000000
  0.024000000   -7.259055  151.109650  -92.867986   33.214314    0.000000    0.000000    0.000000    0.000000
  0.024200000   -7.260138  150.849823  -92.678242   30.211720    0.000000    0.000000    0.000000    0.000000
  0.024400000   -7.260923  150.612518  -93.562932   25.696115    0.000000    0.000000    0.000000    0.000000
  0.024600000   -7.257849  150.343643  -92.782280   30.329882    0.000000    0.000000    0.000000    0.000000
  0.024800000   -7.257213  150.098206  -94.015106   29.678869    0.000000    0.000000    0.000000    0.000000
  0.025000000   -7.257051  149.861832  -94.428684   27.866373    0.000000    0.000000    0.000000    0.000000
  0.025200000   -7.256458  149.643738  -93.317022   26.444727    0.000000    0.000000    0.000000    0.000000
  0.025400000   -7.258776  149.421661  -94.352030   26.073654    0.000000    0.000000    0.000000    0.000000
  0.025600000   -7.262900  149.208481  -94.816541   18.872416    0.000000    0.000000    0.000000    0.000000
  0.025800000   -7.260344  148.987778  -94.404912   23.988981    0.000000    0.000000    0.000000    0.000000
  0.026000000   -7.267093  148.781601  -95.474631   18.745750    0.000000    0.000000    0.000000    0.000000
  0.026200000   -7.263910  148.525726  -94.612822   19.469646    0.000000    0.000000    0.000000    0.000000
  0.026400000   -7.268947  148.270004  -94.636891   29.251129    0.000000    0.000000    0.000000    0.000000
  0.026600000   -7.269320  148.040771  -95.292370   21.787920    0.000000    0.000000    0.000000    0.000000
  0.026800000   -7.274588  147.788727  -94.922976   22.014338    0.000000    0.000000    0.000000    0.000000
  0.027000000   -7.272383  147.535370  -95.239256   26.836102    0.000000    0.000000    0.000000    0.000000
  0.027200000   -7.270592  147.253845  -95.097101   17.169895    0.000000    0.000000    0.000000    0.000000
  0.027400000   -7.266503  146.985992  -94.876066   23.655216    0.000000    0.000000    0.000000    0.000000
  0.027600000   -7.264870  146.766418  -95.860974   25.967215    0.000000    0.000000    0.000000    0.000000
  0.027800000   -7.263196  146.500580  -95.613060   19.149456    0.000000    0.000000    0.000000    0.000000
  0.028000000   -7.261521  146.244049  -95.264810   22.182211    0.000000    0.000000    0.000000    0.000000
  0.028200000   -7.261493  145.997864  -95.524343   19.955395    0.000000    0.000000    0.000000    0.000000
  0.028400000   -7.257490  145.785889  -94.935133   21.153084    0.000000    0.000000    0.000000    0.000000
  0.028600000   -7.255724  145.578537  -95.480502   19.577047    0.000000    0.000000    0.000000    0.000000
  0.028800000   -7.254470  145.377716  -94.728898   22.834101    0.000000    0.000000    0.000000    0.000000
  0.029000000   -7.251120  145.188843  -95.577806   15.403072    0.000000    0.000000    0.000000    0.000000
  0.029200000   -7.250858  144.995560  -95.989707   17.883986    0.000000    0.000000    0.000000    0.000000
  0.029400000   -7.250096  144.793503  -97.301145   14.495606    0.000000    0.000000    0.000000    0.000000
  0.029600000   -7.251916  144.625351  -96.053298   16.367672    0.000000    0.000000    0.000000    0.000000
  0.029800000   -7.257598  144.400574  -96.532009   15.500688    0.000000    0.000000    0.000000    0.000000
  0.030000000   -7.259496  144.174606  -96.592418   20.751554    0.000000    0.000000    0.000000    0.000000
  0.030200000   -7.262637  143.930511  -96.821720   19.696499    0.000000    0.000000    0.000000    0.000000
  0.030400000   -7.262474  143.702637  -96.736600   18.589912    0.000000    0.000000    0.000000    0.000000
  0.030600000   -7.266057  143.444275  -96.847837   14.334007    0.000000    0.000000    0.000000    0.000000
  0.030800000   -7.265839  143.175827  -97.535590   19.090374    0.000000    0.000000    0.000000    0.000000
  0.031000000   -7.267480  142.934509  -97.863687   12.742956    0.000000    0.000000    0.000000    0.000000
  0.031200000   -7.263465  142.765762  -95.789263   15.490589    0.000000    0.000000    0.000000    0.000000
  0.031400000   -7.268617  142.485168  -96.537860    1.851868    0.000000    0.000000    0.000000    0.000000
  0.031600000   -7.272687  142.214081  -97.023331   21.705946    0.000000    0.000000    0.000000    0.000000
  0.031800000   -7.268547  141.929535  -96.604876   10.711521    0.000000    0.000000    0.000000    0.000000
  0.032000000   -7.269889  141.748077  -97.967809   12.094947    0.000000    0.000000    0.000000    0.000000
  0.032200000   -7.265798  141.483917  -97.245876   30.166542    0.000000    0.000000    0.000000    0.000000
  0.032400000   -7.260782  141.243240  -98.403779    2.243742    0.000000    0.000000    0.000000    0.000000
  0.032600000   -7.254687  141.019241  -97.800181    8.512842    0.000000    0.000000    0.000000    0.000000
  0.032800000   -7.256162  140.818527  -96.077293   22.690653    0.000000    0.000000    0.000000    0.000000
  0.033000000   -7.250974  140.584045  -97.661290   18.434202    0.000000    0.000000    0.000000    0.000000
  0.033200000   -7.254752  140.402954  -96.976072   12.413566    0.000000    0.000000    0.000000    0.000000
  0.033400000   -7.254671  140.166443  -97.268990   -5.371428    0.000000    0.000000    0.000000    0.000000
  0.033600000   -7.260931  139.975937  -99.510303    0.223009    0.000000    0.000000    0.000000    0.000000
  0.033800000   -7.265559  139.753906  -98.276240   10.416278    0.000000    0.000000    0.000000    0.000000
  0.034000000   -7.270165  139.461975  -99.070215   17.606260    0.000000    0.000000    0.000000    0.000000
  0.034200000   -7.270303  139.159805  -97.863847   -3.650606    0.000000    0.000000    0.000000    0.000000
  0.034400000   -7.271577  138.904877  -97.499998   23.604259    0.000000    0.000000    0.000000    0.000000
  0.034600000   -7.277358  138.651276  -99.667981   23.637276    0.000000    0.000000    0.000000    0.000000
  0.034800000   -7.276580  138.355072  -99.283938   25.459187    0.000000    0.000000    0.000000    0.000000
  0.035000000   -7.282304  138.105011  -97.585535   10.957502    0.000000    0.000000    0.000000    0.000000
  0.035200000   -7.275998  137.868668  -98.283445   21.004402    0.000000    0.000000    0.000000    0.000000
  0.035400000   -7.266406  137.615021  -98.837453   17.961143    0.000000    0.000000    0.000000    0.000000
  0.035600000   -7.265680  137.336044  -98.757487   15.705712    0.000000    0.000000    0.000000    0.000000
  0.035800000   -7.265096  137.091843  -98.818712    9.530414    0.000000    0.000000    0.000000    0.000000
  0.036000000   -7.252855  136.857727  -97.317174   24.606817    0.000000    0.000000    0.000000    0.000000
  0.036200000   -7.248019  136.625961  -98.774719   10.901498    0.000000    0.000000    0.000000    0.000000
  0.036400000   -7.244191  136.446838  -98.904634    3.048479    0.000000    0.000000    0.000000    0.000000
  0.036600000   -7.239101  136.222351  -99.710768    9.436284    0.000000    0.000000    0.000000    0.000000
  0.036800000   -7.234224  136.012634 -101.898962    3.395999    0.000000    0.000000    0.000000    0.000000
  0.037000000   -7.237770  135.820618  -99.199452   13.697727    0.000000    0.000000    0.000000    0.000000
  0.037200000   -7.240006  135.644028  -99.702400   16.610264    0.000000    0.000000    0.000000    0.000000
  0.037400000   -7.244246  135.399368  -99.529409   13.545267    0.000000    0.000000    0.000000    0.000000
  0.037600000   -7.242860  135.204819  -98.965203    8.399136    0.000000    0.000000    0.000000    0.000000
  0.037800000   -7.245302  134.948410  -99.520154    2.199821    0.000000    0.000000    0.000000    0.000000
  0.038000000   -7.252307  134.686722  -98.094909    3.006706    0.000000    0.000000    0.000000    0.000000
  0.038200000   -7.255963  134.473145 -100.817699   -4.041559    0.000000    0.000000    0.000000    0.000000
  0.038400000   -7.260640  134.262466 -100.627533    6.879441    0.000000    0.000000    0.000000    0.000000
  0.038600000   -7.265731  133.967239 -100.542273    3.522894    0.000000    0.000000    0.000000    0.000000
  0.038800000   -7.267762  133.743484 -101.191879    5.040517    0.000000    0.000000    0.000000    0.000000
  0.039000000   -7.266512  133.487122 -100.743685    5.969764    0.000000    0.000000    0.000000    0.000000
  0.039200000   -7.266541  133.256958  -99.343637   -0.629297    0.000000    0.000000    0.000000    0.000000
  0.039400000   -7.264939  133.002243 -100.841603   15.649759    0.000000    0.000000    0.000000    0.000000
  0.039600000   -7.264272  132.764267  -99.495087    5.723181    0.000000    0.000000    0.000000    0.000000
  0.039800000   -7.256916  132.489487  -99.514072    2.773772    0.000000    0.000000    0.000000    0.000000
  0.040000000   -7.251303  132.255127 -101.168708   20.414808    0.000000    0.000000    0.000000    0.000000
  0.040200000   -7.250904  132.012024 -100.373005   10.739496    0.000000    0.000000    0.000000    0.000000
  0.040400000   -7.245345  131.808838 -100.781328   10.613925    0.000000    0.000000    0.000000    0.000000
  0.040600000   -7.241954  131.609909 -103.604099    4.458927    0.000000    0.000000    0.000000    0.000000
  0.040800000   -7.247814  131.407150 -100.963343   13.424873    0.000000    0.000000    0.000000    0.000000
  0.041000000   -7.247184  131.226379 -100.546802    9.977231    0.000000    0.000000    0.000000    0.000000
  0.041200000   -7.251821  130.988342 -100.122742   -4.135574    0.000000    0.000000    0.000000    0.000000
  0.041400000   -7.263744  130.764389 -100.401075    2.301722    0.000000    0.000000    0.000000    0.000000
  0.041600000   -7.265327  130.490051  -98.644753    3.426462    0.000000    0.000000    0.000000    0.000000
  0.041800000   -7.274834  130.254715 -101.853566    4.917268    0.000000    0.000000    0.000000    0.000000
  0.042000000   -7.277377  130.004929  -99.871168    2.622376    0.000000    0.000000    0.000000    0.000000
  0.042200000   -7.276848  129.724396 -100.054888    1.891916    0.000000    0.000000    0.000000    0.000000
  0.042400000   -7.276885  129.471466 -101.385540   20.678797    0.000000    0.000000    0.000000    0.000000
  0.042600000   -7.275107  129.219070 -100.725438    7.491796    0.000000    0.000000    0.000000    0.000000
  0.042800000   -7.268521  128.935394  -98.995236    1.037423    0.000000    0.000000    0.000000    0.000000
