! Anritsu VNA Master:                     Model: MS2036C/10/77
! SN:                                  1601066
! /card0/usr/255.ns.sma.r50.21.s2p
! Existing Calibration Information:
! TYPE:                         Current Settings,       Active Cal Settings
! TIME:             	   12/19/2017 07:12:53 PM,    12/19/2017 06:59:48 PM
! INTERNAL TEMP:    	                   40.0 C,                    39.3 C
! # POINTS:         	                      501,                       501
! START FREQ:       	               10.000 MHz,                10.000 MHz
! STOP FREQ:        	              110.000 MHz,               110.000 MHz
! SOURCE POWER:     	                     High,                      High
! IFBW:             	                   100 Hz,                    100 Hz
! AVG FACTOR:       	                       1 ,                        1 
! REF PLANE 1:      	                     0 mm,                      0 mm
! REF PLANE 2:      	                     0 mm,                      0 mm
! CAL TYPE:         	                 Full S11,                  Full S11
! CAL METHOD:       	                     SOLT,                      SOLT
! CAL LINE TYPE:    	                     Coax,                      Coax
! DUT PORT 1:       	                N-Conn(F),                 N-Conn(F)
! DUT PORT 2:       	                K-Conn(F),                 K-Conn(F)
! CAL STATUS:       	        OK: Accuracy High,                        --
# GHZ S DB R 50.0
! FREQ.GHZ       S11DB        S11A       S21DB        S21A       S12DB        S12A       S22DB        S22A
  0.010000000  -44.873313   60.711777  -83.244890   76.572258    0.000000    0.000000    0.000000    0.000000
  0.010200000  -44.696528   62.279579  -83.734926   76.448769    0.000000    0.000000    0.000000    0.000000
  0.010400000  -44.500851   61.949440  -83.929383   76.404152    0.000000    0.000000    0.000000    0.000000
  0.010600000  -44.686295   60.682747  -83.581184   75.016106    0.000000    0.000000    0.000000    0.000000
  0.010800000  -44.188107   60.188610  -84.650359   75.761902    0.000000    0.000000    0.000000    0.000000
  0.011000000  -44.371130   60.734650  -84.188904   73.109375    0.000000    0.000000    0.000000    0.000000
  0.011200000  -43.994471   59.875912  -84.684127   70.151756    0.000000    0.000000    0.000000    0.000000
  0.011400000  -43.884709   60.330467  -84.853401   71.811111    0.000000    0.000000    0.000000    0.000000
  0.011600000  -43.944659   61.305782  -84.645850   67.528519    0.000000    0.000000    0.000000    0.000000
  0.011800000  -43.780736   59.922970  -85.103971   69.237190    0.000000    0.000000    0.000000    0.000000
  0.012000000  -43.603706   60.444191  -85.218572   67.654739    0.000000    0.000000    0.000000    0.000000
  0.012200000  -43.444346   61.134830  -84.872634   69.564857    0.000000    0.000000    0.000000    0.000000
  0.012400000  -43.373290   60.316608  -85.473778   64.789658    0.000000    0.000000    0.000000    0.000000
  0.012600000  -43.307153   61.906021  -85.146563   65.302643    0.000000    0.000000    0.000000    0.000000
  0.012800000  -43.085489   61.544827  -86.136110   64.398819    0.000000    0.000000    0.000000    0.000000
  0.013000000  -42.994938   60.714767  -85.870155   60.312515    0.000000    0.000000    0.000000    0.000000
  0.013200000  -43.197962   59.606434  -86.033302   62.527027    0.000000    0.000000    0.000000    0.000000
  0.013400000  -43.204833   59.330925  -86.682854   59.314785    0.000000    0.000000    0.000000    0.000000
  0.013600000  -43.202058   60.136257  -86.332371   59.946175    0.000000    0.000000    0.000000    0.000000
  0.013800000  -43.084762   60.455555  -86.561789   59.075169    0.000000    0.000000    0.000000    0.000000
  0.014000000  -42.762018   59.556587  -86.680694   58.035980    0.000000    0.000000    0.000000    0.000000
  0.014200000  -42.790269   59.483692  -86.701133   54.090065    0.000000    0.000000    0.000000    0.000000
  0.014400000  -42.673362   57.928249  -87.130801   58.936871    0.000000    0.000000    0.000000    0.000000
  0.014600000  -42.697443   58.439522  -87.458618   55.649540    0.000000    0.000000    0.000000    0.000000
  0.014800000  -42.488697   58.834190  -87.543580   54.503658    0.000000    0.000000    0.000000    0.000000
  0.015000000  -42.354854   57.782631  -87.488195   53.853294    0.000000    0.000000    0.000000    0.000000
  0.015200000  -42.187844   57.181877  -87.952189   55.551216    0.000000    0.000000    0.000000    0.000000
  0.015400000  -42.092604   58.286083  -87.791509   55.364758    0.000000    0.000000    0.000000    0.000000
  0.015600000  -42.229158   57.036076  -88.524052   51.352631    0.000000    0.000000    0.000000    0.000000
  0.015800000  -42.048935   55.949783  -88.151035   50.492428    0.000000    0.000000    0.000000    0.000000
  0.016000000  -41.890543   55.072201  -88.406042   48.997456    0.000000    0.000000    0.000000    0.000000
  0.016200000  -41.789839   55.208092  -88.346584   53.059826    0.000000    0.000000    0.000000    0.000000
  0.016400000  -41.588957   55.088646  -89.227217   48.821449    0.000000    0.000000    0.000000    0.000000
  0.016600000  -41.504321   55.894844  -88.647997   47.483246    0.000000    0.000000    0.000000    0.000000
  0.016800000  -41.410356   55.519249  -89.728176   46.588955    0.000000    0.000000    0.000000    0.000000
  0.017000000  -41.272089   54.192471  -90.154955   48.760979    0.000000    0.000000    0.000000    0.000000
  0.017200000  -41.165218   55.835518  -89.249173   43.730110    0.000000    0.000000    0.000000    0.000000
  0.017400000  -41.123907   55.145302  -89.252793   47.711281    0.000000    0.000000    0.000000    0.000000
  0.017600000  -41.019504   54.294060  -89.398269   41.784664    0.000000    0.000000    0.000000    0.000000
  0.017800000  -40.953265   55.942440  -90.048704   46.390808    0.000000    0.000000    0.000000    0.000000
  0.018000000  -40.624508   55.502365  -90.117838   38.798950    0.000000    0.000000    0.000000    0.000000
  0.018200000  -40.529106   56.405964  -89.551494   44.776493    0.000000    0.000000    0.000000    0.000000
  0.018400000  -40.619235   55.652821  -89.948056   40.262535    0.000000    0.000000    0.000000    0.000000
  0.018600000  -40.359236   56.184643  -91.051827   45.349236    0.000000    0.000000    0.000000    0.000000
  0.018800000  -40.400202   56.042156  -89.691266   39.307243    0.000000    0.000000    0.000000    0.000000
  0.019000000  -40.386696   56.249840  -90.868329   35.875401    0.000000    0.000000    0.000000    0.000000
  0.019200000  -40.248275   56.147247  -90.574721   39.881092    0.000000    0.000000    0.000000    0.000000
  0.019400000  -40.301856   56.875462  -91.043777   36.448666    0.000000    0.000000    0.000000    0.000000
  0.019600000  -40.206644   57.150753  -91.038620   36.478897    0.000000    0.000000    0.000000    0.000000
  0.019800000  -40.304922   58.316025  -91.774328   31.984957    0.000000    0.000000    0.000000    0.000000
  0.020000000  -40.117744   56.885925  -91.460782   39.981232    0.000000    0.000000    0.000000    0.000000
  0.020200000  -40.152000   57.330799  -91.269153   41.410606    0.000000    0.000000    0.000000    0.000000
  0.020400000  -39.983220   57.792007  -91.283112   39.561775    0.000000    0.000000    0.000000    0.000000
  0.020600000  -39.923916   56.984337  -91.879695   36.002731    0.000000    0.000000    0.000000    0.000000
  0.020800000  -39.955489   56.971191  -90.796375   43.622635    0.000000    0.000000    0.000000    0.000000
  0.021000000  -40.048170   57.196388  -91.754109   32.062569    0.000000    0.000000    0.000000    0.000000
  0.021200000  -39.942529   57.364620  -91.777507   37.960312    0.000000    0.000000    0.000000    0.000000
  0.021400000  -39.851901   57.664642  -91.765629   35.906166    0.000000    0.000000    0.000000    0.000000
  0.021600000  -39.953838   56.631538  -92.136552   32.968731    0.000000    0.000000    0.000000    0.000000
  0.021800000  -39.977824   55.992859  -92.379824   36.222771    0.000000    0.000000    0.000000    0.000000
  0.022000000  -39.782310   57.388683  -93.239949   37.442204    0.000000    0.000000    0.000000    0.000000
  0.022200000  -39.659140   56.226536  -92.098664   24.805450    0.000000    0.000000    0.000000    0.000000
  0.022400000  -39.721782   55.834007  -92.930080   29.790102    0.000000    0.000000    0.000000    0.000000
  0.022600000  -39.765877   55.465347  -92.188445   34.493122    0.000000    0.000000    0.000000    0.000000
  0.022800000  -39.721260   55.161304  -91.416699   29.450283    0.000000    0.000000    0.000000    0.000000
  0.023000000  -39.726277   55.194599  -92.503237   35.170807    0.000000    0.000000    0.000000    0.000000
  0.023200000  -39.578815   54.345078  -92.856376   32.039753    0.000000    0.000000    0.000000    0.000000
  0.023400000  -39.567566   55.264381  -93.188411   24.813848    0.000000    0.000000    0.000000    0.000000
  0.023600000  -39.562588   54.601612  -93.638774   32.816788    0.000000    0.000000    0.000000    0.000000
  0.023800000  -39.492174   53.438000  -93.382866   32.780643    0.000000    0.000000    0.000000    0.000000
  0.024000000  -39.311792   53.886990  -93.059420   33.129379    0.000000    0.000000    0.000000    0.000000
  0.024200000  -39.348952   54.060539  -93.348899   28.118202    0.000000    0.000000    0.000000    0.000000
  0.024400000  -39.317656   53.072441  -92.304506   25.194660    0.000000    0.000000    0.000000    0.000000
  0.024600000  -39.179397   52.991783  -93.623947   28.822443    0.000000    0.000000    0.000000    0.000000
  0.024800000  -39.162326   52.679939  -94.723301   27.329880    0.000000    0.000000    0.000000    0.000000
  0.025000000  -39.038683   53.094288  -92.993468   26.841026    0.000000    0.000000    0.000000    0.000000
  0.025200000  -39.093409   52.452839  -94.116667   30.374695    0.000000    0.000000    0.000000    0.000000
  0.025400000  -39.058265   52.086796  -94.598490   29.653946    0.000000    0.000000    0.000000    0.000000
  0.025600000  -38.840943   52.080238  -94.344058   24.248711    0.000000    0.000000    0.000000    0.000000
  0.025800000  -39.016887   52.596409  -95.846042   25.014147    0.000000    0.000000    0.000000    0.000000
  0.026000000  -38.785000   52.600449  -94.120368   33.195599    0.000000    0.000000    0.000000    0.000000
  0.026200000  -38.706286   52.250973  -95.172728   25.588873    0.000000    0.000000    0.000000    0.000000
  0.026400000  -38.725632   51.327789  -94.870443   26.328659    0.000000    0.000000    0.000000    0.000000
  0.026600000  -38.784670   52.084827  -94.804713   29.000834    0.000000    0.000000    0.000000    0.000000
  0.026800000  -38.711564   51.543591  -94.987401   19.708384    0.000000    0.000000    0.000000    0.000000
  0.027000000  -38.602174   52.232018  -95.416574   23.280531    0.000000    0.000000    0.000000    0.000000
  0.027200000  -38.594841   51.175091  -96.173310   20.202888    0.000000    0.000000    0.000000    0.000000
  0.027400000  -38.567896   51.483128  -95.258468   25.266209    0.000000    0.000000    0.000000    0.000000
  0.027600000  -38.420933   50.773132  -96.422939   26.211481    0.000000    0.000000    0.000000    0.000000
  0.027800000  -38.457951   51.292217  -96.544549   18.096270    0.000000    0.000000    0.000000    0.000000
  0.028000000  -38.468248   50.848034  -94.556915   23.920855    0.000000    0.000000    0.000000    0.000000
  0.028200000  -38.314142   50.335052  -96.355942   23.621078    0.000000    0.000000    0.000000    0.000000
  0.028400000  -38.339803   50.547310  -95.998175   25.631641    0.000000    0.000000    0.000000    0.000000
  0.028600000  -38.333827   50.402451  -95.515912   24.104599    0.000000    0.000000    0.000000    0.000000
  0.028800000  -38.295319   49.581158  -96.709589   23.242373    0.000000    0.000000    0.000000    0.000000
  0.029000000  -38.229378   49.140686  -96.575766   17.080454    0.000000    0.000000    0.000000    0.000000
  0.029200000  -38.184805   49.298710  -96.722337   19.007824    0.000000    0.000000    0.000000    0.000000
  0.029400000  -38.036677   49.034039  -96.040980   22.388527    0.000000    0.000000    0.000000    0.000000
  0.029600000  -37.980881   48.771217  -95.213679   18.505657    0.000000    0.000000    0.000000    0.000000
  0.029800000  -37.923005   48.272209  -96.207162   15.915289    0.000000    0.000000    0.000000    0.000000
  0.030000000  -37.901978   48.537277  -98.046916   23.532230    0.000000    0.000000    0.000000    0.000000
  0.030200000  -37.724742   48.355614  -95.968251   10.115647    0.000000    0.000000    0.000000    0.000000
  0.030400000  -37.756681   48.122795  -96.471574   18.581247    0.000000    0.000000    0.000000    0.000000
  0.030600000  -37.594888   48.116634  -96.210269   19.846966    0.000000    0.000000    0.000000    0.000000
  0.030800000  -37.523906   47.896519  -96.802154   17.671721    0.000000    0.000000    0.000000    0.000000
  0.031000000  -37.520662   48.554466  -97.458389   15.729212    0.000000    0.000000    0.000000    0.000000
  0.031200000  -37.501553   47.966076  -96.584170   15.753204    0.000000    0.000000    0.000000    0.000000
  0.031400000  -37.349159   47.587059  -96.982799    8.342805    0.000000    0.000000    0.000000    0.000000
  0.031600000  -37.378320   47.747337  -97.949057   17.561733    0.000000    0.000000    0.000000    0.000000
  0.031800000  -37.260294   48.259926  -96.211411   10.094307    0.000000    0.000000    0.000000    0.000000
  0.032000000  -37.185953   48.101929  -96.600354   15.959507    0.000000    0.000000    0.000000    0.000000
  0.032200000  -37.200501   48.809334  -96.806383   21.828220    0.000000    0.000000    0.000000    0.000000
  0.032400000  -37.042052   47.750240  -98.294779   16.497389    0.000000    0.000000    0.000000    0.000000
  0.032600000  -37.034912   47.941048  -97.488498    8.129569    0.000000    0.000000    0.000000    0.000000
  0.032800000  -36.909193   48.272957  -95.595524   17.763384    0.000000    0.000000    0.000000    0.000000
  0.033000000  -37.006445   47.658295  -95.865193   10.344325    0.000000    0.000000    0.000000    0.000000
  0.033200000  -36.990469   48.523273  -98.749975   16.660133    0.000000    0.000000    0.000000    0.000000
  0.033400000  -37.077175   48.326134  -97.420585   14.009604    0.000000    0.000000    0.000000    0.000000
  0.033600000  -37.006605   47.835732  -99.726027  -11.116784    0.000000    0.000000    0.000000    0.000000
  0.033800000  -36.744317   48.414913  -99.176407   21.613092    0.000000    0.000000    0.000000    0.000000
  0.034000000  -36.843952   48.312382 -100.665400   12.602725    0.000000    0.000000    0.000000    0.000000
  0.034200000  -36.782861   47.295158  -98.865309    9.522762    0.000000    0.000000    0.000000    0.000000
  0.034400000  -36.900061   48.246429  -98.019844    8.501826    0.000000    0.000000    0.000000    0.000000
  0.034600000  -36.852610   48.488377  -97.636420   21.272236    0.000000    0.000000    0.000000    0.000000
  0.034800000  -36.752228   47.113537  -97.546287   16.007874    0.000000    0.000000    0.000000    0.000000
  0.035000000  -36.880681   47.637756  -96.323394   16.563066    0.000000    0.000000    0.000000    0.000000
  0.035200000  -36.778890   47.693325  -98.435214   12.249238    0.000000    0.000000    0.000000    0.000000
  0.035400000  -36.741899   47.555836  -97.748084   -1.673186    0.000000    0.000000    0.000000    0.000000
  0.035600000  -36.868964   46.952705  -98.785197   17.126934    0.000000    0.000000    0.000000    0.000000
  0.035800000  -36.708155   46.836620  -99.988238    0.829917    0.000000    0.000000    0.000000    0.000000
  0.036000000  -36.642347   47.517326  -99.429224   18.832588    0.000000    0.000000    0.000000    0.000000
  0.036200000  -36.658339   46.380287  -97.338738   11.535574    0.000000    0.000000    0.000000    0.000000
  0.036400000  -36.669018   46.433910  -98.127889    4.673781    0.000000    0.000000    0.000000    0.000000
  0.036600000  -36.571774   47.183605  -99.290682   21.643204    0.000000    0.000000    0.000000    0.000000
  0.036800000  -36.580051   46.475063 -103.714931   23.890593    0.000000    0.000000    0.000000    0.000000
  0.037000000  -36.493265   46.230354  -99.234179   12.488647    0.000000    0.000000    0.000000    0.000000
  0.037200000  -36.478171   45.501842  -98.458633   12.112638    0.000000    0.000000    0.000000    0.000000
  0.037400000  -36.435280   44.913998  -99.994445    7.217522    0.000000    0.000000    0.000000    0.000000
  0.037600000  -36.339255   44.817390  -98.999240   14.301806    0.000000    0.000000    0.000000    0.000000
  0.037800000  -36.367591   44.968533  -99.563770   -4.699711    0.000000    0.000000    0.000000    0.000000
  0.038000000  -36.196871   44.669220  -99.521010    3.929827    0.000000    0.000000    0.000000    0.000000
  0.038200000  -36.304264   45.076775  -99.884533   20.268869    0.000000    0.000000    0.000000    0.000000
  0.038400000  -36.215374   44.497391  -99.252278   18.369783    0.000000    0.000000    0.000000    0.000000
  0.038600000  -36.241773   44.266388 -102.637174   19.120781    0.000000    0.000000    0.000000    0.000000
  0.038800000  -36.143723   43.901367 -100.427111   -0.584212    0.000000    0.000000    0.000000    0.000000
  0.039000000  -36.152995   44.148689 -101.316267    8.662302    0.000000    0.000000    0.000000    0.000000
  0.039200000  -36.156700   43.404007 -102.027377   16.261337    0.000000    0.000000    0.000000    0.000000
  0.039400000  -35.971824   43.611717  -99.678620   18.546589    0.000000    0.000000    0.000000    0.000000
  0.039600000  -36.003058   44.049198  -99.611322   10.614559    0.000000    0.000000    0.000000    0.000000
  0.039800000  -35.908344   43.362976  -99.482206    6.477571    0.000000    0.000000    0.000000    0.000000
  0.040000000  -35.980696   44.088379 -102.715161    6.098865    0.000000    0.000000    0.000000    0.000000
  0.040200000  -35.941948   43.951485  -98.169596   16.024761    0.000000    0.000000    0.000000    0.000000
  0.040400000  -35.862984   43.782036 -102.445807    4.428214    0.000000    0.000000    0.000000    0.000000
  0.040600000  -35.872841   42.995377 -101.687241    3.610483    0.000000    0.000000    0.000000    0.000000
  0.040800000  -35.851621   42.863220 -100.569038   17.870291    0.000000    0.000000    0.000000    0.000000
  0.041000000  -35.863991   42.640312  -99.333808   26.043968    0.000000    0.000000    0.000000    0.000000
  0.041200000  -35.798758   42.733971 -101.810124    0.172777    0.000000    0.000000    0.000000    0.000000
  0.041400000  -35.726144   42.634350 -102.883410   -4.828664    0.000000    0.000000    0.000000    0.000000
  0.041600000  -35.728638   42.227421  -99.872556    4.921118    0.000000    0.000000    0.000000    0.000000
  0.041800000  -35.714638   42.381958 -100.511843   17.003075    0.000000    0.000000    0.000000    0.000000
  0.042000000  -35.627913   42.122345 -100.679586    6.152976    0.000000    0.000000    0.000000    0.000000
  0.042200000  -35.669830   41.722961 -101.065793   13.234121    0.000000    0.000000    0.000000    0.000000
  0.042400000  -35.586745   41.646763 -101.236396   -7.752724    0.000000    0.000000    0.000000    0.000000
  0.042600000  -35.576218   41.917347  -99.796616   12.833156    0.000000    0.000000    0.000000    0.000000
  0.042800000  -35.369540   41.638706 -101.791481   -5.043457    0.000000    0.000000    0.000000    0.000000
