! Anritsu VNA Master:                     Model: MS2036C/10/77
! SN:                                  1601066
! /card0/usr/255.ew.sma.r200.11.s2p
! Existing Calibration Information:
! TYPE:                         Current Settings,       Active Cal Settings
! TIME:             	   12/19/2017 06:09:31 PM,    12/19/2017 06:04:41 PM
! INTERNAL TEMP:    	                   40.3 C,                    39.8 C
! # POINTS:         	                      501,                       501
! START FREQ:       	               10.000 MHz,                10.000 MHz
! STOP FREQ:        	              110.000 MHz,               110.000 MHz
! SOURCE POWER:     	                     High,                      High
! IFBW:             	                   100 Hz,                    100 Hz
! AVG FACTOR:       	                       1 ,                        1 
! REF PLANE 1:      	                     0 mm,                      0 mm
! REF PLANE 2:      	                     0 mm,                      0 mm
! CAL TYPE:         	                 Full S11,                  Full S11
! CAL METHOD:       	                     SOLT,                      SOLT
! CAL LINE TYPE:    	                     Coax,                      Coax
! DUT PORT 1:       	                N-Conn(F),                 N-Conn(F)
! DUT PORT 2:       	                K-Conn(F),                 K-Conn(F)
! CAL STATUS:       	        OK: Accuracy High,                        --
# GHZ S DB R 50.0
! FREQ.GHZ       S11DB        S11A       S21DB        S21A       S12DB        S12A       S22DB        S22A
  0.010000000   -4.560009  -10.783387  -84.728032   77.650581    0.000000    0.000000    0.000000    0.000000
  0.010200000   -4.547860  -10.969146  -84.552282   77.211914    0.000000    0.000000    0.000000    0.000000
  0.010400000   -4.547398  -11.181523  -85.264159   76.019981    0.000000    0.000000    0.000000    0.000000
  0.010600000   -4.550512  -11.402735  -84.463599   77.934113    0.000000    0.000000    0.000000    0.000000
  0.010800000   -4.550413  -11.649055  -85.237517   75.050682    0.000000    0.000000    0.000000    0.000000
  0.011000000   -4.556052  -11.879129  -84.966767   75.529854    0.000000    0.000000    0.000000    0.000000
  0.011200000   -4.554676  -12.077200  -84.752521   77.454315    0.000000    0.000000    0.000000    0.000000
  0.011400000   -4.549923  -12.312982  -85.524042   76.090164    0.000000    0.000000    0.000000    0.000000
  0.011600000   -4.548678  -12.503827  -85.246678   75.903984    0.000000    0.000000    0.000000    0.000000
  0.011800000   -4.550888  -12.739767  -84.894865   73.011887    0.000000    0.000000    0.000000    0.000000
  0.012000000   -4.551150  -12.947666  -85.144054   74.143791    0.000000    0.000000    0.000000    0.000000
  0.012200000   -4.551910  -13.198560  -85.029904   68.645798    0.000000    0.000000    0.000000    0.000000
  0.012400000   -4.549858  -13.418464  -85.260762   71.435364    0.000000    0.000000    0.000000    0.000000
  0.012600000   -4.551083  -13.617030  -84.948482   70.962029    0.000000    0.000000    0.000000    0.000000
  0.012800000   -4.552718  -13.859341  -84.984060   68.179741    0.000000    0.000000    0.000000    0.000000
  0.013000000   -4.554144  -14.059038  -85.141363   66.918098    0.000000    0.000000    0.000000    0.000000
  0.013200000   -4.556520  -14.274956  -84.925600   64.173615    0.000000    0.000000    0.000000    0.000000
  0.013400000   -4.553638  -14.473937  -85.331810   61.465309    0.000000    0.000000    0.000000    0.000000
  0.013600000   -4.550668  -14.694116  -86.035965   57.346199    0.000000    0.000000    0.000000    0.000000
  0.013800000   -4.550415  -14.899714  -85.877641   60.236313    0.000000    0.000000    0.000000    0.000000
  0.014000000   -4.551873  -15.121978  -86.070098   55.515354    0.000000    0.000000    0.000000    0.000000
  0.014200000   -4.550545  -15.330276  -86.024113   53.989483    0.000000    0.000000    0.000000    0.000000
  0.014400000   -4.556184  -15.568081  -86.083620   53.751499    0.000000    0.000000    0.000000    0.000000
  0.014600000   -4.555171  -15.781780  -86.587270   51.773312    0.000000    0.000000    0.000000    0.000000
  0.014800000   -4.556488  -16.002977  -87.075192   48.177933    0.000000    0.000000    0.000000    0.000000
  0.015000000   -4.555894  -16.203987  -87.369557   51.848621    0.000000    0.000000    0.000000    0.000000
  0.015200000   -4.559569  -16.438200  -87.382226   48.818878    0.000000    0.000000    0.000000    0.000000
  0.015400000   -4.559860  -16.665300  -87.585039   49.249569    0.000000    0.000000    0.000000    0.000000
  0.015600000   -4.561732  -16.870441  -88.373237   43.107391    0.000000    0.000000    0.000000    0.000000
  0.015800000   -4.562538  -17.122181  -88.053791   47.008156    0.000000    0.000000    0.000000    0.000000
  0.016000000   -4.561641  -17.342991  -88.505444   47.486958    0.000000    0.000000    0.000000    0.000000
  0.016200000   -4.564812  -17.554016  -89.364358   41.840378    0.000000    0.000000    0.000000    0.000000
  0.016400000   -4.566660  -17.784933  -89.349841   40.303482    0.000000    0.000000    0.000000    0.000000
  0.016600000   -4.568859  -18.023525  -89.324462   43.218666    0.000000    0.000000    0.000000    0.000000
  0.016800000   -4.567689  -18.222567  -89.817891   47.954113    0.000000    0.000000    0.000000    0.000000
  0.017000000   -4.567674  -18.465298  -89.077052   39.988430    0.000000    0.000000    0.000000    0.000000
  0.017200000   -4.564233  -18.691311  -90.335264   44.273201    0.000000    0.000000    0.000000    0.000000
  0.017400000   -4.564758  -18.908175  -90.447269   50.841560    0.000000    0.000000    0.000000    0.000000
  0.017600000   -4.565356  -19.153214  -90.150088   46.283539    0.000000    0.000000    0.000000    0.000000
  0.017800000   -4.564164  -19.351765  -89.853283   48.427959    0.000000    0.000000    0.000000    0.000000
  0.018000000   -4.562398  -19.572903  -90.285107   42.948143    0.000000    0.000000    0.000000    0.000000
  0.018200000   -4.568247  -19.786175  -90.367969   51.468105    0.000000    0.000000    0.000000    0.000000
  0.018400000   -4.569459  -20.030052  -90.752896   44.455231    0.000000    0.000000    0.000000    0.000000
  0.018600000   -4.567747  -20.234085  -90.468038   55.847843    0.000000    0.000000    0.000000    0.000000
  0.018800000   -4.567574  -20.469090  -90.516142   44.501156    0.000000    0.000000    0.000000    0.000000
  0.019000000   -4.569660  -20.684273  -89.730188   48.896759    0.000000    0.000000    0.000000    0.000000
  0.019200000   -4.567711  -20.869576  -90.288029   43.351994    0.000000    0.000000    0.000000    0.000000
  0.019400000   -4.567746  -21.084263  -90.034402   44.890026    0.000000    0.000000    0.000000    0.000000
  0.019600000   -4.567733  -21.306217  -90.096794   43.149788    0.000000    0.000000    0.000000    0.000000
  0.019800000   -4.567794  -21.501501  -89.569771   37.801712    0.000000    0.000000    0.000000    0.000000
  0.020000000   -4.568836  -21.721851  -90.727971   43.526695    0.000000    0.000000    0.000000    0.000000
  0.020200000   -4.565242  -21.945742  -89.887019   39.299324    0.000000    0.000000    0.000000    0.000000
  0.020400000   -4.567686  -22.159967  -90.748132   41.111637    0.000000    0.000000    0.000000    0.000000
  0.020600000   -4.563301  -22.350651  -91.302804   35.723701    0.000000    0.000000    0.000000    0.000000
  0.020800000   -4.564397  -22.585693  -90.902805   43.044769    0.000000    0.000000    0.000000    0.000000
  0.021000000   -4.564657  -22.798899  -91.549195   37.377567    0.000000    0.000000    0.000000    0.000000
  0.021200000   -4.567181  -23.032804  -91.388439   35.472485    0.000000    0.000000    0.000000    0.000000
  0.021400000   -4.569360  -23.249069  -90.990595   30.466841    0.000000    0.000000    0.000000    0.000000
  0.021600000   -4.566945  -23.479063  -91.185855   34.451256    0.000000    0.000000    0.000000    0.000000
  0.021800000   -4.570956  -23.693735  -91.343166   31.073471    0.000000    0.000000    0.000000    0.000000
  0.022000000   -4.574442  -23.891399  -92.648697   32.490345    0.000000    0.000000    0.000000    0.000000
  0.022200000   -4.572041  -24.101805  -92.177497   32.256157    0.000000    0.000000    0.000000    0.000000
  0.022400000   -4.570282  -24.326696  -93.070612   33.418705    0.000000    0.000000    0.000000    0.000000
  0.022600000   -4.573562  -24.523466  -94.025610   30.568859    0.000000    0.000000    0.000000    0.000000
  0.022800000   -4.575372  -24.746462  -93.474960   28.505806    0.000000    0.000000    0.000000    0.000000
  0.023000000   -4.578009  -24.972061  -93.454112   31.441683    0.000000    0.000000    0.000000    0.000000
  0.023200000   -4.578799  -25.197197  -93.423922   19.949791    0.000000    0.000000    0.000000    0.000000
  0.023400000   -4.579895  -25.395693  -92.928940   28.571642    0.000000    0.000000    0.000000    0.000000
  0.023600000   -4.579089  -25.644974  -94.371630   35.593319    0.000000    0.000000    0.000000    0.000000
  0.023800000   -4.579173  -25.876108  -94.667662   30.877253    0.000000    0.000000    0.000000    0.000000
  0.024000000   -4.577328  -26.109680  -93.918424   27.295954    0.000000    0.000000    0.000000    0.000000
  0.024200000   -4.572050  -26.329264  -94.291920   27.613415    0.000000    0.000000    0.000000    0.000000
  0.024400000   -4.570303  -26.564316  -93.990606   30.741398    0.000000    0.000000    0.000000    0.000000
  0.024600000   -4.575584  -26.797419  -94.966683   31.006910    0.000000    0.000000    0.000000    0.000000
  0.024800000   -4.577029  -27.011509  -93.885527   34.259224    0.000000    0.000000    0.000000    0.000000
  0.025000000   -4.574062  -27.223652  -94.088853   29.182283    0.000000    0.000000    0.000000    0.000000
  0.025200000   -4.573654  -27.429407  -94.268126   29.629044    0.000000    0.000000    0.000000    0.000000
  0.025400000   -4.575266  -27.620817  -94.997251   33.855556    0.000000    0.000000    0.000000    0.000000
  0.025600000   -4.579821  -27.816730  -94.749855   32.007023    0.000000    0.000000    0.000000    0.000000
  0.025800000   -4.579794  -28.015919  -94.181825   31.243618    0.000000    0.000000    0.000000    0.000000
  0.026000000   -4.580681  -28.221251  -95.269325   20.291132    0.000000    0.000000    0.000000    0.000000
  0.026200000   -4.584939  -28.413765  -94.394308   24.260658    0.000000    0.000000    0.000000    0.000000
  0.026400000   -4.588602  -28.635223  -93.051535   31.292522    0.000000    0.000000    0.000000    0.000000
  0.026600000   -4.589865  -28.864704  -94.286780   22.110821    0.000000    0.000000    0.000000    0.000000
  0.026800000   -4.589800  -29.097555  -93.839683   16.458767    0.000000    0.000000    0.000000    0.000000
  0.027000000   -4.590041  -29.323147  -95.279488   22.748493    0.000000    0.000000    0.000000    0.000000
  0.027200000   -4.588787  -29.547234  -94.216387   17.385561    0.000000    0.000000    0.000000    0.000000
  0.027400000   -4.590094  -29.781080  -95.413087   19.979683    0.000000    0.000000    0.000000    0.000000
  0.027600000   -4.592260  -30.023764  -94.428349   19.011843    0.000000    0.000000    0.000000    0.000000
  0.027800000   -4.596222  -30.267433  -95.608604   22.680841    0.000000    0.000000    0.000000    0.000000
  0.028000000   -4.597813  -30.510275  -95.322568   18.390696    0.000000    0.000000    0.000000    0.000000
  0.028200000   -4.597715  -30.752502  -95.673239   14.468593    0.000000    0.000000    0.000000    0.000000
  0.028400000   -4.594678  -30.987322  -95.827716   13.813011    0.000000    0.000000    0.000000    0.000000
  0.028600000   -4.589632  -31.202131  -96.581803   21.869781    0.000000    0.000000    0.000000    0.000000
  0.028800000   -4.587900  -31.398987  -95.944360   18.699400    0.000000    0.000000    0.000000    0.000000
  0.029000000   -4.588668  -31.603474  -95.609576   13.802285    0.000000    0.000000    0.000000    0.000000
  0.029200000   -4.589063  -31.777760  -94.937872   18.628614    0.000000    0.000000    0.000000    0.000000
  0.029400000   -4.590987  -31.961317  -96.013617   18.030659    0.000000    0.000000    0.000000    0.000000
  0.029600000   -4.592017  -32.172737  -94.957864   11.063024    0.000000    0.000000    0.000000    0.000000
  0.029800000   -4.600687  -32.376350  -99.029410   22.377296    0.000000    0.000000    0.000000    0.000000
  0.030000000   -4.603905  -32.606106  -98.695968   28.593367    0.000000    0.000000    0.000000    0.000000
  0.030200000   -4.610122  -32.843826  -96.748683   19.133722    0.000000    0.000000    0.000000    0.000000
  0.030400000   -4.613061  -33.104130  -97.129300   16.168688    0.000000    0.000000    0.000000    0.000000
  0.030600000   -4.611221  -33.375072  -97.515277    6.783236    0.000000    0.000000    0.000000    0.000000
  0.030800000   -4.612084  -33.654289  -97.623932   16.703293    0.000000    0.000000    0.000000    0.000000
  0.031000000   -4.608542  -33.882889  -97.011987   12.219718    0.000000    0.000000    0.000000    0.000000
  0.031200000   -4.601928  -34.123924  -97.497096   15.621930    0.000000    0.000000    0.000000    0.000000
  0.031400000   -4.603238  -34.363766  -98.631915   15.566643    0.000000    0.000000    0.000000    0.000000
  0.031600000   -4.596514  -34.597118  -96.445224    9.957450    0.000000    0.000000    0.000000    0.000000
  0.031800000   -4.593419  -34.818737  -97.108843   16.019289    0.000000    0.000000    0.000000    0.000000
  0.032000000   -4.586004  -35.026981  -98.205370    9.872930    0.000000    0.000000    0.000000    0.000000
  0.032200000   -4.579067  -35.239147  -96.682880   19.053179    0.000000    0.000000    0.000000    0.000000
  0.032400000   -4.573914  -35.420349  -96.055858    8.623833    0.000000    0.000000    0.000000    0.000000
  0.032600000   -4.565277  -35.584690  -95.868296    8.847862    0.000000    0.000000    0.000000    0.000000
  0.032800000   -4.564690  -35.769211  -97.035315   18.975134    0.000000    0.000000    0.000000    0.000000
  0.033000000   -4.563403  -35.949356  -97.782952   21.810932    0.000000    0.000000    0.000000    0.000000
  0.033200000   -4.567124  -36.155899  -97.001366   27.335167    0.000000    0.000000    0.000000    0.000000
  0.033400000   -4.568740  -36.319607  -98.284478   16.234478    0.000000    0.000000    0.000000    0.000000
  0.033600000   -4.570196  -36.553272  -96.982155   14.346795    0.000000    0.000000    0.000000    0.000000
  0.033800000   -4.572527  -36.761166  -97.902631   15.830790    0.000000    0.000000    0.000000    0.000000
  0.034000000   -4.573474  -36.956909  -98.411611   15.034425    0.000000    0.000000    0.000000    0.000000
  0.034200000   -4.577405  -37.165199  -98.860368   11.457461    0.000000    0.000000    0.000000    0.000000
  0.034400000   -4.581605  -37.375969  -99.248346   15.518671    0.000000    0.000000    0.000000    0.000000
  0.034600000   -4.583155  -37.630455  -97.244178   11.589666    0.000000    0.000000    0.000000    0.000000
  0.034800000   -4.592587  -37.844238 -100.156486   -0.040717    0.000000    0.000000    0.000000    0.000000
  0.035000000   -4.593619  -38.060631  -98.029048   16.543755    0.000000    0.000000    0.000000    0.000000
  0.035200000   -4.602263  -38.320602  -98.427472   11.067098    0.000000    0.000000    0.000000    0.000000
  0.035400000   -4.605522  -38.542206  -98.574499    9.170775    0.000000    0.000000    0.000000    0.000000
  0.035600000   -4.602648  -38.776127  -97.382831   -2.628381    0.000000    0.000000    0.000000    0.000000
  0.035800000   -4.603632  -39.016109 -100.368889   17.257376    0.000000    0.000000    0.000000    0.000000
  0.036000000   -4.602572  -39.252491  -99.118637    4.556031    0.000000    0.000000    0.000000    0.000000
  0.036200000   -4.599905  -39.476463  -98.267142    6.646788    0.000000    0.000000    0.000000    0.000000
  0.036400000   -4.596220  -39.721352  -98.449433    3.030300    0.000000    0.000000    0.000000    0.000000
  0.036600000   -4.591995  -39.932850  -98.008551   21.541443    0.000000    0.000000    0.000000    0.000000
  0.036800000   -4.592729  -40.114391 -100.799337    9.890869    0.000000    0.000000    0.000000    0.000000
  0.037000000   -4.589304  -40.287342  -99.217328   12.476708    0.000000    0.000000    0.000000    0.000000
  0.037200000   -4.591935  -40.497623  -99.422098   13.131255    0.000000    0.000000    0.000000    0.000000
  0.037400000   -4.593429  -40.710949  -98.685308   22.110104    0.000000    0.000000    0.000000    0.000000
  0.037600000   -4.603576  -40.915806 -101.319095   32.284397    0.000000    0.000000    0.000000    0.000000
  0.037800000   -4.609754  -41.132736  -98.769130   -6.150067    0.000000    0.000000    0.000000    0.000000
  0.038000000   -4.615500  -41.395969  -99.101990   20.098660    0.000000    0.000000    0.000000    0.000000
  0.038200000   -4.622170  -41.651791  -99.123967   11.701653    0.000000    0.000000    0.000000    0.000000
  0.038400000   -4.623535  -41.906307 -100.793696   11.405410    0.000000    0.000000    0.000000    0.000000
  0.038600000   -4.624522  -42.145977 -100.636021   12.851946    0.000000    0.000000    0.000000    0.000000
  0.038800000   -4.626284  -42.392605 -100.518774    0.283410    0.000000    0.000000    0.000000    0.000000
  0.039000000   -4.624749  -42.650261  -98.443714   13.542411    0.000000    0.000000    0.000000    0.000000
  0.039200000   -4.624234  -42.900486  -98.707743    9.027411    0.000000    0.000000    0.000000    0.000000
  0.039400000   -4.616738  -43.121784  -98.884358    8.043626    0.000000    0.000000    0.000000    0.000000
  0.039600000   -4.608064  -43.361984  -99.894945   11.629258    0.000000    0.000000    0.000000    0.000000
  0.039800000   -4.602950  -43.573910 -100.917353    5.211642    0.000000    0.000000    0.000000    0.000000
  0.040000000   -4.596199  -43.759930 -102.050923   -0.375721    0.000000    0.000000    0.000000    0.000000
  0.040200000   -4.592006  -43.948017  -98.658448   -2.334040    0.000000    0.000000    0.000000    0.000000
  0.040400000   -4.593386  -44.130199  -99.985616   -0.221947    0.000000    0.000000    0.000000    0.000000
  0.040600000   -4.590858  -44.303329  -99.354666   20.339050    0.000000    0.000000    0.000000    0.000000
  0.040800000   -4.594705  -44.486279 -100.387199   20.223713    0.000000    0.000000    0.000000    0.000000
  0.041000000   -4.599020  -44.671501 -101.745989   13.350333    0.000000    0.000000    0.000000    0.000000
  0.041200000   -4.602401  -44.889267 -101.705553   -6.435073    0.000000    0.000000    0.000000    0.000000
  0.041400000   -4.605318  -45.123440  -99.877786   -2.716660    0.000000    0.000000    0.000000    0.000000
  0.041600000   -4.612890  -45.328815  -99.786146    5.308784    0.000000    0.000000    0.000000    0.000000
  0.041800000   -4.613475  -45.531853 -100.348886  -13.833895    0.000000    0.000000    0.000000    0.000000
  0.042000000   -4.615836  -45.768784 -104.033232   -9.393791    0.000000    0.000000    0.000000    0.000000
  0.042200000   -4.620568  -45.986401 -100.219490    1.988102    0.000000    0.000000    0.000000    0.000000
  0.042400000   -4.623872  -46.203178 -100.811568    6.900743    0.000000    0.000000    0.000000    0.000000
  0.042600000   -4.622601  -46.413452 -104.506831   -2.792744    0.000000    0.000000    0.000000    0.000000
  0.042800000   -4.625649  -46.623528 -103.872970   12.872137    0.000000    0.000000    0.000000    0.000000
