! Anritsu VNA Master:                     Model: MS2036C/10/77
! SN:                                  1601066
! /card0/usr/256.ew.n.r200.11.s2p
! Existing Calibration Information:
! TYPE:                         Current Settings,       Active Cal Settings
! TIME:             	   12/19/2017 02:59:00 PM,    12/19/2017 02:53:44 PM
! INTERNAL TEMP:    	                   46.5 C,                    46.3 C
! # POINTS:         	                      501,                       501
! START FREQ:       	               10.000 MHz,                10.000 MHz
! STOP FREQ:        	              110.000 MHz,               110.000 MHz
! SOURCE POWER:     	                     High,                      High
! IFBW:             	                   100 Hz,                    100 Hz
! AVG FACTOR:       	                       1 ,                        1 
! REF PLANE 1:      	                     0 mm,                      0 mm
! REF PLANE 2:      	                     0 mm,                      0 mm
! CAL TYPE:         	                 Full S11,                  Full S11
! CAL METHOD:       	                     SOLT,                      SOLT
! CAL LINE TYPE:    	                     Coax,                      Coax
! DUT PORT 1:       	                N-Conn(F),                 N-Conn(F)
! DUT PORT 2:       	                K-Conn(F),                 K-Conn(F)
! CAL STATUS:       	        OK: Accuracy High,                        --
# GHZ S DB R 50.0
! FREQ.GHZ       S11DB        S11A       S21DB        S21A       S12DB        S12A       S22DB        S22A
  0.010000000   -4.549973  -11.382674  -84.647111   76.487549    0.000000    0.000000    0.000000    0.000000
  0.010200000   -4.542707  -11.600489  -84.612731   76.735237    0.000000    0.000000    0.000000    0.000000
  0.010400000   -4.538348  -11.867228  -84.333608   75.520805    0.000000    0.000000    0.000000    0.000000
  0.010600000   -4.536985  -12.027761  -84.910336   76.388710    0.000000    0.000000    0.000000    0.000000
  0.010800000   -4.541099  -12.314429  -85.307596   73.477043    0.000000    0.000000    0.000000    0.000000
  0.011000000   -4.541336  -12.530118  -85.078226   73.508751    0.000000    0.000000    0.000000    0.000000
  0.011200000   -4.540781  -12.777215  -85.599394   79.632919    0.000000    0.000000    0.000000    0.000000
  0.011400000   -4.540619  -13.000629  -85.023583   75.452644    0.000000    0.000000    0.000000    0.000000
  0.011600000   -4.546046  -13.230812  -85.323586   74.187271    0.000000    0.000000    0.000000    0.000000
  0.011800000   -4.541514  -13.446577  -85.127373   73.261818    0.000000    0.000000    0.000000    0.000000
  0.012000000   -4.541741  -13.722665  -85.295714   73.688416    0.000000    0.000000    0.000000    0.000000
  0.012200000   -4.541665  -13.959450  -84.874584   69.203499    0.000000    0.000000    0.000000    0.000000
  0.012400000   -4.544260  -14.192059  -85.059511   68.864677    0.000000    0.000000    0.000000    0.000000
  0.012600000   -4.544385  -14.427440  -84.822286   67.371262    0.000000    0.000000    0.000000    0.000000
  0.012800000   -4.543914  -14.659252  -84.667297   66.962372    0.000000    0.000000    0.000000    0.000000
  0.013000000   -4.545596  -14.896165  -85.310035   63.017982    0.000000    0.000000    0.000000    0.000000
  0.013200000   -4.545548  -15.105800  -85.215870   61.876530    0.000000    0.000000    0.000000    0.000000
  0.013400000   -4.546838  -15.365994  -85.488350   62.460278    0.000000    0.000000    0.000000    0.000000
  0.013600000   -4.543698  -15.589712  -85.434725   58.031200    0.000000    0.000000    0.000000    0.000000
  0.013800000   -4.543299  -15.810594  -85.677078   60.782009    0.000000    0.000000    0.000000    0.000000
  0.014000000   -4.546234  -16.046068  -85.839937   55.214386    0.000000    0.000000    0.000000    0.000000
  0.014200000   -4.544515  -16.284193  -85.891922   55.497791    0.000000    0.000000    0.000000    0.000000
  0.014400000   -4.545637  -16.532209  -86.460487   51.711102    0.000000    0.000000    0.000000    0.000000
  0.014600000   -4.546347  -16.752216  -86.707103   50.113209    0.000000    0.000000    0.000000    0.000000
  0.014800000   -4.546351  -16.983734  -87.015768   51.180706    0.000000    0.000000    0.000000    0.000000
  0.015000000   -4.546592  -17.224829  -87.272463   49.505589    0.000000    0.000000    0.000000    0.000000
  0.015200000   -4.547599  -17.455368  -87.309457   46.317009    0.000000    0.000000    0.000000    0.000000
  0.015400000   -4.551943  -17.706682  -87.799566   46.313988    0.000000    0.000000    0.000000    0.000000
  0.015600000   -4.548437  -17.921900  -88.239982   44.440285    0.000000    0.000000    0.000000    0.000000
  0.015800000   -4.549591  -18.162436  -88.347887   44.861553    0.000000    0.000000    0.000000    0.000000
  0.016000000   -4.553252  -18.408571  -88.880469   44.029587    0.000000    0.000000    0.000000    0.000000
  0.016200000   -4.554362  -18.628639  -89.473009   45.918098    0.000000    0.000000    0.000000    0.000000
  0.016400000   -4.555654  -18.871248  -89.685206   43.543724    0.000000    0.000000    0.000000    0.000000
  0.016600000   -4.557538  -19.090221  -90.038875   43.819553    0.000000    0.000000    0.000000    0.000000
  0.016800000   -4.555900  -19.337757  -88.913219   46.253708    0.000000    0.000000    0.000000    0.000000
  0.017000000   -4.556678  -19.564835  -89.980089   49.092438    0.000000    0.000000    0.000000    0.000000
  0.017200000   -4.552274  -19.809496  -90.062553   48.565571    0.000000    0.000000    0.000000    0.000000
  0.017400000   -4.553345  -20.035114  -90.098677   41.811047    0.000000    0.000000    0.000000    0.000000
  0.017600000   -4.550642  -20.279673  -89.771916   48.108593    0.000000    0.000000    0.000000    0.000000
  0.017800000   -4.553127  -20.502764  -90.856936   42.709106    0.000000    0.000000    0.000000    0.000000
  0.018000000   -4.554442  -20.739944  -90.527253   46.473827    0.000000    0.000000    0.000000    0.000000
  0.018200000   -4.556406  -20.969156  -90.925258   47.665913    0.000000    0.000000    0.000000    0.000000
  0.018400000   -4.557280  -21.210363  -90.067068   45.360092    0.000000    0.000000    0.000000    0.000000
  0.018600000   -4.560259  -21.431145  -90.711512   42.539101    0.000000    0.000000    0.000000    0.000000
  0.018800000   -4.560539  -21.682446  -90.272728   48.313950    0.000000    0.000000    0.000000    0.000000
  0.019000000   -4.559634  -21.901926  -91.121530   45.305260    0.000000    0.000000    0.000000    0.000000
  0.019200000   -4.558597  -22.112673  -90.375377   41.119148    0.000000    0.000000    0.000000    0.000000
  0.019400000   -4.559994  -22.349958  -90.625103   43.270786    0.000000    0.000000    0.000000    0.000000
  0.019600000   -4.559757  -22.567720  -91.026072   45.943714    0.000000    0.000000    0.000000    0.000000
  0.019800000   -4.560518  -22.794357  -90.841077   40.242935    0.000000    0.000000    0.000000    0.000000
  0.020000000   -4.559622  -23.015615  -90.625910   38.932774    0.000000    0.000000    0.000000    0.000000
  0.020200000   -4.557261  -23.265707  -90.380948   38.943012    0.000000    0.000000    0.000000    0.000000
  0.020400000   -4.561011  -23.508852  -91.439043   39.815289    0.000000    0.000000    0.000000    0.000000
  0.020600000   -4.554715  -23.739584  -91.614410   38.242950    0.000000    0.000000    0.000000    0.000000
  0.020800000   -4.556457  -23.973303  -91.289950   35.011669    0.000000    0.000000    0.000000    0.000000
  0.021000000   -4.559571  -24.209902  -91.187406   29.367983    0.000000    0.000000    0.000000    0.000000
  0.021200000   -4.560694  -24.457960  -91.437236   33.452000    0.000000    0.000000    0.000000    0.000000
  0.021400000   -4.561701  -24.696617  -91.567656   30.684238    0.000000    0.000000    0.000000    0.000000
  0.021600000   -4.558901  -24.913651  -90.885612   30.066456    0.000000    0.000000    0.000000    0.000000
  0.021800000   -4.561314  -25.148771  -92.546363   34.859764    0.000000    0.000000    0.000000    0.000000
  0.022000000   -4.562589  -25.363220  -91.988277   30.731586    0.000000    0.000000    0.000000    0.000000
  0.022200000   -4.566391  -25.611031  -92.078162   29.254595    0.000000    0.000000    0.000000    0.000000
  0.022400000   -4.563118  -25.835131  -92.539498   25.271620    0.000000    0.000000    0.000000    0.000000
  0.022600000   -4.565975  -26.044733  -92.590465   33.510895    0.000000    0.000000    0.000000    0.000000
  0.022800000   -4.566207  -26.266308  -93.695538   31.069700    0.000000    0.000000    0.000000    0.000000
  0.023000000   -4.565910  -26.523180  -92.409865   27.739096    0.000000    0.000000    0.000000    0.000000
  0.023200000   -4.568550  -26.760424  -93.625269   27.916122    0.000000    0.000000    0.000000    0.000000
  0.023400000   -4.570888  -27.010891  -93.612799   28.843763    0.000000    0.000000    0.000000    0.000000
  0.023600000   -4.569664  -27.230646  -94.919235   28.068945    0.000000    0.000000    0.000000    0.000000
  0.023800000   -4.567896  -27.462349  -93.742184   30.604198    0.000000    0.000000    0.000000    0.000000
  0.024000000   -4.565914  -27.731140  -93.624107   25.000471    0.000000    0.000000    0.000000    0.000000
  0.024200000   -4.561345  -27.962444  -94.089754   25.102240    0.000000    0.000000    0.000000    0.000000
  0.024400000   -4.561318  -28.210497  -94.560532   23.361559    0.000000    0.000000    0.000000    0.000000
  0.024600000   -4.562406  -28.447683  -93.149762   26.929205    0.000000    0.000000    0.000000    0.000000
  0.024800000   -4.560042  -28.682953  -93.761299   25.326971    0.000000    0.000000    0.000000    0.000000
  0.025000000   -4.563486  -28.897278  -94.148429   30.741879    0.000000    0.000000    0.000000    0.000000
  0.025200000   -4.563119  -29.138142  -93.938729   25.278076    0.000000    0.000000    0.000000    0.000000
  0.025400000   -4.563642  -29.347176  -93.439994   28.883924    0.000000    0.000000    0.000000    0.000000
  0.025600000   -4.566245  -29.556639  -94.559553   26.156364    0.000000    0.000000    0.000000    0.000000
  0.025800000   -4.566580  -29.752974  -94.425584   25.623182    0.000000    0.000000    0.000000    0.000000
  0.026000000   -4.569287  -29.966225  -94.669827   17.859970    0.000000    0.000000    0.000000    0.000000
  0.026200000   -4.571864  -30.177429  -92.862499   29.569221    0.000000    0.000000    0.000000    0.000000
  0.026400000   -4.575557  -30.421659  -94.425426   19.977377    0.000000    0.000000    0.000000    0.000000
  0.026600000   -4.578772  -30.631777  -95.336718   26.684790    0.000000    0.000000    0.000000    0.000000
  0.026800000   -4.576346  -30.899984  -94.249626   24.558710    0.000000    0.000000    0.000000    0.000000
  0.027000000   -4.576382  -31.137230  -94.122747   25.343508    0.000000    0.000000    0.000000    0.000000
  0.027200000   -4.578178  -31.380676  -95.502739   18.864264    0.000000    0.000000    0.000000    0.000000
  0.027400000   -4.577636  -31.635540  -94.907337   20.206678    0.000000    0.000000    0.000000    0.000000
  0.027600000   -4.580089  -31.871115  -95.353955   20.274815    0.000000    0.000000    0.000000    0.000000
  0.027800000   -4.583775  -32.134892  -95.154016   25.750189    0.000000    0.000000    0.000000    0.000000
  0.028000000   -4.587031  -32.384045  -95.289162   22.364000    0.000000    0.000000    0.000000    0.000000
  0.028200000   -4.585023  -32.641953  -97.150169   19.411287    0.000000    0.000000    0.000000    0.000000
  0.028400000   -4.583108  -32.898441  -95.932958   16.330076    0.000000    0.000000    0.000000    0.000000
  0.028600000   -4.579420  -33.139000  -95.989071    8.851427    0.000000    0.000000    0.000000    0.000000
  0.028800000   -4.576358  -33.357628  -95.580905   19.696009    0.000000    0.000000    0.000000    0.000000
  0.029000000   -4.575088  -33.543167  -96.277335   12.833668    0.000000    0.000000    0.000000    0.000000
  0.029200000   -4.573973  -33.752247  -96.850688   13.119669    0.000000    0.000000    0.000000    0.000000
  0.029400000   -4.574943  -33.942501  -97.173996   21.749807    0.000000    0.000000    0.000000    0.000000
  0.029600000   -4.576921  -34.150402  -96.523492   25.070536    0.000000    0.000000    0.000000    0.000000
  0.029800000   -4.581607  -34.373829  -98.264548   10.981297    0.000000    0.000000    0.000000    0.000000
  0.030000000   -4.587869  -34.593330  -96.830107   18.352974    0.000000    0.000000    0.000000    0.000000
  0.030200000   -4.592175  -34.860645  -97.059910   14.500795    0.000000    0.000000    0.000000    0.000000
  0.030400000   -4.595765  -35.096992  -96.479559   28.168827    0.000000    0.000000    0.000000    0.000000
  0.030600000   -4.598670  -35.368469  -99.223745    8.770061    0.000000    0.000000    0.000000    0.000000
  0.030800000   -4.597990  -35.648617  -97.931780   27.557201    0.000000    0.000000    0.000000    0.000000
  0.031000000   -4.595724  -35.918530  -97.140069   18.312584    0.000000    0.000000    0.000000    0.000000
  0.031200000   -4.593129  -36.169449  -97.332491    7.877269    0.000000    0.000000    0.000000    0.000000
  0.031400000   -4.593288  -36.406879  -98.124582   18.993786    0.000000    0.000000    0.000000    0.000000
  0.031600000   -4.587415  -36.657230  -96.250057   16.574797    0.000000    0.000000    0.000000    0.000000
  0.031800000   -4.583358  -36.912182  -96.490727   13.675622    0.000000    0.000000    0.000000    0.000000
  0.032000000   -4.576538  -37.151371  -97.213566   16.010521    0.000000    0.000000    0.000000    0.000000
  0.032200000   -4.572642  -37.363052  -98.204720   10.657525    0.000000    0.000000    0.000000    0.000000
  0.032400000   -4.563452  -37.584583  -98.399926   18.825481    0.000000    0.000000    0.000000    0.000000
  0.032600000   -4.560014  -37.786186  -97.791074    9.939046    0.000000    0.000000    0.000000    0.000000
  0.032800000   -4.554463  -38.004429  -97.725991   18.455671    0.000000    0.000000    0.000000    0.000000
  0.033000000   -4.551637  -38.183983  -97.149226   12.804190    0.000000    0.000000    0.000000    0.000000
  0.033200000   -4.555750  -38.391720  -97.889984    6.636250    0.000000    0.000000    0.000000    0.000000
  0.033400000   -4.555157  -38.613247  -98.299800    6.878547    0.000000    0.000000    0.000000    0.000000
  0.033600000   -4.557350  -38.813309  -97.215689    7.229139    0.000000    0.000000    0.000000    0.000000
  0.033800000   -4.561422  -39.035923  -96.833210    0.688263    0.000000    0.000000    0.000000    0.000000
  0.034000000   -4.562454  -39.258202  -98.692539    0.998679    0.000000    0.000000    0.000000    0.000000
  0.034200000   -4.565316  -39.501102 -100.766237   11.507096    0.000000    0.000000    0.000000    0.000000
  0.034400000   -4.569299  -39.742069  -96.673243   10.799841    0.000000    0.000000    0.000000    0.000000
  0.034600000   -4.573034  -39.961353  -99.145057    7.589343    0.000000    0.000000    0.000000    0.000000
  0.034800000   -4.577750  -40.208580  -97.427672    5.895534    0.000000    0.000000    0.000000    0.000000
  0.035000000   -4.582212  -40.472507  -98.937807   17.639019    0.000000    0.000000    0.000000    0.000000
  0.035200000   -4.584343  -40.712067  -98.566365    2.105112    0.000000    0.000000    0.000000    0.000000
  0.035400000   -4.589917  -40.964603  -98.870651    9.956649    0.000000    0.000000    0.000000    0.000000
  0.035600000   -4.589061  -41.190716 -100.012484   -6.036964    0.000000    0.000000    0.000000    0.000000
  0.035800000   -4.590297  -41.449188  -98.758377   13.079321    0.000000    0.000000    0.000000    0.000000
  0.036000000   -4.586637  -41.687016  -99.773135    9.619479    0.000000    0.000000    0.000000    0.000000
  0.036200000   -4.584718  -41.935318  -98.875995   13.797547    0.000000    0.000000    0.000000    0.000000
  0.036400000   -4.584091  -42.181316 -101.560396    8.457199    0.000000    0.000000    0.000000    0.000000
  0.036600000   -4.579361  -42.422050 -100.427934    5.561711    0.000000    0.000000    0.000000    0.000000
  0.036800000   -4.575527  -42.650154  -99.901273    7.350198    0.000000    0.000000    0.000000    0.000000
  0.037000000   -4.571106  -42.845909  -98.068443   20.976101    0.000000    0.000000    0.000000    0.000000
  0.037200000   -4.570830  -43.017727  -99.681130   16.008940    0.000000    0.000000    0.000000    0.000000
  0.037400000   -4.572303  -43.208431 -100.264270   25.955618    0.000000    0.000000    0.000000    0.000000
  0.037600000   -4.577806  -43.432972  -98.806585   17.881884    0.000000    0.000000    0.000000    0.000000
  0.037800000   -4.587212  -43.652428 -100.051034    2.915463    0.000000    0.000000    0.000000    0.000000
  0.038000000   -4.590036  -43.907841  -98.456813   15.864786    0.000000    0.000000    0.000000    0.000000
  0.038200000   -4.597901  -44.153141  -99.412960    6.241325    0.000000    0.000000    0.000000    0.000000
  0.038400000   -4.606716  -44.430271  -99.439127   10.100859    0.000000    0.000000    0.000000    0.000000
  0.038600000   -4.608579  -44.685394  -98.861178    5.883314    0.000000    0.000000    0.000000    0.000000
  0.038800000   -4.613080  -44.931301 -100.516749    0.796798    0.000000    0.000000    0.000000    0.000000
  0.039000000   -4.612290  -45.202980 -100.542226   16.983414    0.000000    0.000000    0.000000    0.000000
  0.039200000   -4.610315  -45.481441  -99.242805   12.481731    0.000000    0.000000    0.000000    0.000000
  0.039400000   -4.608667  -45.744110  -99.260030   -5.368448    0.000000    0.000000    0.000000    0.000000
  0.039600000   -4.603570  -45.979038  -98.402100    1.028990    0.000000    0.000000    0.000000    0.000000
  0.039800000   -4.596430  -46.223663 -100.126055   15.386852    0.000000    0.000000    0.000000    0.000000
  0.040000000   -4.592433  -46.435162  -99.188652   -0.952738    0.000000    0.000000    0.000000    0.000000
  0.040200000   -4.587223  -46.666119  -99.626808   -6.752736    0.000000    0.000000    0.000000    0.000000
  0.040400000   -4.584750  -46.877975  -99.184324    0.230485    0.000000    0.000000    0.000000    0.000000
  0.040600000   -4.582544  -47.066917  -98.975536    8.164005    0.000000    0.000000    0.000000    0.000000
  0.040800000   -4.582170  -47.266640 -101.360860   -8.391779    0.000000    0.000000    0.000000    0.000000
  0.041000000   -4.585381  -47.475368 -100.122946    4.188228    0.000000    0.000000    0.000000    0.000000
  0.041200000   -4.591790  -47.705639 -101.587692   21.055698    0.000000    0.000000    0.000000    0.000000
  0.041400000   -4.593403  -47.917740 -100.690267    5.115584    0.000000    0.000000    0.000000    0.000000
  0.041600000   -4.600453  -48.182499 -100.736784  -23.464172    0.000000    0.000000    0.000000    0.000000
  0.041800000   -4.602916  -48.413731 -101.504523   -4.098027    0.000000    0.000000    0.000000    0.000000
  0.042000000   -4.606014  -48.652386 -102.915937   -3.108332    0.000000    0.000000    0.000000    0.000000
  0.042200000   -4.608640  -48.907288  -99.212766    8.482869    0.000000    0.000000    0.000000    0.000000
  0.042400000   -4.609908  -49.129303 -101.176212    2.349547    0.000000    0.000000    0.000000    0.000000
  0.042600000   -4.610266  -49.352722  -99.554426   13.736439    0.000000    0.000000    0.000000    0.000000
  0.042800000   -4.610045  -49.585316 -101.213366    8.517477    0.000000    0.000000    0.000000    0.000000
