! Anritsu VNA Master:                     Model: MS2036C/10/77
! SN:                                  1601066
! /card0/usr/256.ew.sma.r200.21.s2p
! Existing Calibration Information:
! TYPE:                         Current Settings,       Active Cal Settings
! TIME:             	   12/19/2017 02:44:04 PM,    12/19/2017 02:22:10 PM
! INTERNAL TEMP:    	                   46.3 C,                    45.0 C
! # POINTS:         	                      501,                       501
! START FREQ:       	               10.000 MHz,                10.000 MHz
! STOP FREQ:        	              110.000 MHz,               110.000 MHz
! SOURCE POWER:     	                     High,                      High
! IFBW:             	                   100 Hz,                    100 Hz
! AVG FACTOR:       	                       1 ,                        1 
! REF PLANE 1:      	                     0 mm,                      0 mm
! REF PLANE 2:      	                     0 mm,                      0 mm
! CAL TYPE:         	                 Full S11,                  Full S11
! CAL METHOD:       	                     SOLT,                      SOLT
! CAL LINE TYPE:    	                     Coax,                      Coax
! DUT PORT 1:       	                N-Conn(F),                 N-Conn(F)
! DUT PORT 2:       	                K-Conn(F),                 K-Conn(F)
! CAL STATUS:       	        OK: Accuracy High,                        --
# GHZ S DB R 50.0
! FREQ.GHZ       S11DB        S11A       S21DB        S21A       S12DB        S12A       S22DB        S22A
  0.010000000   -4.570287  -10.720898  -84.566787   78.112106    0.000000    0.000000    0.000000    0.000000
  0.010200000   -4.563173  -10.923509  -84.379241   75.222038    0.000000    0.000000    0.000000    0.000000
  0.010400000   -4.560979  -11.126971  -85.003361   71.987976    0.000000    0.000000    0.000000    0.000000
  0.010600000   -4.563024  -11.348925  -85.049881   76.380386    0.000000    0.000000    0.000000    0.000000
  0.010800000   -4.561915  -11.602100  -84.623966   75.384415    0.000000    0.000000    0.000000    0.000000
  0.011000000   -4.564182  -11.806457  -84.978320   74.328094    0.000000    0.000000    0.000000    0.000000
  0.011200000   -4.568103  -12.050264  -85.324446   68.253716    0.000000    0.000000    0.000000    0.000000
  0.011400000   -4.568518  -12.269530  -85.191837   75.753059    0.000000    0.000000    0.000000    0.000000
  0.011600000   -4.565049  -12.507448  -84.546413   77.846336    0.000000    0.000000    0.000000    0.000000
  0.011800000   -4.560716  -12.734868  -85.150817   74.752060    0.000000    0.000000    0.000000    0.000000
  0.012000000   -4.562043  -12.947099  -84.772025   73.332031    0.000000    0.000000    0.000000    0.000000
  0.012200000   -4.561173  -13.189020  -84.747634   71.720467    0.000000    0.000000    0.000000    0.000000
  0.012400000   -4.559018  -13.416660  -85.334062   70.716530    0.000000    0.000000    0.000000    0.000000
  0.012600000   -4.559247  -13.650014  -85.199136   68.052628    0.000000    0.000000    0.000000    0.000000
  0.012800000   -4.559841  -13.866149  -85.287725   67.405342    0.000000    0.000000    0.000000    0.000000
  0.013000000   -4.560656  -14.091969  -85.539903   67.825455    0.000000    0.000000    0.000000    0.000000
  0.013200000   -4.558251  -14.281557  -85.570804   60.448315    0.000000    0.000000    0.000000    0.000000
  0.013400000   -4.558777  -14.513000  -85.434634   63.002903    0.000000    0.000000    0.000000    0.000000
  0.013600000   -4.555751  -14.728736  -85.943269   59.094421    0.000000    0.000000    0.000000    0.000000
  0.013800000   -4.550860  -14.934939  -85.761452   60.582943    0.000000    0.000000    0.000000    0.000000
  0.014000000   -4.549797  -15.150349  -86.156238   56.834557    0.000000    0.000000    0.000000    0.000000
  0.014200000   -4.552237  -15.376586  -86.380398   57.764694    0.000000    0.000000    0.000000    0.000000
  0.014400000   -4.550821  -15.586855  -86.663383   56.127384    0.000000    0.000000    0.000000    0.000000
  0.014600000   -4.551329  -15.804182  -86.865151   53.017223    0.000000    0.000000    0.000000    0.000000
  0.014800000   -4.551235  -16.002001  -86.504170   47.252518    0.000000    0.000000    0.000000    0.000000
  0.015000000   -4.551873  -16.229332  -86.891993   47.283978    0.000000    0.000000    0.000000    0.000000
  0.015200000   -4.552971  -16.429703  -87.958828   47.684151    0.000000    0.000000    0.000000    0.000000
  0.015400000   -4.554985  -16.661636  -87.323137   45.505623    0.000000    0.000000    0.000000    0.000000
  0.015600000   -4.556163  -16.877110  -88.504607   43.445305    0.000000    0.000000    0.000000    0.000000
  0.015800000   -4.558324  -17.111700  -88.363418   46.125954    0.000000    0.000000    0.000000    0.000000
  0.016000000   -4.558113  -17.309959  -89.098899   47.176517    0.000000    0.000000    0.000000    0.000000
  0.016200000   -4.560090  -17.511457  -88.986642   45.562531    0.000000    0.000000    0.000000    0.000000
  0.016400000   -4.562662  -17.741785  -89.645760   43.529037    0.000000    0.000000    0.000000    0.000000
  0.016600000   -4.564485  -17.955456  -89.111226   43.705814    0.000000    0.000000    0.000000    0.000000
  0.016800000   -4.566053  -18.157598  -89.873178   46.951607    0.000000    0.000000    0.000000    0.000000
  0.017000000   -4.566165  -18.378307  -89.854058   44.546082    0.000000    0.000000    0.000000    0.000000
  0.017200000   -4.564408  -18.614889  -89.951178   44.168179    0.000000    0.000000    0.000000    0.000000
  0.017400000   -4.566594  -18.844305  -90.473782   43.131451    0.000000    0.000000    0.000000    0.000000
  0.017600000   -4.565722  -19.087685  -90.742285   41.975861    0.000000    0.000000    0.000000    0.000000
  0.017800000   -4.567262  -19.323702  -90.577075   40.630951    0.000000    0.000000    0.000000    0.000000
  0.018000000   -4.567463  -19.528618  -90.263283   41.848377    0.000000    0.000000    0.000000    0.000000
  0.018200000   -4.569751  -19.735342  -90.782232   48.068138    0.000000    0.000000    0.000000    0.000000
  0.018400000   -4.572522  -19.970015  -90.980668   44.836205    0.000000    0.000000    0.000000    0.000000
  0.018600000   -4.578222  -20.190994  -90.852932   43.170372    0.000000    0.000000    0.000000    0.000000
  0.018800000   -4.577036  -20.420212  -90.742259   48.019524    0.000000    0.000000    0.000000    0.000000
  0.019000000   -4.577450  -20.651403  -90.089032   44.513180    0.000000    0.000000    0.000000    0.000000
  0.019200000   -4.575910  -20.857594  -89.795424   43.229183    0.000000    0.000000    0.000000    0.000000
  0.019400000   -4.577661  -21.079638  -89.968065   41.450932    0.000000    0.000000    0.000000    0.000000
  0.019600000   -4.576267  -21.288393  -90.663254   35.952866    0.000000    0.000000    0.000000    0.000000
  0.019800000   -4.575499  -21.497650  -90.835174   43.622955    0.000000    0.000000    0.000000    0.000000
  0.020000000   -4.573555  -21.717339  -90.675870   40.189632    0.000000    0.000000    0.000000    0.000000
  0.020200000   -4.569661  -21.956131  -90.838337   37.241253    0.000000    0.000000    0.000000    0.000000
  0.020400000   -4.570564  -22.150105  -91.207291   31.863741    0.000000    0.000000    0.000000    0.000000
  0.020600000   -4.566527  -22.379423  -90.363471   37.991520    0.000000    0.000000    0.000000    0.000000
  0.020800000   -4.565477  -22.584982  -90.945327   31.364819    0.000000    0.000000    0.000000    0.000000
  0.021000000   -4.565846  -22.822489  -91.436825   35.122757    0.000000    0.000000    0.000000    0.000000
  0.021200000   -4.567011  -23.046339  -91.621475   30.020262    0.000000    0.000000    0.000000    0.000000
  0.021400000   -4.564746  -23.270065  -91.789811   34.523853    0.000000    0.000000    0.000000    0.000000
  0.021600000   -4.565345  -23.474901  -91.803764   28.350506    0.000000    0.000000    0.000000    0.000000
  0.021800000   -4.567202  -23.683083  -91.726923   33.446930    0.000000    0.000000    0.000000    0.000000
  0.022000000   -4.567696  -23.880283  -92.779578   26.872923    0.000000    0.000000    0.000000    0.000000
  0.022200000   -4.567467  -24.098503  -91.771630   28.243212    0.000000    0.000000    0.000000    0.000000
  0.022400000   -4.569114  -24.311724  -92.911785   30.156719    0.000000    0.000000    0.000000    0.000000
  0.022600000   -4.570740  -24.510288  -93.284976   33.396961    0.000000    0.000000    0.000000    0.000000
  0.022800000   -4.574017  -24.707201  -93.083946   27.422709    0.000000    0.000000    0.000000    0.000000
  0.023000000   -4.573201  -24.936966  -92.198813   32.762863    0.000000    0.000000    0.000000    0.000000
  0.023200000   -4.575321  -25.142664  -93.744768   32.693527    0.000000    0.000000    0.000000    0.000000
  0.023400000   -4.574964  -25.315418  -94.341916   24.279335    0.000000    0.000000    0.000000    0.000000
  0.023600000   -4.576731  -25.589407  -94.047227   27.634912    0.000000    0.000000    0.000000    0.000000
  0.023800000   -4.578219  -25.803820  -94.034258   25.733097    0.000000    0.000000    0.000000    0.000000
  0.024000000   -4.572719  -26.025892  -94.079245   26.685268    0.000000    0.000000    0.000000    0.000000
  0.024200000   -4.570563  -26.262650  -92.974042   24.845184    0.000000    0.000000    0.000000    0.000000
  0.024400000   -4.572021  -26.477522  -94.069925   28.490969    0.000000    0.000000    0.000000    0.000000
  0.024600000   -4.574387  -26.719336  -94.624297   30.126284    0.000000    0.000000    0.000000    0.000000
  0.024800000   -4.570749  -26.925230  -94.104291   30.484968    0.000000    0.000000    0.000000    0.000000
  0.025000000   -4.572967  -27.123659  -93.792572   28.095404    0.000000    0.000000    0.000000    0.000000
  0.025200000   -4.574155  -27.357035  -94.960902   23.690401    0.000000    0.000000    0.000000    0.000000
  0.025400000   -4.575442  -27.538118  -95.392262   28.410551    0.000000    0.000000    0.000000    0.000000
  0.025600000   -4.580190  -27.749212  -94.389884   26.779959    0.000000    0.000000    0.000000    0.000000
  0.025800000   -4.579666  -27.957100  -94.256334   27.374346    0.000000    0.000000    0.000000    0.000000
  0.026000000   -4.582807  -28.152533  -94.149705   19.593275    0.000000    0.000000    0.000000    0.000000
  0.026200000   -4.583660  -28.362171  -94.420459   28.260429    0.000000    0.000000    0.000000    0.000000
  0.026400000   -4.587975  -28.605070  -95.609010   28.551472    0.000000    0.000000    0.000000    0.000000
  0.026600000   -4.592105  -28.802601  -95.331134   25.126644    0.000000    0.000000    0.000000    0.000000
  0.026800000   -4.589269  -29.044456  -94.959899   20.823824    0.000000    0.000000    0.000000    0.000000
  0.027000000   -4.591213  -29.286133  -94.820746   22.050703    0.000000    0.000000    0.000000    0.000000
  0.027200000   -4.591062  -29.519545  -94.738527   21.135080    0.000000    0.000000    0.000000    0.000000
  0.027400000   -4.592878  -29.775019  -94.821942   20.645794    0.000000    0.000000    0.000000    0.000000
  0.027600000   -4.592813  -30.005775  -95.962410   13.616132    0.000000    0.000000    0.000000    0.000000
  0.027800000   -4.593655  -30.240894  -96.386465   18.286106    0.000000    0.000000    0.000000    0.000000
  0.028000000   -4.597098  -30.496433  -95.929847   17.744858    0.000000    0.000000    0.000000    0.000000
  0.028200000   -4.597497  -30.757193  -95.705840   14.354908    0.000000    0.000000    0.000000    0.000000
  0.028400000   -4.595430  -31.006638  -96.850284   13.842269    0.000000    0.000000    0.000000    0.000000
  0.028600000   -4.590977  -31.201933  -95.705840   14.935447    0.000000    0.000000    0.000000    0.000000
  0.028800000   -4.588909  -31.412159  -96.807321   23.133995    0.000000    0.000000    0.000000    0.000000
  0.029000000   -4.585879  -31.609833  -97.240717   13.454704    0.000000    0.000000    0.000000    0.000000
  0.029200000   -4.583596  -31.787642  -96.978710   18.668892    0.000000    0.000000    0.000000    0.000000
  0.029400000   -4.585857  -31.969643  -97.709540   13.302347    0.000000    0.000000    0.000000    0.000000
  0.029600000   -4.587262  -32.143028  -96.651180   19.655550    0.000000    0.000000    0.000000    0.000000
  0.029800000   -4.590050  -32.369518  -97.776333   11.602340    0.000000    0.000000    0.000000    0.000000
  0.030000000   -4.594769  -32.557312  -97.481762   19.456919    0.000000    0.000000    0.000000    0.000000
  0.030200000   -4.603887  -32.786133  -96.559231   23.086870    0.000000    0.000000    0.000000    0.000000
  0.030400000   -4.604776  -33.034374  -97.631747   17.232107    0.000000    0.000000    0.000000    0.000000
  0.030600000   -4.605924  -33.294384  -95.731774   14.288988    0.000000    0.000000    0.000000    0.000000
  0.030800000   -4.607040  -33.554405  -97.194972   11.323030    0.000000    0.000000    0.000000    0.000000
  0.031000000   -4.606353  -33.809654  -96.545955   27.370827    0.000000    0.000000    0.000000    0.000000
  0.031200000   -4.599961  -33.997688  -99.475626   12.732443    0.000000    0.000000    0.000000    0.000000
  0.031400000   -4.604158  -34.283394  -97.384854   18.480764    0.000000    0.000000    0.000000    0.000000
  0.031600000   -4.597006  -34.503223  -97.994431   15.618176    0.000000    0.000000    0.000000    0.000000
  0.031800000   -4.596411  -34.721752  -97.214246   20.956776    0.000000    0.000000    0.000000    0.000000
  0.032000000   -4.588989  -34.950394  -97.740155   17.160400    0.000000    0.000000    0.000000    0.000000
  0.032200000   -4.584887  -35.162495  -98.531144   20.283751    0.000000    0.000000    0.000000    0.000000
  0.032400000   -4.578180  -35.371189  -98.138849   20.050276    0.000000    0.000000    0.000000    0.000000
  0.032600000   -4.572366  -35.557816  -95.985495   10.350110    0.000000    0.000000    0.000000    0.000000
  0.032800000   -4.572473  -35.738564  -98.351553   11.561203    0.000000    0.000000    0.000000    0.000000
  0.033000000   -4.570398  -35.941029  -97.843063   10.212393    0.000000    0.000000    0.000000    0.000000
  0.033200000   -4.569606  -36.130520  -97.557290   10.998937    0.000000    0.000000    0.000000    0.000000
  0.033400000   -4.570245  -36.331478  -98.317661   12.066336    0.000000    0.000000    0.000000    0.000000
  0.033600000   -4.575137  -36.550510  -97.606245   22.683990    0.000000    0.000000    0.000000    0.000000
  0.033800000   -4.577525  -36.751400  -99.082337   15.143030    0.000000    0.000000    0.000000    0.000000
  0.034000000   -4.577868  -36.974232  -96.495839    4.420240    0.000000    0.000000    0.000000    0.000000
  0.034200000   -4.580590  -37.196125  -98.635718   12.724406    0.000000    0.000000    0.000000    0.000000
  0.034400000   -4.584143  -37.426178  -96.352501    9.667215    0.000000    0.000000    0.000000    0.000000
  0.034600000   -4.586207  -37.678135  -97.367820    3.946087    0.000000    0.000000    0.000000    0.000000
  0.034800000   -4.594759  -37.895039  -97.621312   14.177951    0.000000    0.000000    0.000000    0.000000
  0.035000000   -4.598241  -38.144363  -99.301376    9.204656    0.000000    0.000000    0.000000    0.000000
  0.035200000   -4.598751  -38.367298  -99.988608    0.586019    0.000000    0.000000    0.000000    0.000000
  0.035400000   -4.599784  -38.605896  -98.582731    8.318579    0.000000    0.000000    0.000000    0.000000
  0.035600000   -4.599631  -38.828053  -98.841774    0.378577    0.000000    0.000000    0.000000    0.000000
  0.035800000   -4.601669  -39.043827  -99.660755   15.895419    0.000000    0.000000    0.000000    0.000000
  0.036000000   -4.602956  -39.259079  -99.029119    5.448952    0.000000    0.000000    0.000000    0.000000
  0.036200000   -4.598892  -39.510284  -99.327095   18.969215    0.000000    0.000000    0.000000    0.000000
  0.036400000   -4.596154  -39.737694  -99.318165    7.608243    0.000000    0.000000    0.000000    0.000000
  0.036600000   -4.589720  -39.948051  -97.730547   11.695813    0.000000    0.000000    0.000000    0.000000
  0.036800000   -4.588367  -40.132092  -98.684727    1.120825    0.000000    0.000000    0.000000    0.000000
  0.037000000   -4.585029  -40.314892 -100.782926   23.250202    0.000000    0.000000    0.000000    0.000000
  0.037200000   -4.582954  -40.454342  -98.300181    4.930750    0.000000    0.000000    0.000000    0.000000
  0.037400000   -4.587320  -40.657341  -99.601003    4.204469    0.000000    0.000000    0.000000    0.000000
  0.037600000   -4.592106  -40.841053  -99.908024    9.917532    0.000000    0.000000    0.000000    0.000000
  0.037800000   -4.601444  -41.058567  -97.908449    5.527047    0.000000    0.000000    0.000000    0.000000
  0.038000000   -4.609420  -41.290203  -99.648269   13.601840    0.000000    0.000000    0.000000    0.000000
  0.038200000   -4.615849  -41.522480  -98.341747   10.190845    0.000000    0.000000    0.000000    0.000000
  0.038400000   -4.619994  -41.783390 -100.244540    3.516859    0.000000    0.000000    0.000000    0.000000
  0.038600000   -4.625736  -41.997295 -100.766442   12.724748    0.000000    0.000000    0.000000    0.000000
  0.038800000   -4.627322  -42.259697  -99.373253    7.815531    0.000000    0.000000    0.000000    0.000000
  0.039000000   -4.627558  -42.467464  -99.084483   16.436392    0.000000    0.000000    0.000000    0.000000
  0.039200000   -4.625239  -42.740730 -100.011421   14.231661    0.000000    0.000000    0.000000    0.000000
  0.039400000   -4.623957  -42.954750  -97.748311    8.468221    0.000000    0.000000    0.000000    0.000000
  0.039600000   -4.619146  -43.197498  -99.529981    6.849380    0.000000    0.000000    0.000000    0.000000
  0.039800000   -4.612735  -43.419003  -99.542826   10.990915    0.000000    0.000000    0.000000    0.000000
  0.040000000   -4.610039  -43.624214 -101.558704   15.691649    0.000000    0.000000    0.000000    0.000000
  0.040200000   -4.606179  -43.829777 -100.627658   17.911264    0.000000    0.000000    0.000000    0.000000
  0.040400000   -4.605669  -44.017559  -99.708225   -6.864061    0.000000    0.000000    0.000000    0.000000
  0.040600000   -4.604996  -44.206219 -104.467933   -3.495535    0.000000    0.000000    0.000000    0.000000
  0.040800000   -4.608681  -44.405903 -101.081485    8.402300    0.000000    0.000000    0.000000    0.000000
  0.041000000   -4.610470  -44.617886  -99.815062    0.030504    0.000000    0.000000    0.000000    0.000000
  0.041200000   -4.614693  -44.841900  -99.352618   13.582298    0.000000    0.000000    0.000000    0.000000
  0.041400000   -4.619496  -45.074547 -101.562968   -1.325370    0.000000    0.000000    0.000000    0.000000
  0.041600000   -4.625004  -45.306988 -103.816070  -14.695494    0.000000    0.000000    0.000000    0.000000
  0.041800000   -4.627584  -45.550663 -102.255279    8.743445    0.000000    0.000000    0.000000    0.000000
  0.042000000   -4.630118  -45.796494 -101.482570    6.376256    0.000000    0.000000    0.000000    0.000000
  0.042200000   -4.634655  -46.013634 -104.223093    3.663761    0.000000    0.000000    0.000000    0.000000
  0.042400000   -4.634037  -46.235332 -101.192992    4.945854    0.000000    0.000000    0.000000    0.000000
  0.042600000   -4.634183  -46.469719 -100.857112   21.303946    0.000000    0.000000    0.000000    0.000000
  0.042800000   -4.633462  -46.710598 -100.612752   13.473680    0.000000    0.000000    0.000000    0.000000
