! Anritsu VNA Master:                     Model: MS2036C/10/77
! SN:                                  1601066
! /card0/usr/256.ew.n.r50.11.s2p
! Existing Calibration Information:
! TYPE:                         Current Settings,       Active Cal Settings
! TIME:             	   12/19/2017 02:57:51 PM,    12/19/2017 02:53:44 PM
! INTERNAL TEMP:    	                   46.5 C,                    46.3 C
! # POINTS:         	                      501,                       501
! START FREQ:       	               10.000 MHz,                10.000 MHz
! STOP FREQ:        	              110.000 MHz,               110.000 MHz
! SOURCE POWER:     	                     High,                      High
! IFBW:             	                   100 Hz,                    100 Hz
! AVG FACTOR:       	                       1 ,                        1 
! REF PLANE 1:      	                     0 mm,                      0 mm
! REF PLANE 2:      	                     0 mm,                      0 mm
! CAL TYPE:         	                 Full S11,                  Full S11
! CAL METHOD:       	                     SOLT,                      SOLT
! CAL LINE TYPE:    	                     Coax,                      Coax
! DUT PORT 1:       	                N-Conn(F),                 N-Conn(F)
! DUT PORT 2:       	                K-Conn(F),                 K-Conn(F)
! CAL STATUS:       	        OK: Accuracy High,                        --
# GHZ S DB R 50.0
! FREQ.GHZ       S11DB        S11A       S21DB        S21A       S12DB        S12A       S22DB        S22A
  0.010000000  -44.550400   60.745258  -83.213417   76.712257    0.000000    0.000000    0.000000    0.000000
  0.010200000  -44.414035   59.320583  -83.178994   73.629845    0.000000    0.000000    0.000000    0.000000
  0.010400000  -44.538270   60.270912  -83.400863   75.828552    0.000000    0.000000    0.000000    0.000000
  0.010600000  -44.153500   58.071735  -83.947452   72.741066    0.000000    0.000000    0.000000    0.000000
  0.010800000  -44.421125   59.693100  -83.412348   72.510521    0.000000    0.000000    0.000000    0.000000
  0.011000000  -43.996623   59.440731  -83.860038   72.395470    0.000000    0.000000    0.000000    0.000000
  0.011200000  -44.234731   58.928528  -84.269377   71.416420    0.000000    0.000000    0.000000    0.000000
  0.011400000  -43.940131   59.569473  -84.679326   67.047867    0.000000    0.000000    0.000000    0.000000
  0.011600000  -43.659318   60.299438  -84.363134   69.583313    0.000000    0.000000    0.000000    0.000000
  0.011800000  -43.410509   59.379601  -85.511074   68.492668    0.000000    0.000000    0.000000    0.000000
  0.012000000  -43.713537   59.179035  -84.667716   65.448059    0.000000    0.000000    0.000000    0.000000
  0.012200000  -43.497672   58.761021  -85.268514   64.978119    0.000000    0.000000    0.000000    0.000000
  0.012400000  -43.415963   58.863422  -85.696109   66.230171    0.000000    0.000000    0.000000    0.000000
  0.012600000  -43.342702   58.684208  -85.695680   64.087425    0.000000    0.000000    0.000000    0.000000
  0.012800000  -43.021062   58.636894  -85.943985   63.176342    0.000000    0.000000    0.000000    0.000000
  0.013000000  -43.136422   57.540287  -86.034208   60.025528    0.000000    0.000000    0.000000    0.000000
  0.013200000  -42.826071   58.791809  -86.323343   58.037304    0.000000    0.000000    0.000000    0.000000
  0.013400000  -42.948173   58.198654  -86.191869   59.923149    0.000000    0.000000    0.000000    0.000000
  0.013600000  -42.673396   58.441959  -86.149885   55.437595    0.000000    0.000000    0.000000    0.000000
  0.013800000  -42.803166   57.477703  -86.884954   60.124992    0.000000    0.000000    0.000000    0.000000
  0.014000000  -42.587601   58.143932  -86.557013   59.664013    0.000000    0.000000    0.000000    0.000000
  0.014200000  -42.371541   57.388985  -87.289370   54.907715    0.000000    0.000000    0.000000    0.000000
  0.014400000  -42.595799   57.685059  -86.839479   56.330677    0.000000    0.000000    0.000000    0.000000
  0.014600000  -42.368182   58.161812  -87.230365   56.779041    0.000000    0.000000    0.000000    0.000000
  0.014800000  -42.241903   57.641563  -87.492720   55.164070    0.000000    0.000000    0.000000    0.000000
  0.015000000  -42.174162   57.684341  -87.578354   54.400795    0.000000    0.000000    0.000000    0.000000
  0.015200000  -42.048539   57.209770  -88.079808   50.508522    0.000000    0.000000    0.000000    0.000000
  0.015400000  -42.088094   56.816978  -87.950576   50.368073    0.000000    0.000000    0.000000    0.000000
  0.015600000  -41.935508   56.180996  -87.840860   55.710094    0.000000    0.000000    0.000000    0.000000
  0.015800000  -41.611598   56.866127  -88.659446   48.627281    0.000000    0.000000    0.000000    0.000000
  0.016000000  -41.821079   56.985519  -88.119869   48.620358    0.000000    0.000000    0.000000    0.000000
  0.016200000  -41.689248   55.705235  -88.039608   49.525211    0.000000    0.000000    0.000000    0.000000
  0.016400000  -41.718578   55.997807  -89.388630   45.518486    0.000000    0.000000    0.000000    0.000000
  0.016600000  -41.378299   56.638531  -88.948380   49.555794    0.000000    0.000000    0.000000    0.000000
  0.016800000  -41.517873   55.736790  -89.002540   47.449005    0.000000    0.000000    0.000000    0.000000
  0.017000000  -41.290093   57.138512  -88.915448   46.128593    0.000000    0.000000    0.000000    0.000000
  0.017200000  -41.329858   56.463280  -89.247594   44.200951    0.000000    0.000000    0.000000    0.000000
  0.017400000  -41.165994   56.695663  -89.123296   44.323730    0.000000    0.000000    0.000000    0.000000
  0.017600000  -41.293502   55.597267  -89.432373   48.819344    0.000000    0.000000    0.000000    0.000000
  0.017800000  -41.007520   55.437614  -89.458445   42.449772    0.000000    0.000000    0.000000    0.000000
  0.018000000  -41.065257   56.346252  -90.022664   44.202412    0.000000    0.000000    0.000000    0.000000
  0.018200000  -41.025757   55.381180  -89.821931   43.852821    0.000000    0.000000    0.000000    0.000000
  0.018400000  -40.904088   56.112885  -90.126435   45.207993    0.000000    0.000000    0.000000    0.000000
  0.018600000  -40.875339   56.382835  -90.881998   40.449917    0.000000    0.000000    0.000000    0.000000
  0.018800000  -40.839601   56.064388  -90.658322   37.658100    0.000000    0.000000    0.000000    0.000000
  0.019000000  -40.748966   55.595486  -90.945272   38.630623    0.000000    0.000000    0.000000    0.000000
  0.019200000  -40.683989   55.088764  -90.192648   39.767384    0.000000    0.000000    0.000000    0.000000
  0.019400000  -40.675777   54.722740  -90.841254   42.576637    0.000000    0.000000    0.000000    0.000000
  0.019600000  -40.597996   54.822163  -90.445182   41.305790    0.000000    0.000000    0.000000    0.000000
  0.019800000  -40.393593   54.462746  -90.847131   39.479492    0.000000    0.000000    0.000000    0.000000
  0.020000000  -40.383371   54.276211  -92.046481   36.900627    0.000000    0.000000    0.000000    0.000000
  0.020200000  -40.352565   54.159477  -91.898150   36.398811    0.000000    0.000000    0.000000    0.000000
  0.020400000  -40.356117   54.666851  -91.178557   39.221001    0.000000    0.000000    0.000000    0.000000
  0.020600000  -40.166591   53.597305  -91.609928   34.320030    0.000000    0.000000    0.000000    0.000000
  0.020800000  -40.227186   53.520664  -90.942543   34.925163    0.000000    0.000000    0.000000    0.000000
  0.021000000  -40.038388   54.305874  -91.685485   38.886009    0.000000    0.000000    0.000000    0.000000
  0.021200000  -40.040516   54.240334  -92.074973   37.418915    0.000000    0.000000    0.000000    0.000000
  0.021400000  -39.924300   53.957256  -92.327883   30.874870    0.000000    0.000000    0.000000    0.000000
  0.021600000  -39.845341   54.042706  -91.627538   33.851162    0.000000    0.000000    0.000000    0.000000
  0.021800000  -39.775995   53.309895  -92.254749   37.627338    0.000000    0.000000    0.000000    0.000000
  0.022000000  -39.749258   53.697121  -91.323973   33.428219    0.000000    0.000000    0.000000    0.000000
  0.022200000  -39.813482   53.181931  -92.315676   30.546488    0.000000    0.000000    0.000000    0.000000
  0.022400000  -39.631339   53.359539  -92.252903   38.798187    0.000000    0.000000    0.000000    0.000000
  0.022600000  -39.624818   52.748077  -92.877005   38.546078    0.000000    0.000000    0.000000    0.000000
  0.022800000  -39.624049   51.923317  -92.892133   29.122145    0.000000    0.000000    0.000000    0.000000
  0.023000000  -39.600355   52.272903  -92.873553   25.371256    0.000000    0.000000    0.000000    0.000000
  0.023200000  -39.452229   52.115158  -92.258671   31.468655    0.000000    0.000000    0.000000    0.000000
  0.023400000  -39.423518   52.268024  -93.315734   32.232136    0.000000    0.000000    0.000000    0.000000
  0.023600000  -39.269770   52.184509  -92.546428   27.433167    0.000000    0.000000    0.000000    0.000000
  0.023800000  -39.110929   52.047611  -94.002896   29.947784    0.000000    0.000000    0.000000    0.000000
  0.024000000  -39.204666   52.717953  -93.236807   21.586983    0.000000    0.000000    0.000000    0.000000
  0.024200000  -39.069763   52.044445  -93.766464   31.975218    0.000000    0.000000    0.000000    0.000000
  0.024400000  -38.964643   52.342556  -94.181691   21.705303    0.000000    0.000000    0.000000    0.000000
  0.024600000  -38.935003   52.254395  -94.513273   28.860258    0.000000    0.000000    0.000000    0.000000
  0.024800000  -38.915605   52.175766  -94.727250   28.076014    0.000000    0.000000    0.000000    0.000000
  0.025000000  -38.937269   51.967796  -93.593086   19.118431    0.000000    0.000000    0.000000    0.000000
  0.025200000  -38.820137   52.458511  -94.875974   25.153374    0.000000    0.000000    0.000000    0.000000
  0.025400000  -38.886692   51.201336  -95.035791   25.013102    0.000000    0.000000    0.000000    0.000000
  0.025600000  -38.776604   51.723454  -93.803655   21.831516    0.000000    0.000000    0.000000    0.000000
  0.025800000  -38.723968   51.779751  -95.408015   19.149820    0.000000    0.000000    0.000000    0.000000
  0.026000000  -38.594923   51.039768  -94.483353   25.873690    0.000000    0.000000    0.000000    0.000000
  0.026200000  -38.583123   51.057217  -95.134880   20.785818    0.000000    0.000000    0.000000    0.000000
  0.026400000  -38.557819   52.081028  -94.423665   23.539845    0.000000    0.000000    0.000000    0.000000
  0.026600000  -38.665359   51.929794  -95.086142   18.553503    0.000000    0.000000    0.000000    0.000000
  0.026800000  -38.394356   50.979855  -94.893178   26.051119    0.000000    0.000000    0.000000    0.000000
  0.027000000  -38.402794   50.572571  -96.093841   22.983620    0.000000    0.000000    0.000000    0.000000
  0.027200000  -38.312318   50.559959  -94.873889   21.157757    0.000000    0.000000    0.000000    0.000000
  0.027400000  -38.337038   50.556129  -95.415976   25.756561    0.000000    0.000000    0.000000    0.000000
  0.027600000  -38.298476   50.053379  -95.579774   19.255293    0.000000    0.000000    0.000000    0.000000
  0.027800000  -38.236643   50.324726  -95.745192    9.967846    0.000000    0.000000    0.000000    0.000000
  0.028000000  -38.240810   50.790222  -96.069893   22.983173    0.000000    0.000000    0.000000    0.000000
  0.028200000  -38.140635   49.856018  -96.452422   24.529808    0.000000    0.000000    0.000000    0.000000
  0.028400000  -38.141203   49.891754  -96.843797   19.700542    0.000000    0.000000    0.000000    0.000000
  0.028600000  -38.118770   50.209080  -96.165078   23.672184    0.000000    0.000000    0.000000    0.000000
  0.028800000  -38.122943   50.322182  -96.553348   19.016098    0.000000    0.000000    0.000000    0.000000
  0.029000000  -38.051214   49.909542  -95.330392   23.279322    0.000000    0.000000    0.000000    0.000000
  0.029200000  -37.958675   49.451847  -95.617053   16.612139    0.000000    0.000000    0.000000    0.000000
  0.029400000  -37.885143   49.517422  -95.616519   20.391605    0.000000    0.000000    0.000000    0.000000
  0.029600000  -37.841768   49.780087  -95.776255   19.789310    0.000000    0.000000    0.000000    0.000000
  0.029800000  -37.841556   48.950237  -97.333181   14.183611    0.000000    0.000000    0.000000    0.000000
  0.030000000  -37.881557   49.660873  -96.684189   20.414495    0.000000    0.000000    0.000000    0.000000
  0.030200000  -37.838340   49.296734  -96.430146   17.399628    0.000000    0.000000    0.000000    0.000000
  0.030400000  -37.718718   49.004551  -96.255412   14.314086    0.000000    0.000000    0.000000    0.000000
  0.030600000  -37.667535   48.159184  -96.444893   21.025124    0.000000    0.000000    0.000000    0.000000
  0.030800000  -37.686235   48.816776  -96.249373   21.902275    0.000000    0.000000    0.000000    0.000000
  0.031000000  -37.568235   48.554253  -97.382346   18.884382    0.000000    0.000000    0.000000    0.000000
  0.031200000  -37.518921   48.970383  -97.574143   17.560703    0.000000    0.000000    0.000000    0.000000
  0.031400000  -37.502044   48.944054  -98.411493    8.482631    0.000000    0.000000    0.000000    0.000000
  0.031600000  -37.433954   48.025459  -96.575674    7.840667    0.000000    0.000000    0.000000    0.000000
  0.031800000  -37.412460   48.146553  -97.539293   18.058561    0.000000    0.000000    0.000000    0.000000
  0.032000000  -37.456894   47.458469  -97.270029    5.766717    0.000000    0.000000    0.000000    0.000000
  0.032200000  -37.329191   47.833389  -95.853920    8.779119    0.000000    0.000000    0.000000    0.000000
  0.032400000  -37.329859   48.004864  -96.389762    8.619815    0.000000    0.000000    0.000000    0.000000
  0.032600000  -37.169459   47.893871  -98.543596   13.047976    0.000000    0.000000    0.000000    0.000000
  0.032800000  -37.205690   47.567699  -99.019636   15.344050    0.000000    0.000000    0.000000    0.000000
  0.033000000  -37.251594   47.561306  -98.447099   11.991375    0.000000    0.000000    0.000000    0.000000
  0.033200000  -37.134802   47.922821  -98.346422   21.788834    0.000000    0.000000    0.000000    0.000000
  0.033400000  -37.111721   46.877113  -97.607814   16.695536    0.000000    0.000000    0.000000    0.000000
  0.033600000  -37.105819   47.292484  -97.122372   18.603819    0.000000    0.000000    0.000000    0.000000
  0.033800000  -37.182569   47.589577  -98.898856    9.094543    0.000000    0.000000    0.000000    0.000000
  0.034000000  -37.026692   46.684444  -97.861738   14.322204    0.000000    0.000000    0.000000    0.000000
  0.034200000  -37.047784   46.376469 -100.016483   12.694267    0.000000    0.000000    0.000000    0.000000
  0.034400000  -36.942693   46.321690  -97.012880    5.235602    0.000000    0.000000    0.000000    0.000000
  0.034600000  -36.821426   45.886814  -99.615099   10.900318    0.000000    0.000000    0.000000    0.000000
  0.034800000  -36.803274   46.347569  -97.533016   11.721352    0.000000    0.000000    0.000000    0.000000
  0.035000000  -36.879738   46.141220  -99.509813    9.188890    0.000000    0.000000    0.000000    0.000000
  0.035200000  -36.833597   45.535187  -97.495854   22.631090    0.000000    0.000000    0.000000    0.000000
  0.035400000  -36.840255   46.465481  -98.964447    9.275359    0.000000    0.000000    0.000000    0.000000
  0.035600000  -36.730247   45.719604  -99.920014   18.300522    0.000000    0.000000    0.000000    0.000000
  0.035800000  -36.759156   46.004360  -98.512200    5.151583    0.000000    0.000000    0.000000    0.000000
  0.036000000  -36.634095   45.436134  -97.549986    6.738546    0.000000    0.000000    0.000000    0.000000
  0.036200000  -36.610911   45.350777  -98.537371   16.024017    0.000000    0.000000    0.000000    0.000000
  0.036400000  -36.469728   45.116028 -100.634275   13.412993    0.000000    0.000000    0.000000    0.000000
  0.036600000  -36.536274   44.573643  -98.408990   -1.170536    0.000000    0.000000    0.000000    0.000000
  0.036800000  -36.569859   45.783699  -99.278619   11.791162    0.000000    0.000000    0.000000    0.000000
  0.037000000  -36.531729   45.257088  -98.067932   10.647748    0.000000    0.000000    0.000000    0.000000
  0.037200000  -36.475519   44.393272 -100.267353   14.151806    0.000000    0.000000    0.000000    0.000000
  0.037400000  -36.391940   44.779907  -99.351176   11.445756    0.000000    0.000000    0.000000    0.000000
  0.037600000  -36.379137   44.584759  -99.694992   -7.244913    0.000000    0.000000    0.000000    0.000000
  0.037800000  -36.447538   44.455784  -98.323638   15.647596    0.000000    0.000000    0.000000    0.000000
  0.038000000  -36.332880   43.633286  -99.646387    1.068885    0.000000    0.000000    0.000000    0.000000
  0.038200000  -36.315681   43.696709  -99.889912   14.976850    0.000000    0.000000    0.000000    0.000000
  0.038400000  -36.319233   43.810505  -98.956076   15.288073    0.000000    0.000000    0.000000    0.000000
  0.038600000  -36.237405   43.606445  -98.400672    1.929370    0.000000    0.000000    0.000000    0.000000
  0.038800000  -36.101849   43.395168  -99.930750    9.221250    0.000000    0.000000    0.000000    0.000000
  0.039000000  -36.122329   43.466072 -101.086850    7.268529    0.000000    0.000000    0.000000    0.000000
  0.039200000  -36.137113   43.512562 -101.303094   12.002251    0.000000    0.000000    0.000000    0.000000
  0.039400000  -36.008521   43.497566  -99.574300   15.850339    0.000000    0.000000    0.000000    0.000000
  0.039600000  -35.992541   43.178890 -101.437784   -0.916982    0.000000    0.000000    0.000000    0.000000
  0.039800000  -36.021371   43.338963  -99.139612   19.294821    0.000000    0.000000    0.000000    0.000000
  0.040000000  -35.895391   43.541515 -100.063240   20.148273    0.000000    0.000000    0.000000    0.000000
  0.040200000  -35.874364   43.143764 -100.344196    3.639071    0.000000    0.000000    0.000000    0.000000
  0.040400000  -35.874879   43.327930 -101.087786  -12.751610    0.000000    0.000000    0.000000    0.000000
  0.040600000  -35.978824   42.739555 -101.532864   10.343412    0.000000    0.000000    0.000000    0.000000
  0.040800000  -35.871411   43.149433 -100.345917   -0.732085    0.000000    0.000000    0.000000    0.000000
  0.041000000  -35.766796   42.587631 -101.683413   12.541602    0.000000    0.000000    0.000000    0.000000
  0.041200000  -35.747204   42.177483 -100.210499    3.626691    0.000000    0.000000    0.000000    0.000000
  0.041400000  -35.795284   42.250797 -102.299289   18.646160    0.000000    0.000000    0.000000    0.000000
  0.041600000  -35.739068   42.436165  -99.748406    1.449768    0.000000    0.000000    0.000000    0.000000
  0.041800000  -35.664013   41.802505 -101.690542    5.252523    0.000000    0.000000    0.000000    0.000000
  0.042000000  -35.570946   41.182850 -101.894267    4.323979    0.000000    0.000000    0.000000    0.000000
  0.042200000  -35.699146   42.486488 -102.703699    9.776379    0.000000    0.000000    0.000000    0.000000
  0.042400000  -35.643975   41.161640 -103.053804   -2.800006    0.000000    0.000000    0.000000    0.000000
  0.042600000  -35.543688   41.511990 -103.710195    5.250661    0.000000    0.000000    0.000000    0.000000
  0.042800000  -35.469907   41.266106 -101.108275  -19.562571    0.000000    0.000000    0.000000    0.000000
