! Anritsu VNA Master:                     Model: MS2036C/10/77
! SN:                                  1601066
! /card0/usr/256.ns.n.r50.12.s2p
! Existing Calibration Information:
! TYPE:                         Current Settings,       Active Cal Settings
! TIME:             	   12/19/2017 04:06:34 PM,    12/19/2017 03:58:02 PM
! INTERNAL TEMP:    	                   46.8 C,                    47.0 C
! # POINTS:         	                      501,                       501
! START FREQ:       	               10.000 MHz,                10.000 MHz
! STOP FREQ:        	              110.000 MHz,               110.000 MHz
! SOURCE POWER:     	                     High,                      High
! IFBW:             	                   100 Hz,                    100 Hz
! AVG FACTOR:       	                       1 ,                        1 
! REF PLANE 1:      	                     0 mm,                      0 mm
! REF PLANE 2:      	                     0 mm,                      0 mm
! CAL TYPE:         	                 Full S11,                  Full S11
! CAL METHOD:       	                     SOLT,                      SOLT
! CAL LINE TYPE:    	                     Coax,                      Coax
! DUT PORT 1:       	                N-Conn(F),                 N-Conn(F)
! DUT PORT 2:       	                K-Conn(F),                 K-Conn(F)
! CAL STATUS:       	        OK: Accuracy High,                        --
# GHZ S DB R 50.0
! FREQ.GHZ       S11DB        S11A       S21DB        S21A       S12DB        S12A       S22DB        S22A
  0.010000000  -43.452809   59.334118  -83.156899   77.476494    0.000000    0.000000    0.000000    0.000000
  0.010200000  -43.622207   60.929958  -83.509523   76.202354    0.000000    0.000000    0.000000    0.000000
  0.010400000  -43.508458   61.582939  -83.486173   72.907799    0.000000    0.000000    0.000000    0.000000
  0.010600000  -43.577334   59.713333  -83.531201   75.313385    0.000000    0.000000    0.000000    0.000000
  0.010800000  -43.419284   61.075394  -84.162639   72.415276    0.000000    0.000000    0.000000    0.000000
  0.011000000  -43.465798   60.568924  -84.045987   72.827133    0.000000    0.000000    0.000000    0.000000
  0.011200000  -43.058341   60.287601  -84.150846   68.631851    0.000000    0.000000    0.000000    0.000000
  0.011400000  -43.205649   59.963112  -84.260356   71.208046    0.000000    0.000000    0.000000    0.000000
  0.011600000  -42.964631   59.572540  -84.904510   66.241165    0.000000    0.000000    0.000000    0.000000
  0.011800000  -42.870453   61.448132  -84.841243   67.120613    0.000000    0.000000    0.000000    0.000000
  0.012000000  -42.582649   60.061726  -85.218498   65.694710    0.000000    0.000000    0.000000    0.000000
  0.012200000  -42.557934   59.052799  -85.248703   66.754219    0.000000    0.000000    0.000000    0.000000
  0.012400000  -42.679193   58.182407  -85.489122   64.277077    0.000000    0.000000    0.000000    0.000000
  0.012600000  -42.597001   60.220131  -85.908779   63.743149    0.000000    0.000000    0.000000    0.000000
  0.012800000  -42.497542   59.490585  -85.912862   61.804668    0.000000    0.000000    0.000000    0.000000
  0.013000000  -42.228786   58.518070  -85.729725   62.343193    0.000000    0.000000    0.000000    0.000000
  0.013200000  -42.423558   57.102970  -85.961822   61.652756    0.000000    0.000000    0.000000    0.000000
  0.013400000  -42.051677   57.257618  -86.437846   60.883583    0.000000    0.000000    0.000000    0.000000
  0.013600000  -42.021095   58.690750  -86.362873   57.646774    0.000000    0.000000    0.000000    0.000000
  0.013800000  -41.852735   58.044334  -86.891425   58.550690    0.000000    0.000000    0.000000    0.000000
  0.014000000  -41.782524   56.825260  -86.850526   58.290630    0.000000    0.000000    0.000000    0.000000
  0.014200000  -41.658754   56.961044  -86.393711   56.886028    0.000000    0.000000    0.000000    0.000000
  0.014400000  -41.730719   56.771107  -87.299720   55.227928    0.000000    0.000000    0.000000    0.000000
  0.014600000  -41.528463   55.879833  -87.344103   54.540199    0.000000    0.000000    0.000000    0.000000
  0.014800000  -41.403468   56.879951  -87.650075   55.256435    0.000000    0.000000    0.000000    0.000000
  0.015000000  -41.161150   56.846519  -87.480094   55.474754    0.000000    0.000000    0.000000    0.000000
  0.015200000  -41.206137   56.622311  -87.999139   51.734821    0.000000    0.000000    0.000000    0.000000
  0.015400000  -40.897844   55.895275  -88.214564   52.356483    0.000000    0.000000    0.000000    0.000000
  0.015600000  -40.901392   56.999180  -87.959750   48.370770    0.000000    0.000000    0.000000    0.000000
  0.015800000  -40.801766   56.330376  -88.263919   52.699497    0.000000    0.000000    0.000000    0.000000
  0.016000000  -40.626065   56.352936  -88.315293   51.466400    0.000000    0.000000    0.000000    0.000000
  0.016200000  -40.705069   55.879494  -89.416187   48.238426    0.000000    0.000000    0.000000    0.000000
  0.016400000  -40.542978   55.862499  -89.331594   46.015392    0.000000    0.000000    0.000000    0.000000
  0.016600000  -40.439410   57.173424  -89.602857   47.975567    0.000000    0.000000    0.000000    0.000000
  0.016800000  -40.189911   56.702950  -89.149849   49.148743    0.000000    0.000000    0.000000    0.000000
  0.017000000  -40.230100   57.167942  -89.049937   46.425232    0.000000    0.000000    0.000000    0.000000
  0.017200000  -40.212832   56.580170  -89.465128   46.459721    0.000000    0.000000    0.000000    0.000000
  0.017400000  -40.130673   58.069839  -89.582450   41.955612    0.000000    0.000000    0.000000    0.000000
  0.017600000  -40.086003   57.045658  -89.416834   43.342247    0.000000    0.000000    0.000000    0.000000
  0.017800000  -39.857937   57.842449  -89.332357   42.547230    0.000000    0.000000    0.000000    0.000000
  0.018000000  -39.810762   57.824066  -90.100019   44.853550    0.000000    0.000000    0.000000    0.000000
  0.018200000  -39.877918   56.439644  -89.749115   38.181904    0.000000    0.000000    0.000000    0.000000
  0.018400000  -39.950680   58.122101  -90.394619   41.355339    0.000000    0.000000    0.000000    0.000000
  0.018600000  -39.834853   57.771420  -90.479748   40.389374    0.000000    0.000000    0.000000    0.000000
  0.018800000  -39.720642   57.748806  -90.541697   40.966087    0.000000    0.000000    0.000000    0.000000
  0.019000000  -39.774447   57.412903  -89.942029   39.061119    0.000000    0.000000    0.000000    0.000000
  0.019200000  -39.807145   58.007183  -90.577040   39.000946    0.000000    0.000000    0.000000    0.000000
  0.019400000  -39.634085   57.957584  -90.638351   40.115070    0.000000    0.000000    0.000000    0.000000
  0.019600000  -39.599951   57.334145  -91.205421   41.443367    0.000000    0.000000    0.000000    0.000000
  0.019800000  -39.716549   57.504723  -90.667829   41.131664    0.000000    0.000000    0.000000    0.000000
  0.020000000  -39.739603   57.811726  -90.962871   37.664688    0.000000    0.000000    0.000000    0.000000
  0.020200000  -39.606383   56.704403  -91.917738   42.976093    0.000000    0.000000    0.000000    0.000000
  0.020400000  -39.506343   56.738785  -92.220058   37.996025    0.000000    0.000000    0.000000    0.000000
  0.020600000  -39.471591   56.092472  -90.755582   43.077641    0.000000    0.000000    0.000000    0.000000
  0.020800000  -39.381554   56.705379  -91.793793   38.826263    0.000000    0.000000    0.000000    0.000000
  0.021000000  -39.434320   55.201180  -91.401189   36.252037    0.000000    0.000000    0.000000    0.000000
  0.021200000  -39.364366   55.025860  -91.667684   31.488832    0.000000    0.000000    0.000000    0.000000
  0.021400000  -39.294165   53.885155  -91.686690   34.681599    0.000000    0.000000    0.000000    0.000000
  0.021600000  -39.172695   53.864147  -92.034592   34.709419    0.000000    0.000000    0.000000    0.000000
  0.021800000  -39.163715   53.835663  -92.100558   33.222481    0.000000    0.000000    0.000000    0.000000
  0.022000000  -39.052774   53.668953  -92.275747   35.585659    0.000000    0.000000    0.000000    0.000000
  0.022200000  -39.098689   52.967133  -92.704013   33.387794    0.000000    0.000000    0.000000    0.000000
  0.022400000  -38.861487   53.618477  -92.754223   27.049492    0.000000    0.000000    0.000000    0.000000
  0.022600000  -38.905502   53.678673  -92.073840   30.437099    0.000000    0.000000    0.000000    0.000000
  0.022800000  -38.816708   51.869717  -92.620735   35.390690    0.000000    0.000000    0.000000    0.000000
  0.023000000  -38.717755   52.419476  -93.007384   32.125938    0.000000    0.000000    0.000000    0.000000
  0.023200000  -38.481441   51.774460  -92.786085   27.878981    0.000000    0.000000    0.000000    0.000000
  0.023400000  -38.573365   51.991215  -93.203206   29.879150    0.000000    0.000000    0.000000    0.000000
  0.023600000  -38.352299   50.832035  -92.293321   25.934284    0.000000    0.000000    0.000000    0.000000
  0.023800000  -38.270762   51.271557  -93.649491   28.571997    0.000000    0.000000    0.000000    0.000000
  0.024000000  -38.207658   51.746124  -93.475882   34.509777    0.000000    0.000000    0.000000    0.000000
  0.024200000  -38.042686   51.367775  -93.181795   28.805561    0.000000    0.000000    0.000000    0.000000
  0.024400000  -38.042143   51.496216  -93.134172   28.100266    0.000000    0.000000    0.000000    0.000000
  0.024600000  -37.917297   51.055492  -93.337271   26.336382    0.000000    0.000000    0.000000    0.000000
  0.024800000  -37.785713   51.797390  -94.087123   29.588608    0.000000    0.000000    0.000000    0.000000
  0.025000000  -37.803906   50.891602  -93.615634   26.931456    0.000000    0.000000    0.000000    0.000000
  0.025200000  -37.803851   50.946354  -93.981169   26.131207    0.000000    0.000000    0.000000    0.000000
  0.025400000  -37.669938   51.572910  -93.501244   23.946074    0.000000    0.000000    0.000000    0.000000
  0.025600000  -37.591297   52.040794  -95.431218   18.839201    0.000000    0.000000    0.000000    0.000000
  0.025800000  -37.513182   50.982971  -94.014308   26.481930    0.000000    0.000000    0.000000    0.000000
  0.026000000  -37.435473   51.424244  -93.854685   26.614555    0.000000    0.000000    0.000000    0.000000
  0.026200000  -37.367702   52.278042  -94.970001   26.045862    0.000000    0.000000    0.000000    0.000000
  0.026400000  -37.365693   51.686775  -94.407502   19.844704    0.000000    0.000000    0.000000    0.000000
  0.026600000  -37.301943   51.482124  -95.623005   19.526691    0.000000    0.000000    0.000000    0.000000
  0.026800000  -37.253751   52.000877  -94.247843   21.632200    0.000000    0.000000    0.000000    0.000000
  0.027000000  -37.147415   51.820572  -95.063895   24.410267    0.000000    0.000000    0.000000    0.000000
  0.027200000  -37.212978   52.115360  -95.664152   22.562243    0.000000    0.000000    0.000000    0.000000
  0.027400000  -37.143927   52.025295  -94.557444   17.508810    0.000000    0.000000    0.000000    0.000000
  0.027600000  -37.147803   51.871235  -95.648864   21.770884    0.000000    0.000000    0.000000    0.000000
  0.027800000  -37.057258   51.984661  -95.918780   21.865055    0.000000    0.000000    0.000000    0.000000
  0.028000000  -36.984976   51.957157  -96.257244   16.235847    0.000000    0.000000    0.000000    0.000000
  0.028200000  -36.914534   52.458282  -95.254745   20.912199    0.000000    0.000000    0.000000    0.000000
  0.028400000  -36.916879   52.109898  -95.577578   14.040136    0.000000    0.000000    0.000000    0.000000
  0.028600000  -36.857300   51.968719  -95.617224   19.655521    0.000000    0.000000    0.000000    0.000000
  0.028800000  -36.841292   51.741325  -96.958356   14.352075    0.000000    0.000000    0.000000    0.000000
  0.029000000  -36.839055   51.710411  -95.647938   20.523100    0.000000    0.000000    0.000000    0.000000
  0.029200000  -36.809453   51.811344  -96.635813   13.232925    0.000000    0.000000    0.000000    0.000000
  0.029400000  -36.730846   51.861179  -95.777779   14.925061    0.000000    0.000000    0.000000    0.000000
  0.029600000  -36.771303   51.195965  -96.471262   11.273293    0.000000    0.000000    0.000000    0.000000
  0.029800000  -36.712519   50.582314  -96.372842   19.933289    0.000000    0.000000    0.000000    0.000000
  0.030000000  -36.633669   50.956398  -97.478332   20.283792    0.000000    0.000000    0.000000    0.000000
  0.030200000  -36.644525   50.786682  -97.582721   11.837709    0.000000    0.000000    0.000000    0.000000
  0.030400000  -36.558178   51.295521  -97.244409   23.596029    0.000000    0.000000    0.000000    0.000000
  0.030600000  -36.556578   50.803574  -96.266165   13.951513    0.000000    0.000000    0.000000    0.000000
  0.030800000  -36.521818   50.646534  -96.276362    9.617890    0.000000    0.000000    0.000000    0.000000
  0.031000000  -36.545173   49.992962  -97.212136   20.481281    0.000000    0.000000    0.000000    0.000000
  0.031200000  -36.382964   50.457024  -97.222527   19.499638    0.000000    0.000000    0.000000    0.000000
  0.031400000  -36.394218   49.984856  -96.344081    4.943575    0.000000    0.000000    0.000000    0.000000
  0.031600000  -36.442707   49.885422  -97.959982   11.969757    0.000000    0.000000    0.000000    0.000000
  0.031800000  -36.313029   50.286964  -95.298910   10.410638    0.000000    0.000000    0.000000    0.000000
  0.032000000  -36.254248   49.582790  -97.612841   22.860245    0.000000    0.000000    0.000000    0.000000
  0.032200000  -36.241104   49.232929  -98.646521   16.520275    0.000000    0.000000    0.000000    0.000000
  0.032400000  -36.221762   49.031567  -98.423667    3.582562    0.000000    0.000000    0.000000    0.000000
  0.032600000  -36.154260   50.059189  -98.653595   19.756292    0.000000    0.000000    0.000000    0.000000
  0.032800000  -36.126024   49.598785  -97.174958    9.879648    0.000000    0.000000    0.000000    0.000000
  0.033000000  -36.026825   48.915733  -97.051200   11.659619    0.000000    0.000000    0.000000    0.000000
  0.033200000  -36.058354   48.897751  -98.117250   25.292608    0.000000    0.000000    0.000000    0.000000
  0.033400000  -35.954705   49.057156  -98.110249   12.882249    0.000000    0.000000    0.000000    0.000000
  0.033600000  -35.928547   48.556313  -96.719709   12.102218    0.000000    0.000000    0.000000    0.000000
  0.033800000  -35.920445   47.931927  -98.048214   15.416485    0.000000    0.000000    0.000000    0.000000
  0.034000000  -35.866746   48.488949  -96.339503   17.917482    0.000000    0.000000    0.000000    0.000000
  0.034200000  -35.832594   48.594570  -98.778600   -3.332153    0.000000    0.000000    0.000000    0.000000
  0.034400000  -35.688402   48.262077  -97.632152   15.266297    0.000000    0.000000    0.000000    0.000000
  0.034600000  -35.611065   48.447613  -97.919335   10.366511    0.000000    0.000000    0.000000    0.000000
  0.034800000  -35.601633   47.763588  -99.618523   13.525176    0.000000    0.000000    0.000000    0.000000
  0.035000000  -35.654212   48.106548  -98.554345    8.511864    0.000000    0.000000    0.000000    0.000000
  0.035200000  -35.495719   47.781269  -97.759681   15.003950    0.000000    0.000000    0.000000    0.000000
  0.035400000  -35.536161   48.334957  -98.621139   13.288553    0.000000    0.000000    0.000000    0.000000
  0.035600000  -35.429799   47.798092  -99.443547    2.543767    0.000000    0.000000    0.000000    0.000000
  0.035800000  -35.377679   48.711094 -101.092076    3.616353    0.000000    0.000000    0.000000    0.000000
  0.036000000  -35.272095   48.901081  -98.795782    9.556490    0.000000    0.000000    0.000000    0.000000
  0.036200000  -35.330757   48.701984  -99.561930   13.502069    0.000000    0.000000    0.000000    0.000000
  0.036400000  -35.218612   48.742928  -99.804257   19.426334    0.000000    0.000000    0.000000    0.000000
  0.036600000  -35.247877   48.677353 -100.518978   15.099221    0.000000    0.000000    0.000000    0.000000
  0.036800000  -35.208170   48.646523 -101.358767    0.995725    0.000000    0.000000    0.000000    0.000000
  0.037000000  -35.171925   48.363811  -99.306755   15.792830    0.000000    0.000000    0.000000    0.000000
  0.037200000  -35.162579   48.307873 -100.888212   14.958895    0.000000    0.000000    0.000000    0.000000
  0.037400000  -35.150670   48.522327  -97.096023    5.708471    0.000000    0.000000    0.000000    0.000000
  0.037600000  -35.140268   48.108295 -100.811443    7.746153    0.000000    0.000000    0.000000    0.000000
  0.037800000  -35.119336   48.795696  -99.055686    1.390013    0.000000    0.000000    0.000000    0.000000
  0.038000000  -35.233527   48.894562  -99.212340    3.642157    0.000000    0.000000    0.000000    0.000000
  0.038200000  -35.204317   48.649113 -101.256190    4.773343    0.000000    0.000000    0.000000    0.000000
  0.038400000  -35.159764   48.867390  -98.272114   -1.461446    0.000000    0.000000    0.000000    0.000000
  0.038600000  -35.120631   48.494411  -97.980669   13.443213    0.000000    0.000000    0.000000    0.000000
  0.038800000  -35.255540   48.153149  -99.970756    9.125189    0.000000    0.000000    0.000000    0.000000
  0.039000000  -35.239666   47.950844  -97.716395   21.687056    0.000000    0.000000    0.000000    0.000000
  0.039200000  -35.084983   47.664001  -99.996649   -0.484983    0.000000    0.000000    0.000000    0.000000
  0.039400000  -35.233711   47.948822  -97.991149   16.341278    0.000000    0.000000    0.000000    0.000000
  0.039600000  -35.129332   47.920513 -100.066147   11.008446    0.000000    0.000000    0.000000    0.000000
  0.039800000  -35.141094   47.386211  -99.862613   -0.140251    0.000000    0.000000    0.000000    0.000000
  0.040000000  -35.227661   47.437984  -99.751900   15.051112    0.000000    0.000000    0.000000    0.000000
  0.040200000  -35.086926   47.585350 -100.342129    8.294237    0.000000    0.000000    0.000000    0.000000
  0.040400000  -35.113759   46.850441  -98.946192   12.828510    0.000000    0.000000    0.000000    0.000000
  0.040600000  -35.154478   46.359623 -100.732322    5.694429    0.000000    0.000000    0.000000    0.000000
  0.040800000  -35.194573   46.220024 -102.520843   16.592522    0.000000    0.000000    0.000000    0.000000
  0.041000000  -35.059638   45.274132 -103.292603   -7.012526    0.000000    0.000000    0.000000    0.000000
  0.041200000  -35.106313   44.703400 -101.038203   -5.647872    0.000000    0.000000    0.000000    0.000000
  0.041400000  -35.082087   45.064167 -100.098773   12.671228    0.000000    0.000000    0.000000    0.000000
  0.041600000  -35.034610   43.894672 -102.204820   15.019417    0.000000    0.000000    0.000000    0.000000
  0.041800000  -34.951921   43.466393  -99.883255   -1.530319    0.000000    0.000000    0.000000    0.000000
  0.042000000  -34.864354   43.913212 -101.822636   14.702383    0.000000    0.000000    0.000000    0.000000
  0.042200000  -34.748182   43.230724 -103.701953    3.757564    0.000000    0.000000    0.000000    0.000000
  0.042400000  -34.684626   43.052383 -101.421113   -2.044763    0.000000    0.000000    0.000000    0.000000
  0.042600000  -34.661684   42.701420 -101.200648   13.449923    0.000000    0.000000    0.000000    0.000000
  0.042800000  -34.563087   42.079788 -103.815410    9.520299    0.000000    0.000000    0.000000    0.000000
