! Anritsu VNA Master:                     Model: MS2036C/10/77
! SN:                                  1601066
! /card0/usr/256.ns.n.r20.11.s2p
! Existing Calibration Information:
! TYPE:                         Current Settings,       Active Cal Settings
! TIME:             	   12/19/2017 04:01:24 PM,    12/19/2017 03:58:02 PM
! INTERNAL TEMP:    	                   47.0 C,                    47.0 C
! # POINTS:         	                      501,                       501
! START FREQ:       	               10.000 MHz,                10.000 MHz
! STOP FREQ:        	              110.000 MHz,               110.000 MHz
! SOURCE POWER:     	                     High,                      High
! IFBW:             	                   100 Hz,                    100 Hz
! AVG FACTOR:       	                       1 ,                        1 
! REF PLANE 1:      	                     0 mm,                      0 mm
! REF PLANE 2:      	                     0 mm,                      0 mm
! CAL TYPE:         	                 Full S11,                  Full S11
! CAL METHOD:       	                     SOLT,                      SOLT
! CAL LINE TYPE:    	                     Coax,                      Coax
! DUT PORT 1:       	                N-Conn(F),                 N-Conn(F)
! DUT PORT 2:       	                K-Conn(F),                 K-Conn(F)
! CAL STATUS:       	        OK: Accuracy High,                        --
# GHZ S DB R 50.0
! FREQ.GHZ       S11DB        S11A       S21DB        S21A       S12DB        S12A       S22DB        S22A
  0.010000000   -7.217356  166.961533  -82.642461   78.628197    0.000000    0.000000    0.000000    0.000000
  0.010200000   -7.207625  166.790405  -82.462164   77.934540    0.000000    0.000000    0.000000    0.000000
  0.010400000   -7.205924  166.468262  -82.672492   73.049774    0.000000    0.000000    0.000000    0.000000
  0.010600000   -7.211375  166.285828  -82.823476   72.621452    0.000000    0.000000    0.000000    0.000000
  0.010800000   -7.211947  166.025406  -83.082421   71.596466    0.000000    0.000000    0.000000    0.000000
  0.011000000   -7.213981  165.753113  -83.622348   68.515862    0.000000    0.000000    0.000000    0.000000
  0.011200000   -7.220956  165.480896  -84.173851   64.352448    0.000000    0.000000    0.000000    0.000000
  0.011400000   -7.215995  165.226654  -84.286292   64.925140    0.000000    0.000000    0.000000    0.000000
  0.011600000   -7.219177  164.972549  -84.303919   63.276943    0.000000    0.000000    0.000000    0.000000
  0.011800000   -7.219497  164.753662  -84.538594   63.715801    0.000000    0.000000    0.000000    0.000000
  0.012000000   -7.223881  164.443924  -84.567863   62.931473    0.000000    0.000000    0.000000    0.000000
  0.012200000   -7.225972  164.176163  -85.463934   58.711727    0.000000    0.000000    0.000000    0.000000
  0.012400000   -7.229298  163.918991  -85.723302   61.055996    0.000000    0.000000    0.000000    0.000000
  0.012600000   -7.225365  163.653397  -85.997352   59.824863    0.000000    0.000000    0.000000    0.000000
  0.012800000   -7.229961  163.402069  -86.194118   61.240753    0.000000    0.000000    0.000000    0.000000
  0.013000000   -7.233569  163.146210  -86.574401   57.708099    0.000000    0.000000    0.000000    0.000000
  0.013200000   -7.238607  162.889923  -87.205926   60.788300    0.000000    0.000000    0.000000    0.000000
  0.013400000   -7.238719  162.637360  -86.716952   59.330616    0.000000    0.000000    0.000000    0.000000
  0.013600000   -7.235299  162.373306  -87.040930   55.982124    0.000000    0.000000    0.000000    0.000000
  0.013800000   -7.232226  162.136154  -87.336307   56.072483    0.000000    0.000000    0.000000    0.000000
  0.014000000   -7.234973  161.836929  -87.184282   54.104595    0.000000    0.000000    0.000000    0.000000
  0.014200000   -7.239334  161.597107  -87.412425   61.649609    0.000000    0.000000    0.000000    0.000000
  0.014400000   -7.239535  161.329803  -87.719112   54.836693    0.000000    0.000000    0.000000    0.000000
  0.014600000   -7.236254  161.097931  -88.385967   60.094307    0.000000    0.000000    0.000000    0.000000
  0.014800000   -7.237967  160.828384  -88.072186   54.028675    0.000000    0.000000    0.000000    0.000000
  0.015000000   -7.241592  160.565582  -88.301612   59.601433    0.000000    0.000000    0.000000    0.000000
  0.015200000   -7.242275  160.328003  -87.752478   52.724453    0.000000    0.000000    0.000000    0.000000
  0.015400000   -7.245298  160.040527  -88.021311   57.851479    0.000000    0.000000    0.000000    0.000000
  0.015600000   -7.243685  159.869705  -88.139223   53.565804    0.000000    0.000000    0.000000    0.000000
  0.015800000   -7.247771  159.529526  -87.995812   54.681355    0.000000    0.000000    0.000000    0.000000
  0.016000000   -7.245690  159.272476  -88.389148   52.806522    0.000000    0.000000    0.000000    0.000000
  0.016200000   -7.249829  159.020844  -88.076955   52.358131    0.000000    0.000000    0.000000    0.000000
  0.016400000   -7.249015  158.790878  -88.038209   48.450745    0.000000    0.000000    0.000000    0.000000
  0.016600000   -7.250016  158.528091  -88.480476   47.314140    0.000000    0.000000    0.000000    0.000000
  0.016800000   -7.248954  158.278717  -88.473351   48.118729    0.000000    0.000000    0.000000    0.000000
  0.017000000   -7.251885  158.026474  -88.074268   48.707211    0.000000    0.000000    0.000000    0.000000
  0.017200000   -7.249355  157.773041  -88.726028   46.525009    0.000000    0.000000    0.000000    0.000000
  0.017400000   -7.248839  157.531830  -88.578140   42.371593    0.000000    0.000000    0.000000    0.000000
  0.017600000   -7.253431  157.273376  -89.584179   42.944386    0.000000    0.000000    0.000000    0.000000
  0.017800000   -7.250673  156.977493  -89.522663   42.440792    0.000000    0.000000    0.000000    0.000000
  0.018000000   -7.254109  156.733887  -88.906439   40.281357    0.000000    0.000000    0.000000    0.000000
  0.018200000   -7.256868  156.482468  -89.404511   37.440922    0.000000    0.000000    0.000000    0.000000
  0.018400000   -7.258800  156.255814  -89.921227   39.957092    0.000000    0.000000    0.000000    0.000000
  0.018600000   -7.258792  155.999039  -89.500942   36.217804    0.000000    0.000000    0.000000    0.000000
  0.018800000   -7.257783  155.720215  -90.141275   36.814541    0.000000    0.000000    0.000000    0.000000
  0.019000000   -7.259130  155.482285  -90.639187   32.563480    0.000000    0.000000    0.000000    0.000000
  0.019200000   -7.258130  155.235260  -90.670483   38.464912    0.000000    0.000000    0.000000    0.000000
  0.019400000   -7.261695  155.002319  -90.494929   33.460091    0.000000    0.000000    0.000000    0.000000
  0.019600000   -7.264573  154.758759  -90.867451   36.205971    0.000000    0.000000    0.000000    0.000000
  0.019800000   -7.264664  154.493713  -90.401449   32.888767    0.000000    0.000000    0.000000    0.000000
  0.020000000   -7.264179  154.239746  -92.017069   35.976242    0.000000    0.000000    0.000000    0.000000
  0.020200000   -7.263290  153.985397  -92.763374   35.692192    0.000000    0.000000    0.000000    0.000000
  0.020400000   -7.262400  153.720230  -91.675779   38.794094    0.000000    0.000000    0.000000    0.000000
  0.020600000   -7.261009  153.471664  -91.567172   34.219730    0.000000    0.000000    0.000000    0.000000
  0.020800000   -7.257319  153.201126  -91.560589   36.121151    0.000000    0.000000    0.000000    0.000000
  0.021000000   -7.261453  152.964966  -92.867050   36.312672    0.000000    0.000000    0.000000    0.000000
  0.021200000   -7.257457  152.691635  -91.685781   37.092094    0.000000    0.000000    0.000000    0.000000
  0.021400000   -7.261553  152.442200  -92.368157   36.089554    0.000000    0.000000    0.000000    0.000000
  0.021600000   -7.260428  152.175751  -92.222539   35.601742    0.000000    0.000000    0.000000    0.000000
  0.021800000   -7.263075  151.942627  -91.700460   34.172852    0.000000    0.000000    0.000000    0.000000
  0.022000000   -7.267148  151.693436  -92.018603   32.350838    0.000000    0.000000    0.000000    0.000000
  0.022200000   -7.267895  151.456879  -91.967557   35.233353    0.000000    0.000000    0.000000    0.000000
  0.022400000   -7.269553  151.209656  -91.898078   29.161722    0.000000    0.000000    0.000000    0.000000
  0.022600000   -7.267479  150.972214  -92.263804   34.827999    0.000000    0.000000    0.000000    0.000000
  0.022800000   -7.269730  150.706696  -92.959723   35.908947    0.000000    0.000000    0.000000    0.000000
  0.023000000   -7.274202  150.478439  -93.511298   33.932190    0.000000    0.000000    0.000000    0.000000
  0.023200000   -7.275198  150.190384  -93.532542   32.379402    0.000000    0.000000    0.000000    0.000000
  0.023400000   -7.277004  149.980347  -93.074464   35.189407    0.000000    0.000000    0.000000    0.000000
  0.023600000   -7.275786  149.694031  -92.022348   29.931211    0.000000    0.000000    0.000000    0.000000
  0.023800000   -7.273005  149.438568  -93.607453   21.811678    0.000000    0.000000    0.000000    0.000000
  0.024000000   -7.273515  149.169632  -92.554705   26.727392    0.000000    0.000000    0.000000    0.000000
  0.024200000   -7.271145  148.903824  -93.311151   24.926069    0.000000    0.000000    0.000000    0.000000
  0.024400000   -7.272887  148.633560  -94.129011   23.400301    0.000000    0.000000    0.000000    0.000000
  0.024600000   -7.270882  148.346100  -92.634311   25.009689    0.000000    0.000000    0.000000    0.000000
  0.024800000   -7.273823  148.063904  -94.550295   28.120375    0.000000    0.000000    0.000000    0.000000
  0.025000000   -7.274204  147.839127  -94.745418   21.892252    0.000000    0.000000    0.000000    0.000000
  0.025200000   -7.269415  147.596100  -93.054175   25.057507    0.000000    0.000000    0.000000    0.000000
  0.025400000   -7.270756  147.345932  -94.111403   17.721590    0.000000    0.000000    0.000000    0.000000
  0.025600000   -7.272342  147.131317  -95.774786   25.982384    0.000000    0.000000    0.000000    0.000000
  0.025800000   -7.275355  146.868073  -94.716852   19.992439    0.000000    0.000000    0.000000    0.000000
  0.026000000   -7.277548  146.641357  -94.463701   24.542025    0.000000    0.000000    0.000000    0.000000
  0.026200000   -7.279527  146.418533  -93.225140   20.324760    0.000000    0.000000    0.000000    0.000000
  0.026400000   -7.280257  146.156540  -95.717923   19.015110    0.000000    0.000000    0.000000    0.000000
  0.026600000   -7.284900  145.887573  -95.617057   21.618563    0.000000    0.000000    0.000000    0.000000
  0.026800000   -7.287047  145.634842  -95.486811   16.635824    0.000000    0.000000    0.000000    0.000000
  0.027000000   -7.288503  145.366974  -96.214079   16.944378    0.000000    0.000000    0.000000    0.000000
  0.027200000   -7.285379  145.069092  -95.265875   24.086872    0.000000    0.000000    0.000000    0.000000
  0.027400000   -7.281786  144.797516  -95.574683   22.507555    0.000000    0.000000    0.000000    0.000000
  0.027600000   -7.278600  144.515060  -95.605573   26.888258    0.000000    0.000000    0.000000    0.000000
  0.027800000   -7.273610  144.258316  -95.774386   14.618929    0.000000    0.000000    0.000000    0.000000
  0.028000000   -7.273391  143.980316  -96.675533   21.143524    0.000000    0.000000    0.000000    0.000000
  0.028200000   -7.271847  143.707947  -95.558211   21.030659    0.000000    0.000000    0.000000    0.000000
  0.028400000   -7.270970  143.468002  -95.585209   20.910231    0.000000    0.000000    0.000000    0.000000
  0.028600000   -7.265376  143.229813  -95.382797   22.313883    0.000000    0.000000    0.000000    0.000000
  0.028800000   -7.264163  143.039948  -95.992531   18.285330    0.000000    0.000000    0.000000    0.000000
  0.029000000   -7.259524  142.813049  -96.504017   18.708906    0.000000    0.000000    0.000000    0.000000
  0.029200000   -7.259742  142.629257  -95.845904   18.576403    0.000000    0.000000    0.000000    0.000000
  0.029400000   -7.255343  142.412903  -97.306009   20.269981    0.000000    0.000000    0.000000    0.000000
  0.029600000   -7.257931  142.211563  -97.182349   18.467840    0.000000    0.000000    0.000000    0.000000
  0.029800000   -7.260080  141.993546  -96.614525   21.325605    0.000000    0.000000    0.000000    0.000000
  0.030000000   -7.263215  141.734116  -96.485206   20.163498    0.000000    0.000000    0.000000    0.000000
  0.030200000   -7.263661  141.509323  -96.889602   17.513676    0.000000    0.000000    0.000000    0.000000
  0.030400000   -7.268042  141.243134  -95.823612   14.885358    0.000000    0.000000    0.000000    0.000000
  0.030600000   -7.269661  140.974625  -96.257384   12.464953    0.000000    0.000000    0.000000    0.000000
  0.030800000   -7.271202  140.710709  -97.053344   11.056687    0.000000    0.000000    0.000000    0.000000
  0.031000000   -7.276117  140.463898  -96.483467   15.939485    0.000000    0.000000    0.000000    0.000000
  0.031200000   -7.266410  140.249710  -96.953402   13.976925    0.000000    0.000000    0.000000    0.000000
  0.031400000   -7.269907  139.966446  -97.281517    8.866163    0.000000    0.000000    0.000000    0.000000
  0.031600000   -7.274703  139.696564  -96.236564   17.411768    0.000000    0.000000    0.000000    0.000000
  0.031800000   -7.276288  139.435074  -97.026617   11.257749    0.000000    0.000000    0.000000    0.000000
  0.032000000   -7.275640  139.177673  -97.014036   10.915883    0.000000    0.000000    0.000000    0.000000
  0.032200000   -7.270955  138.911438  -96.148543   12.727007    0.000000    0.000000    0.000000    0.000000
  0.032400000   -7.271846  138.649231  -97.784341   -3.817901    0.000000    0.000000    0.000000    0.000000
  0.032600000   -7.264002  138.380829  -97.769725   -0.195188    0.000000    0.000000    0.000000    0.000000
  0.032800000   -7.256800  138.136795  -99.356803   17.245365    0.000000    0.000000    0.000000    0.000000
  0.033000000   -7.258232  137.884232  -97.833949    6.795241    0.000000    0.000000    0.000000    0.000000
  0.033200000   -7.260448  137.671616  -97.310887    8.783648    0.000000    0.000000    0.000000    0.000000
  0.033400000   -7.256285  137.462173  -97.443438   14.198643    0.000000    0.000000    0.000000    0.000000
  0.033600000   -7.257007  137.255936  -98.312003   11.531889    0.000000    0.000000    0.000000    0.000000
  0.033800000   -7.264129  137.011429  -99.192533    4.138290    0.000000    0.000000    0.000000    0.000000
  0.034000000   -7.264279  136.756714  -99.483770    5.476957    0.000000    0.000000    0.000000    0.000000
  0.034200000   -7.269623  136.490097 -100.033893   19.773245    0.000000    0.000000    0.000000    0.000000
  0.034400000   -7.271995  136.175888  -99.017663   -8.630504    0.000000    0.000000    0.000000    0.000000
  0.034600000   -7.273437  135.922211  -99.780683    5.767351    0.000000    0.000000    0.000000    0.000000
  0.034800000   -7.280350  135.624069  -99.065256   10.387247    0.000000    0.000000    0.000000    0.000000
  0.035000000   -7.279622  135.352386  -96.632211   13.447710    0.000000    0.000000    0.000000    0.000000
  0.035200000   -7.278801  135.059662  -97.766579    9.513469    0.000000    0.000000    0.000000    0.000000
  0.035400000   -7.279115  134.813232  -98.777838   -6.113758    0.000000    0.000000    0.000000    0.000000
  0.035600000   -7.277858  134.539246  -97.137931   11.467577    0.000000    0.000000    0.000000    0.000000
  0.035800000   -7.266866  134.235458  -98.227866   10.330241    0.000000    0.000000    0.000000    0.000000
  0.036000000   -7.258636  133.974243  -98.020107   13.715348    0.000000    0.000000    0.000000    0.000000
  0.036200000   -7.250404  133.764847  -99.492504   14.893960    0.000000    0.000000    0.000000    0.000000
  0.036400000   -7.245246  133.500809  -99.516236   24.080656    0.000000    0.000000    0.000000    0.000000
  0.036600000   -7.240314  133.288895  -99.685592    6.369599    0.000000    0.000000    0.000000    0.000000
  0.036800000   -7.236707  133.082306  -97.514429   12.943773    0.000000    0.000000    0.000000    0.000000
  0.037000000   -7.234075  132.875900  -99.254720    5.541535    0.000000    0.000000    0.000000    0.000000
  0.037200000   -7.236844  132.657791  -99.052816   -3.411747    0.000000    0.000000    0.000000    0.000000
  0.037400000   -7.239629  132.435394  -99.611073   13.801580    0.000000    0.000000    0.000000    0.000000
  0.037600000   -7.240970  132.217133  -97.628990    4.209425    0.000000    0.000000    0.000000    0.000000
  0.037800000   -7.243445  131.993301  -98.349475    3.994890    0.000000    0.000000    0.000000    0.000000
  0.038000000   -7.244882  131.757813 -104.480903    4.828102    0.000000    0.000000    0.000000    0.000000
  0.038200000   -7.250374  131.477173 -100.239850    4.829714    0.000000    0.000000    0.000000    0.000000
  0.038400000   -7.256634  131.223755  -99.471051   -9.882514    0.000000    0.000000    0.000000    0.000000
  0.038600000   -7.261164  130.945969 -100.419142   -6.677151    0.000000    0.000000    0.000000    0.000000
  0.038800000   -7.261494  130.727341  -99.847107    7.866848    0.000000    0.000000    0.000000    0.000000
  0.039000000   -7.262807  130.477951  -98.828331    0.446733    0.000000    0.000000    0.000000    0.000000
  0.039200000   -7.261635  130.181274 -101.876218    8.765739    0.000000    0.000000    0.000000    0.000000
  0.039400000   -7.261806  129.940231  -98.991055    2.875769    0.000000    0.000000    0.000000    0.000000
  0.039600000   -7.258667  129.698410  -99.754527   12.263818    0.000000    0.000000    0.000000    0.000000
  0.039800000   -7.257133  129.409164  -99.384254   -7.216536    0.000000    0.000000    0.000000    0.000000
  0.040000000   -7.250445  129.171707 -102.312765   13.926268    0.000000    0.000000    0.000000    0.000000
  0.040200000   -7.245278  128.880920  -99.988442   25.607990    0.000000    0.000000    0.000000    0.000000
  0.040400000   -7.239479  128.653442 -100.581979    1.792417    0.000000    0.000000    0.000000    0.000000
  0.040600000   -7.241504  128.447083 -100.529836    4.140562    0.000000    0.000000    0.000000    0.000000
  0.040800000   -7.238525  128.257492 -101.418286   18.299295    0.000000    0.000000    0.000000    0.000000
  0.041000000   -7.244524  128.025803 -101.154004    0.345941    0.000000    0.000000    0.000000    0.000000
  0.041200000   -7.250320  127.826210 -100.664482    8.366973    0.000000    0.000000    0.000000    0.000000
  0.041400000   -7.256807  127.577362 -100.368350   19.915478    0.000000    0.000000    0.000000    0.000000
  0.041600000   -7.260213  127.304138  -98.986564    8.593238    0.000000    0.000000    0.000000    0.000000
  0.041800000   -7.269918  127.066368 -100.880151   15.450813    0.000000    0.000000    0.000000    0.000000
  0.042000000   -7.268856  126.805519  -99.637487    0.704926    0.000000    0.000000    0.000000    0.000000
  0.042200000   -7.274612  126.530029 -101.162823   -7.378702    0.000000    0.000000    0.000000    0.000000
  0.042400000   -7.277882  126.235558  -99.951064   11.724205    0.000000    0.000000    0.000000    0.000000
  0.042600000   -7.274184  125.967201 -101.257299    1.584761    0.000000    0.000000    0.000000    0.000000
  0.042800000   -7.276889  125.687103  -98.252367   -2.625613    0.000000    0.000000    0.000000    0.000000
