! Anritsu VNA Master:                     Model: MS2036C/10/77
! SN:                                  1601066
! /card0/usr/256.ew.sma.r20.12.s2p
! Existing Calibration Information:
! TYPE:                         Current Settings,       Active Cal Settings
! TIME:             	   12/19/2017 02:32:55 PM,    12/19/2017 02:22:10 PM
! INTERNAL TEMP:    	                   46.0 C,                    45.0 C
! # POINTS:         	                      501,                       501
! START FREQ:       	               10.000 MHz,                10.000 MHz
! STOP FREQ:        	              110.000 MHz,               110.000 MHz
! SOURCE POWER:     	                     High,                      High
! IFBW:             	                   100 Hz,                    100 Hz
! AVG FACTOR:       	                       1 ,                        1 
! REF PLANE 1:      	                     0 mm,                      0 mm
! REF PLANE 2:      	                     0 mm,                      0 mm
! CAL TYPE:         	                 Full S11,                  Full S11
! CAL METHOD:       	                     SOLT,                      SOLT
! CAL LINE TYPE:    	                     Coax,                      Coax
! DUT PORT 1:       	                N-Conn(F),                 N-Conn(F)
! DUT PORT 2:       	                K-Conn(F),                 K-Conn(F)
! CAL STATUS:       	        OK: Accuracy High,                        --
# GHZ S RI R 50.0
! FREQ.GHZ      S11RE         S11IM         S21RE         S21IM         S12RE         S12IM         S22RE         S22IM
  0.010000000 -4.259050E-01  9.196270E-02  1.475390E-05  6.878320E-05  1.000000E+00  0.000000E+00  1.000000E+00  0.000000E+00
  0.010200000 -4.261150E-01  9.355580E-02  1.738000E-05  7.283300E-05  1.000000E+00  0.000000E+00  1.000000E+00  0.000000E+00
  0.010400000 -4.256530E-01  9.542260E-02  1.565110E-05  7.095720E-05  1.000000E+00  0.000000E+00  1.000000E+00  0.000000E+00
  0.010600000 -4.253150E-01  9.702050E-02  2.177520E-05  6.718470E-05  1.000000E+00  0.000000E+00  1.000000E+00  0.000000E+00
  0.010800000 -4.247770E-01  9.864350E-02  2.156220E-05  6.612740E-05  1.000000E+00  0.000000E+00  1.000000E+00  0.000000E+00
  0.011000000 -4.241530E-01  1.005910E-01  2.628350E-05  6.218910E-05  1.000000E+00  0.000000E+00  1.000000E+00  0.000000E+00
  0.011200000 -4.242390E-01  1.023140E-01  2.586070E-05  5.953310E-05  1.000000E+00  0.000000E+00  1.000000E+00  0.000000E+00
  0.011400000 -4.234020E-01  1.041940E-01  2.340580E-05  5.872110E-05  1.000000E+00  0.000000E+00  1.000000E+00  0.000000E+00
  0.011600000 -4.226170E-01  1.053880E-01  2.923750E-05  5.205440E-05  1.000000E+00  0.000000E+00  1.000000E+00  0.000000E+00
  0.011800000 -4.225200E-01  1.071740E-01  2.631730E-05  5.158220E-05  1.000000E+00  0.000000E+00  1.000000E+00  0.000000E+00
  0.012000000 -4.218400E-01  1.091410E-01  2.558320E-05  4.901450E-05  1.000000E+00  0.000000E+00  1.000000E+00  0.000000E+00
  0.012200000 -4.210410E-01  1.109620E-01  2.759830E-05  4.569580E-05  1.000000E+00  0.000000E+00  1.000000E+00  0.000000E+00
  0.012400000 -4.207250E-01  1.127050E-01  2.624570E-05  4.466200E-05  1.000000E+00  0.000000E+00  1.000000E+00  0.000000E+00
  0.012600000 -4.199310E-01  1.146060E-01  2.653640E-05  3.992800E-05  1.000000E+00  0.000000E+00  1.000000E+00  0.000000E+00
  0.012800000 -4.192650E-01  1.161350E-01  2.705430E-05  3.855120E-05  1.000000E+00  0.000000E+00  1.000000E+00  0.000000E+00
  0.013000000 -4.186690E-01  1.178860E-01  2.652850E-05  3.913190E-05  1.000000E+00  0.000000E+00  1.000000E+00  0.000000E+00
  0.013200000 -4.181300E-01  1.196210E-01  2.404550E-05  3.806920E-05  1.000000E+00  0.000000E+00  1.000000E+00  0.000000E+00
  0.013400000 -4.175100E-01  1.212730E-01  2.312020E-05  3.710460E-05  1.000000E+00  0.000000E+00  1.000000E+00  0.000000E+00
  0.013600000 -4.172480E-01  1.232220E-01  2.446750E-05  3.873750E-05  1.000000E+00  0.000000E+00  1.000000E+00  0.000000E+00
  0.013800000 -4.166780E-01  1.250290E-01  2.188890E-05  3.821330E-05  1.000000E+00  0.000000E+00  1.000000E+00  0.000000E+00
  0.014000000 -4.159670E-01  1.267410E-01  2.249980E-05  3.580340E-05  1.000000E+00  0.000000E+00  1.000000E+00  0.000000E+00
  0.014200000 -4.153310E-01  1.284540E-01  2.246020E-05  3.686930E-05  1.000000E+00  0.000000E+00  1.000000E+00  0.000000E+00
  0.014400000 -4.147500E-01  1.303180E-01  2.231890E-05  3.288930E-05  1.000000E+00  0.000000E+00  1.000000E+00  0.000000E+00
  0.014600000 -4.141910E-01  1.320700E-01  2.073440E-05  3.559120E-05  1.000000E+00  0.000000E+00  1.000000E+00  0.000000E+00
  0.014800000 -4.133870E-01  1.337410E-01  2.087560E-05  3.453350E-05  1.000000E+00  0.000000E+00  1.000000E+00  0.000000E+00
  0.015000000 -4.126570E-01  1.354890E-01  2.215930E-05  3.168230E-05  1.000000E+00  0.000000E+00  1.000000E+00  0.000000E+00
  0.015200000 -4.119370E-01  1.374200E-01  2.250610E-05  3.361390E-05  1.000000E+00  0.000000E+00  1.000000E+00  0.000000E+00
  0.015400000 -4.113060E-01  1.391580E-01  2.287360E-05  3.154860E-05  1.000000E+00  0.000000E+00  1.000000E+00  0.000000E+00
  0.015600000 -4.106200E-01  1.415630E-01  2.313910E-05  3.289510E-05  1.000000E+00  0.000000E+00  1.000000E+00  0.000000E+00
  0.015800000 -4.101820E-01  1.424870E-01  2.420500E-05  3.414790E-05  1.000000E+00  0.000000E+00  1.000000E+00  0.000000E+00
  0.016000000 -4.095860E-01  1.444150E-01  2.358020E-05  2.893920E-05  1.000000E+00  0.000000E+00  1.000000E+00  0.000000E+00
  0.016200000 -4.088870E-01  1.460610E-01  2.535800E-05  2.990620E-05  1.000000E+00  0.000000E+00  1.000000E+00  0.000000E+00
  0.016400000 -4.083960E-01  1.476940E-01  2.545110E-05  2.827480E-05  1.000000E+00  0.000000E+00  1.000000E+00  0.000000E+00
  0.016600000 -4.077450E-01  1.492980E-01  2.625670E-05  2.731030E-05  1.000000E+00  0.000000E+00  1.000000E+00  0.000000E+00
  0.016800000 -4.073630E-01  1.511700E-01  2.563100E-05  2.935620E-05  1.000000E+00  0.000000E+00  1.000000E+00  0.000000E+00
  0.017000000 -4.065190E-01  1.528670E-01  2.353430E-05  2.856540E-05  1.000000E+00  0.000000E+00  1.000000E+00  0.000000E+00
  0.017200000 -4.058290E-01  1.544380E-01  2.514920E-05  2.298410E-05  1.000000E+00  0.000000E+00  1.000000E+00  0.000000E+00
  0.017400000 -4.053830E-01  1.560380E-01  2.776500E-05  2.612100E-05  1.000000E+00  0.000000E+00  1.000000E+00  0.000000E+00
  0.017600000 -4.045440E-01  1.578750E-01  2.608150E-05  2.447800E-05  1.000000E+00  0.000000E+00  1.000000E+00  0.000000E+00
  0.017800000 -4.037460E-01  1.593710E-01  2.552880E-05  2.046210E-05  1.000000E+00  0.000000E+00  1.000000E+00  0.000000E+00
  0.018000000 -4.031580E-01  1.611950E-01  2.499700E-05  2.218670E-05  1.000000E+00  0.000000E+00  1.000000E+00  0.000000E+00
  0.018200000 -4.023850E-01  1.627530E-01  2.712300E-05  2.054970E-05  1.000000E+00  0.000000E+00  1.000000E+00  0.000000E+00
  0.018400000 -4.016470E-01  1.643400E-01  2.270550E-05  1.967400E-05  1.000000E+00  0.000000E+00  1.000000E+00  0.000000E+00
  0.018600000 -4.007710E-01  1.658730E-01  2.365240E-05  1.907440E-05  1.000000E+00  0.000000E+00  1.000000E+00  0.000000E+00
  0.018800000 -4.001250E-01  1.675870E-01  2.693970E-05  1.843300E-05  1.000000E+00  0.000000E+00  1.000000E+00  0.000000E+00
  0.019000000 -3.992870E-01  1.691820E-01  2.458930E-05  2.033200E-05  1.000000E+00  0.000000E+00  1.000000E+00  0.000000E+00
  0.019200000 -3.985330E-01  1.706400E-01  2.156810E-05  1.549090E-05  1.000000E+00  0.000000E+00  1.000000E+00  0.000000E+00
  0.019400000 -3.978060E-01  1.723030E-01  2.131070E-05  1.633950E-05  1.000000E+00  0.000000E+00  1.000000E+00  0.000000E+00
  0.019600000 -3.969810E-01  1.738860E-01  2.318520E-05  1.549850E-05  1.000000E+00  0.000000E+00  1.000000E+00  0.000000E+00
  0.019800000 -3.961900E-01  1.754620E-01  2.295520E-05  1.610720E-05  1.000000E+00  0.000000E+00  1.000000E+00  0.000000E+00
  0.020000000 -3.954410E-01  1.770930E-01  2.199950E-05  1.375480E-05  1.000000E+00  0.000000E+00  1.000000E+00  0.000000E+00
  0.020200000 -3.946770E-01  1.788600E-01  2.015510E-05  1.479510E-05  1.000000E+00  0.000000E+00  1.000000E+00  0.000000E+00
  0.020400000 -3.938750E-01  1.807160E-01  2.110290E-05  1.467590E-05  1.000000E+00  0.000000E+00  1.000000E+00  0.000000E+00
  0.020600000 -3.933680E-01  1.823750E-01  1.957700E-05  1.513430E-05  1.000000E+00  0.000000E+00  1.000000E+00  0.000000E+00
  0.020800000 -3.926320E-01  1.840140E-01  2.019370E-05  1.563600E-05  1.000000E+00  0.000000E+00  1.000000E+00  0.000000E+00
  0.021000000 -3.918040E-01  1.856680E-01  2.206320E-05  1.422440E-05  1.000000E+00  0.000000E+00  1.000000E+00  0.000000E+00
  0.021200000 -3.910400E-01  1.874330E-01  1.694020E-05  1.488940E-05  1.000000E+00  0.000000E+00  1.000000E+00  0.000000E+00
  0.021400000 -3.901690E-01  1.890950E-01  2.246980E-05  1.385290E-05  1.000000E+00  0.000000E+00  1.000000E+00  0.000000E+00
  0.021600000 -3.893010E-01  1.907060E-01  1.989160E-05  1.301020E-05  1.000000E+00  0.000000E+00  1.000000E+00  0.000000E+00
  0.021800000 -3.885280E-01  1.921810E-01  1.901810E-05  1.356380E-05  1.000000E+00  0.000000E+00  1.000000E+00  0.000000E+00
  0.022000000 -3.875300E-01  1.937040E-01  1.882060E-05  1.046300E-05  1.000000E+00  0.000000E+00  1.000000E+00  0.000000E+00
  0.022200000 -3.867240E-01  1.954220E-01  1.893720E-05  1.109020E-05  1.000000E+00  0.000000E+00  1.000000E+00  0.000000E+00
  0.022400000 -3.859790E-01  1.970660E-01  1.749160E-05  1.599000E-05  1.000000E+00  0.000000E+00  1.000000E+00  0.000000E+00
  0.022600000 -3.851560E-01  1.982820E-01  2.197590E-05  1.359130E-05  1.000000E+00  0.000000E+00  1.000000E+00  0.000000E+00
  0.022800000 -3.843040E-01  2.000620E-01  2.014300E-05  1.141440E-05  1.000000E+00  0.000000E+00  1.000000E+00  0.000000E+00
  0.023000000 -3.834130E-01  2.014750E-01  2.024940E-05  1.339830E-05  1.000000E+00  0.000000E+00  1.000000E+00  0.000000E+00
  0.023200000 -3.825270E-01  2.031780E-01  2.252240E-05  1.125300E-05  1.000000E+00  0.000000E+00  1.000000E+00  0.000000E+00
  0.023400000 -3.817380E-01  2.052090E-01  1.918360E-05  1.003510E-05  1.000000E+00  0.000000E+00  1.000000E+00  0.000000E+00
  0.023600000 -3.807570E-01  2.066040E-01  1.999840E-05  1.065700E-05  1.000000E+00  0.000000E+00  1.000000E+00  0.000000E+00
  0.023800000 -3.801090E-01  2.082170E-01  1.894120E-05  1.147710E-05  1.000000E+00  0.000000E+00  1.000000E+00  0.000000E+00
  0.024000000 -3.792110E-01  2.097940E-01  1.974910E-05  8.598250E-06  1.000000E+00  0.000000E+00  1.000000E+00  0.000000E+00
  0.024200000 -3.783940E-01  2.113380E-01  1.982210E-05  9.557360E-06  1.000000E+00  0.000000E+00  1.000000E+00  0.000000E+00
  0.024400000 -3.773810E-01  2.132230E-01  2.053260E-05  6.256300E-06  1.000000E+00  0.000000E+00  1.000000E+00  0.000000E+00
  0.024600000 -3.765200E-01  2.149370E-01  2.013160E-05  8.282260E-06  1.000000E+00  0.000000E+00  1.000000E+00  0.000000E+00
  0.024800000 -3.755230E-01  2.164950E-01  2.048000E-05  8.321490E-06  1.000000E+00  0.000000E+00  1.000000E+00  0.000000E+00
  0.025000000 -3.747610E-01  2.180470E-01  1.792780E-05  8.420350E-06  1.000000E+00  0.000000E+00  1.000000E+00  0.000000E+00
  0.025200000 -3.741580E-01  2.195630E-01  1.860320E-05  7.751660E-06  1.000000E+00  0.000000E+00  1.000000E+00  0.000000E+00
  0.025400000 -3.731510E-01  2.210350E-01  1.753640E-05  7.940530E-06  1.000000E+00  0.000000E+00  1.000000E+00  0.000000E+00
  0.025600000 -3.722780E-01  2.223800E-01  1.627910E-05  6.902070E-06  1.000000E+00  0.000000E+00  1.000000E+00  0.000000E+00
  0.025800000 -3.713370E-01  2.235370E-01  1.591360E-05  6.119760E-06  1.000000E+00  0.000000E+00  1.000000E+00  0.000000E+00
  0.026000000 -3.706190E-01  2.250020E-01  1.603920E-05  5.311110E-06  1.000000E+00  0.000000E+00  1.000000E+00  0.000000E+00
  0.026200000 -3.695420E-01  2.264550E-01  1.816760E-05  6.651640E-06  1.000000E+00  0.000000E+00  1.000000E+00  0.000000E+00
  0.026400000 -3.684820E-01  2.278380E-01  1.554990E-05  7.196010E-06  1.000000E+00  0.000000E+00  1.000000E+00  0.000000E+00
  0.026600000 -3.673260E-01  2.294230E-01  1.505310E-05  4.914850E-06  1.000000E+00  0.000000E+00  1.000000E+00  0.000000E+00
  0.026800000 -3.662450E-01  2.308000E-01  1.562260E-05  7.269130E-06  1.000000E+00  0.000000E+00  1.000000E+00  0.000000E+00
  0.027000000 -3.654360E-01  2.322940E-01  1.629070E-05  5.140510E-06  1.000000E+00  0.000000E+00  1.000000E+00  0.000000E+00
  0.027200000 -3.642690E-01  2.341620E-01  1.365290E-05  6.324600E-06  1.000000E+00  0.000000E+00  1.000000E+00  0.000000E+00
  0.027400000 -3.633240E-01  2.359170E-01  1.384480E-05  3.807570E-06  1.000000E+00  0.000000E+00  1.000000E+00  0.000000E+00
  0.027600000 -3.625550E-01  2.377350E-01  1.393830E-05  4.687180E-06  1.000000E+00  0.000000E+00  1.000000E+00  0.000000E+00
  0.027800000 -3.612850E-01  2.391690E-01  1.557950E-05  6.012830E-06  1.000000E+00  0.000000E+00  1.000000E+00  0.000000E+00
  0.028000000 -3.604190E-01  2.408110E-01  1.593760E-05  6.459260E-06  1.000000E+00  0.000000E+00  1.000000E+00  0.000000E+00
  0.028200000 -3.593680E-01  2.423610E-01  1.603360E-05  6.141310E-06  1.000000E+00  0.000000E+00  1.000000E+00  0.000000E+00
  0.028400000 -3.585520E-01  2.436810E-01  1.532720E-05  5.489120E-06  1.000000E+00  0.000000E+00  1.000000E+00  0.000000E+00
  0.028600000 -3.577720E-01  2.452690E-01  1.323700E-05  7.629440E-06  1.000000E+00  0.000000E+00  1.000000E+00  0.000000E+00
  0.028800000 -3.570580E-01  2.465620E-01  1.599250E-05  3.871650E-06  1.000000E+00  0.000000E+00  1.000000E+00  0.000000E+00
  0.029000000 -3.562160E-01  2.477850E-01  1.468050E-05  6.181240E-06  1.000000E+00  0.000000E+00  1.000000E+00  0.000000E+00
  0.029200000 -3.554650E-01  2.490910E-01  1.503590E-05  3.008050E-06  1.000000E+00  0.000000E+00  1.000000E+00  0.000000E+00
  0.029400000 -3.547530E-01  2.502000E-01  1.473710E-05  3.542170E-06  1.000000E+00  0.000000E+00  1.000000E+00  0.000000E+00
  0.029600000 -3.538010E-01  2.513890E-01  1.644000E-05  4.978580E-06  1.000000E+00  0.000000E+00  1.000000E+00  0.000000E+00
  0.029800000 -3.527180E-01  2.525690E-01  1.469280E-05  5.897710E-06  1.000000E+00  0.000000E+00  1.000000E+00  0.000000E+00
  0.030000000 -3.515160E-01  2.538870E-01  1.519220E-05  3.647550E-06  1.000000E+00  0.000000E+00  1.000000E+00  0.000000E+00
  0.030200000 -3.504840E-01  2.553510E-01  1.392430E-05  7.347260E-06  1.000000E+00  0.000000E+00  1.000000E+00  0.000000E+00
  0.030400000 -3.491550E-01  2.568820E-01  1.471180E-05  4.209650E-06  1.000000E+00  0.000000E+00  1.000000E+00  0.000000E+00
  0.030600000 -3.479050E-01  2.582300E-01  1.450880E-05  4.642090E-06  1.000000E+00  0.000000E+00  1.000000E+00  0.000000E+00
  0.030800000 -3.468770E-01  2.597220E-01  1.446020E-05  2.255590E-06  1.000000E+00  0.000000E+00  1.000000E+00  0.000000E+00
  0.031000000 -3.455920E-01  2.612950E-01  1.130460E-05  2.658790E-06  1.000000E+00  0.000000E+00  1.000000E+00  0.000000E+00
  0.031200000 -3.451080E-01  2.626680E-01  1.444240E-05  1.115930E-06  1.000000E+00  0.000000E+00  1.000000E+00  0.000000E+00
  0.031400000 -3.436060E-01  2.638130E-01  1.522600E-05  1.628830E-06  1.000000E+00  0.000000E+00  1.000000E+00  0.000000E+00
  0.031600000 -3.421080E-01  2.653840E-01  1.220700E-05  4.178980E-06  1.000000E+00  0.000000E+00  1.000000E+00  0.000000E+00
  0.031800000 -3.409900E-01  2.670280E-01  1.118580E-05  1.613800E-06  1.000000E+00  0.000000E+00  1.000000E+00  0.000000E+00
  0.032000000 -3.398970E-01  2.683480E-01  1.133740E-05  4.289730E-06  1.000000E+00  0.000000E+00  1.000000E+00  0.000000E+00
  0.032200000 -3.387690E-01  2.699530E-01  1.279300E-05  4.352240E-06  1.000000E+00  0.000000E+00  1.000000E+00  0.000000E+00
  0.032400000 -3.377640E-01  2.714330E-01  1.313320E-05  2.422710E-07  1.000000E+00  0.000000E+00  1.000000E+00  0.000000E+00
  0.032600000 -3.370080E-01  2.730490E-01  1.335300E-05  7.391570E-07  1.000000E+00  0.000000E+00  1.000000E+00  0.000000E+00
  0.032800000 -3.360500E-01  2.744470E-01  1.140960E-05  4.701020E-06  1.000000E+00  0.000000E+00  1.000000E+00  0.000000E+00
  0.033000000 -3.352810E-01  2.756620E-01  1.482750E-05  2.631790E-06  1.000000E+00  0.000000E+00  1.000000E+00  0.000000E+00
  0.033200000 -3.341930E-01  2.769100E-01  9.577270E-06  4.053900E-07  1.000000E+00  0.000000E+00  1.000000E+00  0.000000E+00
  0.033400000 -3.329110E-01  2.782260E-01  1.342790E-05  6.268410E-07  1.000000E+00  0.000000E+00  1.000000E+00  0.000000E+00
  0.033600000 -3.318430E-01  2.792850E-01  1.157960E-05  3.409860E-06  1.000000E+00  0.000000E+00  1.000000E+00  0.000000E+00
  0.033800000 -3.307540E-01  2.803820E-01  1.420510E-05  1.746910E-06  1.000000E+00  0.000000E+00  1.000000E+00  0.000000E+00
  0.034000000 -3.294620E-01  2.820070E-01  1.284610E-05  1.104630E-06  1.000000E+00  0.000000E+00  1.000000E+00  0.000000E+00
  0.034200000 -3.278810E-01  2.832420E-01  8.627640E-06  4.713400E-06  1.000000E+00  0.000000E+00  1.000000E+00  0.000000E+00
  0.034400000 -3.265130E-01  2.846420E-01  1.228730E-05  1.934660E-06  1.000000E+00  0.000000E+00  1.000000E+00  0.000000E+00
  0.034600000 -3.249120E-01  2.859310E-01  1.135970E-05  2.439680E-06  1.000000E+00  0.000000E+00  1.000000E+00  0.000000E+00
  0.034800000 -3.235490E-01  2.875670E-01  1.246600E-05  9.927010E-07  1.000000E+00  0.000000E+00  1.000000E+00  0.000000E+00
  0.035000000 -3.221800E-01  2.887210E-01  1.046560E-05  3.476140E-06  1.000000E+00  0.000000E+00  1.000000E+00  0.000000E+00
  0.035200000 -3.208610E-01  2.904690E-01  1.104090E-05  4.034190E-06  1.000000E+00  0.000000E+00  1.000000E+00  0.000000E+00
  0.035400000 -3.195190E-01  2.917050E-01  1.067280E-05  3.187150E-06  1.000000E+00  0.000000E+00  1.000000E+00  0.000000E+00
  0.035600000 -3.183560E-01  2.932790E-01  1.130670E-05  1.989800E-06  1.000000E+00  0.000000E+00  1.000000E+00  0.000000E+00
  0.035800000 -3.172930E-01  2.950920E-01  1.323260E-05  2.845330E-06  1.000000E+00  0.000000E+00  1.000000E+00  0.000000E+00
  0.036000000 -3.161590E-01  2.967270E-01  1.282440E-05  2.620190E-06  1.000000E+00  0.000000E+00  1.000000E+00  0.000000E+00
  0.036200000 -3.153310E-01  2.981500E-01  1.003650E-05  2.034700E-06  1.000000E+00  0.000000E+00  1.000000E+00  0.000000E+00
  0.036400000 -3.143770E-01  2.995000E-01  1.123060E-05  3.170900E-06  1.000000E+00  0.000000E+00  1.000000E+00  0.000000E+00
  0.036600000 -3.133000E-01  3.006000E-01  1.074780E-05  1.487990E-07  1.000000E+00  0.000000E+00  1.000000E+00  0.000000E+00
  0.036800000 -3.122970E-01  3.021700E-01  1.091470E-05  2.987290E-06  1.000000E+00  0.000000E+00  1.000000E+00  0.000000E+00
  0.037000000 -3.112760E-01  3.030970E-01  1.126360E-05  1.352310E-06  1.000000E+00  0.000000E+00  1.000000E+00  0.000000E+00
  0.037200000 -3.102050E-01  3.041100E-01  1.041870E-05  1.529760E-06  1.000000E+00  0.000000E+00  1.000000E+00  0.000000E+00
  0.037400000 -3.087860E-01  3.051140E-01  1.126870E-05  6.818040E-07  1.000000E+00  0.000000E+00  1.000000E+00  0.000000E+00
  0.037600000 -3.075750E-01  3.065240E-01  1.036010E-05  2.530590E-06  1.000000E+00  0.000000E+00  1.000000E+00  0.000000E+00
  0.037800000 -3.061440E-01  3.074530E-01  9.441320E-06  1.080340E-06  1.000000E+00  0.000000E+00  1.000000E+00  0.000000E+00
  0.038000000 -3.048360E-01  3.086200E-01  1.213790E-05 -4.838690E-07  1.000000E+00  0.000000E+00  1.000000E+00  0.000000E+00
  0.038200000 -3.032370E-01  3.098400E-01  1.094600E-05  1.593320E-06  1.000000E+00  0.000000E+00  1.000000E+00  0.000000E+00
  0.038400000 -3.018130E-01  3.110610E-01  1.038550E-05  1.766900E-06  1.000000E+00  0.000000E+00  1.000000E+00  0.000000E+00
  0.038600000 -3.001640E-01  3.122640E-01  8.620050E-06  3.386010E-07  1.000000E+00  0.000000E+00  1.000000E+00  0.000000E+00
