! Anritsu VNA Master:                     Model: MS2036C/10/77
! SN:                                  1601066
! /card0/usr/256.ns.n.me.s2p
! Existing Calibration Information:
! TYPE:                         Current Settings,       Active Cal Settings
! TIME:             	   12/19/2017 04:10:08 PM,    12/19/2017 03:58:02 PM
! INTERNAL TEMP:    	                   46.8 C,                    47.0 C
! # POINTS:         	                      501,                       501
! START FREQ:       	               10.000 MHz,                10.000 MHz
! STOP FREQ:        	              110.000 MHz,               110.000 MHz
! SOURCE POWER:     	                     High,                      High
! IFBW:             	                   100 Hz,                    100 Hz
! AVG FACTOR:       	                       1 ,                        1 
! REF PLANE 1:      	                     0 mm,                      0 mm
! REF PLANE 2:      	                     0 mm,                      0 mm
! CAL TYPE:         	                 Full S11,                  Full S11
! CAL METHOD:       	                     SOLT,                      SOLT
! CAL LINE TYPE:    	                     Coax,                      Coax
! DUT PORT 1:       	                N-Conn(F),                 N-Conn(F)
! DUT PORT 2:       	                K-Conn(F),                 K-Conn(F)
! CAL STATUS:       	        OK: Accuracy High,                        --
# GHZ S DB R 50.0
! FREQ.GHZ       S11DB        S11A       S21DB        S21A       S12DB        S12A       S22DB        S22A
  0.010000000   -0.557645  -59.808502  -85.328734   82.832451    0.000000    0.000000    0.000000    0.000000
  0.010200000   -0.543463  -61.026314  -85.302092   85.571465    0.000000    0.000000    0.000000    0.000000
  0.010400000   -0.541943  -62.308277  -84.429100   86.604561    0.000000    0.000000    0.000000    0.000000
  0.010600000   -0.545789  -63.585129  -84.598169   83.715111    0.000000    0.000000    0.000000    0.000000
  0.010800000   -0.547716  -64.875206  -84.096226   86.513527    0.000000    0.000000    0.000000    0.000000
  0.011000000   -0.551103  -66.156990  -84.051625   81.027954    0.000000    0.000000    0.000000    0.000000
  0.011200000   -0.552228  -67.435661  -83.771084   80.899544    0.000000    0.000000    0.000000    0.000000
  0.011400000   -0.550987  -68.715607  -83.772310   76.951363    0.000000    0.000000    0.000000    0.000000
  0.011600000   -0.555846  -69.954597  -83.844169   77.589180    0.000000    0.000000    0.000000    0.000000
  0.011800000   -0.556214  -71.260315  -83.490406   73.156891    0.000000    0.000000    0.000000    0.000000
  0.012000000   -0.560528  -72.538971  -83.794061   70.475372    0.000000    0.000000    0.000000    0.000000
  0.012200000   -0.556273  -73.858055  -84.068023   70.788872    0.000000    0.000000    0.000000    0.000000
  0.012400000   -0.554380  -75.150932  -83.794759   67.592247    0.000000    0.000000    0.000000    0.000000
  0.012600000   -0.552429  -76.471512  -84.338480   66.134705    0.000000    0.000000    0.000000    0.000000
  0.012800000   -0.551589  -77.751900  -84.341758   60.942539    0.000000    0.000000    0.000000    0.000000
  0.013000000   -0.553594  -79.047661  -84.742666   60.149902    0.000000    0.000000    0.000000    0.000000
  0.013200000   -0.550168  -80.370232  -84.713923   57.350121    0.000000    0.000000    0.000000    0.000000
  0.013400000   -0.551982  -81.659271  -85.644591   53.063007    0.000000    0.000000    0.000000    0.000000
  0.013600000   -0.548803  -82.977524  -85.661469   50.227383    0.000000    0.000000    0.000000    0.000000
  0.013800000   -0.545836  -84.266991  -85.886188   47.060154    0.000000    0.000000    0.000000    0.000000
  0.014000000   -0.548593  -85.598236  -86.485132   46.757401    0.000000    0.000000    0.000000    0.000000
  0.014200000   -0.551164  -86.926132  -86.645968   43.542252    0.000000    0.000000    0.000000    0.000000
  0.014400000   -0.552629  -88.265472  -87.390501   50.076157    0.000000    0.000000    0.000000    0.000000
  0.014600000   -0.555918  -89.628189  -87.721513   45.818142    0.000000    0.000000    0.000000    0.000000
  0.014800000   -0.561870  -90.990791  -88.272944   47.207035    0.000000    0.000000    0.000000    0.000000
  0.015000000   -0.564716  -92.336670  -88.519088   47.809803    0.000000    0.000000    0.000000    0.000000
  0.015200000   -0.564798  -93.703789  -88.993137   49.315136    0.000000    0.000000    0.000000    0.000000
  0.015400000   -0.564307  -95.062202  -89.194587   44.906231    0.000000    0.000000    0.000000    0.000000
  0.015600000   -0.556944  -96.327232  -89.649076   45.970005    0.000000    0.000000    0.000000    0.000000
  0.015800000   -0.564078  -97.768646  -89.811769   57.181435    0.000000    0.000000    0.000000    0.000000
  0.016000000   -0.564714  -99.137184  -89.111939   52.174740    0.000000    0.000000    0.000000    0.000000
  0.016200000   -0.564321 -100.497322  -89.639616   54.124794    0.000000    0.000000    0.000000    0.000000
  0.016400000   -0.565115 -101.888351  -89.761389   56.882832    0.000000    0.000000    0.000000    0.000000
  0.016600000   -0.564283 -103.300461  -89.807951   50.262001    0.000000    0.000000    0.000000    0.000000
  0.016800000   -0.561909 -104.701485  -89.530758   51.000317    0.000000    0.000000    0.000000    0.000000
  0.017000000   -0.561211 -106.135338  -88.962254   54.616146    0.000000    0.000000    0.000000    0.000000
  0.017200000   -0.559205 -107.515755  -89.059836   56.418884    0.000000    0.000000    0.000000    0.000000
  0.017400000   -0.564138 -108.917969  -89.022052   50.908096    0.000000    0.000000    0.000000    0.000000
  0.017600000   -0.570003 -110.297699  -88.832562   49.122524    0.000000    0.000000    0.000000    0.000000
  0.017800000   -0.576509 -111.708153  -89.540853   47.296989    0.000000    0.000000    0.000000    0.000000
  0.018000000   -0.580904 -113.135689  -88.526708   50.012558    0.000000    0.000000    0.000000    0.000000
  0.018200000   -0.580511 -114.540421  -89.245602   44.561871    0.000000    0.000000    0.000000    0.000000
  0.018400000   -0.582802 -115.990891  -88.876251   45.970730    0.000000    0.000000    0.000000    0.000000
  0.018600000   -0.585047 -117.416405  -88.790592   44.222065    0.000000    0.000000    0.000000    0.000000
  0.018800000   -0.584910 -118.854538  -89.214792   41.303192    0.000000    0.000000    0.000000    0.000000
  0.019000000   -0.583598 -120.299469  -89.493936   38.055691    0.000000    0.000000    0.000000    0.000000
  0.019200000   -0.588381 -121.750946  -89.200817   40.332783    0.000000    0.000000    0.000000    0.000000
  0.019400000   -0.589798 -123.216545  -89.678881   34.298721    0.000000    0.000000    0.000000    0.000000
  0.019600000   -0.593928 -124.692688  -90.643445   34.011028    0.000000    0.000000    0.000000    0.000000
  0.019800000   -0.592608 -126.189545  -91.056796   26.153427    0.000000    0.000000    0.000000    0.000000
  0.020000000   -0.590985 -127.678391  -91.148158   31.430044    0.000000    0.000000    0.000000    0.000000
  0.020200000   -0.589518 -129.137329  -91.544868   31.642727    0.000000    0.000000    0.000000    0.000000
  0.020400000   -0.591577 -130.607498  -92.230094   35.738670    0.000000    0.000000    0.000000    0.000000
  0.020600000   -0.593879 -132.096634  -92.913648   31.349575    0.000000    0.000000    0.000000    0.000000
  0.020800000   -0.599249 -133.600082  -92.146528   29.478926    0.000000    0.000000    0.000000    0.000000
  0.021000000   -0.605503 -135.122238  -93.095645   30.172787    0.000000    0.000000    0.000000    0.000000
  0.021200000   -0.613973 -136.671097  -92.688991   34.453228    0.000000    0.000000    0.000000    0.000000
  0.021400000   -0.620682 -138.201553  -93.464769   29.274052    0.000000    0.000000    0.000000    0.000000
  0.021600000   -0.625045 -139.743607  -92.942435   39.751503    0.000000    0.000000    0.000000    0.000000
  0.021800000   -0.630852 -141.289291  -93.522522   32.929123    0.000000    0.000000    0.000000    0.000000
  0.022000000   -0.638234 -142.853897  -93.915236   35.909477    0.000000    0.000000    0.000000    0.000000
  0.022200000   -0.646421 -144.426712  -94.506685   34.310368    0.000000    0.000000    0.000000    0.000000
  0.022400000   -0.654897 -146.028473  -93.095254   31.965145    0.000000    0.000000    0.000000    0.000000
  0.022600000   -0.659752 -147.627838  -92.608691   31.558233    0.000000    0.000000    0.000000    0.000000
  0.022800000   -0.664747 -149.231339  -93.992877   38.619659    0.000000    0.000000    0.000000    0.000000
  0.023000000   -0.671062 -150.852631  -92.321400   38.895687    0.000000    0.000000    0.000000    0.000000
  0.023200000   -0.676924 -152.448547  -92.953856   41.934742    0.000000    0.000000    0.000000    0.000000
  0.023400000   -0.681298 -154.028702  -91.636011   36.597744    0.000000    0.000000    0.000000    0.000000
  0.023600000   -0.689780 -155.684708  -92.392279   37.209526    0.000000    0.000000    0.000000    0.000000
  0.023800000   -0.700869 -157.312531  -92.130274   35.087357    0.000000    0.000000    0.000000    0.000000
  0.024000000   -0.713584 -158.976639  -93.188521   29.780762    0.000000    0.000000    0.000000    0.000000
  0.024200000   -0.726444 -160.637360  -94.079714   25.983269    0.000000    0.000000    0.000000    0.000000
  0.024400000   -0.737943 -162.308548  -92.365649   27.885101    0.000000    0.000000    0.000000    0.000000
  0.024600000   -0.751006 -163.984360  -93.199590   29.012939    0.000000    0.000000    0.000000    0.000000
  0.024800000   -0.765020 -165.663040  -93.046908   26.430574    0.000000    0.000000    0.000000    0.000000
  0.025000000   -0.778621 -167.328354  -93.818029   23.257917    0.000000    0.000000    0.000000    0.000000
  0.025200000   -0.791481 -169.011795  -93.672567   22.110826    0.000000    0.000000    0.000000    0.000000
  0.025400000   -0.808130 -170.707367  -94.084263   19.852152    0.000000    0.000000    0.000000    0.000000
  0.025600000   -0.824650 -172.426529  -92.927710   19.805492    0.000000    0.000000    0.000000    0.000000
  0.025800000   -0.838061 -174.140533  -94.213125   18.768192    0.000000    0.000000    0.000000    0.000000
  0.026000000   -0.851737 -175.872238  -95.257420   17.410355    0.000000    0.000000    0.000000    0.000000
  0.026200000   -0.864403 -177.594696  -94.718000   16.736080    0.000000    0.000000    0.000000    0.000000
  0.026400000   -0.879166 -179.327438  -95.449787   14.466532    0.000000    0.000000    0.000000    0.000000
  0.026600000   -0.895035  178.925552  -96.410948   20.168959    0.000000    0.000000    0.000000    0.000000
  0.026800000   -0.911711  177.176086  -95.634503   23.896471    0.000000    0.000000    0.000000    0.000000
  0.027000000   -0.930326  175.409546  -95.921760   24.511318    0.000000    0.000000    0.000000    0.000000
  0.027200000   -0.947858  173.623840  -95.189644   17.383221    0.000000    0.000000    0.000000    0.000000
  0.027400000   -0.963490  171.820343  -95.351615   20.888643    0.000000    0.000000    0.000000    0.000000
  0.027600000   -0.981803  170.026428  -96.895661   21.590830    0.000000    0.000000    0.000000    0.000000
  0.027800000   -1.001952  168.221558  -96.199644   21.710497    0.000000    0.000000    0.000000    0.000000
  0.028000000   -1.024890  166.379105  -97.176710   20.979176    0.000000    0.000000    0.000000    0.000000
  0.028200000   -1.048641  164.559738  -96.014675   26.885414    0.000000    0.000000    0.000000    0.000000
  0.028400000   -1.073360  162.719666  -96.458892   25.723675    0.000000    0.000000    0.000000    0.000000
  0.028600000   -1.093263  160.894409  -95.298815   29.429182    0.000000    0.000000    0.000000    0.000000
  0.028800000   -1.114792  159.078232  -95.968510   17.801662    0.000000    0.000000    0.000000    0.000000
  0.029000000   -1.136023  157.259216  -95.345438   25.161379    0.000000    0.000000    0.000000    0.000000
  0.029200000   -1.158531  155.450943  -95.631685   19.568302    0.000000    0.000000    0.000000    0.000000
  0.029400000   -1.184528  153.627457  -95.233410   17.941183    0.000000    0.000000    0.000000    0.000000
  0.029600000   -1.215437  151.792725  -96.751762   15.587796    0.000000    0.000000    0.000000    0.000000
  0.029800000   -1.245685  149.936096  -95.414596   20.624784    0.000000    0.000000    0.000000    0.000000
  0.030000000   -1.276565  148.059067  -95.443888    8.904437    0.000000    0.000000    0.000000    0.000000
  0.030200000   -1.308972  146.149765  -96.033805    9.492393    0.000000    0.000000    0.000000    0.000000
  0.030400000   -1.338606  144.233719  -96.522967   19.949287    0.000000    0.000000    0.000000    0.000000
  0.030600000   -1.368381  142.335175  -96.016860   14.516611    0.000000    0.000000    0.000000    0.000000
  0.030800000   -1.400014  140.427246  -96.116960    7.422983    0.000000    0.000000    0.000000    0.000000
  0.031000000   -1.436445  138.514328  -97.626060    9.833019    0.000000    0.000000    0.000000    0.000000
  0.031200000   -1.461630  136.585403  -97.243379   17.298750    0.000000    0.000000    0.000000    0.000000
  0.031400000   -1.499599  134.641098  -96.863782    5.740075    0.000000    0.000000    0.000000    0.000000
  0.031600000   -1.536365  132.645935  -98.361761   16.488464    0.000000    0.000000    0.000000    0.000000
  0.031800000   -1.565853  130.647949  -97.095585   13.101912    0.000000    0.000000    0.000000    0.000000
  0.032000000   -1.598367  128.642227  -97.361546    8.248929    0.000000    0.000000    0.000000    0.000000
  0.032200000   -1.627680  126.634399  -97.124108    8.935073    0.000000    0.000000    0.000000    0.000000
  0.032400000   -1.658133  124.639915  -98.072002    0.698071    0.000000    0.000000    0.000000    0.000000
  0.032600000   -1.690996  122.650185  -98.191718    6.217083    0.000000    0.000000    0.000000    0.000000
  0.032800000   -1.726088  120.688759  -97.284224    8.269457    0.000000    0.000000    0.000000    0.000000
  0.033000000   -1.766248  118.681419  -96.380385   14.240320    0.000000    0.000000    0.000000    0.000000
  0.033200000   -1.813921  116.708115  -99.284536   15.679898    0.000000    0.000000    0.000000    0.000000
  0.033400000   -1.857985  114.705063  -97.786490   12.854241    0.000000    0.000000    0.000000    0.000000
  0.033600000   -1.906834  112.672333  -99.432328    6.325291    0.000000    0.000000    0.000000    0.000000
  0.033800000   -1.961305  110.623123  -97.499012    4.467992    0.000000    0.000000    0.000000    0.000000
  0.034000000   -2.009746  108.542389  -98.210989   26.190847    0.000000    0.000000    0.000000    0.000000
  0.034200000   -2.056763  106.437927  -98.562032    4.522749    0.000000    0.000000    0.000000    0.000000
  0.034400000   -2.105228  104.289322  -98.182790   23.211346    0.000000    0.000000    0.000000    0.000000
  0.034600000   -2.148888  102.149223  -99.238551    7.715448    0.000000    0.000000    0.000000    0.000000
  0.034800000   -2.195240  100.015816  -98.373714    8.236415    0.000000    0.000000    0.000000    0.000000
  0.035000000   -2.239922   97.910950  -96.421814   13.291966    0.000000    0.000000    0.000000    0.000000
  0.035200000   -2.280864   95.794052  -98.171656    9.154119    0.000000    0.000000    0.000000    0.000000
  0.035400000   -2.321864   93.700928  -97.681956   14.950777    0.000000    0.000000    0.000000    0.000000
  0.035600000   -2.363757   91.601059  -98.819161    5.462964    0.000000    0.000000    0.000000    0.000000
  0.035800000   -2.404761   89.526405  -98.268159    2.468408    0.000000    0.000000    0.000000    0.000000
  0.036000000   -2.449694   87.449913  -98.991477    8.238328    0.000000    0.000000    0.000000    0.000000
  0.036200000   -2.493805   85.399986  -98.550410    7.575962    0.000000    0.000000    0.000000    0.000000
  0.036400000   -2.544348   83.338943  -97.278704    6.254737    0.000000    0.000000    0.000000    0.000000
  0.036600000   -2.595810   81.310646  -99.449148   -7.825874    0.000000    0.000000    0.000000    0.000000
  0.036800000   -2.651246   79.251564  -98.547921   13.207304    0.000000    0.000000    0.000000    0.000000
  0.037000000   -2.709825   77.179024 -100.445976   13.274842    0.000000    0.000000    0.000000    0.000000
  0.037200000   -2.770035   75.091110  -98.787466   -2.542259    0.000000    0.000000    0.000000    0.000000
  0.037400000   -2.833171   72.993797  -97.411532   12.000825    0.000000    0.000000    0.000000    0.000000
  0.037600000   -2.896267   70.876106  -99.351514  -15.634463    0.000000    0.000000    0.000000    0.000000
  0.037800000   -2.963046   68.701088 -100.756825   -9.356326    0.000000    0.000000    0.000000    0.000000
  0.038000000   -3.031268   66.585915  -99.675420    4.836168    0.000000    0.000000    0.000000    0.000000
  0.038200000   -3.094562   64.457520 -100.744215   10.213903    0.000000    0.000000    0.000000    0.000000
  0.038400000   -3.148821   62.353786 -100.404554   17.039644    0.000000    0.000000    0.000000    0.000000
  0.038600000   -3.199096   60.219250  -99.729975   15.532007    0.000000    0.000000    0.000000    0.000000
  0.038800000   -3.248953   58.107098 -100.617496    8.455330    0.000000    0.000000    0.000000    0.000000
  0.039000000   -3.293389   56.035915  -99.355657    2.254426    0.000000    0.000000    0.000000    0.000000
  0.039200000   -3.337170   53.964592  -99.181804   10.393141    0.000000    0.000000    0.000000    0.000000
  0.039400000   -3.388738   51.941360  -99.309222    8.272647    0.000000    0.000000    0.000000    0.000000
  0.039600000   -3.442333   49.931473  -99.408825   16.895041    0.000000    0.000000    0.000000    0.000000
  0.039800000   -3.500436   47.870190  -99.995697    9.519197    0.000000    0.000000    0.000000    0.000000
  0.040000000   -3.560815   45.854538 -102.083132    5.366882    0.000000    0.000000    0.000000    0.000000
  0.040200000   -3.619945   43.753582 -100.153145    9.697355    0.000000    0.000000    0.000000    0.000000
  0.040400000   -3.683274   41.663811 -100.190478   -2.675154    0.000000    0.000000    0.000000    0.000000
  0.040600000   -3.742431   39.600880 -101.511116   -8.860037    0.000000    0.000000    0.000000    0.000000
  0.040800000   -3.798119   37.530144  -99.343414   -6.639237    0.000000    0.000000    0.000000    0.000000
  0.041000000   -3.855491   35.427448  -99.415736    1.486285    0.000000    0.000000    0.000000    0.000000
  0.041200000   -3.914257   33.358814 -101.012468   14.360710    0.000000    0.000000    0.000000    0.000000
  0.041400000   -3.967309   31.292860  -99.512188    4.952148    0.000000    0.000000    0.000000    0.000000
  0.041600000   -4.022602   29.195753  -98.692155    3.634458    0.000000    0.000000    0.000000    0.000000
  0.041800000   -4.076150   27.136276 -100.091970    0.972115    0.000000    0.000000    0.000000    0.000000
  0.042000000   -4.125530   25.078495 -100.150459   -6.669353    0.000000    0.000000    0.000000    0.000000
  0.042200000   -4.173596   23.014154 -101.180025   -3.907945    0.000000    0.000000    0.000000    0.000000
  0.042400000   -4.222157   21.003500  -98.822172   -1.940317    0.000000    0.000000    0.000000    0.000000
  0.042600000   -4.261177   18.832943 -100.608106    5.226734    0.000000    0.000000    0.000000    0.000000
  0.042800000   -4.311079   16.824974 -105.232715   -9.701846    0.000000    0.000000    0.000000    0.000000
