! Anritsu VNA Master:                     Model: MS2036C/10/77
! SN:                                  1601066
! /card0/usr/256.ns.n.r200.21.s2p
! Existing Calibration Information:
! TYPE:                         Current Settings,       Active Cal Settings
! TIME:             	   12/19/2017 04:16:10 PM,    12/19/2017 03:58:02 PM
! INTERNAL TEMP:    	                   46.5 C,                    47.0 C
! # POINTS:         	                      501,                       501
! START FREQ:       	               10.000 MHz,                10.000 MHz
! STOP FREQ:        	              110.000 MHz,               110.000 MHz
! SOURCE POWER:     	                     High,                      High
! IFBW:             	                   100 Hz,                    100 Hz
! AVG FACTOR:       	                       1 ,                        1 
! REF PLANE 1:      	                     0 mm,                      0 mm
! REF PLANE 2:      	                     0 mm,                      0 mm
! CAL TYPE:         	                 Full S11,                  Full S11
! CAL METHOD:       	                     SOLT,                      SOLT
! CAL LINE TYPE:    	                     Coax,                      Coax
! DUT PORT 1:       	                N-Conn(F),                 N-Conn(F)
! DUT PORT 2:       	                K-Conn(F),                 K-Conn(F)
! CAL STATUS:       	        OK: Accuracy High,                        --
# GHZ S DB R 50.0
! FREQ.GHZ       S11DB        S11A       S21DB        S21A       S12DB        S12A       S22DB        S22A
  0.010000000   -4.521863  -11.466407  -84.210611   75.265457    0.000000    0.000000    0.000000    0.000000
  0.010200000   -4.508831  -11.662052  -84.595250   73.322945    0.000000    0.000000    0.000000    0.000000
  0.010400000   -4.511279  -11.884779  -84.630000   79.162910    0.000000    0.000000    0.000000    0.000000
  0.010600000   -4.510779  -12.121179  -84.631646   76.653297    0.000000    0.000000    0.000000    0.000000
  0.010800000   -4.513602  -12.338105  -85.006342   75.671211    0.000000    0.000000    0.000000    0.000000
  0.011000000   -4.515292  -12.559807  -85.088307   77.392410    0.000000    0.000000    0.000000    0.000000
  0.011200000   -4.512149  -12.806363  -85.120199   77.076302    0.000000    0.000000    0.000000    0.000000
  0.011400000   -4.511684  -13.056480  -84.814400   72.914116    0.000000    0.000000    0.000000    0.000000
  0.011600000   -4.518402  -13.276534  -85.342665   77.032951    0.000000    0.000000    0.000000    0.000000
  0.011800000   -4.516923  -13.504370  -84.886398   76.164902    0.000000    0.000000    0.000000    0.000000
  0.012000000   -4.519634  -13.745255  -84.952524   72.436775    0.000000    0.000000    0.000000    0.000000
  0.012200000   -4.517542  -13.984605  -85.550017   68.650955    0.000000    0.000000    0.000000    0.000000
  0.012400000   -4.519389  -14.205617  -85.251410   69.275955    0.000000    0.000000    0.000000    0.000000
  0.012600000   -4.522866  -14.457091  -85.250553   70.271988    0.000000    0.000000    0.000000    0.000000
  0.012800000   -4.523260  -14.692347  -85.547761   66.897469    0.000000    0.000000    0.000000    0.000000
  0.013000000   -4.525480  -14.916310  -84.990054   64.206200    0.000000    0.000000    0.000000    0.000000
  0.013200000   -4.526142  -15.141139  -85.662785   64.853554    0.000000    0.000000    0.000000    0.000000
  0.013400000   -4.525189  -15.359313  -85.432072   61.542149    0.000000    0.000000    0.000000    0.000000
  0.013600000   -4.526415  -15.603010  -85.629709   60.815327    0.000000    0.000000    0.000000    0.000000
  0.013800000   -4.526594  -15.844103  -85.630659   59.668129    0.000000    0.000000    0.000000    0.000000
  0.014000000   -4.528086  -16.076040  -85.471642   56.183876    0.000000    0.000000    0.000000    0.000000
  0.014200000   -4.529202  -16.328115  -86.507069   52.867695    0.000000    0.000000    0.000000    0.000000
  0.014400000   -4.529468  -16.567234  -86.806464   52.107414    0.000000    0.000000    0.000000    0.000000
  0.014600000   -4.530927  -16.806416  -86.943018   49.850033    0.000000    0.000000    0.000000    0.000000
  0.014800000   -4.531789  -17.045683  -87.618313   49.335838    0.000000    0.000000    0.000000    0.000000
  0.015000000   -4.533951  -17.259758  -87.124151   46.021687    0.000000    0.000000    0.000000    0.000000
  0.015200000   -4.533064  -17.495087  -87.710493   48.698456    0.000000    0.000000    0.000000    0.000000
  0.015400000   -4.535073  -17.747129  -88.006957   44.053272    0.000000    0.000000    0.000000    0.000000
  0.015600000   -4.534711  -17.930801  -88.012195   46.820118    0.000000    0.000000    0.000000    0.000000
  0.015800000   -4.539070  -18.219110  -88.641428   45.354122    0.000000    0.000000    0.000000    0.000000
  0.016000000   -4.541424  -18.467072  -89.374207   48.271271    0.000000    0.000000    0.000000    0.000000
  0.016200000   -4.541412  -18.691158  -89.570375   42.509071    0.000000    0.000000    0.000000    0.000000
  0.016400000   -4.542724  -18.913731  -89.114600   45.709846    0.000000    0.000000    0.000000    0.000000
  0.016600000   -4.545700  -19.155933  -89.975198   49.924385    0.000000    0.000000    0.000000    0.000000
  0.016800000   -4.542755  -19.389311  -89.758264   43.281746    0.000000    0.000000    0.000000    0.000000
  0.017000000   -4.542657  -19.666719  -91.154474   44.174232    0.000000    0.000000    0.000000    0.000000
  0.017200000   -4.538610  -19.884901  -90.183949   46.485287    0.000000    0.000000    0.000000    0.000000
  0.017400000   -4.538251  -20.109510  -90.412742   47.691929    0.000000    0.000000    0.000000    0.000000
  0.017600000   -4.535453  -20.367605  -90.922780   48.545826    0.000000    0.000000    0.000000    0.000000
  0.017800000   -4.538058  -20.573221  -90.238630   47.810646    0.000000    0.000000    0.000000    0.000000
  0.018000000   -4.536519  -20.815777  -90.322107   45.739395    0.000000    0.000000    0.000000    0.000000
  0.018200000   -4.538016  -21.038504  -90.326524   44.728756    0.000000    0.000000    0.000000    0.000000
  0.018400000   -4.539712  -21.305498  -90.487235   51.185818    0.000000    0.000000    0.000000    0.000000
  0.018600000   -4.546380  -21.521902  -90.570298   45.595554    0.000000    0.000000    0.000000    0.000000
  0.018800000   -4.543315  -21.757700  -90.387096   41.101685    0.000000    0.000000    0.000000    0.000000
  0.019000000   -4.542838  -21.982258  -90.009778   46.804043    0.000000    0.000000    0.000000    0.000000
  0.019200000   -4.542984  -22.208832  -89.648514   45.332203    0.000000    0.000000    0.000000    0.000000
  0.019400000   -4.545060  -22.431828  -90.228795   37.870071    0.000000    0.000000    0.000000    0.000000
  0.019600000   -4.543984  -22.677523  -90.090937   39.643066    0.000000    0.000000    0.000000    0.000000
  0.019800000   -4.545637  -22.905169  -90.597193   40.531742    0.000000    0.000000    0.000000    0.000000
  0.020000000   -4.544935  -23.136114  -90.745300   38.171707    0.000000    0.000000    0.000000    0.000000
  0.020200000   -4.543537  -23.365753  -90.910014   38.444344    0.000000    0.000000    0.000000    0.000000
  0.020400000   -4.543680  -23.592878  -90.895869   36.894646    0.000000    0.000000    0.000000    0.000000
  0.020600000   -4.541245  -23.837090  -90.503310   35.115334    0.000000    0.000000    0.000000    0.000000
  0.020800000   -4.540396  -24.061110  -91.239288   39.702908    0.000000    0.000000    0.000000    0.000000
  0.021000000   -4.539918  -24.306618  -91.274013   32.976170    0.000000    0.000000    0.000000    0.000000
  0.021200000   -4.542783  -24.550112  -91.884572   31.033241    0.000000    0.000000    0.000000    0.000000
  0.021400000   -4.543777  -24.796841  -92.228084   31.123632    0.000000    0.000000    0.000000    0.000000
  0.021600000   -4.541416  -25.022907  -91.984627   32.587879    0.000000    0.000000    0.000000    0.000000
  0.021800000   -4.545006  -25.234213  -91.826719   29.571547    0.000000    0.000000    0.000000    0.000000
  0.022000000   -4.544688  -25.472342  -92.646777   29.026678    0.000000    0.000000    0.000000    0.000000
  0.022200000   -4.545803  -25.706362  -92.508713   26.237320    0.000000    0.000000    0.000000    0.000000
  0.022400000   -4.546358  -25.911795  -92.591275   28.720734    0.000000    0.000000    0.000000    0.000000
  0.022600000   -4.547307  -26.123188  -92.375326   22.856884    0.000000    0.000000    0.000000    0.000000
  0.022800000   -4.548470  -26.340023  -92.598052   27.255718    0.000000    0.000000    0.000000    0.000000
  0.023000000   -4.549421  -26.591785  -93.403285   26.885677    0.000000    0.000000    0.000000    0.000000
  0.023200000   -4.551491  -26.804737  -92.692295   28.706057    0.000000    0.000000    0.000000    0.000000
  0.023400000   -4.548757  -26.971428  -93.069863   32.793297    0.000000    0.000000    0.000000    0.000000
  0.023600000   -4.549470  -27.284697  -95.221517   31.007092    0.000000    0.000000    0.000000    0.000000
  0.023800000   -4.550255  -27.496141  -93.357286   23.501686    0.000000    0.000000    0.000000    0.000000
  0.024000000   -4.548470  -27.747751  -94.692076   26.692665    0.000000    0.000000    0.000000    0.000000
  0.024200000   -4.544214  -27.980234  -94.012999   31.605881    0.000000    0.000000    0.000000    0.000000
  0.024400000   -4.543480  -28.228401  -95.036733   19.529631    0.000000    0.000000    0.000000    0.000000
  0.024600000   -4.545443  -28.469498  -94.967065   34.993568    0.000000    0.000000    0.000000    0.000000
  0.024800000   -4.549359  -28.688747  -94.387537   22.914114    0.000000    0.000000    0.000000    0.000000
  0.025000000   -4.549063  -28.920162  -94.629868   30.794416    0.000000    0.000000    0.000000    0.000000
  0.025200000   -4.549344  -29.155977  -94.388728   24.334875    0.000000    0.000000    0.000000    0.000000
  0.025400000   -4.551613  -29.342106  -94.132395   28.025621    0.000000    0.000000    0.000000    0.000000
  0.025600000   -4.554110  -29.571144  -93.929126   27.633533    0.000000    0.000000    0.000000    0.000000
  0.025800000   -4.556520  -29.740822  -94.925879   26.264343    0.000000    0.000000    0.000000    0.000000
  0.026000000   -4.558453  -29.973001  -95.539419   31.109661    0.000000    0.000000    0.000000    0.000000
  0.026200000   -4.562197  -30.211655  -93.068831   24.033642    0.000000    0.000000    0.000000    0.000000
  0.026400000   -4.566948  -30.430258  -95.231743   29.201429    0.000000    0.000000    0.000000    0.000000
  0.026600000   -4.568780  -30.663647  -93.573913   23.679222    0.000000    0.000000    0.000000    0.000000
  0.026800000   -4.569794  -30.914021  -94.579670   20.001804    0.000000    0.000000    0.000000    0.000000
  0.027000000   -4.571714  -31.161922  -94.385680   22.199293    0.000000    0.000000    0.000000    0.000000
  0.027200000   -4.573137  -31.420626  -94.124690   24.478470    0.000000    0.000000    0.000000    0.000000
  0.027400000   -4.572303  -31.692034  -95.366046   16.908894    0.000000    0.000000    0.000000    0.000000
  0.027600000   -4.571896  -31.941591  -95.251686   15.718511    0.000000    0.000000    0.000000    0.000000
  0.027800000   -4.578530  -32.209591  -95.331159   17.911758    0.000000    0.000000    0.000000    0.000000
  0.028000000   -4.578636  -32.461269  -95.279534   22.471697    0.000000    0.000000    0.000000    0.000000
  0.028200000   -4.581796  -32.717949  -95.687829   19.435820    0.000000    0.000000    0.000000    0.000000
  0.028400000   -4.577730  -32.997620  -96.355748   11.806109    0.000000    0.000000    0.000000    0.000000
  0.028600000   -4.574509  -33.232147  -96.447492   22.022074    0.000000    0.000000    0.000000    0.000000
  0.028800000   -4.571167  -33.451488  -95.922505   10.389305    0.000000    0.000000    0.000000    0.000000
  0.029000000   -4.570002  -33.665165  -96.238555   15.078189    0.000000    0.000000    0.000000    0.000000
  0.029200000   -4.566026  -33.862083  -95.482654   11.022095    0.000000    0.000000    0.000000    0.000000
  0.029400000   -4.567573  -34.057926  -96.034482   11.925975    0.000000    0.000000    0.000000    0.000000
  0.029600000   -4.568087  -34.255634  -96.477409   16.669466    0.000000    0.000000    0.000000    0.000000
  0.029800000   -4.572169  -34.482338  -97.382635   20.580296    0.000000    0.000000    0.000000    0.000000
  0.030000000   -4.577362  -34.692276  -97.651610   22.899412    0.000000    0.000000    0.000000    0.000000
  0.030200000   -4.582655  -34.945728  -96.787584   10.527928    0.000000    0.000000    0.000000    0.000000
  0.030400000   -4.587965  -35.192371  -96.478239   15.419048    0.000000    0.000000    0.000000    0.000000
  0.030600000   -4.587387  -35.460728  -97.135970   14.567940    0.000000    0.000000    0.000000    0.000000
  0.030800000   -4.586453  -35.740704  -98.204245   22.754904    0.000000    0.000000    0.000000    0.000000
  0.031000000   -4.584315  -36.002735  -96.489199   23.582853    0.000000    0.000000    0.000000    0.000000
  0.031200000   -4.581571  -36.223942  -97.769645   12.082803    0.000000    0.000000    0.000000    0.000000
  0.031400000   -4.577292  -36.490883  -96.753384    8.359012    0.000000    0.000000    0.000000    0.000000
  0.031600000   -4.575807  -36.743546  -98.680681   25.088810    0.000000    0.000000    0.000000    0.000000
  0.031800000   -4.574013  -36.964443  -99.571363   22.291656    0.000000    0.000000    0.000000    0.000000
  0.032000000   -4.566632  -37.198704  -97.472447    5.168069    0.000000    0.000000    0.000000    0.000000
  0.032200000   -4.561866  -37.408653  -96.895457   15.322983    0.000000    0.000000    0.000000    0.000000
  0.032400000   -4.555093  -37.619987  -96.611983   14.770350    0.000000    0.000000    0.000000    0.000000
  0.032600000   -4.550578  -37.852329  -96.641605   19.322742    0.000000    0.000000    0.000000    0.000000
  0.032800000   -4.548463  -38.032436  -97.038994   18.130806    0.000000    0.000000    0.000000    0.000000
  0.033000000   -4.545425  -38.231499  -96.128440   15.856217    0.000000    0.000000    0.000000    0.000000
  0.033200000   -4.545874  -38.428722  -97.322253   15.605090    0.000000    0.000000    0.000000    0.000000
  0.033400000   -4.549836  -38.626328  -97.680598    6.752900    0.000000    0.000000    0.000000    0.000000
  0.033600000   -4.552269  -38.838276  -97.276186   14.235924    0.000000    0.000000    0.000000    0.000000
  0.033800000   -4.553365  -39.067619  -98.258447   14.075202    0.000000    0.000000    0.000000    0.000000
  0.034000000   -4.556154  -39.277512  -99.126848    9.617616    0.000000    0.000000    0.000000    0.000000
  0.034200000   -4.559657  -39.532349  -98.624737   10.246975    0.000000    0.000000    0.000000    0.000000
  0.034400000   -4.564770  -39.760853  -97.868133   10.124546    0.000000    0.000000    0.000000    0.000000
  0.034600000   -4.570111  -40.014675  -97.834172    8.675403    0.000000    0.000000    0.000000    0.000000
  0.034800000   -4.573595  -40.258091  -96.999240    0.487770    0.000000    0.000000    0.000000    0.000000
  0.035000000   -4.580050  -40.534641  -97.989021    8.301492    0.000000    0.000000    0.000000    0.000000
  0.035200000   -4.584018  -40.763676  -99.499096    5.136408    0.000000    0.000000    0.000000    0.000000
  0.035400000   -4.587013  -41.028553  -98.379127   13.713891    0.000000    0.000000    0.000000    0.000000
  0.035600000   -4.584589  -41.282295  -98.444268   16.512606    0.000000    0.000000    0.000000    0.000000
  0.035800000   -4.591209  -41.527042 -100.524858   12.277829    0.000000    0.000000    0.000000    0.000000
  0.036000000   -4.589035  -41.777294  -98.486488    2.268131    0.000000    0.000000    0.000000    0.000000
  0.036200000   -4.585636  -42.037205  -99.680630    2.507238    0.000000    0.000000    0.000000    0.000000
  0.036400000   -4.584794  -42.299015  -99.401210    0.990015    0.000000    0.000000    0.000000    0.000000
  0.036600000   -4.580062  -42.528553  -98.992329    6.195877    0.000000    0.000000    0.000000    0.000000
  0.036800000   -4.573325  -42.771015  -99.931667   20.998396    0.000000    0.000000    0.000000    0.000000
  0.037000000   -4.569516  -42.977825 -100.548316   11.545504    0.000000    0.000000    0.000000    0.000000
  0.037200000   -4.567124  -43.169586  -99.624269    4.906810    0.000000    0.000000    0.000000    0.000000
  0.037400000   -4.571174  -43.394512 -100.300044   17.852474    0.000000    0.000000    0.000000    0.000000
  0.037600000   -4.575470  -43.598591 -100.795679    3.487353    0.000000    0.000000    0.000000    0.000000
  0.037800000   -4.579411  -43.817039  -98.339286    6.434900    0.000000    0.000000    0.000000    0.000000
  0.038000000   -4.590705  -44.084900  -97.850374    6.035624    0.000000    0.000000    0.000000    0.000000
  0.038200000   -4.596598  -44.336365  -97.388687    6.924041    0.000000    0.000000    0.000000    0.000000
  0.038400000   -4.600353  -44.604019  -99.189691    6.427553    0.000000    0.000000    0.000000    0.000000
  0.038600000   -4.604830  -44.853439  -98.535860   18.414543    0.000000    0.000000    0.000000    0.000000
  0.038800000   -4.604850  -45.120476  -97.729495   12.974919    0.000000    0.000000    0.000000    0.000000
  0.039000000   -4.600546  -45.380371  -99.469912   20.157467    0.000000    0.000000    0.000000    0.000000
  0.039200000   -4.602436  -45.653618  -99.218932   -0.073630    0.000000    0.000000    0.000000    0.000000
  0.039400000   -4.596746  -45.904114  -99.936588    1.782244    0.000000    0.000000    0.000000    0.000000
  0.039600000   -4.597116  -46.148155  -98.947058   12.490438    0.000000    0.000000    0.000000    0.000000
  0.039800000   -4.587264  -46.390465  -98.251968    6.703249    0.000000    0.000000    0.000000    0.000000
  0.040000000   -4.580739  -46.621948 -100.164392   -7.374100    0.000000    0.000000    0.000000    0.000000
  0.040200000   -4.577779  -46.825657 -101.017196    3.008816    0.000000    0.000000    0.000000    0.000000
  0.040400000   -4.572752  -47.027870 -101.191493    4.428729    0.000000    0.000000    0.000000    0.000000
  0.040600000   -4.572376  -47.234642  -99.875592    7.787663    0.000000    0.000000    0.000000    0.000000
  0.040800000   -4.571792  -47.419186 -103.501539    7.091994    0.000000    0.000000    0.000000    0.000000
  0.041000000   -4.572415  -47.597858 -101.366388   11.651712    0.000000    0.000000    0.000000    0.000000
  0.041200000   -4.577319  -47.829819  -99.809743    8.646041    0.000000    0.000000    0.000000    0.000000
  0.041400000   -4.583070  -48.040379 -100.785960   14.710805    0.000000    0.000000    0.000000    0.000000
  0.041600000   -4.586854  -48.271370 -101.300127    1.695894    0.000000    0.000000    0.000000    0.000000
  0.041800000   -4.588491  -48.497269 -101.735835   13.837045    0.000000    0.000000    0.000000    0.000000
  0.042000000   -4.596931  -48.747257 -102.056645   13.616515    0.000000    0.000000    0.000000    0.000000
  0.042200000   -4.594640  -48.972252 -107.772451   21.215834    0.000000    0.000000    0.000000    0.000000
  0.042400000   -4.600843  -49.189354  -99.753605   -9.582136    0.000000    0.000000    0.000000    0.000000
  0.042600000   -4.601351  -49.437763 -105.760126   25.585117    0.000000    0.000000    0.000000    0.000000
  0.042800000   -4.600689  -49.654163 -103.831426    8.549910    0.000000    0.000000    0.000000    0.000000
