! Anritsu VNA Master:                     Model: MS2036C/10/77
! SN:                                  1601066
! /card0/usr/256.ew.sma.me.s2p
! Existing Calibration Information:
! TYPE:                         Current Settings,       Active Cal Settings
! TIME:             	   12/19/2017 02:37:42 PM,    12/19/2017 02:22:10 PM
! INTERNAL TEMP:    	                   46.3 C,                    45.0 C
! # POINTS:         	                      501,                       501
! START FREQ:       	               10.000 MHz,                10.000 MHz
! STOP FREQ:        	              110.000 MHz,               110.000 MHz
! SOURCE POWER:     	                     High,                      High
! IFBW:             	                   100 Hz,                    100 Hz
! AVG FACTOR:       	                       1 ,                        1 
! REF PLANE 1:      	                     0 mm,                      0 mm
! REF PLANE 2:      	                     0 mm,                      0 mm
! CAL TYPE:         	                 Full S11,                  Full S11
! CAL METHOD:       	                     SOLT,                      SOLT
! CAL LINE TYPE:    	                     Coax,                      Coax
! DUT PORT 1:       	                N-Conn(F),                 N-Conn(F)
! DUT PORT 2:       	                K-Conn(F),                 K-Conn(F)
! CAL STATUS:       	        OK: Accuracy High,                        --
# GHZ S RI R 50.0
! FREQ.GHZ      S11RE         S11IM         S21RE         S21IM         S12RE         S12IM         S22RE         S22IM
  0.010000000  4.807600E-01 -7.991560E-01  5.655940E-06  5.130830E-05  1.000000E+00  0.000000E+00  1.000000E+00  0.000000E+00
  0.010200000  4.641840E-01 -8.106340E-01  5.890240E-06  5.807860E-05  1.000000E+00  0.000000E+00  1.000000E+00  0.000000E+00
  0.010400000  4.468050E-01 -8.201960E-01  7.531590E-06  5.894560E-05  1.000000E+00  0.000000E+00  1.000000E+00  0.000000E+00
  0.010600000  4.280250E-01 -8.297300E-01  4.857970E-06  6.063340E-05  1.000000E+00  0.000000E+00  1.000000E+00  0.000000E+00
  0.010800000  4.089570E-01 -8.391830E-01  8.485690E-06  6.155860E-05  1.000000E+00  0.000000E+00  1.000000E+00  0.000000E+00
  0.011000000  3.903650E-01 -8.478850E-01  1.015750E-05  6.043550E-05  1.000000E+00  0.000000E+00  1.000000E+00  0.000000E+00
  0.011200000  3.713290E-01 -8.566260E-01  1.019700E-05  6.214150E-05  1.000000E+00  0.000000E+00  1.000000E+00  0.000000E+00
  0.011400000  3.523840E-01 -8.641960E-01  1.221470E-05  6.337090E-05  1.000000E+00  0.000000E+00  1.000000E+00  0.000000E+00
  0.011600000  3.331500E-01 -8.715820E-01  9.678670E-06  6.262650E-05  1.000000E+00  0.000000E+00  1.000000E+00  0.000000E+00
  0.011800000  3.142720E-01 -8.791540E-01  1.859170E-05  6.297130E-05  1.000000E+00  0.000000E+00  1.000000E+00  0.000000E+00
  0.012000000  2.945330E-01 -8.859350E-01  1.832120E-05  6.094210E-05  1.000000E+00  0.000000E+00  1.000000E+00  0.000000E+00
  0.012200000  2.747650E-01 -8.925770E-01  2.433940E-05  6.047770E-05  1.000000E+00  0.000000E+00  1.000000E+00  0.000000E+00
  0.012400000  2.545730E-01 -8.987080E-01  2.496760E-05  5.687030E-05  1.000000E+00  0.000000E+00  1.000000E+00  0.000000E+00
  0.012600000  2.344930E-01 -9.045380E-01  2.776390E-05  5.284140E-05  1.000000E+00  0.000000E+00  1.000000E+00  0.000000E+00
  0.012800000  2.144380E-01 -9.096320E-01  3.205620E-05  5.267680E-05  1.000000E+00  0.000000E+00  1.000000E+00  0.000000E+00
  0.013000000  1.938340E-01 -9.142260E-01  3.058410E-05  4.921950E-05  1.000000E+00  0.000000E+00  1.000000E+00  0.000000E+00
  0.013200000  1.734260E-01 -9.184700E-01  3.191180E-05  4.432100E-05  1.000000E+00  0.000000E+00  1.000000E+00  0.000000E+00
  0.013400000  1.524330E-01 -9.226170E-01  3.333740E-05  4.494750E-05  1.000000E+00  0.000000E+00  1.000000E+00  0.000000E+00
  0.013600000  1.320120E-01 -9.262980E-01  3.405030E-05  4.369680E-05  1.000000E+00  0.000000E+00  1.000000E+00  0.000000E+00
  0.013800000  1.112370E-01 -9.289610E-01  3.187340E-05  3.770950E-05  1.000000E+00  0.000000E+00  1.000000E+00  0.000000E+00
  0.014000000  8.997080E-02 -9.315030E-01  3.202470E-05  3.418280E-05  1.000000E+00  0.000000E+00  1.000000E+00  0.000000E+00
  0.014200000  6.846720E-02 -9.333200E-01  3.079980E-05  3.081580E-05  1.000000E+00  0.000000E+00  1.000000E+00  0.000000E+00
  0.014400000  4.719250E-02 -9.342860E-01  3.059260E-05  3.022050E-05  1.000000E+00  0.000000E+00  1.000000E+00  0.000000E+00
  0.014600000  2.548750E-02 -9.345560E-01  2.543840E-05  2.914350E-05  1.000000E+00  0.000000E+00  1.000000E+00  0.000000E+00
  0.014800000  3.453650E-03 -9.346860E-01  2.629530E-05  2.987860E-05  1.000000E+00  0.000000E+00  1.000000E+00  0.000000E+00
  0.015000000 -1.825970E-02 -9.341660E-01  2.509170E-05  2.654660E-05  1.000000E+00  0.000000E+00  1.000000E+00  0.000000E+00
  0.015200000 -4.021370E-02 -9.335760E-01  2.317550E-05  2.435280E-05  1.000000E+00  0.000000E+00  1.000000E+00  0.000000E+00
  0.015400000 -6.211990E-02 -9.325530E-01  1.886280E-05  2.563640E-05  1.000000E+00  0.000000E+00  1.000000E+00  0.000000E+00
  0.015600000 -8.441410E-02 -9.320840E-01  2.337290E-05  2.816250E-05  1.000000E+00  0.000000E+00  1.000000E+00  0.000000E+00
  0.015800000 -1.056470E-01 -9.294330E-01  1.983520E-05  2.684060E-05  1.000000E+00  0.000000E+00  1.000000E+00  0.000000E+00
  0.016000000 -1.271410E-01 -9.264080E-01  1.901880E-05  2.618040E-05  1.000000E+00  0.000000E+00  1.000000E+00  0.000000E+00
  0.016200000 -1.491710E-01 -9.233340E-01  1.953530E-05  2.705920E-05  1.000000E+00  0.000000E+00  1.000000E+00  0.000000E+00
  0.016400000 -1.710970E-01 -9.195130E-01  1.742180E-05  3.049670E-05  1.000000E+00  0.000000E+00  1.000000E+00  0.000000E+00
  0.016600000 -1.934770E-01 -9.155330E-01  1.967600E-05  2.547860E-05  1.000000E+00  0.000000E+00  1.000000E+00  0.000000E+00
  0.016800000 -2.154770E-01 -9.104970E-01  1.751720E-05  2.610760E-05  1.000000E+00  0.000000E+00  1.000000E+00  0.000000E+00
  0.017000000 -2.378390E-01 -9.051770E-01  2.018790E-05  2.872470E-05  1.000000E+00  0.000000E+00  1.000000E+00  0.000000E+00
  0.017200000 -2.594650E-01 -8.993630E-01  2.197660E-05  2.968320E-05  1.000000E+00  0.000000E+00  1.000000E+00  0.000000E+00
  0.017400000 -2.807890E-01 -8.923220E-01  2.208920E-05  2.818710E-05  1.000000E+00  0.000000E+00  1.000000E+00  0.000000E+00
  0.017600000 -3.020290E-01 -8.849390E-01  2.402960E-05  2.804930E-05  1.000000E+00  0.000000E+00  1.000000E+00  0.000000E+00
  0.017800000 -3.232130E-01 -8.772820E-01  2.300490E-05  2.734670E-05  1.000000E+00  0.000000E+00  1.000000E+00  0.000000E+00
  0.018000000 -3.441660E-01 -8.683560E-01  2.545450E-05  2.623760E-05  1.000000E+00  0.000000E+00  1.000000E+00  0.000000E+00
  0.018200000 -3.653500E-01 -8.598120E-01  2.297930E-05  2.329170E-05  1.000000E+00  0.000000E+00  1.000000E+00  0.000000E+00
  0.018400000 -3.865080E-01 -8.502420E-01  2.492290E-05  2.494050E-05  1.000000E+00  0.000000E+00  1.000000E+00  0.000000E+00
  0.018600000 -4.073380E-01 -8.404680E-01  2.645780E-05  2.125870E-05  1.000000E+00  0.000000E+00  1.000000E+00  0.000000E+00
  0.018800000 -4.279640E-01 -8.300320E-01  2.415030E-05  2.041400E-05  1.000000E+00  0.000000E+00  1.000000E+00  0.000000E+00
  0.019000000 -4.484100E-01 -8.189430E-01  2.557820E-05  2.033970E-05  1.000000E+00  0.000000E+00  1.000000E+00  0.000000E+00
  0.019200000 -4.684440E-01 -8.073960E-01  2.432150E-05  2.379870E-05  1.000000E+00  0.000000E+00  1.000000E+00  0.000000E+00
  0.019400000 -4.884800E-01 -7.947000E-01  2.691240E-05  1.559350E-05  1.000000E+00  0.000000E+00  1.000000E+00  0.000000E+00
  0.019600000 -5.085980E-01 -7.821760E-01  2.370970E-05  1.627960E-05  1.000000E+00  0.000000E+00  1.000000E+00  0.000000E+00
  0.019800000 -5.286010E-01 -7.688040E-01  2.482330E-05  1.504360E-05  1.000000E+00  0.000000E+00  1.000000E+00  0.000000E+00
  0.020000000 -5.482350E-01 -7.552390E-01  2.342100E-05  1.562030E-05  1.000000E+00  0.000000E+00  1.000000E+00  0.000000E+00
  0.020200000 -5.672080E-01 -7.414540E-01  2.437050E-05  1.327180E-05  1.000000E+00  0.000000E+00  1.000000E+00  0.000000E+00
  0.020400000 -5.856770E-01 -7.266590E-01  1.978470E-05  1.260190E-05  1.000000E+00  0.000000E+00  1.000000E+00  0.000000E+00
  0.020600000 -6.039820E-01 -7.111780E-01  2.232540E-05  1.081340E-05  1.000000E+00  0.000000E+00  1.000000E+00  0.000000E+00
  0.020800000 -6.218610E-01 -6.947700E-01  1.800700E-05  1.220220E-05  1.000000E+00  0.000000E+00  1.000000E+00  0.000000E+00
  0.021000000 -6.393960E-01 -6.777780E-01  2.108970E-05  1.317600E-05  1.000000E+00  0.000000E+00  1.000000E+00  0.000000E+00
  0.021200000 -6.567240E-01 -6.599500E-01  2.039740E-05  1.391160E-05  1.000000E+00  0.000000E+00  1.000000E+00  0.000000E+00
  0.021400000 -6.737970E-01 -6.416910E-01  1.952440E-05  1.192980E-05  1.000000E+00  0.000000E+00  1.000000E+00  0.000000E+00
  0.021600000 -6.900810E-01 -6.234010E-01  1.580380E-05  1.102340E-05  1.000000E+00  0.000000E+00  1.000000E+00  0.000000E+00
  0.021800000 -7.061450E-01 -6.042290E-01  1.834890E-05  1.426980E-05  1.000000E+00  0.000000E+00  1.000000E+00  0.000000E+00
  0.022000000 -7.213430E-01 -5.845780E-01  1.770780E-05  1.122180E-05  1.000000E+00  0.000000E+00  1.000000E+00  0.000000E+00
  0.022200000 -7.367740E-01 -5.646410E-01  1.699330E-05  1.296500E-05  1.000000E+00  0.000000E+00  1.000000E+00  0.000000E+00
  0.022400000 -7.518390E-01 -5.438170E-01  1.908140E-05  1.657630E-05  1.000000E+00  0.000000E+00  1.000000E+00  0.000000E+00
  0.022600000 -7.660190E-01 -5.223920E-01  1.822150E-05  1.213080E-05  1.000000E+00  0.000000E+00  1.000000E+00  0.000000E+00
  0.022800000 -7.795890E-01 -5.004620E-01  1.771630E-05  1.306020E-05  1.000000E+00  0.000000E+00  1.000000E+00  0.000000E+00
  0.023000000 -7.933410E-01 -4.787470E-01  1.936110E-05  1.355270E-05  1.000000E+00  0.000000E+00  1.000000E+00  0.000000E+00
  0.023200000 -8.058980E-01 -4.564520E-01  1.816130E-05  1.149540E-05  1.000000E+00  0.000000E+00  1.000000E+00  0.000000E+00
  0.023400000 -8.185310E-01 -4.332410E-01  1.768790E-05  1.328770E-05  1.000000E+00  0.000000E+00  1.000000E+00  0.000000E+00
  0.023600000 -8.291530E-01 -4.105870E-01  2.090260E-05  1.276110E-05  1.000000E+00  0.000000E+00  1.000000E+00  0.000000E+00
  0.023800000 -8.392860E-01 -3.867030E-01  1.712800E-05  1.257640E-05  1.000000E+00  0.000000E+00  1.000000E+00  0.000000E+00
  0.024000000 -8.490050E-01 -3.625730E-01  2.081600E-05  1.136090E-05  1.000000E+00  0.000000E+00  1.000000E+00  0.000000E+00
  0.024200000 -8.581830E-01 -3.377110E-01  1.937780E-05  1.097840E-05  1.000000E+00  0.000000E+00  1.000000E+00  0.000000E+00
  0.024400000 -8.665990E-01 -3.122750E-01  2.013540E-05  1.154090E-05  1.000000E+00  0.000000E+00  1.000000E+00  0.000000E+00
  0.024600000 -8.743360E-01 -2.870540E-01  1.912120E-05  9.719450E-06  1.000000E+00  0.000000E+00  1.000000E+00  0.000000E+00
  0.024800000 -8.812630E-01 -2.615900E-01  1.675310E-05  9.214330E-06  1.000000E+00  0.000000E+00  1.000000E+00  0.000000E+00
  0.025000000 -8.872570E-01 -2.359630E-01  1.949230E-05  9.028390E-06  1.000000E+00  0.000000E+00  1.000000E+00  0.000000E+00
  0.025200000 -8.924610E-01 -2.099190E-01  1.646280E-05  6.492950E-06  1.000000E+00  0.000000E+00  1.000000E+00  0.000000E+00
  0.025400000 -8.968620E-01 -1.834350E-01  1.651510E-05  7.336070E-06  1.000000E+00  0.000000E+00  1.000000E+00  0.000000E+00
  0.025600000 -9.004600E-01 -1.562980E-01  1.793140E-05  6.284990E-06  1.000000E+00  0.000000E+00  1.000000E+00  0.000000E+00
  0.025800000 -9.035650E-01 -1.292920E-01  1.663830E-05  3.279550E-06  1.000000E+00  0.000000E+00  1.000000E+00  0.000000E+00
  0.026000000 -9.059600E-01 -1.019070E-01  1.907490E-05  4.234660E-06  1.000000E+00  0.000000E+00  1.000000E+00  0.000000E+00
  0.026200000 -9.075260E-01 -7.471300E-02  1.506370E-05  3.328910E-06  1.000000E+00  0.000000E+00  1.000000E+00  0.000000E+00
  0.026400000 -9.078100E-01 -4.739230E-02  1.898840E-05  4.598850E-06  1.000000E+00  0.000000E+00  1.000000E+00  0.000000E+00
  0.026600000 -9.073850E-01 -1.982550E-02  1.851910E-05  5.827100E-06  1.000000E+00  0.000000E+00  1.000000E+00  0.000000E+00
  0.026800000 -9.059360E-01  7.766350E-03  1.597790E-05  6.711420E-06  1.000000E+00  0.000000E+00  1.000000E+00  0.000000E+00
  0.027000000 -9.034380E-01  3.544220E-02  1.545170E-05  5.435260E-06  1.000000E+00  0.000000E+00  1.000000E+00  0.000000E+00
  0.027200000 -9.002410E-01  6.320020E-02  1.360140E-05  6.084050E-06  1.000000E+00  0.000000E+00  1.000000E+00  0.000000E+00
  0.027400000 -8.961980E-01  9.113100E-02  1.525370E-05  5.685300E-06  1.000000E+00  0.000000E+00  1.000000E+00  0.000000E+00
  0.027600000 -8.913210E-01  1.188030E-01  1.542960E-05  4.830240E-06  1.000000E+00  0.000000E+00  1.000000E+00  0.000000E+00
  0.027800000 -8.852240E-01  1.464100E-01  1.571020E-05  5.500930E-06  1.000000E+00  0.000000E+00  1.000000E+00  0.000000E+00
  0.028000000 -8.780970E-01  1.739870E-01  1.374980E-05  4.555850E-06  1.000000E+00  0.000000E+00  1.000000E+00  0.000000E+00
  0.028200000 -8.698830E-01  2.012890E-01  1.409350E-05  6.687250E-06  1.000000E+00  0.000000E+00  1.000000E+00  0.000000E+00
  0.028400000 -8.607840E-01  2.282170E-01  1.352550E-05  6.498780E-06  1.000000E+00  0.000000E+00  1.000000E+00  0.000000E+00
  0.028600000 -8.512640E-01  2.551770E-01  1.530300E-05  5.780320E-06  1.000000E+00  0.000000E+00  1.000000E+00  0.000000E+00
  0.028800000 -8.408080E-01  2.814680E-01  1.459530E-05  5.877960E-06  1.000000E+00  0.000000E+00  1.000000E+00  0.000000E+00
  0.029000000 -8.295770E-01  3.073000E-01  1.656050E-05  5.716070E-06  1.000000E+00  0.000000E+00  1.000000E+00  0.000000E+00
  0.029200000 -8.173860E-01  3.328640E-01  1.390570E-05  7.395080E-06  1.000000E+00  0.000000E+00  1.000000E+00  0.000000E+00
  0.029400000 -8.042950E-01  3.577630E-01  1.494920E-05  8.157430E-06  1.000000E+00  0.000000E+00  1.000000E+00  0.000000E+00
  0.029600000 -7.898790E-01  3.823750E-01  1.347810E-05  2.726520E-06  1.000000E+00  0.000000E+00  1.000000E+00  0.000000E+00
  0.029800000 -7.742890E-01  4.065540E-01  1.778260E-05  3.065170E-06  1.000000E+00  0.000000E+00  1.000000E+00  0.000000E+00
  0.030000000 -7.577490E-01  4.305190E-01  1.551770E-05  5.516400E-06  1.000000E+00  0.000000E+00  1.000000E+00  0.000000E+00
  0.030200000 -7.404620E-01  4.542370E-01  1.512290E-05  4.710780E-06  1.000000E+00  0.000000E+00  1.000000E+00  0.000000E+00
  0.030400000 -7.221760E-01  4.773320E-01  1.284490E-05  1.471790E-06  1.000000E+00  0.000000E+00  1.000000E+00  0.000000E+00
  0.030600000 -7.031920E-01  4.994320E-01  1.339280E-05  4.099670E-06  1.000000E+00  0.000000E+00  1.000000E+00  0.000000E+00
  0.030800000 -6.835380E-01  5.206780E-01  1.542710E-05  4.406480E-06  1.000000E+00  0.000000E+00  1.000000E+00  0.000000E+00
  0.031000000 -6.628700E-01  5.414060E-01  1.346840E-05  1.253250E-06  1.000000E+00  0.000000E+00  1.000000E+00  0.000000E+00
  0.031200000 -6.422920E-01  5.614340E-01  1.330050E-05  3.742600E-06  1.000000E+00  0.000000E+00  1.000000E+00  0.000000E+00
  0.031400000 -6.195300E-01  5.801810E-01  1.464050E-05  2.871590E-06  1.000000E+00  0.000000E+00  1.000000E+00  0.000000E+00
  0.031600000 -5.959900E-01  5.992820E-01  1.388640E-05  3.379800E-06  1.000000E+00  0.000000E+00  1.000000E+00  0.000000E+00
  0.031800000 -5.724670E-01  6.172360E-01  1.411150E-05  2.801150E-06  1.000000E+00  0.000000E+00  1.000000E+00  0.000000E+00
  0.032000000 -5.483250E-01  6.341590E-01  1.254470E-05  2.943840E-06  1.000000E+00  0.000000E+00  1.000000E+00  0.000000E+00
  0.032200000 -5.238850E-01  6.502090E-01  1.088850E-05  2.482770E-06  1.000000E+00  0.000000E+00  1.000000E+00  0.000000E+00
  0.032400000 -4.992610E-01  6.654480E-01  1.325610E-05  2.951020E-06  1.000000E+00  0.000000E+00  1.000000E+00  0.000000E+00
  0.032600000 -4.740400E-01  6.795340E-01  1.207020E-05  5.651920E-06  1.000000E+00  0.000000E+00  1.000000E+00  0.000000E+00
  0.032800000 -4.484760E-01  6.924380E-01  1.124890E-05  1.929460E-06  1.000000E+00  0.000000E+00  1.000000E+00  0.000000E+00
  0.033000000 -4.221430E-01  7.038510E-01  1.407120E-05  5.560970E-07  1.000000E+00  0.000000E+00  1.000000E+00  0.000000E+00
  0.033200000 -3.954940E-01  7.139350E-01  1.023520E-05  1.859560E-06  1.000000E+00  0.000000E+00  1.000000E+00  0.000000E+00
  0.033400000 -3.677750E-01  7.235480E-01  1.374670E-05  7.437540E-07  1.000000E+00  0.000000E+00  1.000000E+00  0.000000E+00
  0.033600000 -3.401200E-01  7.314410E-01  1.157580E-05  2.464270E-06  1.000000E+00  0.000000E+00  1.000000E+00  0.000000E+00
  0.033800000 -3.118700E-01  7.387280E-01  1.276640E-05  3.168140E-06  1.000000E+00  0.000000E+00  1.000000E+00  0.000000E+00
  0.034000000 -2.832010E-01  7.456550E-01  9.538760E-06  3.362860E-06  1.000000E+00  0.000000E+00  1.000000E+00  0.000000E+00
  0.034200000 -2.536710E-01  7.507820E-01  1.228870E-05  3.389760E-06  1.000000E+00  0.000000E+00  1.000000E+00  0.000000E+00
  0.034400000 -2.244910E-01  7.552530E-01  1.192940E-05  4.310930E-06  1.000000E+00  0.000000E+00  1.000000E+00  0.000000E+00
  0.034600000 -1.950020E-01  7.590050E-01  1.215800E-05  1.593930E-06  1.000000E+00  0.000000E+00  1.000000E+00  0.000000E+00
  0.034800000 -1.661660E-01  7.620160E-01  1.129060E-05  4.400690E-06  1.000000E+00  0.000000E+00  1.000000E+00  0.000000E+00
  0.035000000 -1.372260E-01  7.636640E-01  1.107890E-05  8.992680E-07  1.000000E+00  0.000000E+00  1.000000E+00  0.000000E+00
  0.035200000 -1.084670E-01  7.648100E-01  1.227460E-05  5.266490E-06  1.000000E+00  0.000000E+00  1.000000E+00  0.000000E+00
  0.035400000 -7.984200E-02  7.640510E-01  1.169980E-05  3.218680E-06  1.000000E+00  0.000000E+00  1.000000E+00  0.000000E+00
  0.035600000 -5.187800E-02  7.627090E-01  1.194450E-05  2.382510E-06  1.000000E+00  0.000000E+00  1.000000E+00  0.000000E+00
  0.035800000 -2.401490E-02  7.606020E-01  1.078510E-05  3.595670E-06  1.000000E+00  0.000000E+00  1.000000E+00  0.000000E+00
  0.036000000  3.197960E-03  7.571250E-01  1.195340E-05  4.271560E-06  1.000000E+00  0.000000E+00  1.000000E+00  0.000000E+00
  0.036200000  2.992680E-02  7.522100E-01  1.294310E-05  5.795710E-07  1.000000E+00  0.000000E+00  1.000000E+00  0.000000E+00
  0.036400000  5.644760E-02  7.463480E-01  9.462280E-06  1.677990E-06  1.000000E+00  0.000000E+00  1.000000E+00  0.000000E+00
  0.036600000  8.243410E-02  7.392430E-01  1.050010E-05  4.700030E-06  1.000000E+00  0.000000E+00  1.000000E+00  0.000000E+00
  0.036800000  1.077760E-01  7.312800E-01  1.014980E-05  2.715260E-07  1.000000E+00  0.000000E+00  1.000000E+00  0.000000E+00
  0.037000000  1.333080E-01  7.219540E-01  1.264160E-05  1.303730E-06  1.000000E+00  0.000000E+00  1.000000E+00  0.000000E+00
  0.037200000  1.584510E-01  7.117760E-01  1.243380E-05  1.561800E-06  1.000000E+00  0.000000E+00  1.000000E+00  0.000000E+00
  0.037400000  1.827670E-01  7.000690E-01  1.187280E-05  3.530380E-06  1.000000E+00  0.000000E+00  1.000000E+00  0.000000E+00
  0.037600000  2.071960E-01  6.882910E-01  1.080890E-05  4.101280E-07  1.000000E+00  0.000000E+00  1.000000E+00  0.000000E+00
  0.037800000  2.309840E-01  6.753210E-01  1.098670E-05  1.239310E-06  1.000000E+00  0.000000E+00  1.000000E+00  0.000000E+00
  0.038000000  2.543420E-01  6.616750E-01  8.878600E-06 -5.494500E-07  1.000000E+00  0.000000E+00  1.000000E+00  0.000000E+00
  0.038200000  2.772930E-01  6.472250E-01  1.134130E-05  2.618770E-06  1.000000E+00  0.000000E+00  1.000000E+00  0.000000E+00
  0.038400000  2.997630E-01  6.324890E-01  1.236060E-05  2.434100E-06  1.000000E+00  0.000000E+00  1.000000E+00  0.000000E+00
  0.038600000  3.211040E-01  6.173170E-01  1.028940E-05  4.057670E-06  1.000000E+00  0.000000E+00  1.000000E+00  0.000000E+00
