! Anritsu VNA Master:                     Model: MS2036C/10/77
! SN:                                  1601066
! /card0/usr/256.ns.sma.r50.21.s2p
! Existing Calibration Information:
! TYPE:                         Current Settings,       Active Cal Settings
! TIME:             	   12/19/2017 03:49:35 PM,    12/19/2017 03:30:41 PM
! INTERNAL TEMP:    	                   47.3 C,                    48.0 C
! # POINTS:         	                      501,                       501
! START FREQ:       	               10.000 MHz,                10.000 MHz
! STOP FREQ:        	              110.000 MHz,               110.000 MHz
! SOURCE POWER:     	                     High,                      High
! IFBW:             	                   100 Hz,                    100 Hz
! AVG FACTOR:       	                       1 ,                        1 
! REF PLANE 1:      	                     0 mm,                      0 mm
! REF PLANE 2:      	                     0 mm,                      0 mm
! CAL TYPE:         	                 Full S11,                  Full S11
! CAL METHOD:       	                     SOLT,                      SOLT
! CAL LINE TYPE:    	                     Coax,                      Coax
! DUT PORT 1:       	                N-Conn(F),                 N-Conn(F)
! DUT PORT 2:       	                K-Conn(F),                 K-Conn(F)
! CAL STATUS:       	        OK: Accuracy High,                        --
# GHZ S DB R 50.0
! FREQ.GHZ       S11DB        S11A       S21DB        S21A       S12DB        S12A       S22DB        S22A
  0.010000000  -98.050216  -18.148609  -83.211260   75.076225    0.000000    0.000000    0.000000    0.000000
  0.010200000  -97.834165  -20.663912  -83.694535   75.472084    0.000000    0.000000    0.000000    0.000000
  0.010400000  -97.933821  -14.454398  -83.388940   75.609543    0.000000    0.000000    0.000000    0.000000
  0.010600000  -97.099639  -14.910062  -83.685536   74.126709    0.000000    0.000000    0.000000    0.000000
  0.010800000  -97.017623  -16.569098  -83.886243   71.757439    0.000000    0.000000    0.000000    0.000000
  0.011000000  -97.158232  -15.952971  -84.098176   70.782364    0.000000    0.000000    0.000000    0.000000
  0.011200000  -96.372628  -14.846487  -84.148830   72.040512    0.000000    0.000000    0.000000    0.000000
  0.011400000  -96.549716  -16.580130  -84.726456   69.860886    0.000000    0.000000    0.000000    0.000000
  0.011600000  -96.470806  -21.462576  -84.595408   68.526764    0.000000    0.000000    0.000000    0.000000
  0.011800000  -96.418325  -16.675917  -85.121499   68.477341    0.000000    0.000000    0.000000    0.000000
  0.012000000  -96.443244  -19.664587  -85.281613   67.279778    0.000000    0.000000    0.000000    0.000000
  0.012200000  -95.557436  -20.393316  -85.412686   65.610260    0.000000    0.000000    0.000000    0.000000
  0.012400000  -95.643930  -20.095572  -85.471262   64.579948    0.000000    0.000000    0.000000    0.000000
  0.012600000  -95.823062  -20.255486  -85.635083   65.385124    0.000000    0.000000    0.000000    0.000000
  0.012800000  -95.329468  -21.764061  -85.768643   63.316422    0.000000    0.000000    0.000000    0.000000
  0.013000000  -95.085798  -22.396662  -86.227695   63.480659    0.000000    0.000000    0.000000    0.000000
  0.013200000  -95.096296  -24.835241  -86.402910   57.945953    0.000000    0.000000    0.000000    0.000000
  0.013400000  -95.005454  -24.804516  -85.938663   62.733246    0.000000    0.000000    0.000000    0.000000
  0.013600000  -94.783241  -24.317888  -86.874697   59.689590    0.000000    0.000000    0.000000    0.000000
  0.013800000  -94.776900  -23.566778  -86.529154   57.426228    0.000000    0.000000    0.000000    0.000000
  0.014000000  -94.347729  -26.685966  -86.720240   57.905975    0.000000    0.000000    0.000000    0.000000
  0.014200000  -93.766017  -25.917995  -87.103384   57.642902    0.000000    0.000000    0.000000    0.000000
  0.014400000  -93.710800  -27.318867  -87.213463   55.161674    0.000000    0.000000    0.000000    0.000000
  0.014600000  -93.831238  -25.741434  -87.189324   53.214714    0.000000    0.000000    0.000000    0.000000
  0.014800000  -93.297359  -28.718596  -87.567955   53.871143    0.000000    0.000000    0.000000    0.000000
  0.015000000  -93.089327  -27.482222  -87.188962   53.427677    0.000000    0.000000    0.000000    0.000000
  0.015200000  -93.025725  -29.239948  -87.590056   54.217140    0.000000    0.000000    0.000000    0.000000
  0.015400000  -92.815103  -28.677803  -87.780715   50.691368    0.000000    0.000000    0.000000    0.000000
  0.015600000  -92.409857  -29.596972  -87.412685   48.724224    0.000000    0.000000    0.000000    0.000000
  0.015800000  -92.312901  -30.775385  -88.210581   53.093208    0.000000    0.000000    0.000000    0.000000
  0.016000000  -92.073314  -31.065144  -88.759724   49.168106    0.000000    0.000000    0.000000    0.000000
  0.016200000  -91.448685  -32.299011  -88.296227   48.101902    0.000000    0.000000    0.000000    0.000000
  0.016400000  -91.610856  -31.462030  -88.490410   47.973793    0.000000    0.000000    0.000000    0.000000
  0.016600000  -91.513342  -31.804502  -89.536308   49.280121    0.000000    0.000000    0.000000    0.000000
  0.016800000  -91.035944  -32.901421  -88.854689   44.105797    0.000000    0.000000    0.000000    0.000000
  0.017000000  -90.820568  -32.303204  -88.674322   49.496521    0.000000    0.000000    0.000000    0.000000
  0.017200000  -90.456960  -30.243172  -89.531767   47.458126    0.000000    0.000000    0.000000    0.000000
  0.017400000  -90.614467  -31.638624  -89.334592   48.406738    0.000000    0.000000    0.000000    0.000000
  0.017600000  -90.242690  -31.188068  -89.770937   44.816570    0.000000    0.000000    0.000000    0.000000
  0.017800000  -90.230714  -29.772877  -90.169267   44.277554    0.000000    0.000000    0.000000    0.000000
  0.018000000  -89.811310  -31.544050  -89.739062   42.070107    0.000000    0.000000    0.000000    0.000000
  0.018200000  -89.762670  -30.694870  -89.434877   38.750088    0.000000    0.000000    0.000000    0.000000
  0.018400000  -89.413448  -29.539759  -90.355545   39.529549    0.000000    0.000000    0.000000    0.000000
  0.018600000  -89.453402  -28.866831  -90.125061   42.038628    0.000000    0.000000    0.000000    0.000000
  0.018800000  -89.048764  -28.635628  -89.708559   41.241585    0.000000    0.000000    0.000000    0.000000
  0.019000000  -88.949495  -29.835283  -91.063426   42.060501    0.000000    0.000000    0.000000    0.000000
  0.019200000  -89.006310  -27.186794  -91.480518   41.414322    0.000000    0.000000    0.000000    0.000000
  0.019400000  -88.751301  -26.716846  -90.814056   36.848484    0.000000    0.000000    0.000000    0.000000
  0.019600000  -88.690509  -26.206152  -91.304139   39.851616    0.000000    0.000000    0.000000    0.000000
  0.019800000  -88.525283  -26.748093  -90.973824   40.074135    0.000000    0.000000    0.000000    0.000000
  0.020000000  -88.448868  -27.327223  -91.075022   43.637192    0.000000    0.000000    0.000000    0.000000
  0.020200000  -88.438055  -27.228586  -90.824354   37.569309    0.000000    0.000000    0.000000    0.000000
  0.020400000  -88.281257  -26.545906  -91.370552   34.627796    0.000000    0.000000    0.000000    0.000000
  0.020600000  -88.619183  -27.604170  -92.158840   38.320911    0.000000    0.000000    0.000000    0.000000
  0.020800000  -88.030444  -26.371284  -91.565348   33.512611    0.000000    0.000000    0.000000    0.000000
  0.021000000  -87.958288  -27.782570  -92.525426   33.447041    0.000000    0.000000    0.000000    0.000000
  0.021200000  -87.927539  -28.458487  -92.725471   36.035507    0.000000    0.000000    0.000000    0.000000
  0.021400000  -87.706692  -28.261272  -91.375164   32.659161    0.000000    0.000000    0.000000    0.000000
  0.021600000  -87.684025  -29.439257  -92.392381   33.369984    0.000000    0.000000    0.000000    0.000000
  0.021800000  -87.754074  -29.256586  -91.621490   33.356228    0.000000    0.000000    0.000000    0.000000
  0.022000000  -87.593348  -29.190788  -92.368009   38.079208    0.000000    0.000000    0.000000    0.000000
  0.022200000  -87.397406  -30.290913  -92.368979   30.483551    0.000000    0.000000    0.000000    0.000000
  0.022400000  -87.360843  -29.585005  -92.709634   29.312057    0.000000    0.000000    0.000000    0.000000
  0.022600000  -87.204098  -30.818899  -93.463293   33.620739    0.000000    0.000000    0.000000    0.000000
  0.022800000  -87.419659  -31.938488  -92.118464   28.031042    0.000000    0.000000    0.000000    0.000000
  0.023000000  -87.142365  -31.637682  -92.972073   32.700230    0.000000    0.000000    0.000000    0.000000
  0.023200000  -86.893710  -32.200336  -93.048707   28.941038    0.000000    0.000000    0.000000    0.000000
  0.023400000  -85.976520  -32.999321  -93.912596   24.940092    0.000000    0.000000    0.000000    0.000000
  0.023600000  -86.498109  -34.169067  -94.312901   35.067551    0.000000    0.000000    0.000000    0.000000
  0.023800000  -86.371208  -35.826195  -93.106583   30.529190    0.000000    0.000000    0.000000    0.000000
  0.024000000  -86.319100  -34.821701  -93.176030   23.308226    0.000000    0.000000    0.000000    0.000000
  0.024200000  -86.047732  -35.622383  -93.689938   26.505100    0.000000    0.000000    0.000000    0.000000
  0.024400000  -85.949870  -35.903175  -93.698017   27.085848    0.000000    0.000000    0.000000    0.000000
  0.024600000  -85.786606  -36.389286  -94.709875   27.663511    0.000000    0.000000    0.000000    0.000000
  0.024800000  -85.728657  -38.660759  -95.179974   27.206928    0.000000    0.000000    0.000000    0.000000
  0.025000000  -85.212732  -38.450363  -93.445338   22.811649    0.000000    0.000000    0.000000    0.000000
  0.025200000  -85.011460  -39.224812  -92.969382   24.487280    0.000000    0.000000    0.000000    0.000000
  0.025400000  -85.061387  -39.883110  -95.629466   23.204309    0.000000    0.000000    0.000000    0.000000
  0.025600000  -84.777997  -40.382385  -94.574053   30.712008    0.000000    0.000000    0.000000    0.000000
  0.025800000  -84.585525  -39.046093  -95.051604   23.255688    0.000000    0.000000    0.000000    0.000000
  0.026000000  -84.587723  -40.278755  -94.529439   23.797838    0.000000    0.000000    0.000000    0.000000
  0.026200000  -84.045314  -39.918755  -94.053186   24.962559    0.000000    0.000000    0.000000    0.000000
  0.026400000  -84.031701  -41.006493  -93.945035   21.333708    0.000000    0.000000    0.000000    0.000000
  0.026600000  -83.893446  -39.971840  -94.294059   17.762924    0.000000    0.000000    0.000000    0.000000
  0.026800000  -83.783796  -39.742924  -95.798878   21.384584    0.000000    0.000000    0.000000    0.000000
  0.027000000  -83.588644  -40.650921  -95.947670   24.976276    0.000000    0.000000    0.000000    0.000000
  0.027200000  -83.379019  -40.627907  -95.329972   19.305904    0.000000    0.000000    0.000000    0.000000
  0.027400000  -83.227769  -39.280159  -95.743389   19.547468    0.000000    0.000000    0.000000    0.000000
  0.027600000  -83.182035  -38.241783  -96.495708   23.427546    0.000000    0.000000    0.000000    0.000000
  0.027800000  -82.903756  -37.809361  -95.253774   18.457745    0.000000    0.000000    0.000000    0.000000
  0.028000000  -82.855613  -37.661400  -96.117398   23.935442    0.000000    0.000000    0.000000    0.000000
  0.028200000  -82.697792  -37.361435  -95.839085   16.666851    0.000000    0.000000    0.000000    0.000000
  0.028400000  -82.591986  -36.589268  -96.506385   18.552229    0.000000    0.000000    0.000000    0.000000
  0.028600000  -82.567423  -36.862152  -96.335643   23.596794    0.000000    0.000000    0.000000    0.000000
  0.028800000  -82.531695  -36.865711  -96.618661   17.623947    0.000000    0.000000    0.000000    0.000000
  0.029000000  -82.428426  -35.753025  -95.968227   20.478991    0.000000    0.000000    0.000000    0.000000
  0.029200000  -82.227889  -35.516830  -96.195586   20.512760    0.000000    0.000000    0.000000    0.000000
  0.029400000  -82.190838  -35.371792  -97.715002   14.846107    0.000000    0.000000    0.000000    0.000000
  0.029600000  -82.209388  -34.753384  -95.514728   15.711702    0.000000    0.000000    0.000000    0.000000
  0.029800000  -82.198520  -34.610924  -95.524459   17.819468    0.000000    0.000000    0.000000    0.000000
  0.030000000  -82.051028  -34.542526  -96.196734   11.500849    0.000000    0.000000    0.000000    0.000000
  0.030200000  -82.211012  -33.362682  -97.627313   26.551674    0.000000    0.000000    0.000000    0.000000
  0.030400000  -82.116795  -33.878666  -96.735147   16.517000    0.000000    0.000000    0.000000    0.000000
  0.030600000  -81.962964  -33.584667  -96.179543   17.503159    0.000000    0.000000    0.000000    0.000000
  0.030800000  -81.988012  -33.792496  -98.548018   17.061966    0.000000    0.000000    0.000000    0.000000
  0.031000000  -82.005363  -33.023914  -99.067935   14.225426    0.000000    0.000000    0.000000    0.000000
  0.031200000  -81.735990  -34.321918  -96.028457   24.410122    0.000000    0.000000    0.000000    0.000000
  0.031400000  -81.724788  -34.188686 -100.089280   24.164333    0.000000    0.000000    0.000000    0.000000
  0.031600000  -81.790730  -34.335701  -96.817347   25.754341    0.000000    0.000000    0.000000    0.000000
  0.031800000  -81.647153  -34.169823  -96.662327   16.435074    0.000000    0.000000    0.000000    0.000000
  0.032000000  -81.750196  -34.648815  -97.364648   14.437623    0.000000    0.000000    0.000000    0.000000
  0.032200000  -81.702156  -35.832596  -98.303852   16.310776    0.000000    0.000000    0.000000    0.000000
  0.032400000  -81.435054  -34.157703  -96.126517   14.491612    0.000000    0.000000    0.000000    0.000000
  0.032600000  -81.385377  -36.718727  -96.334707    3.900185    0.000000    0.000000    0.000000    0.000000
  0.032800000  -81.325294  -36.998306  -97.448995   20.285343    0.000000    0.000000    0.000000    0.000000
  0.033000000  -81.477248  -37.399532  -97.153913   24.994984    0.000000    0.000000    0.000000    0.000000
  0.033200000  -81.414650  -36.159584  -97.763408   16.320295    0.000000    0.000000    0.000000    0.000000
  0.033400000  -81.089164  -38.476067  -98.863194    8.188431    0.000000    0.000000    0.000000    0.000000
  0.033600000  -81.187845  -38.648739  -96.862470   21.609203    0.000000    0.000000    0.000000    0.000000
  0.033800000  -80.971799  -40.223789  -99.133568   11.743376    0.000000    0.000000    0.000000    0.000000
  0.034000000  -81.065825  -40.612179  -97.438050    4.508867    0.000000    0.000000    0.000000    0.000000
  0.034200000  -80.437794  -40.645000  -98.258297   12.404754    0.000000    0.000000    0.000000    0.000000
  0.034400000  -80.406192  -40.997292  -97.145453    3.902121    0.000000    0.000000    0.000000    0.000000
  0.034600000  -80.502359  -41.700047 -101.529838   19.834206    0.000000    0.000000    0.000000    0.000000
  0.034800000  -80.190080  -41.774105  -97.135632   17.311050    0.000000    0.000000    0.000000    0.000000
  0.035000000  -79.929421  -41.691185  -98.277242   10.180140    0.000000    0.000000    0.000000    0.000000
  0.035200000  -79.827572  -42.237503  -97.724646   16.169479    0.000000    0.000000    0.000000    0.000000
  0.035400000  -79.738477  -41.521805  -97.651174    4.546065    0.000000    0.000000    0.000000    0.000000
  0.035600000  -79.549386  -42.615501  -98.726453    5.112559    0.000000    0.000000    0.000000    0.000000
  0.035800000  -79.515511  -42.513107  -99.386847   27.542360    0.000000    0.000000    0.000000    0.000000
  0.036000000  -79.299570  -41.514309 -100.003933   20.724892    0.000000    0.000000    0.000000    0.000000
  0.036200000  -79.199283  -40.931931  -98.303600   15.510275    0.000000    0.000000    0.000000    0.000000
  0.036400000  -79.033175  -41.251572  -99.455764    7.656611    0.000000    0.000000    0.000000    0.000000
  0.036600000  -78.956605  -41.544003  -99.971185   13.465701    0.000000    0.000000    0.000000    0.000000
  0.036800000  -78.832687  -40.495640  -99.777562   19.715099    0.000000    0.000000    0.000000    0.000000
  0.037000000  -78.760582  -39.576572  -98.114668    0.584523    0.000000    0.000000    0.000000    0.000000
  0.037200000  -78.705681  -39.976765  -99.704991    2.946371    0.000000    0.000000    0.000000    0.000000
  0.037400000  -78.679271  -38.043056  -99.293724   17.092562    0.000000    0.000000    0.000000    0.000000
  0.037600000  -78.758119  -38.077084  -99.628358   15.846669    0.000000    0.000000    0.000000    0.000000
  0.037800000  -78.652795  -38.112354 -101.464958    3.578892    0.000000    0.000000    0.000000    0.000000
  0.038000000  -78.514393  -38.580254 -100.898079    8.665771    0.000000    0.000000    0.000000    0.000000
  0.038200000  -78.675593  -37.344173 -100.967395   16.194584    0.000000    0.000000    0.000000    0.000000
  0.038400000  -78.618907  -37.281254  -99.253851   -0.087066    0.000000    0.000000    0.000000    0.000000
  0.038600000  -78.630800  -36.419735 -102.911853   10.886965    0.000000    0.000000    0.000000    0.000000
  0.038800000  -78.427663  -37.034538  -99.783858   11.038221    0.000000    0.000000    0.000000    0.000000
  0.039000000  -78.472485  -37.584923  -98.164996   -3.338810    0.000000    0.000000    0.000000    0.000000
  0.039200000  -78.407980  -36.689789  -99.381444   -3.244296    0.000000    0.000000    0.000000    0.000000
  0.039400000  -78.679825  -36.966385 -100.834413  -14.123607    0.000000    0.000000    0.000000    0.000000
  0.039600000  -78.511836  -36.787918  -99.605779    4.675444    0.000000    0.000000    0.000000    0.000000
  0.039800000  -78.418778  -36.740231 -100.782369    3.506642    0.000000    0.000000    0.000000    0.000000
  0.040000000  -78.528485  -37.109352 -100.533990   28.689123    0.000000    0.000000    0.000000    0.000000
  0.040200000  -78.505212  -36.839054 -100.981108   -8.818977    0.000000    0.000000    0.000000    0.000000
  0.040400000  -78.472157  -37.888042  -99.653500   10.730762    0.000000    0.000000    0.000000    0.000000
  0.040600000  -78.606609  -38.355053  -98.898952    3.606225    0.000000    0.000000    0.000000    0.000000
  0.040800000  -78.376805  -39.950932  -98.708051   26.635494    0.000000    0.000000    0.000000    0.000000
  0.041000000  -78.458426  -41.089401 -100.956028   -6.065835    0.000000    0.000000    0.000000    0.000000
  0.041200000  -78.404350  -39.589142  -99.090077    9.263728    0.000000    0.000000    0.000000    0.000000
  0.041400000  -78.298517  -42.026794 -101.385091   -2.750594    0.000000    0.000000    0.000000    0.000000
  0.041600000  -78.200179  -42.699780  -98.642653    3.477026    0.000000    0.000000    0.000000    0.000000
  0.041800000  -78.086542  -43.875519 -100.097999   16.015377    0.000000    0.000000    0.000000    0.000000
  0.042000000  -78.094736  -44.292030 -102.230328  -10.863406    0.000000    0.000000    0.000000    0.000000
  0.042200000  -77.788642  -45.081791 -100.463883   15.793205    0.000000    0.000000    0.000000    0.000000
  0.042400000  -77.790911  -45.896843 -100.737727   10.123055    0.000000    0.000000    0.000000    0.000000
  0.042600000  -77.535634  -46.368671 -101.410883    2.022088    0.000000    0.000000    0.000000    0.000000
  0.042800000  -77.423049  -47.081898 -101.562473   -0.817868    0.000000    0.000000    0.000000    0.000000
