! Anritsu VNA Master:                     Model: MS2036C/10/77
! SN:                                  1601066
! /card0/usr/256.ew.n.r20.11.s2p
! Existing Calibration Information:
! TYPE:                         Current Settings,       Active Cal Settings
! TIME:             	   12/19/2017 02:56:42 PM,    12/19/2017 02:53:44 PM
! INTERNAL TEMP:    	                   46.5 C,                    46.3 C
! # POINTS:         	                      501,                       501
! START FREQ:       	               10.000 MHz,                10.000 MHz
! STOP FREQ:        	              110.000 MHz,               110.000 MHz
! SOURCE POWER:     	                     High,                      High
! IFBW:             	                   100 Hz,                    100 Hz
! AVG FACTOR:       	                       1 ,                        1 
! REF PLANE 1:      	                     0 mm,                      0 mm
! REF PLANE 2:      	                     0 mm,                      0 mm
! CAL TYPE:         	                 Full S11,                  Full S11
! CAL METHOD:       	                     SOLT,                      SOLT
! CAL LINE TYPE:    	                     Coax,                      Coax
! DUT PORT 1:       	                N-Conn(F),                 N-Conn(F)
! DUT PORT 2:       	                K-Conn(F),                 K-Conn(F)
! CAL STATUS:       	        OK: Accuracy High,                        --
# GHZ S DB R 50.0
! FREQ.GHZ       S11DB        S11A       S21DB        S21A       S12DB        S12A       S22DB        S22A
  0.010000000   -7.224686  167.078140  -82.487462   77.905052    0.000000    0.000000    0.000000    0.000000
  0.010200000   -7.211675  166.849731  -82.533202   75.159180    0.000000    0.000000    0.000000    0.000000
  0.010400000   -7.211296  166.594208  -82.828014   73.772682    0.000000    0.000000    0.000000    0.000000
  0.010600000   -7.216827  166.329041  -83.215609   75.312302    0.000000    0.000000    0.000000    0.000000
  0.010800000   -7.216589  166.120483  -83.368816   72.583054    0.000000    0.000000    0.000000    0.000000
  0.011000000   -7.220210  165.815170  -83.307057   69.573685    0.000000    0.000000    0.000000    0.000000
  0.011200000   -7.217820  165.590851  -83.854101   68.893028    0.000000    0.000000    0.000000    0.000000
  0.011400000   -7.220626  165.320648  -83.697495   64.695633    0.000000    0.000000    0.000000    0.000000
  0.011600000   -7.221263  165.054001  -84.772367   65.897324    0.000000    0.000000    0.000000    0.000000
  0.011800000   -7.223893  164.791046  -84.605461   63.574020    0.000000    0.000000    0.000000    0.000000
  0.012000000   -7.223753  164.552200  -85.404192   62.425613    0.000000    0.000000    0.000000    0.000000
  0.012200000   -7.226634  164.271515  -85.375474   61.454716    0.000000    0.000000    0.000000    0.000000
  0.012400000   -7.225495  164.008545  -85.648846   62.360188    0.000000    0.000000    0.000000    0.000000
  0.012600000   -7.229032  163.735611  -86.197687   59.291389    0.000000    0.000000    0.000000    0.000000
  0.012800000   -7.228357  163.489441  -86.504982   59.436520    0.000000    0.000000    0.000000    0.000000
  0.013000000   -7.236795  163.244003  -86.492136   55.340214    0.000000    0.000000    0.000000    0.000000
  0.013200000   -7.236882  162.970108  -86.943860   55.525963    0.000000    0.000000    0.000000    0.000000
  0.013400000   -7.238271  162.735092  -86.916684   57.137157    0.000000    0.000000    0.000000    0.000000
  0.013600000   -7.237855  162.453979  -87.297864   57.507408    0.000000    0.000000    0.000000    0.000000
  0.013800000   -7.233483  162.239487  -88.207180   59.405556    0.000000    0.000000    0.000000    0.000000
  0.014000000   -7.230727  161.977753  -87.090602   58.473652    0.000000    0.000000    0.000000    0.000000
  0.014200000   -7.233691  161.689178  -87.448511   62.234341    0.000000    0.000000    0.000000    0.000000
  0.014400000   -7.234589  161.460541  -87.778065   55.711178    0.000000    0.000000    0.000000    0.000000
  0.014600000   -7.235110  161.188400  -87.855484   58.926548    0.000000    0.000000    0.000000    0.000000
  0.014800000   -7.240563  160.939819  -87.218020   58.433212    0.000000    0.000000    0.000000    0.000000
  0.015000000   -7.240062  160.687546  -87.239787   57.364483    0.000000    0.000000    0.000000    0.000000
  0.015200000   -7.242556  160.412918  -88.400804   58.024174    0.000000    0.000000    0.000000    0.000000
  0.015400000   -7.248787  160.161865  -88.271192   54.152622    0.000000    0.000000    0.000000    0.000000
  0.015600000   -7.248639  159.926727  -88.527142   52.043011    0.000000    0.000000    0.000000    0.000000
  0.015800000   -7.247374  159.621201  -87.481074   53.982517    0.000000    0.000000    0.000000    0.000000
  0.016000000   -7.249385  159.387543  -88.456908   52.615822    0.000000    0.000000    0.000000    0.000000
  0.016200000   -7.251972  159.138412  -88.048498   52.781654    0.000000    0.000000    0.000000    0.000000
  0.016400000   -7.252828  158.909698  -88.305416   46.890751    0.000000    0.000000    0.000000    0.000000
  0.016600000   -7.249332  158.621048  -88.394263   50.183475    0.000000    0.000000    0.000000    0.000000
  0.016800000   -7.251967  158.394562  -89.101775   49.603180    0.000000    0.000000    0.000000    0.000000
  0.017000000   -7.253386  158.127106  -88.661234   45.897572    0.000000    0.000000    0.000000    0.000000
  0.017200000   -7.251378  157.889786  -88.446959   43.771107    0.000000    0.000000    0.000000    0.000000
  0.017400000   -7.251446  157.623688  -89.248663   44.113537    0.000000    0.000000    0.000000    0.000000
  0.017600000   -7.252409  157.367523  -89.243099   38.737328    0.000000    0.000000    0.000000    0.000000
  0.017800000   -7.257093  157.082489  -89.299189   37.642914    0.000000    0.000000    0.000000    0.000000
  0.018000000   -7.253577  156.874893  -89.379067   41.034176    0.000000    0.000000    0.000000    0.000000
  0.018200000   -7.254565  156.597794  -89.674448   41.507099    0.000000    0.000000    0.000000    0.000000
  0.018400000   -7.257286  156.361618  -89.991365   40.896847    0.000000    0.000000    0.000000    0.000000
  0.018600000   -7.257647  156.102142  -89.957801   33.975319    0.000000    0.000000    0.000000    0.000000
  0.018800000   -7.259183  155.847046  -90.933144   36.858398    0.000000    0.000000    0.000000    0.000000
  0.019000000   -7.263076  155.620010  -91.269889   39.480839    0.000000    0.000000    0.000000    0.000000
  0.019200000   -7.261964  155.380432  -91.290995   33.288288    0.000000    0.000000    0.000000    0.000000
  0.019400000   -7.263465  155.116150  -90.528992   37.072819    0.000000    0.000000    0.000000    0.000000
  0.019600000   -7.263245  154.855377  -91.774451   37.722839    0.000000    0.000000    0.000000    0.000000
  0.019800000   -7.264079  154.612396  -91.457749   34.370609    0.000000    0.000000    0.000000    0.000000
  0.020000000   -7.268101  154.363358  -91.595271   36.475483    0.000000    0.000000    0.000000    0.000000
  0.020200000   -7.268510  154.136002  -91.790657   40.415859    0.000000    0.000000    0.000000    0.000000
  0.020400000   -7.262335  153.864243  -93.327054   39.984550    0.000000    0.000000    0.000000    0.000000
  0.020600000   -7.259205  153.609406  -91.593356   35.756725    0.000000    0.000000    0.000000    0.000000
  0.020800000   -7.259686  153.360001  -91.694666   35.071907    0.000000    0.000000    0.000000    0.000000
  0.021000000   -7.260071  153.107071  -92.708460   38.393581    0.000000    0.000000    0.000000    0.000000
  0.021200000   -7.260068  152.851608  -92.144628   35.729290    0.000000    0.000000    0.000000    0.000000
  0.021400000   -7.259339  152.581665  -92.310402   29.876886    0.000000    0.000000    0.000000    0.000000
  0.021600000   -7.260898  152.331833  -92.360993   38.787697    0.000000    0.000000    0.000000    0.000000
  0.021800000   -7.262085  152.102249  -91.932536   38.213718    0.000000    0.000000    0.000000    0.000000
  0.022000000   -7.270255  151.859467  -91.629829   36.019932    0.000000    0.000000    0.000000    0.000000
  0.022200000   -7.268568  151.608276  -93.177079   34.820854    0.000000    0.000000    0.000000    0.000000
  0.022400000   -7.268354  151.374771  -92.740166   31.783035    0.000000    0.000000    0.000000    0.000000
  0.022600000   -7.275380  151.113983  -92.515767   33.437176    0.000000    0.000000    0.000000    0.000000
  0.022800000   -7.274402  150.864288  -92.401202   29.677504    0.000000    0.000000    0.000000    0.000000
  0.023000000   -7.274568  150.613297  -92.209680   33.566280    0.000000    0.000000    0.000000    0.000000
  0.023200000   -7.274107  150.365234  -92.581250   33.730110    0.000000    0.000000    0.000000    0.000000
  0.023400000   -7.274509  150.051453  -92.958025   30.021971    0.000000    0.000000    0.000000    0.000000
  0.023600000   -7.272487  149.863129  -93.169868   29.886087    0.000000    0.000000    0.000000    0.000000
  0.023800000   -7.275454  149.592041  -92.520834   30.147879    0.000000    0.000000    0.000000    0.000000
  0.024000000   -7.273388  149.328476  -93.507363   27.442886    0.000000    0.000000    0.000000    0.000000
  0.024200000   -7.272150  149.075394  -93.352554   34.405365    0.000000    0.000000    0.000000    0.000000
  0.024400000   -7.272730  148.791412  -93.150400   21.521214    0.000000    0.000000    0.000000    0.000000
  0.024600000   -7.272903  148.504288  -93.713752   21.132795    0.000000    0.000000    0.000000    0.000000
  0.024800000   -7.273976  148.245911  -93.525674   17.359400    0.000000    0.000000    0.000000    0.000000
  0.025000000   -7.275249  148.009186  -94.490264   26.237501    0.000000    0.000000    0.000000    0.000000
  0.025200000   -7.270362  147.763123  -93.536181   22.964424    0.000000    0.000000    0.000000    0.000000
  0.025400000   -7.273072  147.537338  -93.702394   30.191942    0.000000    0.000000    0.000000    0.000000
  0.025600000   -7.274216  147.301575  -93.809801   20.530649    0.000000    0.000000    0.000000    0.000000
  0.025800000   -7.278319  147.048706  -94.980770   30.731890    0.000000    0.000000    0.000000    0.000000
  0.026000000   -7.279544  146.835785  -94.816583   20.080818    0.000000    0.000000    0.000000    0.000000
  0.026200000   -7.277149  146.590912  -96.000155   17.252146    0.000000    0.000000    0.000000    0.000000
  0.026400000   -7.280840  146.333694  -94.832399   18.159351    0.000000    0.000000    0.000000    0.000000
  0.026600000   -7.284225  146.091400  -95.279808   24.062098    0.000000    0.000000    0.000000    0.000000
  0.026800000   -7.288582  145.799637  -94.668860   18.232998    0.000000    0.000000    0.000000    0.000000
  0.027000000   -7.287969  145.534409  -95.881090   16.550598    0.000000    0.000000    0.000000    0.000000
  0.027200000   -7.289804  145.259583  -96.248352   25.885145    0.000000    0.000000    0.000000    0.000000
  0.027400000   -7.283074  144.976852  -95.458331   18.279871    0.000000    0.000000    0.000000    0.000000
  0.027600000   -7.280959  144.706467  -95.932895   22.863438    0.000000    0.000000    0.000000    0.000000
  0.027800000   -7.277335  144.434769  -96.297877   22.532845    0.000000    0.000000    0.000000    0.000000
  0.028000000   -7.275478  144.164246  -96.461731   12.391906    0.000000    0.000000    0.000000    0.000000
  0.028200000   -7.274333  143.890152  -96.437474   27.311310    0.000000    0.000000    0.000000    0.000000
  0.028400000   -7.273582  143.660263  -97.194371   21.946760    0.000000    0.000000    0.000000    0.000000
  0.028600000   -7.270433  143.429443  -96.284419   14.677981    0.000000    0.000000    0.000000    0.000000
  0.028800000   -7.267006  143.222107  -95.537446   22.716698    0.000000    0.000000    0.000000    0.000000
  0.029000000   -7.267116  143.002945  -95.819447   29.914732    0.000000    0.000000    0.000000    0.000000
  0.029200000   -7.265335  142.801224  -95.439934   11.302389    0.000000    0.000000    0.000000    0.000000
  0.029400000   -7.264496  142.609116  -96.124085   14.694404    0.000000    0.000000    0.000000    0.000000
  0.029600000   -7.265383  142.409454  -95.166149   18.844986    0.000000    0.000000    0.000000    0.000000
  0.029800000   -7.266740  142.173004  -97.138347   17.932552    0.000000    0.000000    0.000000    0.000000
  0.030000000   -7.269351  141.940155  -96.149375   11.502876    0.000000    0.000000    0.000000    0.000000
  0.030200000   -7.272448  141.689575  -97.711382   18.616961    0.000000    0.000000    0.000000    0.000000
  0.030400000   -7.273269  141.416885  -97.972469    8.298092    0.000000    0.000000    0.000000    0.000000
  0.030600000   -7.277526  141.133362  -98.196497   10.949211    0.000000    0.000000    0.000000    0.000000
  0.030800000   -7.278108  140.891205  -96.702945   12.710844    0.000000    0.000000    0.000000    0.000000
  0.031000000   -7.280666  140.622055  -98.861969   16.903311    0.000000    0.000000    0.000000    0.000000
  0.031200000   -7.270033  140.415314  -98.163873    7.802129    0.000000    0.000000    0.000000    0.000000
  0.031400000   -7.274244  140.129623  -97.529313   11.876243    0.000000    0.000000    0.000000    0.000000
  0.031600000   -7.280771  139.856277  -97.741745    6.753406    0.000000    0.000000    0.000000    0.000000
  0.031800000   -7.280527  139.590210  -98.366411   17.012310    0.000000    0.000000    0.000000    0.000000
  0.032000000   -7.283434  139.348587  -97.704270   10.668905    0.000000    0.000000    0.000000    0.000000
  0.032200000   -7.279088  139.063919  -97.776241   14.758521    0.000000    0.000000    0.000000    0.000000
  0.032400000   -7.272492  138.816818  -97.975138    4.654688    0.000000    0.000000    0.000000    0.000000
  0.032600000   -7.270170  138.552246  -96.851409    7.375848    0.000000    0.000000    0.000000    0.000000
  0.032800000   -7.266276  138.356888  -95.834602    3.702771    0.000000    0.000000    0.000000    0.000000
  0.033000000   -7.260805  138.132813  -97.324154   17.321575    0.000000    0.000000    0.000000    0.000000
  0.033200000   -7.257439  137.882172  -96.459361   13.058204    0.000000    0.000000    0.000000    0.000000
  0.033400000   -7.262519  137.663635  -98.564484   10.008101    0.000000    0.000000    0.000000    0.000000
  0.033600000   -7.265446  137.466660  -99.283567    8.432257    0.000000    0.000000    0.000000    0.000000
  0.033800000   -7.266505  137.239777  -98.431797   14.586919    0.000000    0.000000    0.000000    0.000000
  0.034000000   -7.269313  136.964691  -97.920226    7.059205    0.000000    0.000000    0.000000    0.000000
  0.034200000   -7.272881  136.687485  -98.427038   16.719437    0.000000    0.000000    0.000000    0.000000
  0.034400000   -7.276937  136.434036  -98.419229    8.745018    0.000000    0.000000    0.000000    0.000000
  0.034600000   -7.281019  136.126419  -98.349723   15.860123    0.000000    0.000000    0.000000    0.000000
  0.034800000   -7.287784  135.854797  -97.627323   16.777254    0.000000    0.000000    0.000000    0.000000
  0.035000000   -7.288854  135.574509  -97.968277   22.004385    0.000000    0.000000    0.000000    0.000000
  0.035200000   -7.289206  135.292664  -97.192322   22.903664    0.000000    0.000000    0.000000    0.000000
  0.035400000   -7.286959  135.025223 -100.091916    5.249137    0.000000    0.000000    0.000000    0.000000
  0.035600000   -7.283492  134.766479  -98.290214   11.991035    0.000000    0.000000    0.000000    0.000000
  0.035800000   -7.277943  134.493912  -96.269862   15.098705    0.000000    0.000000    0.000000    0.000000
  0.036000000   -7.274706  134.232803  -99.625209    7.945708    0.000000    0.000000    0.000000    0.000000
  0.036200000   -7.265378  133.983170 -100.612403   -6.242423    0.000000    0.000000    0.000000    0.000000
  0.036400000   -7.259094  133.707993 -100.517943   -2.484771    0.000000    0.000000    0.000000    0.000000
  0.036600000   -7.255368  133.522156  -99.026048   -3.294459    0.000000    0.000000    0.000000    0.000000
  0.036800000   -7.251069  133.307693  -99.299538   20.284338    0.000000    0.000000    0.000000    0.000000
  0.037000000   -7.249228  133.099243  -97.622224    5.746667    0.000000    0.000000    0.000000    0.000000
  0.037200000   -7.252698  132.863388  -99.315510    0.281617    0.000000    0.000000    0.000000    0.000000
  0.037400000   -7.254659  132.626999 -101.347360    5.591798    0.000000    0.000000    0.000000    0.000000
  0.037600000   -7.256618  132.403351  -97.116691    0.287515    0.000000    0.000000    0.000000    0.000000
  0.037800000   -7.258261  132.168350  -99.317438    8.813512    0.000000    0.000000    0.000000    0.000000
  0.038000000   -7.268850  131.904480 -100.792215    8.994862    0.000000    0.000000    0.000000    0.000000
  0.038200000   -7.275791  131.642410 -100.537223   10.702106    0.000000    0.000000    0.000000    0.000000
  0.038400000   -7.270934  131.369614  -98.509651   11.720478    0.000000    0.000000    0.000000    0.000000
  0.038600000   -7.277892  131.117065  -99.533513    5.929093    0.000000    0.000000    0.000000    0.000000
  0.038800000   -7.281581  130.857620 -100.757826   -5.682021    0.000000    0.000000    0.000000    0.000000
  0.039000000   -7.278916  130.582565 -101.866843    1.975286    0.000000    0.000000    0.000000    0.000000
  0.039200000   -7.278117  130.351395 -101.564370   -3.660261    0.000000    0.000000    0.000000    0.000000
  0.039400000   -7.275359  130.102036  -99.158452    5.408907    0.000000    0.000000    0.000000    0.000000
  0.039600000   -7.274433  129.843460  -99.659421    6.531210    0.000000    0.000000    0.000000    0.000000
  0.039800000   -7.269813  129.555511 -101.378905    7.819618    0.000000    0.000000    0.000000    0.000000
  0.040000000   -7.265702  129.252792  -99.772565   12.180683    0.000000    0.000000    0.000000    0.000000
  0.040200000   -7.257770  129.029541 -101.803816    9.421873    0.000000    0.000000    0.000000    0.000000
  0.040400000   -7.251745  128.823746 -101.274298   17.807755    0.000000    0.000000    0.000000    0.000000
  0.040600000   -7.249695  128.608002 -101.582508   12.773884    0.000000    0.000000    0.000000    0.000000
  0.040800000   -7.245976  128.395889  -99.680867    5.160395    0.000000    0.000000    0.000000    0.000000
  0.041000000   -7.250384  128.179047  -98.798779   11.726106    0.000000    0.000000    0.000000    0.000000
  0.041200000   -7.256805  127.973160  -98.921809    5.564208    0.000000    0.000000    0.000000    0.000000
  0.041400000   -7.263545  127.774330 -100.544809   -4.266894    0.000000    0.000000    0.000000    0.000000
  0.041600000   -7.268148  127.517136 -100.489052    4.516740    0.000000    0.000000    0.000000    0.000000
  0.041800000   -7.274693  127.239349 -101.465479   10.481948    0.000000    0.000000    0.000000    0.000000
  0.042000000   -7.280676  126.963669  -99.341246   -2.983178    0.000000    0.000000    0.000000    0.000000
  0.042200000   -7.279641  126.752586 -100.668797   14.813948    0.000000    0.000000    0.000000    0.000000
  0.042400000   -7.285319  126.438095 -102.795437   -1.045326    0.000000    0.000000    0.000000    0.000000
  0.042600000   -7.284768  126.135971  -98.818205   16.806683    0.000000    0.000000    0.000000    0.000000
  0.042800000   -7.283739  125.883148  -99.241788  -16.362486    0.000000    0.000000    0.000000    0.000000
