! Anritsu VNA Master:                     Model: MS2036C/10/77
! SN:                                  1601066
! /card0/usr/256.ew.sma.r20.11.s2p
! Existing Calibration Information:
! TYPE:                         Current Settings,       Active Cal Settings
! TIME:             	   12/19/2017 02:27:53 PM,    12/19/2017 02:22:10 PM
! INTERNAL TEMP:    	                   45.5 C,                    45.0 C
! # POINTS:         	                      501,                       501
! START FREQ:       	               10.000 MHz,                10.000 MHz
! STOP FREQ:        	              110.000 MHz,               110.000 MHz
! SOURCE POWER:     	                     High,                      High
! IFBW:             	                   100 Hz,                    100 Hz
! AVG FACTOR:       	                       1 ,                        1 
! REF PLANE 1:      	                     0 mm,                      0 mm
! REF PLANE 2:      	                     0 mm,                      0 mm
! CAL TYPE:         	                 Full S11,                  Full S11
! CAL METHOD:       	                     SOLT,                      SOLT
! CAL LINE TYPE:    	                     Coax,                      Coax
! DUT PORT 1:       	                N-Conn(F),                 N-Conn(F)
! DUT PORT 2:       	                K-Conn(F),                 K-Conn(F)
! CAL STATUS:       	        OK: Accuracy High,                        --
# GHZ S RI R 50.0
! FREQ.GHZ      S11RE         S11IM         S21RE         S21IM         S12RE         S12IM         S22RE         S22IM
  0.010000000 -4.258060E-01  9.213140E-02  1.521400E-05  7.254670E-05  1.000000E+00  0.000000E+00  1.000000E+00  0.000000E+00
  0.010200000 -4.262090E-01  9.381750E-02  1.608090E-05  6.925900E-05  1.000000E+00  0.000000E+00  1.000000E+00  0.000000E+00
  0.010400000 -4.258990E-01  9.544820E-02  2.048580E-05  6.759920E-05  1.000000E+00  0.000000E+00  1.000000E+00  0.000000E+00
  0.010600000 -4.253970E-01  9.727270E-02  2.516330E-05  6.891120E-05  1.000000E+00  0.000000E+00  1.000000E+00  0.000000E+00
  0.010800000 -4.248520E-01  9.889680E-02  2.300500E-05  6.446060E-05  1.000000E+00  0.000000E+00  1.000000E+00  0.000000E+00
  0.011000000 -4.241470E-01  1.009630E-01  2.603530E-05  6.359990E-05  1.000000E+00  0.000000E+00  1.000000E+00  0.000000E+00
  0.011200000 -4.239940E-01  1.027330E-01  2.712220E-05  6.182610E-05  1.000000E+00  0.000000E+00  1.000000E+00  0.000000E+00
  0.011400000 -4.232900E-01  1.045430E-01  2.553450E-05  5.743760E-05  1.000000E+00  0.000000E+00  1.000000E+00  0.000000E+00
  0.011600000 -4.228320E-01  1.059800E-01  2.352240E-05  5.365170E-05  1.000000E+00  0.000000E+00  1.000000E+00  0.000000E+00
  0.011800000 -4.223520E-01  1.076540E-01  2.500190E-05  5.612470E-05  1.000000E+00  0.000000E+00  1.000000E+00  0.000000E+00
  0.012000000 -4.217640E-01  1.096130E-01  2.830620E-05  4.822270E-05  1.000000E+00  0.000000E+00  1.000000E+00  0.000000E+00
  0.012200000 -4.209200E-01  1.114170E-01  2.660430E-05  4.730410E-05  1.000000E+00  0.000000E+00  1.000000E+00  0.000000E+00
  0.012400000 -4.206640E-01  1.132230E-01  2.735700E-05  4.782420E-05  1.000000E+00  0.000000E+00  1.000000E+00  0.000000E+00
  0.012600000 -4.200200E-01  1.149430E-01  2.713270E-05  4.462280E-05  1.000000E+00  0.000000E+00  1.000000E+00  0.000000E+00
  0.012800000 -4.194510E-01  1.167560E-01  2.460930E-05  4.383070E-05  1.000000E+00  0.000000E+00  1.000000E+00  0.000000E+00
  0.013000000 -4.188590E-01  1.184030E-01  2.839240E-05  3.992150E-05  1.000000E+00  0.000000E+00  1.000000E+00  0.000000E+00
  0.013200000 -4.181100E-01  1.202240E-01  2.326370E-05  3.852260E-05  1.000000E+00  0.000000E+00  1.000000E+00  0.000000E+00
  0.013400000 -4.174550E-01  1.218930E-01  2.198640E-05  3.791730E-05  1.000000E+00  0.000000E+00  1.000000E+00  0.000000E+00
  0.013600000 -4.172230E-01  1.235520E-01  2.341030E-05  3.601090E-05  1.000000E+00  0.000000E+00  1.000000E+00  0.000000E+00
  0.013800000 -4.167080E-01  1.254560E-01  2.123280E-05  3.591380E-05  1.000000E+00  0.000000E+00  1.000000E+00  0.000000E+00
  0.014000000 -4.162490E-01  1.271780E-01  2.175670E-05  3.599010E-05  1.000000E+00  0.000000E+00  1.000000E+00  0.000000E+00
  0.014200000 -4.155220E-01  1.287980E-01  2.355530E-05  3.537130E-05  1.000000E+00  0.000000E+00  1.000000E+00  0.000000E+00
  0.014400000 -4.149020E-01  1.306800E-01  2.239810E-05  3.534540E-05  1.000000E+00  0.000000E+00  1.000000E+00  0.000000E+00
  0.014600000 -4.144000E-01  1.323700E-01  1.969910E-05  3.288370E-05  1.000000E+00  0.000000E+00  1.000000E+00  0.000000E+00
  0.014800000 -4.135090E-01  1.341340E-01  2.338620E-05  3.354700E-05  1.000000E+00  0.000000E+00  1.000000E+00  0.000000E+00
  0.015000000 -4.127940E-01  1.358290E-01  2.251320E-05  3.338990E-05  1.000000E+00  0.000000E+00  1.000000E+00  0.000000E+00
  0.015200000 -4.122510E-01  1.377430E-01  2.257610E-05  3.249830E-05  1.000000E+00  0.000000E+00  1.000000E+00  0.000000E+00
  0.015400000 -4.115220E-01  1.394110E-01  2.112660E-05  3.388920E-05  1.000000E+00  0.000000E+00  1.000000E+00  0.000000E+00
  0.015600000 -4.107590E-01  1.413590E-01  2.324430E-05  3.282530E-05  1.000000E+00  0.000000E+00  1.000000E+00  0.000000E+00
  0.015800000 -4.103870E-01  1.430190E-01  2.192490E-05  3.054590E-05  1.000000E+00  0.000000E+00  1.000000E+00  0.000000E+00
  0.016000000 -4.097700E-01  1.446520E-01  2.418160E-05  3.182040E-05  1.000000E+00  0.000000E+00  1.000000E+00  0.000000E+00
  0.016200000 -4.088520E-01  1.464220E-01  2.415100E-05  3.161430E-05  1.000000E+00  0.000000E+00  1.000000E+00  0.000000E+00
  0.016400000 -4.083950E-01  1.480640E-01  2.277220E-05  2.903150E-05  1.000000E+00  0.000000E+00  1.000000E+00  0.000000E+00
  0.016600000 -4.075950E-01  1.496160E-01  2.709160E-05  2.780130E-05  1.000000E+00  0.000000E+00  1.000000E+00  0.000000E+00
  0.016800000 -4.072290E-01  1.514900E-01  2.446480E-05  2.709090E-05  1.000000E+00  0.000000E+00  1.000000E+00  0.000000E+00
  0.017000000 -4.063790E-01  1.532240E-01  2.505240E-05  2.773420E-05  1.000000E+00  0.000000E+00  1.000000E+00  0.000000E+00
  0.017200000 -4.058840E-01  1.548560E-01  2.498040E-05  2.837240E-05  1.000000E+00  0.000000E+00  1.000000E+00  0.000000E+00
  0.017400000 -4.052250E-01  1.563970E-01  2.564600E-05  2.556450E-05  1.000000E+00  0.000000E+00  1.000000E+00  0.000000E+00
  0.017600000 -4.044520E-01  1.581770E-01  2.413700E-05  2.359130E-05  1.000000E+00  0.000000E+00  1.000000E+00  0.000000E+00
  0.017800000 -4.038690E-01  1.598290E-01  2.542610E-05  2.032480E-05  1.000000E+00  0.000000E+00  1.000000E+00  0.000000E+00
  0.018000000 -4.029630E-01  1.615750E-01  2.676640E-05  2.329170E-05  1.000000E+00  0.000000E+00  1.000000E+00  0.000000E+00
  0.018200000 -4.023950E-01  1.631830E-01  2.579590E-05  2.194720E-05  1.000000E+00  0.000000E+00  1.000000E+00  0.000000E+00
  0.018400000 -4.016710E-01  1.648690E-01  2.418420E-05  2.113810E-05  1.000000E+00  0.000000E+00  1.000000E+00  0.000000E+00
  0.018600000 -4.008020E-01  1.664540E-01  2.402890E-05  1.994890E-05  1.000000E+00  0.000000E+00  1.000000E+00  0.000000E+00
  0.018800000 -4.001820E-01  1.682760E-01  2.343060E-05  1.735230E-05  1.000000E+00  0.000000E+00  1.000000E+00  0.000000E+00
  0.019000000 -3.994060E-01  1.697250E-01  2.373610E-05  1.725470E-05  1.000000E+00  0.000000E+00  1.000000E+00  0.000000E+00
  0.019200000 -3.984800E-01  1.712800E-01  2.161430E-05  1.753880E-05  1.000000E+00  0.000000E+00  1.000000E+00  0.000000E+00
  0.019400000 -3.977520E-01  1.730020E-01  2.123710E-05  1.920890E-05  1.000000E+00  0.000000E+00  1.000000E+00  0.000000E+00
  0.019600000 -3.971630E-01  1.743340E-01  1.981390E-05  1.802270E-05  1.000000E+00  0.000000E+00  1.000000E+00  0.000000E+00
  0.019800000 -3.964340E-01  1.760190E-01  1.999600E-05  1.485430E-05  1.000000E+00  0.000000E+00  1.000000E+00  0.000000E+00
  0.020000000 -3.956210E-01  1.777210E-01  2.127330E-05  1.484770E-05  1.000000E+00  0.000000E+00  1.000000E+00  0.000000E+00
  0.020200000 -3.949150E-01  1.792670E-01  1.965610E-05  1.713690E-05  1.000000E+00  0.000000E+00  1.000000E+00  0.000000E+00
  0.020400000 -3.942640E-01  1.810350E-01  2.039650E-05  1.531040E-05  1.000000E+00  0.000000E+00  1.000000E+00  0.000000E+00
  0.020600000 -3.935410E-01  1.829250E-01  2.345310E-05  1.636460E-05  1.000000E+00  0.000000E+00  1.000000E+00  0.000000E+00
  0.020800000 -3.927580E-01  1.845780E-01  1.992280E-05  1.626380E-05  1.000000E+00  0.000000E+00  1.000000E+00  0.000000E+00
  0.021000000 -3.920420E-01  1.861550E-01  2.307420E-05  1.395770E-05  1.000000E+00  0.000000E+00  1.000000E+00  0.000000E+00
  0.021200000 -3.909130E-01  1.879100E-01  1.848830E-05  1.407490E-05  1.000000E+00  0.000000E+00  1.000000E+00  0.000000E+00
  0.021400000 -3.902660E-01  1.893850E-01  1.777450E-05  1.414000E-05  1.000000E+00  0.000000E+00  1.000000E+00  0.000000E+00
  0.021600000 -3.893920E-01  1.909620E-01  1.983360E-05  1.591980E-05  1.000000E+00  0.000000E+00  1.000000E+00  0.000000E+00
  0.021800000 -3.885080E-01  1.924010E-01  2.004540E-05  1.183200E-05  1.000000E+00  0.000000E+00  1.000000E+00  0.000000E+00
  0.022000000 -3.875870E-01  1.938820E-01  1.935600E-05  1.341500E-05  1.000000E+00  0.000000E+00  1.000000E+00  0.000000E+00
  0.022200000 -3.868510E-01  1.956390E-01  1.941660E-05  1.308710E-05  1.000000E+00  0.000000E+00  1.000000E+00  0.000000E+00
  0.022400000 -3.861260E-01  1.971780E-01  2.214260E-05  1.367980E-05  1.000000E+00  0.000000E+00  1.000000E+00  0.000000E+00
  0.022600000 -3.851700E-01  1.988830E-01  1.942820E-05  1.391820E-05  1.000000E+00  0.000000E+00  1.000000E+00  0.000000E+00
  0.022800000 -3.843570E-01  2.003560E-01  2.115900E-05  1.071150E-05  1.000000E+00  0.000000E+00  1.000000E+00  0.000000E+00
  0.023000000 -3.831890E-01  2.016840E-01  2.011600E-05  1.347140E-05  1.000000E+00  0.000000E+00  1.000000E+00  0.000000E+00
  0.023200000 -3.826240E-01  2.035520E-01  1.819050E-05  1.140700E-05  1.000000E+00  0.000000E+00  1.000000E+00  0.000000E+00
  0.023400000 -3.818280E-01  2.052320E-01  1.818110E-05  1.128380E-05  1.000000E+00  0.000000E+00  1.000000E+00  0.000000E+00
  0.023600000 -3.806730E-01  2.068500E-01  2.035880E-05  1.022430E-05  1.000000E+00  0.000000E+00  1.000000E+00  0.000000E+00
  0.023800000 -3.801090E-01  2.084680E-01  1.821170E-05  1.113830E-05  1.000000E+00  0.000000E+00  1.000000E+00  0.000000E+00
  0.024000000 -3.790710E-01  2.100230E-01  1.707100E-05  1.040460E-05  1.000000E+00  0.000000E+00  1.000000E+00  0.000000E+00
  0.024200000 -3.781990E-01  2.116750E-01  2.067450E-05  7.059700E-06  1.000000E+00  0.000000E+00  1.000000E+00  0.000000E+00
  0.024400000 -3.772730E-01  2.136100E-01  1.796360E-05  1.022770E-05  1.000000E+00  0.000000E+00  1.000000E+00  0.000000E+00
  0.024600000 -3.763060E-01  2.153190E-01  1.922030E-05  7.220000E-06  1.000000E+00  0.000000E+00  1.000000E+00  0.000000E+00
  0.024800000 -3.752330E-01  2.168490E-01  1.929580E-05  8.864550E-06  1.000000E+00  0.000000E+00  1.000000E+00  0.000000E+00
  0.025000000 -3.745880E-01  2.185310E-01  1.975060E-05  9.099410E-06  1.000000E+00  0.000000E+00  1.000000E+00  0.000000E+00
  0.025200000 -3.738370E-01  2.199750E-01  1.751480E-05  7.729160E-06  1.000000E+00  0.000000E+00  1.000000E+00  0.000000E+00
  0.025400000 -3.727480E-01  2.214020E-01  1.811420E-05  6.407910E-06  1.000000E+00  0.000000E+00  1.000000E+00  0.000000E+00
  0.025600000 -3.719770E-01  2.227950E-01  1.417850E-05  7.080700E-06  1.000000E+00  0.000000E+00  1.000000E+00  0.000000E+00
  0.025800000 -3.710420E-01  2.240940E-01  1.921750E-05  6.120590E-06  1.000000E+00  0.000000E+00  1.000000E+00  0.000000E+00
  0.026000000 -3.702860E-01  2.255110E-01  1.717140E-05  6.051620E-06  1.000000E+00  0.000000E+00  1.000000E+00  0.000000E+00
  0.026200000 -3.693380E-01  2.269720E-01  1.707470E-05  4.778630E-06  1.000000E+00  0.000000E+00  1.000000E+00  0.000000E+00
  0.026400000 -3.681700E-01  2.283680E-01  1.656690E-05  6.568670E-06  1.000000E+00  0.000000E+00  1.000000E+00  0.000000E+00
  0.026600000 -3.670030E-01  2.299750E-01  1.625110E-05  1.001860E-05  1.000000E+00  0.000000E+00  1.000000E+00  0.000000E+00
  0.026800000 -3.659200E-01  2.313050E-01  1.750660E-05  5.678380E-06  1.000000E+00  0.000000E+00  1.000000E+00  0.000000E+00
  0.027000000 -3.650850E-01  2.328360E-01  1.371600E-05  5.316950E-06  1.000000E+00  0.000000E+00  1.000000E+00  0.000000E+00
  0.027200000 -3.640010E-01  2.346100E-01  1.555430E-05  4.873900E-06  1.000000E+00  0.000000E+00  1.000000E+00  0.000000E+00
  0.027400000 -3.631490E-01  2.365340E-01  1.678140E-05  7.854440E-06  1.000000E+00  0.000000E+00  1.000000E+00  0.000000E+00
  0.027600000 -3.621850E-01  2.380850E-01  1.403670E-05  6.458820E-06  1.000000E+00  0.000000E+00  1.000000E+00  0.000000E+00
  0.027800000 -3.611030E-01  2.397100E-01  1.356040E-05  7.022610E-06  1.000000E+00  0.000000E+00  1.000000E+00  0.000000E+00
  0.028000000 -3.601230E-01  2.412810E-01  1.320800E-05  7.258350E-06  1.000000E+00  0.000000E+00  1.000000E+00  0.000000E+00
  0.028200000 -3.591630E-01  2.428240E-01  1.477420E-05  7.420810E-06  1.000000E+00  0.000000E+00  1.000000E+00  0.000000E+00
  0.028400000 -3.583300E-01  2.442970E-01  1.383740E-05  6.338980E-06  1.000000E+00  0.000000E+00  1.000000E+00  0.000000E+00
  0.028600000 -3.574780E-01  2.457740E-01  1.450000E-05  5.376500E-06  1.000000E+00  0.000000E+00  1.000000E+00  0.000000E+00
  0.028800000 -3.567290E-01  2.470420E-01  1.379790E-05  4.530160E-06  1.000000E+00  0.000000E+00  1.000000E+00  0.000000E+00
  0.029000000 -3.559980E-01  2.481800E-01  1.518750E-05  6.259250E-06  1.000000E+00  0.000000E+00  1.000000E+00  0.000000E+00
  0.029200000 -3.550560E-01  2.493360E-01  1.371590E-05  7.841060E-06  1.000000E+00  0.000000E+00  1.000000E+00  0.000000E+00
  0.029400000 -3.543170E-01  2.506810E-01  1.457290E-05  6.290250E-06  1.000000E+00  0.000000E+00  1.000000E+00  0.000000E+00
  0.029600000 -3.535020E-01  2.519010E-01  1.549190E-05  4.971330E-06  1.000000E+00  0.000000E+00  1.000000E+00  0.000000E+00
  0.029800000 -3.524160E-01  2.530070E-01  1.372030E-05  4.729050E-06  1.000000E+00  0.000000E+00  1.000000E+00  0.000000E+00
  0.030000000 -3.511320E-01  2.543980E-01  1.255810E-05  3.372110E-06  1.000000E+00  0.000000E+00  1.000000E+00  0.000000E+00
  0.030200000 -3.500420E-01  2.555960E-01  1.522060E-05  6.739340E-06  1.000000E+00  0.000000E+00  1.000000E+00  0.000000E+00
  0.030400000 -3.488650E-01  2.572320E-01  1.317840E-05  4.837970E-06  1.000000E+00  0.000000E+00  1.000000E+00  0.000000E+00
  0.030600000 -3.476960E-01  2.586290E-01  1.416470E-05  5.926470E-06  1.000000E+00  0.000000E+00  1.000000E+00  0.000000E+00
  0.030800000 -3.464730E-01  2.601660E-01  1.475560E-05  4.387140E-06  1.000000E+00  0.000000E+00  1.000000E+00  0.000000E+00
  0.031000000 -3.451830E-01  2.617110E-01  1.419090E-05  4.972930E-06  1.000000E+00  0.000000E+00  1.000000E+00  0.000000E+00
  0.031200000 -3.443820E-01  2.630450E-01  1.502550E-05  5.449260E-06  1.000000E+00  0.000000E+00  1.000000E+00  0.000000E+00
  0.031400000 -3.431940E-01  2.643470E-01  1.016170E-05  3.914780E-06  1.000000E+00  0.000000E+00  1.000000E+00  0.000000E+00
  0.031600000 -3.417120E-01  2.659530E-01  1.353630E-05  4.977810E-06  1.000000E+00  0.000000E+00  1.000000E+00  0.000000E+00
  0.031800000 -3.405780E-01  2.674450E-01  1.230550E-05  2.266270E-06  1.000000E+00  0.000000E+00  1.000000E+00  0.000000E+00
  0.032000000 -3.392640E-01  2.688450E-01  1.484670E-05  2.987670E-06  1.000000E+00  0.000000E+00  1.000000E+00  0.000000E+00
  0.032200000 -3.384210E-01  2.705650E-01  1.291440E-05  1.199410E-06  1.000000E+00  0.000000E+00  1.000000E+00  0.000000E+00
  0.032400000 -3.372820E-01  2.720140E-01  1.348900E-05  2.882650E-06  1.000000E+00  0.000000E+00  1.000000E+00  0.000000E+00
  0.032600000 -3.364750E-01  2.736280E-01  1.282300E-05  3.781910E-06  1.000000E+00  0.000000E+00  1.000000E+00  0.000000E+00
  0.032800000 -3.356180E-01  2.749810E-01  1.198780E-05  3.229680E-06  1.000000E+00  0.000000E+00  1.000000E+00  0.000000E+00
  0.033000000 -3.345960E-01  2.763580E-01  1.077890E-05  4.784690E-06  1.000000E+00  0.000000E+00  1.000000E+00  0.000000E+00
  0.033200000 -3.336860E-01  2.775530E-01  1.100880E-05  3.468770E-06  1.000000E+00  0.000000E+00  1.000000E+00  0.000000E+00
  0.033400000 -3.326310E-01  2.788340E-01  1.150220E-05  2.054150E-06  1.000000E+00  0.000000E+00  1.000000E+00  0.000000E+00
  0.033600000 -3.315460E-01  2.798920E-01  1.144870E-05  3.253700E-06  1.000000E+00  0.000000E+00  1.000000E+00  0.000000E+00
  0.033800000 -3.302710E-01  2.811330E-01  1.354010E-05  1.907160E-06  1.000000E+00  0.000000E+00  1.000000E+00  0.000000E+00
  0.034000000 -3.289490E-01  2.826870E-01  1.219500E-05  2.414620E-06  1.000000E+00  0.000000E+00  1.000000E+00  0.000000E+00
  0.034200000 -3.275160E-01  2.839730E-01  1.133900E-05  2.935150E-06  1.000000E+00  0.000000E+00  1.000000E+00  0.000000E+00
  0.034400000 -3.260900E-01  2.852210E-01  1.237500E-05  1.324020E-06  1.000000E+00  0.000000E+00  1.000000E+00  0.000000E+00
  0.034600000 -3.244950E-01  2.866160E-01  1.122550E-05  1.951590E-06  1.000000E+00  0.000000E+00  1.000000E+00  0.000000E+00
  0.034800000 -3.232220E-01  2.881150E-01  9.309260E-06  3.252710E-06  1.000000E+00  0.000000E+00  1.000000E+00  0.000000E+00
  0.035000000 -3.218130E-01  2.893820E-01  9.605590E-06  4.002870E-06  1.000000E+00  0.000000E+00  1.000000E+00  0.000000E+00
  0.035200000 -3.203950E-01  2.910020E-01  1.096770E-05  3.050710E-06  1.000000E+00  0.000000E+00  1.000000E+00  0.000000E+00
  0.035400000 -3.191900E-01  2.924320E-01  9.544230E-06  1.576730E-06  1.000000E+00  0.000000E+00  1.000000E+00  0.000000E+00
  0.035600000 -3.180190E-01  2.938450E-01  8.850750E-06  3.573160E-06  1.000000E+00  0.000000E+00  1.000000E+00  0.000000E+00
  0.035800000 -3.167740E-01  2.956940E-01  1.277670E-05  1.672720E-06  1.000000E+00  0.000000E+00  1.000000E+00  0.000000E+00
  0.036000000 -3.157550E-01  2.972810E-01  1.002680E-05  1.079640E-06  1.000000E+00  0.000000E+00  1.000000E+00  0.000000E+00
  0.036200000 -3.146990E-01  2.987220E-01  1.076900E-05  9.083820E-07  1.000000E+00  0.000000E+00  1.000000E+00  0.000000E+00
  0.036400000 -3.138750E-01  3.000770E-01  1.268330E-05  1.210450E-06  1.000000E+00  0.000000E+00  1.000000E+00  0.000000E+00
  0.036600000 -3.127900E-01  3.012870E-01  1.123250E-05  1.662680E-06  1.000000E+00  0.000000E+00  1.000000E+00  0.000000E+00
  0.036800000 -3.119030E-01  3.024210E-01  1.186820E-05  1.342960E-06  1.000000E+00  0.000000E+00  1.000000E+00  0.000000E+00
  0.037000000 -3.108720E-01  3.037950E-01  6.350330E-06  3.227640E-06  1.000000E+00  0.000000E+00  1.000000E+00  0.000000E+00
  0.037200000 -3.098450E-01  3.047640E-01  1.075490E-05  2.976320E-06  1.000000E+00  0.000000E+00  1.000000E+00  0.000000E+00
  0.037400000 -3.085450E-01  3.056960E-01  1.005590E-05  1.385690E-06  1.000000E+00  0.000000E+00  1.000000E+00  0.000000E+00
  0.037600000 -3.071310E-01  3.070500E-01  1.016270E-05  9.901549E-07  1.000000E+00  0.000000E+00  1.000000E+00  0.000000E+00
  0.037800000 -3.058070E-01  3.081810E-01  8.699080E-06  3.006650E-06  1.000000E+00  0.000000E+00  1.000000E+00  0.000000E+00
  0.038000000 -3.044020E-01  3.092290E-01  9.760600E-06  2.509930E-06  1.000000E+00  0.000000E+00  1.000000E+00  0.000000E+00
  0.038200000 -3.028150E-01  3.103330E-01  1.209160E-05  2.072240E-06  1.000000E+00  0.000000E+00  1.000000E+00  0.000000E+00
  0.038400000 -3.012160E-01  3.117760E-01  9.337610E-06  1.696020E-06  1.000000E+00  0.000000E+00  1.000000E+00  0.000000E+00
  0.038600000 -2.997460E-01  3.129260E-01  7.868240E-06 -2.087480E-06  1.000000E+00  0.000000E+00  1.000000E+00  0.000000E+00
