! Anritsu VNA Master:                     Model: MS2036C/10/77
! SN:                                  1601066
! /card0/usr/256.ew.n.r20.12.s2p
! Existing Calibration Information:
! TYPE:                         Current Settings,       Active Cal Settings
! TIME:             	   12/19/2017 03:00:19 PM,    12/19/2017 02:53:44 PM
! INTERNAL TEMP:    	                   46.5 C,                    46.3 C
! # POINTS:         	                      501,                       501
! START FREQ:       	               10.000 MHz,                10.000 MHz
! STOP FREQ:        	              110.000 MHz,               110.000 MHz
! SOURCE POWER:     	                     High,                      High
! IFBW:             	                   100 Hz,                    100 Hz
! AVG FACTOR:       	                       1 ,                        1 
! REF PLANE 1:      	                     0 mm,                      0 mm
! REF PLANE 2:      	                     0 mm,                      0 mm
! CAL TYPE:         	                 Full S11,                  Full S11
! CAL METHOD:       	                     SOLT,                      SOLT
! CAL LINE TYPE:    	                     Coax,                      Coax
! DUT PORT 1:       	                N-Conn(F),                 N-Conn(F)
! DUT PORT 2:       	                K-Conn(F),                 K-Conn(F)
! CAL STATUS:       	        OK: Accuracy High,                        --
# GHZ S DB R 50.0
! FREQ.GHZ       S11DB        S11A       S21DB        S21A       S12DB        S12A       S22DB        S22A
  0.010000000   -7.218068  167.077927  -82.384423   80.997078    0.000000    0.000000    0.000000    0.000000
  0.010200000   -7.208807  166.879700  -82.381997   78.085014    0.000000    0.000000    0.000000    0.000000
  0.010400000   -7.205866  166.670258  -82.990310   75.689407    0.000000    0.000000    0.000000    0.000000
  0.010600000   -7.214929  166.374435  -82.800840   72.495529    0.000000    0.000000    0.000000    0.000000
  0.010800000   -7.211453  166.139008  -83.571215   72.112320    0.000000    0.000000    0.000000    0.000000
  0.011000000   -7.216344  165.853348  -83.244218   70.555908    0.000000    0.000000    0.000000    0.000000
  0.011200000   -7.216564  165.622559  -83.984813   64.324669    0.000000    0.000000    0.000000    0.000000
  0.011400000   -7.215885  165.334106  -83.889420   63.530945    0.000000    0.000000    0.000000    0.000000
  0.011600000   -7.217835  165.106567  -84.366195   62.279270    0.000000    0.000000    0.000000    0.000000
  0.011800000   -7.219188  164.848541  -84.770156   62.944012    0.000000    0.000000    0.000000    0.000000
  0.012000000   -7.222867  164.594360  -85.694808   61.182648    0.000000    0.000000    0.000000    0.000000
  0.012200000   -7.225384  164.327301  -85.285827   59.743454    0.000000    0.000000    0.000000    0.000000
  0.012400000   -7.227774  164.058212  -85.499068   62.509182    0.000000    0.000000    0.000000    0.000000
  0.012600000   -7.227242  163.802002  -85.122295   61.682278    0.000000    0.000000    0.000000    0.000000
  0.012800000   -7.225786  163.545807  -86.518505   58.658947    0.000000    0.000000    0.000000    0.000000
  0.013000000   -7.232966  163.302368  -86.405607   59.754543    0.000000    0.000000    0.000000    0.000000
  0.013200000   -7.233741  163.031693  -86.669277   57.710201    0.000000    0.000000    0.000000    0.000000
  0.013400000   -7.239219  162.800644  -87.482024   58.425274    0.000000    0.000000    0.000000    0.000000
  0.013600000   -7.236116  162.511765  -87.023439   60.230808    0.000000    0.000000    0.000000    0.000000
  0.013800000   -7.230292  162.274857  -87.557022   57.523151    0.000000    0.000000    0.000000    0.000000
  0.014000000   -7.231301  162.022232  -87.673624   60.535141    0.000000    0.000000    0.000000    0.000000
  0.014200000   -7.235214  161.752350  -87.679960   57.759537    0.000000    0.000000    0.000000    0.000000
  0.014400000   -7.231612  161.516434  -87.936392   55.905674    0.000000    0.000000    0.000000    0.000000
  0.014600000   -7.233686  161.270920  -88.000686   58.281307    0.000000    0.000000    0.000000    0.000000
  0.014800000   -7.238369  161.003372  -88.214526   59.933975    0.000000    0.000000    0.000000    0.000000
  0.015000000   -7.241647  160.725388  -87.791751   56.293488    0.000000    0.000000    0.000000    0.000000
  0.015200000   -7.244911  160.484253  -87.867930   55.292000    0.000000    0.000000    0.000000    0.000000
  0.015400000   -7.246290  160.225189  -88.088005   52.274475    0.000000    0.000000    0.000000    0.000000
  0.015600000   -7.249668  159.867325  -87.582515   56.040054    0.000000    0.000000    0.000000    0.000000
  0.015800000   -7.245970  159.694168  -87.953193   55.833664    0.000000    0.000000    0.000000    0.000000
  0.016000000   -7.248352  159.452011  -88.505261   52.450333    0.000000    0.000000    0.000000    0.000000
  0.016200000   -7.251690  159.207077  -88.066658   53.990074    0.000000    0.000000    0.000000    0.000000
  0.016400000   -7.250615  158.968781  -88.941259   48.740021    0.000000    0.000000    0.000000    0.000000
  0.016600000   -7.249482  158.702286  -88.347437   47.166164    0.000000    0.000000    0.000000    0.000000
  0.016800000   -7.250513  158.478424  -88.392912   48.562653    0.000000    0.000000    0.000000    0.000000
  0.017000000   -7.253427  158.199844  -88.623040   47.043362    0.000000    0.000000    0.000000    0.000000
  0.017200000   -7.249019  157.950806  -88.582560   44.300770    0.000000    0.000000    0.000000    0.000000
  0.017400000   -7.248950  157.691986  -88.147741   45.040474    0.000000    0.000000    0.000000    0.000000
  0.017600000   -7.254822  157.441864  -88.933003   40.583897    0.000000    0.000000    0.000000    0.000000
  0.017800000   -7.260310  157.171204  -89.356790   36.310516    0.000000    0.000000    0.000000    0.000000
  0.018000000   -7.253335  156.941193  -89.735212   42.485821    0.000000    0.000000    0.000000    0.000000
  0.018200000   -7.256430  156.694931  -90.528184   42.198009    0.000000    0.000000    0.000000    0.000000
  0.018400000   -7.256368  156.438522  -90.316976   37.997261    0.000000    0.000000    0.000000    0.000000
  0.018600000   -7.258239  156.192017  -89.871528   39.543777    0.000000    0.000000    0.000000    0.000000
  0.018800000   -7.263799  155.941315  -90.699566   36.482197    0.000000    0.000000    0.000000    0.000000
  0.019000000   -7.265700  155.692596  -89.879443   38.384842    0.000000    0.000000    0.000000    0.000000
  0.019200000   -7.264091  155.438431  -90.925489   35.094906    0.000000    0.000000    0.000000    0.000000
  0.019400000   -7.266042  155.194397  -90.884582   36.500416    0.000000    0.000000    0.000000    0.000000
  0.019600000   -7.268217  154.942520  -90.943148   36.081112    0.000000    0.000000    0.000000    0.000000
  0.019800000   -7.270281  154.697525  -91.049712   33.226254    0.000000    0.000000    0.000000    0.000000
  0.020000000   -7.270982  154.433334  -93.122617   40.948944    0.000000    0.000000    0.000000    0.000000
  0.020200000   -7.272947  154.185211  -91.559074   44.083031    0.000000    0.000000    0.000000    0.000000
  0.020400000   -7.266478  153.936264  -91.451767   39.977787    0.000000    0.000000    0.000000    0.000000
  0.020600000   -7.265909  153.689163  -91.259445   34.903255    0.000000    0.000000    0.000000    0.000000
  0.020800000   -7.264639  153.403961  -92.075545   35.775517    0.000000    0.000000    0.000000    0.000000
  0.021000000   -7.260508  153.173920  -92.672256   37.086926    0.000000    0.000000    0.000000    0.000000
  0.021200000   -7.261820  152.909851  -91.828527   41.557018    0.000000    0.000000    0.000000    0.000000
  0.021400000   -7.262494  152.656326  -91.883338   32.326580    0.000000    0.000000    0.000000    0.000000
  0.021600000   -7.263940  152.386383  -92.931915   36.679905    0.000000    0.000000    0.000000    0.000000
  0.021800000   -7.267011  152.144440  -92.467223   31.937363    0.000000    0.000000    0.000000    0.000000
  0.022000000   -7.273485  151.918457  -91.979833   38.550880    0.000000    0.000000    0.000000    0.000000
  0.022200000   -7.273635  151.662109  -93.158303   36.224808    0.000000    0.000000    0.000000    0.000000
  0.022400000   -7.271685  151.411484  -91.798275   34.162186    0.000000    0.000000    0.000000    0.000000
  0.022600000   -7.275706  151.166168  -91.368860   32.557999    0.000000    0.000000    0.000000    0.000000
  0.022800000   -7.276445  150.920914  -92.731348   33.977188    0.000000    0.000000    0.000000    0.000000
  0.023000000   -7.278491  150.670914  -92.296823   27.019049    0.000000    0.000000    0.000000    0.000000
  0.023200000   -7.276461  150.412903  -92.741113   34.617683    0.000000    0.000000    0.000000    0.000000
  0.023400000   -7.276289  150.145966  -92.798839   26.287361    0.000000    0.000000    0.000000    0.000000
  0.023600000   -7.273703  149.921814  -92.380184   31.945187    0.000000    0.000000    0.000000    0.000000
  0.023800000   -7.277027  149.630936  -92.354578   28.746443    0.000000    0.000000    0.000000    0.000000
  0.024000000   -7.272351  149.397446  -93.464196   27.771879    0.000000    0.000000    0.000000    0.000000
  0.024200000   -7.273991  149.116562  -93.218956   24.373003    0.000000    0.000000    0.000000    0.000000
  0.024400000   -7.272680  148.839417  -93.658535   30.686481    0.000000    0.000000    0.000000    0.000000
  0.024600000   -7.271194  148.567505  -94.281507   31.111126    0.000000    0.000000    0.000000    0.000000
  0.024800000   -7.274574  148.300125  -94.548983   24.270954    0.000000    0.000000    0.000000    0.000000
  0.025000000   -7.276090  148.071106  -94.560363   17.227686    0.000000    0.000000    0.000000    0.000000
  0.025200000   -7.269185  147.838699  -94.266225   23.253962    0.000000    0.000000    0.000000    0.000000
  0.025400000   -7.270613  147.621643  -94.172720   27.732794    0.000000    0.000000    0.000000    0.000000
  0.025600000   -7.275077  147.369812  -95.147739   29.916134    0.000000    0.000000    0.000000    0.000000
  0.025800000   -7.278126  147.153793  -94.422471   26.950241    0.000000    0.000000    0.000000    0.000000
  0.026000000   -7.277648  146.894882  -94.963789   18.118988    0.000000    0.000000    0.000000    0.000000
  0.026200000   -7.278266  146.672165  -93.735092   23.697638    0.000000    0.000000    0.000000    0.000000
  0.026400000   -7.279799  146.420517  -94.907218   24.292643    0.000000    0.000000    0.000000    0.000000
  0.026600000   -7.286112  146.167023  -96.059963   15.753275    0.000000    0.000000    0.000000    0.000000
  0.026800000   -7.288723  145.906845  -95.503435   15.696437    0.000000    0.000000    0.000000    0.000000
  0.027000000   -7.288914  145.619507  -95.611837   22.805218    0.000000    0.000000    0.000000    0.000000
  0.027200000   -7.289552  145.356216  -94.699096   21.789822    0.000000    0.000000    0.000000    0.000000
  0.027400000   -7.284689  145.064667  -95.603113   23.888075    0.000000    0.000000    0.000000    0.000000
  0.027600000   -7.281541  144.797531  -95.740401   22.560774    0.000000    0.000000    0.000000    0.000000
  0.027800000   -7.276234  144.503891  -96.191488   21.185123    0.000000    0.000000    0.000000    0.000000
  0.028000000   -7.275665  144.247910  -96.207631   23.139952    0.000000    0.000000    0.000000    0.000000
  0.028200000   -7.276531  143.983597  -95.475135   21.285103    0.000000    0.000000    0.000000    0.000000
  0.028400000   -7.273114  143.749084  -96.348384   22.846811    0.000000    0.000000    0.000000    0.000000
  0.028600000   -7.272264  143.516022  -95.024452   20.903301    0.000000    0.000000    0.000000    0.000000
  0.028800000   -7.267600  143.310959  -96.090830   21.646301    0.000000    0.000000    0.000000    0.000000
  0.029000000   -7.266542  143.093170  -97.028570   25.211952    0.000000    0.000000    0.000000    0.000000
  0.029200000   -7.265880  142.899048  -96.657885   25.755522    0.000000    0.000000    0.000000    0.000000
  0.029400000   -7.264622  142.699142  -95.604774   19.217161    0.000000    0.000000    0.000000    0.000000
  0.029600000   -7.262495  142.503159  -96.356849   17.239857    0.000000    0.000000    0.000000    0.000000
  0.029800000   -7.267086  142.265121  -96.323012   21.431471    0.000000    0.000000    0.000000    0.000000
  0.030000000   -7.271858  142.035233  -96.736730   14.977906    0.000000    0.000000    0.000000    0.000000
  0.030200000   -7.272584  141.779388  -96.449947   24.289356    0.000000    0.000000    0.000000    0.000000
  0.030400000   -7.273975  141.506439  -96.396404   23.875935    0.000000    0.000000    0.000000    0.000000
  0.030600000   -7.279489  141.233780  -95.945642   15.808766    0.000000    0.000000    0.000000    0.000000
  0.030800000   -7.278394  140.992523  -96.057828    9.296009    0.000000    0.000000    0.000000    0.000000
  0.031000000   -7.281247  140.723740  -96.774091   13.139911    0.000000    0.000000    0.000000    0.000000
  0.031200000   -7.272918  140.537567  -96.655157    7.398280    0.000000    0.000000    0.000000    0.000000
  0.031400000   -7.275188  140.240265  -95.374749   26.342844    0.000000    0.000000    0.000000    0.000000
  0.031600000   -7.281924  139.953964  -96.360881   18.679081    0.000000    0.000000    0.000000    0.000000
  0.031800000   -7.285244  139.717331  -97.513434   24.766113    0.000000    0.000000    0.000000    0.000000
  0.032000000   -7.284540  139.450394  -97.723083   15.323905    0.000000    0.000000    0.000000    0.000000
  0.032200000   -7.279601  139.170837  -97.250382   20.601038    0.000000    0.000000    0.000000    0.000000
  0.032400000   -7.274707  138.943069  -98.174482   16.788019    0.000000    0.000000    0.000000    0.000000
  0.032600000   -7.271541  138.674789  -98.848003    0.512506    0.000000    0.000000    0.000000    0.000000
  0.032800000   -7.266583  138.441055  -97.916517   10.725011    0.000000    0.000000    0.000000    0.000000
  0.033000000   -7.264583  138.221939  -96.221145   25.906145    0.000000    0.000000    0.000000    0.000000
  0.033200000   -7.264396  138.007050  -97.737242   11.928803    0.000000    0.000000    0.000000    0.000000
  0.033400000   -7.264425  137.777298  -98.571148   10.668687    0.000000    0.000000    0.000000    0.000000
  0.033600000   -7.265392  137.570450  -98.445744   27.706791    0.000000    0.000000    0.000000    0.000000
  0.033800000   -7.268825  137.364426  -97.547553   18.354496    0.000000    0.000000    0.000000    0.000000
  0.034000000   -7.274008  137.081985  -96.553136    8.147572    0.000000    0.000000    0.000000    0.000000
  0.034200000   -7.277609  136.833710  -99.016655   14.287722    0.000000    0.000000    0.000000    0.000000
  0.034400000   -7.282708  136.520462  -99.227102   22.308542    0.000000    0.000000    0.000000    0.000000
  0.034600000   -7.283628  136.241196  -99.279267   22.483612    0.000000    0.000000    0.000000    0.000000
  0.034800000   -7.290493  135.969681  -98.755459   18.437162    0.000000    0.000000    0.000000    0.000000
  0.035000000   -7.290640  135.703979  -98.408473    7.640037    0.000000    0.000000    0.000000    0.000000
  0.035200000   -7.294734  135.417923  -97.006373    4.677749    0.000000    0.000000    0.000000    0.000000
  0.035400000   -7.287088  135.146255  -99.249385   -7.790055    0.000000    0.000000    0.000000    0.000000
  0.035600000   -7.287168  134.878601  -99.621740    9.819113    0.000000    0.000000    0.000000    0.000000
  0.035800000   -7.283228  134.603516  -99.795664   25.858051    0.000000    0.000000    0.000000    0.000000
  0.036000000   -7.279847  134.330811  -98.620299   11.427124    0.000000    0.000000    0.000000    0.000000
  0.036200000   -7.268844  134.091202  -97.022398   14.621793    0.000000    0.000000    0.000000    0.000000
  0.036400000   -7.264043  133.825836 -100.360901   11.317886    0.000000    0.000000    0.000000    0.000000
  0.036600000   -7.259375  133.626816  -99.811883   -2.396875    0.000000    0.000000    0.000000    0.000000
  0.036800000   -7.255634  133.416428  -99.040858   20.504595    0.000000    0.000000    0.000000    0.000000
  0.037000000   -7.255754  133.226685  -98.915819   14.866851    0.000000    0.000000    0.000000    0.000000
  0.037200000   -7.259311  132.970520  -99.331457   -1.575571    0.000000    0.000000    0.000000    0.000000
  0.037400000   -7.259019  132.777588 -101.947252   14.937471    0.000000    0.000000    0.000000    0.000000
  0.037600000   -7.263252  132.521149 -101.988998   -3.054588    0.000000    0.000000    0.000000    0.000000
  0.037800000   -7.265554  132.284302  -99.943166    4.693055    0.000000    0.000000    0.000000    0.000000
  0.038000000   -7.273681  132.037445  -98.407706   12.673997    0.000000    0.000000    0.000000    0.000000
  0.038200000   -7.277267  131.757690 -100.122651    4.835710    0.000000    0.000000    0.000000    0.000000
  0.038400000   -7.279594  131.476166  -99.954194    2.615756    0.000000    0.000000    0.000000    0.000000
  0.038600000   -7.285614  131.232925  -98.499643   -4.492203    0.000000    0.000000    0.000000    0.000000
  0.038800000   -7.285957  130.961700  -98.110116    1.428014    0.000000    0.000000    0.000000    0.000000
  0.039000000   -7.287840  130.706451 -100.043173    2.936848    0.000000    0.000000    0.000000    0.000000
  0.039200000   -7.288197  130.454636  -98.236138    2.269316    0.000000    0.000000    0.000000    0.000000
  0.039400000   -7.285842  130.228165 -100.309971   -0.667453    0.000000    0.000000    0.000000    0.000000
  0.039600000   -7.283652  129.947311  -99.763322   11.495328    0.000000    0.000000    0.000000    0.000000
  0.039800000   -7.276970  129.636124 -103.578979   25.717190    0.000000    0.000000    0.000000    0.000000
  0.040000000   -7.272983  129.353500 -101.017226    4.501047    0.000000    0.000000    0.000000    0.000000
  0.040200000   -7.266273  129.118164 -101.365877   16.949087    0.000000    0.000000    0.000000    0.000000
  0.040400000   -7.259773  128.901199  -98.729487   22.062914    0.000000    0.000000    0.000000    0.000000
  0.040600000   -7.259671  128.686661 -102.090583    5.705698    0.000000    0.000000    0.000000    0.000000
  0.040800000   -7.253357  128.472778 -103.489448   -6.105315    0.000000    0.000000    0.000000    0.000000
  0.041000000   -7.260208  128.257324 -100.574624   15.267054    0.000000    0.000000    0.000000    0.000000
  0.041200000   -7.265573  128.031601  -99.712272    6.140466    0.000000    0.000000    0.000000    0.000000
  0.041400000   -7.270530  127.827141 -101.302708   -6.089847    0.000000    0.000000    0.000000    0.000000
  0.041600000   -7.275871  127.569641  -99.777509    3.715302    0.000000    0.000000    0.000000    0.000000
  0.041800000   -7.282023  127.294785 -101.640847   19.281439    0.000000    0.000000    0.000000    0.000000
  0.042000000   -7.288278  127.016045 -102.096042   17.583942    0.000000    0.000000    0.000000    0.000000
  0.042200000   -7.288638  126.798271 -101.654351   10.188951    0.000000    0.000000    0.000000    0.000000
  0.042400000   -7.288697  126.513435 -101.754118   -7.993537    0.000000    0.000000    0.000000    0.000000
  0.042600000   -7.288942  126.208176  -99.903682    0.808786    0.000000    0.000000    0.000000    0.000000
  0.042800000   -7.287408  125.961571 -100.600999   -0.383947    0.000000    0.000000    0.000000    0.000000
