! Anritsu VNA Master:                     Model: MS2036C/10/77
! SN:                                  1601066
! /card0/usr/256.ns.sma.r20.12.s2p
! Existing Calibration Information:
! TYPE:                         Current Settings,       Active Cal Settings
! TIME:             	   12/19/2017 03:41:24 PM,    12/19/2017 03:30:41 PM
! INTERNAL TEMP:    	                   47.8 C,                    48.0 C
! # POINTS:         	                      501,                       501
! START FREQ:       	               10.000 MHz,                10.000 MHz
! STOP FREQ:        	              110.000 MHz,               110.000 MHz
! SOURCE POWER:     	                     High,                      High
! IFBW:             	                   100 Hz,                    100 Hz
! AVG FACTOR:       	                       1 ,                        1 
! REF PLANE 1:      	                     0 mm,                      0 mm
! REF PLANE 2:      	                     0 mm,                      0 mm
! CAL TYPE:         	                 Full S11,                  Full S11
! CAL METHOD:       	                     SOLT,                      SOLT
! CAL LINE TYPE:    	                     Coax,                      Coax
! DUT PORT 1:       	                N-Conn(F),                 N-Conn(F)
! DUT PORT 2:       	                K-Conn(F),                 K-Conn(F)
! CAL STATUS:       	        OK: Accuracy High,                        --
# GHZ S DB R 50.0
! FREQ.GHZ       S11DB        S11A       S21DB        S21A       S12DB        S12A       S22DB        S22A
  0.010000000  -63.758704   89.693687  -82.587135   76.799744    0.000000    0.000000    0.000000    0.000000
  0.010200000  -63.808994   87.644424  -82.793615   77.640244    0.000000    0.000000    0.000000    0.000000
  0.010400000  -64.142831   91.876060  -82.734364   73.951759    0.000000    0.000000    0.000000    0.000000
  0.010600000  -63.502910   91.355743  -82.979646   72.047325    0.000000    0.000000    0.000000    0.000000
  0.010800000  -63.170014   89.630775  -83.346815   68.003967    0.000000    0.000000    0.000000    0.000000
  0.011000000  -63.469944   89.499611  -83.414880   72.774757    0.000000    0.000000    0.000000    0.000000
  0.011200000  -62.847533   91.285599  -83.754968   64.930298    0.000000    0.000000    0.000000    0.000000
  0.011400000  -62.838386   89.722427  -84.129445   63.844639    0.000000    0.000000    0.000000    0.000000
  0.011600000  -63.040044   84.267937  -84.648567   64.225647    0.000000    0.000000    0.000000    0.000000
  0.011800000  -62.849902   89.055405  -84.474899   59.946823    0.000000    0.000000    0.000000    0.000000
  0.012000000  -62.907940   84.541008  -84.847196   63.840981    0.000000    0.000000    0.000000    0.000000
  0.012200000  -62.345795   85.438889  -85.012361   59.725792    0.000000    0.000000    0.000000    0.000000
  0.012400000  -62.340071   84.474205  -85.880984   58.976948    0.000000    0.000000    0.000000    0.000000
  0.012600000  -62.417081   83.232361  -85.333434   63.067234    0.000000    0.000000    0.000000    0.000000
  0.012800000  -62.072229   84.482903  -85.994315   54.158619    0.000000    0.000000    0.000000    0.000000
  0.013000000  -61.713816   83.637878  -86.271017   61.596756    0.000000    0.000000    0.000000    0.000000
  0.013200000  -61.847948   81.637901  -86.894094   58.064087    0.000000    0.000000    0.000000    0.000000
  0.013400000  -61.825624   81.497505  -86.976577   58.031132    0.000000    0.000000    0.000000    0.000000
  0.013600000  -61.716174   81.702118  -87.527120   59.102932    0.000000    0.000000    0.000000    0.000000
  0.013800000  -61.654228   83.168228  -87.663611   57.306305    0.000000    0.000000    0.000000    0.000000
  0.014000000  -61.482313   81.154610  -87.329117   59.413460    0.000000    0.000000    0.000000    0.000000
  0.014200000  -61.125195   81.764687  -87.194722   55.840343    0.000000    0.000000    0.000000    0.000000
  0.014400000  -60.964497   81.165810  -88.356405   55.693043    0.000000    0.000000    0.000000    0.000000
  0.014600000  -61.164844   82.646721  -87.951640   58.235210    0.000000    0.000000    0.000000    0.000000
  0.014800000  -60.814004   80.981400  -88.313981   55.225025    0.000000    0.000000    0.000000    0.000000
  0.015000000  -60.867165   81.119019  -88.322276   53.713757    0.000000    0.000000    0.000000    0.000000
  0.015200000  -60.783901   80.974960  -88.013523   57.977474    0.000000    0.000000    0.000000    0.000000
  0.015400000  -60.670402   80.309921  -87.720395   54.694569    0.000000    0.000000    0.000000    0.000000
  0.015600000  -60.341918   79.875458  -88.254437   54.683681    0.000000    0.000000    0.000000    0.000000
  0.015800000  -60.492436   79.162865  -87.817865   52.722942    0.000000    0.000000    0.000000    0.000000
  0.016000000  -60.432633   78.021828  -88.456619   54.098892    0.000000    0.000000    0.000000    0.000000
  0.016200000  -60.199726   78.318474  -88.359110   51.714390    0.000000    0.000000    0.000000    0.000000
  0.016400000  -60.181446   77.872002  -88.107802   49.572941    0.000000    0.000000    0.000000    0.000000
  0.016600000  -60.121468   78.456848  -88.354418   46.693153    0.000000    0.000000    0.000000    0.000000
  0.016800000  -59.831311   76.900642  -88.601702   46.501041    0.000000    0.000000    0.000000    0.000000
  0.017000000  -59.862134   76.918266  -88.428006   49.501480    0.000000    0.000000    0.000000    0.000000
  0.017200000  -59.724126   78.084831  -88.709193   46.248451    0.000000    0.000000    0.000000    0.000000
  0.017400000  -59.709314   77.064072  -88.758663   40.025345    0.000000    0.000000    0.000000    0.000000
  0.017600000  -59.621879   76.810204  -89.078363   39.832317    0.000000    0.000000    0.000000    0.000000
  0.017800000  -59.672001   77.426758  -89.688327   40.395336    0.000000    0.000000    0.000000    0.000000
  0.018000000  -59.486672   75.900406  -89.834619   42.737923    0.000000    0.000000    0.000000    0.000000
  0.018200000  -59.451763   75.477432  -89.604044   39.973358    0.000000    0.000000    0.000000    0.000000
  0.018400000  -59.208669   76.972183  -90.228427   39.051208    0.000000    0.000000    0.000000    0.000000
  0.018600000  -59.186460   76.794655  -90.312033   37.460392    0.000000    0.000000    0.000000    0.000000
  0.018800000  -58.896499   76.699181  -91.114875   37.929909    0.000000    0.000000    0.000000    0.000000
  0.019000000  -58.894287   74.530106  -90.910946   38.903885    0.000000    0.000000    0.000000    0.000000
  0.019200000  -58.970685   76.411873  -90.600821   38.639885    0.000000    0.000000    0.000000    0.000000
  0.019400000  -58.772355   76.843300  -90.855674   37.190407    0.000000    0.000000    0.000000    0.000000
  0.019600000  -58.742692   76.199539  -91.199329   44.121120    0.000000    0.000000    0.000000    0.000000
  0.019800000  -58.663253   76.190842  -91.572745   39.644115    0.000000    0.000000    0.000000    0.000000
  0.020000000  -58.359338   75.424164  -91.797278   39.173134    0.000000    0.000000    0.000000    0.000000
  0.020200000  -58.567230   75.159698  -91.392233   34.829018    0.000000    0.000000    0.000000    0.000000
  0.020400000  -58.283953   75.242165  -92.034031   36.851624    0.000000    0.000000    0.000000    0.000000
  0.020600000  -58.640158   74.810181  -91.497620   40.645496    0.000000    0.000000    0.000000    0.000000
  0.020800000  -58.111476   74.524391  -91.079723   35.503021    0.000000    0.000000    0.000000    0.000000
  0.021000000  -58.115048   73.335205  -91.902896   43.155895    0.000000    0.000000    0.000000    0.000000
  0.021200000  -57.927880   73.618507  -93.096000   31.677977    0.000000    0.000000    0.000000    0.000000
  0.021400000  -57.892890   73.345627  -92.267653   35.476967    0.000000    0.000000    0.000000    0.000000
  0.021600000  -57.795615   73.587440  -93.103042   35.945953    0.000000    0.000000    0.000000    0.000000
  0.021800000  -57.703820   72.474289  -92.876596   33.946762    0.000000    0.000000    0.000000    0.000000
  0.022000000  -57.509645   72.614723  -92.955112   33.301605    0.000000    0.000000    0.000000    0.000000
  0.022200000  -57.321150   72.764961  -93.308560   33.952492    0.000000    0.000000    0.000000    0.000000
  0.022400000  -57.293694   73.165085  -92.796310   37.049648    0.000000    0.000000    0.000000    0.000000
  0.022600000  -57.195314   72.158852  -92.605683   36.078583    0.000000    0.000000    0.000000    0.000000
  0.022800000  -57.260637   71.774078  -92.363857   36.257740    0.000000    0.000000    0.000000    0.000000
  0.023000000  -57.180158   72.831261  -92.667877   32.538601    0.000000    0.000000    0.000000    0.000000
  0.023200000  -56.960339   72.362701  -92.901483   31.023949    0.000000    0.000000    0.000000    0.000000
  0.023400000  -56.022029   71.440147  -93.288093   30.445105    0.000000    0.000000    0.000000    0.000000
  0.023600000  -56.803618   71.744781  -93.411919   32.174725    0.000000    0.000000    0.000000    0.000000
  0.023800000  -56.678506   70.314209  -92.902212   30.163078    0.000000    0.000000    0.000000    0.000000
  0.024000000  -56.771492   71.518562  -93.110756   26.921751    0.000000    0.000000    0.000000    0.000000
  0.024200000  -56.594247   71.333244  -94.100235   18.743303    0.000000    0.000000    0.000000    0.000000
  0.024400000  -56.540326   70.697960  -93.976023   16.602062    0.000000    0.000000    0.000000    0.000000
  0.024600000  -56.467478   70.997017  -92.911419   23.916872    0.000000    0.000000    0.000000    0.000000
  0.024800000  -56.537593   69.726349  -94.879760   21.702484    0.000000    0.000000    0.000000    0.000000
  0.025000000  -56.215337   69.908752  -93.882462   21.119497    0.000000    0.000000    0.000000    0.000000
  0.025200000  -56.173916   69.546745  -94.998184   18.243174    0.000000    0.000000    0.000000    0.000000
  0.025400000  -56.229449   69.365486  -94.521971   23.562271    0.000000    0.000000    0.000000    0.000000
  0.025600000  -56.124696   69.020950  -94.427522   23.119909    0.000000    0.000000    0.000000    0.000000
  0.025800000  -56.082114   68.976257  -94.494982   22.950945    0.000000    0.000000    0.000000    0.000000
  0.026000000  -56.168384   68.729362  -94.500332   18.127363    0.000000    0.000000    0.000000    0.000000
  0.026200000  -55.869500   68.552055  -94.970335   17.591320    0.000000    0.000000    0.000000    0.000000
  0.026400000  -55.943509   68.323875  -95.824283   24.983698    0.000000    0.000000    0.000000    0.000000
  0.026600000  -55.942527   67.817329  -95.231152   21.158104    0.000000    0.000000    0.000000    0.000000
  0.026800000  -55.956986   68.318832  -95.816531   22.161667    0.000000    0.000000    0.000000    0.000000
  0.027000000  -55.821784   67.185188  -94.899329   24.867540    0.000000    0.000000    0.000000    0.000000
  0.027200000  -55.695533   67.219162  -95.431275   19.242874    0.000000    0.000000    0.000000    0.000000
  0.027400000  -55.744517   67.445129  -94.803832   21.985958    0.000000    0.000000    0.000000    0.000000
  0.027600000  -55.722073   67.344948  -95.836850   19.497160    0.000000    0.000000    0.000000    0.000000
  0.027800000  -55.495692   67.729111  -96.517925   24.510138    0.000000    0.000000    0.000000    0.000000
  0.028000000  -55.557073   67.059288  -95.465725   14.424662    0.000000    0.000000    0.000000    0.000000
  0.028200000  -55.462569   66.298584  -95.105754   25.279045    0.000000    0.000000    0.000000    0.000000
  0.028400000  -55.388155   67.131012  -96.039084   21.195944    0.000000    0.000000    0.000000    0.000000
  0.028600000  -55.452864   65.929230  -95.358900   17.649635    0.000000    0.000000    0.000000    0.000000
  0.028800000  -55.415891   65.106720  -96.126549   17.833223    0.000000    0.000000    0.000000    0.000000
  0.029000000  -55.332063   65.855972  -97.315267   12.880526    0.000000    0.000000    0.000000    0.000000
  0.029200000  -55.209210   65.525047  -96.961858   13.664003    0.000000    0.000000    0.000000    0.000000
  0.029400000  -55.197370   65.287041  -96.530801   22.935667    0.000000    0.000000    0.000000    0.000000
  0.029600000  -55.163915   65.402412  -95.800685   12.999778    0.000000    0.000000    0.000000    0.000000
  0.029800000  -55.165040   65.584946  -95.330287   14.254633    0.000000    0.000000    0.000000    0.000000
  0.030000000  -54.976661   65.261711  -95.977812   14.876183    0.000000    0.000000    0.000000    0.000000
  0.030200000  -55.054642   65.203979  -95.024144   16.998503    0.000000    0.000000    0.000000    0.000000
  0.030400000  -54.992485   64.101501  -96.760859   15.323393    0.000000    0.000000    0.000000    0.000000
  0.030600000  -54.786907   64.953400  -95.978911   17.828482    0.000000    0.000000    0.000000    0.000000
  0.030800000  -54.866207   63.752323  -96.250305   15.164804    0.000000    0.000000    0.000000    0.000000
  0.031000000  -54.748151   64.092361  -98.444505   13.842736    0.000000    0.000000    0.000000    0.000000
  0.031200000  -54.547890   63.275814  -95.539056   16.089287    0.000000    0.000000    0.000000    0.000000
  0.031400000  -54.445800   63.188423  -97.110660    6.870722    0.000000    0.000000    0.000000    0.000000
  0.031600000  -54.426582   63.598083  -96.980587   13.161638    0.000000    0.000000    0.000000    0.000000
  0.031800000  -54.255923   63.979668  -96.447036   26.335979    0.000000    0.000000    0.000000    0.000000
  0.032000000  -54.361689   63.679684  -99.081475    7.692437    0.000000    0.000000    0.000000    0.000000
  0.032200000  -54.285836   63.261330  -97.107659   19.763382    0.000000    0.000000    0.000000    0.000000
  0.032400000  -54.074060   64.384903  -98.289826    1.916695    0.000000    0.000000    0.000000    0.000000
  0.032600000  -53.977214   63.040932  -97.144464   19.315544    0.000000    0.000000    0.000000    0.000000
  0.032800000  -53.865526   62.816879  -98.729747   10.220792    0.000000    0.000000    0.000000    0.000000
  0.033000000  -53.961639   62.467037  -96.231236    8.621087    0.000000    0.000000    0.000000    0.000000
  0.033200000  -53.979715   62.800121  -98.077661   21.573818    0.000000    0.000000    0.000000    0.000000
  0.033400000  -53.719461   61.861076  -99.945891   16.049835    0.000000    0.000000    0.000000    0.000000
  0.033600000  -53.834392   62.135712  -95.596704   11.957931    0.000000    0.000000    0.000000    0.000000
  0.033800000  -53.713271   61.823074  -99.285941   21.241976    0.000000    0.000000    0.000000    0.000000
  0.034000000  -53.661281   61.483757 -100.438203   11.079173    0.000000    0.000000    0.000000    0.000000
  0.034200000  -53.388640   61.487282  -99.211154   22.081179    0.000000    0.000000    0.000000    0.000000
  0.034400000  -53.487223   61.842014  -97.908217    6.661276    0.000000    0.000000    0.000000    0.000000
  0.034600000  -53.508503   61.920677  -97.833680   21.483116    0.000000    0.000000    0.000000    0.000000
  0.034800000  -53.437119   61.555016  -97.558513    3.771379    0.000000    0.000000    0.000000    0.000000
  0.035000000  -53.320031   60.685036  -96.406179    5.038760    0.000000    0.000000    0.000000    0.000000
  0.035200000  -53.288458   60.246456  -98.794101    6.233857    0.000000    0.000000    0.000000    0.000000
  0.035400000  -53.242057   60.600990 -100.804168    6.799436    0.000000    0.000000    0.000000    0.000000
  0.035600000  -53.203033   59.850716  -99.198974    9.948015    0.000000    0.000000    0.000000    0.000000
  0.035800000  -53.231222   59.981663  -98.738596    5.497841    0.000000    0.000000    0.000000    0.000000
  0.036000000  -53.174298   59.991028 -101.294608    5.593622    0.000000    0.000000    0.000000    0.000000
  0.036200000  -53.140698   60.298542  -99.461674    5.409281    0.000000    0.000000    0.000000    0.000000
  0.036400000  -53.013631   59.465042  -98.163944   -0.851551    0.000000    0.000000    0.000000    0.000000
  0.036600000  -53.035574   59.136726  -98.375306   -2.109717    0.000000    0.000000    0.000000    0.000000
  0.036800000  -52.925428   59.043159  -99.555481   -1.949635    0.000000    0.000000    0.000000    0.000000
  0.037000000  -52.866733   59.122650  -98.817457    6.000615    0.000000    0.000000    0.000000    0.000000
  0.037200000  -52.869854   59.352409  -99.202411   13.461100    0.000000    0.000000    0.000000    0.000000
  0.037400000  -52.800282   60.328022  -99.399677   -0.601859    0.000000    0.000000    0.000000    0.000000
  0.037600000  -52.968030   59.353600 -101.917052    8.411821    0.000000    0.000000    0.000000    0.000000
  0.037800000  -52.804486   59.111298 -104.130003  -11.980438    0.000000    0.000000    0.000000    0.000000
  0.038000000  -52.741349   58.375652 -100.343050   -1.766160    0.000000    0.000000    0.000000    0.000000
  0.038200000  -52.764878   58.470928 -100.568279   -0.162262    0.000000    0.000000    0.000000    0.000000
  0.038400000  -52.760475   57.820202  -99.617064    4.543016    0.000000    0.000000    0.000000    0.000000
  0.038600000  -52.626773   57.926506  -99.425609    2.265232    0.000000    0.000000    0.000000    0.000000
  0.038800000  -52.482492   57.655083 -100.333514    5.287997    0.000000    0.000000    0.000000    0.000000
  0.039000000  -52.368396   57.361637  -98.319551   13.826559    0.000000    0.000000    0.000000    0.000000
  0.039200000  -52.359377   57.805721 -101.603093    2.689128    0.000000    0.000000    0.000000    0.000000
  0.039400000  -52.383577   57.160198 -100.203427   -0.862568    0.000000    0.000000    0.000000    0.000000
  0.039600000  -52.266918   56.886055  -99.769031   16.893057    0.000000    0.000000    0.000000    0.000000
  0.039800000  -52.118882   57.299332 -102.114741   23.679926    0.000000    0.000000    0.000000    0.000000
  0.040000000  -52.195454   56.262825 -101.734737    4.142836    0.000000    0.000000    0.000000    0.000000
  0.040200000  -52.073424   56.889824 -100.509341    6.719644    0.000000    0.000000    0.000000    0.000000
  0.040400000  -51.922839   56.977051  -99.960339   13.256719    0.000000    0.000000    0.000000    0.000000
  0.040600000  -51.966652   56.596298  -99.572795    9.482678    0.000000    0.000000    0.000000    0.000000
  0.040800000  -51.784428   55.651077  -99.478697   14.440025    0.000000    0.000000    0.000000    0.000000
  0.041000000  -51.830232   55.893711 -100.551226    4.775993    0.000000    0.000000    0.000000    0.000000
  0.041200000  -51.780338   56.818703 -101.064001    0.430417    0.000000    0.000000    0.000000    0.000000
  0.041400000  -51.628540   55.693710  -97.756400   11.625883    0.000000    0.000000    0.000000    0.000000
  0.041600000  -51.601706   55.275719  -99.930477   16.417751    0.000000    0.000000    0.000000    0.000000
  0.041800000  -51.625688   55.997200  -99.251246   -1.448060    0.000000    0.000000    0.000000    0.000000
  0.042000000  -51.526056   54.922127  -99.575762   12.753168    0.000000    0.000000    0.000000    0.000000
  0.042200000  -51.461323   54.820797  -99.398392    0.541029    0.000000    0.000000    0.000000    0.000000
  0.042400000  -51.490179   54.927906 -100.392832  -11.225697    0.000000    0.000000    0.000000    0.000000
  0.042600000  -51.335344   54.462101  -99.577453   19.678637    0.000000    0.000000    0.000000    0.000000
  0.042800000  -51.295810   53.638195 -100.665430    1.728803    0.000000    0.000000    0.000000    0.000000
