! Anritsu VNA Master:                     Model: MS2036C/10/77
! SN:                                  1601066
! /card0/usr/256.ns.sma.r50.22.s2p
! Existing Calibration Information:
! TYPE:                         Current Settings,       Active Cal Settings
! TIME:             	   12/19/2017 03:53:15 PM,    12/19/2017 03:30:41 PM
! INTERNAL TEMP:    	                   47.3 C,                    48.0 C
! # POINTS:         	                      501,                       501
! START FREQ:       	               10.000 MHz,                10.000 MHz
! STOP FREQ:        	              110.000 MHz,               110.000 MHz
! SOURCE POWER:     	                     High,                      High
! IFBW:             	                   100 Hz,                    100 Hz
! AVG FACTOR:       	                       1 ,                        1 
! REF PLANE 1:      	                     0 mm,                      0 mm
! REF PLANE 2:      	                     0 mm,                      0 mm
! CAL TYPE:         	                 Full S11,                  Full S11
! CAL METHOD:       	                     SOLT,                      SOLT
! CAL LINE TYPE:    	                     Coax,                      Coax
! DUT PORT 1:       	                N-Conn(F),                 N-Conn(F)
! DUT PORT 2:       	                K-Conn(F),                 K-Conn(F)
! CAL STATUS:       	        OK: Accuracy High,                        --
# GHZ S DB R 50.0
! FREQ.GHZ       S11DB        S11A       S21DB        S21A       S12DB        S12A       S22DB        S22A
  0.010000000  -97.998085  -18.571844  -83.200927   76.964508    0.000000    0.000000    0.000000    0.000000
  0.010200000  -97.804187  -20.854851  -83.265956   76.653229    0.000000    0.000000    0.000000    0.000000
  0.010400000  -98.221061  -15.922952  -83.703071   74.726532    0.000000    0.000000    0.000000    0.000000
  0.010600000  -97.206647  -16.032438  -83.260800   75.845970    0.000000    0.000000    0.000000    0.000000
  0.010800000  -96.842965  -18.385544  -83.875145   73.123322    0.000000    0.000000    0.000000    0.000000
  0.011000000  -96.970463  -18.335688  -84.312508   73.498009    0.000000    0.000000    0.000000    0.000000
  0.011200000  -96.254966  -14.415633  -84.276065   68.002182    0.000000    0.000000    0.000000    0.000000
  0.011400000  -96.373015  -17.653797  -84.239745   70.742935    0.000000    0.000000    0.000000    0.000000
  0.011600000  -96.610898  -21.140802  -85.043736   68.897064    0.000000    0.000000    0.000000    0.000000
  0.011800000  -96.356650  -17.670979  -84.748235   68.988220    0.000000    0.000000    0.000000    0.000000
  0.012000000  -96.480497  -20.801470  -85.416613   65.811607    0.000000    0.000000    0.000000    0.000000
  0.012200000  -95.766806  -20.130102  -85.469892   67.533073    0.000000    0.000000    0.000000    0.000000
  0.012400000  -95.682663  -21.776331  -85.195931   63.974926    0.000000    0.000000    0.000000    0.000000
  0.012600000  -95.771600  -21.755308  -85.440658   63.141003    0.000000    0.000000    0.000000    0.000000
  0.012800000  -95.180377  -22.012739  -85.962699   64.010712    0.000000    0.000000    0.000000    0.000000
  0.013000000  -95.119890  -23.583771  -86.252355   61.409275    0.000000    0.000000    0.000000    0.000000
  0.013200000  -94.953323  -26.484104  -86.119530   60.631275    0.000000    0.000000    0.000000    0.000000
  0.013400000  -94.971245  -25.678535  -86.029450   60.791641    0.000000    0.000000    0.000000    0.000000
  0.013600000  -94.757687  -26.474388  -86.156067   58.591740    0.000000    0.000000    0.000000    0.000000
  0.013800000  -94.553306  -25.889782  -86.574466   56.448479    0.000000    0.000000    0.000000    0.000000
  0.014000000  -94.237491  -27.169275  -86.911734   57.871735    0.000000    0.000000    0.000000    0.000000
  0.014200000  -93.762658  -28.035967  -86.839121   55.505222    0.000000    0.000000    0.000000    0.000000
  0.014400000  -93.506607  -28.903244  -87.437345   53.960209    0.000000    0.000000    0.000000    0.000000
  0.014600000  -93.701991  -26.530825  -87.174438   52.659378    0.000000    0.000000    0.000000    0.000000
  0.014800000  -93.180346  -29.307564  -87.569210   55.229160    0.000000    0.000000    0.000000    0.000000
  0.015000000  -92.921898  -28.977764  -87.664114   54.046146    0.000000    0.000000    0.000000    0.000000
  0.015200000  -92.739040  -29.790844  -87.861637   52.786869    0.000000    0.000000    0.000000    0.000000
  0.015400000  -92.625946  -28.744280  -87.702562   52.118637    0.000000    0.000000    0.000000    0.000000
  0.015600000  -92.071783  -30.145201  -88.096628   52.997318    0.000000    0.000000    0.000000    0.000000
  0.015800000  -92.071586  -32.179935  -88.003428   51.000389    0.000000    0.000000    0.000000    0.000000
  0.016000000  -91.815756  -32.096329  -88.479467   47.119076    0.000000    0.000000    0.000000    0.000000
  0.016200000  -91.379178  -32.430996  -88.165974   45.276962    0.000000    0.000000    0.000000    0.000000
  0.016400000  -91.354913  -32.135220  -88.991549   48.973515    0.000000    0.000000    0.000000    0.000000
  0.016600000  -91.082772  -31.460903  -88.967466   45.947876    0.000000    0.000000    0.000000    0.000000
  0.016800000  -90.813935  -31.979967  -88.786214   46.056881    0.000000    0.000000    0.000000    0.000000
  0.017000000  -90.565023  -32.233715  -89.556238   50.045177    0.000000    0.000000    0.000000    0.000000
  0.017200000  -90.231206  -30.522705  -89.862761   47.163280    0.000000    0.000000    0.000000    0.000000
  0.017400000  -90.408238  -31.790337  -89.988057   46.364239    0.000000    0.000000    0.000000    0.000000
  0.017600000  -90.097741  -30.974379  -89.959744   43.988293    0.000000    0.000000    0.000000    0.000000
  0.017800000  -90.079509  -29.497671  -89.826513   45.820465    0.000000    0.000000    0.000000    0.000000
  0.018000000  -89.551721  -30.642599  -89.462796   39.166000    0.000000    0.000000    0.000000    0.000000
  0.018200000  -89.614951  -29.926010  -89.525971   41.771980    0.000000    0.000000    0.000000    0.000000
  0.018400000  -89.328844  -28.671242  -90.253363   36.334721    0.000000    0.000000    0.000000    0.000000
  0.018600000  -89.196206  -28.228615  -90.284459   43.033997    0.000000    0.000000    0.000000    0.000000
  0.018800000  -88.874799  -27.812635  -90.808153   37.802395    0.000000    0.000000    0.000000    0.000000
  0.019000000  -88.830082  -28.904596  -90.709545   40.060951    0.000000    0.000000    0.000000    0.000000
  0.019200000  -88.831993  -27.085186  -91.113695   39.090950    0.000000    0.000000    0.000000    0.000000
  0.019400000  -88.768382  -26.441786  -90.155909   36.263248    0.000000    0.000000    0.000000    0.000000
  0.019600000  -88.646471  -26.407589  -90.851114   39.724491    0.000000    0.000000    0.000000    0.000000
  0.019800000  -88.576740  -26.170378  -91.634108   37.293812    0.000000    0.000000    0.000000    0.000000
  0.020000000  -88.261937  -26.815729  -90.433432   35.580097    0.000000    0.000000    0.000000    0.000000
  0.020200000  -88.478138  -27.071087  -91.242129   37.844238    0.000000    0.000000    0.000000    0.000000
  0.020400000  -88.297322  -26.132317  -91.415066   40.415279    0.000000    0.000000    0.000000    0.000000
  0.020600000  -88.603975  -26.908733  -91.842253   36.502769    0.000000    0.000000    0.000000    0.000000
  0.020800000  -88.023376  -26.278959  -91.461431   36.747272    0.000000    0.000000    0.000000    0.000000
  0.021000000  -88.022884  -27.873377  -92.750940   36.266499    0.000000    0.000000    0.000000    0.000000
  0.021200000  -88.029621  -29.149185  -92.459565   32.672298    0.000000    0.000000    0.000000    0.000000
  0.021400000  -87.819862  -28.404749  -91.365168   35.680878    0.000000    0.000000    0.000000    0.000000
  0.021600000  -87.678101  -28.358015  -92.087024   37.315948    0.000000    0.000000    0.000000    0.000000
  0.021800000  -87.689361  -30.210228  -92.029214   39.275494    0.000000    0.000000    0.000000    0.000000
  0.022000000  -87.630037  -29.962240  -92.379863   37.084648    0.000000    0.000000    0.000000    0.000000
  0.022200000  -87.344829  -31.312128  -92.074270   35.373203    0.000000    0.000000    0.000000    0.000000
  0.022400000  -87.349664  -31.127893  -92.635913   34.386696    0.000000    0.000000    0.000000    0.000000
  0.022600000  -87.287983  -31.635975  -93.204780   28.629030    0.000000    0.000000    0.000000    0.000000
  0.022800000  -87.306592  -33.199726  -92.689870   30.917084    0.000000    0.000000    0.000000    0.000000
  0.023000000  -87.014693  -32.696850  -92.010625   23.818953    0.000000    0.000000    0.000000    0.000000
  0.023200000  -86.808546  -33.378536  -93.423874   25.093504    0.000000    0.000000    0.000000    0.000000
  0.023400000  -85.921845  -34.214893  -93.920951   27.835800    0.000000    0.000000    0.000000    0.000000
  0.023600000  -86.452024  -35.133217  -93.198434   31.622047    0.000000    0.000000    0.000000    0.000000
  0.023800000  -86.264743  -37.045410  -93.143604   29.886303    0.000000    0.000000    0.000000    0.000000
  0.024000000  -86.273991  -35.960514  -94.135754   27.182041    0.000000    0.000000    0.000000    0.000000
  0.024200000  -85.979992  -36.722214  -93.452798   33.566006    0.000000    0.000000    0.000000    0.000000
  0.024400000  -85.796746  -36.977867  -93.085468   25.331476    0.000000    0.000000    0.000000    0.000000
  0.024600000  -85.554397  -37.821110  -93.519571   27.954252    0.000000    0.000000    0.000000    0.000000
  0.024800000  -85.523195  -39.913479  -94.248736   26.461525    0.000000    0.000000    0.000000    0.000000
  0.025000000  -85.075289  -39.489082  -94.934731   28.166458    0.000000    0.000000    0.000000    0.000000
  0.025200000  -84.786153  -39.401283  -93.476903   24.373449    0.000000    0.000000    0.000000    0.000000
  0.025400000  -84.909587  -40.010502  -94.502095   29.586958    0.000000    0.000000    0.000000    0.000000
  0.025600000  -84.601407  -40.497257  -94.169191   22.685415    0.000000    0.000000    0.000000    0.000000
  0.025800000  -84.445894  -40.404285  -94.690580   21.868153    0.000000    0.000000    0.000000    0.000000
  0.026000000  -84.407449  -40.457500  -94.859241   27.985781    0.000000    0.000000    0.000000    0.000000
  0.026200000  -83.927241  -40.179012  -94.807557   19.716333    0.000000    0.000000    0.000000    0.000000
  0.026400000  -83.924978  -40.788826  -95.778341   14.592851    0.000000    0.000000    0.000000    0.000000
  0.026600000  -83.723549  -40.635490  -95.102149   19.474764    0.000000    0.000000    0.000000    0.000000
  0.026800000  -83.605343  -40.074642  -95.563527   23.554693    0.000000    0.000000    0.000000    0.000000
  0.027000000  -83.389052  -40.622601  -95.607172   26.235912    0.000000    0.000000    0.000000    0.000000
  0.027200000  -83.130178  -40.294426  -95.733715   16.195555    0.000000    0.000000    0.000000    0.000000
  0.027400000  -83.024972  -39.570396  -95.582261   22.665350    0.000000    0.000000    0.000000    0.000000
  0.027600000  -82.953032  -38.293438  -95.431838   10.818000    0.000000    0.000000    0.000000    0.000000
  0.027800000  -82.758454  -37.287868  -94.973509   22.081161    0.000000    0.000000    0.000000    0.000000
  0.028000000  -82.651474  -36.846188  -95.813335   18.150177    0.000000    0.000000    0.000000    0.000000
  0.028200000  -82.536123  -37.218426  -96.296926   17.940125    0.000000    0.000000    0.000000    0.000000
  0.028400000  -82.360222  -36.275532  -96.320725   20.796707    0.000000    0.000000    0.000000    0.000000
  0.028600000  -82.400012  -36.585117  -96.569559   19.469210    0.000000    0.000000    0.000000    0.000000
  0.028800000  -82.385094  -36.278366  -97.690670   18.019510    0.000000    0.000000    0.000000    0.000000
  0.029000000  -82.225761  -35.560944  -96.824870   20.627020    0.000000    0.000000    0.000000    0.000000
  0.029200000  -82.001620  -34.880486  -95.597100   10.920031    0.000000    0.000000    0.000000    0.000000
  0.029400000  -82.015741  -34.403614  -96.672605   19.503830    0.000000    0.000000    0.000000    0.000000
  0.029600000  -82.014444  -34.502811  -97.628756   17.359991    0.000000    0.000000    0.000000    0.000000
  0.029800000  -82.038345  -33.988106  -97.568542   25.712053    0.000000    0.000000    0.000000    0.000000
  0.030000000  -81.876156  -33.921272  -97.634725   20.389801    0.000000    0.000000    0.000000    0.000000
  0.030200000  -82.025942  -32.538055  -97.275469   15.236629    0.000000    0.000000    0.000000    0.000000
  0.030400000  -81.985614  -33.370747  -95.981548   23.455923    0.000000    0.000000    0.000000    0.000000
  0.030600000  -81.808735  -32.528652  -97.637760   19.648937    0.000000    0.000000    0.000000    0.000000
  0.030800000  -81.844871  -33.134335  -97.312318   18.897738    0.000000    0.000000    0.000000    0.000000
  0.031000000  -81.852677  -32.893894  -96.775632   14.815628    0.000000    0.000000    0.000000    0.000000
  0.031200000  -81.638336  -34.030876  -98.095058   13.621144    0.000000    0.000000    0.000000    0.000000
  0.031400000  -81.517413  -33.934933  -97.945568    2.048335    0.000000    0.000000    0.000000    0.000000
  0.031600000  -81.695207  -33.926105  -98.557664   13.403421    0.000000    0.000000    0.000000    0.000000
  0.031800000  -81.526323  -33.342072  -96.761581   12.216540    0.000000    0.000000    0.000000    0.000000
  0.032000000  -81.614883  -33.926613  -98.820070   21.491371    0.000000    0.000000    0.000000    0.000000
  0.032200000  -81.662442  -35.021458  -98.145766   17.355875    0.000000    0.000000    0.000000    0.000000
  0.032400000  -81.306247  -33.887177  -95.893567    8.866621    0.000000    0.000000    0.000000    0.000000
  0.032600000  -81.336479  -36.034580  -97.681289   11.223677    0.000000    0.000000    0.000000    0.000000
  0.032800000  -81.233517  -36.884464  -97.294068   19.544142    0.000000    0.000000    0.000000    0.000000
  0.033000000  -81.284530  -36.987968  -98.295176    2.131148    0.000000    0.000000    0.000000    0.000000
  0.033200000  -81.280469  -36.660854  -97.355559   11.504809    0.000000    0.000000    0.000000    0.000000
  0.033400000  -80.988655  -38.757408  -98.230526   16.072973    0.000000    0.000000    0.000000    0.000000
  0.033600000  -81.087415  -38.776508  -96.326655    9.862131    0.000000    0.000000    0.000000    0.000000
  0.033800000  -80.910427  -39.640423  -98.538476   18.410234    0.000000    0.000000    0.000000    0.000000
  0.034000000  -80.948215  -40.626396  -99.851105   13.098259    0.000000    0.000000    0.000000    0.000000
  0.034200000  -80.325480  -40.106415  -99.139143   -3.489804    0.000000    0.000000    0.000000    0.000000
  0.034400000  -80.300052  -41.095505  -98.571153   19.245249    0.000000    0.000000    0.000000    0.000000
  0.034600000  -80.355338  -40.929855  -98.846770    6.852557    0.000000    0.000000    0.000000    0.000000
  0.034800000  -80.017440  -41.015896  -98.625357   19.201645    0.000000    0.000000    0.000000    0.000000
  0.035000000  -79.821293  -41.824631  -96.429349   11.893989    0.000000    0.000000    0.000000    0.000000
  0.035200000  -79.720974  -42.176010  -97.201538    8.578348    0.000000    0.000000    0.000000    0.000000
  0.035400000  -79.561741  -41.680466  -97.647796   10.737045    0.000000    0.000000    0.000000    0.000000
  0.035600000  -79.358339  -42.517578  -98.735658    9.791773    0.000000    0.000000    0.000000    0.000000
  0.035800000  -79.281269  -41.830845  -97.871546   16.960567    0.000000    0.000000    0.000000    0.000000
  0.036000000  -79.186734  -41.217785  -99.371831   18.561695    0.000000    0.000000    0.000000    0.000000
  0.036200000  -79.055597  -40.580315 -100.885903    3.244579    0.000000    0.000000    0.000000    0.000000
  0.036400000  -78.779059  -40.544994  -98.425044    8.148480    0.000000    0.000000    0.000000    0.000000
  0.036600000  -78.755034  -40.253185  -98.063362   11.930273    0.000000    0.000000    0.000000    0.000000
  0.036800000  -78.637385  -39.607155  -99.631233    0.021049    0.000000    0.000000    0.000000    0.000000
  0.037000000  -78.567259  -38.026772 -100.234630    7.625976    0.000000    0.000000    0.000000    0.000000
  0.037200000  -78.517518  -38.097546  -98.032134   16.200619    0.000000    0.000000    0.000000    0.000000
  0.037400000  -78.476824  -36.043541 -100.322987    4.920382    0.000000    0.000000    0.000000    0.000000
  0.037600000  -78.607310  -36.475296  -97.222289   10.855148    0.000000    0.000000    0.000000    0.000000
  0.037800000  -78.516100  -36.369915 -102.640242    9.392163    0.000000    0.000000    0.000000    0.000000
  0.038000000  -78.353644  -36.098042 -100.032931   16.840914    0.000000    0.000000    0.000000    0.000000
  0.038200000  -78.476784  -35.489552  -99.628647    1.328910    0.000000    0.000000    0.000000    0.000000
  0.038400000  -78.517795  -36.238945 -100.401660   17.701143    0.000000    0.000000    0.000000    0.000000
  0.038600000  -78.514049  -35.079609  -98.232627    9.952966    0.000000    0.000000    0.000000    0.000000
  0.038800000  -78.384926  -34.506008 -100.455368   16.533436    0.000000    0.000000    0.000000    0.000000
  0.039000000  -78.454011  -34.665134  -98.842846  -12.588207    0.000000    0.000000    0.000000    0.000000
  0.039200000  -78.369958  -34.776356  -98.419556    9.380423    0.000000    0.000000    0.000000    0.000000
  0.039400000  -78.681183  -34.818882 -100.073804    3.335859    0.000000    0.000000    0.000000    0.000000
  0.039600000  -78.583794  -34.833843  -99.860581   10.406360    0.000000    0.000000    0.000000    0.000000
  0.039800000  -78.512896  -34.356339 -101.117920   11.085412    0.000000    0.000000    0.000000    0.000000
  0.040000000  -78.660946  -35.924900  -98.531249    3.681753    0.000000    0.000000    0.000000    0.000000
  0.040200000  -78.683465  -35.372620  -99.379752   10.758984    0.000000    0.000000    0.000000    0.000000
  0.040400000  -78.653387  -35.890312 -102.550625   13.518418    0.000000    0.000000    0.000000    0.000000
  0.040600000  -78.756967  -36.404743 -100.932385    6.657642    0.000000    0.000000    0.000000    0.000000
  0.040800000  -78.668313  -38.698788 -101.559146   -5.745530    0.000000    0.000000    0.000000    0.000000
  0.041000000  -78.755444  -39.025459  -99.914139    0.395759    0.000000    0.000000    0.000000    0.000000
  0.041200000  -78.691684  -38.613609 -101.341866    3.491902    0.000000    0.000000    0.000000    0.000000
  0.041400000  -78.566515  -41.196461  -99.114977   -8.649769    0.000000    0.000000    0.000000    0.000000
  0.041600000  -78.455364  -42.124195 -100.481503   17.901215    0.000000    0.000000    0.000000    0.000000
  0.041800000  -78.470580  -43.019341 -100.477742   19.340395    0.000000    0.000000    0.000000    0.000000
  0.042000000  -78.368329  -44.390354 -100.695787   -8.814836    0.000000    0.000000    0.000000    0.000000
  0.042200000  -78.011176  -45.278442 -100.990447   11.306067    0.000000    0.000000    0.000000    0.000000
  0.042400000  -77.921938  -46.175938 -102.319383   23.557734    0.000000    0.000000    0.000000    0.000000
  0.042600000  -77.800761  -46.361362 -100.381256   21.493366    0.000000    0.000000    0.000000    0.000000
  0.042800000  -77.565980  -47.984009 -101.941275    3.624771    0.000000    0.000000    0.000000    0.000000
