! Anritsu VNA Master:                     Model: MS2036C/10/77
! SN:                                  1601066
! /card0/usr/256.ns.sma.r20.21.s2p
! Existing Calibration Information:
! TYPE:                         Current Settings,       Active Cal Settings
! TIME:             	   12/19/2017 03:48:17 PM,    12/19/2017 03:30:41 PM
! INTERNAL TEMP:    	                   47.3 C,                    48.0 C
! # POINTS:         	                      501,                       501
! START FREQ:       	               10.000 MHz,                10.000 MHz
! STOP FREQ:        	              110.000 MHz,               110.000 MHz
! SOURCE POWER:     	                     High,                      High
! IFBW:             	                   100 Hz,                    100 Hz
! AVG FACTOR:       	                       1 ,                        1 
! REF PLANE 1:      	                     0 mm,                      0 mm
! REF PLANE 2:      	                     0 mm,                      0 mm
! CAL TYPE:         	                 Full S11,                  Full S11
! CAL METHOD:       	                     SOLT,                      SOLT
! CAL LINE TYPE:    	                     Coax,                      Coax
! DUT PORT 1:       	                N-Conn(F),                 N-Conn(F)
! DUT PORT 2:       	                K-Conn(F),                 K-Conn(F)
! CAL STATUS:       	        OK: Accuracy High,                        --
# GHZ S DB R 50.0
! FREQ.GHZ       S11DB        S11A       S21DB        S21A       S12DB        S12A       S22DB        S22A
  0.010000000  -63.758648   89.725349  -82.362653   78.930817    0.000000    0.000000    0.000000    0.000000
  0.010200000  -63.809073   87.676926  -82.870887   76.770340    0.000000    0.000000    0.000000    0.000000
  0.010400000  -64.139872   91.905037  -82.952391   75.843079    0.000000    0.000000    0.000000    0.000000
  0.010600000  -63.499333   91.377701  -83.253405   73.850372    0.000000    0.000000    0.000000    0.000000
  0.010800000  -63.167604   89.661324  -83.099386   68.992691    0.000000    0.000000    0.000000    0.000000
  0.011000000  -63.468073   89.534767  -83.736353   70.775627    0.000000    0.000000    0.000000    0.000000
  0.011200000  -62.846362   91.334732  -83.697927   66.530823    0.000000    0.000000    0.000000    0.000000
  0.011400000  -62.838515   89.771004  -83.832382   63.853729    0.000000    0.000000    0.000000    0.000000
  0.011600000  -63.038906   84.307304  -84.301402   62.170235    0.000000    0.000000    0.000000    0.000000
  0.011800000  -62.844712   89.107567  -84.350068   61.585403    0.000000    0.000000    0.000000    0.000000
  0.012000000  -62.907976   84.590012  -84.682415   62.889027    0.000000    0.000000    0.000000    0.000000
  0.012200000  -62.348937   85.493279  -85.058852   61.197266    0.000000    0.000000    0.000000    0.000000
  0.012400000  -62.340198   84.531441  -85.956678   58.748619    0.000000    0.000000    0.000000    0.000000
  0.012600000  -62.418472   83.278320  -85.687815   57.445503    0.000000    0.000000    0.000000    0.000000
  0.012800000  -62.073578   84.547386  -86.170220   60.944397    0.000000    0.000000    0.000000    0.000000
  0.013000000  -61.715593   83.706886  -86.342510   55.954220    0.000000    0.000000    0.000000    0.000000
  0.013200000  -61.849440   81.673714  -86.526818   59.189796    0.000000    0.000000    0.000000    0.000000
  0.013400000  -61.830554   81.547783  -86.938099   60.091309    0.000000    0.000000    0.000000    0.000000
  0.013600000  -61.720456   81.747330  -87.191371   60.268974    0.000000    0.000000    0.000000    0.000000
  0.013800000  -61.656829   83.204285  -87.593123   54.634167    0.000000    0.000000    0.000000    0.000000
  0.014000000  -61.484063   81.202812  -88.113715   56.114635    0.000000    0.000000    0.000000    0.000000
  0.014200000  -61.127959   81.815239  -87.890105   56.214039    0.000000    0.000000    0.000000    0.000000
  0.014400000  -60.969418   81.198364  -88.299308   57.311607    0.000000    0.000000    0.000000    0.000000
  0.014600000  -61.166825   82.685143  -88.070607   54.395378    0.000000    0.000000    0.000000    0.000000
  0.014800000  -60.818529   81.024605  -88.630650   57.198288    0.000000    0.000000    0.000000    0.000000
  0.015000000  -60.869914   81.142395  -88.121390   61.502495    0.000000    0.000000    0.000000    0.000000
  0.015200000  -60.785232   81.020744  -88.015006   54.988338    0.000000    0.000000    0.000000    0.000000
  0.015400000  -60.673176   80.341026  -87.595892   54.103443    0.000000    0.000000    0.000000    0.000000
  0.015600000  -60.346041   79.900642  -87.406419   55.876366    0.000000    0.000000    0.000000    0.000000
  0.015800000  -60.496000   79.193817  -88.210083   55.482994    0.000000    0.000000    0.000000    0.000000
  0.016000000  -60.434136   78.061340  -88.576742   52.838062    0.000000    0.000000    0.000000    0.000000
  0.016200000  -60.200970   78.338509  -88.558935   51.988487    0.000000    0.000000    0.000000    0.000000
  0.016400000  -60.182898   77.907707  -88.811829   49.047817    0.000000    0.000000    0.000000    0.000000
  0.016600000  -60.125229   78.479309  -88.006933   48.864819    0.000000    0.000000    0.000000    0.000000
  0.016800000  -59.832243   76.929558  -88.551097   48.850544    0.000000    0.000000    0.000000    0.000000
  0.017000000  -59.863504   76.939964  -88.382917   46.757668    0.000000    0.000000    0.000000    0.000000
  0.017200000  -59.725333   78.103745  -89.172291   47.987934    0.000000    0.000000    0.000000    0.000000
  0.017400000  -59.708879   77.101105  -89.307182   42.109535    0.000000    0.000000    0.000000    0.000000
  0.017600000  -59.618908   76.846786  -89.038329   42.582775    0.000000    0.000000    0.000000    0.000000
  0.017800000  -59.672969   77.463097  -89.516539   40.797070    0.000000    0.000000    0.000000    0.000000
  0.018000000  -59.486625   75.941353  -90.259438   38.644825    0.000000    0.000000    0.000000    0.000000
  0.018200000  -59.450953   75.523376  -89.775685   42.475445    0.000000    0.000000    0.000000    0.000000
  0.018400000  -59.208900   77.027611  -90.287184   37.968525    0.000000    0.000000    0.000000    0.000000
  0.018600000  -59.184804   76.839546  -90.504841   37.439194    0.000000    0.000000    0.000000    0.000000
  0.018800000  -58.893619   76.750473  -90.518203   41.851395    0.000000    0.000000    0.000000    0.000000
  0.019000000  -58.894121   74.596291  -90.739977   37.285648    0.000000    0.000000    0.000000    0.000000
  0.019200000  -58.970695   76.481636  -90.777561   35.539497    0.000000    0.000000    0.000000    0.000000
  0.019400000  -58.770151   76.912376  -91.534587   38.822891    0.000000    0.000000    0.000000    0.000000
  0.019600000  -58.741573   76.288208  -91.332589   42.010231    0.000000    0.000000    0.000000    0.000000
  0.019800000  -58.662128   76.265793  -91.929652   34.297966    0.000000    0.000000    0.000000    0.000000
  0.020000000  -58.356751   75.511444  -91.428817   39.385883    0.000000    0.000000    0.000000    0.000000
  0.020200000  -58.564546   75.235321  -92.721551   36.867073    0.000000    0.000000    0.000000    0.000000
  0.020400000  -58.285040   75.336121  -91.670721   34.595467    0.000000    0.000000    0.000000    0.000000
  0.020600000  -58.641388   74.902039  -91.363629   35.504929    0.000000    0.000000    0.000000    0.000000
  0.020800000  -58.112881   74.634285  -91.099042   36.837082    0.000000    0.000000    0.000000    0.000000
  0.021000000  -58.117066   73.436310  -91.207139   30.939121    0.000000    0.000000    0.000000    0.000000
  0.021200000  -57.930838   73.725266  -91.456818   36.775105    0.000000    0.000000    0.000000    0.000000
  0.021400000  -57.893559   73.451683  -91.220594   37.722492    0.000000    0.000000    0.000000    0.000000
  0.021600000  -57.796708   73.703560  -92.586390   43.077553    0.000000    0.000000    0.000000    0.000000
  0.021800000  -57.707870   72.576759  -91.417170   39.937695    0.000000    0.000000    0.000000    0.000000
  0.022000000  -57.515137   72.726471  -92.318303   29.336615    0.000000    0.000000    0.000000    0.000000
  0.022200000  -57.324477   72.868690  -92.301507   39.718067    0.000000    0.000000    0.000000    0.000000
  0.022400000  -57.300943   73.288811  -92.743732   30.883469    0.000000    0.000000    0.000000    0.000000
  0.022600000  -57.199556   72.282784  -92.723924   33.874004    0.000000    0.000000    0.000000    0.000000
  0.022800000  -57.266326   71.885727  -92.800933   36.765442    0.000000    0.000000    0.000000    0.000000
  0.023000000  -57.184049   72.935715  -92.226502   34.211952    0.000000    0.000000    0.000000    0.000000
  0.023200000  -56.967782   72.474854  -92.853449   30.803036    0.000000    0.000000    0.000000    0.000000
  0.023400000  -56.028886   71.511253  -92.300708   29.727541    0.000000    0.000000    0.000000    0.000000
  0.023600000  -56.807385   71.834267  -93.244097   32.226364    0.000000    0.000000    0.000000    0.000000
  0.023800000  -56.685049   70.415390  -93.250648   25.806707    0.000000    0.000000    0.000000    0.000000
  0.024000000  -56.779094   71.609009  -93.002235   29.479845    0.000000    0.000000    0.000000    0.000000
  0.024200000  -56.602482   71.433830  -94.048842   24.417734    0.000000    0.000000    0.000000    0.000000
  0.024400000  -56.550238   70.781212  -94.684953   21.714830    0.000000    0.000000    0.000000    0.000000
  0.024600000  -56.475840   71.077667  -93.136988   22.755068    0.000000    0.000000    0.000000    0.000000
  0.024800000  -56.544344   69.819382  -93.819044   24.806334    0.000000    0.000000    0.000000    0.000000
  0.025000000  -56.224479   69.992882  -93.516040   21.644733    0.000000    0.000000    0.000000    0.000000
  0.025200000  -56.183298   69.623093  -94.433411   21.466017    0.000000    0.000000    0.000000    0.000000
  0.025400000  -56.238547   69.428024  -93.296506   26.864443    0.000000    0.000000    0.000000    0.000000
  0.025600000  -56.133195   69.088394  -94.098646   29.185112    0.000000    0.000000    0.000000    0.000000
  0.025800000  -56.090815   69.033073  -94.639387   22.402946    0.000000    0.000000    0.000000    0.000000
  0.026000000  -56.175618   68.792068  -95.686514   29.738848    0.000000    0.000000    0.000000    0.000000
  0.026200000  -55.877425   68.602386  -94.931534   26.669813    0.000000    0.000000    0.000000    0.000000
  0.026400000  -55.949903   68.377533  -96.067473   22.474283    0.000000    0.000000    0.000000    0.000000
  0.026600000  -55.949155   67.871361  -95.173436   24.109089    0.000000    0.000000    0.000000    0.000000
  0.026800000  -55.965972   68.385246  -96.220279   21.314665    0.000000    0.000000    0.000000    0.000000
  0.027000000  -55.827974   67.224747  -96.251250   25.767084    0.000000    0.000000    0.000000    0.000000
  0.027200000  -55.702258   67.263535  -96.714217   26.419188    0.000000    0.000000    0.000000    0.000000
  0.027400000  -55.749482   67.497490  -96.212664   19.675880    0.000000    0.000000    0.000000    0.000000
  0.027600000  -55.728490   67.381828  -95.418621   20.261269    0.000000    0.000000    0.000000    0.000000
  0.027800000  -55.501861   67.768211  -96.066353   19.650780    0.000000    0.000000    0.000000    0.000000
  0.028000000  -55.562185   67.108162  -95.640140   19.625616    0.000000    0.000000    0.000000    0.000000
  0.028200000  -55.465988   66.355942  -96.694758   20.257931    0.000000    0.000000    0.000000    0.000000
  0.028400000  -55.392911   67.186401  -94.995901   21.430782    0.000000    0.000000    0.000000    0.000000
  0.028600000  -55.457549   65.970978  -96.261864   22.342207    0.000000    0.000000    0.000000    0.000000
  0.028800000  -55.416233   65.166252  -96.004771   19.785753    0.000000    0.000000    0.000000    0.000000
  0.029000000  -55.334977   65.908737  -97.107924   18.531263    0.000000    0.000000    0.000000    0.000000
  0.029200000  -55.210582   65.581627  -96.530207   20.053902    0.000000    0.000000    0.000000    0.000000
  0.029400000  -55.201027   65.353737  -96.254897   21.036840    0.000000    0.000000    0.000000    0.000000
  0.029600000  -55.165851   65.469864  -96.988822   17.815948    0.000000    0.000000    0.000000    0.000000
  0.029800000  -55.166087   65.677391  -96.178187   10.414742    0.000000    0.000000    0.000000    0.000000
  0.030000000  -54.978987   65.335060  -95.454305   16.422255    0.000000    0.000000    0.000000    0.000000
  0.030200000  -55.056104   65.296150  -96.288541   17.860765    0.000000    0.000000    0.000000    0.000000
  0.030400000  -54.994915   64.197342  -96.584698   17.589556    0.000000    0.000000    0.000000    0.000000
  0.030600000  -54.788166   65.033691  -97.549901   17.275331    0.000000    0.000000    0.000000    0.000000
  0.030800000  -54.869385   63.830849  -96.820330    9.648938    0.000000    0.000000    0.000000    0.000000
  0.031000000  -54.751486   64.184395  -96.420037   11.406109    0.000000    0.000000    0.000000    0.000000
  0.031200000  -54.552780   63.383656  -95.813874   16.507685    0.000000    0.000000    0.000000    0.000000
  0.031400000  -54.448979   63.285057  -96.211897    9.572587    0.000000    0.000000    0.000000    0.000000
  0.031600000  -54.432333   63.708679  -98.167929   -0.763671    0.000000    0.000000    0.000000    0.000000
  0.031800000  -54.261099   64.076103  -96.234703   14.954985    0.000000    0.000000    0.000000    0.000000
  0.032000000  -54.366400   63.791378  -98.167991   -0.068754    0.000000    0.000000    0.000000    0.000000
  0.032200000  -54.292711   63.366760  -95.730567    9.122185    0.000000    0.000000    0.000000    0.000000
  0.032400000  -54.080410   64.498016  -97.685179   -3.060824    0.000000    0.000000    0.000000    0.000000
  0.032600000  -53.982880   63.153206  -97.984896   11.255670    0.000000    0.000000    0.000000    0.000000
  0.032800000  -53.873228   62.939026  -96.630558   10.678337    0.000000    0.000000    0.000000    0.000000
  0.033000000  -53.968086   62.576675  -97.984002   27.031878    0.000000    0.000000    0.000000    0.000000
  0.033200000  -53.985932   62.892006  -97.246530    7.844787    0.000000    0.000000    0.000000    0.000000
  0.033400000  -53.726550   61.980045  -97.545415   15.070847    0.000000    0.000000    0.000000    0.000000
  0.033600000  -53.846944   62.222538  -99.547806    8.421846    0.000000    0.000000    0.000000    0.000000
  0.033800000  -53.721034   61.914146  -98.550696    4.994112    0.000000    0.000000    0.000000    0.000000
  0.034000000  -53.669192   61.584641  -97.392313    8.703439    0.000000    0.000000    0.000000    0.000000
  0.034200000  -53.397000   61.582268  -98.430249    5.474473    0.000000    0.000000    0.000000    0.000000
  0.034400000  -53.497491   61.914722  -99.394465   12.417470    0.000000    0.000000    0.000000    0.000000
  0.034600000  -53.516252   62.003365  -97.461654   10.040003    0.000000    0.000000    0.000000    0.000000
  0.034800000  -53.446139   61.636726  -98.054491   11.307058    0.000000    0.000000    0.000000    0.000000
  0.035000000  -53.330076   60.763023  -98.269795   17.914852    0.000000    0.000000    0.000000    0.000000
  0.035200000  -53.297776   60.314087  -97.965598    3.343542    0.000000    0.000000    0.000000    0.000000
  0.035400000  -53.249657   60.664314 -100.009900   15.535125    0.000000    0.000000    0.000000    0.000000
  0.035600000  -53.212655   59.906319  -98.042965    2.223846    0.000000    0.000000    0.000000    0.000000
  0.035800000  -53.238256   60.040497 -100.445196   10.779860    0.000000    0.000000    0.000000    0.000000
  0.036000000  -53.180200   60.051193  -98.965463   10.106272    0.000000    0.000000    0.000000    0.000000
  0.036200000  -53.145248   60.347023  -97.731175   14.003089    0.000000    0.000000    0.000000    0.000000
  0.036400000  -53.021104   59.521423  -97.248261    4.239270    0.000000    0.000000    0.000000    0.000000
  0.036600000  -53.040477   59.185379  -97.984862   12.052960    0.000000    0.000000    0.000000    0.000000
  0.036800000  -52.929614   59.097630  -97.997289    3.096394    0.000000    0.000000    0.000000    0.000000
  0.037000000  -52.867741   59.187374 -101.199946   13.979221    0.000000    0.000000    0.000000    0.000000
  0.037200000  -52.869958   59.417919 -100.358355   -2.482357    0.000000    0.000000    0.000000    0.000000
  0.037400000  -52.803118   60.396816  -99.414880   -1.176031    0.000000    0.000000    0.000000    0.000000
  0.037600000  -52.971330   59.426949  -99.641221    8.768603    0.000000    0.000000    0.000000    0.000000
  0.037800000  -52.804107   59.197899 -100.953186   -5.117238    0.000000    0.000000    0.000000    0.000000
  0.038000000  -52.743476   58.455395 -102.454865   21.281549    0.000000    0.000000    0.000000    0.000000
  0.038200000  -52.766369   58.551373 -102.229564   -2.259645    0.000000    0.000000    0.000000    0.000000
  0.038400000  -52.761500   57.914753  -99.550623    0.960892    0.000000    0.000000    0.000000    0.000000
  0.038600000  -52.625726   58.039825  -99.725008   12.198847    0.000000    0.000000    0.000000    0.000000
  0.038800000  -52.488034   57.768932 -104.924948   -2.117821    0.000000    0.000000    0.000000    0.000000
  0.039000000  -52.369023   57.462654  -99.812181   11.334234    0.000000    0.000000    0.000000    0.000000
  0.039200000  -52.362550   57.940544  -99.597296  -12.453351    0.000000    0.000000    0.000000    0.000000
  0.039400000  -52.386277   57.306385  -99.725034    0.681373    0.000000    0.000000    0.000000    0.000000
  0.039600000  -52.268430   57.030819 -101.172910   -3.273096    0.000000    0.000000    0.000000    0.000000
  0.039800000  -52.122796   57.459377 -100.700669   -6.557075    0.000000    0.000000    0.000000    0.000000
  0.040000000  -52.201700   56.419876 -103.641835  -12.775220    0.000000    0.000000    0.000000    0.000000
  0.040200000  -52.077189   57.039444  -99.189370   -0.551385    0.000000    0.000000    0.000000    0.000000
  0.040400000  -51.930713   57.153336 -100.097577    8.308281    0.000000    0.000000    0.000000    0.000000
  0.040600000  -51.975118   56.757381 -100.616808   12.592592    0.000000    0.000000    0.000000    0.000000
  0.040800000  -51.794088   55.802704 -101.310167    6.608243    0.000000    0.000000    0.000000    0.000000
  0.041000000  -51.841875   56.041439  -99.745957    5.231847    0.000000    0.000000    0.000000    0.000000
  0.041200000  -51.792681   56.981091  -99.893435    4.055071    0.000000    0.000000    0.000000    0.000000
  0.041400000  -51.643428   55.847008 -103.596321   -8.785566    0.000000    0.000000    0.000000    0.000000
  0.041600000  -51.617263   55.438061  -99.894761   12.038598    0.000000    0.000000    0.000000    0.000000
  0.041800000  -51.640288   56.165112 -100.306061   -0.558681    0.000000    0.000000    0.000000    0.000000
  0.042000000  -51.540123   55.083302 -100.501633   11.211350    0.000000    0.000000    0.000000    0.000000
  0.042200000  -51.476201   54.944309  -98.514857   13.362561    0.000000    0.000000    0.000000    0.000000
  0.042400000  -51.507137   55.076412 -106.017592   11.751855    0.000000    0.000000    0.000000    0.000000
  0.042600000  -51.347859   54.586323 -100.615449   -4.064316    0.000000    0.000000    0.000000    0.000000
  0.042800000  -51.312798   53.720963  -99.113041    1.705834    0.000000    0.000000    0.000000    0.000000
