! Anritsu VNA Master:                     Model: MS2036C/10/77
! SN:                                  1601066
! /card0/usr/aa.s2p
! Existing Calibration Information:
! TYPE:                         Current Settings,       Active Cal Settings
! TIME:             	   12/17/2017 08:11:07 PM,    12/17/2017 06:38:14 PM
! INTERNAL TEMP:    	                   38.0 C,                    43.8 C
! # POINTS:         	                      501,                       501
! START FREQ:       	               10.000 MHz,                10.000 MHz
! STOP FREQ:        	          107.903 125 MHz,           107.903 125 MHz
! SOURCE POWER:     	                     High,                      High
! IFBW:             	                   100 Hz,                    100 Hz
! AVG FACTOR:       	                       1 ,                        1 
! REF PLANE 1:      	                     0 mm,                      0 mm
! REF PLANE 2:      	                     0 mm,                      0 mm
! CAL TYPE:         	                 Full S11,                  Full S11
! CAL METHOD:       	                     SOLT,                      SOLT
! CAL LINE TYPE:    	                     Coax,                      Coax
! DUT PORT 1:       	                N-Conn(F),                 N-Conn(F)
! DUT PORT 2:       	                K-Conn(F),                 K-Conn(F)
! CAL STATUS:       	?T: Accuracy moderate (|Temp diff| > 5.0 C),                        --
# GHZ S DB R 50.0
! FREQ.GHZ       S11DB        S11A       S21DB        S21A       S12DB        S12A       S22DB        S22A
  0.010000000    1.079559  158.136810  -81.268991   79.500732    0.000000    0.000000    0.000000    0.000000
  0.010195806    1.108402  168.101715  -81.454292   77.541420    0.000000    0.000000    0.000000    0.000000
  0.010391613    1.140422  178.087555  -81.882862   76.400734    0.000000    0.000000    0.000000    0.000000
  0.010587419    1.168522 -171.940170  -81.987218   74.773727    0.000000    0.000000    0.000000    0.000000
  0.010783225    1.196820 -161.980743  -82.160864   73.482651    0.000000    0.000000    0.000000    0.000000
  0.010979031    1.230806 -151.997711  -82.802142   71.757927    0.000000    0.000000    0.000000    0.000000
  0.011174837    1.253358 -142.010437  -82.574602   72.147842    0.000000    0.000000    0.000000    0.000000
  0.011370644    1.270959 -132.030792  -82.611840   68.566704    0.000000    0.000000    0.000000    0.000000
  0.011566450    1.292259 -122.014511  -82.730792   72.232491    0.000000    0.000000    0.000000    0.000000
  0.011762256    1.311210 -112.006203  -82.964049   71.108696    0.000000    0.000000    0.000000    0.000000
  0.011958062    1.327703 -102.008842  -83.730207   67.212563    0.000000    0.000000    0.000000    0.000000
  0.012153869    1.341529  -91.934418  -83.539445   68.243851    0.000000    0.000000    0.000000    0.000000
  0.012349675    1.349167  -81.896904  -83.535875   62.587975    0.000000    0.000000    0.000000    0.000000
  0.012545481    1.354438  -71.809326  -84.290300   67.130211    0.000000    0.000000    0.000000    0.000000
  0.012741288    1.359116  -61.712097  -84.002091   62.817757    0.000000    0.000000    0.000000    0.000000
  0.012937094    1.357997  -51.621410  -84.046668   65.062866    0.000000    0.000000    0.000000    0.000000
  0.013132900    1.349060  -41.504498  -84.339545   66.463364    0.000000    0.000000    0.000000    0.000000
  0.013328706    1.343829  -31.369406  -84.552829   58.845131    0.000000    0.000000    0.000000    0.000000
  0.013524512    1.331712  -21.229443  -84.856973   59.407066    0.000000    0.000000    0.000000    0.000000
  0.013720319    1.320606  -11.071341  -84.935753   59.453827    0.000000    0.000000    0.000000    0.000000
  0.013916125    1.309198   -0.918119  -85.062215   59.132690    0.000000    0.000000    0.000000    0.000000
  0.014111931    1.297180    9.226471  -85.210615   60.349651    0.000000    0.000000    0.000000    0.000000
  0.014307738    1.287545   19.381393  -85.629760   56.104965    0.000000    0.000000    0.000000    0.000000
  0.014503544    1.282493   29.533909  -85.677154   55.378487    0.000000    0.000000    0.000000    0.000000
  0.014699350    1.275419   39.693161  -85.462262   58.482246    0.000000    0.000000    0.000000    0.000000
  0.014895156    1.272224   49.852818  -86.033819   56.979656    0.000000    0.000000    0.000000    0.000000
  0.015090962    1.268107   59.977470  -86.061848   55.599747    0.000000    0.000000    0.000000    0.000000
  0.015286769    1.268772   70.087334  -86.597760   52.755432    0.000000    0.000000    0.000000    0.000000
  0.015482575    1.264416   80.187950  -86.649379   52.620243    0.000000    0.000000    0.000000    0.000000
  0.015678381    1.265254   90.256889  -86.465241   52.658726    0.000000    0.000000    0.000000    0.000000
  0.015874188    1.275787  100.314056  -86.882809   53.398186    0.000000    0.000000    0.000000    0.000000
  0.016069994    1.286861  110.364441  -87.026282   53.836632    0.000000    0.000000    0.000000    0.000000
  0.016265800    1.302403  120.378792  -87.488565   51.958546    0.000000    0.000000    0.000000    0.000000
  0.016461606    1.326398  130.376160  -87.339268   50.030983    0.000000    0.000000    0.000000    0.000000
  0.016657412    1.349067  140.384674  -87.775430   51.080795    0.000000    0.000000    0.000000    0.000000
  0.016853219    1.372864  150.372192  -87.282664   47.345692    0.000000    0.000000    0.000000    0.000000
  0.017049025    1.394342  160.337509  -87.639644   45.345715    0.000000    0.000000    0.000000    0.000000
  0.017244831    1.417242  170.276398  -87.692694   44.807568    0.000000    0.000000    0.000000    0.000000
  0.017440638    1.434824 -179.794769  -88.301636   46.551876    0.000000    0.000000    0.000000    0.000000
  0.017636444    1.456452 -169.899277  -87.840502   48.422142    0.000000    0.000000    0.000000    0.000000
  0.017832250    1.478901 -159.965103  -88.465537   45.861900    0.000000    0.000000    0.000000    0.000000
  0.018028056    1.501224 -150.029099  -88.059934   45.668644    0.000000    0.000000    0.000000    0.000000
  0.018223862    1.524364 -140.084442  -88.553699   42.065804    0.000000    0.000000    0.000000    0.000000
  0.018419669    1.548091 -130.131546  -89.486507   39.068535    0.000000    0.000000    0.000000    0.000000
  0.018615475    1.567511 -120.175980  -89.194518   48.137558    0.000000    0.000000    0.000000    0.000000
  0.018811281    1.583880 -110.188194  -89.179577   41.837952    0.000000    0.000000    0.000000    0.000000
  0.019007087    1.590920 -100.250305  -89.927791   43.426968    0.000000    0.000000    0.000000    0.000000
  0.019202894    1.595236  -90.288338  -89.628022   39.937614    0.000000    0.000000    0.000000    0.000000
  0.019398700    1.599465  -80.276466  -89.127538   44.676945    0.000000    0.000000    0.000000    0.000000
  0.019594506    1.606309  -70.266258  -88.854882   41.941605    0.000000    0.000000    0.000000    0.000000
  0.019790313    1.609948  -60.228840  -90.239684   37.005867    0.000000    0.000000    0.000000    0.000000
  0.019986119    1.609469  -50.176548  -90.256517   43.532871    0.000000    0.000000    0.000000    0.000000
  0.020181925    1.606296  -40.103889  -90.080232   39.527462    0.000000    0.000000    0.000000    0.000000
  0.020377731    1.602458  -29.993925  -90.063956   35.278522    0.000000    0.000000    0.000000    0.000000
  0.020573537    1.593006  -19.900717  -90.061279   35.982338    0.000000    0.000000    0.000000    0.000000
  0.020769344    1.587043   -9.784559  -91.031790   35.302647    0.000000    0.000000    0.000000    0.000000
  0.020965150    1.579806    0.350966  -90.257844   37.530449    0.000000    0.000000    0.000000    0.000000
  0.021160956    1.575309   10.486032  -91.736757   31.899172    0.000000    0.000000    0.000000    0.000000
  0.021356762    1.567461   20.614002  -90.640945   34.900917    0.000000    0.000000    0.000000    0.000000
  0.021552569    1.562110   30.776802  -90.459889   38.839954    0.000000    0.000000    0.000000    0.000000
  0.021748375    1.560150   40.952122  -90.421659   32.034657    0.000000    0.000000    0.000000    0.000000
  0.021944181    1.559161   51.103580  -90.600483   37.952839    0.000000    0.000000    0.000000    0.000000
  0.022139988    1.556165   61.254845  -91.629906   30.755966    0.000000    0.000000    0.000000    0.000000
  0.022335794    1.556263   71.393250  -90.959737   36.152699    0.000000    0.000000    0.000000    0.000000
  0.022531600    1.556145   81.490219  -92.256155   32.633945    0.000000    0.000000    0.000000    0.000000
  0.022727406    1.564148   91.592079  -91.469417   30.686131    0.000000    0.000000    0.000000    0.000000
  0.022923213    1.571850  101.675339  -91.534146   31.488832    0.000000    0.000000    0.000000    0.000000
  0.023119019    1.585777  111.718758  -92.878705   32.490143    0.000000    0.000000    0.000000    0.000000
  0.023314825    1.599066  121.775208  -91.838367   29.384697    0.000000    0.000000    0.000000    0.000000
  0.023510631    1.616074  131.812668  -92.256145   24.185286    0.000000    0.000000    0.000000    0.000000
  0.023706438    1.629211  141.828156  -91.879752   33.484356    0.000000    0.000000    0.000000    0.000000
  0.023902244    1.648731  151.837006  -92.598373   24.061850    0.000000    0.000000    0.000000    0.000000
  0.024098050    1.665742  161.855362  -93.004329   26.991043    0.000000    0.000000    0.000000    0.000000
  0.024293856    1.683176  171.835602  -93.346942   27.221539    0.000000    0.000000    0.000000    0.000000
  0.024489662    1.703483 -178.180161  -92.256050   23.685240    0.000000    0.000000    0.000000    0.000000
  0.024685469    1.724624 -168.185181  -92.786417   28.595850    0.000000    0.000000    0.000000    0.000000
  0.024881275    1.747445 -158.168915  -92.752292   23.533297    0.000000    0.000000    0.000000    0.000000
  0.025077081    1.770412 -148.152069  -92.299883   25.974253    0.000000    0.000000    0.000000    0.000000
  0.025272888    1.791827 -138.107193  -92.010752   29.530132    0.000000    0.000000    0.000000    0.000000
  0.025468694    1.808772 -128.057205  -92.994972   21.329872    0.000000    0.000000    0.000000    0.000000
  0.025664500    1.821684 -118.005737  -92.767654   23.314430    0.000000    0.000000    0.000000    0.000000
  0.025860306    1.829583 -107.945396  -93.463380   18.625463    0.000000    0.000000    0.000000    0.000000
  0.026056112    1.840284  -97.909317  -93.418447   22.634279    0.000000    0.000000    0.000000    0.000000
  0.026251919    1.846358  -87.847885  -94.518249   22.940556    0.000000    0.000000    0.000000    0.000000
  0.026447725    1.852588  -77.805122  -93.966249   21.298887    0.000000    0.000000    0.000000    0.000000
  0.026643531    1.852406  -67.742134  -94.075493   21.096613    0.000000    0.000000    0.000000    0.000000
  0.026839338    1.854601  -57.687271  -94.087284   16.537603    0.000000    0.000000    0.000000    0.000000
  0.027035144    1.855960  -47.572929  -94.014423   19.905792    0.000000    0.000000    0.000000    0.000000
  0.027230950    1.851484  -37.470211  -94.890369   18.880695    0.000000    0.000000    0.000000    0.000000
  0.027426756    1.849333  -27.334808  -95.393126   24.401392    0.000000    0.000000    0.000000    0.000000
  0.027622562    1.845642  -17.184477  -93.904413   19.585705    0.000000    0.000000    0.000000    0.000000
  0.027818369    1.841536   -7.031067  -94.620527   13.228275    0.000000    0.000000    0.000000    0.000000
  0.028014175    1.838412    3.102802  -94.865869   22.098101    0.000000    0.000000    0.000000    0.000000
  0.028209981    1.836240   13.238851  -94.308297   20.928606    0.000000    0.000000    0.000000    0.000000
  0.028405788    1.837496   23.405788  -94.850635   15.698631    0.000000    0.000000    0.000000    0.000000
  0.028601594    1.836235   33.565681  -95.444556   13.611708    0.000000    0.000000    0.000000    0.000000
  0.028797400    1.831216   43.718147  -96.298633   17.536516    0.000000    0.000000    0.000000    0.000000
  0.028993206    1.830181   53.873402  -96.118221   13.381601    0.000000    0.000000    0.000000    0.000000
  0.029189013    1.825085   64.003571  -96.251167   16.063797    0.000000    0.000000    0.000000    0.000000
  0.029384819    1.820920   74.104500  -96.925943   12.567284    0.000000    0.000000    0.000000    0.000000
  0.029580625    1.816427   84.201065  -97.497688   23.247169    0.000000    0.000000    0.000000    0.000000
  0.029776431    1.813692   94.250809  -96.983451    9.651438    0.000000    0.000000    0.000000    0.000000
  0.029972237    1.815657  104.266212  -96.832391   13.770160    0.000000    0.000000    0.000000    0.000000
  0.030168044    1.817267  114.288948  -96.154417   18.617676    0.000000    0.000000    0.000000    0.000000
  0.030363850    1.824469  124.276100  -95.709048   12.868350    0.000000    0.000000    0.000000    0.000000
  0.030559656    1.836867  134.271225  -96.134906   10.184445    0.000000    0.000000    0.000000    0.000000
  0.030755463    1.852051  144.272552  -96.788322   10.676192    0.000000    0.000000    0.000000    0.000000
  0.030951269    1.863187  154.240295  -97.235196   12.893255    0.000000    0.000000    0.000000    0.000000
  0.031147075    1.870196  164.130188  -97.966564   27.977041    0.000000    0.000000    0.000000    0.000000
  0.031342881    1.884990  174.039825  -95.962663   15.606120    0.000000    0.000000    0.000000    0.000000
  0.031538687    1.900304 -176.082321  -98.704717   10.085670    0.000000    0.000000    0.000000    0.000000
  0.031734494    1.924678 -166.178970  -97.015449   24.071241    0.000000    0.000000    0.000000    0.000000
  0.031930300    1.948785 -156.274506  -96.737730   25.183636    0.000000    0.000000    0.000000    0.000000
  0.032126106    1.973898 -146.323410  -96.241734   12.048094    0.000000    0.000000    0.000000    0.000000
  0.032321913    1.997275 -136.327682  -96.439167    9.945228    0.000000    0.000000    0.000000    0.000000
  0.032517719    2.021806 -126.327904  -98.101605   14.684810    0.000000    0.000000    0.000000    0.000000
  0.032713525    2.044033 -116.296486  -95.889062    7.628065    0.000000    0.000000    0.000000    0.000000
  0.032909331    2.056787 -106.244980  -97.858810    9.168202    0.000000    0.000000    0.000000    0.000000
  0.033105137    2.068509  -96.125343  -97.063410    8.897243    0.000000    0.000000    0.000000    0.000000
  0.033300944    2.074914  -86.040909  -97.158725   17.057259    0.000000    0.000000    0.000000    0.000000
  0.033496750    2.071089  -75.940697  -98.831405    3.696261    0.000000    0.000000    0.000000    0.000000
  0.033692556    2.074537  -65.868599  -98.449754    7.735225    0.000000    0.000000    0.000000    0.000000
  0.033888362    2.076513  -55.754658  -98.575499   13.589729    0.000000    0.000000    0.000000    0.000000
  0.034084169    2.075655  -45.632607  -99.367945    7.251042    0.000000    0.000000    0.000000    0.000000
  0.034279975    2.071047  -35.499107  -97.994176    6.407680    0.000000    0.000000    0.000000    0.000000
  0.034475781    2.064326  -25.384733  -98.247865   -1.550078    0.000000    0.000000    0.000000    0.000000
  0.034671588    2.055642  -15.269043  -97.910384   12.845060    0.000000    0.000000    0.000000    0.000000
  0.034867394    2.046543   -5.180195  -97.574671   20.096552    0.000000    0.000000    0.000000    0.000000
  0.035063200    2.041199    4.909556  -99.164248   -2.653695    0.000000    0.000000    0.000000    0.000000
  0.035259006    2.032887   14.970436  -97.261058   -1.888796    0.000000    0.000000    0.000000    0.000000
  0.035454812    2.028390   25.048174  -98.636352    3.828258    0.000000    0.000000    0.000000    0.000000
  0.035650619    2.025346   35.113365  -97.323973    5.392232    0.000000    0.000000    0.000000    0.000000
  0.035846425    2.025360   45.184441  -97.494167    6.232557    0.000000    0.000000    0.000000    0.000000
  0.036042231    2.027049   55.242958  -96.995837   11.734366    0.000000    0.000000    0.000000    0.000000
  0.036238037    2.028319   65.277298 -100.032983    3.014842    0.000000    0.000000    0.000000    0.000000
  0.036433844    2.033947   75.329254 -100.820596   10.835195    0.000000    0.000000    0.000000    0.000000
  0.036629650    2.038172   85.379051 -100.566785    3.638090    0.000000    0.000000    0.000000    0.000000
  0.036825456    2.041409   95.408485 -100.168910    5.098497    0.000000    0.000000    0.000000    0.000000
  0.037021262    2.041571  105.387527  -98.183198    4.362231    0.000000    0.000000    0.000000    0.000000
  0.037217069    2.043093  115.324722  -96.550411    0.175053    0.000000    0.000000    0.000000    0.000000
  0.037412875    2.047148  125.246597 -100.550610   -4.353589    0.000000    0.000000    0.000000    0.000000
  0.037608681    2.057111  135.125198  -98.288975    3.001687    0.000000    0.000000    0.000000    0.000000
  0.037804487    2.064566  144.969650 -100.883692  -11.898306    0.000000    0.000000    0.000000    0.000000
  0.038000294    2.072785  154.785675 -101.882876   -4.091351    0.000000    0.000000    0.000000    0.000000
  0.038196100    2.083051  164.599136  -99.729769    9.720469    0.000000    0.000000    0.000000    0.000000
  0.038391906    2.093182  174.395096  -98.036895   20.919037    0.000000    0.000000    0.000000    0.000000
  0.038587713    2.104643 -175.829498  -97.797911  -14.438720    0.000000    0.000000    0.000000    0.000000
  0.038783519    2.117299 -166.024490  -99.897079    1.708380    0.000000    0.000000    0.000000    0.000000
  0.038979325    2.132842 -156.223557 -100.494637   11.507879    0.000000    0.000000    0.000000    0.000000
  0.039175131    2.149290 -146.376221 -101.066142    4.982249    0.000000    0.000000    0.000000    0.000000
  0.039370938    2.166702 -136.529068 -103.105026   10.622469    0.000000    0.000000    0.000000    0.000000
  0.039566744    2.187089 -126.624878 -100.597643   -5.393297    0.000000    0.000000    0.000000    0.000000
  0.039762550    2.204623 -116.716606 -101.208101   -3.807500    0.000000    0.000000    0.000000    0.000000
  0.039958356    2.222372 -106.776489 -100.520555    7.355988    0.000000    0.000000    0.000000    0.000000
  0.040154163    2.237777  -96.782402 -104.284607   -0.596656    0.000000    0.000000    0.000000    0.000000
  0.040349969    2.250003  -86.747383  -99.299084   13.995735    0.000000    0.000000    0.000000    0.000000
  0.040545775    2.260428  -76.654083 -102.083186   -8.793169    0.000000    0.000000    0.000000    0.000000
  0.040741581    2.262527  -66.579018 -102.513272  -13.525652    0.000000    0.000000    0.000000    0.000000
  0.040937387    2.262811  -56.448879 -103.258391    4.075438    0.000000    0.000000    0.000000    0.000000
  0.041133194    2.264071  -46.312489 -103.583455  -10.523561    0.000000    0.000000    0.000000    0.000000
  0.041329000    2.259765  -36.163624 -101.014070   -0.973596    0.000000    0.000000    0.000000    0.000000
  0.041524806    2.260003  -25.978569 -101.085592    5.677756    0.000000    0.000000    0.000000    0.000000
  0.041720612    2.260281  -15.757697 -102.228571    1.587553    0.000000    0.000000    0.000000    0.000000
  0.041916419    2.254382   -5.519461 -101.863547    1.637164    0.000000    0.000000    0.000000    0.000000
  0.042112225    2.250839    4.713226 -103.333992  -16.190014    0.000000    0.000000    0.000000    0.000000
