! Anritsu VNA Master:                     Model: MS2036C/10/77
! SN:                                  1601066
! /card0/usr/mar18_cable_1.s2p
! Existing Calibration Information:
! TYPE:                         Current Settings,       Active Cal Settings
! TIME:             	   03/18/2016 01:36:23 PM,    03/18/2016 01:23:09 PM
! INTERNAL TEMP:    	                   47.8 C,                    46.8 C
! # POINTS:         	                     1087,                      1087
! START FREQ:       	               10.000 MHz,                 5.000 kHz
! STOP FREQ:        	              110.000 MHz,                 6.000 GHz
! SOURCE POWER:     	                      Low,                       Low
! IFBW:             	                    1 kHz,                     1 kHz
! AVG FACTOR:       	                       1 ,                        1 
! REF PLANE 1:      	                -6.095 mm,                 -6.095 mm
! REF PLANE 2:      	                     0 mm,                      0 mm
! CAL TYPE:         	              Full 2 Port,               Full 2 Port
! CAL METHOD:       	                     SOLT,                      SOLT
! CAL LINE TYPE:    	                     Coax,                      Coax
! DUT PORT 1:       	                K-Conn(M),                 K-Conn(M)
! DUT PORT 2:       	                N-Conn(M),                 N-Conn(M)
! CAL STATUS:       	        OK: Accuracy High,                        --
# GHZ S MA R 50.0
! FREQ.GHZ       S11M         S11A         S21M         S21A         S12M         S12A         S22M         S22A
  0.010000000  1.513350E-02  -47.851509  9.867116E-01  -16.995232  9.970925E-01  -16.553730  8.418232E-03  -11.644327
  0.010092081  2.060505E-02    2.602281  9.918457E-01  -17.448839  9.919549E-01  -17.528069  1.664132E-02    1.162331
  0.010184162  1.410309E-02   20.000856  1.004785E+00  -17.345701  1.002079E+00  -17.223528  5.410574E-03   18.681549
  0.010276243  1.567071E-02   42.695316  9.933334E-01  -17.424046  9.876212E-01  -18.158075  1.486632E-02    9.302717
  0.010368324  1.464249E-02  -27.278381  9.909466E-01  -17.849941  9.946955E-01  -17.629976  1.841245E-02  -35.554428
  0.010460405  1.508159E-02  -21.811708  9.936146E-01  -17.751596  9.869036E-01  -17.552563  7.090607E-03  -88.218445
  0.010552486  2.427187E-02    6.402164  9.815199E-01  -18.101898  9.945163E-01  -17.724686  4.910398E-03   42.849361
  0.010644567  1.862244E-02  -10.629230  9.982736E-01  -18.414692  9.919410E-01  -16.844805  7.084557E-03   22.759945
  0.010736648  1.171781E-02   -8.152237  9.839250E-01  -17.754791  1.000389E+00  -18.308350  1.466528E-02   24.194273
  0.010828729  1.013123E-02  -92.337059  9.885800E-01  -18.143572  9.973159E-01  -18.626360  8.591691E-03  -31.222078
  0.010920810  1.184186E-02 -101.238052  9.844202E-01  -18.290281  9.848022E-01  -19.477922  1.361052E-02  -63.838589
  0.011012891  1.881530E-02  -73.331642  9.913357E-01  -18.812424  1.003432E+00  -19.283691  1.352909E-02  -66.719879
  0.011104972  9.696274E-03 -102.904823  9.820503E-01  -18.946491  9.912052E-01  -18.748751  1.035266E-02  -44.916721
  0.011197053  6.952324E-03   -0.058572  9.823868E-01  -18.892406  1.003807E+00  -18.915945  1.573183E-02  -44.856041
  0.011289134  1.413194E-02  -10.172235  1.002064E+00  -19.238720  9.813002E-01  -19.131826  2.880649E-02  -65.117241
  0.011381215  1.140839E-02    4.417516  9.980533E-01  -18.690737  9.845985E-01  -19.441753  1.194379E-02  -31.123936
  0.011473297  1.076354E-02  -50.472553  9.842592E-01  -19.105282  9.876409E-01  -19.142195  1.281067E-02  -14.790463
  0.011565378  1.854604E-02  -36.501888  9.874675E-01  -19.378452  9.929985E-01  -20.008997  9.180312E-03  -45.025158
  0.011657459  1.082875E-02    1.140817  9.841978E-01  -20.358524  9.914796E-01  -20.075230  1.812397E-02  -10.358146
  0.011749540  1.826862E-02   -8.935728  9.902545E-01  -19.755438  9.841759E-01  -20.117260  2.340526E-02  -40.456238
  0.011841621  2.290755E-02   -1.142390  9.958193E-01  -20.779974  9.899755E-01  -20.397049  1.299378E-02  -37.382198
  0.011933702  1.955900E-02  -12.665015  9.852225E-01  -20.438721  1.001952E+00  -21.017132  2.218908E-02  -14.281929
  0.012025783  7.401933E-03  -36.538826  9.882325E-01  -20.587217  9.848967E-01  -20.066412  2.232104E-02  -22.404203
  0.012117864  1.270269E-02   37.384411  9.898429E-01  -20.919235  9.766651E-01  -20.919056  2.018920E-02  -27.415934
  0.012209945  8.822984E-03    7.129817  9.868993E-01  -21.456778  9.757985E-01  -21.427168  3.024654E-02  -22.071209
  0.012302026  1.376586E-02    6.338665  9.870565E-01  -20.648714  9.858746E-01  -21.279470  2.804591E-02  -11.377202
  0.012394107  1.776714E-02   10.962815  9.915031E-01  -21.649441  9.931739E-01  -21.021833  1.861664E-02   -8.855963
  0.012486188  2.221343E-02   -1.020659  9.974903E-01  -21.979280  9.853392E-01  -21.506184  1.972529E-02    6.089077
  0.012578269  1.442424E-02    6.042642  9.944808E-01  -21.971786  9.892933E-01  -21.210512  1.664777E-02  -21.750984
  0.012670350  1.254494E-02  -29.032457  1.003062E+00  -21.656485  9.913887E-01  -21.938135  1.967203E-02  -25.274342
  0.012762431  1.882808E-02  -83.555305  9.988602E-01  -21.653500  9.983869E-01  -22.307440  1.435839E-02  -48.504238
  0.012854512  6.006537E-03  -23.412645  9.800007E-01  -22.185272  9.907236E-01  -21.428198  1.310996E-02  -98.973625
  0.012946593  8.566006E-03   -7.786293  9.803161E-01  -21.436815  9.926446E-01  -22.065865  1.294710E-02   18.003151
  0.013038674  1.111617E-02   49.847805  9.903437E-01  -22.283617  9.989956E-01  -21.894054  1.695382E-02  -10.267954
  0.013130755  6.650456E-03  -65.355431  9.929135E-01  -22.116371  9.829355E-01  -22.613354  1.244918E-02    0.501302
  0.013222836  1.311924E-02    6.976710  9.898983E-01  -22.620359  9.858528E-01  -23.006289  1.314210E-02  -21.519472
  0.013314917  5.640778E-03   -3.136208  9.986032E-01  -22.335716  9.901764E-01  -22.644684  1.392671E-02  -37.211140
  0.013406998  1.127858E-02  -16.780794  9.883568E-01  -22.205292  9.887708E-01  -22.523634  1.776875E-02  -22.604130
  0.013499079  9.066711E-03   -9.477647  9.893763E-01  -22.675125  9.906414E-01  -23.347631  2.341628E-02  -23.842102
  0.013591160  1.440268E-02  -70.740211  9.914097E-01  -22.103596  9.803767E-01  -23.476723  2.144920E-02  -36.949341
  0.013683241  2.194989E-03   21.596373  9.868137E-01  -22.640388  9.774539E-01  -23.442751  1.845197E-02  -36.477779
  0.013775322  1.931487E-03    8.753440  9.779699E-01  -23.234592  9.809953E-01  -23.932394  2.263071E-02  -57.906349
  0.013867403  1.732772E-02   -6.541888  9.758586E-01  -23.886457  9.756264E-01  -23.988171  1.874995E-02  -49.019730
  0.013959484  4.809519E-03    1.037835  9.813618E-01  -23.815256  9.937150E-01  -24.346632  1.940760E-02  -60.700165
  0.014051565  8.953772E-03   50.943829  9.904595E-01  -23.856642  1.006995E+00  -23.987549  1.972523E-02  -44.298359
  0.014143646  1.005795E-02   33.981552  9.861645E-01  -23.787868  9.928883E-01  -23.971830  2.050212E-02  -39.084911
  0.014235727  1.327662E-02   15.315740  9.878652E-01  -23.573744  9.792534E-01  -24.392490  1.409788E-02  -24.486530
  0.014327808  2.083264E-02  -42.592861  9.833159E-01  -24.596123  9.783219E-01  -24.587980  2.203731E-02    4.578068
  0.014419890  1.675330E-02  -56.244686  9.896611E-01  -24.326061  9.824361E-01  -24.560093  1.713711E-02  -25.560555
  0.014511971  1.711517E-02  -15.721414  9.776320E-01  -24.298870  9.885926E-01  -24.917898  1.624879E-02  -77.054466
  0.014604052  1.340047E-02  -59.303116  9.901829E-01  -24.226913  9.882832E-01  -24.253401  1.678078E-02  -50.728348
  0.014696133  1.330763E-02    0.462061  9.834058E-01  -24.392048  9.963508E-01  -24.347101  1.729253E-02  -58.202534
  0.014788214  1.637873E-02   -7.711741  9.835349E-01  -25.064886  9.862863E-01  -24.873499  2.267649E-02  -54.620342
  0.014880295  2.172981E-02    9.150166  9.940927E-01  -25.046322  9.837405E-01  -25.266684  1.215726E-02  -87.063538
  0.014972376  1.996659E-02   -7.558604  9.922251E-01  -25.502245  9.850278E-01  -25.848610  9.529841E-03  -72.483978
  0.015064457  1.981009E-02  -24.785851  9.883339E-01  -25.934416  9.926834E-01  -26.223577  1.109392E-02  -73.773773
  0.015156538  7.794023E-03    4.791073  9.807603E-01  -26.070738  9.938216E-01  -25.352528  2.553838E-02  -33.310062
  0.015248619  1.269210E-02  -46.092655  9.837795E-01  -26.719114  9.881188E-01  -25.944420  1.896210E-02  -38.040909
  0.015340700  3.952955E-03  -41.112404  9.754310E-01  -26.112673  9.793325E-01  -26.001097  1.263517E-02  -58.474361
  0.015432781  1.967204E-02  -35.816837  9.824116E-01  -26.484301  9.903821E-01  -26.517757  1.514622E-02  -45.240204
  0.015524862  1.674012E-02  -34.144131  9.841596E-01  -26.752691  9.846565E-01  -27.233538  2.157389E-02  -45.197369
  0.015616943  1.702490E-02  -18.074352  9.786906E-01  -26.955576  9.806002E-01  -26.636755  1.536924E-02  -35.294926
  0.015709024  1.511420E-02  -37.749638  9.832608E-01  -26.849026  9.880957E-01  -26.246344  1.761888E-02  -92.463028
  0.015801105  1.497465E-02  -34.640259  9.807108E-01  -27.205265  9.922015E-01  -26.993513  1.389305E-02  -48.434803
  0.015893186  1.573662E-02   -8.051569  9.865927E-01  -26.849365  9.847419E-01  -26.658829  1.855580E-02  -38.585835
  0.015985267  1.140341E-02  -24.301331  9.776595E-01  -26.894342  9.884027E-01  -26.894108  2.208728E-02  -42.487514
  0.016077348  8.977470E-03  -14.750388  9.743927E-01  -27.224932  9.977643E-01  -26.695150  2.574887E-02  -48.169735
  0.016169429  1.123045E-02   19.633842  9.780933E-01  -27.597439  9.780011E-01  -26.971388  1.840290E-02  -26.948538
  0.016261510  2.070188E-02    2.434400  9.691607E-01  -27.332195  9.781917E-01  -27.686726  1.593097E-02  -36.670277
  0.016353591  1.142225E-02  -18.892651  9.821916E-01  -27.340332  9.667884E-01  -27.144777  2.072063E-02  -50.266476
  0.016445672  5.078582E-03  -33.418095  9.739534E-01  -27.878443  9.748570E-01  -28.063744  1.142871E-02  -33.641819
  0.016537753  1.047090E-02  -52.476959  9.792329E-01  -28.215519  9.716461E-01  -28.151297  1.324900E-02  -36.926083
  0.016629834  1.157946E-02  -98.856461  9.806001E-01  -28.116209  9.711127E-01  -28.085915  2.273473E-02  -30.454823
  0.016721915  1.337596E-02  -44.383636  9.772207E-01  -27.873552  9.721383E-01  -28.034029  1.884600E-02  -10.236827
  0.016813996  1.127209E-02  -42.582394  9.786936E-01  -28.148302  9.769876E-01  -28.041925  1.694327E-02  -23.105906
  0.016906077  1.737423E-02  -86.710480  9.903803E-01  -27.709255  9.802778E-01  -28.346003  1.417113E-02  -29.798500
  0.016998158  1.796786E-02  -31.497076  9.800153E-01  -27.917969  9.842461E-01  -28.517115  1.053850E-02  -32.656979
  0.017090239  3.639420E-03  -20.096275  9.872119E-01  -28.547972  9.762289E-01  -28.856216  1.784007E-02  -14.054906
  0.017182320  1.667815E-02  -13.984919  9.912144E-01  -28.689035  9.779142E-01  -29.948929  1.421453E-02  -51.754501
  0.017274401  1.260766E-02  -10.182156  9.892827E-01  -29.035845  9.806505E-01  -28.679657  1.097681E-02  -28.772377
  0.017366483  1.636874E-02  -21.490126  9.892155E-01  -29.443184  9.773071E-01  -29.581194  1.984402E-02  -39.843426
  0.017458564  1.443797E-02  -23.855595  9.818449E-01  -29.348347  9.748839E-01  -30.636520  2.133948E-02   -8.602644
  0.017550645  1.472718E-02  -47.257435  9.931731E-01  -30.114738  9.715567E-01  -30.322529  2.177060E-02  -35.204262
  0.017642726  2.288873E-02  -41.675926  9.754493E-01  -30.367640  9.713248E-01  -30.092718  9.393858E-03   -2.814059
  0.017734807  2.564010E-02  -34.182236  9.877189E-01  -29.991600  9.736593E-01  -29.999481  1.154844E-02    8.632819
  0.017826888  1.908804E-02  -25.080425  9.896308E-01  -30.285513  9.841406E-01  -30.862633  8.866970E-03  -28.640730
  0.017918969  1.495796E-02  -15.247851  9.844141E-01  -30.657188  9.844485E-01  -30.352497  1.406488E-02  -17.924681
  0.018011050  1.727317E-02  -36.154263  9.966307E-01  -30.897856  9.815192E-01  -30.564066  1.836410E-02  -38.669552
  0.018103131  1.725639E-02  -23.955830  9.961476E-01  -30.911674  9.799119E-01  -30.704414  2.280100E-02  -49.622368
  0.018195212  1.716616E-02  -44.529388  9.878981E-01  -30.822407  9.937736E-01  -30.885435  1.872768E-02  -58.331360
  0.018287293  2.963428E-02  -32.762444  9.828575E-01  -30.977964  9.916306E-01  -30.697042  1.979929E-02  -63.364342
  0.018379374  2.483276E-02  -41.577724  9.793708E-01  -31.532333  9.856567E-01  -30.893604  1.907877E-02  -64.659378
  0.018471455  2.641164E-02  -56.288391  9.947122E-01  -31.475363  9.950919E-01  -31.560047  3.084101E-02  -53.350182
  0.018563536  1.709225E-02  -44.768890  9.800696E-01  -31.320604  9.923286E-01  -31.200266  2.188326E-02  -60.528080
  0.018655617  1.814362E-02  -30.905565  9.898798E-01  -31.762484  9.768993E-01  -31.326096  2.600178E-02  -67.214325
  0.018747698  9.567763E-03  -72.611115  9.808719E-01  -31.527124  9.794373E-01  -31.088320  1.908038E-02  -63.570824
  0.018839779  1.071866E-02 -105.117943  9.798179E-01  -31.789352  9.772101E-01  -31.962156  2.883827E-02  -68.012863
  0.018931860  9.700996E-03  -57.736259  9.828751E-01  -32.134659  9.825133E-01  -32.019756  2.577007E-02  -60.767838
  0.019023941  1.270873E-02  -28.012884  9.784394E-01  -31.728971  9.791264E-01  -32.540581  2.326414E-02  -51.130760
  0.019116022  1.479191E-02  -46.958450  9.923427E-01  -32.466923  9.738836E-01  -32.015564  2.279602E-02  -45.660267
  0.019208103  7.433032E-03  -33.301163  9.811743E-01  -32.368366  9.911107E-01  -32.619595  3.100054E-02  -39.724876
  0.019300184  9.979329E-03  -43.394295  9.856918E-01  -32.431461  9.840282E-01  -33.013737  2.431508E-02  -64.063240
  0.019392265  4.469580E-03  -64.621559  9.893597E-01  -32.092182  9.848301E-01  -32.441399  2.651358E-02  -57.129333
  0.019484346  1.990387E-02  -22.535175  9.807606E-01  -32.885593  9.819216E-01  -32.531406  1.821743E-02  -49.258736
  0.019576427  1.373305E-02   -9.228501  9.814315E-01  -33.207336  9.869316E-01  -32.716820  1.627666E-02  -30.069645
  0.019668508  1.187176E-02  -12.494468  9.819651E-01  -33.298794  9.881835E-01  -32.459133  2.554001E-02  -48.747303
  0.019760589  2.287347E-02  -61.173634  9.824778E-01  -33.522743  9.775701E-01  -32.441292  1.350599E-02  -36.540493
  0.019852670  8.406498E-03  -13.827928  9.819382E-01  -33.608036  9.793584E-01  -33.003014  1.737692E-02  -26.401581
  0.019944751  2.238937E-02  -45.338745  9.928020E-01  -33.758801  9.815698E-01  -33.276733  1.905891E-02  -24.194271
  0.020036832  9.423831E-03  -40.388165  9.831146E-01  -33.736877  9.899496E-01  -33.669811  1.757786E-02  -36.510887
  0.020128913  2.040454E-02  -39.321964  9.840385E-01  -34.182705  9.730024E-01  -33.682732  2.244464E-02  -40.439178
  0.020220994  9.076624E-03  -55.671295  9.926136E-01  -34.216572  9.860978E-01  -33.614357  2.216376E-02  -33.364628
  0.020313076  2.186615E-02  -34.732338  9.858636E-01  -34.377502  9.769293E-01  -33.503136  2.893096E-02  -48.706020
  0.020405157  8.211149E-03  -42.869331  9.946639E-01  -34.206268  9.787695E-01  -34.274837  2.358934E-02  -65.652847
  0.020497238  1.772913E-02  -58.629093  9.836798E-01  -34.520897  9.789624E-01  -34.392239  2.675769E-02  -77.434601
  0.020589319  1.416643E-02  -69.311440  9.837867E-01  -34.181332  9.709978E-01  -34.333038  1.549099E-02  -64.295929
  0.020681400  1.321422E-02  -38.997780  9.833931E-01  -34.766956  9.754893E-01  -34.424046  2.486381E-02  -77.623642
  0.020773481  1.802795E-02  -77.567451  9.829692E-01  -34.806469  9.743209E-01  -34.881306  2.332402E-02  -74.059074
  0.020865562  1.866653E-02  -82.407982  9.815459E-01  -35.681419  9.733403E-01  -34.429604  1.730942E-02  -47.985130
  0.020957643  1.197421E-02  -31.502657  9.786571E-01  -34.610645  9.776515E-01  -34.680260  1.717990E-02  -94.310913
  0.021049724  2.478676E-02  -33.364189  9.756964E-01  -36.067974  9.692166E-01  -35.058781  1.710128E-02  -82.863480
  0.021141805  1.857985E-02  -51.485924  9.772226E-01  -35.561447  9.792618E-01  -35.091015  7.886087E-03  -56.022202
  0.021233886  1.083212E-02  -32.164242  9.704189E-01  -35.837498  9.781998E-01  -34.885715  7.905415E-03  -75.441658
  0.021325967  1.908778E-02  -61.159843  9.888604E-01  -36.404358  9.860858E-01  -35.757713  1.156464E-02 -112.371956
  0.021418048  1.208856E-02  -40.070229  9.787897E-01  -35.944149  9.818755E-01  -35.363422  3.336038E-03  -14.374401
  0.021510129  1.766237E-02  -28.982292  9.786184E-01  -36.039413  9.797015E-01  -35.690121  7.983305E-03  -55.540173
  0.021602210  1.418889E-02  -45.085945  9.805434E-01  -36.108639  9.868671E-01  -35.563519  9.272345E-03  -47.705467
  0.021694291  5.985779E-03  -48.487816  9.833702E-01  -36.613953  9.877801E-01  -35.508701  1.353270E-02  -26.667221
  0.021786372  6.184466E-03  -68.381104  9.785413E-01  -36.677517  9.909446E-01  -36.667885  7.234522E-03  -68.214485
  0.021878453  1.615109E-02  -69.926888  9.740871E-01  -36.889954  9.822372E-01  -37.293518  1.741548E-02  -54.541298
  0.021970534  4.039211E-03  -40.224895  9.696261E-01  -37.383083  9.855320E-01  -37.190746  1.562372E-02  -58.638477
  0.022062615  6.005374E-03  -54.771526  9.725218E-01  -37.600189  9.933513E-01  -37.519566  1.342591E-02  -57.675148
  0.022154696  2.729538E-03   29.519566  9.692748E-01  -37.268326  9.870108E-01  -37.527870  8.335239E-03  -61.871140
  0.022246777  5.221040E-03  -47.586906  9.806870E-01  -37.496578  9.838743E-01  -37.057533  1.763808E-02  -76.003304
  0.022338858  1.229926E-02 -111.634933  9.805675E-01  -37.215687  9.766191E-01  -38.039562  1.338800E-02  -40.707222
  0.022430939  1.556132E-02  -43.890053  9.735321E-01  -37.829971  9.787778E-01  -37.755871  1.748849E-02  -68.754440
  0.022523020  9.035629E-03  -39.538498  9.829023E-01  -37.825695  9.844026E-01  -37.768238  1.022826E-02  -89.300171
  0.022615101  6.903510E-03  -96.212364  9.838213E-01  -37.830521  9.896513E-01  -38.390793  1.854985E-02  -57.588745
  0.022707182  1.809167E-02  -53.698456  9.918805E-01  -38.016743  9.821424E-01  -38.056416  1.621371E-02  -79.567863
  0.022799263  1.127955E-02  -43.583736  9.821864E-01  -38.118515  9.881696E-01  -38.519333  5.146936E-03  -85.900948
  0.022891344  9.393753E-03 -100.407990  9.920032E-01  -37.904690  9.765944E-01  -38.381256  1.966511E-02  -59.397812
  0.022983425  9.410380E-03  -94.073219  9.838976E-01  -38.421940  9.843684E-01  -38.343929  2.028279E-02  -71.377121
  0.023075506  8.468980E-03  -59.010868  9.800414E-01  -38.900234  9.759809E-01  -38.551144  1.727444E-02  -90.358437
  0.023167587  7.599947E-03 -130.300919  9.816979E-01  -39.025726  9.879654E-01  -38.638489  1.559231E-02  -61.356422
  0.023259669  9.510869E-03  -88.920166  9.818749E-01  -39.268879  9.769421E-01  -38.831718  1.511016E-02  -88.299400
  0.023351750  1.590337E-02  -79.034447  9.855627E-01  -38.771263  9.778556E-01  -39.262524  2.347415E-02  -66.049843
  0.023443831  1.311211E-02 -110.284912  9.825245E-01  -39.418247  9.876056E-01  -39.334606  2.389209E-02  -59.936966
  0.023535912  1.015570E-02  -95.016350  9.785851E-01  -39.703754  9.840890E-01  -39.342964  2.416945E-02  -34.067268
  0.023627993  1.186983E-02  -60.873917  9.752851E-01  -40.090466  9.841226E-01  -39.461830  2.386955E-02  -43.534374
  0.023720074  6.271455E-03  -70.296486  9.888136E-01  -39.740505  9.889100E-01  -39.609474  1.904996E-02  -52.461243
  0.023812155  1.560874E-02 -104.861603  9.818200E-01  -40.172707  9.911944E-01  -39.605473  1.483175E-02  -53.724636
  0.023904236  9.749704E-03  -41.415554  9.961259E-01  -40.467407  9.916911E-01  -39.926373  1.780911E-02  -26.063225
  0.023996317  1.377068E-02  -63.168491  9.964181E-01  -40.101921  9.960284E-01  -40.145027  2.417030E-02  -46.259769
  0.024088398  1.694113E-02  -42.181713  1.000146E+00  -40.117012  9.920825E-01  -40.933861  2.375334E-02  -40.525185
