! Anritsu VNA Master:                     Model: MS2036C/10/77
! SN:                                  1601066
! /card0/usr/mar18_6dB_log.s2p
! Existing Calibration Information:
! TYPE:                         Current Settings,       Active Cal Settings
! TIME:             	   03/18/2016 01:41:12 PM,    03/18/2016 01:23:09 PM
! INTERNAL TEMP:    	                   47.8 C,                    46.8 C
! # POINTS:         	                     1087,                      1087
! START FREQ:       	               10.000 MHz,                 5.000 kHz
! STOP FREQ:        	              110.000 MHz,                 6.000 GHz
! SOURCE POWER:     	                      Low,                       Low
! IFBW:             	                    1 kHz,                     1 kHz
! AVG FACTOR:       	                       1 ,                        1 
! REF PLANE 1:      	                -6.095 mm,                 -6.095 mm
! REF PLANE 2:      	                     0 mm,                      0 mm
! CAL TYPE:         	              Full 2 Port,               Full 2 Port
! CAL METHOD:       	                     SOLT,                      SOLT
! CAL LINE TYPE:    	                     Coax,                      Coax
! DUT PORT 1:       	                K-Conn(M),                 K-Conn(M)
! DUT PORT 2:       	                N-Conn(M),                 N-Conn(M)
! CAL STATUS:       	        OK: Accuracy High,                        --
# GHZ S DB R 50.0
! FREQ.GHZ       S11DB        S11A       S21DB        S21A       S12DB        S12A       S22DB        S22A
  0.010000000  -40.183427   -9.317381   -5.955678    0.260902   -5.780441    1.099059  -42.651352   21.492434
  0.010092081  -40.973749   -4.625553   -5.587717   -0.252236   -5.485315   -0.242371  -46.565522   97.506584
  0.010184162  -40.560966  -39.602932   -5.907472    0.101631   -5.777380    0.433412  -39.355505   36.287228
  0.010276243  -41.145289   42.606445   -5.721278    0.367615   -5.820975   -1.323009  -44.507562   60.235043
  0.010368324  -38.564530   36.264935   -5.771379   -0.749861   -5.810480    0.013769  -46.248519  153.348450
  0.010460405  -38.863788   72.922630   -5.705774   -0.053665   -5.708304   -0.127570  -37.854136  113.009399
  0.010552486  -36.745094    0.266627   -5.769262    0.383978   -5.755503    0.840594  -46.477738   29.939939
  0.010644567  -35.983370    8.122692   -5.674311   -0.216952   -5.625220    1.376002  -48.350738  -32.853661
  0.010736648  -36.987552   20.960257   -5.663684   -1.175684   -5.543185    0.236921  -45.753489  -10.306787
  0.010828729  -42.967992   84.816864   -5.883904   -0.931541   -5.883733    0.019652  -50.657593   -8.589888
  0.010920810  -46.521156  -22.578638   -5.681127    1.228486   -5.771696   -1.533467  -39.754057   26.407585
  0.011012891  -37.936903 -117.970085   -5.700741    0.891575   -5.703235   -0.913013  -45.601638   57.685688
  0.011104972  -41.818962 -113.747849   -5.834658   -0.028144   -5.680197   -0.048627  -42.768431   10.233658
  0.011197053  -40.542259  -72.664825   -5.747521   -1.502399   -5.497413    0.914207  -37.807160   -9.005877
  0.011289134  -48.918814    5.307183   -5.631662    0.759297   -5.592000    0.006866  -41.245806 -167.323441
  0.011381215  -43.459988   27.921246   -5.757732    0.425546   -5.715775    1.440483  -37.292043  -58.977360
  0.011473297  -37.701416   -2.669851   -5.786695    0.083895   -5.588991    0.250946  -62.012144   47.138477
  0.011565378  -45.217041   -3.065385   -5.791291   -0.389039   -5.658512    0.012584  -41.178931  -77.095222
  0.011657459  -53.914782 -163.180725   -5.659374    0.125138   -5.759628    0.089356  -40.548437    2.257998
  0.011749540  -47.009633  -10.445650   -5.664300    0.430756   -5.855740   -1.312717  -44.282073   95.738754
  0.011841621  -42.411352  -20.061989   -5.606826    0.654127   -5.703598   -0.167291  -45.745879  -69.737640
  0.011933702  -45.286127  -48.745991   -5.692263    0.067784   -5.674188   -1.123670  -42.456069    1.979125
  0.012025783  -70.198027  -36.666069   -5.770281    0.052471   -5.905091   -0.451037  -43.951606    2.187981
  0.012117864  -42.880986   85.486389   -5.836911    0.084486   -5.752207    0.041264  -45.550559   -2.405878
  0.012209945  -48.112982  -50.323055   -5.888544   -0.735489   -5.753926   -1.076879  -45.047627    0.939940
  0.012302026  -47.820027  -33.460720   -5.766214    0.506778   -5.700252   -0.746106  -42.094851    5.809378
  0.012394107  -34.394971  -14.754165   -5.751212    0.480605   -5.687499   -0.257488  -44.714386   60.066341
  0.012486188  -41.011962   88.866043   -5.723604   -1.644398   -5.737544   -0.854206  -34.987098   85.523415
  0.012578269  -49.750897   42.778324   -5.813146   -0.404420   -5.623156    0.201467  -41.448948   99.179962
  0.012670350  -40.899472  -35.109505   -5.625443   -0.966473   -5.666138    0.137921  -45.865426   50.560944
  0.012762431  -40.446707    3.782459   -5.722245    0.160999   -5.607342   -0.025736  -49.439660  -85.433990
  0.012854512  -42.177183   82.259285   -5.696290    0.215987   -5.522262   -0.479258  -39.609113   53.075054
  0.012946593  -48.180595   10.221464   -5.773004    0.563268   -5.718251   -0.694548  -50.464018  106.905418
  0.013038674  -49.208048  -21.284744   -5.766589   -1.094520   -5.662146   -0.718077  -42.126106  -42.893497
  0.013130755  -41.223976  -78.457016   -5.662462   -0.435005   -5.610622   -0.250778  -43.023954   42.566734
  0.013222836  -59.754685  173.693146   -5.704064    0.325564   -5.548280   -0.268016  -39.861757  -54.467728
  0.013314917  -43.614219  -80.765480   -5.682390    0.419778   -5.690013    0.434387  -44.528543  -35.644634
  0.013406998  -38.329593   -8.268574   -5.628186    0.655523   -5.802278   -0.465928  -41.876879  -93.416458
  0.013499079  -43.966779  153.781937   -5.770676    0.843360   -5.674184   -0.171484  -49.069498   94.940598
  0.013591160  -36.674757   52.630524   -5.713337    0.253765   -5.751165   -0.989454  -42.466626   51.936062
  0.013683241  -45.578298   51.231720   -5.600118    0.816608   -5.746305   -1.420467  -46.906081   -0.198139
  0.013775322  -37.248811   34.249065   -5.773840    0.769162   -5.553867   -0.623207  -39.699852   -1.037742
  0.013867403  -47.279728 -108.865959   -5.766489   -0.221845   -5.646758   -0.154693  -43.467415   21.106501
  0.013959484  -42.809580   -6.442183   -5.655908    0.204766   -5.721553   -1.412592  -40.394029    7.738128
  0.014051565  -37.248174  -15.302484   -5.873373    0.172540   -5.627245   -0.152041  -39.033732   -4.363423
  0.014143646  -45.364708  -99.995903   -5.701584    0.678741   -5.753173    0.711306  -47.396355   89.083527
  0.014235727  -43.245813    0.317169   -5.705145   -0.370021   -5.927975   -0.515518  -49.880940  -68.536766
  0.014327808  -40.952983  -54.527813   -5.740625   -0.991030   -5.814870   -0.961681  -43.102063  -14.900628
  0.014419890  -37.309523   -0.193812   -5.801879    0.239125   -5.740072    0.024874  -37.373248   27.957361
  0.014511971  -47.966510   61.814087   -5.762390    0.637766   -5.695438   -0.328975  -38.946361   -1.361917
  0.014604052  -43.349378   25.666693   -5.659386    0.346076   -5.532315   -0.005739  -48.502694   57.974590
  0.014696133  -44.770356   52.939880   -5.725444   -0.329502   -5.749584    0.104713  -36.865031    4.523196
  0.014788214  -39.866916   56.783852   -5.714734    0.270349   -5.592725    0.502986  -41.941612 -133.650665
  0.014880295  -34.727893   34.574604   -5.708850   -0.215795   -5.698404    1.051391  -45.764330    3.141476
  0.014972376  -36.125487  -39.570374   -5.572230   -0.008923   -5.732899    0.098290  -45.535370  -49.307293
  0.015064457  -39.536335  -44.274834   -5.852425    0.063977   -5.678137   -0.509600  -38.713064  -23.200502
  0.015156538  -42.957677   -5.040188   -5.856974    0.347396   -5.822950    0.321674  -40.520956  -46.248924
  0.015248619  -43.518489   18.179901   -5.850034   -0.181702   -5.775662   -0.138091  -43.809306  -38.139271
  0.015340700  -36.674112  -22.723326   -5.872477    0.100076   -5.885876    0.479625  -60.735108  172.997971
  0.015432781  -35.856386  -40.095039   -5.900522   -0.057767   -5.684688    0.362495  -54.838134 -131.633224
  0.015524862  -41.883562  -28.719549   -5.872942    0.212325   -5.589790   -0.289565  -41.837994   -8.835192
  0.015616943  -42.634295   38.598026   -5.786931    0.655227   -5.698371    0.963571  -39.552090  -13.307042
  0.015709024  -42.800217   46.246758   -5.831133   -0.560365   -5.808071    0.016344  -40.105752    5.974310
  0.015801105  -36.795733  -10.252333   -5.847754    0.773649   -5.753470   -0.035508  -47.520907   59.664501
  0.015893186  -47.596309   92.882278   -5.725674    0.771278   -5.657037   -0.139761  -44.044725   19.551311
  0.015985267  -44.440198  -11.006917   -5.880127    0.770729   -5.730063   -0.140581  -44.190201   28.389496
  0.016077348  -45.897745  -33.322746   -5.751965   -0.717702   -5.643146   -0.007223  -38.429973  -11.709227
  0.016169429  -37.339533    9.838258   -5.866822   -0.111051   -5.783948   -0.254553  -41.112067  -14.278893
  0.016261510  -47.575434   31.851635   -5.750091    0.418958   -5.867342    0.705141  -38.098440   25.393126
  0.016353591  -43.316046  -12.919584   -5.812767   -0.035048   -5.656834    0.579718  -65.832174  170.182831
  0.016445672  -46.122748  101.295845   -5.771934    0.343123   -5.753650    0.286048  -50.214491   15.260430
  0.016537753  -42.558089   54.369438   -5.809688    0.182922   -5.755772   -0.623971  -36.077014   -8.861940
  0.016629834  -39.636395   11.833275   -5.735651    0.319146   -5.926884   -0.321057  -40.099880  -12.077302
  0.016721915  -44.105312  -26.656839   -5.843398   -0.536055   -5.834391   -0.420902  -57.472759   42.177605
  0.016813996  -38.520488  -29.488474   -5.714880    0.250836   -5.791148    0.206253  -37.809506    9.613242
  0.016906077  -37.438482  -18.631096   -5.734629    0.604623   -5.799400    0.154293  -48.694625   10.065628
  0.016998158  -39.213820   47.837513   -5.714155    0.124821   -5.695545    0.530488  -40.248753    0.208046
  0.017090239  -39.388896   15.615392   -5.846915    0.315737   -5.752527   -0.302083  -43.185941  -23.247263
  0.017182320  -43.914627   14.073863   -5.703450   -0.225323   -5.746227   -0.544137  -40.967224   -6.459464
  0.017274401  -42.482029  -21.528244   -5.674758   -0.221734   -5.793415    0.397987  -46.504405   64.117180
  0.017366483  -38.269211   16.958916   -5.782828    0.632257   -5.757816    0.424723  -37.897777   32.423454
  0.017458564  -36.057502  -33.171513   -5.771973   -0.250911   -5.717192   -0.340676  -42.771594   -2.279278
  0.017550645  -39.575903  -11.836651   -5.676816   -0.267326   -5.893389    0.246757  -60.494269  -13.180165
  0.017642726  -35.949378   11.549233   -5.638277   -0.188803   -5.675203   -0.064098  -40.060616 -133.975266
  0.017734807  -34.898123   53.589108   -5.679446   -0.359427   -5.949846    0.371210  -56.230752   55.927753
  0.017826888  -43.535143   18.451143   -5.643830   -0.823040   -5.613328   -1.095460  -48.016758    9.864011
  0.017918969  -47.380596   25.238670   -5.696463   -0.258913   -5.810502   -0.093080  -40.694253    0.188479
  0.018011050  -37.942996  -41.835876   -5.632773    0.003302   -5.762690    0.041134  -54.708623 -135.730804
  0.018103131  -37.040047   37.067890   -5.758746    0.160683   -5.858142   -0.437751  -46.063247  -24.320042
  0.018195212  -40.806857   72.995903   -5.690541   -0.638983   -5.759974    0.123532  -43.068806  -26.202818
  0.018287293  -38.536281   33.805321   -5.719364   -0.877450   -5.712299   -0.111399  -39.287088   18.443811
  0.018379374  -39.283489   33.831684   -5.612142   -0.171509   -5.796417    0.195916  -44.593967 -138.061478
  0.018471455  -37.392622   -1.165412   -5.673967   -0.172442   -5.747006   -0.012730  -34.138368  -35.208675
  0.018563536  -37.944322  -41.830654   -5.695709   -0.866813   -5.846619    0.508246  -45.269193    3.215957
  0.018655617  -37.795048  -17.480192   -5.677543   -0.374193   -5.637521   -0.409084  -53.447624  -53.514580
  0.018747698  -38.562000   12.300335   -5.836671    0.353932   -5.929362    0.100959  -38.499535   28.400017
  0.018839779  -38.674078   -2.083297   -5.851013   -0.779122   -5.825553    0.490938  -46.907590   -9.487506
  0.018931860  -43.517736   10.374781   -5.745090    0.220568   -5.834020   -0.605974  -42.758478  -30.917118
  0.019023941  -43.359456  -25.843195   -5.724209   -0.033645   -5.849631    0.558946  -50.070681    6.401821
  0.019116022  -37.919084  -30.764521   -5.657660   -0.043698   -5.758006    1.028360  -43.528473    6.816321
  0.019208103  -38.583868  -21.046185   -5.782980   -0.326011   -5.820851    0.463022  -38.665370   -3.478518
  0.019300184  -38.594565   32.744240   -5.844998    0.207819   -5.907095    0.620773  -37.907977   15.836815
  0.019392265  -37.499274  -21.493622   -5.746577    0.919518   -5.789345    1.004476  -40.216535  -17.892710
  0.019484346  -42.518493  -15.952274   -5.778646    0.188066   -5.769705    0.324208  -40.754570    6.076167
  0.019576427  -41.653016   13.495093   -5.738720   -0.177819   -5.731871    0.354252  -42.577857   18.875700
  0.019668508  -36.446493  -15.961486   -5.856800    0.876158   -5.580866    0.098656  -37.523517  -36.216724
  0.019760589  -43.069559  -60.685104   -5.834283   -0.202600   -5.734237    1.305281  -45.249578  -27.435061
  0.019852670  -36.856378   73.996162   -5.843097   -0.002885   -5.819041    1.002743  -58.805330   -9.136950
  0.019944751  -40.473929  -41.709984   -5.879092   -0.528020   -5.595699   -0.069539  -49.041065  -94.572319
  0.020036832  -46.808349  -85.349983   -5.720676    1.277100   -5.852185   -0.068270  -41.911538  -21.321890
  0.020128913  -39.187303    0.742692   -5.813134    0.548141   -5.859576    0.706220  -38.030672   -9.027093
  0.020220994  -36.091318   23.826939   -5.720787   -0.158872   -5.762856    0.231758  -45.616982   26.803831
  0.020313076  -37.396425   -5.723732   -5.759783    0.210951   -5.830840    0.270053  -35.059442  -10.294566
  0.020405157  -43.149668  142.322479   -5.578928    0.845010   -5.765541    1.252818  -35.061196   16.008337
  0.020497238  -37.358130  -10.932704   -5.788408    0.509264   -5.646735    1.275331  -44.150969  -54.894741
  0.020589319  -50.642727  -20.442030   -5.650267   -0.225503   -5.756777    0.755542  -49.765452  -88.971855
  0.020681400  -37.730686   31.614979   -5.725659    0.385854   -5.833900    1.079471  -51.092470  -55.123554
  0.020773481  -39.960151   67.657333   -5.762624   -0.003805   -5.900570    0.749849  -35.441173   -2.088289
  0.020865562  -47.136594   46.553173   -5.839905   -0.141508   -5.746804    0.464250  -38.119356   19.997025
  0.020957643  -44.502515   -7.753861   -5.666278   -0.227040   -5.837745    1.561327  -46.656643  -25.503923
  0.021049724  -41.924563   36.662342   -5.755470   -0.135381   -5.847920    1.567101  -56.368874  127.651520
  0.021141805  -39.769454   23.004787   -5.723427   -0.183254   -5.893219    0.669827  -46.258515   41.487694
  0.021233886  -42.915374  -47.074684   -5.878314    0.521877   -5.766413    0.131751  -41.655157   -3.838082
  0.021325967  -38.633255  -33.700687   -5.882521    0.004242   -5.769184    1.206867  -49.536226  -82.627960
  0.021418048  -42.116128   30.274086   -5.816814   -0.416176   -5.608248    0.359102  -41.350521   85.765747
  0.021510129  -41.387900   17.334791   -5.801118    0.497892   -5.743901    0.652754  -54.867026   48.429703
  0.021602210  -47.316653  -17.434765   -5.715603   -0.550885   -5.757538    1.001367  -35.779653   73.895470
  0.021694291  -43.136820   67.823906   -5.714417    0.243094   -5.739022    0.653528  -45.270504   99.025620
  0.021786372  -37.524730   59.972435   -5.875426   -0.024249   -5.771082   -0.217926  -38.904554   46.960888
  0.021878453  -42.064050   71.050484   -5.847138    0.403283   -5.790846    1.067759  -43.092109   -2.970375
  0.021970534  -36.664374  -46.257038   -5.783932    0.959221   -5.650661    0.440300  -37.554885   17.128222
  0.022062615  -38.502650   -8.314993   -5.774801   -0.237668   -5.686444    0.130309  -42.303980  -17.528877
  0.022154696  -45.388141  -24.786636   -5.820248    0.534226   -5.722696   -0.553836  -39.040625   60.575378
  0.022246777  -50.514462   82.552032   -5.794051    0.970953   -5.673154    0.012412  -42.280143   53.629242
  0.022338858  -48.045847   65.972488   -5.772097    0.267880   -5.768449    0.149117  -48.091955   52.550781
  0.022430939  -42.968783   16.841068   -5.812924    1.091205   -5.688545    0.350882  -52.390601   54.811737
  0.022523020  -43.160159  130.057404   -5.671920    0.869324   -5.664736   -0.611186  -38.775938   76.082710
  0.022615101  -46.585925   73.562546   -5.718078    0.758577   -5.569905    0.000080  -45.891916   14.486411
  0.022707182  -40.906949   48.974197   -5.754419   -0.908450   -5.697954    0.410810  -41.201175  124.317192
  0.022799263  -46.395641   20.046444   -5.668642    1.061893   -5.541852    0.085429  -46.381607  -64.351067
  0.022891344  -50.465343  119.402527   -5.713340    0.489216   -5.886626    0.376818  -41.660220  -15.993567
  0.022983425  -49.310108   27.268282   -5.872466    0.853099   -5.589616    0.550651  -46.943369  -19.431828
  0.023075506  -50.286339  -23.994583   -5.585312    0.713133   -5.941979    0.825212  -39.654872   39.544029
  0.023167587  -44.727406  166.103653   -5.834240   -0.627839   -5.877979    0.716166  -44.746095  -20.381002
  0.023259669  -61.073741   43.005924   -5.797348    0.438627   -5.628728    0.566402  -41.464260  -20.425102
  0.023351750  -39.679075  -77.856361   -5.757284    0.101612   -5.711883    0.500633  -43.715493  -94.102562
  0.023443831  -39.572642   45.249199   -5.886285    0.652482   -5.564681   -0.658968  -39.678759   -7.427385
  0.023535912  -43.468965   25.190222   -5.939878   -0.073928   -5.723643    0.947502  -42.516949 -110.144836
  0.023627993  -37.616848  -24.860649   -5.798174    0.257236   -5.745793    0.252588  -39.121820  -56.171013
  0.023720074  -39.987930   39.557953   -5.772556   -0.134869   -5.658543    1.077479  -46.083927 -114.270050
  0.023812155  -46.636721  -47.680634   -5.592114    0.717243   -5.784293    0.804451  -54.077479  155.310791
  0.023904236  -59.931276   24.705294   -5.774147   -0.256971   -5.684607   -0.055344  -45.618512  -43.462227
  0.023996317  -37.941647   23.223242   -5.710965    0.138417   -5.630278   -0.057321  -39.146248  126.471527
  0.024088398  -56.217716  -89.938866   -5.687015    0.666631   -5.683148    0.533897  -43.409812  -49.039169
  0.024180479  -43.892556   26.104410   -5.600834    0.537229   -5.673444   -0.611398  -54.821989 -100.910538
  0.024272560  -42.473590   51.952995   -5.672353   -0.158297   -5.824284    0.431875  -43.101023  -39.757610
  0.024364641  -45.502582   31.595909   -5.622888   -0.171262   -5.768326    0.723147  -46.284191   26.187183
  0.024456722  -50.765399  175.841431   -5.785892    0.321038   -5.756487   -0.029514  -43.658009  114.993774
  0.024548803  -40.013429  -44.491283   -5.860204    0.250157   -5.854996    0.069213  -43.083641   36.845104
  0.024640884  -38.095566  -22.622166   -5.898442   -0.185234   -5.787448   -0.299696  -48.656513   14.984464
  0.024732965  -44.638065   -3.711618   -5.748978    0.738641   -5.802138    0.047849  -52.350880   58.875153
  0.024825046  -42.330205    0.272057   -5.722156    0.964657   -5.637876   -0.447633  -38.903039   48.419773
  0.024917127  -43.057038    3.111921   -5.741540    0.221183   -5.758775   -0.567344  -40.801004   23.013729
  0.025009208  -43.809835   33.229366   -5.742657    0.847328   -5.789379    0.696070  -40.879725  -17.475122
  0.025101289  -48.193355   10.728730   -5.795180    0.375067   -5.839846    0.028195  -45.422573  -15.577493
