! Anritsu VNA Master:                     Model: MS2036C/10/77
! SN:                                  1601066
! /bd0/18may09/b255.ns.m2.s2p
! Existing Calibration Information:
! TYPE:                         Current Settings,       Active Cal Settings
! TIME:             	   05/09/2018 08:45:25 PM,    05/09/2018 08:37:50 PM
! INTERNAL TEMP:    	                   52.5 C,                    53.0 C
! # POINTS:         	                      494,                       494
! START FREQ:       	               20.000 MHz,                20.000 MHz
! STOP FREQ:        	          118.797 594 MHz,           118.797 594 MHz
! SOURCE POWER:     	                     High,                      High
! IFBW:             	                    50 Hz,                     50 Hz
! AVG FACTOR:       	                       1 ,                        1 
! REF PLANE 1:      	                     0 mm,                      0 mm
! REF PLANE 2:      	                     0 mm,                      0 mm
! CAL TYPE:         	                 Full S22,                  Full S22
! CAL METHOD:       	                     SOLT,                      SOLT
! CAL LINE TYPE:    	                     Coax,                      Coax
! DUT PORT 1:       	                K-Conn(M),                 K-Conn(M)
! DUT PORT 2:       	                K-Conn(M),                 K-Conn(M)
! CAL STATUS:       	        OK: Accuracy High,                        --
# GHZ S DB R 50.0
! FREQ.GHZ       S11DB        S11A       S21DB        S21A       S12DB        S12A       S22DB        S22A
  0.020000000    0.000000    0.000000    0.000000    0.000000  -89.621493   36.137779   -0.624687 -125.639542
  0.020200401    0.000000    0.000000    0.000000    0.000000  -89.632684   34.204781   -0.625983 -127.087578
  0.020400802    0.000000    0.000000    0.000000    0.000000  -90.321629   37.337059   -0.630542 -128.551804
  0.020601202    0.000000    0.000000    0.000000    0.000000  -90.350296   35.504192   -0.633491 -130.026733
  0.020801603    0.000000    0.000000    0.000000    0.000000  -90.365473   31.411938   -0.637329 -131.537460
  0.021002004    0.000000    0.000000    0.000000    0.000000  -91.315592   37.325813   -0.637196 -133.050003
  0.021202405    0.000000    0.000000    0.000000    0.000000  -91.602430   36.322235   -0.640809 -134.584335
  0.021402806    0.000000    0.000000    0.000000    0.000000  -91.470854   42.550041   -0.642708 -136.089142
  0.021603206    0.000000    0.000000    0.000000    0.000000  -91.440395   36.838417   -0.644672 -137.603546
  0.021803607    0.000000    0.000000    0.000000    0.000000  -92.139565   41.375824   -0.648879 -139.119324
  0.022004008    0.000000    0.000000    0.000000    0.000000  -91.867168   39.756130   -0.652882 -140.639755
  0.022204409    0.000000    0.000000    0.000000    0.000000  -92.154304   42.279156   -0.658958 -142.181442
  0.022404810    0.000000    0.000000    0.000000    0.000000  -91.721535   43.167759   -0.664101 -143.749054
  0.022605210    0.000000    0.000000    0.000000    0.000000  -91.907798   38.585896   -0.667547 -145.337311
  0.022805611    0.000000    0.000000    0.000000    0.000000  -91.255785   41.894989   -0.671795 -146.912460
  0.023006012    0.000000    0.000000    0.000000    0.000000  -91.265274   45.279518   -0.675873 -148.495422
  0.023206413    0.000000    0.000000    0.000000    0.000000  -91.091440   45.889675   -0.678477 -150.069519
  0.023406814    0.000000    0.000000    0.000000    0.000000  -91.402721   41.879364   -0.685978 -151.639557
  0.023607214    0.000000    0.000000    0.000000    0.000000  -91.671732   42.588284   -0.693717 -153.214294
  0.023807615    0.000000    0.000000    0.000000    0.000000  -90.764771   40.183273   -0.701612 -154.824432
  0.024008016    0.000000    0.000000    0.000000    0.000000  -91.292290   38.558411   -0.710041 -156.455612
  0.024208417    0.000000    0.000000    0.000000    0.000000  -91.015010   38.613407   -0.715968 -158.094147
  0.024408818    0.000000    0.000000    0.000000    0.000000  -91.132571   35.103325   -0.721706 -159.749252
  0.024609218    0.000000    0.000000    0.000000    0.000000  -91.085158   34.660694   -0.729233 -161.397232
  0.024809619    0.000000    0.000000    0.000000    0.000000  -90.688104   35.141361   -0.737506 -163.053192
  0.025010020    0.000000    0.000000    0.000000    0.000000  -90.882361   31.304241   -0.746817 -164.710037
  0.025210421    0.000000    0.000000    0.000000    0.000000  -91.678170   28.635370   -0.758055 -166.380081
  0.025410822    0.000000    0.000000    0.000000    0.000000  -91.761242   27.644085   -0.769401 -168.052979
  0.025611222    0.000000    0.000000    0.000000    0.000000  -92.037595   25.914574   -0.780366 -169.756790
  0.025811623    0.000000    0.000000    0.000000    0.000000  -92.544336   25.899822   -0.791436 -171.462738
  0.026012024    0.000000    0.000000    0.000000    0.000000  -92.924005   26.501398   -0.802504 -173.180801
  0.026212425    0.000000    0.000000    0.000000    0.000000  -93.540719   22.477699   -0.813660 -174.902298
  0.026412826    0.000000    0.000000    0.000000    0.000000  -93.025561   26.155121   -0.826911 -176.630676
  0.026613226    0.000000    0.000000    0.000000    0.000000  -94.099309   23.142250   -0.841409 -178.383392
  0.026813627    0.000000    0.000000    0.000000    0.000000  -94.113560   26.198811   -0.855258  179.873825
  0.027014028    0.000000    0.000000    0.000000    0.000000  -94.229206   24.370071   -0.871418  178.118378
  0.027214429    0.000000    0.000000    0.000000    0.000000  -93.987549   26.954615   -0.888058  176.358780
  0.027414830    0.000000    0.000000    0.000000    0.000000  -94.358162   28.318655   -0.903675  174.595154
  0.027615230    0.000000    0.000000    0.000000    0.000000  -94.049573   24.738390   -0.920645  172.803833
  0.027815631    0.000000    0.000000    0.000000    0.000000  -94.780643   28.551445   -0.938763  171.003601
  0.028016032    0.000000    0.000000    0.000000    0.000000  -94.614419   28.159012   -0.957868  169.197510
  0.028216433    0.000000    0.000000    0.000000    0.000000  -94.670959   33.764061   -0.980114  167.372604
  0.028416834    0.000000    0.000000    0.000000    0.000000  -94.391023   35.776806   -0.999426  165.559296
  0.028617234    0.000000    0.000000    0.000000    0.000000  -94.355586   32.706970   -1.021002  163.729294
  0.028817635    0.000000    0.000000    0.000000    0.000000  -94.095890   33.263268   -1.043820  161.904175
  0.029018036    0.000000    0.000000    0.000000    0.000000  -93.965177   29.152197   -1.067748  160.059387
  0.029218437    0.000000    0.000000    0.000000    0.000000  -94.084858   33.331772   -1.093706  158.201141
  0.029418838    0.000000    0.000000    0.000000    0.000000  -93.890365   33.420551   -1.119520  156.338547
  0.029619238    0.000000    0.000000    0.000000    0.000000  -93.877551   31.388401   -1.147601  154.462418
  0.029819639    0.000000    0.000000    0.000000    0.000000  -93.168546   33.357510   -1.174546  152.576187
  0.030020040    0.000000    0.000000    0.000000    0.000000  -94.418082   26.920725   -1.202771  150.675507
  0.030220441    0.000000    0.000000    0.000000    0.000000  -94.182735   29.125303   -1.231362  148.787003
  0.030420842    0.000000    0.000000    0.000000    0.000000  -94.340210   27.604511   -1.260907  146.893799
  0.030621242    0.000000    0.000000    0.000000    0.000000  -93.738224   30.456463   -1.292452  144.998383
  0.030821643    0.000000    0.000000    0.000000    0.000000  -94.052668   27.384661   -1.326287  143.088562
  0.031022044    0.000000    0.000000    0.000000    0.000000  -94.579784   25.620152   -1.358963  141.173859
  0.031222445    0.000000    0.000000    0.000000    0.000000  -94.511910   23.252220   -1.384610  139.283081
  0.031422846    0.000000    0.000000    0.000000    0.000000  -94.567705   18.778074   -1.420610  137.328140
  0.031623246    0.000000    0.000000    0.000000    0.000000  -94.049464   17.978632   -1.454205  135.367676
  0.031823647    0.000000    0.000000    0.000000    0.000000  -94.525627   21.034620   -1.490182  133.433441
  0.032024048    0.000000    0.000000    0.000000    0.000000  -94.954597   22.626665   -1.526436  131.477386
  0.032224449    0.000000    0.000000    0.000000    0.000000  -95.600709   12.510502   -1.564798  129.518738
  0.032424850    0.000000    0.000000    0.000000    0.000000  -94.776118   11.430383   -1.603960  127.559372
  0.032625250    0.000000    0.000000    0.000000    0.000000  -95.282955   15.259104   -1.640939  125.580940
  0.032825651    0.000000    0.000000    0.000000    0.000000  -95.354665   15.810083   -1.678373  123.575836
  0.033026052    0.000000    0.000000    0.000000    0.000000  -95.359675   18.515755   -1.717373  121.566261
  0.033226453    0.000000    0.000000    0.000000    0.000000  -96.387670   23.048279   -1.754554  119.560875
  0.033426854    0.000000    0.000000    0.000000    0.000000  -97.098351   22.542967   -1.794229  117.545532
  0.033627254    0.000000    0.000000    0.000000    0.000000  -97.045399   21.390528   -1.833745  115.547310
  0.033827655    0.000000    0.000000    0.000000    0.000000  -96.016640   19.465973   -1.875047  113.527214
  0.034028056    0.000000    0.000000    0.000000    0.000000  -96.341934   18.015526   -1.916317  111.507942
  0.034228457    0.000000    0.000000    0.000000    0.000000  -96.611369   24.363163   -1.958559  109.468529
  0.034428858    0.000000    0.000000    0.000000    0.000000  -96.949739   27.417540   -2.002825  107.411240
  0.034629258    0.000000    0.000000    0.000000    0.000000  -96.588332   22.647629   -2.048566  105.351662
  0.034829659    0.000000    0.000000    0.000000    0.000000  -95.888087   29.392487   -2.092061  103.287155
  0.035030060    0.000000    0.000000    0.000000    0.000000  -95.449414   24.926035   -2.141197  101.215919
  0.035230461    0.000000    0.000000    0.000000    0.000000  -97.214783   25.639280   -2.188775   99.153122
  0.035430862    0.000000    0.000000    0.000000    0.000000  -96.554711   27.372362   -2.238257   97.078705
  0.035631262    0.000000    0.000000    0.000000    0.000000  -96.578932   22.816622   -2.285999   94.998878
  0.035831663    0.000000    0.000000    0.000000    0.000000  -96.549442   31.728441   -2.338981   92.913437
  0.036032064    0.000000    0.000000    0.000000    0.000000  -96.318040   27.215483   -2.389929   90.834740
  0.036232465    0.000000    0.000000    0.000000    0.000000  -96.244303   28.429134   -2.439668   88.731476
  0.036432866    0.000000    0.000000    0.000000    0.000000  -97.057566   29.488314   -2.492531   86.643654
  0.036633266    0.000000    0.000000    0.000000    0.000000  -96.324020   24.484859   -2.546217   84.542145
  0.036833667    0.000000    0.000000    0.000000    0.000000  -97.010181   17.344406   -2.599341   82.454559
  0.037034068    0.000000    0.000000    0.000000    0.000000  -97.933577   20.308620   -2.658450   80.349823
  0.037234469    0.000000    0.000000    0.000000    0.000000  -97.775564   15.989338   -2.713088   78.266472
  0.037434870    0.000000    0.000000    0.000000    0.000000  -97.298110   27.354496   -2.769581   76.172043
  0.037635270    0.000000    0.000000    0.000000    0.000000  -96.934747   33.688259   -2.826593   74.086655
  0.037835671    0.000000    0.000000    0.000000    0.000000  -97.109424   22.621763   -2.888563   71.982361
  0.038036072    0.000000    0.000000    0.000000    0.000000  -96.549208   21.867878   -2.944902   69.897995
  0.038236473    0.000000    0.000000    0.000000    0.000000  -96.333220   18.127468   -3.004215   67.792046
  0.038436874    0.000000    0.000000    0.000000    0.000000  -97.089544   30.575886   -3.062721   65.697472
  0.038637274    0.000000    0.000000    0.000000    0.000000  -98.130325   23.574856   -3.123276   63.609772
  0.038837675    0.000000    0.000000    0.000000    0.000000  -98.231961   24.627649   -3.182052   61.530750
  0.039038076    0.000000    0.000000    0.000000    0.000000  -97.496017   21.811975   -3.237345   59.468655
  0.039238477    0.000000    0.000000    0.000000    0.000000  -98.359081   35.014370   -3.294470   57.408875
  0.039438878    0.000000    0.000000    0.000000    0.000000  -98.006789   21.743641   -3.352686   55.343605
  0.039639278    0.000000    0.000000    0.000000    0.000000  -98.345873   15.850696   -3.411819   53.275627
  0.039839679    0.000000    0.000000    0.000000    0.000000  -98.165225   28.297962   -3.467970   51.192219
  0.040040080    0.000000    0.000000    0.000000    0.000000  -97.721289   24.777866   -3.524778   49.120872
  0.040240481    0.000000    0.000000    0.000000    0.000000  -97.656464   31.250916   -3.580596   47.053288
  0.040440882    0.000000    0.000000    0.000000    0.000000 -100.350955   22.222143   -3.634861   44.999817
  0.040641283    0.000000    0.000000    0.000000    0.000000  -97.352955   27.874855   -3.690964   42.955605
  0.040841683    0.000000    0.000000    0.000000    0.000000  -98.188561   24.733624   -3.745015   40.901772
  0.041042084    0.000000    0.000000    0.000000    0.000000  -98.898319   25.765104   -3.799952   38.877056
  0.041242485    0.000000    0.000000    0.000000    0.000000  -97.570112   24.840109   -3.857231   36.830448
  0.041442886    0.000000    0.000000    0.000000    0.000000  -98.531355   21.392660   -3.911066   34.777363
  0.041643287    0.000000    0.000000    0.000000    0.000000  -98.104495   26.473423   -3.963774   32.716309
  0.041843687    0.000000    0.000000    0.000000    0.000000  -97.247768   32.934689   -4.017422   30.660398
  0.042044088    0.000000    0.000000    0.000000    0.000000  -97.515537   27.513432   -4.070103   28.620413
  0.042244489    0.000000    0.000000    0.000000    0.000000  -98.093039   23.809523   -4.119392   26.582590
  0.042444890    0.000000    0.000000    0.000000    0.000000  -98.756139   26.923481   -4.171820   24.574459
  0.042645291    0.000000    0.000000    0.000000    0.000000  -98.482674   20.790627   -4.225688   22.549450
  0.042845691    0.000000    0.000000    0.000000    0.000000  -98.914792   26.925430   -4.276776   20.545961
  0.043046092    0.000000    0.000000    0.000000    0.000000  -98.955557   19.866056   -4.326858   18.515633
  0.043246493    0.000000    0.000000    0.000000    0.000000  -99.837808   21.070034   -4.377385   16.509760
  0.043446894    0.000000    0.000000    0.000000    0.000000  -99.050309   25.639061   -4.424621   14.488690
  0.043647295    0.000000    0.000000    0.000000    0.000000  -98.492046   30.353197   -4.469417   12.506124
  0.043847695    0.000000    0.000000    0.000000    0.000000  -98.848716   27.078457   -4.518562   10.522444
  0.044048096    0.000000    0.000000    0.000000    0.000000 -100.433978   31.575186   -4.566370    8.545705
  0.044248497    0.000000    0.000000    0.000000    0.000000  -97.402132   25.816444   -4.611990    6.587539
  0.044448898    0.000000    0.000000    0.000000    0.000000  -97.458630   24.950462   -4.657141    4.625856
  0.044649299    0.000000    0.000000    0.000000    0.000000  -98.498689   30.014313   -4.705212    2.673086
  0.044849699    0.000000    0.000000    0.000000    0.000000  -98.972553   24.512861   -4.749709    0.733270
  0.045050100    0.000000    0.000000    0.000000    0.000000  -99.485979   30.724546   -4.796883   -1.191435
  0.045250501    0.000000    0.000000    0.000000    0.000000  -98.703674   28.036198   -4.838716   -3.128235
  0.045450902    0.000000    0.000000    0.000000    0.000000 -100.834878   28.922375   -4.881465   -5.050265
  0.045651303    0.000000    0.000000    0.000000    0.000000  -99.318865   29.563860   -4.921081   -6.956832
  0.045851703    0.000000    0.000000    0.000000    0.000000 -100.413476   35.042553   -4.964324   -8.857480
  0.046052104    0.000000    0.000000    0.000000    0.000000  -98.570647   34.790127   -5.004209  -10.735645
  0.046252505    0.000000    0.000000    0.000000    0.000000  -99.140569   31.225300   -5.043138  -12.615714
  0.046452906    0.000000    0.000000    0.000000    0.000000  -98.002840   30.881075   -5.084602  -14.483286
  0.046653307    0.000000    0.000000    0.000000    0.000000  -98.929092   23.687630   -5.124480  -16.362177
  0.046853707    0.000000    0.000000    0.000000    0.000000  -99.127275   39.929916   -5.163188  -18.217838
  0.047054108    0.000000    0.000000    0.000000    0.000000  -99.461468   35.040031   -5.200666  -20.082727
  0.047254509    0.000000    0.000000    0.000000    0.000000  -98.977279   31.040779   -5.238726  -21.936666
  0.047454910    0.000000    0.000000    0.000000    0.000000  -97.754368   32.617695   -5.273410  -23.766649
  0.047655311    0.000000    0.000000    0.000000    0.000000  -98.201247   23.625660   -5.308289  -25.591824
  0.047855711    0.000000    0.000000    0.000000    0.000000 -100.031394   27.259253   -5.340006  -27.406822
  0.048056112    0.000000    0.000000    0.000000    0.000000  -99.026026   38.890514   -5.372932  -29.211346
  0.048256513    0.000000    0.000000    0.000000    0.000000 -100.082940   29.222574   -5.408069  -30.999506
  0.048456914    0.000000    0.000000    0.000000    0.000000 -100.072846   21.742430   -5.436336  -32.772209
  0.048657315    0.000000    0.000000    0.000000    0.000000  -99.197686   39.556301   -5.464603  -34.590675
  0.048857715    0.000000    0.000000    0.000000    0.000000  -99.346105   30.670425   -5.493511  -36.365807
  0.049058116    0.000000    0.000000    0.000000    0.000000  -98.604996   37.886883   -5.519511  -38.140324
  0.049258517    0.000000    0.000000    0.000000    0.000000  -99.504074   20.863344   -5.542711  -39.896152
  0.049458918    0.000000    0.000000    0.000000    0.000000  -99.569274   29.266411   -5.569779  -41.654022
  0.049659319    0.000000    0.000000    0.000000    0.000000 -100.467643   29.446465   -5.595066  -43.369740
  0.049859719    0.000000    0.000000    0.000000    0.000000 -100.499394   25.903692   -5.618131  -45.101727
  0.050060120    0.000000    0.000000    0.000000    0.000000 -100.691455   36.845650   -5.641085  -46.802425
  0.050260521    0.000000    0.000000    0.000000    0.000000  -99.829331   38.425640   -5.662729  -48.535172
  0.050460922    0.000000    0.000000    0.000000    0.000000 -100.428809   33.074100   -5.681709  -50.242588
  0.050661323    0.000000    0.000000    0.000000    0.000000  -98.826250   30.748631   -5.699155  -51.942142
  0.050861723    0.000000    0.000000    0.000000    0.000000  -99.708178   45.270626   -5.715336  -53.595280
  0.051062124    0.000000    0.000000    0.000000    0.000000  -98.786742   40.733864   -5.736685  -55.274158
  0.051262525    0.000000    0.000000    0.000000    0.000000  -97.826323   31.636303   -5.758739  -56.924580
  0.051462926    0.000000    0.000000    0.000000    0.000000  -99.335120   38.779297   -5.773870  -58.575176
  0.051663327    0.000000    0.000000    0.000000    0.000000  -98.812252   37.836472   -5.790942  -60.184784
  0.051863727    0.000000    0.000000    0.000000    0.000000  -99.650378   37.004810   -5.809796  -61.815849
  0.052064128    0.000000    0.000000    0.000000    0.000000  -98.116380   40.013943   -5.821301  -63.426037
  0.052264529    0.000000    0.000000    0.000000    0.000000  -99.267147   39.080055   -5.834508  -65.036034
  0.052464930    0.000000    0.000000    0.000000    0.000000  -98.230175   28.068184   -5.847057  -66.614479
  0.052665331    0.000000    0.000000    0.000000    0.000000  -98.908072   27.772518   -5.861995  -68.202141
  0.052865731    0.000000    0.000000    0.000000    0.000000  -98.300795   36.930298   -5.877749  -69.746307
