! Anritsu VNA Master:                     Model: MS2036C/10/77
! SN:                                  1601066
! /bd0/18may07/256.ew.m8.s2p
! Existing Calibration Information:
! TYPE:                         Current Settings,       Active Cal Settings
! TIME:             	   05/07/2018 12:14:49 PM,    05/07/2018 12:05:13 PM
! INTERNAL TEMP:    	                   54.5 C,                    53.5 C
! # POINTS:         	                      500,                       500
! START FREQ:       	               20.000 MHz,                20.000 MHz
! STOP FREQ:        	              120.000 MHz,               120.000 MHz
! SOURCE POWER:     	                     High,                      High
! IFBW:             	                    50 Hz,                     50 Hz
! AVG FACTOR:       	                       1 ,                        1 
! REF PLANE 1:      	                     0 mm,                      0 mm
! REF PLANE 2:      	                     0 mm,                      0 mm
! CAL TYPE:         	                 Full S11,                  Full S11
! CAL METHOD:       	                     SOLT,                      SOLT
! CAL LINE TYPE:    	                     Coax,                      Coax
! DUT PORT 1:       	                K-Conn(F),                 K-Conn(F)
! DUT PORT 2:       	                K-Conn(F),                 K-Conn(F)
! CAL STATUS:       	        OK: Accuracy High,                        --
# GHZ S DB R 50.0
! FREQ.GHZ       S11DB        S11A       S21DB        S21A       S12DB        S12A       S22DB        S22A
  0.020000000   -0.630826 -125.747429  -90.829678   29.609980    0.000000    0.000000    0.000000    0.000000
  0.020200401   -0.628786 -127.208916  -91.284194   25.974350    0.000000    0.000000    0.000000    0.000000
  0.020400802   -0.630489 -128.668442  -91.156085   29.123257    0.000000    0.000000    0.000000    0.000000
  0.020601202   -0.631984 -130.138382  -91.615192   29.751972    0.000000    0.000000    0.000000    0.000000
  0.020801603   -0.637051 -131.635666  -92.303638   28.930847    0.000000    0.000000    0.000000    0.000000
  0.021002004   -0.642623 -133.157257  -93.261239   30.340902    0.000000    0.000000    0.000000    0.000000
  0.021202405   -0.650345 -134.691025  -92.845336   26.719652    0.000000    0.000000    0.000000    0.000000
  0.021402806   -0.656718 -136.222885  -93.064743   32.292912    0.000000    0.000000    0.000000    0.000000
  0.021603206   -0.661466 -137.767151  -93.563856   31.925806    0.000000    0.000000    0.000000    0.000000
  0.021803607   -0.665378 -139.311539  -93.327139   37.040401    0.000000    0.000000    0.000000    0.000000
  0.022004008   -0.670215 -140.858444  -93.616825   32.642628    0.000000    0.000000    0.000000    0.000000
  0.022204409   -0.677319 -142.414017  -94.340581   33.481255    0.000000    0.000000    0.000000    0.000000
  0.022404810   -0.682031 -143.990326  -93.480362   35.473846    0.000000    0.000000    0.000000    0.000000
  0.022605210   -0.688914 -145.582413  -93.613498   36.795738    0.000000    0.000000    0.000000    0.000000
  0.022805611   -0.694932 -147.173279  -92.879243   34.268860    0.000000    0.000000    0.000000    0.000000
  0.023006012   -0.696867 -148.774338  -93.073394   35.252674    0.000000    0.000000    0.000000    0.000000
  0.023206413   -0.697903 -150.357559  -92.907990   32.276173    0.000000    0.000000    0.000000    0.000000
  0.023406814   -0.700667 -151.947571  -92.816118   34.487347    0.000000    0.000000    0.000000    0.000000
  0.023607214   -0.705861 -153.531082  -92.849633   28.193920    0.000000    0.000000    0.000000    0.000000
  0.023807615   -0.713993 -155.131348  -93.099112   28.773548    0.000000    0.000000    0.000000    0.000000
  0.024008016   -0.722976 -156.747589  -92.799712   25.050852    0.000000    0.000000    0.000000    0.000000
  0.024208417   -0.732164 -158.373978  -93.050493   26.466251    0.000000    0.000000    0.000000    0.000000
  0.024408818   -0.742378 -160.019867  -92.800458   23.641514    0.000000    0.000000    0.000000    0.000000
  0.024609218   -0.751004 -161.658173  -93.498693   26.494453    0.000000    0.000000    0.000000    0.000000
  0.024809619   -0.761654 -163.305969  -93.598968   21.361830    0.000000    0.000000    0.000000    0.000000
  0.025010020   -0.773802 -164.952454  -94.480808   20.878376    0.000000    0.000000    0.000000    0.000000
  0.025210421   -0.787520 -166.610336  -93.705126   23.005753    0.000000    0.000000    0.000000    0.000000
  0.025410822   -0.800245 -168.297623  -94.357111   18.867836    0.000000    0.000000    0.000000    0.000000
  0.025611222   -0.813842 -169.985794  -94.360653   18.706221    0.000000    0.000000    0.000000    0.000000
  0.025811623   -0.828596 -171.690353  -94.455688   16.259342    0.000000    0.000000    0.000000    0.000000
  0.026012024   -0.839965 -173.413834  -95.260224   17.672321    0.000000    0.000000    0.000000    0.000000
  0.026212425   -0.851198 -175.144348  -95.086978   16.085962    0.000000    0.000000    0.000000    0.000000
  0.026412826   -0.865972 -176.872467  -95.669923   16.932728    0.000000    0.000000    0.000000    0.000000
  0.026613226   -0.881378 -178.622391  -95.564476   14.106091    0.000000    0.000000    0.000000    0.000000
  0.026813627   -0.897055  179.610413  -96.573239   19.366663    0.000000    0.000000    0.000000    0.000000
  0.027014028   -0.914532  177.837357  -96.818875   19.867252    0.000000    0.000000    0.000000    0.000000
  0.027214429   -0.933152  176.059204  -95.829912   14.683457    0.000000    0.000000    0.000000    0.000000
  0.027414830   -0.951923  174.257965  -95.728584   17.379313    0.000000    0.000000    0.000000    0.000000
  0.027615230   -0.968457  172.454575  -96.365328   24.726393    0.000000    0.000000    0.000000    0.000000
  0.027815631   -0.988038  170.635010  -96.664444   20.872150    0.000000    0.000000    0.000000    0.000000
  0.028016032   -1.009079  168.805695  -96.549856   23.433710    0.000000    0.000000    0.000000    0.000000
  0.028216433   -1.033212  166.964478  -96.442250   21.914536    0.000000    0.000000    0.000000    0.000000
  0.028416834   -1.054285  165.132874  -96.462433   26.550934    0.000000    0.000000    0.000000    0.000000
  0.028617234   -1.075442  163.293732  -96.873458   19.759052    0.000000    0.000000    0.000000    0.000000
  0.028817635   -1.094986  161.456009  -96.059306   20.567846    0.000000    0.000000    0.000000    0.000000
  0.029018036   -1.116891  159.635757  -96.343825   23.257591    0.000000    0.000000    0.000000    0.000000
  0.029218437   -1.137561  157.812393  -96.393106   24.518749    0.000000    0.000000    0.000000    0.000000
  0.029418838   -1.161086  155.994446  -96.317731   21.800398    0.000000    0.000000    0.000000    0.000000
  0.029619238   -1.186793  154.157913  -95.882402   20.288246    0.000000    0.000000    0.000000    0.000000
  0.029819639   -1.216412  152.301575  -96.141729   16.180269    0.000000    0.000000    0.000000    0.000000
  0.030020040   -1.247347  150.414658  -96.655840   16.480791    0.000000    0.000000    0.000000    0.000000
  0.030220441   -1.276600  148.511017  -96.675447   11.421240    0.000000    0.000000    0.000000    0.000000
  0.030420842   -1.306581  146.599960  -96.295165   14.057833    0.000000    0.000000    0.000000    0.000000
  0.030621242   -1.338213  144.711365  -96.898081   14.542509    0.000000    0.000000    0.000000    0.000000
  0.030821643   -1.369446  142.813110  -96.886454    8.367466    0.000000    0.000000    0.000000    0.000000
  0.031022044   -1.404168  140.907608  -98.146802   12.477588    0.000000    0.000000    0.000000    0.000000
  0.031222445   -1.436522  139.000336  -96.615926   15.313445    0.000000    0.000000    0.000000    0.000000
  0.031422846   -1.471983  137.033493  -97.098670   16.772333    0.000000    0.000000    0.000000    0.000000
  0.031623246   -1.510642  135.045837  -96.744781   16.685513    0.000000    0.000000    0.000000    0.000000
  0.031823647   -1.547792  133.065903  -97.561310   12.950706    0.000000    0.000000    0.000000    0.000000
  0.032024048   -1.582488  131.068588  -98.548537   14.576027    0.000000    0.000000    0.000000    0.000000
  0.032224449   -1.618728  129.069016  -98.497258    9.870323    0.000000    0.000000    0.000000    0.000000
  0.032424850   -1.654724  127.069984  -97.643371   -6.126157    0.000000    0.000000    0.000000    0.000000
  0.032625251   -1.689583  125.082550  -96.979571   11.350842    0.000000    0.000000    0.000000    0.000000
  0.032825651   -1.727927  123.096672  -97.506263   10.023637    0.000000    0.000000    0.000000    0.000000
  0.033026052   -1.769737  121.103569  -97.792031    6.062718    0.000000    0.000000    0.000000    0.000000
  0.033226453   -1.811661  119.121735  -98.232767    9.739854    0.000000    0.000000    0.000000    0.000000
  0.033426854   -1.859679  117.127953  -99.885466   13.595505    0.000000    0.000000    0.000000    0.000000
  0.033627255   -1.909801  115.123657  -97.959092   11.281194    0.000000    0.000000    0.000000    0.000000
  0.033827655   -1.965272  113.084846  -98.499333   14.132347    0.000000    0.000000    0.000000    0.000000
  0.034028056   -2.014271  111.018929  -98.846425   13.795291    0.000000    0.000000    0.000000    0.000000
  0.034228457   -2.064181  108.917236  -98.680930   17.881922    0.000000    0.000000    0.000000    0.000000
  0.034428858   -2.116019  106.784889  -99.673480   17.969097    0.000000    0.000000    0.000000    0.000000
  0.034629259   -2.165236  104.652969  -98.983510   17.616829    0.000000    0.000000    0.000000    0.000000
  0.034829659   -2.207859  102.521362  -99.484900   20.418570    0.000000    0.000000    0.000000    0.000000
  0.035030060   -2.253385  100.405075  -98.276807   14.932023    0.000000    0.000000    0.000000    0.000000
  0.035230461   -2.298864   98.303787  -97.912902    9.099460    0.000000    0.000000    0.000000    0.000000
  0.035430862   -2.341238   96.185295  -98.264071    8.031081    0.000000    0.000000    0.000000    0.000000
  0.035631263   -2.385803   94.124146  -98.798816   15.699779    0.000000    0.000000    0.000000    0.000000
  0.035831663   -2.426762   92.045456  -98.449151    5.670678    0.000000    0.000000    0.000000    0.000000
  0.036032064   -2.470515   89.980942  -98.295793   12.417665    0.000000    0.000000    0.000000    0.000000
  0.036232465   -2.517689   87.929337  -97.947604    4.364383    0.000000    0.000000    0.000000    0.000000
  0.036432866   -2.565759   85.892754  -99.610886    2.438402    0.000000    0.000000    0.000000    0.000000
  0.036633267   -2.617649   83.866142  -99.222184   -2.179584    0.000000    0.000000    0.000000    0.000000
  0.036833667   -2.670139   81.823456  -99.319871   11.269047    0.000000    0.000000    0.000000    0.000000
  0.037034068   -2.728542   79.767029  -99.765710    2.399477    0.000000    0.000000    0.000000    0.000000
  0.037234469   -2.786545   77.710678  -99.332794    0.707194    0.000000    0.000000    0.000000    0.000000
  0.037434870   -2.848467   75.644203 -100.750027    0.149684    0.000000    0.000000    0.000000    0.000000
  0.037635271   -2.908435   73.522324  -99.518347   -0.549800    0.000000    0.000000    0.000000    0.000000
  0.037835671   -2.971859   71.404312 -100.090154    0.203765    0.000000    0.000000    0.000000    0.000000
  0.038036072   -3.032261   69.241577  -99.323976    4.276164    0.000000    0.000000    0.000000    0.000000
  0.038236473   -3.094852   67.083717  -99.119137    2.896277    0.000000    0.000000    0.000000    0.000000
  0.038436874   -3.152944   64.931702 -100.770977    9.259032    0.000000    0.000000    0.000000    0.000000
  0.038637275   -3.207192   62.796997 -101.210285    2.804390    0.000000    0.000000    0.000000    0.000000
  0.038837675   -3.257508   60.646519 -102.087444   12.456646    0.000000    0.000000    0.000000    0.000000
  0.039038076   -3.306793   58.554016 -100.248989   10.425366    0.000000    0.000000    0.000000    0.000000
  0.039238477   -3.353902   56.468239 -100.476576   -3.264691    0.000000    0.000000    0.000000    0.000000
  0.039438878   -3.403644   54.412964 -100.634407    2.356105    0.000000    0.000000    0.000000    0.000000
  0.039639279   -3.454949   52.360096 -100.871546   -1.315298    0.000000    0.000000    0.000000    0.000000
  0.039839679   -3.513838   50.317623  -99.524756   17.511364    0.000000    0.000000    0.000000    0.000000
  0.040040080   -3.572682   48.239628  -99.008369    9.797290    0.000000    0.000000    0.000000    0.000000
  0.040240481   -3.633083   46.159584 -100.771695    4.060382    0.000000    0.000000    0.000000    0.000000
  0.040440882   -3.692475   44.081711 -100.098702    3.895924    0.000000    0.000000    0.000000    0.000000
  0.040641283   -3.753662   41.996201 -101.519575    6.316317    0.000000    0.000000    0.000000    0.000000
  0.040841683   -3.811062   39.918697 -100.252732    7.064758    0.000000    0.000000    0.000000    0.000000
  0.041042084   -3.867595   37.846832 -100.113952    8.819040    0.000000    0.000000    0.000000    0.000000
  0.041242485   -3.925726   35.777584  -99.167060    1.682190    0.000000    0.000000    0.000000    0.000000
  0.041442886   -3.979796   33.708988 -102.128363   -0.538833    0.000000    0.000000    0.000000    0.000000
  0.041643287   -4.034054   31.636606 -101.991987    3.107796    0.000000    0.000000    0.000000    0.000000
  0.041843687   -4.085897   29.560728 -101.866515    8.067419    0.000000    0.000000    0.000000    0.000000
  0.042044088   -4.136970   27.504532 -101.197773    2.208256    0.000000    0.000000    0.000000    0.000000
  0.042244489   -4.186944   25.480747 -100.294739    2.415999    0.000000    0.000000    0.000000    0.000000
  0.042444890   -4.238907   23.467554 -101.318525    1.867826    0.000000    0.000000    0.000000    0.000000
  0.042645291   -4.288205   21.452429 -101.470477   -2.165283    0.000000    0.000000    0.000000    0.000000
  0.042845691   -4.338756   19.462269 -102.351847    0.451488    0.000000    0.000000    0.000000    0.000000
  0.043046092   -4.389451   17.453070 -103.298518   -0.981332    0.000000    0.000000    0.000000    0.000000
  0.043246493   -4.438889   15.464549 -101.775283   -0.175204    0.000000    0.000000    0.000000    0.000000
  0.043446894   -4.486525   13.480302 -100.864501    3.202126    0.000000    0.000000    0.000000    0.000000
  0.043647295   -4.535554   11.498836 -101.779137   -0.967658    0.000000    0.000000    0.000000    0.000000
  0.043847695   -4.584443    9.516520 -102.350875   14.042546    0.000000    0.000000    0.000000    0.000000
  0.044048096   -4.633676    7.539538 -100.640927    9.113753    0.000000    0.000000    0.000000    0.000000
  0.044248497   -4.679466    5.558870 -101.817076   15.293277    0.000000    0.000000    0.000000    0.000000
  0.044448898   -4.724752    3.613100 -101.755858    6.740427    0.000000    0.000000    0.000000    0.000000
  0.044649299   -4.772258    1.651530 -100.974650    3.449879    0.000000    0.000000    0.000000    0.000000
  0.044849699   -4.816477   -0.291183 -102.171552   12.395592    0.000000    0.000000    0.000000    0.000000
  0.045050100   -4.861032   -2.227293 -101.601037   12.364539    0.000000    0.000000    0.000000    0.000000
  0.045250501   -4.900263   -4.160117 -102.609624   12.225986    0.000000    0.000000    0.000000    0.000000
  0.045450902   -4.937718   -6.083030 -102.149469   -9.745528    0.000000    0.000000    0.000000    0.000000
  0.045651303   -4.975403   -7.984556 -101.739141    6.256188    0.000000    0.000000    0.000000    0.000000
  0.045851703   -5.014758   -9.906091 -101.272567  -10.326189    0.000000    0.000000    0.000000    0.000000
  0.046052104   -5.050979  -11.802656 -102.002964    7.326003    0.000000    0.000000    0.000000    0.000000
  0.046252505   -5.086269  -13.677269  -99.922189   10.830671    0.000000    0.000000    0.000000    0.000000
  0.046452906   -5.122674  -15.541971 -101.057547   -0.542540    0.000000    0.000000    0.000000    0.000000
  0.046653307   -5.158600  -17.422369 -101.891809   -8.755445    0.000000    0.000000    0.000000    0.000000
  0.046853707   -5.192629  -19.281858 -100.354597    3.460659    0.000000    0.000000    0.000000    0.000000
  0.047054108   -5.222001  -21.120338 -100.084435    0.953670    0.000000    0.000000    0.000000    0.000000
  0.047254509   -5.253425  -22.971846 -102.757625   -1.158581    0.000000    0.000000    0.000000    0.000000
  0.047454910   -5.285699  -24.783186 -101.475267  -16.547203    0.000000    0.000000    0.000000    0.000000
  0.047655311   -5.311302  -26.591499 -102.176030   -3.315927    0.000000    0.000000    0.000000    0.000000
  0.047855711   -5.336441  -28.357597 -100.689886    8.982846    0.000000    0.000000    0.000000    0.000000
  0.048056112   -5.365675  -30.100534 -102.367693   -2.340825    0.000000    0.000000    0.000000    0.000000
  0.048256513   -5.393746  -31.857239 -103.862281   -7.891831    0.000000    0.000000    0.000000    0.000000
  0.048456914   -5.421912  -33.588821 -103.421549   -7.010346    0.000000    0.000000    0.000000    0.000000
  0.048657315   -5.450486  -35.328350 -102.557915    4.532697    0.000000    0.000000    0.000000    0.000000
  0.048857715   -5.474733  -37.069023 -104.327428    1.008625    0.000000    0.000000    0.000000    0.000000
  0.049058116   -5.501176  -38.798172 -104.435208   -7.349961    0.000000    0.000000    0.000000    0.000000
  0.049258517   -5.524920  -40.540848 -105.175734    8.977755    0.000000    0.000000    0.000000    0.000000
  0.049458918   -5.548284  -42.241592 -102.947009    8.596442    0.000000    0.000000    0.000000    0.000000
  0.049659319   -5.572101  -43.926861 -103.758691    6.957560    0.000000    0.000000    0.000000    0.000000
  0.049859719   -5.601118  -45.640533 -102.509989    3.996323    0.000000    0.000000    0.000000    0.000000
  0.050060120   -5.623893  -47.328232 -103.658233    1.057408    0.000000    0.000000    0.000000    0.000000
  0.050260521   -5.646760  -49.013100 -103.581708   12.351686    0.000000    0.000000    0.000000    0.000000
  0.050460922   -5.668012  -50.710152 -102.261018   13.059418    0.000000    0.000000    0.000000    0.000000
  0.050661323   -5.685399  -52.385647 -104.065829   18.106396    0.000000    0.000000    0.000000    0.000000
  0.050861723   -5.700202  -54.043934 -102.448620    4.651253    0.000000    0.000000    0.000000    0.000000
  0.051062124   -5.714703  -55.698639 -101.252050    0.314053    0.000000    0.000000    0.000000    0.000000
  0.051262525   -5.729466  -57.299938 -102.215516    7.807404    0.000000    0.000000    0.000000    0.000000
  0.051462926   -5.746311  -58.881912 -101.298852    5.863061    0.000000    0.000000    0.000000    0.000000
  0.051663327   -5.759919  -60.453873 -102.981102   21.601316    0.000000    0.000000    0.000000    0.000000
  0.051863727   -5.772614  -62.004814 -103.206003   -0.020653    0.000000    0.000000    0.000000    0.000000
  0.052064128   -5.789512  -63.553368 -100.382906   13.053176    0.000000    0.000000    0.000000    0.000000
  0.052264529   -5.803551  -65.089737 -104.262541    7.072783    0.000000    0.000000    0.000000    0.000000
  0.052464930   -5.821556  -66.623062 -102.965355    4.562306    0.000000    0.000000    0.000000    0.000000
  0.052665331   -5.835412  -68.190010 -103.191204   -5.418847    0.000000    0.000000    0.000000    0.000000
  0.052865731   -5.851912  -69.704269 -103.139767   -1.099267    0.000000    0.000000    0.000000    0.000000
