! Anritsu VNA Master:                     Model: MS2036C/10/77
! SN:                                  1601066
! /bd0/18may07/256.ew.m15.s2p
! Existing Calibration Information:
! TYPE:                         Current Settings,       Active Cal Settings
! TIME:             	   05/07/2018 02:32:13 PM,    05/07/2018 02:21:54 PM
! INTERNAL TEMP:    	                   56.8 C,                    55.5 C
! # POINTS:         	                      500,                       500
! START FREQ:       	               20.000 MHz,                20.000 MHz
! STOP FREQ:        	              120.000 MHz,               120.000 MHz
! SOURCE POWER:     	                     High,                      High
! IFBW:             	                    50 Hz,                     50 Hz
! AVG FACTOR:       	                       1 ,                        1 
! REF PLANE 1:      	                     0 mm,                      0 mm
! REF PLANE 2:      	                     0 mm,                      0 mm
! CAL TYPE:         	                 Full S11,                  Full S11
! CAL METHOD:       	                     SOLT,                      SOLT
! CAL LINE TYPE:    	                     Coax,                      Coax
! DUT PORT 1:       	                K-Conn(F),                 K-Conn(F)
! DUT PORT 2:       	                K-Conn(F),                 K-Conn(F)
! CAL STATUS:       	        OK: Accuracy High,                        --
# GHZ S DB R 50.0
! FREQ.GHZ       S11DB        S11A       S21DB        S21A       S12DB        S12A       S22DB        S22A
  0.020000000   -0.648384 -126.133133  -90.650108   26.993999    0.000000    0.000000    0.000000    0.000000
  0.020200401   -0.647065 -127.598480  -91.059010   31.699448    0.000000    0.000000    0.000000    0.000000
  0.020400802   -0.647342 -129.060822  -91.812256   25.767801    0.000000    0.000000    0.000000    0.000000
  0.020601202   -0.649249 -130.520599  -92.429058   27.818232    0.000000    0.000000    0.000000    0.000000
  0.020801603   -0.654186 -132.019760  -92.515759   28.034698    0.000000    0.000000    0.000000    0.000000
  0.021002004   -0.661705 -133.533813  -92.850761   30.979200    0.000000    0.000000    0.000000    0.000000
  0.021202405   -0.666950 -135.070786  -92.969456   32.509937    0.000000    0.000000    0.000000    0.000000
  0.021402806   -0.674132 -136.611237  -93.148633   27.748659    0.000000    0.000000    0.000000    0.000000
  0.021603206   -0.679073 -138.144638  -93.295227   29.794340    0.000000    0.000000    0.000000    0.000000
  0.021803607   -0.683520 -139.676514  -93.990798   28.609791    0.000000    0.000000    0.000000    0.000000
  0.022004008   -0.690389 -141.216141  -92.958475   35.161816    0.000000    0.000000    0.000000    0.000000
  0.022204409   -0.698676 -142.765839  -93.196242   33.819881    0.000000    0.000000    0.000000    0.000000
  0.022404810   -0.700461 -144.336929  -93.380208   32.742649    0.000000    0.000000    0.000000    0.000000
  0.022605210   -0.703132 -145.931656  -92.996680   38.321751    0.000000    0.000000    0.000000    0.000000
  0.022805611   -0.709187 -147.538635  -93.224736   36.866482    0.000000    0.000000    0.000000    0.000000
  0.023006012   -0.715543 -149.128387  -92.217282   36.244545    0.000000    0.000000    0.000000    0.000000
  0.023206413   -0.718256 -150.726212  -93.037734   33.743961    0.000000    0.000000    0.000000    0.000000
  0.023406814   -0.721732 -152.311417  -92.561507   33.520336    0.000000    0.000000    0.000000    0.000000
  0.023607214   -0.724726 -153.898361  -93.171926   31.620314    0.000000    0.000000    0.000000    0.000000
  0.023807615   -0.732587 -155.502914  -92.246618   28.800665    0.000000    0.000000    0.000000    0.000000
  0.024008016   -0.743055 -157.132553  -92.579069   29.855328    0.000000    0.000000    0.000000    0.000000
  0.024208417   -0.753016 -158.754913  -92.800873   31.619925    0.000000    0.000000    0.000000    0.000000
  0.024408818   -0.761598 -160.418930  -93.404308   22.957329    0.000000    0.000000    0.000000    0.000000
  0.024609218   -0.771550 -162.063812  -93.334130   23.508991    0.000000    0.000000    0.000000    0.000000
  0.024809619   -0.781033 -163.731659  -93.058930   18.265251    0.000000    0.000000    0.000000    0.000000
  0.025010020   -0.793113 -165.386719  -94.266383   19.959675    0.000000    0.000000    0.000000    0.000000
  0.025210421   -0.805189 -167.052277  -93.362033   20.729031    0.000000    0.000000    0.000000    0.000000
  0.025410822   -0.819046 -168.733368  -93.820595   15.465368    0.000000    0.000000    0.000000    0.000000
  0.025611222   -0.832465 -170.438538  -95.486351   22.903654    0.000000    0.000000    0.000000    0.000000
  0.025811623   -0.846948 -172.151718  -94.622080   17.721800    0.000000    0.000000    0.000000    0.000000
  0.026012024   -0.858599 -173.883041  -94.370092   15.840963    0.000000    0.000000    0.000000    0.000000
  0.026212425   -0.868007 -175.604904  -94.875620   13.725966    0.000000    0.000000    0.000000    0.000000
  0.026412826   -0.882179 -177.340866  -95.433513   13.104316    0.000000    0.000000    0.000000    0.000000
  0.026613226   -0.897634 -179.081741  -95.881703   19.050875    0.000000    0.000000    0.000000    0.000000
  0.026813627   -0.914173  179.158020  -95.924942   17.303200    0.000000    0.000000    0.000000    0.000000
  0.027014028   -0.931122  177.389069  -96.450814   17.034199    0.000000    0.000000    0.000000    0.000000
  0.027214429   -0.948928  175.603668  -96.487625   22.459240    0.000000    0.000000    0.000000    0.000000
  0.027414830   -0.965005  173.813690  -95.911730   20.119427    0.000000    0.000000    0.000000    0.000000
  0.027615230   -0.983689  172.021072  -95.849301   18.833685    0.000000    0.000000    0.000000    0.000000
  0.027815631   -1.002280  170.209763  -95.846634   23.113392    0.000000    0.000000    0.000000    0.000000
  0.028016032   -1.024604  168.387558  -96.371513   22.782469    0.000000    0.000000    0.000000    0.000000
  0.028216433   -1.046046  166.555313  -95.036049   24.551702    0.000000    0.000000    0.000000    0.000000
  0.028416834   -1.067718  164.722214  -96.534118   22.430819    0.000000    0.000000    0.000000    0.000000
  0.028617234   -1.089019  162.897659  -96.118507   22.127251    0.000000    0.000000    0.000000    0.000000
  0.028817635   -1.108885  161.063416  -96.230411   25.557995    0.000000    0.000000    0.000000    0.000000
  0.029018036   -1.129103  159.246338  -95.781494   24.933527    0.000000    0.000000    0.000000    0.000000
  0.029218437   -1.152044  157.424332  -95.920119   22.690073    0.000000    0.000000    0.000000    0.000000
  0.029418838   -1.174761  155.607559  -95.347196   20.223146    0.000000    0.000000    0.000000    0.000000
  0.029619238   -1.200223  153.767929  -96.103335   14.364100    0.000000    0.000000    0.000000    0.000000
  0.029819639   -1.230167  151.902161  -96.225570   12.607311    0.000000    0.000000    0.000000    0.000000
  0.030020040   -1.260840  150.015549  -96.516146   17.455952    0.000000    0.000000    0.000000    0.000000
  0.030220441   -1.291031  148.095154  -96.047052   15.153529    0.000000    0.000000    0.000000    0.000000
  0.030420842   -1.320136  146.182175  -96.522298   16.185120    0.000000    0.000000    0.000000    0.000000
  0.030621242   -1.351400  144.273102  -96.303051   13.301401    0.000000    0.000000    0.000000    0.000000
  0.030821643   -1.382759  142.366135  -97.136774   14.666793    0.000000    0.000000    0.000000    0.000000
  0.031022044   -1.417139  140.434692  -96.663301    7.809356    0.000000    0.000000    0.000000    0.000000
  0.031222445   -1.449036  138.528305  -97.364207   15.436481    0.000000    0.000000    0.000000    0.000000
  0.031422846   -1.486786  136.531937  -96.514950    2.974677    0.000000    0.000000    0.000000    0.000000
  0.031623246   -1.523019  134.534683  -96.523892    9.453836    0.000000    0.000000    0.000000    0.000000
  0.031823647   -1.561844  132.538300  -97.654282   13.337425    0.000000    0.000000    0.000000    0.000000
  0.032024048   -1.595935  130.544647  -97.514162    6.605958    0.000000    0.000000    0.000000    0.000000
  0.032224449   -1.631669  128.525208  -97.278370   14.813168    0.000000    0.000000    0.000000    0.000000
  0.032424850   -1.668510  126.526947  -97.328374    4.627040    0.000000    0.000000    0.000000    0.000000
  0.032625251   -1.700481  124.517365  -97.719159   11.143496    0.000000    0.000000    0.000000    0.000000
  0.032825651   -1.737816  122.519630  -97.865450   17.782751    0.000000    0.000000    0.000000    0.000000
  0.033026052   -1.776608  120.540871  -98.676029    8.057775    0.000000    0.000000    0.000000    0.000000
  0.033226453   -1.819084  118.548164  -98.145405    8.436323    0.000000    0.000000    0.000000    0.000000
  0.033426854   -1.864853  116.557205  -99.400519   11.361162    0.000000    0.000000    0.000000    0.000000
  0.033627255   -1.916675  114.571098  -99.890730   10.851701    0.000000    0.000000    0.000000    0.000000
  0.033827655   -1.965934  112.535172  -99.529549    6.726385    0.000000    0.000000    0.000000    0.000000
  0.034028056   -2.017009  110.487541  -98.405203   19.000372    0.000000    0.000000    0.000000    0.000000
  0.034228457   -2.065831  108.395874  -97.918284    9.499056    0.000000    0.000000    0.000000    0.000000
  0.034428858   -2.116368  106.279770  -99.680529   16.992062    0.000000    0.000000    0.000000    0.000000
  0.034629259   -2.165660  104.149315  -99.057958    7.648691    0.000000    0.000000    0.000000    0.000000
  0.034829659   -2.208616  102.035286  -97.425721   16.562553    0.000000    0.000000    0.000000    0.000000
  0.035030060   -2.253445   99.897675  -97.920928   14.805219    0.000000    0.000000    0.000000    0.000000
  0.035230461   -2.297263   97.820511  -97.840857   14.213962    0.000000    0.000000    0.000000    0.000000
  0.035430862   -2.339931   95.721130  -99.903111    8.944920    0.000000    0.000000    0.000000    0.000000
  0.035631263   -2.380996   93.632233  -98.971692    3.122372    0.000000    0.000000    0.000000    0.000000
  0.035831663   -2.425996   91.555267  -98.117168   -3.030615    0.000000    0.000000    0.000000    0.000000
  0.036032064   -2.468047   89.506027  -99.290243    9.297293    0.000000    0.000000    0.000000    0.000000
  0.036232465   -2.514025   87.431236 -100.037644    5.014225    0.000000    0.000000    0.000000    0.000000
  0.036432866   -2.562293   85.395058  -99.937043    5.937955    0.000000    0.000000    0.000000    0.000000
  0.036633267   -2.611574   83.363152  -99.672278    2.602720    0.000000    0.000000    0.000000    0.000000
  0.036833667   -2.664522   81.332237  -99.869225    0.358611    0.000000    0.000000    0.000000    0.000000
  0.037034068   -2.722160   79.292847  -99.881553   -0.720188    0.000000    0.000000    0.000000    0.000000
  0.037234469   -2.782041   77.235519  -99.600215    4.667601    0.000000    0.000000    0.000000    0.000000
  0.037434870   -2.841804   75.155334  -98.996502    3.817379    0.000000    0.000000    0.000000    0.000000
  0.037635271   -2.901673   73.059631  -99.560122    5.581336    0.000000    0.000000    0.000000    0.000000
  0.037835671   -2.962584   70.921799 -101.226724    9.469168    0.000000    0.000000    0.000000    0.000000
  0.038036072   -3.024032   68.779129 -100.175569    3.454573    0.000000    0.000000    0.000000    0.000000
  0.038236473   -3.086138   66.613777 -101.292592   20.415930    0.000000    0.000000    0.000000    0.000000
  0.038436874   -3.142499   64.475945 -100.830632    7.525168    0.000000    0.000000    0.000000    0.000000
  0.038637275   -3.197468   62.310280  -99.228374    8.587406    0.000000    0.000000    0.000000    0.000000
  0.038837675   -3.249308   60.171745  -99.162995   13.449621    0.000000    0.000000    0.000000    0.000000
  0.039038076   -3.296462   58.073204  -99.892262    6.141583    0.000000    0.000000    0.000000    0.000000
  0.039238477   -3.343744   56.009171  -98.880006    3.317563    0.000000    0.000000    0.000000    0.000000
  0.039438878   -3.392793   53.913551  -99.600046   10.305678    0.000000    0.000000    0.000000    0.000000
  0.039639279   -3.443476   51.890755 -102.051658   16.359770    0.000000    0.000000    0.000000    0.000000
  0.039839679   -3.501378   49.827980  -99.500728    6.964480    0.000000    0.000000    0.000000    0.000000
  0.040040080   -3.560640   47.769466 -101.339679   12.161152    0.000000    0.000000    0.000000    0.000000
  0.040240481   -3.620409   45.710861  -99.649903    5.690004    0.000000    0.000000    0.000000    0.000000
  0.040440882   -3.679826   43.611370 -100.136143    5.639680    0.000000    0.000000    0.000000    0.000000
  0.040641283   -3.741737   41.538170 -100.851112    5.103845    0.000000    0.000000    0.000000    0.000000
  0.040841683   -3.799329   39.453407 -100.795271    4.125586    0.000000    0.000000    0.000000    0.000000
  0.041042084   -3.855015   37.398338 -101.744220    1.693086    0.000000    0.000000    0.000000    0.000000
  0.041242485   -3.911187   35.311710 -100.266125   -5.207479    0.000000    0.000000    0.000000    0.000000
  0.041442886   -3.966008   33.252468 -100.341944    4.057768    0.000000    0.000000    0.000000    0.000000
  0.041643287   -4.021653   31.169340 -102.405283    6.716772    0.000000    0.000000    0.000000    0.000000
  0.041843687   -4.073573   29.110519 -101.109283    1.633563    0.000000    0.000000    0.000000    0.000000
  0.042044088   -4.124828   27.058489  -99.731989   -1.061081    0.000000    0.000000    0.000000    0.000000
  0.042244489   -4.175665   25.021841 -100.911676   -7.998978    0.000000    0.000000    0.000000    0.000000
  0.042444890   -4.227964   23.007242 -101.321992   10.670904    0.000000    0.000000    0.000000    0.000000
  0.042645291   -4.275840   20.998098 -104.739451  -18.159698    0.000000    0.000000    0.000000    0.000000
  0.042845691   -4.326521   18.999821 -102.918640    4.502363    0.000000    0.000000    0.000000    0.000000
  0.043046092   -4.375415   16.999332 -100.871867    4.204265    0.000000    0.000000    0.000000    0.000000
  0.043246493   -4.426343   14.998655 -101.942144    0.670731    0.000000    0.000000    0.000000    0.000000
  0.043446894   -4.475340   13.017248 -102.763446    7.859698    0.000000    0.000000    0.000000    0.000000
  0.043647295   -4.523358   11.023144 -102.619888   -0.836163    0.000000    0.000000    0.000000    0.000000
  0.043847695   -4.571081    9.045538 -104.092607    4.513529    0.000000    0.000000    0.000000    0.000000
  0.044048096   -4.618813    7.075613 -104.916383    5.501065    0.000000    0.000000    0.000000    0.000000
  0.044248497   -4.667221    5.104292 -103.409520    1.778643    0.000000    0.000000    0.000000    0.000000
  0.044448898   -4.713034    3.153918 -102.663488   -1.075080    0.000000    0.000000    0.000000    0.000000
  0.044649299   -4.759110    1.211729 -101.541344    6.284781    0.000000    0.000000    0.000000    0.000000
  0.044849699   -4.803870   -0.729700 -102.207503   16.696131    0.000000    0.000000    0.000000    0.000000
  0.045050100   -4.845860   -2.646893 -100.254883   -1.358159    0.000000    0.000000    0.000000    0.000000
  0.045250501   -4.887194   -4.580133 -101.050840   10.784192    0.000000    0.000000    0.000000    0.000000
  0.045450902   -4.927530   -6.500611 -102.208558    9.976282    0.000000    0.000000    0.000000    0.000000
  0.045651303   -4.970930   -8.392125 -102.920467    5.411139    0.000000    0.000000    0.000000    0.000000
  0.045851703   -5.011845  -10.283009 -101.750949   16.248783    0.000000    0.000000    0.000000    0.000000
  0.046052104   -5.051820  -12.171815  -99.329394    7.545856    0.000000    0.000000    0.000000    0.000000
  0.046252505   -5.088691  -14.065502 -100.315679   11.616792    0.000000    0.000000    0.000000    0.000000
  0.046452906   -5.126557  -15.924492 -102.468143   16.218744    0.000000    0.000000    0.000000    0.000000
  0.046653307   -5.163735  -17.799355 -100.775435    8.718366    0.000000    0.000000    0.000000    0.000000
  0.046853707   -5.198228  -19.663198 -101.194627   -8.885328    0.000000    0.000000    0.000000    0.000000
  0.047054108   -5.232053  -21.519733 -101.927318   -7.717805    0.000000    0.000000    0.000000    0.000000
  0.047254509   -5.264849  -23.364338 -101.874568    2.723477    0.000000    0.000000    0.000000    0.000000
  0.047454910   -5.296701  -25.185951 -103.037147    7.525429    0.000000    0.000000    0.000000    0.000000
  0.047655311   -5.329110  -27.003288 -101.828797    3.618558    0.000000    0.000000    0.000000    0.000000
  0.047855711   -5.357435  -28.785097 -102.198239   10.049669    0.000000    0.000000    0.000000    0.000000
  0.048056112   -5.387150  -30.549370 -103.102881   -4.787570    0.000000    0.000000    0.000000    0.000000
  0.048256513   -5.417348  -32.306751 -102.760672   -7.437430    0.000000    0.000000    0.000000    0.000000
  0.048456914   -5.447490  -34.058258 -104.365208   -3.392215    0.000000    0.000000    0.000000    0.000000
  0.048657315   -5.477377  -35.803875 -102.503965    0.810039    0.000000    0.000000    0.000000    0.000000
  0.048857715   -5.503292  -37.582985 -104.151757  -10.749496    0.000000    0.000000    0.000000    0.000000
  0.049058116   -5.530740  -39.312717 -102.078568    0.266873    0.000000    0.000000    0.000000    0.000000
  0.049258517   -5.556471  -41.050327 -104.480077   -3.351300    0.000000    0.000000    0.000000    0.000000
  0.049458918   -5.578951  -42.779667 -104.650077   13.431613    0.000000    0.000000    0.000000    0.000000
  0.049659319   -5.605845  -44.506134 -102.907675   24.313618    0.000000    0.000000    0.000000    0.000000
  0.049859719   -5.630079  -46.203213 -104.072091   16.425013    0.000000    0.000000    0.000000    0.000000
  0.050060120   -5.652491  -47.902073 -104.082771    0.524845    0.000000    0.000000    0.000000    0.000000
  0.050260521   -5.676303  -49.598732 -102.288059   27.391989    0.000000    0.000000    0.000000    0.000000
  0.050460922   -5.697771  -51.302429 -103.663066    6.036272    0.000000    0.000000    0.000000    0.000000
  0.050661323   -5.709988  -52.962173 -101.901630   -0.660087    0.000000    0.000000    0.000000    0.000000
  0.050861723   -5.726354  -54.625225 -106.456403   16.957779    0.000000    0.000000    0.000000    0.000000
  0.051062124   -5.740525  -56.288052 -101.952042    8.548291    0.000000    0.000000    0.000000    0.000000
  0.051262525   -5.756788  -57.898556 -103.008782   23.722855    0.000000    0.000000    0.000000    0.000000
  0.051462926   -5.771081  -59.482670 -102.130642   10.367328    0.000000    0.000000    0.000000    0.000000
  0.051663327   -5.785758  -61.028831 -102.496079   -5.555349    0.000000    0.000000    0.000000    0.000000
  0.051863727   -5.797253  -62.603821 -101.562862    5.951784    0.000000    0.000000    0.000000    0.000000
  0.052064128   -5.811983  -64.156815 -102.819199   -0.292996    0.000000    0.000000    0.000000    0.000000
  0.052264529   -5.828906  -65.697121 -103.237606   -2.548117    0.000000    0.000000    0.000000    0.000000
  0.052464930   -5.845031  -67.232407 -101.751464    1.636048    0.000000    0.000000    0.000000    0.000000
  0.052665331   -5.859145  -68.776680 -101.911234   11.524461    0.000000    0.000000    0.000000    0.000000
  0.052865731   -5.874403  -70.325912 -103.268346    8.443317    0.000000    0.000000    0.000000    0.000000
