! Anritsu VNA Master:                     Model: MS2036C/10/77
! SN:                                  1601066
! /bd0/18may07/256.ew.m6.s2p
! Existing Calibration Information:
! TYPE:                         Current Settings,       Active Cal Settings
! TIME:             	   05/07/2018 12:10:37 PM,    05/07/2018 12:05:13 PM
! INTERNAL TEMP:    	                   54.0 C,                    53.5 C
! # POINTS:         	                      500,                       500
! START FREQ:       	               20.000 MHz,                20.000 MHz
! STOP FREQ:        	              120.000 MHz,               120.000 MHz
! SOURCE POWER:     	                     High,                      High
! IFBW:             	                    50 Hz,                     50 Hz
! AVG FACTOR:       	                       1 ,                        1 
! REF PLANE 1:      	                     0 mm,                      0 mm
! REF PLANE 2:      	                     0 mm,                      0 mm
! CAL TYPE:         	                 Full S11,                  Full S11
! CAL METHOD:       	                     SOLT,                      SOLT
! CAL LINE TYPE:    	                     Coax,                      Coax
! DUT PORT 1:       	                K-Conn(F),                 K-Conn(F)
! DUT PORT 2:       	                K-Conn(F),                 K-Conn(F)
! CAL STATUS:       	        OK: Accuracy High,                        --
# GHZ S DB R 50.0
! FREQ.GHZ       S11DB        S11A       S21DB        S21A       S12DB        S12A       S22DB        S22A
  0.020000000   -0.618291 -125.824669  -91.097993   30.383858    0.000000    0.000000    0.000000    0.000000
  0.020200401   -0.617129 -127.287163  -91.433391   30.060379    0.000000    0.000000    0.000000    0.000000
  0.020400802   -0.618976 -128.737137  -91.499611   28.411215    0.000000    0.000000    0.000000    0.000000
  0.020601202   -0.621072 -130.203979  -92.358249   30.045141    0.000000    0.000000    0.000000    0.000000
  0.020801603   -0.626722 -131.712128  -92.023868   27.379713    0.000000    0.000000    0.000000    0.000000
  0.021002004   -0.632054 -133.230087  -92.546846   27.762430    0.000000    0.000000    0.000000    0.000000
  0.021202405   -0.639002 -134.757980  -92.982009   32.550034    0.000000    0.000000    0.000000    0.000000
  0.021402806   -0.646627 -136.290359  -93.603062   25.608948    0.000000    0.000000    0.000000    0.000000
  0.021603206   -0.651443 -137.823029  -93.254889   34.259350    0.000000    0.000000    0.000000    0.000000
  0.021803607   -0.655349 -139.369812  -94.372369   30.723776    0.000000    0.000000    0.000000    0.000000
  0.022004008   -0.661661 -140.902420  -93.050886   29.798302    0.000000    0.000000    0.000000    0.000000
  0.022204409   -0.669488 -142.451874  -93.653196   33.408756    0.000000    0.000000    0.000000    0.000000
  0.022404810   -0.673619 -144.034012  -93.433199   36.693096    0.000000    0.000000    0.000000    0.000000
  0.022605210   -0.678120 -145.630707  -93.522629   36.848698    0.000000    0.000000    0.000000    0.000000
  0.022805611   -0.683905 -147.220596  -92.970854   32.023796    0.000000    0.000000    0.000000    0.000000
  0.023006012   -0.689441 -148.815399  -93.077548   33.030869    0.000000    0.000000    0.000000    0.000000
  0.023206413   -0.690266 -150.392761  -92.749696   35.168659    0.000000    0.000000    0.000000    0.000000
  0.023406814   -0.691730 -151.976715  -93.290187   29.467854    0.000000    0.000000    0.000000    0.000000
  0.023607214   -0.696790 -153.575073  -92.950684   35.013077    0.000000    0.000000    0.000000    0.000000
  0.023807615   -0.704099 -155.172546  -93.264043   33.222778    0.000000    0.000000    0.000000    0.000000
  0.024008016   -0.714255 -156.783188  -93.046746   30.047478    0.000000    0.000000    0.000000    0.000000
  0.024208417   -0.724467 -158.420425  -92.823677   24.127598    0.000000    0.000000    0.000000    0.000000
  0.024408818   -0.734513 -160.059021  -94.065019   25.948200    0.000000    0.000000    0.000000    0.000000
  0.024609218   -0.743342 -161.711731  -92.827397   20.989059    0.000000    0.000000    0.000000    0.000000
  0.024809619   -0.752859 -163.359161  -93.287339   25.120415    0.000000    0.000000    0.000000    0.000000
  0.025010020   -0.765570 -165.009018  -93.771385   19.815777    0.000000    0.000000    0.000000    0.000000
  0.025210421   -0.778027 -166.667953  -92.589817   21.156353    0.000000    0.000000    0.000000    0.000000
  0.025410822   -0.792160 -168.352951  -93.786561   17.417372    0.000000    0.000000    0.000000    0.000000
  0.025611222   -0.806319 -170.038345  -94.493172   19.959364    0.000000    0.000000    0.000000    0.000000
  0.025811623   -0.819559 -171.754990  -94.742103   19.049698    0.000000    0.000000    0.000000    0.000000
  0.026012024   -0.832009 -173.486023  -94.351700   16.926428    0.000000    0.000000    0.000000    0.000000
  0.026212425   -0.842671 -175.203323  -94.988428   14.737424    0.000000    0.000000    0.000000    0.000000
  0.026412826   -0.856602 -176.936295  -95.280434   11.969154    0.000000    0.000000    0.000000    0.000000
  0.026613226   -0.872759 -178.682571  -97.323942   16.634035    0.000000    0.000000    0.000000    0.000000
  0.026813627   -0.887821  179.546921  -96.268227   22.799572    0.000000    0.000000    0.000000    0.000000
  0.027014028   -0.906972  177.779037  -95.559204   16.587637    0.000000    0.000000    0.000000    0.000000
  0.027214429   -0.924447  176.001663  -95.916283   28.341314    0.000000    0.000000    0.000000    0.000000
  0.027414830   -0.942089  174.198776  -96.618544   22.795740    0.000000    0.000000    0.000000    0.000000
  0.027615230   -0.958730  172.402771  -96.841110   19.628218    0.000000    0.000000    0.000000    0.000000
  0.027815631   -0.979917  170.584808  -96.836044   19.623531    0.000000    0.000000    0.000000    0.000000
  0.028016032   -1.000283  168.754837  -96.207626   24.614590    0.000000    0.000000    0.000000    0.000000
  0.028216433   -1.023633  166.914108  -96.394960   19.359409    0.000000    0.000000    0.000000    0.000000
  0.028416834   -1.045998  165.086792  -97.060735   26.651566    0.000000    0.000000    0.000000    0.000000
  0.028617234   -1.065230  163.247253  -96.179229   23.434065    0.000000    0.000000    0.000000    0.000000
  0.028817635   -1.085575  161.418274  -97.011587   22.181015    0.000000    0.000000    0.000000    0.000000
  0.029018036   -1.107545  159.601074  -96.565988   25.079948    0.000000    0.000000    0.000000    0.000000
  0.029218437   -1.128166  157.779236  -95.468583   25.102509    0.000000    0.000000    0.000000    0.000000
  0.029418838   -1.152515  155.960373  -96.841791   22.680676    0.000000    0.000000    0.000000    0.000000
  0.029619238   -1.178793  154.129868  -96.614458   21.874794    0.000000    0.000000    0.000000    0.000000
  0.029819639   -1.207803  152.266006  -95.358756   20.307249    0.000000    0.000000    0.000000    0.000000
  0.030020040   -1.238919  150.374084  -96.122317   15.246202    0.000000    0.000000    0.000000    0.000000
  0.030220441   -1.268187  148.472519  -96.108605   16.549458    0.000000    0.000000    0.000000    0.000000
  0.030420842   -1.297795  146.558060  -96.156580   14.323655    0.000000    0.000000    0.000000    0.000000
  0.030621242   -1.328561  144.661591  -97.081843   12.975717    0.000000    0.000000    0.000000    0.000000
  0.030821643   -1.359590  142.755646  -97.283119   16.550772    0.000000    0.000000    0.000000    0.000000
  0.031022044   -1.394699  140.846390  -96.853426   14.692757    0.000000    0.000000    0.000000    0.000000
  0.031222445   -1.425621  138.929657  -96.734064   12.784057    0.000000    0.000000    0.000000    0.000000
  0.031422846   -1.462692  136.963196  -96.113953   11.197296    0.000000    0.000000    0.000000    0.000000
  0.031623246   -1.500359  134.974136  -97.070723   11.260810    0.000000    0.000000    0.000000    0.000000
  0.031823647   -1.537047  132.984390  -98.005137    8.410545    0.000000    0.000000    0.000000    0.000000
  0.032024048   -1.571267  130.981689  -99.007161   11.427351    0.000000    0.000000    0.000000    0.000000
  0.032224449   -1.607708  128.979004  -99.583252   17.236879    0.000000    0.000000    0.000000    0.000000
  0.032424850   -1.644225  126.973587  -97.711501    7.764674    0.000000    0.000000    0.000000    0.000000
  0.032625251   -1.677961  124.989799  -97.771916   13.111241    0.000000    0.000000    0.000000    0.000000
  0.032825651   -1.715290  122.994347  -97.550768   10.327893    0.000000    0.000000    0.000000    0.000000
  0.033026052   -1.757089  121.009987  -98.300387   15.387040    0.000000    0.000000    0.000000    0.000000
  0.033226453   -1.797450  119.017342  -98.971900   10.286990    0.000000    0.000000    0.000000    0.000000
  0.033426854   -1.847125  117.035194  -98.352870    7.691522    0.000000    0.000000    0.000000    0.000000
  0.033627255   -1.898506  115.024841  -98.765046   12.699997    0.000000    0.000000    0.000000    0.000000
  0.033827655   -1.952426  112.987663  -99.275465    8.024370    0.000000    0.000000    0.000000    0.000000
  0.034028056   -2.000784  110.921432  -98.583828    9.708312    0.000000    0.000000    0.000000    0.000000
  0.034228457   -2.052023  108.821152  -98.287017   13.244043    0.000000    0.000000    0.000000    0.000000
  0.034428858   -2.103272  106.695450  -98.147614   21.234224    0.000000    0.000000    0.000000    0.000000
  0.034629259   -2.152950  104.562843  -98.923154    9.020236    0.000000    0.000000    0.000000    0.000000
  0.034829659   -2.196435  102.428925  -97.360143   10.575062    0.000000    0.000000    0.000000    0.000000
  0.035030060   -2.240742  100.325233  -97.975438    5.286647    0.000000    0.000000    0.000000    0.000000
  0.035230461   -2.285957   98.224098  -99.051417    8.875596    0.000000    0.000000    0.000000    0.000000
  0.035430862   -2.329806   96.101280  -98.470169    5.185547    0.000000    0.000000    0.000000    0.000000
  0.035631263   -2.371490   94.027527  -98.696120    1.822324    0.000000    0.000000    0.000000    0.000000
  0.035831663   -2.414062   91.945358  -98.151545    3.708919    0.000000    0.000000    0.000000    0.000000
  0.036032064   -2.457442   89.885101  -97.715968    7.870553    0.000000    0.000000    0.000000    0.000000
  0.036232465   -2.504253   87.844765  -98.396211   -2.812664    0.000000    0.000000    0.000000    0.000000
  0.036432866   -2.553712   85.794952  -98.118865    1.533332    0.000000    0.000000    0.000000    0.000000
  0.036633267   -2.605075   83.767235  -98.662865   -1.149372    0.000000    0.000000    0.000000    0.000000
  0.036833667   -2.656862   81.720398  -99.494092    7.202723    0.000000    0.000000    0.000000    0.000000
  0.037034068   -2.715143   79.659271  -98.739495    1.829780    0.000000    0.000000    0.000000    0.000000
  0.037234469   -2.774375   77.606262 -100.059618   -2.588935    0.000000    0.000000    0.000000    0.000000
  0.037434870   -2.834448   75.529877  -99.236232   -6.394800    0.000000    0.000000    0.000000    0.000000
  0.037635271   -2.894636   73.405777 -100.128924   12.109505    0.000000    0.000000    0.000000    0.000000
  0.037835671   -2.957030   71.285652 -100.792157    8.090647    0.000000    0.000000    0.000000    0.000000
  0.038036072   -3.016566   69.116837 -100.823975    6.712770    0.000000    0.000000    0.000000    0.000000
  0.038236473   -3.077964   66.957741 -100.727383   16.763680    0.000000    0.000000    0.000000    0.000000
  0.038436874   -3.137714   64.803200 -100.201135   15.147534    0.000000    0.000000    0.000000    0.000000
  0.038637275   -3.191824   62.656399  -99.927743    8.178220    0.000000    0.000000    0.000000    0.000000
  0.038837675   -3.240761   60.516239 -100.839956   -0.850974    0.000000    0.000000    0.000000    0.000000
  0.039038076   -3.290297   58.415485 -101.294766   13.644279    0.000000    0.000000    0.000000    0.000000
  0.039238477   -3.336443   56.337486  -99.937491    5.467580    0.000000    0.000000    0.000000    0.000000
  0.039438878   -3.386537   54.272095 -100.743297    5.238422    0.000000    0.000000    0.000000    0.000000
  0.039639279   -3.437928   52.222675  -98.516066   11.371027    0.000000    0.000000    0.000000    0.000000
  0.039839679   -3.495398   50.174473  -99.360002   18.935743    0.000000    0.000000    0.000000    0.000000
  0.040040080   -3.557279   48.099430 -100.643068   19.131992    0.000000    0.000000    0.000000    0.000000
  0.040240481   -3.616304   46.018784 -100.191078   10.659125    0.000000    0.000000    0.000000    0.000000
  0.040440882   -3.676325   43.934242  -99.442141    7.046107    0.000000    0.000000    0.000000    0.000000
  0.040641283   -3.737436   41.852203  -99.973923    8.579493    0.000000    0.000000    0.000000    0.000000
  0.040841683   -3.796185   39.768593  -98.940010    0.447865    0.000000    0.000000    0.000000    0.000000
  0.041042084   -3.853669   37.687599  -99.310564   12.264863    0.000000    0.000000    0.000000    0.000000
  0.041242485   -3.910040   35.611423  -99.120914    1.665415    0.000000    0.000000    0.000000    0.000000
  0.041442886   -3.964999   33.532238 -100.076776   -0.703776    0.000000    0.000000    0.000000    0.000000
  0.041643287   -4.020393   31.457287 -100.440620   -5.934342    0.000000    0.000000    0.000000    0.000000
  0.041843687   -4.071374   29.382710 -100.341592   -1.665164    0.000000    0.000000    0.000000    0.000000
  0.042044088   -4.122625   27.321819 -101.839480   -1.433648    0.000000    0.000000    0.000000    0.000000
  0.042244489   -4.171950   25.290670 -100.942367   -4.177143    0.000000    0.000000    0.000000    0.000000
  0.042444890   -4.224127   23.273741 -102.917012    0.791668    0.000000    0.000000    0.000000    0.000000
  0.042645291   -4.273446   21.256357 -101.641633    6.929963    0.000000    0.000000    0.000000    0.000000
  0.042845691   -4.322601   19.263041 -100.614525    2.854381    0.000000    0.000000    0.000000    0.000000
  0.043046092   -4.373194   17.258015 -102.777217   -1.637590    0.000000    0.000000    0.000000    0.000000
  0.043246493   -4.421394   15.250980 -104.002568    7.236170    0.000000    0.000000    0.000000    0.000000
  0.043446894   -4.469954   13.278946 -102.918295    9.804480    0.000000    0.000000    0.000000    0.000000
  0.043647295   -4.518178   11.290103 -103.486008  -12.950896    0.000000    0.000000    0.000000    0.000000
  0.043847695   -4.567621    9.312556 -102.176550    4.881870    0.000000    0.000000    0.000000    0.000000
  0.044048096   -4.616707    7.340849 -102.102846   10.475507    0.000000    0.000000    0.000000    0.000000
  0.044248497   -4.662254    5.364234 -103.591978    6.080879    0.000000    0.000000    0.000000    0.000000
  0.044448898   -4.708015    3.421072 -101.085410    9.615183    0.000000    0.000000    0.000000    0.000000
  0.044649299   -4.751717    1.466716 -102.357913    7.756997    0.000000    0.000000    0.000000    0.000000
  0.044849699   -4.797990   -0.479406 -101.696656    2.691406    0.000000    0.000000    0.000000    0.000000
  0.045050100   -4.839364   -2.422468 -101.241515   18.564482    0.000000    0.000000    0.000000    0.000000
  0.045250501   -4.880914   -4.356653 -101.883888    4.879045    0.000000    0.000000    0.000000    0.000000
  0.045450902   -4.919191   -6.266486 -100.719514   14.999213    0.000000    0.000000    0.000000    0.000000
  0.045651303   -4.958245   -8.173083 -102.402805   11.576249    0.000000    0.000000    0.000000    0.000000
  0.045851703   -4.997476  -10.065505 -100.413026    4.173382    0.000000    0.000000    0.000000    0.000000
  0.046052104   -5.036427  -11.958996 -102.162271   13.984499    0.000000    0.000000    0.000000    0.000000
  0.046252505   -5.073173  -13.842011 -101.190733    0.047964    0.000000    0.000000    0.000000    0.000000
  0.046452906   -5.110440  -15.710907 -102.641436   -4.909853    0.000000    0.000000    0.000000    0.000000
  0.046653307   -5.143934  -17.578522 -101.442587    9.961625    0.000000    0.000000    0.000000    0.000000
  0.046853707   -5.177109  -19.448866 -102.517181   -6.758268    0.000000    0.000000    0.000000    0.000000
  0.047054108   -5.209020  -21.291355 -100.898126  -15.317543    0.000000    0.000000    0.000000    0.000000
  0.047254509   -5.238486  -23.134607 -100.104818   -1.709886    0.000000    0.000000    0.000000    0.000000
  0.047454910   -5.273468  -24.953733 -101.606846   -8.627048    0.000000    0.000000    0.000000    0.000000
  0.047655311   -5.297636  -26.764561 -101.363742   -3.463881    0.000000    0.000000    0.000000    0.000000
  0.047855711   -5.326124  -28.538984 -102.977919    2.158972    0.000000    0.000000    0.000000    0.000000
  0.048056112   -5.353479  -30.294292 -102.685210   -6.400425    0.000000    0.000000    0.000000    0.000000
  0.048256513   -5.382020  -32.054104 -102.948489   18.324760    0.000000    0.000000    0.000000    0.000000
  0.048456914   -5.410512  -33.788933 -102.036572   -8.068865    0.000000    0.000000    0.000000    0.000000
  0.048657315   -5.439085  -35.540581 -104.500913  -17.032751    0.000000    0.000000    0.000000    0.000000
  0.048857715   -5.465449  -37.284859 -103.709644  -18.979145    0.000000    0.000000    0.000000    0.000000
  0.049058116   -5.489200  -39.022606 -103.583819   -0.184444    0.000000    0.000000    0.000000    0.000000
  0.049258517   -5.511338  -40.770988 -103.616196   -2.300807    0.000000    0.000000    0.000000    0.000000
  0.049458918   -5.534457  -42.463810 -106.715792   -2.667506    0.000000    0.000000    0.000000    0.000000
  0.049659319   -5.559890  -44.171070 -102.820777    5.356676    0.000000    0.000000    0.000000    0.000000
  0.049859719   -5.587056  -45.875084 -102.725021   19.345503    0.000000    0.000000    0.000000    0.000000
  0.050060120   -5.606825  -47.559589 -107.433834   -1.527997    0.000000    0.000000    0.000000    0.000000
  0.050260521   -5.632437  -49.250034 -103.562487   10.129546    0.000000    0.000000    0.000000    0.000000
  0.050460922   -5.652830  -50.944901 -103.463986    8.240271    0.000000    0.000000    0.000000    0.000000
  0.050661323   -5.670084  -52.625870 -102.933565    0.875854    0.000000    0.000000    0.000000    0.000000
  0.050861723   -5.684036  -54.280735 -102.388998    6.081147    0.000000    0.000000    0.000000    0.000000
  0.051062124   -5.699214  -55.938908 -102.235911   16.343803    0.000000    0.000000    0.000000    0.000000
  0.051262525   -5.715295  -57.529728 -101.307919    0.772296    0.000000    0.000000    0.000000    0.000000
  0.051462926   -5.728785  -59.110943 -101.793240   18.835470    0.000000    0.000000    0.000000    0.000000
  0.051663327   -5.743539  -60.677235 -102.623997   10.823793    0.000000    0.000000    0.000000    0.000000
  0.051863727   -5.758347  -62.230721 -102.022267    9.440518    0.000000    0.000000    0.000000    0.000000
  0.052064128   -5.773504  -63.785614 -103.375650   13.964341    0.000000    0.000000    0.000000    0.000000
  0.052264529   -5.788728  -65.307518 -102.584377   12.081448    0.000000    0.000000    0.000000    0.000000
  0.052464930   -5.806015  -66.844963 -100.931152   -1.792053    0.000000    0.000000    0.000000    0.000000
  0.052665331   -5.821378  -68.400215 -103.818951    8.274120    0.000000    0.000000    0.000000    0.000000
  0.052865731   -5.838719  -69.922211 -101.420103    7.542061    0.000000    0.000000    0.000000    0.000000
