! Anritsu VNA Master:                     Model: MS2036C/10/77
! SN:                                  1601066
! /bd0/18may07/256.ew.m11.s2p
! Existing Calibration Information:
! TYPE:                         Current Settings,       Active Cal Settings
! TIME:             	   05/07/2018 02:24:27 PM,    05/07/2018 02:21:54 PM
! INTERNAL TEMP:    	                   56.0 C,                    55.5 C
! # POINTS:         	                      500,                       500
! START FREQ:       	               20.000 MHz,                20.000 MHz
! STOP FREQ:        	              120.000 MHz,               120.000 MHz
! SOURCE POWER:     	                     High,                      High
! IFBW:             	                    50 Hz,                     50 Hz
! AVG FACTOR:       	                       1 ,                        1 
! REF PLANE 1:      	                     0 mm,                      0 mm
! REF PLANE 2:      	                     0 mm,                      0 mm
! CAL TYPE:         	                 Full S11,                  Full S11
! CAL METHOD:       	                     SOLT,                      SOLT
! CAL LINE TYPE:    	                     Coax,                      Coax
! DUT PORT 1:       	                K-Conn(F),                 K-Conn(F)
! DUT PORT 2:       	                K-Conn(F),                 K-Conn(F)
! CAL STATUS:       	        OK: Accuracy High,                        --
# GHZ S DB R 50.0
! FREQ.GHZ       S11DB        S11A       S21DB        S21A       S12DB        S12A       S22DB        S22A
  0.020000000   -0.638302 -126.109650  -90.909267   31.452246    0.000000    0.000000    0.000000    0.000000
  0.020200401   -0.636737 -127.582306  -91.882041   27.493429    0.000000    0.000000    0.000000    0.000000
  0.020400802   -0.637643 -129.040787  -91.810427   30.038250    0.000000    0.000000    0.000000    0.000000
  0.020601202   -0.640282 -130.508041  -91.911520   29.061840    0.000000    0.000000    0.000000    0.000000
  0.020801603   -0.644343 -131.998672  -92.628107   27.574184    0.000000    0.000000    0.000000    0.000000
  0.021002004   -0.650432 -133.512970  -93.082106   31.679756    0.000000    0.000000    0.000000    0.000000
  0.021202405   -0.657925 -135.050430  -92.769903   28.488605    0.000000    0.000000    0.000000    0.000000
  0.021402806   -0.664170 -136.581741  -93.000863   33.789310    0.000000    0.000000    0.000000    0.000000
  0.021603206   -0.669474 -138.118149  -93.137024   30.894510    0.000000    0.000000    0.000000    0.000000
  0.021803607   -0.674088 -139.647171  -92.664679   31.633831    0.000000    0.000000    0.000000    0.000000
  0.022004008   -0.681317 -141.192169  -93.494990   34.269070    0.000000    0.000000    0.000000    0.000000
  0.022204409   -0.689198 -142.746552  -93.015170   35.099682    0.000000    0.000000    0.000000    0.000000
  0.022404810   -0.693589 -144.307953  -94.020783   35.611961    0.000000    0.000000    0.000000    0.000000
  0.022605210   -0.695755 -145.903397  -93.208949   33.633934    0.000000    0.000000    0.000000    0.000000
  0.022805611   -0.700614 -147.513199  -93.348571   39.599609    0.000000    0.000000    0.000000    0.000000
  0.023006012   -0.706332 -149.102982  -92.494773   31.394274    0.000000    0.000000    0.000000    0.000000
  0.023206413   -0.709760 -150.699661  -93.078734   37.123356    0.000000    0.000000    0.000000    0.000000
  0.023406814   -0.713391 -152.285629  -93.231317   29.440580    0.000000    0.000000    0.000000    0.000000
  0.023607214   -0.718107 -153.877762  -92.753475   28.667759    0.000000    0.000000    0.000000    0.000000
  0.023807615   -0.724516 -155.479111  -93.249911   30.251451    0.000000    0.000000    0.000000    0.000000
  0.024008016   -0.735268 -157.106628  -92.743081   27.849037    0.000000    0.000000    0.000000    0.000000
  0.024208417   -0.746101 -158.731369  -92.818033   26.261642    0.000000    0.000000    0.000000    0.000000
  0.024408818   -0.755558 -160.382141  -92.927921   23.005566    0.000000    0.000000    0.000000    0.000000
  0.024609218   -0.764458 -162.038040  -93.931041   27.845739    0.000000    0.000000    0.000000    0.000000
  0.024809619   -0.774453 -163.694580  -92.915723   20.046719    0.000000    0.000000    0.000000    0.000000
  0.025010020   -0.786229 -165.345200  -93.707871   19.035479    0.000000    0.000000    0.000000    0.000000
  0.025210421   -0.798090 -167.004639  -94.058682   19.386480    0.000000    0.000000    0.000000    0.000000
  0.025410822   -0.811611 -168.693085  -94.099837   20.066631    0.000000    0.000000    0.000000    0.000000
  0.025611222   -0.825521 -170.394806  -94.671100   17.827803    0.000000    0.000000    0.000000    0.000000
  0.025811623   -0.839842 -172.101746  -94.408887   17.917776    0.000000    0.000000    0.000000    0.000000
  0.026012024   -0.851863 -173.832977  -94.721240   15.587524    0.000000    0.000000    0.000000    0.000000
  0.026212425   -0.862034 -175.554214  -94.902579   20.853895    0.000000    0.000000    0.000000    0.000000
  0.026412826   -0.874062 -177.285843  -95.969406   18.377556    0.000000    0.000000    0.000000    0.000000
  0.026613226   -0.889604 -179.035522  -95.952878   15.571045    0.000000    0.000000    0.000000    0.000000
  0.026813627   -0.906422  179.204391  -95.715371   16.033949    0.000000    0.000000    0.000000    0.000000
  0.027014028   -0.923556  177.439804  -96.883265   15.985465    0.000000    0.000000    0.000000    0.000000
  0.027214429   -0.941228  175.653259  -95.636653   23.666561    0.000000    0.000000    0.000000    0.000000
  0.027414830   -0.957509  173.863663  -95.649415   18.966751    0.000000    0.000000    0.000000    0.000000
  0.027615230   -0.975072  172.067093  -95.725588   25.431273    0.000000    0.000000    0.000000    0.000000
  0.027815631   -0.994558  170.249115  -96.515881   24.254560    0.000000    0.000000    0.000000    0.000000
  0.028016032   -1.016453  168.422394  -95.990616   25.313791    0.000000    0.000000    0.000000    0.000000
  0.028216433   -1.038342  166.598129  -96.585545   18.546223    0.000000    0.000000    0.000000    0.000000
  0.028416834   -1.059602  164.750854  -96.135940   22.195993    0.000000    0.000000    0.000000    0.000000
  0.028617234   -1.081346  162.923889  -96.303575   22.559429    0.000000    0.000000    0.000000    0.000000
  0.028817635   -1.101918  161.082062  -95.833284   23.609062    0.000000    0.000000    0.000000    0.000000
  0.029018036   -1.121648  159.265671  -95.496624   21.692448    0.000000    0.000000    0.000000    0.000000
  0.029218437   -1.144909  157.440918  -96.651160   18.268467    0.000000    0.000000    0.000000    0.000000
  0.029418838   -1.167679  155.608368  -96.100613   14.359011    0.000000    0.000000    0.000000    0.000000
  0.029619238   -1.194765  153.777161  -96.580463   19.346426    0.000000    0.000000    0.000000    0.000000
  0.029819639   -1.223953  151.908188  -95.895229   11.595066    0.000000    0.000000    0.000000    0.000000
  0.030020040   -1.254857  150.029816  -96.615732   14.842299    0.000000    0.000000    0.000000    0.000000
  0.030220441   -1.285565  148.108276  -96.762303   17.047600    0.000000    0.000000    0.000000    0.000000
  0.030420842   -1.314926  146.195084  -97.056664   13.764665    0.000000    0.000000    0.000000    0.000000
  0.030621242   -1.346004  144.290222  -96.748385   11.630521    0.000000    0.000000    0.000000    0.000000
  0.030821643   -1.377274  142.388824  -96.620642   11.340050    0.000000    0.000000    0.000000    0.000000
  0.031022044   -1.412086  140.463257  -97.172723   13.181878    0.000000    0.000000    0.000000    0.000000
  0.031222445   -1.440399  138.560394  -95.891489   19.727297    0.000000    0.000000    0.000000    0.000000
  0.031422846   -1.478089  136.585709  -98.026668    9.811296    0.000000    0.000000    0.000000    0.000000
  0.031623246   -1.514550  134.586655  -97.253002   15.084872    0.000000    0.000000    0.000000    0.000000
  0.031823647   -1.552089  132.597214  -97.597200   11.134439    0.000000    0.000000    0.000000    0.000000
  0.032024048   -1.585497  130.604630  -96.634464   15.902355    0.000000    0.000000    0.000000    0.000000
  0.032224449   -1.621308  128.594879  -97.043000    6.964849    0.000000    0.000000    0.000000    0.000000
  0.032424850   -1.656958  126.595345  -97.824426   12.606913    0.000000    0.000000    0.000000    0.000000
  0.032625251   -1.689761  124.601860  -97.980748   11.223279    0.000000    0.000000    0.000000    0.000000
  0.032825651   -1.727766  122.606674  -98.261926   17.898474    0.000000    0.000000    0.000000    0.000000
  0.033026052   -1.766683  120.640839  -97.925810    8.465634    0.000000    0.000000    0.000000    0.000000
  0.033226453   -1.806169  118.640015  -97.821582   14.902438    0.000000    0.000000    0.000000    0.000000
  0.033426854   -1.855078  116.662476  -99.172246   14.892195    0.000000    0.000000    0.000000    0.000000
  0.033627255   -1.906267  114.660271  -98.916778   14.189190    0.000000    0.000000    0.000000    0.000000
  0.033827655   -1.956793  112.647751  -98.193352    9.652605    0.000000    0.000000    0.000000    0.000000
  0.034028056   -2.009290  110.579407  -99.096640    9.635599    0.000000    0.000000    0.000000    0.000000
  0.034228457   -2.058564  108.489555  -98.647747   15.276502    0.000000    0.000000    0.000000    0.000000
  0.034428858   -2.109689  106.377129  -97.845029   10.457722    0.000000    0.000000    0.000000    0.000000
  0.034629259   -2.157153  104.234566  -98.645093   11.590510    0.000000    0.000000    0.000000    0.000000
  0.034829659   -2.202631  102.120949  -99.282716   18.179922    0.000000    0.000000    0.000000    0.000000
  0.035030060   -2.249096   99.988159  -98.358129   11.320581    0.000000    0.000000    0.000000    0.000000
  0.035230461   -2.291287   97.881363  -97.604608   11.334621    0.000000    0.000000    0.000000    0.000000
  0.035430862   -2.335013   95.795494  -98.077011   11.183095    0.000000    0.000000    0.000000    0.000000
  0.035631263   -2.376958   93.702621  -98.610831    2.648525    0.000000    0.000000    0.000000    0.000000
  0.035831663   -2.420866   91.625343  -99.080818    7.581291    0.000000    0.000000    0.000000    0.000000
  0.036032064   -2.463792   89.554726  -98.304974    7.507596    0.000000    0.000000    0.000000    0.000000
  0.036232465   -2.508549   87.479904  -98.388771   12.684331    0.000000    0.000000    0.000000    0.000000
  0.036432866   -2.559111   85.438431 -100.088962   -8.629004    0.000000    0.000000    0.000000    0.000000
  0.036633267   -2.607692   83.413773  -97.165876    5.698334    0.000000    0.000000    0.000000    0.000000
  0.036833667   -2.661448   81.371872  -99.224531    1.164472    0.000000    0.000000    0.000000    0.000000
  0.037034068   -2.717593   79.313614 -100.167044   11.133048    0.000000    0.000000    0.000000    0.000000
  0.037234469   -2.776262   77.256531 -101.018441   -1.282194    0.000000    0.000000    0.000000    0.000000
  0.037434870   -2.837340   75.178497 -101.277310   -0.211371    0.000000    0.000000    0.000000    0.000000
  0.037635271   -2.896368   73.072960 -100.239371   12.988070    0.000000    0.000000    0.000000    0.000000
  0.037835671   -2.956580   70.931992 -101.231964    2.308555    0.000000    0.000000    0.000000    0.000000
  0.038036072   -3.018347   68.783417  -98.760514    7.310196    0.000000    0.000000    0.000000    0.000000
  0.038236473   -3.078782   66.619720  -99.267925    3.898171    0.000000    0.000000    0.000000    0.000000
  0.038436874   -3.134965   64.476265 -100.237834    8.641193    0.000000    0.000000    0.000000    0.000000
  0.038637275   -3.188712   62.319363 -101.474483   -2.434459    0.000000    0.000000    0.000000    0.000000
  0.038837675   -3.239807   60.187618  -99.782528    4.994697    0.000000    0.000000    0.000000    0.000000
  0.039038076   -3.287331   58.086369  -99.029980    8.066253    0.000000    0.000000    0.000000    0.000000
  0.039238477   -3.333548   56.027718  -99.631508   17.184069    0.000000    0.000000    0.000000    0.000000
  0.039438878   -3.383454   53.945854 -101.325275   16.067533    0.000000    0.000000    0.000000    0.000000
  0.039639279   -3.434094   51.930607  -99.476754    8.898158    0.000000    0.000000    0.000000    0.000000
  0.039839679   -3.493320   49.860268  -98.795117   13.505957    0.000000    0.000000    0.000000    0.000000
  0.040040080   -3.550678   47.805660 -100.387251   -0.616100    0.000000    0.000000    0.000000    0.000000
  0.040240481   -3.613387   45.744129 -100.744534   13.548050    0.000000    0.000000    0.000000    0.000000
  0.040440882   -3.672014   43.656036 -100.263079    5.215084    0.000000    0.000000    0.000000    0.000000
  0.040641283   -3.732776   41.580662 -100.328783   -2.304914    0.000000    0.000000    0.000000    0.000000
  0.040841683   -3.789942   39.503052  -99.482222    6.590433    0.000000    0.000000    0.000000    0.000000
  0.041042084   -3.848516   37.426464  -99.532969    4.587544    0.000000    0.000000    0.000000    0.000000
  0.041242485   -3.903341   35.342640 -101.006490    7.008943    0.000000    0.000000    0.000000    0.000000
  0.041442886   -3.959228   33.275475  -99.662962   -3.962839    0.000000    0.000000    0.000000    0.000000
  0.041643287   -4.014527   31.187798 -100.099687    4.073779    0.000000    0.000000    0.000000    0.000000
  0.041843687   -4.067310   29.122612  -99.536652   -4.382020    0.000000    0.000000    0.000000    0.000000
  0.042044088   -4.117953   27.049084  -99.561916    6.299186    0.000000    0.000000    0.000000    0.000000
  0.042244489   -4.167056   25.027018 -100.669983   -0.884285    0.000000    0.000000    0.000000    0.000000
  0.042444890   -4.218940   23.008186 -102.987258    2.797803    0.000000    0.000000    0.000000    0.000000
  0.042645291   -4.269480   20.988424 -101.396579   -4.353008    0.000000    0.000000    0.000000    0.000000
  0.042845691   -4.319427   18.997065 -103.567370    1.861848    0.000000    0.000000    0.000000    0.000000
  0.043046092   -4.369147   16.992245 -101.849156    4.458186    0.000000    0.000000    0.000000    0.000000
  0.043246493   -4.418576   14.982469 -101.022407   10.450766    0.000000    0.000000    0.000000    0.000000
  0.043446894   -4.467627   12.999393 -103.608618    1.023193    0.000000    0.000000    0.000000    0.000000
  0.043647295   -4.514641   11.000170 -101.290913   -6.500303    0.000000    0.000000    0.000000    0.000000
  0.043847695   -4.562406    9.028888 -102.181532    0.554160    0.000000    0.000000    0.000000    0.000000
  0.044048096   -4.611496    7.053769 -104.207895    8.844914    0.000000    0.000000    0.000000    0.000000
  0.044248497   -4.659332    5.093046 -102.036445   -2.973906    0.000000    0.000000    0.000000    0.000000
  0.044448898   -4.705660    3.148447 -101.926879   -1.969833    0.000000    0.000000    0.000000    0.000000
  0.044649299   -4.751167    1.196420 -102.065541   13.353080    0.000000    0.000000    0.000000    0.000000
  0.044849699   -4.794256   -0.744750 -102.894869    6.209135    0.000000    0.000000    0.000000    0.000000
  0.045050100   -4.836651   -2.678389 -101.952883    7.868790    0.000000    0.000000    0.000000    0.000000
  0.045250501   -4.876559   -4.613707 -100.200962   -1.572527    0.000000    0.000000    0.000000    0.000000
  0.045450902   -4.916663   -6.509816 -100.711555   11.582280    0.000000    0.000000    0.000000    0.000000
  0.045651303   -4.957273   -8.410390 -100.243778   -1.302514    0.000000    0.000000    0.000000    0.000000
  0.045851703   -5.000564  -10.304729 -101.884620   -1.439995    0.000000    0.000000    0.000000    0.000000
  0.046052104   -5.041753  -12.196880 -101.624317   10.579105    0.000000    0.000000    0.000000    0.000000
  0.046252505   -5.080215  -14.078642 -101.487478    4.772207    0.000000    0.000000    0.000000    0.000000
  0.046452906   -5.117186  -15.951326 -102.088998   14.274036    0.000000    0.000000    0.000000    0.000000
  0.046653307   -5.154687  -17.814514 -101.181113   -1.691866    0.000000    0.000000    0.000000    0.000000
  0.046853707   -5.189574  -19.680521 -102.129112   -5.715918    0.000000    0.000000    0.000000    0.000000
  0.047054108   -5.222929  -21.528381 -101.176990    5.763075    0.000000    0.000000    0.000000    0.000000
  0.047254509   -5.255460  -23.380348 -101.714711    3.639273    0.000000    0.000000    0.000000    0.000000
  0.047454910   -5.285251  -25.192337 -102.982143   -1.215704    0.000000    0.000000    0.000000    0.000000
  0.047655311   -5.315369  -27.018803 -101.391694   -1.703100    0.000000    0.000000    0.000000    0.000000
  0.047855711   -5.343820  -28.778490 -101.970257  -10.057322    0.000000    0.000000    0.000000    0.000000
  0.048056112   -5.373820  -30.552359 -103.181002    0.086752    0.000000    0.000000    0.000000    0.000000
  0.048256513   -5.402976  -32.318573 -103.368150  -14.799041    0.000000    0.000000    0.000000    0.000000
  0.048456914   -5.433371  -34.053265 -103.075622   -4.691057    0.000000    0.000000    0.000000    0.000000
  0.048657315   -5.460301  -35.799931 -104.307646   -1.286637    0.000000    0.000000    0.000000    0.000000
  0.048857715   -5.485069  -37.558289 -103.367596    5.160717    0.000000    0.000000    0.000000    0.000000
  0.049058116   -5.512998  -39.304165 -102.255723   -2.228178    0.000000    0.000000    0.000000    0.000000
  0.049258517   -5.536762  -41.029797 -102.435247   -9.130931    0.000000    0.000000    0.000000    0.000000
  0.049458918   -5.561565  -42.744881 -104.890627   -7.858574    0.000000    0.000000    0.000000    0.000000
  0.049659319   -5.587450  -44.452446 -105.264806    7.524539    0.000000    0.000000    0.000000    0.000000
  0.049859719   -5.610312  -46.149532 -103.069578    7.913191    0.000000    0.000000    0.000000    0.000000
  0.050060120   -5.635056  -47.837734 -104.545015   37.534893    0.000000    0.000000    0.000000    0.000000
  0.050260521   -5.655235  -49.534180 -104.582181   26.519714    0.000000    0.000000    0.000000    0.000000
  0.050460922   -5.677076  -51.221081 -104.569503   19.369381    0.000000    0.000000    0.000000    0.000000
  0.050661323   -5.693515  -52.880501 -102.641677    8.839052    0.000000    0.000000    0.000000    0.000000
  0.050861723   -5.707857  -54.525841 -102.844094   14.802793    0.000000    0.000000    0.000000    0.000000
  0.051062124   -5.723500  -56.190861 -102.644952   18.420061    0.000000    0.000000    0.000000    0.000000
  0.051262525   -5.739013  -57.784042 -101.425735   -4.330723    0.000000    0.000000    0.000000    0.000000
  0.051462926   -5.752842  -59.357773 -101.639082   -7.920736    0.000000    0.000000    0.000000    0.000000
  0.051663327   -5.768987  -60.915131 -101.630152    3.050275    0.000000    0.000000    0.000000    0.000000
  0.051863727   -5.783535  -62.473267 -103.918774    6.365407    0.000000    0.000000    0.000000    0.000000
  0.052064128   -5.800519  -64.032837 -101.386573   18.357538    0.000000    0.000000    0.000000    0.000000
  0.052264529   -5.813993  -65.564888 -102.025614   15.258330    0.000000    0.000000    0.000000    0.000000
  0.052464930   -5.829777  -67.094360 -103.704642   -5.247235    0.000000    0.000000    0.000000    0.000000
  0.052665331   -5.846336  -68.633247 -101.968969   -0.034582    0.000000    0.000000    0.000000    0.000000
  0.052865731   -5.862802  -70.184692 -102.360796   -1.214160    0.000000    0.000000    0.000000    0.000000
