! Anritsu VNA Master:                     Model: MS2036C/10/77
! SN:                                  1601066
! /bd0/18may09/252.ns.m7.s2p
! Existing Calibration Information:
! TYPE:                         Current Settings,       Active Cal Settings
! TIME:             	   05/09/2018 09:07:49 AM,    05/09/2018 09:02:47 AM
! INTERNAL TEMP:    	                   41.0 C,                    40.3 C
! # POINTS:         	                      500,                       500
! START FREQ:       	               20.000 MHz,                20.000 MHz
! STOP FREQ:        	              120.000 MHz,               120.000 MHz
! SOURCE POWER:     	                     High,                      High
! IFBW:             	                    50 Hz,                     50 Hz
! AVG FACTOR:       	                       1 ,                        1 
! REF PLANE 1:      	                     0 mm,                      0 mm
! REF PLANE 2:      	                     0 mm,                      0 mm
! CAL TYPE:         	                 Full S11,                  Full S11
! CAL METHOD:       	                     SOLT,                      SOLT
! CAL LINE TYPE:    	                     Coax,                      Coax
! DUT PORT 1:       	                K-Conn(F),                 K-Conn(F)
! DUT PORT 2:       	                K-Conn(F),                 K-Conn(F)
! CAL STATUS:       	        OK: Accuracy High,                        --
# GHZ S DB R 50.0
! FREQ.GHZ       S11DB        S11A       S21DB        S21A       S12DB        S12A       S22DB        S22A
  0.020000000   -0.593881 -123.891350  -91.105606   33.122982    0.000000    0.000000    0.000000    0.000000
  0.020200401   -0.594168 -125.312691  -91.745916   30.244190    0.000000    0.000000    0.000000    0.000000
  0.020400802   -0.594343 -126.731102  -91.314166   30.414576    0.000000    0.000000    0.000000    0.000000
  0.020601202   -0.597022 -128.171799  -91.019972   30.896873    0.000000    0.000000    0.000000    0.000000
  0.020801603   -0.602883 -129.631302  -91.500315   26.430799    0.000000    0.000000    0.000000    0.000000
  0.021002004   -0.609569 -131.114944  -92.125217   34.633068    0.000000    0.000000    0.000000    0.000000
  0.021202405   -0.616119 -132.626816  -92.835377   31.653286    0.000000    0.000000    0.000000    0.000000
  0.021402806   -0.622862 -134.105011  -93.474003   29.264833    0.000000    0.000000    0.000000    0.000000
  0.021603206   -0.624411 -135.590195  -92.100413   33.547668    0.000000    0.000000    0.000000    0.000000
  0.021803607   -0.631260 -137.083557  -91.954524   36.120129    0.000000    0.000000    0.000000    0.000000
  0.022004008   -0.636840 -138.576004  -92.798361   36.863644    0.000000    0.000000    0.000000    0.000000
  0.022204409   -0.640447 -140.090866  -93.562213   28.751583    0.000000    0.000000    0.000000    0.000000
  0.022404810   -0.646420 -141.610245  -93.542118   40.602478    0.000000    0.000000    0.000000    0.000000
  0.022605210   -0.649230 -143.158020  -93.219547   38.098568    0.000000    0.000000    0.000000    0.000000
  0.022805611   -0.654597 -144.701355  -92.533509   37.393616    0.000000    0.000000    0.000000    0.000000
  0.023006012   -0.657282 -146.221100  -93.192824   35.943840    0.000000    0.000000    0.000000    0.000000
  0.023206413   -0.657912 -147.756927  -92.575635   37.688412    0.000000    0.000000    0.000000    0.000000
  0.023406814   -0.660241 -149.279953  -92.565396   34.455814    0.000000    0.000000    0.000000    0.000000
  0.023607214   -0.666017 -150.828674  -93.036677   37.449013    0.000000    0.000000    0.000000    0.000000
  0.023807615   -0.674106 -152.374191  -92.546365   30.215803    0.000000    0.000000    0.000000    0.000000
  0.024008016   -0.682937 -153.942047  -92.737393   31.421288    0.000000    0.000000    0.000000    0.000000
  0.024208417   -0.691313 -155.531693  -92.665607   24.865383    0.000000    0.000000    0.000000    0.000000
  0.024408818   -0.699071 -157.128860  -92.620894   23.980371    0.000000    0.000000    0.000000    0.000000
  0.024609218   -0.706582 -158.726761  -93.568225   28.614798    0.000000    0.000000    0.000000    0.000000
  0.024809619   -0.715280 -160.318420  -93.086823   24.168011    0.000000    0.000000    0.000000    0.000000
  0.025010020   -0.724361 -161.933380  -93.069030   20.818699    0.000000    0.000000    0.000000    0.000000
  0.025210421   -0.735605 -163.550110  -93.127046   24.029791    0.000000    0.000000    0.000000    0.000000
  0.025410822   -0.748758 -165.186874  -93.492378   15.680415    0.000000    0.000000    0.000000    0.000000
  0.025611222   -0.762721 -166.853912  -93.631428   19.676027    0.000000    0.000000    0.000000    0.000000
  0.025811623   -0.772627 -168.538132  -94.692015   20.369585    0.000000    0.000000    0.000000    0.000000
  0.026012024   -0.779690 -170.218582  -93.833521   15.822703    0.000000    0.000000    0.000000    0.000000
  0.026212425   -0.791107 -171.914139  -95.378949   16.778645    0.000000    0.000000    0.000000    0.000000
  0.026412826   -0.803771 -173.608582  -95.072549   16.965755    0.000000    0.000000    0.000000    0.000000
  0.026613226   -0.816535 -175.315063  -95.262437   20.381220    0.000000    0.000000    0.000000    0.000000
  0.026813627   -0.832162 -177.047531  -96.158221   19.618563    0.000000    0.000000    0.000000    0.000000
  0.027014028   -0.846729 -178.774628  -95.727251   24.381191    0.000000    0.000000    0.000000    0.000000
  0.027214429   -0.861067  179.479431  -95.630526   18.112185    0.000000    0.000000    0.000000    0.000000
  0.027414830   -0.876846  177.718353  -96.319909   22.850428    0.000000    0.000000    0.000000    0.000000
  0.027615230   -0.893482  175.952881  -96.281610   17.390255    0.000000    0.000000    0.000000    0.000000
  0.027815631   -0.913522  174.176468  -96.210899   27.630020    0.000000    0.000000    0.000000    0.000000
  0.028016032   -0.934046  172.387772  -96.130371   21.888603    0.000000    0.000000    0.000000    0.000000
  0.028216433   -0.956990  170.594101  -96.346178   24.998110    0.000000    0.000000    0.000000    0.000000
  0.028416834   -0.975722  168.793274  -96.519839   27.377506    0.000000    0.000000    0.000000    0.000000
  0.028617234   -0.998191  166.998520  -95.796166   18.941195    0.000000    0.000000    0.000000    0.000000
  0.028817635   -1.017369  165.213425  -96.413996   23.651850    0.000000    0.000000    0.000000    0.000000
  0.029018036   -1.038658  163.424881  -96.563142   25.473873    0.000000    0.000000    0.000000    0.000000
  0.029218437   -1.059906  161.646378  -95.979649   25.023922    0.000000    0.000000    0.000000    0.000000
  0.029418838   -1.085565  159.849976  -96.341402   20.937605    0.000000    0.000000    0.000000    0.000000
  0.029619238   -1.114538  158.046631  -96.153536   15.081715    0.000000    0.000000    0.000000    0.000000
  0.029819639   -1.143453  156.220993  -95.654045   22.106188    0.000000    0.000000    0.000000    0.000000
  0.030020040   -1.175594  154.365799  -96.260910   16.358866    0.000000    0.000000    0.000000    0.000000
  0.030220441   -1.205426  152.499039  -95.883506   19.306543    0.000000    0.000000    0.000000    0.000000
  0.030420842   -1.235693  150.646072  -97.420676   12.194532    0.000000    0.000000    0.000000    0.000000
  0.030621242   -1.268929  148.789948  -96.601951   11.166661    0.000000    0.000000    0.000000    0.000000
  0.030821643   -1.302229  146.946533  -97.564998   13.535013    0.000000    0.000000    0.000000    0.000000
  0.031022044   -1.338031  145.077164  -96.165944   11.258371    0.000000    0.000000    0.000000    0.000000
  0.031222445   -1.372835  143.216827  -97.100474   15.054553    0.000000    0.000000    0.000000    0.000000
  0.031422846   -1.408083  141.286942  -96.756406   13.388725    0.000000    0.000000    0.000000    0.000000
  0.031623246   -1.443839  139.358200  -96.779376   14.377227    0.000000    0.000000    0.000000    0.000000
  0.031823647   -1.475011  137.426117  -97.295205   11.009127    0.000000    0.000000    0.000000    0.000000
  0.032024048   -1.506520  135.490082  -98.166375    9.745032    0.000000    0.000000    0.000000    0.000000
  0.032224449   -1.539196  133.564209  -98.266676    3.068985    0.000000    0.000000    0.000000    0.000000
  0.032424850   -1.568973  131.635254  -98.482164    6.704870    0.000000    0.000000    0.000000    0.000000
  0.032625251   -1.603327  129.704178  -97.287621   14.813526    0.000000    0.000000    0.000000    0.000000
  0.032825651   -1.638927  127.767761  -97.505229   10.417648    0.000000    0.000000    0.000000    0.000000
  0.033026052   -1.678244  125.813164  -98.162264    7.336360    0.000000    0.000000    0.000000    0.000000
  0.033226453   -1.724086  123.857338  -97.848375   17.565588    0.000000    0.000000    0.000000    0.000000
  0.033426854   -1.771807  121.866966  -97.775674    8.060399    0.000000    0.000000    0.000000    0.000000
  0.033627255   -1.820561  119.843124  -97.468658   18.051033    0.000000    0.000000    0.000000    0.000000
  0.033827655   -1.871819  117.801636  -98.145586   12.687777    0.000000    0.000000    0.000000    0.000000
  0.034028056   -1.917109  115.693443  -98.492550   21.944073    0.000000    0.000000    0.000000    0.000000
  0.034228457   -1.962288  113.573257  -98.022221   16.910858    0.000000    0.000000    0.000000    0.000000
  0.034428858   -2.006231  111.446358  -99.092173    9.688708    0.000000    0.000000    0.000000    0.000000
  0.034629259   -2.048927  109.334343  -97.649774   13.017552    0.000000    0.000000    0.000000    0.000000
  0.034829659   -2.087911  107.220299  -97.564057    8.805831    0.000000    0.000000    0.000000    0.000000
  0.035030060   -2.131725  105.055962  -97.822304   13.591887    0.000000    0.000000    0.000000    0.000000
  0.035230461   -2.167482  102.971809  -98.425486   17.330805    0.000000    0.000000    0.000000    0.000000
  0.035430862   -2.209361  100.885353 -100.039973   16.260660    0.000000    0.000000    0.000000    0.000000
  0.035631263   -2.250790   98.819809  -98.984343    9.402925    0.000000    0.000000    0.000000    0.000000
  0.035831663   -2.294706   96.730995  -99.888478    8.202514    0.000000    0.000000    0.000000    0.000000
  0.036032064   -2.337295   94.690262  -97.994801    1.387147    0.000000    0.000000    0.000000    0.000000
  0.036232465   -2.384622   92.600868  -99.187557    8.324872    0.000000    0.000000    0.000000    0.000000
  0.036432866   -2.433909   90.581940  -99.184116   10.485941    0.000000    0.000000    0.000000    0.000000
  0.036633267   -2.492288   88.538109  -98.298454    4.887266    0.000000    0.000000    0.000000    0.000000
  0.036833667   -2.550154   86.471100  -99.883187    1.628758    0.000000    0.000000    0.000000    0.000000
  0.037034068   -2.612142   84.370148  -98.480852    6.931253    0.000000    0.000000    0.000000    0.000000
  0.037234469   -2.674687   82.252846  -99.643002    9.327680    0.000000    0.000000    0.000000    0.000000
  0.037434870   -2.737362   80.117538 -102.478220   13.754021    0.000000    0.000000    0.000000    0.000000
  0.037635271   -2.802189   77.956055 -100.808298    8.164110    0.000000    0.000000    0.000000    0.000000
  0.037835671   -2.870953   75.781639  -98.313745    5.461843    0.000000    0.000000    0.000000    0.000000
  0.038036072   -2.940153   73.617714 -101.886207    9.213063    0.000000    0.000000    0.000000    0.000000
  0.038236473   -3.000242   71.520927  -99.659895   12.462325    0.000000    0.000000    0.000000    0.000000
  0.038436874   -3.046239   69.384041  -99.687929   13.910818    0.000000    0.000000    0.000000    0.000000
  0.038637275   -3.093428   67.260681 -100.230753    3.029903    0.000000    0.000000    0.000000    0.000000
  0.038837675   -3.141227   65.125870  -99.369638    4.781013    0.000000    0.000000    0.000000    0.000000
  0.039038076   -3.185594   63.023106  -98.873243   15.966832    0.000000    0.000000    0.000000    0.000000
  0.039238477   -3.235406   60.943687 -101.876500   24.599710    0.000000    0.000000    0.000000    0.000000
  0.039438878   -3.292999   58.887970 -100.855034   14.126191    0.000000    0.000000    0.000000    0.000000
  0.039639279   -3.348250   56.829433  -98.388327   13.279677    0.000000    0.000000    0.000000    0.000000
  0.039839679   -3.413017   54.756516 -100.227338    9.826302    0.000000    0.000000    0.000000    0.000000
  0.040040080   -3.477893   52.667183  -99.636576   20.178560    0.000000    0.000000    0.000000    0.000000
  0.040240481   -3.543673   50.557583  -98.388867   16.321999    0.000000    0.000000    0.000000    0.000000
  0.040440882   -3.606458   48.444973  -98.637225    2.000682    0.000000    0.000000    0.000000    0.000000
  0.040641283   -3.668837   46.351757  -98.849976    4.375034    0.000000    0.000000    0.000000    0.000000
  0.040841683   -3.729874   44.241093  -99.587139    0.020031    0.000000    0.000000    0.000000    0.000000
  0.041042084   -3.794067   42.134007 -100.011955   12.067187    0.000000    0.000000    0.000000    0.000000
  0.041242485   -3.854593   40.031925 -103.110128  -13.785383    0.000000    0.000000    0.000000    0.000000
  0.041442886   -3.911607   37.921505 -102.160003    3.769239    0.000000    0.000000    0.000000    0.000000
  0.041643287   -3.967160   35.815796 -100.145025    9.030189    0.000000    0.000000    0.000000    0.000000
  0.041843687   -4.022100   33.719635 -100.545661  -13.181464    0.000000    0.000000    0.000000    0.000000
  0.042044088   -4.076533   31.648581 -100.242348    4.760194    0.000000    0.000000    0.000000    0.000000
  0.042244489   -4.129140   29.595879 -100.451386  -10.111153    0.000000    0.000000    0.000000    0.000000
  0.042444890   -4.180658   27.568323 -101.258708    9.582061    0.000000    0.000000    0.000000    0.000000
  0.042645291   -4.233464   25.505970 -102.788180   -5.404191    0.000000    0.000000    0.000000    0.000000
  0.042845691   -4.287992   23.474155 -100.519179    6.067373    0.000000    0.000000    0.000000    0.000000
  0.043046092   -4.342759   21.446812 -102.118124   -7.578610    0.000000    0.000000    0.000000    0.000000
  0.043246493   -4.397088   19.412701 -101.397472   17.807802    0.000000    0.000000    0.000000    0.000000
  0.043446894   -4.446426   17.388344 -102.588406    9.525757    0.000000    0.000000    0.000000    0.000000
  0.043647295   -4.499597   15.374555 -105.069867   19.022196    0.000000    0.000000    0.000000    0.000000
  0.043847695   -4.552850   13.347174 -104.267981   17.685474    0.000000    0.000000    0.000000    0.000000
  0.044048096   -4.606309   11.339933 -101.092160   12.363070    0.000000    0.000000    0.000000    0.000000
  0.044248497   -4.657600    9.345309 -103.013013   13.693280    0.000000    0.000000    0.000000    0.000000
  0.044448898   -4.708850    7.337839 -103.136777   27.143282    0.000000    0.000000    0.000000    0.000000
  0.044649299   -4.754582    5.338101 -100.008202    0.119304    0.000000    0.000000    0.000000    0.000000
  0.044849699   -4.801005    3.338302 -102.190795   15.447062    0.000000    0.000000    0.000000    0.000000
  0.045050100   -4.843178    1.348128 -102.639207   20.644615    0.000000    0.000000    0.000000    0.000000
  0.045250501   -4.882874   -0.603701 -102.244696   13.385180    0.000000    0.000000    0.000000    0.000000
  0.045450902   -4.925931   -2.533142 -103.057899    4.519234    0.000000    0.000000    0.000000    0.000000
  0.045651303   -4.966156   -4.459081 -101.042644    2.693801    0.000000    0.000000    0.000000    0.000000
  0.045851703   -5.004229   -6.358410 -101.915167   15.268533    0.000000    0.000000    0.000000    0.000000
  0.046052104   -5.042507   -8.267806  -99.387882    6.408712    0.000000    0.000000    0.000000    0.000000
  0.046252505   -5.078201  -10.156554 -100.173342   10.805720    0.000000    0.000000    0.000000    0.000000
  0.046452906   -5.114331  -12.018846 -101.564303   -5.756793    0.000000    0.000000    0.000000    0.000000
  0.046653307   -5.144710  -13.926667 -102.629254   -8.244602    0.000000    0.000000    0.000000    0.000000
  0.046853707   -5.177758  -15.766309 -101.671073   14.992453    0.000000    0.000000    0.000000    0.000000
  0.047054108   -5.205691  -17.615568 -101.945286    5.162593    0.000000    0.000000    0.000000    0.000000
  0.047254509   -5.236989  -19.451244 -100.617807    5.967566    0.000000    0.000000    0.000000    0.000000
  0.047454910   -5.263401  -21.259130 -100.769383    7.539362    0.000000    0.000000    0.000000    0.000000
  0.047655311   -5.290643  -23.051331 -101.943857   -1.554319    0.000000    0.000000    0.000000    0.000000
  0.047855711   -5.318825  -24.808250 -102.179276   -6.815975    0.000000    0.000000    0.000000    0.000000
  0.048056112   -5.345974  -26.568798 -103.524483    1.001077    0.000000    0.000000    0.000000    0.000000
  0.048256513   -5.374867  -28.336227 -102.289311   -3.726426    0.000000    0.000000    0.000000    0.000000
  0.048456914   -5.403428  -30.092857 -100.997741    4.314860    0.000000    0.000000    0.000000    0.000000
  0.048657315   -5.430150  -31.839764 -102.322738   -8.010745    0.000000    0.000000    0.000000    0.000000
  0.048857715   -5.456031  -33.588154 -101.364383    1.353124    0.000000    0.000000    0.000000    0.000000
  0.049058116   -5.479763  -35.355007 -105.462560   -0.480487    0.000000    0.000000    0.000000    0.000000
  0.049258517   -5.502207  -37.060841 -103.424094    2.321164    0.000000    0.000000    0.000000    0.000000
  0.049458918   -5.524290  -38.806217 -104.790313    6.559389    0.000000    0.000000    0.000000    0.000000
  0.049659319   -5.550855  -40.524403 -105.219141    5.749240    0.000000    0.000000    0.000000    0.000000
  0.049859719   -5.575342  -42.252167 -103.797611   20.956633    0.000000    0.000000    0.000000    0.000000
  0.050060120   -5.596148  -43.991257 -103.596942   19.768148    0.000000    0.000000    0.000000    0.000000
  0.050260521   -5.611979  -45.728771 -102.900421    3.936735    0.000000    0.000000    0.000000    0.000000
  0.050460922   -5.627364  -47.446434 -104.189354   10.905077    0.000000    0.000000    0.000000    0.000000
  0.050661323   -5.642403  -49.176517 -102.541567   20.859936    0.000000    0.000000    0.000000    0.000000
  0.050861723   -5.653500  -50.865166 -101.646116   22.025002    0.000000    0.000000    0.000000    0.000000
  0.051062124   -5.666420  -52.546276 -101.811827   -2.647593    0.000000    0.000000    0.000000    0.000000
  0.051262525   -5.681054  -54.188553 -103.741070    4.095061    0.000000    0.000000    0.000000    0.000000
  0.051462926   -5.688781  -55.804901 -104.067242   16.265766    0.000000    0.000000    0.000000    0.000000
  0.051663327   -5.699608  -57.419254 -101.435018    9.524802    0.000000    0.000000    0.000000    0.000000
  0.051863727   -5.714917  -59.045708 -102.322017    0.633916    0.000000    0.000000    0.000000    0.000000
  0.052064128   -5.729609  -60.672630 -102.879153    3.680154    0.000000    0.000000    0.000000    0.000000
  0.052264529   -5.738701  -62.267036 -102.298090    5.222545    0.000000    0.000000    0.000000    0.000000
  0.052464930   -5.749671  -63.876251 -106.254621   -0.218398    0.000000    0.000000    0.000000    0.000000
  0.052665331   -5.762296  -65.472046 -101.195440   -1.698823    0.000000    0.000000    0.000000    0.000000
  0.052865731   -5.774968  -67.065125 -100.477576    6.880874    0.000000    0.000000    0.000000    0.000000
