! Anritsu VNA Master:                     Model: MS2036C/10/77
! SN:                                  1601066
! /bd0/18may09/252.ns.m4.s2p
! Existing Calibration Information:
! TYPE:                         Current Settings,       Active Cal Settings
! TIME:             	   05/09/2018 08:57:16 AM,    05/09/2018 08:47:23 AM
! INTERNAL TEMP:    	                   40.0 C,                    40.0 C
! # POINTS:         	                      500,                       500
! START FREQ:       	               20.000 MHz,                20.000 MHz
! STOP FREQ:        	              120.000 MHz,               120.000 MHz
! SOURCE POWER:     	                     High,                      High
! IFBW:             	                    50 Hz,                     50 Hz
! AVG FACTOR:       	                       1 ,                        1 
! REF PLANE 1:      	                     0 mm,                      0 mm
! REF PLANE 2:      	                     0 mm,                      0 mm
! CAL TYPE:         	                 Full S11,                  Full S11
! CAL METHOD:       	                     SOLT,                      SOLT
! CAL LINE TYPE:    	                     Coax,                      Coax
! DUT PORT 1:       	                K-Conn(F),                 K-Conn(F)
! DUT PORT 2:       	                K-Conn(F),                 K-Conn(F)
! CAL STATUS:       	        OK: Accuracy High,                        --
# GHZ S DB R 50.0
! FREQ.GHZ       S11DB        S11A       S21DB        S21A       S12DB        S12A       S22DB        S22A
  0.020000000   -0.585725 -124.028206  -91.258592   32.392113    0.000000    0.000000    0.000000    0.000000
  0.020200401   -0.586687 -125.443718  -90.972938   31.848715    0.000000    0.000000    0.000000    0.000000
  0.020400802   -0.589494 -126.875015  -91.502210   30.359449    0.000000    0.000000    0.000000    0.000000
  0.020601202   -0.592786 -128.314697  -92.436505   33.967472    0.000000    0.000000    0.000000    0.000000
  0.020801603   -0.597007 -129.773239  -91.993253   31.413511    0.000000    0.000000    0.000000    0.000000
  0.021002004   -0.603916 -131.268295  -92.285789   33.530281    0.000000    0.000000    0.000000    0.000000
  0.021202405   -0.613261 -132.771835  -92.171109   35.537838    0.000000    0.000000    0.000000    0.000000
  0.021402806   -0.616818 -134.259933  -93.129602   39.586849    0.000000    0.000000    0.000000    0.000000
  0.021603206   -0.621368 -135.750336  -93.045818   33.092079    0.000000    0.000000    0.000000    0.000000
  0.021803607   -0.625553 -137.240433  -93.113218   37.297054    0.000000    0.000000    0.000000    0.000000
  0.022004008   -0.631594 -138.746246  -92.807290   38.170597    0.000000    0.000000    0.000000    0.000000
  0.022204409   -0.639409 -140.256485  -92.929112   36.333603    0.000000    0.000000    0.000000    0.000000
  0.022404810   -0.643838 -141.774155  -93.742895   36.130039    0.000000    0.000000    0.000000    0.000000
  0.022605210   -0.647288 -143.340729  -93.537191   37.235756    0.000000    0.000000    0.000000    0.000000
  0.022805611   -0.648768 -144.893707  -92.494626   32.411098    0.000000    0.000000    0.000000    0.000000
  0.023006012   -0.651903 -146.426773  -92.598675   36.829529    0.000000    0.000000    0.000000    0.000000
  0.023206413   -0.653132 -147.940369  -93.742810   36.398972    0.000000    0.000000    0.000000    0.000000
  0.023406814   -0.656029 -149.491028  -92.476465   32.888680    0.000000    0.000000    0.000000    0.000000
  0.023607214   -0.663040 -151.017868  -92.131550   35.542549    0.000000    0.000000    0.000000    0.000000
  0.023807615   -0.669650 -152.567596  -92.322559   35.992218    0.000000    0.000000    0.000000    0.000000
  0.024008016   -0.676660 -154.143784  -92.470981   31.388060    0.000000    0.000000    0.000000    0.000000
  0.024208417   -0.684791 -155.735550  -92.727637   29.197392    0.000000    0.000000    0.000000    0.000000
  0.024408818   -0.694259 -157.331696  -92.897683   22.085056    0.000000    0.000000    0.000000    0.000000
  0.024609218   -0.702970 -158.912064  -92.747688   23.652534    0.000000    0.000000    0.000000    0.000000
  0.024809619   -0.710906 -160.508774  -93.443436   24.516109    0.000000    0.000000    0.000000    0.000000
  0.025010020   -0.720465 -162.119888  -93.294346   21.373341    0.000000    0.000000    0.000000    0.000000
  0.025210421   -0.731961 -163.742538  -93.666573   22.204987    0.000000    0.000000    0.000000    0.000000
  0.025410822   -0.746141 -165.386444  -94.049638   21.332170    0.000000    0.000000    0.000000    0.000000
  0.025611222   -0.757149 -167.045959  -93.590353   20.550018    0.000000    0.000000    0.000000    0.000000
  0.025811623   -0.768182 -168.719711  -94.805056   18.530878    0.000000    0.000000    0.000000    0.000000
  0.026012024   -0.776917 -170.400742  -94.432973   19.445738    0.000000    0.000000    0.000000    0.000000
  0.026212425   -0.787695 -172.092697  -94.822948   18.229664    0.000000    0.000000    0.000000    0.000000
  0.026412826   -0.800387 -173.788284  -95.045767   22.289328    0.000000    0.000000    0.000000    0.000000
  0.026613226   -0.813532 -175.502396  -95.451289   17.269228    0.000000    0.000000    0.000000    0.000000
  0.026813627   -0.828986 -177.221848  -95.524255   18.605417    0.000000    0.000000    0.000000    0.000000
  0.027014028   -0.844409 -178.955185  -95.867738   17.997803    0.000000    0.000000    0.000000    0.000000
  0.027214429   -0.860405  179.290649  -96.120176   19.037695    0.000000    0.000000    0.000000    0.000000
  0.027414830   -0.874267  177.534424  -96.565562   17.024755    0.000000    0.000000    0.000000    0.000000
  0.027615230   -0.893166  175.728897  -96.983198   23.091551    0.000000    0.000000    0.000000    0.000000
  0.027815631   -0.912882  173.950012  -96.385269   22.093800    0.000000    0.000000    0.000000    0.000000
  0.028016032   -0.934175  172.162903  -95.077039   25.501951    0.000000    0.000000    0.000000    0.000000
  0.028216433   -0.955389  170.365952  -96.184517   24.330942    0.000000    0.000000    0.000000    0.000000
  0.028416834   -0.976175  168.574631  -96.274367   22.426861    0.000000    0.000000    0.000000    0.000000
  0.028617234   -0.996978  166.775223  -96.605901   23.763027    0.000000    0.000000    0.000000    0.000000
  0.028817635   -1.017740  164.990341  -96.019621   25.170052    0.000000    0.000000    0.000000    0.000000
  0.029018036   -1.037770  163.206070  -95.886835   23.766367    0.000000    0.000000    0.000000    0.000000
  0.029218437   -1.062099  161.419312  -95.918941   24.972742    0.000000    0.000000    0.000000    0.000000
  0.029418838   -1.088090  159.619492  -96.024388   22.965788    0.000000    0.000000    0.000000    0.000000
  0.029619238   -1.115401  157.811020  -96.548110   20.428547    0.000000    0.000000    0.000000    0.000000
  0.029819639   -1.146532  155.988129  -96.061230   19.453201    0.000000    0.000000    0.000000    0.000000
  0.030020040   -1.177148  154.124619  -95.973261   15.962600    0.000000    0.000000    0.000000    0.000000
  0.030220441   -1.207612  152.264893  -96.352651   18.636179    0.000000    0.000000    0.000000    0.000000
  0.030420842   -1.238645  150.404068  -96.248738   16.188873    0.000000    0.000000    0.000000    0.000000
  0.030621242   -1.271644  148.552399  -95.937836   11.781253    0.000000    0.000000    0.000000    0.000000
  0.030821643   -1.306275  146.693054  -96.309902   11.083082    0.000000    0.000000    0.000000    0.000000
  0.031022044   -1.342646  144.828461  -96.905657   14.283620    0.000000    0.000000    0.000000    0.000000
  0.031222445   -1.376595  142.960953  -97.728690   16.803520    0.000000    0.000000    0.000000    0.000000
  0.031422846   -1.412959  141.045624  -99.122847   10.187530    0.000000    0.000000    0.000000    0.000000
  0.031623246   -1.447789  139.107971  -98.358330    9.366432    0.000000    0.000000    0.000000    0.000000
  0.031823647   -1.477370  137.152222  -96.532730    9.353443    0.000000    0.000000    0.000000    0.000000
  0.032024048   -1.508391  135.215881  -96.365979   10.441290    0.000000    0.000000    0.000000    0.000000
  0.032224449   -1.541668  133.289215  -97.967094   13.061360    0.000000    0.000000    0.000000    0.000000
  0.032424850   -1.572861  131.375961  -96.418395   11.978889    0.000000    0.000000    0.000000    0.000000
  0.032625251   -1.605423  129.416016  -97.732279   22.365057    0.000000    0.000000    0.000000    0.000000
  0.032825651   -1.641654  127.497787  -97.950660   14.074373    0.000000    0.000000    0.000000    0.000000
  0.033026052   -1.681137  125.547607  -97.186900   12.631003    0.000000    0.000000    0.000000    0.000000
  0.033226453   -1.729587  123.575172  -99.226941   18.164368    0.000000    0.000000    0.000000    0.000000
  0.033426854   -1.777300  121.598976  -98.780701   12.300882    0.000000    0.000000    0.000000    0.000000
  0.033627255   -1.826871  119.566750  -99.004183   15.173667    0.000000    0.000000    0.000000    0.000000
  0.033827655   -1.872704  117.490875  -98.704209   14.297367    0.000000    0.000000    0.000000    0.000000
  0.034028056   -1.920526  115.395882  -97.021981    9.642906    0.000000    0.000000    0.000000    0.000000
  0.034228457   -1.966035  113.291321  -97.778093   20.486654    0.000000    0.000000    0.000000    0.000000
  0.034428858   -2.009035  111.155472  -98.465648   24.577072    0.000000    0.000000    0.000000    0.000000
  0.034629259   -2.048596  109.050705  -98.078692    5.901246    0.000000    0.000000    0.000000    0.000000
  0.034829659   -2.087257  106.935349  -97.510951   17.236202    0.000000    0.000000    0.000000    0.000000
  0.035030060   -2.126865  104.827957  -96.993620   10.635914    0.000000    0.000000    0.000000    0.000000
  0.035230461   -2.168066  102.718430  -97.944154   11.538382    0.000000    0.000000    0.000000    0.000000
  0.035430862   -2.207481  100.658798  -97.949115    9.686099    0.000000    0.000000    0.000000    0.000000
  0.035631263   -2.247818   98.588806  -99.044061    6.017525    0.000000    0.000000    0.000000    0.000000
  0.035831663   -2.292985   96.515007  -98.398475   18.702553    0.000000    0.000000    0.000000    0.000000
  0.036032064   -2.337261   94.457024  -98.364136   10.469604    0.000000    0.000000    0.000000    0.000000
  0.036232465   -2.383642   92.426575  -98.439358   12.321660    0.000000    0.000000    0.000000    0.000000
  0.036432866   -2.433872   90.385712 -100.265144    3.090153    0.000000    0.000000    0.000000    0.000000
  0.036633267   -2.489946   88.322655  -97.681798    1.849756    0.000000    0.000000    0.000000    0.000000
  0.036833667   -2.550862   86.273918  -99.225979    8.217186    0.000000    0.000000    0.000000    0.000000
  0.037034068   -2.612560   84.185776 -100.758581    5.639421    0.000000    0.000000    0.000000    0.000000
  0.037234469   -2.673842   82.077927  -98.930398    7.398126    0.000000    0.000000    0.000000    0.000000
  0.037434870   -2.738977   79.935944 -100.428857   14.609023    0.000000    0.000000    0.000000    0.000000
  0.037635271   -2.804241   77.788948 -102.194247   -4.646080    0.000000    0.000000    0.000000    0.000000
  0.037835671   -2.870253   75.600296 -100.194722   -0.681696    0.000000    0.000000    0.000000    0.000000
  0.038036072   -2.941750   73.445786  -99.278330    3.836118    0.000000    0.000000    0.000000    0.000000
  0.038236473   -3.000038   71.347633 -101.589487    6.759793    0.000000    0.000000    0.000000    0.000000
  0.038436874   -3.051676   69.198807  -99.871297    6.893903    0.000000    0.000000    0.000000    0.000000
  0.038637275   -3.095172   67.049240  -99.145253   12.096737    0.000000    0.000000    0.000000    0.000000
  0.038837675   -3.142909   64.916679 -101.317046   16.302189    0.000000    0.000000    0.000000    0.000000
  0.039038076   -3.190707   62.827442  -99.225875   -4.832825    0.000000    0.000000    0.000000    0.000000
  0.039238477   -3.241048   60.735367 -100.915121   12.622731    0.000000    0.000000    0.000000    0.000000
  0.039438878   -3.297079   58.659576 -101.610889   17.768730    0.000000    0.000000    0.000000    0.000000
  0.039639279   -3.355700   56.595020  -99.297110   26.009441    0.000000    0.000000    0.000000    0.000000
  0.039839679   -3.421015   54.502987  -98.938865   13.146434    0.000000    0.000000    0.000000    0.000000
  0.040040080   -3.484712   52.405636 -100.069643    7.588975    0.000000    0.000000    0.000000    0.000000
  0.040240481   -3.548431   50.278912  -99.220198   12.572591    0.000000    0.000000    0.000000    0.000000
  0.040440882   -3.612616   48.162064  -99.484041    2.997404    0.000000    0.000000    0.000000    0.000000
  0.040641283   -3.674608   46.055897  -99.937107    7.121284    0.000000    0.000000    0.000000    0.000000
  0.040841683   -3.737721   43.942883  -98.910660   15.612986    0.000000    0.000000    0.000000    0.000000
  0.041042084   -3.797994   41.821678 -100.239175   15.660493    0.000000    0.000000    0.000000    0.000000
  0.041242485   -3.855305   39.698200 -100.586307   -0.217930    0.000000    0.000000    0.000000    0.000000
  0.041442886   -3.914751   37.582230  -99.395091    4.479583    0.000000    0.000000    0.000000    0.000000
  0.041643287   -3.970809   35.461079 -100.847334   -8.052912    0.000000    0.000000    0.000000    0.000000
  0.041843687   -4.024096   33.364269 -101.693357   -8.048687    0.000000    0.000000    0.000000    0.000000
  0.042044088   -4.077773   31.289120 -101.953647   -5.190373    0.000000    0.000000    0.000000    0.000000
  0.042244489   -4.129704   29.233244 -100.767382   -0.600232    0.000000    0.000000    0.000000    0.000000
  0.042444890   -4.181796   27.200666 -101.952862  -15.143837    0.000000    0.000000    0.000000    0.000000
  0.042645291   -4.236723   25.152182 -102.993903  -11.710141    0.000000    0.000000    0.000000    0.000000
  0.042845691   -4.289224   23.106245 -100.341473    4.754354    0.000000    0.000000    0.000000    0.000000
  0.043046092   -4.340494   21.089401 -101.595679   -1.216617    0.000000    0.000000    0.000000    0.000000
  0.043246493   -4.393727   19.057095 -101.789351    3.180674    0.000000    0.000000    0.000000    0.000000
  0.043446894   -4.445620   17.013742 -102.196069   -2.279607    0.000000    0.000000    0.000000    0.000000
  0.043647295   -4.497034   15.002951 -101.318959   13.753098    0.000000    0.000000    0.000000    0.000000
  0.043847695   -4.551263   12.986661 -103.181909   13.349145    0.000000    0.000000    0.000000    0.000000
  0.044048096   -4.602527   10.973331 -101.530649   15.861065    0.000000    0.000000    0.000000    0.000000
  0.044248497   -4.654919    8.969509 -101.951877    1.592066    0.000000    0.000000    0.000000    0.000000
  0.044448898   -4.705087    6.980592 -101.336915   15.994259    0.000000    0.000000    0.000000    0.000000
  0.044649299   -4.752980    4.981656 -100.236866   10.288083    0.000000    0.000000    0.000000    0.000000
  0.044849699   -4.796738    2.985118 -101.588345    3.331569    0.000000    0.000000    0.000000    0.000000
  0.045050100   -4.839043    1.010776 -101.973118    4.909521    0.000000    0.000000    0.000000    0.000000
  0.045250501   -4.880655   -0.949320 -101.871503    3.833463    0.000000    0.000000    0.000000    0.000000
  0.045450902   -4.920332   -2.866151 -101.950139   21.073416    0.000000    0.000000    0.000000    0.000000
  0.045651303   -4.961783   -4.819433 -101.154360    4.444625    0.000000    0.000000    0.000000    0.000000
  0.045851703   -5.004131   -6.699417 -100.813937   18.719816    0.000000    0.000000    0.000000    0.000000
  0.046052104   -5.044494   -8.633886 -100.904679   -3.704267    0.000000    0.000000    0.000000    0.000000
  0.046252505   -5.082700  -10.522757 -100.716711  -11.461801    0.000000    0.000000    0.000000    0.000000
  0.046452906   -5.117297  -12.400550 -102.413029    7.940090    0.000000    0.000000    0.000000    0.000000
  0.046653307   -5.149813  -14.297262 -101.760930    8.741766    0.000000    0.000000    0.000000    0.000000
  0.046853707   -5.178212  -16.156349 -100.663324   15.008424    0.000000    0.000000    0.000000    0.000000
  0.047054108   -5.212620  -18.022846 -100.676603   -2.670895    0.000000    0.000000    0.000000    0.000000
  0.047254509   -5.239339  -19.865114 -101.266849   -0.795099    0.000000    0.000000    0.000000    0.000000
  0.047454910   -5.266173  -21.684980 -100.856808    0.301947    0.000000    0.000000    0.000000    0.000000
  0.047655311   -5.289918  -23.481718 -101.748089  -14.990636    0.000000    0.000000    0.000000    0.000000
  0.047855711   -5.318543  -25.260820 -102.191122   -6.233317    0.000000    0.000000    0.000000    0.000000
  0.048056112   -5.347045  -27.049009 -102.319754    3.037030    0.000000    0.000000    0.000000    0.000000
  0.048256513   -5.374123  -28.805223 -103.538741   -0.531345    0.000000    0.000000    0.000000    0.000000
  0.048456914   -5.401118  -30.573444 -105.673410   -3.974713    0.000000    0.000000    0.000000    0.000000
  0.048657315   -5.426347  -32.334560 -103.000015   -7.706722    0.000000    0.000000    0.000000    0.000000
  0.048857715   -5.448204  -34.101849 -104.638181    1.729072    0.000000    0.000000    0.000000    0.000000
  0.049058116   -5.472153  -35.858231 -103.177266    9.196516    0.000000    0.000000    0.000000    0.000000
  0.049258517   -5.494313  -37.576080 -102.998833   -2.917788    0.000000    0.000000    0.000000    0.000000
  0.049458918   -5.516360  -39.311554 -103.094205   -8.551765    0.000000    0.000000    0.000000    0.000000
  0.049659319   -5.541613  -41.045868 -104.066350   -1.734449    0.000000    0.000000    0.000000    0.000000
  0.049859719   -5.561906  -42.761330 -101.016330    6.543436    0.000000    0.000000    0.000000    0.000000
  0.050060120   -5.581601  -44.496880 -101.867870   16.344206    0.000000    0.000000    0.000000    0.000000
  0.050260521   -5.599704  -46.234066 -101.541534   13.236774    0.000000    0.000000    0.000000    0.000000
  0.050460922   -5.613745  -47.965485 -102.127537    0.973940    0.000000    0.000000    0.000000    0.000000
  0.050661323   -5.625351  -49.669960 -103.652942   -3.691739    0.000000    0.000000    0.000000    0.000000
  0.050861723   -5.639261  -51.352558 -102.813452    7.970167    0.000000    0.000000    0.000000    0.000000
  0.051062124   -5.650515  -53.021103 -101.142143   12.688230    0.000000    0.000000    0.000000    0.000000
  0.051262525   -5.662365  -54.633865 -101.460848    8.539621    0.000000    0.000000    0.000000    0.000000
  0.051462926   -5.673842  -56.255455 -103.233066    3.808805    0.000000    0.000000    0.000000    0.000000
  0.051663327   -5.682023  -57.843754 -101.361247    8.825749    0.000000    0.000000    0.000000    0.000000
  0.051863727   -5.699132  -59.459141 -101.460294    8.714657    0.000000    0.000000    0.000000    0.000000
  0.052064128   -5.711981  -61.070728 -101.641830    0.554588    0.000000    0.000000    0.000000    0.000000
  0.052264529   -5.722059  -62.667831 -101.172209   -5.707631    0.000000    0.000000    0.000000    0.000000
  0.052464930   -5.736182  -64.273552 -101.510884    5.143984    0.000000    0.000000    0.000000    0.000000
  0.052665331   -5.749675  -65.859573 -101.495482   -8.476960    0.000000    0.000000    0.000000    0.000000
  0.052865731   -5.759889  -67.463043 -101.665627    6.627260    0.000000    0.000000    0.000000    0.000000
