! Anritsu VNA Master:                     Model: MS2036C/10/77
! SN:                                  1601066
! /bd0/18may09/252.ns.m8.s2p
! Existing Calibration Information:
! TYPE:                         Current Settings,       Active Cal Settings
! TIME:             	   05/09/2018 09:09:21 AM,    05/09/2018 09:02:47 AM
! INTERNAL TEMP:    	                   41.3 C,                    40.3 C
! # POINTS:         	                      500,                       500
! START FREQ:       	               20.000 MHz,                20.000 MHz
! STOP FREQ:        	              120.000 MHz,               120.000 MHz
! SOURCE POWER:     	                     High,                      High
! IFBW:             	                    50 Hz,                     50 Hz
! AVG FACTOR:       	                       1 ,                        1 
! REF PLANE 1:      	                     0 mm,                      0 mm
! REF PLANE 2:      	                     0 mm,                      0 mm
! CAL TYPE:         	                 Full S11,                  Full S11
! CAL METHOD:       	                     SOLT,                      SOLT
! CAL LINE TYPE:    	                     Coax,                      Coax
! DUT PORT 1:       	                K-Conn(F),                 K-Conn(F)
! DUT PORT 2:       	                K-Conn(F),                 K-Conn(F)
! CAL STATUS:       	        OK: Accuracy High,                        --
# GHZ S DB R 50.0
! FREQ.GHZ       S11DB        S11A       S21DB        S21A       S12DB        S12A       S22DB        S22A
  0.020000000   -0.590994 -123.819649  -90.928351   33.168549    0.000000    0.000000    0.000000    0.000000
  0.020200401   -0.589686 -125.240524  -90.451544   30.414259    0.000000    0.000000    0.000000    0.000000
  0.020400802   -0.591621 -126.665161  -91.189425   34.798466    0.000000    0.000000    0.000000    0.000000
  0.020601202   -0.593955 -128.100677  -91.518149   34.016842    0.000000    0.000000    0.000000    0.000000
  0.020801603   -0.600009 -129.556351  -92.405469   33.684166    0.000000    0.000000    0.000000    0.000000
  0.021002004   -0.606387 -131.045135  -92.277544   30.258793    0.000000    0.000000    0.000000    0.000000
  0.021202405   -0.612847 -132.557510  -93.215545   36.764378    0.000000    0.000000    0.000000    0.000000
  0.021402806   -0.619831 -134.029129  -93.215462   35.492908    0.000000    0.000000    0.000000    0.000000
  0.021603206   -0.621934 -135.519913  -92.801137   34.975708    0.000000    0.000000    0.000000    0.000000
  0.021803607   -0.626991 -137.004303  -92.591854   37.641247    0.000000    0.000000    0.000000    0.000000
  0.022004008   -0.633269 -138.499344  -92.663735   35.072945    0.000000    0.000000    0.000000    0.000000
  0.022204409   -0.636941 -140.012741  -92.941452   36.244629    0.000000    0.000000    0.000000    0.000000
  0.022404810   -0.641879 -141.530197  -92.786171   41.014259    0.000000    0.000000    0.000000    0.000000
  0.022605210   -0.645917 -143.080963  -92.735831   39.515892    0.000000    0.000000    0.000000    0.000000
  0.022805611   -0.651571 -144.622910  -92.614609   34.604202    0.000000    0.000000    0.000000    0.000000
  0.023006012   -0.653626 -146.144882  -92.493946   36.036110    0.000000    0.000000    0.000000    0.000000
  0.023206413   -0.654151 -147.670349  -92.933801   33.199707    0.000000    0.000000    0.000000    0.000000
  0.023406814   -0.656007 -149.200272  -92.530685   29.712999    0.000000    0.000000    0.000000    0.000000
  0.023607214   -0.662335 -150.747101  -92.921523   30.992857    0.000000    0.000000    0.000000    0.000000
  0.023807615   -0.670070 -152.294357  -92.699513   32.613956    0.000000    0.000000    0.000000    0.000000
  0.024008016   -0.679210 -153.860321  -93.250051   29.085459    0.000000    0.000000    0.000000    0.000000
  0.024208417   -0.687205 -155.449982  -92.460235   31.000507    0.000000    0.000000    0.000000    0.000000
  0.024408818   -0.694939 -157.042694  -92.871089   24.898239    0.000000    0.000000    0.000000    0.000000
  0.024609218   -0.702100 -158.642792  -92.835356   23.479778    0.000000    0.000000    0.000000    0.000000
  0.024809619   -0.710635 -160.239960  -93.526991   26.860090    0.000000    0.000000    0.000000    0.000000
  0.025010020   -0.720616 -161.844437  -93.548823   21.371323    0.000000    0.000000    0.000000    0.000000
  0.025210421   -0.731992 -163.463272  -93.773081   18.527176    0.000000    0.000000    0.000000    0.000000
  0.025410822   -0.744015 -165.105453  -93.862978   25.997076    0.000000    0.000000    0.000000    0.000000
  0.025611222   -0.757753 -166.770523  -93.848309   22.531532    0.000000    0.000000    0.000000    0.000000
  0.025811623   -0.769510 -168.454056  -94.655181   22.187193    0.000000    0.000000    0.000000    0.000000
  0.026012024   -0.776705 -170.137543  -95.248502   16.989025    0.000000    0.000000    0.000000    0.000000
  0.026212425   -0.787227 -171.829498  -94.531517   18.193430    0.000000    0.000000    0.000000    0.000000
  0.026412826   -0.799740 -173.524826  -95.501091   21.957556    0.000000    0.000000    0.000000    0.000000
  0.026613226   -0.812599 -175.231644  -95.465848   13.930099    0.000000    0.000000    0.000000    0.000000
  0.026813627   -0.827446 -176.964539  -95.694404   20.285158    0.000000    0.000000    0.000000    0.000000
  0.027014028   -0.842503 -178.685211  -95.516669   18.288397    0.000000    0.000000    0.000000    0.000000
  0.027214429   -0.857466  179.575836  -97.425001   18.360769    0.000000    0.000000    0.000000    0.000000
  0.027414830   -0.872367  177.806030  -95.743080   17.264698    0.000000    0.000000    0.000000    0.000000
  0.027615230   -0.888719  176.038605  -95.734667   23.030090    0.000000    0.000000    0.000000    0.000000
  0.027815631   -0.908257  174.268097  -96.691771   22.257948    0.000000    0.000000    0.000000    0.000000
  0.028016032   -0.929811  172.474884  -95.578274   23.352087    0.000000    0.000000    0.000000    0.000000
  0.028216433   -0.952263  170.682144  -96.317645   25.347361    0.000000    0.000000    0.000000    0.000000
  0.028416834   -0.972946  168.877975  -96.182283   22.823067    0.000000    0.000000    0.000000    0.000000
  0.028617234   -0.992367  167.088318  -95.398815   23.839798    0.000000    0.000000    0.000000    0.000000
  0.028817635   -1.013249  165.303207  -96.748827   26.932775    0.000000    0.000000    0.000000    0.000000
  0.029018036   -1.034209  163.516144  -95.748592   24.599304    0.000000    0.000000    0.000000    0.000000
  0.029218437   -1.056562  161.740860  -95.535018   23.078766    0.000000    0.000000    0.000000    0.000000
  0.029418838   -1.080162  159.942368  -96.093571   18.357502    0.000000    0.000000    0.000000    0.000000
  0.029619238   -1.109009  158.140594  -96.110215   20.992727    0.000000    0.000000    0.000000    0.000000
  0.029819639   -1.138500  156.318298  -95.944462   17.503025    0.000000    0.000000    0.000000    0.000000
  0.030020040   -1.171422  154.462006  -95.894812   16.817919    0.000000    0.000000    0.000000    0.000000
  0.030220441   -1.200032  152.600433  -96.205292   18.034092    0.000000    0.000000    0.000000    0.000000
  0.030420842   -1.231565  150.743011  -96.872041   18.040094    0.000000    0.000000    0.000000    0.000000
  0.030621242   -1.263548  148.890884  -96.820363   19.616423    0.000000    0.000000    0.000000    0.000000
  0.030821643   -1.298059  147.045654  -96.712899   12.887446    0.000000    0.000000    0.000000    0.000000
  0.031022044   -1.333128  145.184555  -96.876251   15.812019    0.000000    0.000000    0.000000    0.000000
  0.031222445   -1.368656  143.324280  -96.407329    9.872552    0.000000    0.000000    0.000000    0.000000
  0.031422846   -1.403477  141.401550  -96.040392   10.456829    0.000000    0.000000    0.000000    0.000000
  0.031623246   -1.438977  139.478394  -96.120929   10.601739    0.000000    0.000000    0.000000    0.000000
  0.031823647   -1.469348  137.545258  -97.833872    9.878492    0.000000    0.000000    0.000000    0.000000
  0.032024048   -1.501159  135.602280  -97.225828   10.474760    0.000000    0.000000    0.000000    0.000000
  0.032224449   -1.533694  133.690582  -97.102806   15.065280    0.000000    0.000000    0.000000    0.000000
  0.032424850   -1.564157  131.765503  -99.090103   20.677200    0.000000    0.000000    0.000000    0.000000
  0.032625251   -1.597882  129.836044  -98.393958    6.705914    0.000000    0.000000    0.000000    0.000000
  0.032825651   -1.635551  127.904800  -97.408172   10.457208    0.000000    0.000000    0.000000    0.000000
  0.033026052   -1.673989  125.951187  -97.507820   18.801477    0.000000    0.000000    0.000000    0.000000
  0.033226453   -1.720016  123.992752  -96.887680   13.777744    0.000000    0.000000    0.000000    0.000000
  0.033426854   -1.766947  122.007217  -97.788031   20.920908    0.000000    0.000000    0.000000    0.000000
  0.033627255   -1.815970  119.984291  -97.998106   13.825194    0.000000    0.000000    0.000000    0.000000
  0.033827655   -1.867275  117.938423  -98.165555   10.088432    0.000000    0.000000    0.000000    0.000000
  0.034028056   -1.913282  115.840050  -98.713242    8.335056    0.000000    0.000000    0.000000    0.000000
  0.034228457   -1.958448  113.722931  -97.665688   10.842194    0.000000    0.000000    0.000000    0.000000
  0.034428858   -2.000872  111.591286  -97.959101    9.345153    0.000000    0.000000    0.000000    0.000000
  0.034629259   -2.044494  109.473053  -99.712345    9.789774    0.000000    0.000000    0.000000    0.000000
  0.034829659   -2.085186  107.368683  -99.413439    7.996479    0.000000    0.000000    0.000000    0.000000
  0.035030060   -2.125863  105.252777  -98.226910   16.481421    0.000000    0.000000    0.000000    0.000000
  0.035230461   -2.163100  103.153625  -97.818305    5.736315    0.000000    0.000000    0.000000    0.000000
  0.035430862   -2.203026  101.070534  -98.620547   11.805133    0.000000    0.000000    0.000000    0.000000
  0.035631263   -2.245550   98.991013  -97.894275    8.486368    0.000000    0.000000    0.000000    0.000000
  0.035831663   -2.290151   96.921143  -97.842464    9.938275    0.000000    0.000000    0.000000    0.000000
  0.036032064   -2.333323   94.859886  -98.732992    7.464504    0.000000    0.000000    0.000000    0.000000
  0.036232465   -2.378581   92.782318 -100.127887    6.833120    0.000000    0.000000    0.000000    0.000000
  0.036432866   -2.429010   90.740715  -98.348593   13.038752    0.000000    0.000000    0.000000    0.000000
  0.036633267   -2.486891   88.715096  -98.521881    6.890231    0.000000    0.000000    0.000000    0.000000
  0.036833667   -2.545426   86.637039  -98.468552    2.729401    0.000000    0.000000    0.000000    0.000000
  0.037034068   -2.605889   84.533012 -100.561627    6.653071    0.000000    0.000000    0.000000    0.000000
  0.037234469   -2.667887   82.426201 -100.999119    8.499438    0.000000    0.000000    0.000000    0.000000
  0.037434870   -2.732516   80.280640 -100.182416    3.870591    0.000000    0.000000    0.000000    0.000000
  0.037635271   -2.796919   78.110886  -99.119735    5.775453    0.000000    0.000000    0.000000    0.000000
  0.037835671   -2.863977   75.934700 -100.576053    3.924012    0.000000    0.000000    0.000000    0.000000
  0.038036072   -2.932971   73.784912  -99.954932   12.820107    0.000000    0.000000    0.000000    0.000000
  0.038236473   -2.994629   71.672836  -99.688821    6.745736    0.000000    0.000000    0.000000    0.000000
  0.038436874   -3.038649   69.539238 -101.976060    4.829184    0.000000    0.000000    0.000000    0.000000
  0.038637275   -3.087820   67.417038 -101.487321    8.738040    0.000000    0.000000    0.000000    0.000000
  0.038837675   -3.134815   65.283905  -99.065239   14.885631    0.000000    0.000000    0.000000    0.000000
  0.039038076   -3.177881   63.178936  -99.242013   19.174696    0.000000    0.000000    0.000000    0.000000
  0.039238477   -3.227301   61.110008  -99.651501   11.480975    0.000000    0.000000    0.000000    0.000000
  0.039438878   -3.282544   59.059299  -98.866101    9.019493    0.000000    0.000000    0.000000    0.000000
  0.039639279   -3.340143   57.002960 -100.817968    2.031852    0.000000    0.000000    0.000000    0.000000
  0.039839679   -3.404989   54.931503  -98.362559   14.717804    0.000000    0.000000    0.000000    0.000000
  0.040040080   -3.467276   52.852245  -99.344605   22.785069    0.000000    0.000000    0.000000    0.000000
  0.040240481   -3.533649   50.765858  -99.969031    6.302225    0.000000    0.000000    0.000000    0.000000
  0.040440882   -3.597098   48.644184 -100.251051   -1.960119    0.000000    0.000000    0.000000    0.000000
  0.040641283   -3.658510   46.557034  -98.016453    5.170527    0.000000    0.000000    0.000000    0.000000
  0.040841683   -3.720494   44.456936  -99.141845    1.714332    0.000000    0.000000    0.000000    0.000000
  0.041042084   -3.783652   42.361107  -99.984813    4.057650    0.000000    0.000000    0.000000    0.000000
  0.041242485   -3.843046   40.259544  -99.248826   11.828316    0.000000    0.000000    0.000000    0.000000
  0.041442886   -3.900965   38.156868 -100.889902    5.077474    0.000000    0.000000    0.000000    0.000000
  0.041643287   -3.958687   36.069115 -101.430445    9.281798    0.000000    0.000000    0.000000    0.000000
  0.041843687   -4.012190   33.977509 -101.756708   -1.422988    0.000000    0.000000    0.000000    0.000000
  0.042044088   -4.067516   31.907501 -100.117603    1.796232    0.000000    0.000000    0.000000    0.000000
  0.042244489   -4.118846   29.868544 -100.283793    0.310013    0.000000    0.000000    0.000000    0.000000
  0.042444890   -4.172202   27.837233 -102.225914    0.550984    0.000000    0.000000    0.000000    0.000000
  0.042645291   -4.225902   25.786104 -102.341988   -0.002214    0.000000    0.000000    0.000000    0.000000
  0.042845691   -4.281621   23.761381 -100.910994    3.549869    0.000000    0.000000    0.000000    0.000000
  0.043046092   -4.335098   21.716511 -104.783823   -7.416156    0.000000    0.000000    0.000000    0.000000
  0.043246493   -4.389626   19.694380 -101.877617    2.962182    0.000000    0.000000    0.000000    0.000000
  0.043446894   -4.441098   17.663071 -102.825443    9.579894    0.000000    0.000000    0.000000    0.000000
  0.043647295   -4.495624   15.641623 -101.501962   15.073707    0.000000    0.000000    0.000000    0.000000
  0.043847695   -4.547278   13.626574 -102.570883   17.824759    0.000000    0.000000    0.000000    0.000000
  0.044048096   -4.602370   11.609821 -101.176489   -2.577178    0.000000    0.000000    0.000000    0.000000
  0.044248497   -4.652786    9.606341 -101.634603   18.918089    0.000000    0.000000    0.000000    0.000000
  0.044448898   -4.705261    7.597302 -102.347878   13.493108    0.000000    0.000000    0.000000    0.000000
  0.044649299   -4.750270    5.590777 -102.963412    2.665486    0.000000    0.000000    0.000000    0.000000
  0.044849699   -4.796140    3.596327  -99.763041    8.431271    0.000000    0.000000    0.000000    0.000000
  0.045050100   -4.836833    1.612480 -101.175219    1.179411    0.000000    0.000000    0.000000    0.000000
  0.045250501   -4.877315   -0.365169 -100.841968   18.505695    0.000000    0.000000    0.000000    0.000000
  0.045450902   -4.918422   -2.280987 -101.486714   10.682833    0.000000    0.000000    0.000000    0.000000
  0.045651303   -4.959887   -4.207057 -100.991882   11.843328    0.000000    0.000000    0.000000    0.000000
  0.045851703   -4.998758   -6.114649 -101.381626   14.899518    0.000000    0.000000    0.000000    0.000000
  0.046052104   -5.034845   -8.018476 -101.605349   12.608056    0.000000    0.000000    0.000000    0.000000
  0.046252505   -5.071239   -9.909456 -100.736795    6.172333    0.000000    0.000000    0.000000    0.000000
  0.046452906   -5.105843  -11.775580 -102.193684    4.853847    0.000000    0.000000    0.000000    0.000000
  0.046653307   -5.137458  -13.658476 -100.174270  -10.908137    0.000000    0.000000    0.000000    0.000000
  0.046853707   -5.169941  -15.491101 -101.217777    6.051746    0.000000    0.000000    0.000000    0.000000
  0.047054108   -5.198471  -17.348110 -101.572296   11.133145    0.000000    0.000000    0.000000    0.000000
  0.047254509   -5.226585  -19.173717 -100.705310   15.282159    0.000000    0.000000    0.000000    0.000000
  0.047454910   -5.254539  -20.964924 -102.521022    4.976028    0.000000    0.000000    0.000000    0.000000
  0.047655311   -5.279845  -22.752407 -101.236053    5.914324    0.000000    0.000000    0.000000    0.000000
  0.047855711   -5.310573  -24.505199 -102.684738   -4.221042    0.000000    0.000000    0.000000    0.000000
  0.048056112   -5.338474  -26.244499 -107.416020   16.500578    0.000000    0.000000    0.000000    0.000000
  0.048256513   -5.366677  -28.006466 -101.172571    3.391673    0.000000    0.000000    0.000000    0.000000
  0.048456914   -5.396693  -29.760504 -103.417525  -16.707453    0.000000    0.000000    0.000000    0.000000
  0.048657315   -5.422522  -31.497776 -102.051253  -17.192455    0.000000    0.000000    0.000000    0.000000
  0.048857715   -5.448903  -33.250156 -105.496321   -1.407936    0.000000    0.000000    0.000000    0.000000
  0.049058116   -5.474389  -35.009987 -103.019952   14.809578    0.000000    0.000000    0.000000    0.000000
  0.049258517   -5.497198  -36.713284 -103.778799   13.551503    0.000000    0.000000    0.000000    0.000000
  0.049458918   -5.522389  -38.444500 -104.341086    3.207681    0.000000    0.000000    0.000000    0.000000
  0.049659319   -5.550870  -40.171661 -105.518278    2.095965    0.000000    0.000000    0.000000    0.000000
  0.049859719   -5.574427  -41.894455 -105.166013    8.809533    0.000000    0.000000    0.000000    0.000000
  0.050060120   -5.597793  -43.635506 -104.266092    2.369122    0.000000    0.000000    0.000000    0.000000
  0.050260521   -5.615836  -45.375252 -103.169969   23.151060    0.000000    0.000000    0.000000    0.000000
  0.050460922   -5.630439  -47.114155 -103.320195   19.985315    0.000000    0.000000    0.000000    0.000000
  0.050661323   -5.648013  -48.828968 -100.598837   13.496526    0.000000    0.000000    0.000000    0.000000
  0.050861723   -5.661904  -50.544010 -104.433104   16.925932    0.000000    0.000000    0.000000    0.000000
  0.051062124   -5.673899  -52.237358 -102.495024   -9.434416    0.000000    0.000000    0.000000    0.000000
  0.051262525   -5.688318  -53.881775 -101.526676   20.897280    0.000000    0.000000    0.000000    0.000000
  0.051462926   -5.696018  -55.524017 -100.510085    9.419848    0.000000    0.000000    0.000000    0.000000
  0.051663327   -5.707599  -57.140739 -102.116964    2.631467    0.000000    0.000000    0.000000    0.000000
  0.051863727   -5.721763  -58.784714 -101.961162   11.653177    0.000000    0.000000    0.000000    0.000000
  0.052064128   -5.736140  -60.390564 -101.329938    5.277478    0.000000    0.000000    0.000000    0.000000
  0.052264529   -5.746578  -62.023800 -101.564362    3.639669    0.000000    0.000000    0.000000    0.000000
  0.052464930   -5.756740  -63.644890 -100.491851   -1.762510    0.000000    0.000000    0.000000    0.000000
  0.052665331   -5.768133  -65.242966 -101.369851   -7.822322    0.000000    0.000000    0.000000    0.000000
  0.052865731   -5.778539  -66.843567 -100.860470   12.656939    0.000000    0.000000    0.000000    0.000000
