! Anritsu VNA Master:                     Model: MS2036C/10/77
! SN:                                  1601066
! /bd0/18may09/252.ns.m3.s2p
! Existing Calibration Information:
! TYPE:                         Current Settings,       Active Cal Settings
! TIME:             	   05/09/2018 08:55:01 AM,    05/09/2018 08:47:23 AM
! INTERNAL TEMP:    	                   39.8 C,                    40.0 C
! # POINTS:         	                      500,                       500
! START FREQ:       	               20.000 MHz,                20.000 MHz
! STOP FREQ:        	              120.000 MHz,               120.000 MHz
! SOURCE POWER:     	                     High,                      High
! IFBW:             	                    50 Hz,                     50 Hz
! AVG FACTOR:       	                       1 ,                        1 
! REF PLANE 1:      	                     0 mm,                      0 mm
! REF PLANE 2:      	                     0 mm,                      0 mm
! CAL TYPE:         	                 Full S11,                  Full S11
! CAL METHOD:       	                     SOLT,                      SOLT
! CAL LINE TYPE:    	                     Coax,                      Coax
! DUT PORT 1:       	                K-Conn(F),                 K-Conn(F)
! DUT PORT 2:       	                K-Conn(F),                 K-Conn(F)
! CAL STATUS:       	        OK: Accuracy High,                        --
# GHZ S DB R 50.0
! FREQ.GHZ       S11DB        S11A       S21DB        S21A       S12DB        S12A       S22DB        S22A
  0.020000000   -0.590521 -124.123703  -91.126264   32.611786    0.000000    0.000000    0.000000    0.000000
  0.020200401   -0.590847 -125.534508  -91.149791   29.597961    0.000000    0.000000    0.000000    0.000000
  0.020400802   -0.591904 -126.971657  -92.064803   30.607475    0.000000    0.000000    0.000000    0.000000
  0.020601202   -0.594291 -128.407516  -91.398547   30.082796    0.000000    0.000000    0.000000    0.000000
  0.020801603   -0.598998 -129.858902  -91.699295   31.178051    0.000000    0.000000    0.000000    0.000000
  0.021002004   -0.605530 -131.354538  -92.147566   34.082394    0.000000    0.000000    0.000000    0.000000
  0.021202405   -0.614232 -132.856400  -92.707923   35.941952    0.000000    0.000000    0.000000    0.000000
  0.021402806   -0.618526 -134.342194  -93.221737   34.838554    0.000000    0.000000    0.000000    0.000000
  0.021603206   -0.623867 -135.836395  -92.859693   31.715645    0.000000    0.000000    0.000000    0.000000
  0.021803607   -0.628186 -137.317505  -93.247022   35.437584    0.000000    0.000000    0.000000    0.000000
  0.022004008   -0.632403 -138.831833  -92.588019   37.630066    0.000000    0.000000    0.000000    0.000000
  0.022204409   -0.639696 -140.344193  -92.923221   39.417366    0.000000    0.000000    0.000000    0.000000
  0.022404810   -0.644759 -141.862244  -93.396309   37.976196    0.000000    0.000000    0.000000    0.000000
  0.022605210   -0.648194 -143.429184  -92.228569   34.773045    0.000000    0.000000    0.000000    0.000000
  0.022805611   -0.650450 -144.988297  -93.107074   40.565800    0.000000    0.000000    0.000000    0.000000
  0.023006012   -0.655263 -146.525101  -92.884250   39.179169    0.000000    0.000000    0.000000    0.000000
  0.023206413   -0.656314 -148.043304  -92.554916   36.193981    0.000000    0.000000    0.000000    0.000000
  0.023406814   -0.659701 -149.590851  -93.065627   34.611439    0.000000    0.000000    0.000000    0.000000
  0.023607214   -0.664771 -151.135101  -93.243419   34.133110    0.000000    0.000000    0.000000    0.000000
  0.023807615   -0.673340 -152.706741  -93.157385   31.640266    0.000000    0.000000    0.000000    0.000000
  0.024008016   -0.681447 -154.283066  -92.503383   30.561329    0.000000    0.000000    0.000000    0.000000
  0.024208417   -0.689775 -155.886520  -92.713794   25.604908    0.000000    0.000000    0.000000    0.000000
  0.024408818   -0.697228 -157.489960  -93.280650   28.976271    0.000000    0.000000    0.000000    0.000000
  0.024609218   -0.705908 -159.078339  -92.693134   26.209848    0.000000    0.000000    0.000000    0.000000
  0.024809619   -0.713879 -160.691055  -93.911017   25.172447    0.000000    0.000000    0.000000    0.000000
  0.025010020   -0.723135 -162.306671  -92.849437   26.871923    0.000000    0.000000    0.000000    0.000000
  0.025210421   -0.735512 -163.935608  -93.351406   22.929346    0.000000    0.000000    0.000000    0.000000
  0.025410822   -0.748603 -165.586960  -93.735897   21.647753    0.000000    0.000000    0.000000    0.000000
  0.025611222   -0.759915 -167.249069  -93.872488   21.496214    0.000000    0.000000    0.000000    0.000000
  0.025811623   -0.770847 -168.934097  -94.217385   17.193008    0.000000    0.000000    0.000000    0.000000
  0.026012024   -0.779246 -170.615768  -94.898580   20.513437    0.000000    0.000000    0.000000    0.000000
  0.026212425   -0.788925 -172.307709  -95.118951   16.977320    0.000000    0.000000    0.000000    0.000000
  0.026412826   -0.801408 -174.007370  -95.542817   19.105574    0.000000    0.000000    0.000000    0.000000
  0.026613226   -0.814864 -175.717896  -94.746927   23.354599    0.000000    0.000000    0.000000    0.000000
  0.026813627   -0.830883 -177.441437  -95.006460   24.893757    0.000000    0.000000    0.000000    0.000000
  0.027014028   -0.845825 -179.170914  -95.141543   23.991995    0.000000    0.000000    0.000000    0.000000
  0.027214429   -0.861574  179.081207  -96.464190   17.425102    0.000000    0.000000    0.000000    0.000000
  0.027414830   -0.875923  177.321457  -95.010377   18.559994    0.000000    0.000000    0.000000    0.000000
  0.027615230   -0.893172  175.543304  -95.634290   20.279554    0.000000    0.000000    0.000000    0.000000
  0.027815631   -0.911734  173.771317  -96.358367   19.642918    0.000000    0.000000    0.000000    0.000000
  0.028016032   -0.934216  171.989899  -96.230866   30.568085    0.000000    0.000000    0.000000    0.000000
  0.028216433   -0.956479  170.191650  -95.153248   23.609852    0.000000    0.000000    0.000000    0.000000
  0.028416834   -0.976996  168.393723  -96.549280   21.231297    0.000000    0.000000    0.000000    0.000000
  0.028617234   -0.997221  166.595886  -96.548486   22.032164    0.000000    0.000000    0.000000    0.000000
  0.028817635   -1.017041  164.806839  -95.912516   21.847864    0.000000    0.000000    0.000000    0.000000
  0.029018036   -1.038573  163.019241  -95.557264   18.783531    0.000000    0.000000    0.000000    0.000000
  0.029218437   -1.062399  161.224792  -95.613355   20.817593    0.000000    0.000000    0.000000    0.000000
  0.029418838   -1.089168  159.424316  -96.548054   23.752470    0.000000    0.000000    0.000000    0.000000
  0.029619238   -1.116976  157.606689  -96.286624   22.657700    0.000000    0.000000    0.000000    0.000000
  0.029819639   -1.148644  155.770752  -96.640968   19.278217    0.000000    0.000000    0.000000    0.000000
  0.030020040   -1.178151  153.902496  -95.814625   12.872695    0.000000    0.000000    0.000000    0.000000
  0.030220441   -1.210339  152.033356  -96.472086   21.834440    0.000000    0.000000    0.000000    0.000000
  0.030420842   -1.240534  150.157043  -96.627238   16.436659    0.000000    0.000000    0.000000    0.000000
  0.030621242   -1.273790  148.297745  -96.377392   13.528628    0.000000    0.000000    0.000000    0.000000
  0.030821643   -1.308353  146.435074  -96.470508    8.230835    0.000000    0.000000    0.000000    0.000000
  0.031022044   -1.344085  144.549484  -97.052083   11.486754    0.000000    0.000000    0.000000    0.000000
  0.031222445   -1.378261  142.676132  -97.249116   19.471243    0.000000    0.000000    0.000000    0.000000
  0.031422846   -1.413915  140.754578  -96.909523   12.692319    0.000000    0.000000    0.000000    0.000000
  0.031623246   -1.447064  138.807480  -96.643177   10.540326    0.000000    0.000000    0.000000    0.000000
  0.031823647   -1.479265  136.846603  -97.115698    6.931330    0.000000    0.000000    0.000000    0.000000
  0.032024048   -1.510395  134.914658  -97.300660   17.381914    0.000000    0.000000    0.000000    0.000000
  0.032224449   -1.541859  132.976028  -98.558896   17.857187    0.000000    0.000000    0.000000    0.000000
  0.032424850   -1.572291  131.062744  -97.026141   12.124247    0.000000    0.000000    0.000000    0.000000
  0.032625251   -1.606162  129.109558  -97.789194   11.539831    0.000000    0.000000    0.000000    0.000000
  0.032825651   -1.642051  127.187752  -98.327938   10.879801    0.000000    0.000000    0.000000    0.000000
  0.033026052   -1.682125  125.237572  -98.300187   11.510659    0.000000    0.000000    0.000000    0.000000
  0.033226453   -1.730014  123.269905  -97.705628   16.103886    0.000000    0.000000    0.000000    0.000000
  0.033426854   -1.776577  121.295624  -98.529005   10.755653    0.000000    0.000000    0.000000    0.000000
  0.033627255   -1.824507  119.265373  -97.340258    5.711516    0.000000    0.000000    0.000000    0.000000
  0.033827655   -1.872099  117.197136  -99.816001   13.330032    0.000000    0.000000    0.000000    0.000000
  0.034028056   -1.919344  115.103783  -98.884989   21.549543    0.000000    0.000000    0.000000    0.000000
  0.034228457   -1.962765  112.992500  -96.661183    9.455832    0.000000    0.000000    0.000000    0.000000
  0.034428858   -2.006922  110.868378  -98.053113   11.333820    0.000000    0.000000    0.000000    0.000000
  0.034629259   -2.048769  108.748177  -99.070697    5.391090    0.000000    0.000000    0.000000    0.000000
  0.034829659   -2.086445  106.640068  -99.615274   14.146345    0.000000    0.000000    0.000000    0.000000
  0.035030060   -2.126319  104.536179  -98.381451   16.419296    0.000000    0.000000    0.000000    0.000000
  0.035230461   -2.167387  102.431793  -98.432117    9.453421    0.000000    0.000000    0.000000    0.000000
  0.035430862   -2.206209  100.367981  -97.617468   12.804822    0.000000    0.000000    0.000000    0.000000
  0.035631263   -2.247813   98.286057  -99.626853   16.526703    0.000000    0.000000    0.000000    0.000000
  0.035831663   -2.291486   96.209167  -98.364741   10.311002    0.000000    0.000000    0.000000    0.000000
  0.036032064   -2.337768   94.150902  -98.383373    5.034998    0.000000    0.000000    0.000000    0.000000
  0.036232465   -2.383947   92.113136  -98.845818    8.031693    0.000000    0.000000    0.000000    0.000000
  0.036432866   -2.432475   90.078888  -98.532379   -0.027405    0.000000    0.000000    0.000000    0.000000
  0.036633267   -2.488866   88.016235  -97.624690   14.745941    0.000000    0.000000    0.000000    0.000000
  0.036833667   -2.550874   85.966240  -99.190120   -0.310540    0.000000    0.000000    0.000000    0.000000
  0.037034068   -2.611883   83.872261 -100.024712    8.126064    0.000000    0.000000    0.000000    0.000000
  0.037234469   -2.671378   81.762199 -100.478888    2.344769    0.000000    0.000000    0.000000    0.000000
  0.037434870   -2.737240   79.621063 -101.103241    4.882801    0.000000    0.000000    0.000000    0.000000
  0.037635271   -2.801085   77.463303  -99.877198    6.286316    0.000000    0.000000    0.000000    0.000000
  0.037835671   -2.866862   75.292061 -101.729746    4.632322    0.000000    0.000000    0.000000    0.000000
  0.038036072   -2.939082   73.132233 -100.213893   15.972781    0.000000    0.000000    0.000000    0.000000
  0.038236473   -2.994100   71.033630 -100.951578   18.373106    0.000000    0.000000    0.000000    0.000000
  0.038436874   -3.046391   68.893608  -99.820896   13.985876    0.000000    0.000000    0.000000    0.000000
  0.038637275   -3.090114   66.754974 -100.181530    9.230617    0.000000    0.000000    0.000000    0.000000
  0.038837675   -3.137322   64.631187 -102.064624   12.550271    0.000000    0.000000    0.000000    0.000000
  0.039038076   -3.183983   62.541336 -100.009826   14.549423    0.000000    0.000000    0.000000    0.000000
  0.039238477   -3.236352   60.454231  -97.760847    8.052597    0.000000    0.000000    0.000000    0.000000
  0.039438878   -3.292103   58.394600 -100.006714   12.534574    0.000000    0.000000    0.000000    0.000000
  0.039639279   -3.352283   56.323326  -98.594816    2.598722    0.000000    0.000000    0.000000    0.000000
  0.039839679   -3.417158   54.243382  -99.554428    9.951283    0.000000    0.000000    0.000000    0.000000
  0.040040080   -3.481178   52.143940 -100.157696    5.792603    0.000000    0.000000    0.000000    0.000000
  0.040240481   -3.544974   50.027615 -100.525079    0.289434    0.000000    0.000000    0.000000    0.000000
  0.040440882   -3.609563   47.917206  -98.697089    9.964996    0.000000    0.000000    0.000000    0.000000
  0.040641283   -3.671942   45.801105 -100.287688   -2.232445    0.000000    0.000000    0.000000    0.000000
  0.040841683   -3.734812   43.689701 -100.639492    9.863709    0.000000    0.000000    0.000000    0.000000
  0.041042084   -3.795597   41.582077  -99.191385    7.279379    0.000000    0.000000    0.000000    0.000000
  0.041242485   -3.855626   39.450726 -100.076268   -4.636440    0.000000    0.000000    0.000000    0.000000
  0.041442886   -3.912887   37.321049  -99.486839   -1.384969    0.000000    0.000000    0.000000    0.000000
  0.041643287   -3.968930   35.185108  -99.848148    6.991227    0.000000    0.000000    0.000000    0.000000
  0.041843687   -4.022508   33.094315  -99.982379   -0.770851    0.000000    0.000000    0.000000    0.000000
  0.042044088   -4.075515   31.018379 -103.052212    3.769030    0.000000    0.000000    0.000000    0.000000
  0.042244489   -4.127668   28.951656 -100.918700    2.005875    0.000000    0.000000    0.000000    0.000000
  0.042444890   -4.179877   26.910913 -100.048105    7.024656    0.000000    0.000000    0.000000    0.000000
  0.042645291   -4.234009   24.860815 -100.153107   10.132010    0.000000    0.000000    0.000000    0.000000
  0.042845691   -4.284956   22.827740 -101.189774    0.186173    0.000000    0.000000    0.000000    0.000000
  0.043046092   -4.338047   20.786493 -101.935371    7.421368    0.000000    0.000000    0.000000    0.000000
  0.043246493   -4.389398   18.755817 -101.765689    1.675003    0.000000    0.000000    0.000000    0.000000
  0.043446894   -4.439987   16.722988 -101.833392    8.685493    0.000000    0.000000    0.000000    0.000000
  0.043647295   -4.491979   14.700034 -102.990737   10.918923    0.000000    0.000000    0.000000    0.000000
  0.043847695   -4.544052   12.704997 -104.127873    0.160737    0.000000    0.000000    0.000000    0.000000
  0.044048096   -4.595987   10.690388 -102.229051   23.038130    0.000000    0.000000    0.000000    0.000000
  0.044248497   -4.645608    8.682494 -101.990030   11.410354    0.000000    0.000000    0.000000    0.000000
  0.044448898   -4.696343    6.694313 -102.418612   18.371540    0.000000    0.000000    0.000000    0.000000
  0.044649299   -4.743544    4.704491 -102.182108   19.311014    0.000000    0.000000    0.000000    0.000000
  0.044849699   -4.786369    2.731190 -101.230115   15.844847    0.000000    0.000000    0.000000    0.000000
  0.045050100   -4.830955    0.762361 -100.952945   10.631851    0.000000    0.000000    0.000000    0.000000
  0.045250501   -4.870928   -1.180150 -104.074056    1.318522    0.000000    0.000000    0.000000    0.000000
  0.045450902   -4.914348   -3.109233 -100.939489   10.048361    0.000000    0.000000    0.000000    0.000000
  0.045651303   -4.955926   -5.040797  -99.341390   13.544858    0.000000    0.000000    0.000000    0.000000
  0.045851703   -4.997557   -6.930041 -101.253889    9.848143    0.000000    0.000000    0.000000    0.000000
  0.046052104   -5.038827   -8.842126 -100.641781   11.785631    0.000000    0.000000    0.000000    0.000000
  0.046252505   -5.076587  -10.737614 -101.950489    8.456249    0.000000    0.000000    0.000000    0.000000
  0.046452906   -5.114000  -12.616349 -100.658303   -1.836143    0.000000    0.000000    0.000000    0.000000
  0.046653307   -5.147361  -14.525537 -101.857396   -8.900425    0.000000    0.000000    0.000000    0.000000
  0.046853707   -5.180102  -16.383516 -100.209859   -2.652201    0.000000    0.000000    0.000000    0.000000
  0.047054108   -5.211463  -18.252052 -102.240474   -4.900544    0.000000    0.000000    0.000000    0.000000
  0.047254509   -5.239579  -20.103184 -101.425167   -4.258932    0.000000    0.000000    0.000000    0.000000
  0.047454910   -5.267358  -21.936625 -101.678135   -4.624938    0.000000    0.000000    0.000000    0.000000
  0.047655311   -5.293661  -23.743784 -101.362294  -12.398866    0.000000    0.000000    0.000000    0.000000
  0.047855711   -5.321566  -25.525497 -101.913292    4.436016    0.000000    0.000000    0.000000    0.000000
  0.048056112   -5.350293  -27.321850 -101.607517   -0.610482    0.000000    0.000000    0.000000    0.000000
  0.048256513   -5.377373  -29.085651 -102.647215    1.014277    0.000000    0.000000    0.000000    0.000000
  0.048456914   -5.406217  -30.873045 -102.887901   -3.052788    0.000000    0.000000    0.000000    0.000000
  0.048657315   -5.427817  -32.645885 -102.524256   -1.439474    0.000000    0.000000    0.000000    0.000000
  0.048857715   -5.449263  -34.425842 -103.036047   10.525081    0.000000    0.000000    0.000000    0.000000
  0.049058116   -5.472634  -36.184429 -104.452183   -6.184137    0.000000    0.000000    0.000000    0.000000
  0.049258517   -5.492558  -37.922554 -101.853779    0.633978    0.000000    0.000000    0.000000    0.000000
  0.049458918   -5.515060  -39.651337 -102.265240   20.657265    0.000000    0.000000    0.000000    0.000000
  0.049659319   -5.540789  -41.401245 -103.602355    7.691965    0.000000    0.000000    0.000000    0.000000
  0.049859719   -5.557572  -43.104607 -103.618634   12.696465    0.000000    0.000000    0.000000    0.000000
  0.050060120   -5.576780  -44.849094 -103.250398   12.061020    0.000000    0.000000    0.000000    0.000000
  0.050260521   -5.591858  -46.561375 -105.668604   11.773275    0.000000    0.000000    0.000000    0.000000
  0.050460922   -5.609212  -48.290157 -102.011377   15.769319    0.000000    0.000000    0.000000    0.000000
  0.050661323   -5.617649  -49.992718 -101.066932   21.419802    0.000000    0.000000    0.000000    0.000000
  0.050861723   -5.629015  -51.649307 -102.862583   19.997889    0.000000    0.000000    0.000000    0.000000
  0.051062124   -5.640898  -53.310234 -101.444998    4.916142    0.000000    0.000000    0.000000    0.000000
  0.051262525   -5.653158  -54.920387 -101.050230   10.902785    0.000000    0.000000    0.000000    0.000000
  0.051462926   -5.663950  -56.531235 -102.935370    6.240314    0.000000    0.000000    0.000000    0.000000
  0.051663327   -5.674821  -58.121227 -102.485791   13.603342    0.000000    0.000000    0.000000    0.000000
  0.051863727   -5.690866  -59.711159 -103.403332    4.207794    0.000000    0.000000    0.000000    0.000000
  0.052064128   -5.707289  -61.320782 -103.321167   -2.781871    0.000000    0.000000    0.000000    0.000000
  0.052264529   -5.718365  -62.908268 -101.455300   15.901388    0.000000    0.000000    0.000000    0.000000
  0.052464930   -5.735704  -64.509949 -102.658111    0.940345    0.000000    0.000000    0.000000    0.000000
  0.052665331   -5.746924  -66.080688 -102.258320   19.862108    0.000000    0.000000    0.000000    0.000000
  0.052865731   -5.759212  -67.678658 -101.333875    4.163475    0.000000    0.000000    0.000000    0.000000
