! Anritsu VNA Master:                     Model: MS2036C/10/77
! SN:                                  1601066
! /card0/usr/256.ns.sma.r50.12.s2p
! Existing Calibration Information:
! TYPE:                         Current Settings,       Active Cal Settings
! TIME:             	   12/19/2017 03:42:47 PM,    12/19/2017 03:30:41 PM
! INTERNAL TEMP:    	                   47.5 C,                    48.0 C
! # POINTS:         	                      501,                       501
! START FREQ:       	               10.000 MHz,                10.000 MHz
! STOP FREQ:        	              110.000 MHz,               110.000 MHz
! SOURCE POWER:     	                     High,                      High
! IFBW:             	                   100 Hz,                    100 Hz
! AVG FACTOR:       	                       1 ,                        1 
! REF PLANE 1:      	                     0 mm,                      0 mm
! REF PLANE 2:      	                     0 mm,                      0 mm
! CAL TYPE:         	                 Full S11,                  Full S11
! CAL METHOD:       	                     SOLT,                      SOLT
! CAL LINE TYPE:    	                     Coax,                      Coax
! DUT PORT 1:       	                N-Conn(F),                 N-Conn(F)
! DUT PORT 2:       	                K-Conn(F),                 K-Conn(F)
! CAL STATUS:       	        OK: Accuracy High,                        --
# GHZ S DB R 50.0
! FREQ.GHZ       S11DB        S11A       S21DB        S21A       S12DB        S12A       S22DB        S22A
  0.010000000  -98.294563  -19.349262  -83.426424   79.228859    0.000000    0.000000    0.000000    0.000000
  0.010200000  -98.024887  -21.959225  -83.081152   75.492416    0.000000    0.000000    0.000000    0.000000
  0.010400000  -98.326318  -16.435869  -83.794974   73.514595    0.000000    0.000000    0.000000    0.000000
  0.010600000  -97.330195  -16.060944  -83.398552   73.295753    0.000000    0.000000    0.000000    0.000000
  0.010800000  -96.883047  -19.713032  -84.056138   72.980850    0.000000    0.000000    0.000000    0.000000
  0.011000000  -97.028231  -18.872913  -84.370508   72.043480    0.000000    0.000000    0.000000    0.000000
  0.011200000  -96.334064  -16.095812  -84.406945   74.054459    0.000000    0.000000    0.000000    0.000000
  0.011400000  -96.368722  -18.646130  -84.777343   68.791878    0.000000    0.000000    0.000000    0.000000
  0.011600000  -96.333029  -23.491537  -84.531768   70.678947    0.000000    0.000000    0.000000    0.000000
  0.011800000  -96.051970  -19.149857  -84.904794   66.832161    0.000000    0.000000    0.000000    0.000000
  0.012000000  -96.164846  -22.550293  -85.021494   65.184387    0.000000    0.000000    0.000000    0.000000
  0.012200000  -95.601134  -22.243090  -85.418870   65.264206    0.000000    0.000000    0.000000    0.000000
  0.012400000  -95.373448  -21.523247  -86.136226   62.782852    0.000000    0.000000    0.000000    0.000000
  0.012600000  -95.589426  -23.336432  -85.686953   61.382877    0.000000    0.000000    0.000000    0.000000
  0.012800000  -94.935547  -23.843729  -85.684204   62.318180    0.000000    0.000000    0.000000    0.000000
  0.013000000  -94.692515  -23.025476  -85.987919   60.891552    0.000000    0.000000    0.000000    0.000000
  0.013200000  -94.758223  -25.872595  -85.643650   60.843983    0.000000    0.000000    0.000000    0.000000
  0.013400000  -94.624914  -24.439203  -86.235970   58.012970    0.000000    0.000000    0.000000    0.000000
  0.013600000  -94.569335  -25.162216  -86.112996   60.295742    0.000000    0.000000    0.000000    0.000000
  0.013800000  -94.198683  -24.435600  -86.781282   58.870724    0.000000    0.000000    0.000000    0.000000
  0.014000000  -93.987958  -25.577347  -86.653243   54.803921    0.000000    0.000000    0.000000    0.000000
  0.014200000  -93.581846  -25.762127  -86.669140   56.400513    0.000000    0.000000    0.000000    0.000000
  0.014400000  -93.289893  -26.979010  -86.881453   51.790150    0.000000    0.000000    0.000000    0.000000
  0.014600000  -93.543791  -25.440493  -86.919969   54.126102    0.000000    0.000000    0.000000    0.000000
  0.014800000  -92.995091  -27.973347  -87.286474   52.849026    0.000000    0.000000    0.000000    0.000000
  0.015000000  -92.951603  -27.104679  -87.180843   52.341312    0.000000    0.000000    0.000000    0.000000
  0.015200000  -92.900555  -28.025560  -87.629997   53.768650    0.000000    0.000000    0.000000    0.000000
  0.015400000  -92.720428  -27.859329  -87.932257   49.548111    0.000000    0.000000    0.000000    0.000000
  0.015600000  -92.212723  -27.967461  -88.412551   50.417999    0.000000    0.000000    0.000000    0.000000
  0.015800000  -92.313576  -29.831381  -88.376716   48.793602    0.000000    0.000000    0.000000    0.000000
  0.016000000  -92.054934  -31.283733  -88.264878   45.302692    0.000000    0.000000    0.000000    0.000000
  0.016200000  -91.595792  -31.541191  -88.640664   51.873772    0.000000    0.000000    0.000000    0.000000
  0.016400000  -91.658506  -31.999153  -89.338579   50.590652    0.000000    0.000000    0.000000    0.000000
  0.016600000  -91.375694  -31.024334  -89.216585   43.541416    0.000000    0.000000    0.000000    0.000000
  0.016800000  -90.997013  -32.389301  -88.780312   48.181301    0.000000    0.000000    0.000000    0.000000
  0.017000000  -90.847710  -32.596672  -89.384064   44.317799    0.000000    0.000000    0.000000    0.000000
  0.017200000  -90.505427  -30.633156  -89.493110   45.758629    0.000000    0.000000    0.000000    0.000000
  0.017400000  -90.752475  -32.234005  -89.611388   40.383053    0.000000    0.000000    0.000000    0.000000
  0.017600000  -90.323753  -32.451950  -89.751871   43.791798    0.000000    0.000000    0.000000    0.000000
  0.017800000  -90.290599  -30.792921  -89.676850   45.607944    0.000000    0.000000    0.000000    0.000000
  0.018000000  -89.900719  -32.507584  -89.704756   41.149780    0.000000    0.000000    0.000000    0.000000
  0.018200000  -89.804053  -31.636110  -90.106978   45.492760    0.000000    0.000000    0.000000    0.000000
  0.018400000  -89.464373  -31.109159  -90.181187   39.576965    0.000000    0.000000    0.000000    0.000000
  0.018600000  -89.430003  -30.740276  -90.919054   45.079609    0.000000    0.000000    0.000000    0.000000
  0.018800000  -89.037136  -29.839863  -90.625776   37.302959    0.000000    0.000000    0.000000    0.000000
  0.019000000  -88.897271  -30.836576  -90.596956   42.453510    0.000000    0.000000    0.000000    0.000000
  0.019200000  -88.838366  -29.384020  -90.606011   35.720318    0.000000    0.000000    0.000000    0.000000
  0.019400000  -88.722637  -29.184080  -90.129341   41.153538    0.000000    0.000000    0.000000    0.000000
  0.019600000  -88.573571  -29.187597  -91.411279   37.467327    0.000000    0.000000    0.000000    0.000000
  0.019800000  -88.337245  -29.293455  -90.731823   38.145004    0.000000    0.000000    0.000000    0.000000
  0.020000000  -88.031711  -29.768225  -90.641454   36.706585    0.000000    0.000000    0.000000    0.000000
  0.020200000  -88.205404  -29.263939  -90.789255   39.935162    0.000000    0.000000    0.000000    0.000000
  0.020400000  -88.006257  -28.813070  -91.605041   40.810825    0.000000    0.000000    0.000000    0.000000
  0.020600000  -88.232929  -29.351475  -92.032782   39.441353    0.000000    0.000000    0.000000    0.000000
  0.020800000  -87.663201  -28.207888  -91.650953   32.622559    0.000000    0.000000    0.000000    0.000000
  0.021000000  -87.707132  -29.691877  -91.350176   31.714146    0.000000    0.000000    0.000000    0.000000
  0.021200000  -87.599115  -29.946709  -92.192868   33.544270    0.000000    0.000000    0.000000    0.000000
  0.021400000  -87.347446  -29.756853  -91.803257   33.941971    0.000000    0.000000    0.000000    0.000000
  0.021600000  -87.251371  -29.902035  -92.510388   31.556520    0.000000    0.000000    0.000000    0.000000
  0.021800000  -87.172252  -30.837631  -92.026238   40.161777    0.000000    0.000000    0.000000    0.000000
  0.022000000  -87.012138  -30.545559  -91.962033   31.591494    0.000000    0.000000    0.000000    0.000000
  0.022200000  -86.769551  -30.721409  -91.948556   32.574966    0.000000    0.000000    0.000000    0.000000
  0.022400000  -86.752747  -30.095947  -92.290753   35.238213    0.000000    0.000000    0.000000    0.000000
  0.022600000  -86.709527  -30.917141  -93.956630   33.318874    0.000000    0.000000    0.000000    0.000000
  0.022800000  -86.767836  -31.609924  -92.050305   33.065651    0.000000    0.000000    0.000000    0.000000
  0.023000000  -86.617784  -30.895992  -92.588608   32.466248    0.000000    0.000000    0.000000    0.000000
  0.023200000  -86.335524  -31.716702  -93.659556   32.248020    0.000000    0.000000    0.000000    0.000000
  0.023400000  -85.337082  -32.446301  -92.363264   24.082382    0.000000    0.000000    0.000000    0.000000
  0.023600000  -86.048419  -32.505623  -93.655018   30.020334    0.000000    0.000000    0.000000    0.000000
  0.023800000  -85.769663  -34.487675  -93.785127   26.860796    0.000000    0.000000    0.000000    0.000000
  0.024000000  -85.857749  -33.252819  -94.067946   24.252054    0.000000    0.000000    0.000000    0.000000
  0.024200000  -85.709855  -33.691906  -93.693832   33.189079    0.000000    0.000000    0.000000    0.000000
  0.024400000  -85.567578  -34.524570  -94.278974   21.378290    0.000000    0.000000    0.000000    0.000000
  0.024600000  -85.427583  -34.173016  -94.677862   27.581341    0.000000    0.000000    0.000000    0.000000
  0.024800000  -85.364268  -36.096382  -94.607447   31.257486    0.000000    0.000000    0.000000    0.000000
  0.025000000  -84.913037  -36.262169  -93.328738   30.920864    0.000000    0.000000    0.000000    0.000000
  0.025200000  -84.844319  -36.547604  -93.891445   23.407171    0.000000    0.000000    0.000000    0.000000
  0.025400000  -84.831693  -36.580330  -94.434497   25.081921    0.000000    0.000000    0.000000    0.000000
  0.025600000  -84.740181  -38.157215  -93.986712   24.119106    0.000000    0.000000    0.000000    0.000000
  0.025800000  -84.505462  -37.479359  -94.371876   12.978023    0.000000    0.000000    0.000000    0.000000
  0.026000000  -84.534995  -37.259220  -94.568836   26.289341    0.000000    0.000000    0.000000    0.000000
  0.026200000  -84.067887  -37.322086  -94.105896   20.925716    0.000000    0.000000    0.000000    0.000000
  0.026400000  -84.075277  -38.396049  -94.722645   15.980345    0.000000    0.000000    0.000000    0.000000
  0.026600000  -83.937549  -37.689327  -94.547668   19.890060    0.000000    0.000000    0.000000    0.000000
  0.026800000  -83.929514  -37.281178  -95.262785   21.132294    0.000000    0.000000    0.000000    0.000000
  0.027000000  -83.642998  -38.408035  -95.390848   13.901567    0.000000    0.000000    0.000000    0.000000
  0.027200000  -83.535169  -38.659138  -96.311291   16.225994    0.000000    0.000000    0.000000    0.000000
  0.027400000  -83.388578  -37.885166  -95.360498   12.861956    0.000000    0.000000    0.000000    0.000000
  0.027600000  -83.359141  -36.501495  -94.427908   24.858583    0.000000    0.000000    0.000000    0.000000
  0.027800000  -83.062191  -36.490673  -95.868473   19.432800    0.000000    0.000000    0.000000    0.000000
  0.028000000  -83.036643  -36.437286  -95.815021   24.490137    0.000000    0.000000    0.000000    0.000000
  0.028200000  -82.835899  -37.110836  -95.945757   20.927134    0.000000    0.000000    0.000000    0.000000
  0.028400000  -82.689996  -35.752510  -97.215230   18.495787    0.000000    0.000000    0.000000    0.000000
  0.028600000  -82.731555  -36.213531  -95.681589   17.412699    0.000000    0.000000    0.000000    0.000000
  0.028800000  -82.673144  -36.666515  -96.726581   15.924282    0.000000    0.000000    0.000000    0.000000
  0.029000000  -82.542843  -35.574718  -95.242208   23.940830    0.000000    0.000000    0.000000    0.000000
  0.029200000  -82.379696  -36.105301  -96.962861   16.757196    0.000000    0.000000    0.000000    0.000000
  0.029400000  -82.318001  -35.209782  -97.146915   13.031227    0.000000    0.000000    0.000000    0.000000
  0.029600000  -82.308550  -35.306648  -96.640778   19.117306    0.000000    0.000000    0.000000    0.000000
  0.029800000  -82.382007  -35.320152  -96.361615   19.556908    0.000000    0.000000    0.000000    0.000000
  0.030000000  -82.074505  -35.237518  -97.268943   23.721163    0.000000    0.000000    0.000000    0.000000
  0.030200000  -82.172922  -34.205166  -97.235426   17.112970    0.000000    0.000000    0.000000    0.000000
  0.030400000  -82.147317  -34.728287  -96.959130   21.681948    0.000000    0.000000    0.000000    0.000000
  0.030600000  -81.858277  -33.985905  -97.005240   14.621109    0.000000    0.000000    0.000000    0.000000
  0.030800000  -81.938627  -34.782433  -96.576991   13.020875    0.000000    0.000000    0.000000    0.000000
  0.031000000  -81.903468  -34.516571  -97.820424   20.195318    0.000000    0.000000    0.000000    0.000000
  0.031200000  -81.638256  -35.795357  -94.793084   13.207360    0.000000    0.000000    0.000000    0.000000
  0.031400000  -81.558787  -35.808563  -97.505732   10.139174    0.000000    0.000000    0.000000    0.000000
  0.031600000  -81.647716  -35.917500  -97.143536   16.460987    0.000000    0.000000    0.000000    0.000000
  0.031800000  -81.459311  -35.445831  -96.120315   21.208805    0.000000    0.000000    0.000000    0.000000
  0.032000000  -81.533702  -35.085297  -96.887635   -2.968077    0.000000    0.000000    0.000000    0.000000
  0.032200000  -81.559634  -36.309204  -97.221256   12.734232    0.000000    0.000000    0.000000    0.000000
  0.032400000  -81.160252  -34.872711  -98.876245    2.970512    0.000000    0.000000    0.000000    0.000000
  0.032600000  -81.107198  -36.471920  -96.404099   19.527494    0.000000    0.000000    0.000000    0.000000
  0.032800000  -81.108856  -37.064083  -99.277936   17.774742    0.000000    0.000000    0.000000    0.000000
  0.033000000  -81.092878  -37.050182  -96.686740   25.809593    0.000000    0.000000    0.000000    0.000000
  0.033200000  -81.087939  -36.083996  -98.010241   11.035548    0.000000    0.000000    0.000000    0.000000
  0.033400000  -80.773386  -37.368137  -99.832422    9.681776    0.000000    0.000000    0.000000    0.000000
  0.033600000  -80.882780  -37.638443  -97.763061    9.445373    0.000000    0.000000    0.000000    0.000000
  0.033800000  -80.723567  -38.786861  -98.035327   15.980918    0.000000    0.000000    0.000000    0.000000
  0.034000000  -80.675870  -39.160748  -99.916755    9.079016    0.000000    0.000000    0.000000    0.000000
  0.034200000  -80.309113  -38.813225  -96.824257   16.337011    0.000000    0.000000    0.000000    0.000000
  0.034400000  -80.206096  -39.479992  -98.096932   13.282625    0.000000    0.000000    0.000000    0.000000
  0.034600000  -80.294085  -39.371651  -99.282220    9.898315    0.000000    0.000000    0.000000    0.000000
  0.034800000  -80.063294  -39.458801  -99.954939    7.630174    0.000000    0.000000    0.000000    0.000000
  0.035000000  -79.884100  -40.156712  -97.233801   14.336884    0.000000    0.000000    0.000000    0.000000
  0.035200000  -79.864028  -40.580475  -99.452543   10.650210    0.000000    0.000000    0.000000    0.000000
  0.035400000  -79.706851  -40.713421  -97.086583   11.637104    0.000000    0.000000    0.000000    0.000000
  0.035600000  -79.605902  -40.948910  -97.373473    9.070156    0.000000    0.000000    0.000000    0.000000
  0.035800000  -79.633016  -40.604416  -99.956564   14.556643    0.000000    0.000000    0.000000    0.000000
  0.036000000  -79.369569  -40.177345  -98.343991    9.638700    0.000000    0.000000    0.000000    0.000000
  0.036200000  -79.375232  -39.566479  -99.932747   18.398289    0.000000    0.000000    0.000000    0.000000
  0.036400000  -79.176361  -40.015491  -99.118222   -1.560277    0.000000    0.000000    0.000000    0.000000
  0.036600000  -79.245220  -39.534363  -99.735913   26.328072    0.000000    0.000000    0.000000    0.000000
  0.036800000  -79.018251  -39.659248  -98.569327   16.131569    0.000000    0.000000    0.000000    0.000000
  0.037000000  -78.975955  -39.257038  -99.011706   17.415945    0.000000    0.000000    0.000000    0.000000
  0.037200000  -78.852857  -39.774097  -98.297334   11.702945    0.000000    0.000000    0.000000    0.000000
  0.037400000  -78.860797  -37.760830 -100.634311   11.728263    0.000000    0.000000    0.000000    0.000000
  0.037600000  -79.021505  -38.211800 -100.512818   12.169577    0.000000    0.000000    0.000000    0.000000
  0.037800000  -78.833165  -38.585785  -98.683069   15.628631    0.000000    0.000000    0.000000    0.000000
  0.038000000  -78.687541  -38.624065  -97.856631   -0.543233    0.000000    0.000000    0.000000    0.000000
  0.038200000  -78.722295  -38.290726 -100.011301   15.565446    0.000000    0.000000    0.000000    0.000000
  0.038400000  -78.718824  -39.521923  -98.204645    3.916148    0.000000    0.000000    0.000000    0.000000
  0.038600000  -78.763135  -38.542461  -99.782451   14.325863    0.000000    0.000000    0.000000    0.000000
  0.038800000  -78.510784  -38.358158 -100.133995   23.534468    0.000000    0.000000    0.000000    0.000000
  0.039000000  -78.487115  -39.143345  -99.697924    1.797676    0.000000    0.000000    0.000000    0.000000
  0.039200000  -78.375233  -38.087406 -102.926006   -6.918778    0.000000    0.000000    0.000000    0.000000
  0.039400000  -78.536505  -39.213753 -100.452360    2.454795    0.000000    0.000000    0.000000    0.000000
  0.039600000  -78.385901  -39.081863 -100.000698   13.669267    0.000000    0.000000    0.000000    0.000000
  0.039800000  -78.348941  -38.096153  -99.762508   20.238161    0.000000    0.000000    0.000000    0.000000
  0.040000000  -78.327040  -39.060734  -99.995363   13.196188    0.000000    0.000000    0.000000    0.000000
  0.040200000  -78.179504  -39.575493 -101.618208   10.218290    0.000000    0.000000    0.000000    0.000000
  0.040400000  -78.187723  -39.599575 -100.788962   14.773100    0.000000    0.000000    0.000000    0.000000
  0.040600000  -78.257772  -39.478584  -99.260192   -0.677222    0.000000    0.000000    0.000000    0.000000
  0.040800000  -77.991032  -41.333160 -100.410788    1.539254    0.000000    0.000000    0.000000    0.000000
  0.041000000  -78.071352  -41.205009 -102.063226    0.290599    0.000000    0.000000    0.000000    0.000000
  0.041200000  -77.988863  -40.719036 -100.368966    5.309915    0.000000    0.000000    0.000000    0.000000
  0.041400000  -77.802141  -42.057148  -98.956373   -6.840967    0.000000    0.000000    0.000000    0.000000
  0.041600000  -77.691245  -42.705772 -100.438994    6.531118    0.000000    0.000000    0.000000    0.000000
  0.041800000  -77.760512  -42.168468  -98.286106    4.333766    0.000000    0.000000    0.000000    0.000000
  0.042000000  -77.635114  -43.309525  -99.631793   11.900313    0.000000    0.000000    0.000000    0.000000
  0.042200000  -77.365468  -44.096157 -101.206347    8.638572    0.000000    0.000000    0.000000    0.000000
  0.042400000  -77.346131  -43.854122 -101.285833  -17.058636    0.000000    0.000000    0.000000    0.000000
  0.042600000  -77.187393  -44.140911 -101.387848   -0.545861    0.000000    0.000000    0.000000    0.000000
  0.042800000  -77.025086  -45.323978 -100.768908   12.754734    0.000000    0.000000    0.000000    0.000000
