! Anritsu VNA Master:                     Model: MS2036C/10/77
! SN:                                  1601066
! /card0/usr/256.ns.sma.r200.22.s2p
! Existing Calibration Information:
! TYPE:                         Current Settings,       Active Cal Settings
! TIME:             	   12/19/2017 03:54:25 PM,    12/19/2017 03:30:41 PM
! INTERNAL TEMP:    	                   47.3 C,                    48.0 C
! # POINTS:         	                      501,                       501
! START FREQ:       	               10.000 MHz,                10.000 MHz
! STOP FREQ:        	              110.000 MHz,               110.000 MHz
! SOURCE POWER:     	                     High,                      High
! IFBW:             	                   100 Hz,                    100 Hz
! AVG FACTOR:       	                       1 ,                        1 
! REF PLANE 1:      	                     0 mm,                      0 mm
! REF PLANE 2:      	                     0 mm,                      0 mm
! CAL TYPE:         	                 Full S11,                  Full S11
! CAL METHOD:       	                     SOLT,                      SOLT
! CAL LINE TYPE:    	                     Coax,                      Coax
! DUT PORT 1:       	                N-Conn(F),                 N-Conn(F)
! DUT PORT 2:       	                K-Conn(F),                 K-Conn(F)
! CAL STATUS:       	        OK: Accuracy High,                        --
# GHZ S DB R 50.0
! FREQ.GHZ       S11DB        S11A       S21DB        S21A       S12DB        S12A       S22DB        S22A
  0.010000000  -50.653324 -106.555550  -84.525661   73.467819    0.000000    0.000000    0.000000    0.000000
  0.010200000  -50.703218 -108.872833  -84.666910   72.871086    0.000000    0.000000    0.000000    0.000000
  0.010400000  -51.051557 -104.977661  -84.785605   76.112190    0.000000    0.000000    0.000000    0.000000
  0.010600000  -50.441809 -105.747986  -85.412198   73.934776    0.000000    0.000000    0.000000    0.000000
  0.010800000  -50.130298 -107.817307  -85.010743   73.963036    0.000000    0.000000    0.000000    0.000000
  0.011000000  -50.452903 -108.211578  -84.997874   75.373337    0.000000    0.000000    0.000000    0.000000
  0.011200000  -49.859715 -106.746925  -85.360582   74.912712    0.000000    0.000000    0.000000    0.000000
  0.011400000  -49.869627 -108.663254  -84.965031   75.538673    0.000000    0.000000    0.000000    0.000000
  0.011600000  -50.093178 -114.405594  -85.081521   75.184349    0.000000    0.000000    0.000000    0.000000
  0.011800000  -49.922277 -109.907837  -85.243300   74.100777    0.000000    0.000000    0.000000    0.000000
  0.012000000  -50.017055 -114.779366  -85.156133   71.610748    0.000000    0.000000    0.000000    0.000000
  0.012200000  -49.470065 -114.172325  -85.094810   74.652031    0.000000    0.000000    0.000000    0.000000
  0.012400000  -49.499431 -115.443008  -84.937811   70.577057    0.000000    0.000000    0.000000    0.000000
  0.012600000  -49.600615 -117.009567  -85.615392   69.002602    0.000000    0.000000    0.000000    0.000000
  0.012800000  -49.276793 -116.036812  -85.056569   67.310471    0.000000    0.000000    0.000000    0.000000
  0.013000000  -48.943979 -117.215721  -85.464430   66.443535    0.000000    0.000000    0.000000    0.000000
  0.013200000  -49.102314 -119.482254  -85.353002   63.082874    0.000000    0.000000    0.000000    0.000000
  0.013400000  -49.108863 -119.912971  -85.200091   59.869839    0.000000    0.000000    0.000000    0.000000
  0.013600000  -49.020778 -120.022095  -85.635682   58.640549    0.000000    0.000000    0.000000    0.000000
  0.013800000  -48.975286 -118.838829  -85.450966   56.667347    0.000000    0.000000    0.000000    0.000000
  0.014000000  -48.827810 -121.112862  -85.761505   55.594982    0.000000    0.000000    0.000000    0.000000
  0.014200000  -48.501032 -120.813667  -86.253030   51.347137    0.000000    0.000000    0.000000    0.000000
  0.014400000  -48.366682 -121.702728  -86.267692   55.267952    0.000000    0.000000    0.000000    0.000000
  0.014600000  -48.592835 -120.472282  -86.632759   50.545586    0.000000    0.000000    0.000000    0.000000
  0.014800000  -48.260995 -122.390327  -86.849358   52.537163    0.000000    0.000000    0.000000    0.000000
  0.015000000  -48.343170 -122.518196  -87.834563   49.835945    0.000000    0.000000    0.000000    0.000000
  0.015200000  -48.279905 -122.936600  -87.866038   51.160828    0.000000    0.000000    0.000000    0.000000
  0.015400000  -48.200053 -123.853584  -88.217643   46.372429    0.000000    0.000000    0.000000    0.000000
  0.015600000  -47.896788 -124.518677  -87.847305   44.917904    0.000000    0.000000    0.000000    0.000000
  0.015800000  -48.071234 -125.537468  -88.744683   45.991627    0.000000    0.000000    0.000000    0.000000
  0.016000000  -48.036192 -126.881798  -88.812670   45.486446    0.000000    0.000000    0.000000    0.000000
  0.016200000  -47.829425 -126.774788  -88.899203   47.121147    0.000000    0.000000    0.000000    0.000000
  0.016400000  -47.842037 -127.458679  -89.674916   45.365913    0.000000    0.000000    0.000000    0.000000
  0.016600000  -47.812389 -127.112579  -89.763282   48.214756    0.000000    0.000000    0.000000    0.000000
  0.016800000  -47.548063 -128.921844  -89.655514   44.374580    0.000000    0.000000    0.000000    0.000000
  0.017000000  -47.601858 -129.110413  -90.054519   44.811642    0.000000    0.000000    0.000000    0.000000
  0.017200000  -47.485520 -128.215576  -90.156525   48.537102    0.000000    0.000000    0.000000    0.000000
  0.017400000  -47.500333 -129.494431  -90.056733   46.710739    0.000000    0.000000    0.000000    0.000000
  0.017600000  -47.442965 -129.967743  -90.549245   47.962257    0.000000    0.000000    0.000000    0.000000
  0.017800000  -47.524608 -129.518173  -90.864078   45.621277    0.000000    0.000000    0.000000    0.000000
  0.018000000  -47.365716 -131.254837  -90.740234   46.348675    0.000000    0.000000    0.000000    0.000000
  0.018200000  -47.361857 -131.901901  -90.723783   49.812027    0.000000    0.000000    0.000000    0.000000
  0.018400000  -47.156201 -130.632980  -90.131617   45.026016    0.000000    0.000000    0.000000    0.000000
  0.018600000  -47.165027 -131.030045  -90.674741   43.519905    0.000000    0.000000    0.000000    0.000000
  0.018800000  -46.907031 -131.314117  -90.859710   47.450748    0.000000    0.000000    0.000000    0.000000
  0.019000000  -46.940941 -133.715271  -90.058526   46.404125    0.000000    0.000000    0.000000    0.000000
  0.019200000  -47.046515 -132.028061  -90.205445   38.433929    0.000000    0.000000    0.000000    0.000000
  0.019400000  -46.878002 -131.857651  -90.299177   40.076878    0.000000    0.000000    0.000000    0.000000
  0.019600000  -46.881560 -132.706772  -89.991847   39.726631    0.000000    0.000000    0.000000    0.000000
  0.019800000  -46.829952 -132.940643  -91.342389   37.042496    0.000000    0.000000    0.000000    0.000000
  0.020000000  -46.559092 -133.947647  -90.977339   42.668648    0.000000    0.000000    0.000000    0.000000
  0.020200000  -46.798809 -134.457611  -91.023427   36.392742    0.000000    0.000000    0.000000    0.000000
  0.020400000  -46.557361 -134.595932  -91.706138   38.308262    0.000000    0.000000    0.000000    0.000000
  0.020600000  -46.935722 -135.306732  -90.315152   38.975266    0.000000    0.000000    0.000000    0.000000
  0.020800000  -46.450298 -135.770004  -91.346434   34.892342    0.000000    0.000000    0.000000    0.000000
  0.021000000  -46.483835 -137.207306  -91.592113   33.728638    0.000000    0.000000    0.000000    0.000000
  0.021200000  -46.339815 -137.204895  -91.524607   33.413597    0.000000    0.000000    0.000000    0.000000
  0.021400000  -46.338480 -137.686768  -91.380049   34.328083    0.000000    0.000000    0.000000    0.000000
  0.021600000  -46.264458 -137.661621  -91.354001   35.952774    0.000000    0.000000    0.000000    0.000000
  0.021800000  -46.209879 -139.062592  -92.375523   23.760969    0.000000    0.000000    0.000000    0.000000
  0.022000000  -46.052509 -139.119171  -92.581724   26.021526    0.000000    0.000000    0.000000    0.000000
  0.022200000  -45.891758 -139.195023  -92.552982   31.210936    0.000000    0.000000    0.000000    0.000000
  0.022400000  -45.899835 -139.002579  -93.757737   17.771727    0.000000    0.000000    0.000000    0.000000
  0.022600000  -45.831141 -140.230881  -92.663534   28.345545    0.000000    0.000000    0.000000    0.000000
  0.022800000  -45.922841 -140.854736  -93.440647   28.887835    0.000000    0.000000    0.000000    0.000000
  0.023000000  -45.876483 -139.972763  -93.464189   32.286469    0.000000    0.000000    0.000000    0.000000
  0.023200000  -45.693673 -140.643433  -93.454201   26.924950    0.000000    0.000000    0.000000    0.000000
  0.023400000  -44.796896 -141.909729  -93.718193   28.236347    0.000000    0.000000    0.000000    0.000000
  0.023600000  -45.595938 -141.717758  -92.963821   25.931196    0.000000    0.000000    0.000000    0.000000
  0.023800000  -45.498155 -143.346863  -94.792884   26.064280    0.000000    0.000000    0.000000    0.000000
  0.024000000  -45.619017 -142.360001  -93.892869   29.458473    0.000000    0.000000    0.000000    0.000000
  0.024200000  -45.460670 -142.731033  -95.213360   25.263721    0.000000    0.000000    0.000000    0.000000
  0.024400000  -45.446345 -143.578796  -94.094609   25.973001    0.000000    0.000000    0.000000    0.000000
  0.024600000  -45.403137 -143.481735  -94.399266   27.225061    0.000000    0.000000    0.000000    0.000000
  0.024800000  -45.499921 -144.885773  -94.155549   28.718487    0.000000    0.000000    0.000000    0.000000
  0.025000000  -45.205629 -144.809296  -94.219954   33.738670    0.000000    0.000000    0.000000    0.000000
  0.025200000  -45.197489 -145.305435  -93.178434   25.963943    0.000000    0.000000    0.000000    0.000000
  0.025400000  -45.279419 -145.687897  -94.115662   26.567030    0.000000    0.000000    0.000000    0.000000
  0.025600000  -45.198203 -146.160400  -93.790920   29.250647    0.000000    0.000000    0.000000    0.000000
  0.025800000  -45.183479 -146.285141  -93.910857   24.143974    0.000000    0.000000    0.000000    0.000000
  0.026000000  -45.295971 -146.636810  -94.295337   28.848669    0.000000    0.000000    0.000000    0.000000
  0.026200000  -45.032492 -146.908066  -93.609642   24.970404    0.000000    0.000000    0.000000    0.000000
  0.026400000  -45.129759 -147.267395  -93.441595   22.769606    0.000000    0.000000    0.000000    0.000000
  0.026600000  -45.165940 -147.843918  -94.303398   21.413130    0.000000    0.000000    0.000000    0.000000
  0.026800000  -45.210373 -147.491669  -93.895813   26.962780    0.000000    0.000000    0.000000    0.000000
  0.027000000  -45.109036 -148.749817  -95.188375   22.682478    0.000000    0.000000    0.000000    0.000000
  0.027200000  -45.017764 -148.846161  -95.477298   20.397144    0.000000    0.000000    0.000000    0.000000
  0.027400000  -45.103636 -148.719559  -95.304632   19.503828    0.000000    0.000000    0.000000    0.000000
  0.027600000  -45.127554 -148.932678  -95.467265   19.242262    0.000000    0.000000    0.000000    0.000000
  0.027800000  -44.938401 -148.723709  -94.770919   18.197218    0.000000    0.000000    0.000000    0.000000
  0.028000000  -45.048834 -149.510666  -95.998573   15.079497    0.000000    0.000000    0.000000    0.000000
  0.028200000  -44.993827 -150.437622  -95.185285   24.398430    0.000000    0.000000    0.000000    0.000000
  0.028400000  -44.953190 -149.762405  -96.206562   15.799163    0.000000    0.000000    0.000000    0.000000
  0.028600000  -45.050834 -151.152405  -95.577597   15.768161    0.000000    0.000000    0.000000    0.000000
  0.028800000  -45.037970 -152.124039  -96.130383   22.260483    0.000000    0.000000    0.000000    0.000000
  0.029000000  -44.990193 -151.503967  -95.510103   19.871323    0.000000    0.000000    0.000000    0.000000
  0.029200000  -44.894052 -151.962631  -97.079616   17.051895    0.000000    0.000000    0.000000    0.000000
  0.029400000  -44.922531 -152.335434  -96.760334   14.707273    0.000000    0.000000    0.000000    0.000000
  0.029600000  -44.919101 -152.347305  -96.280677   18.965076    0.000000    0.000000    0.000000    0.000000
  0.029800000  -44.956810 -152.273773  -97.570736   12.502445    0.000000    0.000000    0.000000    0.000000
  0.030000000  -44.809791 -152.741150  -96.186717   20.078587    0.000000    0.000000    0.000000    0.000000
  0.030200000  -44.939309 -152.961685  -96.877286   16.118200    0.000000    0.000000    0.000000    0.000000
  0.030400000  -44.927567 -154.180466  -97.151148   21.515486    0.000000    0.000000    0.000000    0.000000
  0.030600000  -44.756018 -153.554840  -97.861793   20.835491    0.000000    0.000000    0.000000    0.000000
  0.030800000  -44.877397 -154.947006  -96.628314   17.824045    0.000000    0.000000    0.000000    0.000000
  0.031000000  -44.804586 -154.861664  -97.544718   19.161787    0.000000    0.000000    0.000000    0.000000
  0.031200000  -44.630904 -155.914001  -96.920811   17.060101    0.000000    0.000000    0.000000    0.000000
  0.031400000  -44.562814 -156.201752  -98.722384   22.291901    0.000000    0.000000    0.000000    0.000000
  0.031600000  -44.575825 -155.966202  -98.120807    1.430447    0.000000    0.000000    0.000000    0.000000
  0.031800000  -44.435032 -155.750778  -97.818888   -0.719094    0.000000    0.000000    0.000000    0.000000
  0.032000000  -44.566584 -156.249786  -96.544599    1.561418    0.000000    0.000000    0.000000    0.000000
  0.032200000  -44.520937 -156.851944  -98.362784    7.556921    0.000000    0.000000    0.000000    0.000000
  0.032400000  -44.333075 -155.839676  -97.820759   20.805515    0.000000    0.000000    0.000000    0.000000
  0.032600000  -44.259536 -157.387024  -96.764204   10.390043    0.000000    0.000000    0.000000    0.000000
  0.032800000  -44.174080 -157.751663  -99.105408   14.472435    0.000000    0.000000    0.000000    0.000000
  0.033000000  -44.302207 -158.231277  -99.239916   14.785640    0.000000    0.000000    0.000000    0.000000
  0.033200000  -44.354516 -158.017731  -96.899653   23.456114    0.000000    0.000000    0.000000    0.000000
  0.033400000  -44.115542 -159.050751  -97.386873   15.370567    0.000000    0.000000    0.000000    0.000000
  0.033600000  -44.265056 -158.926270  -98.160384    8.276772    0.000000    0.000000    0.000000    0.000000
  0.033800000  -44.163647 -159.336884  -96.028242    9.928398    0.000000    0.000000    0.000000    0.000000
  0.034000000  -44.146938 -159.786102  -98.346924   13.807265    0.000000    0.000000    0.000000    0.000000
  0.034200000  -43.904962 -159.793060  -97.165192    9.181628    0.000000    0.000000    0.000000    0.000000
  0.034400000  -44.036193 -159.507889  -97.232621   -2.129673    0.000000    0.000000    0.000000    0.000000
  0.034600000  -44.088798 -159.527756  -97.555190   -0.157879    0.000000    0.000000    0.000000    0.000000
  0.034800000  -44.052357 -159.884979  -97.383206    4.126416    0.000000    0.000000    0.000000    0.000000
  0.035000000  -43.978162 -160.837708  -98.475325   14.053430    0.000000    0.000000    0.000000    0.000000
  0.035200000  -43.985728 -161.339310  -97.752857    6.940170    0.000000    0.000000    0.000000    0.000000
  0.035400000  -43.971260 -161.045319  -98.636864   15.345712    0.000000    0.000000    0.000000    0.000000
  0.035600000  -43.966268 -161.884415 -101.028022    3.518104    0.000000    0.000000    0.000000    0.000000
  0.035800000  -44.033910 -161.801361  -99.554512    2.506062    0.000000    0.000000    0.000000    0.000000
  0.036000000  -44.014979 -161.860641  -99.518630   -4.137110    0.000000    0.000000    0.000000    0.000000
  0.036200000  -44.018067 -161.710373  -98.716879    7.630180    0.000000    0.000000    0.000000    0.000000
  0.036400000  -43.927824 -162.658249 -101.173223    8.674562    0.000000    0.000000    0.000000    0.000000
  0.036600000  -43.983802 -163.099243 -100.601881   -0.317542    0.000000    0.000000    0.000000    0.000000
  0.036800000  -43.901666 -163.315048 -100.044549    7.339856    0.000000    0.000000    0.000000    0.000000
  0.037000000  -43.869703 -163.340118  -98.089690    5.493435    0.000000    0.000000    0.000000    0.000000
  0.037200000  -43.893922 -163.149551  -98.994477   12.857802    0.000000    0.000000    0.000000    0.000000
  0.037400000  -43.861857 -162.224304  -99.449234    4.810257    0.000000    0.000000    0.000000    0.000000
  0.037600000  -44.076379 -163.258850  -96.955631   10.521516    0.000000    0.000000    0.000000    0.000000
  0.037800000  -43.945879 -163.575897 -100.255768    6.934962    0.000000    0.000000    0.000000    0.000000
  0.038000000  -43.930827 -164.349640  -99.085315    3.688645    0.000000    0.000000    0.000000    0.000000
  0.038200000  -44.004207 -164.362152 -100.185840   12.674714    0.000000    0.000000    0.000000    0.000000
  0.038400000  -44.042866 -165.109451  -99.180525   12.638992    0.000000    0.000000    0.000000    0.000000
  0.038600000  -43.956997 -165.151978  -98.664965   12.002324    0.000000    0.000000    0.000000    0.000000
  0.038800000  -43.858158 -165.564316  -99.948867   10.002057    0.000000    0.000000    0.000000    0.000000
  0.039000000  -43.775485 -166.028488 -100.172658   13.714874    0.000000    0.000000    0.000000    0.000000
  0.039200000  -43.808624 -165.720413  -99.076538   15.377245    0.000000    0.000000    0.000000    0.000000
  0.039400000  -43.869548 -166.554184 -100.305293   15.679748    0.000000    0.000000    0.000000    0.000000
  0.039600000  -43.788748 -166.985168 -102.066407   16.744164    0.000000    0.000000    0.000000    0.000000
  0.039800000  -43.674415 -166.742310  -99.429824    7.602408    0.000000    0.000000    0.000000    0.000000
  0.040000000  -43.786641 -167.922150 -100.115744   -3.719738    0.000000    0.000000    0.000000    0.000000
  0.040200000  -43.693902 -167.454086 -100.064434    3.433050    0.000000    0.000000    0.000000    0.000000
  0.040400000  -43.575330 -167.510010  -99.980713   10.645702    0.000000    0.000000    0.000000    0.000000
  0.040600000  -43.646855 -168.019333 -100.378685    6.765842    0.000000    0.000000    0.000000    0.000000
  0.040800000  -43.491233 -169.039063 -101.758648   11.800081    0.000000    0.000000    0.000000    0.000000
  0.041000000  -43.566038 -168.951004 -101.329277   -7.891122    0.000000    0.000000    0.000000    0.000000
  0.041200000  -43.547172 -168.059723  -99.920921   -0.194700    0.000000    0.000000    0.000000    0.000000
  0.041400000  -43.421117 -169.289642  -99.735443   11.756600    0.000000    0.000000    0.000000    0.000000
  0.041600000  -43.432164 -169.767624 -100.694705   17.097687    0.000000    0.000000    0.000000    0.000000
  0.041800000  -43.479826 -169.103546 -102.747284   -0.355569    0.000000    0.000000    0.000000    0.000000
  0.042000000  -43.411010 -170.279816 -104.228898    7.978025    0.000000    0.000000    0.000000    0.000000
  0.042200000  -43.370301 -170.402374 -100.540552   -6.558063    0.000000    0.000000    0.000000    0.000000
  0.042400000  -43.431507 -170.305389 -104.329250    1.998960    0.000000    0.000000    0.000000    0.000000
  0.042600000  -43.308723 -170.824554 -102.082432   -4.366071    0.000000    0.000000    0.000000    0.000000
  0.042800000  -43.302308 -171.717224 -103.677211    2.038285    0.000000    0.000000    0.000000    0.000000
