! Anritsu VNA Master:                     Model: MS2036C/10/77
! SN:                                  1601066
! /card0/usr/256.ns.sma.r20.22.s2p
! Existing Calibration Information:
! TYPE:                         Current Settings,       Active Cal Settings
! TIME:             	   12/19/2017 03:52:11 PM,    12/19/2017 03:30:41 PM
! INTERNAL TEMP:    	                   47.3 C,                    48.0 C
! # POINTS:         	                      501,                       501
! START FREQ:       	               10.000 MHz,                10.000 MHz
! STOP FREQ:        	              110.000 MHz,               110.000 MHz
! SOURCE POWER:     	                     High,                      High
! IFBW:             	                   100 Hz,                    100 Hz
! AVG FACTOR:       	                       1 ,                        1 
! REF PLANE 1:      	                     0 mm,                      0 mm
! REF PLANE 2:      	                     0 mm,                      0 mm
! CAL TYPE:         	                 Full S11,                  Full S11
! CAL METHOD:       	                     SOLT,                      SOLT
! CAL LINE TYPE:    	                     Coax,                      Coax
! DUT PORT 1:       	                N-Conn(F),                 N-Conn(F)
! DUT PORT 2:       	                K-Conn(F),                 K-Conn(F)
! CAL STATUS:       	        OK: Accuracy High,                        --
# GHZ S DB R 50.0
! FREQ.GHZ       S11DB        S11A       S21DB        S21A       S12DB        S12A       S22DB        S22A
  0.010000000  -63.756882   89.710167  -82.274704   78.821220    0.000000    0.000000    0.000000    0.000000
  0.010200000  -63.809038   87.660233  -82.353309   75.166031    0.000000    0.000000    0.000000    0.000000
  0.010400000  -64.141809   91.926132  -82.624966   76.375748    0.000000    0.000000    0.000000    0.000000
  0.010600000  -63.499899   91.372437  -82.814873   72.345787    0.000000    0.000000    0.000000    0.000000
  0.010800000  -63.167560   89.653877  -83.104990   72.851875    0.000000    0.000000    0.000000    0.000000
  0.011000000  -63.466141   89.532768  -83.146007   67.821770    0.000000    0.000000    0.000000    0.000000
  0.011200000  -62.845798   91.320343  -83.606221   67.889130    0.000000    0.000000    0.000000    0.000000
  0.011400000  -62.836375   89.775452  -84.216628   66.196861    0.000000    0.000000    0.000000    0.000000
  0.011600000  -63.037524   84.320717  -84.574154   64.559448    0.000000    0.000000    0.000000    0.000000
  0.011800000  -62.845384   89.106728  -85.075197   62.343014    0.000000    0.000000    0.000000    0.000000
  0.012000000  -62.907629   84.596451  -84.993431   60.406212    0.000000    0.000000    0.000000    0.000000
  0.012200000  -62.343000   85.493118  -85.395176   61.189384    0.000000    0.000000    0.000000    0.000000
  0.012400000  -62.335298   84.534599  -85.883356   63.461433    0.000000    0.000000    0.000000    0.000000
  0.012600000  -62.418275   83.294464  -85.965939   59.296158    0.000000    0.000000    0.000000    0.000000
  0.012800000  -62.072224   84.560257  -86.312561   62.361343    0.000000    0.000000    0.000000    0.000000
  0.013000000  -61.712087   83.718773  -86.355122   57.385677    0.000000    0.000000    0.000000    0.000000
  0.013200000  -61.848069   81.699608  -87.205486   59.758129    0.000000    0.000000    0.000000    0.000000
  0.013400000  -61.826620   81.551208  -86.894162   55.825352    0.000000    0.000000    0.000000    0.000000
  0.013600000  -61.716926   81.764893  -87.370559   60.143013    0.000000    0.000000    0.000000    0.000000
  0.013800000  -61.652709   83.227585  -87.485261   61.798061    0.000000    0.000000    0.000000    0.000000
  0.014000000  -61.482731   81.223427  -87.868983   58.020550    0.000000    0.000000    0.000000    0.000000
  0.014200000  -61.125507   81.829689  -87.517669   59.960339    0.000000    0.000000    0.000000    0.000000
  0.014400000  -60.967678   81.205383  -87.499793   59.506508    0.000000    0.000000    0.000000    0.000000
  0.014600000  -61.166370   82.696762  -87.624117   59.542149    0.000000    0.000000    0.000000    0.000000
  0.014800000  -60.817740   81.041733  -87.919467   57.531662    0.000000    0.000000    0.000000    0.000000
  0.015000000  -60.869739   81.160072  -87.839323   57.673141    0.000000    0.000000    0.000000    0.000000
  0.015200000  -60.786524   81.020416  -88.127111   57.706226    0.000000    0.000000    0.000000    0.000000
  0.015400000  -60.675877   80.353455  -87.967612   56.236164    0.000000    0.000000    0.000000    0.000000
  0.015600000  -60.345070   79.885429  -88.142535   53.032665    0.000000    0.000000    0.000000    0.000000
  0.015800000  -60.496642   79.205666  -88.268983   56.448681    0.000000    0.000000    0.000000    0.000000
  0.016000000  -60.436222   78.048401  -88.200366   48.667572    0.000000    0.000000    0.000000    0.000000
  0.016200000  -60.201995   78.330048  -88.018054   51.274445    0.000000    0.000000    0.000000    0.000000
  0.016400000  -60.184545   77.899216  -88.634472   50.074200    0.000000    0.000000    0.000000    0.000000
  0.016600000  -60.124611   78.480850  -88.475400   44.155941    0.000000    0.000000    0.000000    0.000000
  0.016800000  -59.833128   76.918167  -88.748867   48.365013    0.000000    0.000000    0.000000    0.000000
  0.017000000  -59.863202   76.949867  -88.829725   47.682499    0.000000    0.000000    0.000000    0.000000
  0.017200000  -59.724804   78.097954  -88.310861   45.456501    0.000000    0.000000    0.000000    0.000000
  0.017400000  -59.709166   77.082085  -88.856331   47.896290    0.000000    0.000000    0.000000    0.000000
  0.017600000  -59.619917   76.819885  -89.115197   40.012424    0.000000    0.000000    0.000000    0.000000
  0.017800000  -59.671996   77.449432  -89.601105   38.662319    0.000000    0.000000    0.000000    0.000000
  0.018000000  -59.486240   75.915657  -89.548683   38.028229    0.000000    0.000000    0.000000    0.000000
  0.018200000  -59.448254   75.516815  -88.573563   37.760178    0.000000    0.000000    0.000000    0.000000
  0.018400000  -59.208055   77.008064  -89.837123   32.047153    0.000000    0.000000    0.000000    0.000000
  0.018600000  -59.181023   76.826744  -89.672410   39.283554    0.000000    0.000000    0.000000    0.000000
  0.018800000  -58.892308   76.746758  -90.909483   34.347504    0.000000    0.000000    0.000000    0.000000
  0.019000000  -58.890027   74.589401  -89.969228   36.635765    0.000000    0.000000    0.000000    0.000000
  0.019200000  -58.966956   76.470512  -91.028012   35.574093    0.000000    0.000000    0.000000    0.000000
  0.019400000  -58.767004   76.895554  -91.324504   38.199516    0.000000    0.000000    0.000000    0.000000
  0.019600000  -58.738840   76.285416  -90.797001   30.845844    0.000000    0.000000    0.000000    0.000000
  0.019800000  -58.658850   76.262131  -91.646260   41.782467    0.000000    0.000000    0.000000    0.000000
  0.020000000  -58.353559   75.520943  -91.049945   40.258472    0.000000    0.000000    0.000000    0.000000
  0.020200000  -58.561369   75.245361  -92.500855   34.108063    0.000000    0.000000    0.000000    0.000000
  0.020400000  -58.283017   75.331551  -91.280003   37.431068    0.000000    0.000000    0.000000    0.000000
  0.020600000  -58.634493   74.910194  -91.881636   40.441067    0.000000    0.000000    0.000000    0.000000
  0.020800000  -58.109262   74.641357  -92.134252   38.093758    0.000000    0.000000    0.000000    0.000000
  0.021000000  -58.112121   73.449570  -92.466272   38.206646    0.000000    0.000000    0.000000    0.000000
  0.021200000  -57.927572   73.733627  -92.389101   30.823681    0.000000    0.000000    0.000000    0.000000
  0.021400000  -57.891847   73.464180  -92.251470   36.851303    0.000000    0.000000    0.000000    0.000000
  0.021600000  -57.795263   73.721672  -92.349352   36.079746    0.000000    0.000000    0.000000    0.000000
  0.021800000  -57.704216   72.607231  -91.681494   37.789280    0.000000    0.000000    0.000000    0.000000
  0.022000000  -57.511810   72.755913  -92.567036   33.291294    0.000000    0.000000    0.000000    0.000000
  0.022200000  -57.322387   72.891174  -92.856866   33.660950    0.000000    0.000000    0.000000    0.000000
  0.022400000  -57.297705   73.311134  -93.110090   33.588924    0.000000    0.000000    0.000000    0.000000
  0.022600000  -57.198885   72.288033  -92.698340   30.093126    0.000000    0.000000    0.000000    0.000000
  0.022800000  -57.265379   71.893532  -92.890510   33.542519    0.000000    0.000000    0.000000    0.000000
  0.023000000  -57.184855   72.957298  -91.750719   31.484413    0.000000    0.000000    0.000000    0.000000
  0.023200000  -56.966941   72.485466  -93.113497   31.070261    0.000000    0.000000    0.000000    0.000000
  0.023400000  -56.026997   71.590805  -92.956817   30.047958    0.000000    0.000000    0.000000    0.000000
  0.023600000  -56.810423   71.849533  -93.108461   36.352894    0.000000    0.000000    0.000000    0.000000
  0.023800000  -56.683977   70.434052  -92.136887   26.767441    0.000000    0.000000    0.000000    0.000000
  0.024000000  -56.778743   71.619568  -92.743923   27.246300    0.000000    0.000000    0.000000    0.000000
  0.024200000  -56.603321   71.447876  -93.768594   25.014273    0.000000    0.000000    0.000000    0.000000
  0.024400000  -56.548480   70.786552  -92.465808   31.840279    0.000000    0.000000    0.000000    0.000000
  0.024600000  -56.476539   71.072289  -93.611240   28.204218    0.000000    0.000000    0.000000    0.000000
  0.024800000  -56.546626   69.816833  -93.079567   30.454571    0.000000    0.000000    0.000000    0.000000
  0.025000000  -56.224614   70.001839  -93.747567   24.384167    0.000000    0.000000    0.000000    0.000000
  0.025200000  -56.184688   69.628708  -95.238977   19.589949    0.000000    0.000000    0.000000    0.000000
  0.025400000  -56.238501   69.427223  -94.152673   21.869490    0.000000    0.000000    0.000000    0.000000
  0.025600000  -56.135638   69.078110  -94.797372   24.207523    0.000000    0.000000    0.000000    0.000000
  0.025800000  -56.089318   69.026733  -94.165138   16.446136    0.000000    0.000000    0.000000    0.000000
  0.026000000  -56.177760   68.773407  -94.887606   15.070745    0.000000    0.000000    0.000000    0.000000
  0.026200000  -55.877302   68.603249  -95.322300   19.392477    0.000000    0.000000    0.000000    0.000000
  0.026400000  -55.949342   68.363342  -94.543248   26.500662    0.000000    0.000000    0.000000    0.000000
  0.026600000  -55.948126   67.862297  -96.207670   20.836002    0.000000    0.000000    0.000000    0.000000
  0.026800000  -55.964874   68.366005  -95.220458   21.256723    0.000000    0.000000    0.000000    0.000000
  0.027000000  -55.827677   67.224655  -95.830598   16.002787    0.000000    0.000000    0.000000    0.000000
  0.027200000  -55.702228   67.248611  -95.784286   19.118614    0.000000    0.000000    0.000000    0.000000
  0.027400000  -55.749079   67.471832  -95.510414   23.012733    0.000000    0.000000    0.000000    0.000000
  0.027600000  -55.726426   67.379196  -95.321024   29.350054    0.000000    0.000000    0.000000    0.000000
  0.027800000  -55.500202   67.760368  -94.639367   23.477020    0.000000    0.000000    0.000000    0.000000
  0.028000000  -55.559708   67.098648  -96.162907   21.516413    0.000000    0.000000    0.000000    0.000000
  0.028200000  -55.465209   66.346756  -95.320555   17.237463    0.000000    0.000000    0.000000    0.000000
  0.028400000  -55.390578   67.162857  -96.166928   26.000633    0.000000    0.000000    0.000000    0.000000
  0.028600000  -55.455096   65.949715  -96.673776   22.299080    0.000000    0.000000    0.000000    0.000000
  0.028800000  -55.415638   65.148140  -95.457837   16.409260    0.000000    0.000000    0.000000    0.000000
  0.029000000  -55.334086   65.889870  -96.771328   19.991922    0.000000    0.000000    0.000000    0.000000
  0.029200000  -55.208425   65.567062  -96.580258   17.084021    0.000000    0.000000    0.000000    0.000000
  0.029400000  -55.197307   65.336632  -96.307009   15.831817    0.000000    0.000000    0.000000    0.000000
  0.029600000  -55.161820   65.458252  -95.673354   21.671616    0.000000    0.000000    0.000000    0.000000
  0.029800000  -55.163343   65.656494  -95.652654   22.207920    0.000000    0.000000    0.000000    0.000000
  0.030000000  -54.975434   65.315598  -95.847396   24.976498    0.000000    0.000000    0.000000    0.000000
  0.030200000  -55.053558   65.274399  -97.076857   20.214005    0.000000    0.000000    0.000000    0.000000
  0.030400000  -54.992096   64.189209  -96.703997   21.642817    0.000000    0.000000    0.000000    0.000000
  0.030600000  -54.784592   65.026985  -97.597267   18.686363    0.000000    0.000000    0.000000    0.000000
  0.030800000  -54.865510   63.839272  -96.439934   13.662045    0.000000    0.000000    0.000000    0.000000
  0.031000000  -54.747279   64.175186  -97.847500    8.982769    0.000000    0.000000    0.000000    0.000000
  0.031200000  -54.546861   63.368561  -97.026011   16.322771    0.000000    0.000000    0.000000    0.000000
  0.031400000  -54.445186   63.274361  -96.741373   16.620501    0.000000    0.000000    0.000000    0.000000
  0.031600000  -54.426996   63.720516  -96.942009   11.464140    0.000000    0.000000    0.000000    0.000000
  0.031800000  -54.255176   64.088409  -97.484034    5.919995    0.000000    0.000000    0.000000    0.000000
  0.032000000  -54.362617   63.796284  -96.691260    5.932657    0.000000    0.000000    0.000000    0.000000
  0.032200000  -54.288778   63.369335  -97.474144   13.458085    0.000000    0.000000    0.000000    0.000000
  0.032400000  -54.076759   64.515503  -98.353578    6.465338    0.000000    0.000000    0.000000    0.000000
  0.032600000  -53.979781   63.172474  -98.328609   12.868781    0.000000    0.000000    0.000000    0.000000
  0.032800000  -53.869826   62.948582  -97.546569   24.926144    0.000000    0.000000    0.000000    0.000000
  0.033000000  -53.965318   62.574417  -98.029758   14.484873    0.000000    0.000000    0.000000    0.000000
  0.033200000  -53.984888   62.921970  -97.495061    3.645539    0.000000    0.000000    0.000000    0.000000
  0.033400000  -53.722338   61.987648  -97.889450   19.621571    0.000000    0.000000    0.000000    0.000000
  0.033600000  -53.842456   62.247433  -98.438446   16.471970    0.000000    0.000000    0.000000    0.000000
  0.033800000  -53.719459   61.936607  -97.271871   13.724700    0.000000    0.000000    0.000000    0.000000
  0.034000000  -53.668942   61.596123  -99.527960   16.386761    0.000000    0.000000    0.000000    0.000000
  0.034200000  -53.396444   61.579987  -98.537945    8.345862    0.000000    0.000000    0.000000    0.000000
  0.034400000  -53.496184   61.931389  -98.581616    8.408744    0.000000    0.000000    0.000000    0.000000
  0.034600000  -53.515576   62.005981  -98.432633   10.239406    0.000000    0.000000    0.000000    0.000000
  0.034800000  -53.445504   61.638065  -99.361047    2.376134    0.000000    0.000000    0.000000    0.000000
  0.035000000  -53.327977   60.759506  -98.878696   12.107179    0.000000    0.000000    0.000000    0.000000
  0.035200000  -53.297444   60.297955  -99.365840    4.544275    0.000000    0.000000    0.000000    0.000000
  0.035400000  -53.250537   60.657429  -97.357236    6.974340    0.000000    0.000000    0.000000    0.000000
  0.035600000  -53.211645   59.889572  -98.936145    6.127478    0.000000    0.000000    0.000000    0.000000
  0.035800000  -53.237448   60.028088  -98.727829    8.801612    0.000000    0.000000    0.000000    0.000000
  0.036000000  -53.180577   60.039806  -99.951793    8.792259    0.000000    0.000000    0.000000    0.000000
  0.036200000  -53.145277   60.328945  -98.289502   19.643818    0.000000    0.000000    0.000000    0.000000
  0.036400000  -53.015990   59.493961  -98.937566   -0.603118    0.000000    0.000000    0.000000    0.000000
  0.036600000  -53.039128   59.166439  -98.193141   -0.062658    0.000000    0.000000    0.000000    0.000000
  0.036800000  -52.925901   59.079456  -98.653202    6.119096    0.000000    0.000000    0.000000    0.000000
  0.037000000  -52.865154   59.166153 -100.295767   -5.742163    0.000000    0.000000    0.000000    0.000000
  0.037200000  -52.867604   59.391663  -97.125359   -0.862146    0.000000    0.000000    0.000000    0.000000
  0.037400000  -52.797916   60.370861  -97.536436    5.943844    0.000000    0.000000    0.000000    0.000000
  0.037600000  -52.965812   59.395443  -99.993519   -2.741692    0.000000    0.000000    0.000000    0.000000
  0.037800000  -52.799586   59.187435  -99.812385    3.882331    0.000000    0.000000    0.000000    0.000000
  0.038000000  -52.735983   58.449890  -99.854297   -6.444703    0.000000    0.000000    0.000000    0.000000
  0.038200000  -52.758205   58.567371  -98.740792    4.098860    0.000000    0.000000    0.000000    0.000000
  0.038400000  -52.753222   57.919022  -98.114902   15.285661    0.000000    0.000000    0.000000    0.000000
  0.038600000  -52.616179   58.033787  -99.904075  -14.279479    0.000000    0.000000    0.000000    0.000000
  0.038800000  -52.476393   57.779144 -101.842853   -2.107653    0.000000    0.000000    0.000000    0.000000
  0.039000000  -52.359621   57.497688 -101.834598    8.600665    0.000000    0.000000    0.000000    0.000000
  0.039200000  -52.355018   57.957066  -99.513657   -2.336888    0.000000    0.000000    0.000000    0.000000
  0.039400000  -52.376426   57.347210 -101.560263    8.462615    0.000000    0.000000    0.000000    0.000000
  0.039600000  -52.262740   57.068039 -102.537324    4.932131    0.000000    0.000000    0.000000    0.000000
  0.039800000  -52.114369   57.514557  -99.481607    9.352111    0.000000    0.000000    0.000000    0.000000
  0.040000000  -52.192912   56.470932 -103.997883    2.135117    0.000000    0.000000    0.000000    0.000000
  0.040200000  -52.070226   57.105637 -101.024967   -5.793779    0.000000    0.000000    0.000000    0.000000
  0.040400000  -51.922835   57.212151 -101.320949   17.564491    0.000000    0.000000    0.000000    0.000000
  0.040600000  -51.968821   56.836731  -99.405105    3.132163    0.000000    0.000000    0.000000    0.000000
  0.040800000  -51.788597   55.889713  -97.769612   20.977673    0.000000    0.000000    0.000000    0.000000
  0.041000000  -51.836797   56.130875  -99.495180    8.875842    0.000000    0.000000    0.000000    0.000000
  0.041200000  -51.788183   57.062984 -100.182391   -1.833646    0.000000    0.000000    0.000000    0.000000
  0.041400000  -51.639173   55.944523 -100.477219    7.882780    0.000000    0.000000    0.000000    0.000000
  0.041600000  -51.615020   55.528225 -101.251711    9.907514    0.000000    0.000000    0.000000    0.000000
  0.041800000  -51.638412   56.226860 -101.539039    4.922176    0.000000    0.000000    0.000000    0.000000
  0.042000000  -51.540956   55.148308 -100.397794    5.808933    0.000000    0.000000    0.000000    0.000000
  0.042200000  -51.476195   55.022476 -101.229293   -4.429076    0.000000    0.000000    0.000000    0.000000
  0.042400000  -51.507525   55.144516  -98.452584    2.013736    0.000000    0.000000    0.000000    0.000000
  0.042600000  -51.350620   54.662418  -99.194974   -5.435282    0.000000    0.000000    0.000000    0.000000
  0.042800000  -51.313545   53.805408 -100.923193   -4.319516    0.000000    0.000000    0.000000    0.000000
