! Anritsu VNA Master:                     Model: MS2036C/10/77
! SN:                                  1601066
! /card0/usr/256.ns.sma.r50.11.s2p
! Existing Calibration Information:
! TYPE:                         Current Settings,       Active Cal Settings
! TIME:             	   12/19/2017 03:38:18 PM,    12/19/2017 03:30:41 PM
! INTERNAL TEMP:    	                   47.8 C,                    48.0 C
! # POINTS:         	                      501,                       501
! START FREQ:       	               10.000 MHz,                10.000 MHz
! STOP FREQ:        	              110.000 MHz,               110.000 MHz
! SOURCE POWER:     	                     High,                      High
! IFBW:             	                   100 Hz,                    100 Hz
! AVG FACTOR:       	                       1 ,                        1 
! REF PLANE 1:      	                     0 mm,                      0 mm
! REF PLANE 2:      	                     0 mm,                      0 mm
! CAL TYPE:         	                 Full S11,                  Full S11
! CAL METHOD:       	                     SOLT,                      SOLT
! CAL LINE TYPE:    	                     Coax,                      Coax
! DUT PORT 1:       	                N-Conn(F),                 N-Conn(F)
! DUT PORT 2:       	                K-Conn(F),                 K-Conn(F)
! CAL STATUS:       	        OK: Accuracy High,                        --
# GHZ S DB R 50.0
! FREQ.GHZ       S11DB        S11A       S21DB        S21A       S12DB        S12A       S22DB        S22A
  0.010000000  -98.044344  -18.251768  -83.201391   76.206520    0.000000    0.000000    0.000000    0.000000
  0.010200000  -98.015979  -19.617701  -83.344256   72.836601    0.000000    0.000000    0.000000    0.000000
  0.010400000  -98.448886  -14.795057  -83.131362   76.845192    0.000000    0.000000    0.000000    0.000000
  0.010600000  -97.445161  -15.084056  -83.727918   73.173767    0.000000    0.000000    0.000000    0.000000
  0.010800000  -97.024958  -16.201286  -83.869256   71.693359    0.000000    0.000000    0.000000    0.000000
  0.011000000  -97.160072  -17.212133  -84.029500   70.373215    0.000000    0.000000    0.000000    0.000000
  0.011200000  -96.317494  -15.601234  -84.723493   69.501923    0.000000    0.000000    0.000000    0.000000
  0.011400000  -96.577701  -17.432650  -84.746104   72.123932    0.000000    0.000000    0.000000    0.000000
  0.011600000  -96.590098  -22.686998  -84.847376   71.988678    0.000000    0.000000    0.000000    0.000000
  0.011800000  -96.385669  -19.494530  -84.989035   67.180161    0.000000    0.000000    0.000000    0.000000
  0.012000000  -96.293116  -20.604816  -85.314158   64.389275    0.000000    0.000000    0.000000    0.000000
  0.012200000  -95.555802  -22.377644  -84.940388   65.367165    0.000000    0.000000    0.000000    0.000000
  0.012400000  -95.618096  -21.524069  -85.284669   66.383224    0.000000    0.000000    0.000000    0.000000
  0.012600000  -95.649409  -23.280317  -85.621043   64.849152    0.000000    0.000000    0.000000    0.000000
  0.012800000  -95.141754  -23.104301  -85.920618   61.399082    0.000000    0.000000    0.000000    0.000000
  0.013000000  -94.777969  -23.982340  -86.169261   60.875481    0.000000    0.000000    0.000000    0.000000
  0.013200000  -94.811619  -25.949602  -86.077099   58.422386    0.000000    0.000000    0.000000    0.000000
  0.013400000  -94.759597  -25.379089  -86.100688   58.583046    0.000000    0.000000    0.000000    0.000000
  0.013600000  -94.516493  -24.425381  -86.227194   53.078259    0.000000    0.000000    0.000000    0.000000
  0.013800000  -94.295233  -24.784714  -86.243931   57.745628    0.000000    0.000000    0.000000    0.000000
  0.014000000  -94.079452  -25.235945  -87.261467   56.574677    0.000000    0.000000    0.000000    0.000000
  0.014200000  -93.628393  -25.705883  -86.910378   54.798038    0.000000    0.000000    0.000000    0.000000
  0.014400000  -93.402015  -27.117624  -87.665452   55.719475    0.000000    0.000000    0.000000    0.000000
  0.014600000  -93.480447  -24.542191  -87.118145   57.168617    0.000000    0.000000    0.000000    0.000000
  0.014800000  -92.914096  -27.245722  -87.643639   52.658836    0.000000    0.000000    0.000000    0.000000
  0.015000000  -92.942425  -26.064356  -87.412790   57.552574    0.000000    0.000000    0.000000    0.000000
  0.015200000  -92.847203  -27.009724  -87.633058   49.761410    0.000000    0.000000    0.000000    0.000000
  0.015400000  -92.604360  -26.639305  -88.182828   50.731216    0.000000    0.000000    0.000000    0.000000
  0.015600000  -92.235029  -27.961845  -88.083310   54.197475    0.000000    0.000000    0.000000    0.000000
  0.015800000  -92.263416  -29.271353  -88.400798   49.277554    0.000000    0.000000    0.000000    0.000000
  0.016000000  -91.949572  -29.807297  -88.765581   51.440689    0.000000    0.000000    0.000000    0.000000
  0.016200000  -91.607271  -29.615488  -88.982487   46.845016    0.000000    0.000000    0.000000    0.000000
  0.016400000  -91.670809  -29.265100  -88.413917   44.527802    0.000000    0.000000    0.000000    0.000000
  0.016600000  -91.444354  -30.386101  -88.999845   48.297585    0.000000    0.000000    0.000000    0.000000
  0.016800000  -91.007366  -31.007023  -88.748889   46.453793    0.000000    0.000000    0.000000    0.000000
  0.017000000  -90.829092  -31.891857  -89.348880   45.460846    0.000000    0.000000    0.000000    0.000000
  0.017200000  -90.635120  -30.373671  -89.271669   43.569725    0.000000    0.000000    0.000000    0.000000
  0.017400000  -90.626762  -31.671713  -89.202414   48.013069    0.000000    0.000000    0.000000    0.000000
  0.017600000  -90.414036  -30.711149  -89.352018   42.427765    0.000000    0.000000    0.000000    0.000000
  0.017800000  -90.287223  -30.025976  -90.616147   42.592003    0.000000    0.000000    0.000000    0.000000
  0.018000000  -89.981334  -32.086658  -90.801185   46.223682    0.000000    0.000000    0.000000    0.000000
  0.018200000  -89.817249  -30.850389  -90.065622   42.211353    0.000000    0.000000    0.000000    0.000000
  0.018400000  -89.518818  -30.088268  -90.014740   44.932877    0.000000    0.000000    0.000000    0.000000
  0.018600000  -89.480541  -28.702713  -89.758922   40.135853    0.000000    0.000000    0.000000    0.000000
  0.018800000  -89.022529  -29.577803  -90.278348   40.071434    0.000000    0.000000    0.000000    0.000000
  0.019000000  -88.959480  -30.218266  -90.875938   36.562225    0.000000    0.000000    0.000000    0.000000
  0.019200000  -88.971124  -28.740719  -90.892135   42.101891    0.000000    0.000000    0.000000    0.000000
  0.019400000  -88.862581  -27.887527  -91.831170   38.537251    0.000000    0.000000    0.000000    0.000000
  0.019600000  -88.668600  -28.150433  -91.010652   40.014580    0.000000    0.000000    0.000000    0.000000
  0.019800000  -88.473715  -28.883493  -91.043300   40.801022    0.000000    0.000000    0.000000    0.000000
  0.020000000  -88.178653  -29.332458  -90.566791   41.791389    0.000000    0.000000    0.000000    0.000000
  0.020200000  -88.428867  -29.063824  -90.961814   40.578091    0.000000    0.000000    0.000000    0.000000
  0.020400000  -88.019621  -28.273951  -91.584747   37.324242    0.000000    0.000000    0.000000    0.000000
  0.020600000  -88.429841  -28.701254  -91.605974   34.728420    0.000000    0.000000    0.000000    0.000000
  0.020800000  -87.732153  -28.194704  -91.872596   35.464855    0.000000    0.000000    0.000000    0.000000
  0.021000000  -87.661971  -29.004036  -92.085733   36.986919    0.000000    0.000000    0.000000    0.000000
  0.021200000  -87.729500  -29.571115  -91.873556   34.377853    0.000000    0.000000    0.000000    0.000000
  0.021400000  -87.389353  -28.901194  -91.551161   35.681484    0.000000    0.000000    0.000000    0.000000
  0.021600000  -87.301468  -29.243492  -91.659687   36.330765    0.000000    0.000000    0.000000    0.000000
  0.021800000  -87.347056  -29.826910  -92.641411   34.081169    0.000000    0.000000    0.000000    0.000000
  0.022000000  -87.187989  -29.749985  -92.257903   33.489212    0.000000    0.000000    0.000000    0.000000
  0.022200000  -86.827369  -30.434650  -92.595356   36.733540    0.000000    0.000000    0.000000    0.000000
  0.022400000  -86.838187  -29.261368  -92.245189   34.641109    0.000000    0.000000    0.000000    0.000000
  0.022600000  -86.697984  -29.924757  -92.534375   30.185215    0.000000    0.000000    0.000000    0.000000
  0.022800000  -86.791233  -30.808296  -92.719520   28.158722    0.000000    0.000000    0.000000    0.000000
  0.023000000  -86.624038  -30.285475  -92.671248   31.242262    0.000000    0.000000    0.000000    0.000000
  0.023200000  -86.391048  -30.972391  -92.804138   26.654348    0.000000    0.000000    0.000000    0.000000
  0.023400000  -85.544345  -31.987688  -93.288738   22.032429    0.000000    0.000000    0.000000    0.000000
  0.023600000  -86.067504  -32.160629  -93.114223   28.029224    0.000000    0.000000    0.000000    0.000000
  0.023800000  -86.075327  -33.857082  -92.574249   30.845989    0.000000    0.000000    0.000000    0.000000
  0.024000000  -86.091880  -32.816708  -93.591515   26.661060    0.000000    0.000000    0.000000    0.000000
  0.024200000  -85.747135  -33.571102  -93.731425   21.611099    0.000000    0.000000    0.000000    0.000000
  0.024400000  -85.689462  -32.977013  -94.250057   26.686544    0.000000    0.000000    0.000000    0.000000
  0.024600000  -85.614174  -33.534451  -93.847102   32.511639    0.000000    0.000000    0.000000    0.000000
  0.024800000  -85.490360  -35.174042  -93.437329   22.735064    0.000000    0.000000    0.000000    0.000000
  0.025000000  -85.069044  -35.798168  -94.227252   25.585329    0.000000    0.000000    0.000000    0.000000
  0.025200000  -84.942691  -36.065960  -93.424634   28.161144    0.000000    0.000000    0.000000    0.000000
  0.025400000  -85.033316  -36.477367  -94.903461   23.295841    0.000000    0.000000    0.000000    0.000000
  0.025600000  -84.770137  -37.210129  -95.128210   19.843708    0.000000    0.000000    0.000000    0.000000
  0.025800000  -84.579278  -37.301495  -95.575728   24.163746    0.000000    0.000000    0.000000    0.000000
  0.026000000  -84.650191  -36.842438  -94.792393   22.419069    0.000000    0.000000    0.000000    0.000000
  0.026200000  -84.227670  -37.959267  -95.438725   21.752575    0.000000    0.000000    0.000000    0.000000
  0.026400000  -84.191386  -38.391628  -95.772530   15.834640    0.000000    0.000000    0.000000    0.000000
  0.026600000  -84.104033  -37.954384  -95.080670   23.754251    0.000000    0.000000    0.000000    0.000000
  0.026800000  -84.042760  -37.523212  -95.326458   16.744968    0.000000    0.000000    0.000000    0.000000
  0.027000000  -83.761771  -37.946114  -94.603413   18.394709    0.000000    0.000000    0.000000    0.000000
  0.027200000  -83.544426  -38.263519  -97.635817   17.859295    0.000000    0.000000    0.000000    0.000000
  0.027400000  -83.466784  -37.419323  -95.244145   16.497753    0.000000    0.000000    0.000000    0.000000
  0.027600000  -83.358501  -36.435966  -96.104021   16.327356    0.000000    0.000000    0.000000    0.000000
  0.027800000  -83.207115  -36.903816  -95.032862   11.769344    0.000000    0.000000    0.000000    0.000000
  0.028000000  -83.046016  -35.771797  -96.582850   24.038319    0.000000    0.000000    0.000000    0.000000
  0.028200000  -82.927032  -36.897907  -96.117161   21.359127    0.000000    0.000000    0.000000    0.000000
  0.028400000  -82.792714  -35.757538  -95.368769   23.744246    0.000000    0.000000    0.000000    0.000000
  0.028600000  -82.768949  -36.234364  -95.860479   20.116009    0.000000    0.000000    0.000000    0.000000
  0.028800000  -82.747054  -36.696644  -96.410011   21.076378    0.000000    0.000000    0.000000    0.000000
  0.029000000  -82.537112  -35.883194  -97.135262   21.756195    0.000000    0.000000    0.000000    0.000000
  0.029200000  -82.388930  -35.425812  -95.831745   22.693886    0.000000    0.000000    0.000000    0.000000
  0.029400000  -82.402932  -34.986778  -95.944302   18.718424    0.000000    0.000000    0.000000    0.000000
  0.029600000  -82.309297  -35.420586  -97.499471   18.337780    0.000000    0.000000    0.000000    0.000000
  0.029800000  -82.323732  -35.339474  -96.434498   21.116360    0.000000    0.000000    0.000000    0.000000
  0.030000000  -82.102104  -35.009750  -96.185578   23.234451    0.000000    0.000000    0.000000    0.000000
  0.030200000  -82.253800  -33.771454  -96.322301   18.628843    0.000000    0.000000    0.000000    0.000000
  0.030400000  -82.160419  -34.840794  -96.522999   15.383997    0.000000    0.000000    0.000000    0.000000
  0.030600000  -81.978701  -33.994427  -96.621444   14.341621    0.000000    0.000000    0.000000    0.000000
  0.030800000  -82.010712  -34.869675  -97.578915   22.943449    0.000000    0.000000    0.000000    0.000000
  0.031000000  -81.992550  -34.497765  -96.451759   12.054883    0.000000    0.000000    0.000000    0.000000
  0.031200000  -81.789275  -35.051197  -97.084953    0.610592    0.000000    0.000000    0.000000    0.000000
  0.031400000  -81.605014  -35.018112  -98.526325    6.443738    0.000000    0.000000    0.000000    0.000000
  0.031600000  -81.701945  -35.180286  -96.488028   12.669135    0.000000    0.000000    0.000000    0.000000
  0.031800000  -81.536162  -35.263680  -97.888203   15.920506    0.000000    0.000000    0.000000    0.000000
  0.032000000  -81.570462  -34.948620  -98.659399   21.826572    0.000000    0.000000    0.000000    0.000000
  0.032200000  -81.566926  -36.080147  -97.747856   12.001224    0.000000    0.000000    0.000000    0.000000
  0.032400000  -81.271869  -34.763588  -97.059894   14.716575    0.000000    0.000000    0.000000    0.000000
  0.032600000  -81.238716  -36.752121  -97.741892   -1.161982    0.000000    0.000000    0.000000    0.000000
  0.032800000  -81.160555  -36.491280  -97.149518   16.622248    0.000000    0.000000    0.000000    0.000000
  0.033000000  -81.232411  -36.750084  -98.686578   15.368238    0.000000    0.000000    0.000000    0.000000
  0.033200000  -81.158166  -36.679935  -98.534525   19.085020    0.000000    0.000000    0.000000    0.000000
  0.033400000  -80.892076  -37.594524  -96.936132    7.123118    0.000000    0.000000    0.000000    0.000000
  0.033600000  -81.002295  -38.184254  -97.548760   21.865597    0.000000    0.000000    0.000000    0.000000
  0.033800000  -80.817200  -38.884865  -97.769623   18.174250    0.000000    0.000000    0.000000    0.000000
  0.034000000  -80.891555  -39.613674  -98.125546   16.115351    0.000000    0.000000    0.000000    0.000000
  0.034200000  -80.288391  -39.544174  -97.252171   18.617018    0.000000    0.000000    0.000000    0.000000
  0.034400000  -80.285426  -39.078712  -97.809883    1.813637    0.000000    0.000000    0.000000    0.000000
  0.034600000  -80.357281  -39.467133  -98.585170   14.998714    0.000000    0.000000    0.000000    0.000000
  0.034800000  -80.161362  -39.853905 -100.798146    8.864420    0.000000    0.000000    0.000000    0.000000
  0.035000000  -79.980805  -40.584801  -97.148389   -3.607020    0.000000    0.000000    0.000000    0.000000
  0.035200000  -79.845182  -41.456989  -98.170150   12.674928    0.000000    0.000000    0.000000    0.000000
  0.035400000  -79.832526  -40.748234  -98.496105    6.543281    0.000000    0.000000    0.000000    0.000000
  0.035600000  -79.682080  -41.585350  -98.224972    3.092765    0.000000    0.000000    0.000000    0.000000
  0.035800000  -79.570176  -41.280651  -98.249194    5.002943    0.000000    0.000000    0.000000    0.000000
  0.036000000  -79.416651  -40.699730  -99.078476    6.398740    0.000000    0.000000    0.000000    0.000000
  0.036200000  -79.340929  -40.328274  -98.328488    7.395354    0.000000    0.000000    0.000000    0.000000
  0.036400000  -79.203982  -40.380596 -100.718662   18.536959    0.000000    0.000000    0.000000    0.000000
  0.036600000  -79.125450  -40.143192  -98.604936   18.993450    0.000000    0.000000    0.000000    0.000000
  0.036800000  -79.009756  -40.139225  -96.536194    5.900375    0.000000    0.000000    0.000000    0.000000
  0.037000000  -78.875111  -39.681301  -99.847459   -1.262272    0.000000    0.000000    0.000000    0.000000
  0.037200000  -78.898243  -39.930038  -98.581124    4.167658    0.000000    0.000000    0.000000    0.000000
  0.037400000  -78.817420  -38.091896  -99.747146    5.568604    0.000000    0.000000    0.000000    0.000000
  0.037600000  -78.995173  -38.594017  -99.124332   -3.289090    0.000000    0.000000    0.000000    0.000000
  0.037800000  -78.855045  -38.878880 -102.732245    9.529938    0.000000    0.000000    0.000000    0.000000
  0.038000000  -78.552628  -38.780624  -98.757474    7.100601    0.000000    0.000000    0.000000    0.000000
  0.038200000  -78.741102  -38.346870 -100.016667   -1.256427    0.000000    0.000000    0.000000    0.000000
  0.038400000  -78.748019  -39.021027 -100.680755    3.575486    0.000000    0.000000    0.000000    0.000000
  0.038600000  -78.688228  -38.246677 -101.902936   15.722004    0.000000    0.000000    0.000000    0.000000
  0.038800000  -78.525516  -38.052067 -100.094405   15.088634    0.000000    0.000000    0.000000    0.000000
  0.039000000  -78.436168  -38.887737  -99.821293   -6.140981    0.000000    0.000000    0.000000    0.000000
  0.039200000  -78.329468  -38.420231  -99.115242   10.860049    0.000000    0.000000    0.000000    0.000000
  0.039400000  -78.567518  -38.271091 -101.482036    0.537127    0.000000    0.000000    0.000000    0.000000
  0.039600000  -78.379098  -38.445808 -100.659521    1.517122    0.000000    0.000000    0.000000    0.000000
  0.039800000  -78.277590  -38.520149  -97.125146    2.616662    0.000000    0.000000    0.000000    0.000000
  0.040000000  -78.354464  -39.268463 -101.642794   14.698974    0.000000    0.000000    0.000000    0.000000
  0.040200000  -78.217534  -38.709911 -100.979717   23.058008    0.000000    0.000000    0.000000    0.000000
  0.040400000  -78.138583  -38.921669 -100.853331   10.009653    0.000000    0.000000    0.000000    0.000000
  0.040600000  -78.308604  -38.960579 -101.086258   23.516451    0.000000    0.000000    0.000000    0.000000
  0.040800000  -78.004617  -40.524300 -101.634189    5.222461    0.000000    0.000000    0.000000    0.000000
  0.041000000  -78.079650  -40.401951 -100.403318    7.790437    0.000000    0.000000    0.000000    0.000000
  0.041200000  -78.023189  -39.833279  -99.446578   -3.282490    0.000000    0.000000    0.000000    0.000000
  0.041400000  -77.807330  -41.518135 -100.345998   19.311920    0.000000    0.000000    0.000000    0.000000
  0.041600000  -77.858890  -41.618484 -101.351669   18.016281    0.000000    0.000000    0.000000    0.000000
  0.041800000  -77.767374  -41.758320 -101.422870   12.723357    0.000000    0.000000    0.000000    0.000000
  0.042000000  -77.780822  -43.181023 -102.825017    7.550051    0.000000    0.000000    0.000000    0.000000
  0.042200000  -77.498749  -43.544270  -99.007009    0.815094    0.000000    0.000000    0.000000    0.000000
  0.042400000  -77.492527  -43.624016  -97.448113    3.541151    0.000000    0.000000    0.000000    0.000000
  0.042600000  -77.305554  -44.067192 -100.372156    2.769358    0.000000    0.000000    0.000000    0.000000
  0.042800000  -77.187866  -44.995750 -100.428896   14.067924    0.000000    0.000000    0.000000    0.000000
