! Anritsu VNA Master:                     Model: MS2036C/10/77
! SN:                                  1601066
! /card0/usr/256.ns.sma.r200.12.s2p
! Existing Calibration Information:
! TYPE:                         Current Settings,       Active Cal Settings
! TIME:             	   12/19/2017 03:43:58 PM,    12/19/2017 03:30:41 PM
! INTERNAL TEMP:    	                   47.5 C,                    48.0 C
! # POINTS:         	                      501,                       501
! START FREQ:       	               10.000 MHz,                10.000 MHz
! STOP FREQ:        	              110.000 MHz,               110.000 MHz
! SOURCE POWER:     	                     High,                      High
! IFBW:             	                   100 Hz,                    100 Hz
! AVG FACTOR:       	                       1 ,                        1 
! REF PLANE 1:      	                     0 mm,                      0 mm
! REF PLANE 2:      	                     0 mm,                      0 mm
! CAL TYPE:         	                 Full S11,                  Full S11
! CAL METHOD:       	                     SOLT,                      SOLT
! CAL LINE TYPE:    	                     Coax,                      Coax
! DUT PORT 1:       	                N-Conn(F),                 N-Conn(F)
! DUT PORT 2:       	                K-Conn(F),                 K-Conn(F)
! CAL STATUS:       	        OK: Accuracy High,                        --
# GHZ S DB R 50.0
! FREQ.GHZ       S11DB        S11A       S21DB        S21A       S12DB        S12A       S22DB        S22A
  0.010000000  -50.646841 -106.681763  -84.517683   76.237450    0.000000    0.000000    0.000000    0.000000
  0.010200000  -50.703175 -109.023727  -84.473881   72.882957    0.000000    0.000000    0.000000    0.000000
  0.010400000  -51.058945 -105.110077  -84.584297   75.157486    0.000000    0.000000    0.000000    0.000000
  0.010600000  -50.442984 -105.878723  -85.338042   76.038628    0.000000    0.000000    0.000000    0.000000
  0.010800000  -50.127603 -107.954422  -85.104227   73.983742    0.000000    0.000000    0.000000    0.000000
  0.011000000  -50.454980 -108.361771  -84.824616   77.016144    0.000000    0.000000    0.000000    0.000000
  0.011200000  -49.854951 -106.858391  -84.766702   73.471603    0.000000    0.000000    0.000000    0.000000
  0.011400000  -49.868292 -108.757126  -85.165041   74.236427    0.000000    0.000000    0.000000    0.000000
  0.011600000  -50.087834 -114.505211  -85.051081   76.231522    0.000000    0.000000    0.000000    0.000000
  0.011800000  -49.924834 -110.020782  -85.274292   74.018478    0.000000    0.000000    0.000000    0.000000
  0.012000000  -50.009818 -114.837662  -84.817343   69.965012    0.000000    0.000000    0.000000    0.000000
  0.012200000  -49.463070 -114.244621  -84.664982   67.904129    0.000000    0.000000    0.000000    0.000000
  0.012400000  -49.493538 -115.486053  -84.962950   71.124107    0.000000    0.000000    0.000000    0.000000
  0.012600000  -49.595415 -117.077515  -85.366802   70.107079    0.000000    0.000000    0.000000    0.000000
  0.012800000  -49.268786 -116.081116  -85.219948   65.642563    0.000000    0.000000    0.000000    0.000000
  0.013000000  -48.939224 -117.265793  -85.582809   65.537979    0.000000    0.000000    0.000000    0.000000
  0.013200000  -49.098754 -119.520782  -84.924399   62.208019    0.000000    0.000000    0.000000    0.000000
  0.013400000  -49.103776 -119.965324  -84.831399   63.367558    0.000000    0.000000    0.000000    0.000000
  0.013600000  -49.015131 -120.040932  -85.572754   57.849518    0.000000    0.000000    0.000000    0.000000
  0.013800000  -48.972370 -118.887421  -85.651083   58.920769    0.000000    0.000000    0.000000    0.000000
  0.014000000  -48.827080 -121.134918  -85.932773   53.671394    0.000000    0.000000    0.000000    0.000000
  0.014200000  -48.500263 -120.835854  -86.305450   54.379471    0.000000    0.000000    0.000000    0.000000
  0.014400000  -48.366286 -121.709229  -86.655729   51.074947    0.000000    0.000000    0.000000    0.000000
  0.014600000  -48.591536 -120.512650  -86.699124   55.872608    0.000000    0.000000    0.000000    0.000000
  0.014800000  -48.262576 -122.452477  -87.296702   48.944138    0.000000    0.000000    0.000000    0.000000
  0.015000000  -48.346321 -122.560234  -87.356703   47.936623    0.000000    0.000000    0.000000    0.000000
  0.015200000  -48.282345 -122.982826  -87.654345   45.743080    0.000000    0.000000    0.000000    0.000000
  0.015400000  -48.207843 -123.907608  -88.076008   44.548901    0.000000    0.000000    0.000000    0.000000
  0.015600000  -47.905306 -124.617691  -88.650332   45.062298    0.000000    0.000000    0.000000    0.000000
  0.015800000  -48.080456 -125.621880  -88.529886   43.053341    0.000000    0.000000    0.000000    0.000000
  0.016000000  -48.046437 -126.991409  -88.466474   42.675938    0.000000    0.000000    0.000000    0.000000
  0.016200000  -47.843066 -126.890709  -88.785614   40.604042    0.000000    0.000000    0.000000    0.000000
  0.016400000  -47.854963 -127.583344  -89.433357   44.707497    0.000000    0.000000    0.000000    0.000000
  0.016600000  -47.822302 -127.242996  -89.442291   45.592232    0.000000    0.000000    0.000000    0.000000
  0.016800000  -47.558154 -129.068604  -89.749134   46.568020    0.000000    0.000000    0.000000    0.000000
  0.017000000  -47.612731 -129.267578  -89.814037   43.171684    0.000000    0.000000    0.000000    0.000000
  0.017200000  -47.498645 -128.342514  -91.406926   48.538483    0.000000    0.000000    0.000000    0.000000
  0.017400000  -47.510364 -129.648056  -90.390456   47.949074    0.000000    0.000000    0.000000    0.000000
  0.017600000  -47.448805 -130.115829  -90.347041   43.135044    0.000000    0.000000    0.000000    0.000000
  0.017800000  -47.533710 -129.711380  -91.251675   48.300804    0.000000    0.000000    0.000000    0.000000
  0.018000000  -47.372432 -131.457520  -90.953634   45.766850    0.000000    0.000000    0.000000    0.000000
  0.018200000  -47.369816 -132.080734  -91.005634   48.757145    0.000000    0.000000    0.000000    0.000000
  0.018400000  -47.164496 -130.829758  -90.389648   45.391407    0.000000    0.000000    0.000000    0.000000
  0.018600000  -47.172822 -131.215744  -91.325899   51.003803    0.000000    0.000000    0.000000    0.000000
  0.018800000  -46.914038 -131.519287  -90.092137   45.728622    0.000000    0.000000    0.000000    0.000000
  0.019000000  -46.946903 -133.898331  -90.555025   38.670036    0.000000    0.000000    0.000000    0.000000
  0.019200000  -47.048709 -132.229141  -90.241129   46.134480    0.000000    0.000000    0.000000    0.000000
  0.019400000  -46.877906 -132.052826  -90.274727   41.281872    0.000000    0.000000    0.000000    0.000000
  0.019600000  -46.884810 -132.865082  -90.885754   39.150696    0.000000    0.000000    0.000000    0.000000
  0.019800000  -46.828784 -133.096039  -90.028991   41.351463    0.000000    0.000000    0.000000    0.000000
  0.020000000  -46.555458 -134.088242  -90.916263   35.163910    0.000000    0.000000    0.000000    0.000000
  0.020200000  -46.793523 -134.602768  -90.749792   34.098473    0.000000    0.000000    0.000000    0.000000
  0.020400000  -46.551340 -134.727478  -90.466102   39.129543    0.000000    0.000000    0.000000    0.000000
  0.020600000  -46.939138 -135.378464  -90.991352   38.727364    0.000000    0.000000    0.000000    0.000000
  0.020800000  -46.446120 -135.858246  -91.262571   35.254108    0.000000    0.000000    0.000000    0.000000
  0.021000000  -46.478603 -137.308304  -92.083909   31.781635    0.000000    0.000000    0.000000    0.000000
  0.021200000  -46.329690 -137.278625  -90.977646   29.088362    0.000000    0.000000    0.000000    0.000000
  0.021400000  -46.330714 -137.755981  -91.474144   30.431103    0.000000    0.000000    0.000000    0.000000
  0.021600000  -46.259662 -137.745193  -92.190221   34.212818    0.000000    0.000000    0.000000    0.000000
  0.021800000  -46.206366 -139.090744  -92.327560   33.495087    0.000000    0.000000    0.000000    0.000000
  0.022000000  -46.048972 -139.147568  -92.207563   28.068733    0.000000    0.000000    0.000000    0.000000
  0.022200000  -45.884067 -139.218979  -93.210958   31.258856    0.000000    0.000000    0.000000    0.000000
  0.022400000  -45.896446 -139.016296  -91.869019   34.831215    0.000000    0.000000    0.000000    0.000000
  0.022600000  -45.822181 -140.245514  -92.914495   29.718477    0.000000    0.000000    0.000000    0.000000
  0.022800000  -45.922438 -140.850037  -93.399848   34.320816    0.000000    0.000000    0.000000    0.000000
  0.023000000  -45.875148 -139.969116  -92.317189   24.161545    0.000000    0.000000    0.000000    0.000000
  0.023200000  -45.694114 -140.644897  -93.329744   27.722944    0.000000    0.000000    0.000000    0.000000
  0.023400000  -44.800379 -141.886917  -93.697411   30.083361    0.000000    0.000000    0.000000    0.000000
  0.023600000  -45.599965 -141.720581  -93.746874   17.836037    0.000000    0.000000    0.000000    0.000000
  0.023800000  -45.503670 -143.342392  -94.683521   24.348392    0.000000    0.000000    0.000000    0.000000
  0.024000000  -45.621733 -142.354752  -94.011855   26.580664    0.000000    0.000000    0.000000    0.000000
  0.024200000  -45.470993 -142.734604  -93.928732   31.852379    0.000000    0.000000    0.000000    0.000000
  0.024400000  -45.454209 -143.610825  -93.764481   29.502260    0.000000    0.000000    0.000000    0.000000
  0.024600000  -45.410391 -143.496124  -94.053651   23.076721    0.000000    0.000000    0.000000    0.000000
  0.024800000  -45.512219 -144.931305  -93.682009   26.365179    0.000000    0.000000    0.000000    0.000000
  0.025000000  -45.217851 -144.876266  -94.001730   28.131327    0.000000    0.000000    0.000000    0.000000
  0.025200000  -45.206016 -145.360733  -93.666463   30.834612    0.000000    0.000000    0.000000    0.000000
  0.025400000  -45.294239 -145.743988  -95.211463   28.902493    0.000000    0.000000    0.000000    0.000000
  0.025600000  -45.213896 -146.241135  -94.167423   27.927568    0.000000    0.000000    0.000000    0.000000
  0.025800000  -45.197634 -146.383621  -94.513070   22.612635    0.000000    0.000000    0.000000    0.000000
  0.026000000  -45.315631 -146.748474  -94.415859   22.293234    0.000000    0.000000    0.000000    0.000000
  0.026200000  -45.047994 -147.011414  -94.041902   22.698275    0.000000    0.000000    0.000000    0.000000
  0.026400000  -45.154359 -147.372849  -94.580173   21.647604    0.000000    0.000000    0.000000    0.000000
  0.026600000  -45.188945 -147.993393  -93.287066   27.407248    0.000000    0.000000    0.000000    0.000000
  0.026800000  -45.233418 -147.643005  -94.611868   22.046009    0.000000    0.000000    0.000000    0.000000
  0.027000000  -45.132004 -148.928268  -94.128414   26.041986    0.000000    0.000000    0.000000    0.000000
  0.027200000  -45.039233 -149.020416  -94.513599   18.356829    0.000000    0.000000    0.000000    0.000000
  0.027400000  -45.129934 -148.920441  -95.731786   21.916748    0.000000    0.000000    0.000000    0.000000
  0.027600000  -45.154182 -149.157455  -95.025755   22.178776    0.000000    0.000000    0.000000    0.000000
  0.027800000  -44.963733 -148.946365  -94.948927   25.914585    0.000000    0.000000    0.000000    0.000000
  0.028000000  -45.073161 -149.734512  -95.830939   16.205881    0.000000    0.000000    0.000000    0.000000
  0.028200000  -45.016046 -150.660080  -96.015254   18.876856    0.000000    0.000000    0.000000    0.000000
  0.028400000  -44.978238 -149.999893  -94.088034   11.267833    0.000000    0.000000    0.000000    0.000000
  0.028600000  -45.074750 -151.406158  -96.335698   20.669388    0.000000    0.000000    0.000000    0.000000
  0.028800000  -45.062183 -152.382980  -95.561741   13.266275    0.000000    0.000000    0.000000    0.000000
  0.029000000  -45.014084 -151.757187  -97.297376    2.316597    0.000000    0.000000    0.000000    0.000000
  0.029200000  -44.919298 -152.223236  -97.802150   19.171764    0.000000    0.000000    0.000000    0.000000
  0.029400000  -44.943607 -152.592484  -96.356524   19.105162    0.000000    0.000000    0.000000    0.000000
  0.029600000  -44.934639 -152.616180  -96.100782   18.952648    0.000000    0.000000    0.000000    0.000000
  0.029800000  -44.972378 -152.532211  -97.682084   14.245965    0.000000    0.000000    0.000000    0.000000
  0.030000000  -44.827359 -152.986725  -97.533152   16.815329    0.000000    0.000000    0.000000    0.000000
  0.030200000  -44.954865 -153.189896  -98.064504   20.736420    0.000000    0.000000    0.000000    0.000000
  0.030400000  -44.938157 -154.433411  -98.146836   21.422997    0.000000    0.000000    0.000000    0.000000
  0.030600000  -44.768069 -153.775101  -96.751758   18.711161    0.000000    0.000000    0.000000    0.000000
  0.030800000  -44.888788 -155.163834  -97.122661   20.248482    0.000000    0.000000    0.000000    0.000000
  0.031000000  -44.811050 -155.066452  -96.447277   19.913244    0.000000    0.000000    0.000000    0.000000
  0.031200000  -44.640489 -156.132339  -97.675507   21.188391    0.000000    0.000000    0.000000    0.000000
  0.031400000  -44.563252 -156.399734  -97.887429    7.769415    0.000000    0.000000    0.000000    0.000000
  0.031600000  -44.577509 -156.135620  -96.115347   10.529372    0.000000    0.000000    0.000000    0.000000
  0.031800000  -44.436962 -155.928940  -99.331503   25.682693    0.000000    0.000000    0.000000    0.000000
  0.032000000  -44.574577 -156.411850  -97.330645   35.260994    0.000000    0.000000    0.000000    0.000000
  0.032200000  -44.523480 -157.001312  -98.707927   35.550453    0.000000    0.000000    0.000000    0.000000
  0.032400000  -44.335949 -155.995865  -97.815331   14.960174    0.000000    0.000000    0.000000    0.000000
  0.032600000  -44.266085 -157.525253  -97.681843   11.319829    0.000000    0.000000    0.000000    0.000000
  0.032800000  -44.180441 -157.886978  -97.727936   10.232989    0.000000    0.000000    0.000000    0.000000
  0.033000000  -44.310886 -158.341217  -99.085219    6.720321    0.000000    0.000000    0.000000    0.000000
  0.033200000  -44.360622 -158.137085  -97.355670   17.242638    0.000000    0.000000    0.000000    0.000000
  0.033400000  -44.125948 -159.171997  -96.690436    2.007071    0.000000    0.000000    0.000000    0.000000
  0.033600000  -44.273628 -159.032684  -97.888240   16.578014    0.000000    0.000000    0.000000    0.000000
  0.033800000  -44.171383 -159.422043  -98.018407   10.048431    0.000000    0.000000    0.000000    0.000000
  0.034000000  -44.156351 -159.905640  -98.417204   23.558268    0.000000    0.000000    0.000000    0.000000
  0.034200000  -43.917524 -159.908737  -97.390104    0.057052    0.000000    0.000000    0.000000    0.000000
  0.034400000  -44.051013 -159.632553  -97.597587   -4.845719    0.000000    0.000000    0.000000    0.000000
  0.034600000  -44.100914 -159.636429  -98.222906    6.566148    0.000000    0.000000    0.000000    0.000000
  0.034800000  -44.075623 -160.029678  -99.758398   10.925250    0.000000    0.000000    0.000000    0.000000
  0.035000000  -43.997587 -160.978073  -99.249104    4.490580    0.000000    0.000000    0.000000    0.000000
  0.035200000  -44.008228 -161.503662  -98.802042   13.671609    0.000000    0.000000    0.000000    0.000000
  0.035400000  -43.996683 -161.224121  -98.584629    9.460690    0.000000    0.000000    0.000000    0.000000
  0.035600000  -43.993803 -162.069901  -97.787874    0.446970    0.000000    0.000000    0.000000    0.000000
  0.035800000  -44.058441 -162.010590 -100.464548   16.005299    0.000000    0.000000    0.000000    0.000000
  0.036000000  -44.044921 -162.091904  -98.212974    6.216143    0.000000    0.000000    0.000000    0.000000
  0.036200000  -44.040820 -161.922318  -98.535141   16.687840    0.000000    0.000000    0.000000    0.000000
  0.036400000  -43.956955 -162.903183  -99.481619    3.269443    0.000000    0.000000    0.000000    0.000000
  0.036600000  -44.011115 -163.378235 -100.194573   21.616396    0.000000    0.000000    0.000000    0.000000
  0.036800000  -43.929983 -163.601227 -100.562245   20.813683    0.000000    0.000000    0.000000    0.000000
  0.037000000  -43.895002 -163.610016 -101.543775    5.250194    0.000000    0.000000    0.000000    0.000000
  0.037200000  -43.918815 -163.449265 -100.013727    7.382280    0.000000    0.000000    0.000000    0.000000
  0.037400000  -43.888464 -162.548752  -97.810016   17.617989    0.000000    0.000000    0.000000    0.000000
  0.037600000  -44.095906 -163.577042 -100.442673    1.457066    0.000000    0.000000    0.000000    0.000000
  0.037800000  -43.967862 -163.885712  -99.870847   25.679739    0.000000    0.000000    0.000000    0.000000
  0.038000000  -43.950421 -164.654099 -101.107893   19.809231    0.000000    0.000000    0.000000    0.000000
  0.038200000  -44.021064 -164.667084  -99.544197   17.010803    0.000000    0.000000    0.000000    0.000000
  0.038400000  -44.058750 -165.414444 -100.721917   12.079385    0.000000    0.000000    0.000000    0.000000
  0.038600000  -43.968678 -165.428391  -97.760627   12.423460    0.000000    0.000000    0.000000    0.000000
  0.038800000  -43.864887 -165.836151  -99.143640   -4.753529    0.000000    0.000000    0.000000    0.000000
  0.039000000  -43.781959 -166.276428  -99.870061    8.342957    0.000000    0.000000    0.000000    0.000000
  0.039200000  -43.815409 -165.976089 -101.046064    2.016226    0.000000    0.000000    0.000000    0.000000
  0.039400000  -43.867648 -166.797775 -100.248187   14.816767    0.000000    0.000000    0.000000    0.000000
  0.039600000  -43.788178 -167.197693  -98.911790    4.681308    0.000000    0.000000    0.000000    0.000000
  0.039800000  -43.670687 -166.956482  -99.887118    7.681405    0.000000    0.000000    0.000000    0.000000
  0.040000000  -43.782908 -168.092743  -99.403795   -9.350527    0.000000    0.000000    0.000000    0.000000
  0.040200000  -43.685975 -167.596222 -100.691173   13.911834    0.000000    0.000000    0.000000    0.000000
  0.040400000  -43.566533 -167.649170  -99.860778    1.101352    0.000000    0.000000    0.000000    0.000000
  0.040600000  -43.639249 -168.142868 -101.933651   -9.295664    0.000000    0.000000    0.000000    0.000000
  0.040800000  -43.485045 -169.163055  -98.450112   -3.660092    0.000000    0.000000    0.000000    0.000000
  0.041000000  -43.557366 -169.023605 -103.236149   -3.461144    0.000000    0.000000    0.000000    0.000000
  0.041200000  -43.543257 -168.136948 -100.578035    4.266980    0.000000    0.000000    0.000000    0.000000
  0.041400000  -43.417695 -169.333069 -100.390311  -10.004759    0.000000    0.000000    0.000000    0.000000
  0.041600000  -43.429171 -169.806778 -102.182399    2.370466    0.000000    0.000000    0.000000    0.000000
  0.041800000  -43.480210 -169.143478  -99.938096   18.939499    0.000000    0.000000    0.000000    0.000000
  0.042000000  -43.412949 -170.318863 -101.951917    0.115454    0.000000    0.000000    0.000000    0.000000
  0.042200000  -43.378425 -170.426407 -102.657383   -0.471591    0.000000    0.000000    0.000000    0.000000
  0.042400000  -43.438260 -170.332733 -100.480102    7.425845    0.000000    0.000000    0.000000    0.000000
  0.042600000  -43.314003 -170.862930 -101.863014    0.663157    0.000000    0.000000    0.000000    0.000000
  0.042800000  -43.311872 -171.763657 -103.251063    8.635406    0.000000    0.000000    0.000000    0.000000
