! Anritsu VNA Master:                     Model: MS2036C/10/77
! SN:                                  1601066
! /card0/usr/256.ns.n.r200.12.s2p
! Existing Calibration Information:
! TYPE:                         Current Settings,       Active Cal Settings
! TIME:             	   12/19/2017 04:07:37 PM,    12/19/2017 03:58:02 PM
! INTERNAL TEMP:    	                   46.8 C,                    47.0 C
! # POINTS:         	                      501,                       501
! START FREQ:       	               10.000 MHz,                10.000 MHz
! STOP FREQ:        	              110.000 MHz,               110.000 MHz
! SOURCE POWER:     	                     High,                      High
! IFBW:             	                   100 Hz,                    100 Hz
! AVG FACTOR:       	                       1 ,                        1 
! REF PLANE 1:      	                     0 mm,                      0 mm
! REF PLANE 2:      	                     0 mm,                      0 mm
! CAL TYPE:         	                 Full S11,                  Full S11
! CAL METHOD:       	                     SOLT,                      SOLT
! CAL LINE TYPE:    	                     Coax,                      Coax
! DUT PORT 1:       	                N-Conn(F),                 N-Conn(F)
! DUT PORT 2:       	                K-Conn(F),                 K-Conn(F)
! CAL STATUS:       	        OK: Accuracy High,                        --
# GHZ S DB R 50.0
! FREQ.GHZ       S11DB        S11A       S21DB        S21A       S12DB        S12A       S22DB        S22A
  0.010000000   -4.539712  -11.395571  -84.215399   74.583733    0.000000    0.000000    0.000000    0.000000
  0.010200000   -4.528495  -11.573479  -84.652084   76.227737    0.000000    0.000000    0.000000    0.000000
  0.010400000   -4.524461  -11.724527  -84.579312   75.972374    0.000000    0.000000    0.000000    0.000000
  0.010600000   -4.527568  -12.029728  -84.759592   76.990784    0.000000    0.000000    0.000000    0.000000
  0.010800000   -4.529687  -12.257016  -85.243486   76.247169    0.000000    0.000000    0.000000    0.000000
  0.011000000   -4.531958  -12.492345  -85.058278   73.420235    0.000000    0.000000    0.000000    0.000000
  0.011200000   -4.532645  -12.725951  -85.086894   74.871674    0.000000    0.000000    0.000000    0.000000
  0.011400000   -4.531615  -12.980978  -84.760126   75.437500    0.000000    0.000000    0.000000    0.000000
  0.011600000   -4.530921  -13.209855  -84.967981   76.001060    0.000000    0.000000    0.000000    0.000000
  0.011800000   -4.532690  -13.443290  -85.502380   74.827629    0.000000    0.000000    0.000000    0.000000
  0.012000000   -4.532657  -13.664614  -85.426949   77.141724    0.000000    0.000000    0.000000    0.000000
  0.012200000   -4.531490  -13.919900  -84.946212   69.148293    0.000000    0.000000    0.000000    0.000000
  0.012400000   -4.536256  -14.137472  -85.666053   74.499107    0.000000    0.000000    0.000000    0.000000
  0.012600000   -4.533808  -14.383286  -85.367282   70.451668    0.000000    0.000000    0.000000    0.000000
  0.012800000   -4.534086  -14.622243  -84.800954   65.757103    0.000000    0.000000    0.000000    0.000000
  0.013000000   -4.536724  -14.840528  -85.534760   66.956505    0.000000    0.000000    0.000000    0.000000
  0.013200000   -4.535067  -15.079349  -85.521441   62.721012    0.000000    0.000000    0.000000    0.000000
  0.013400000   -4.537345  -15.295009  -85.527679   63.014179    0.000000    0.000000    0.000000    0.000000
  0.013600000   -4.536306  -15.515158  -85.540422   58.633747    0.000000    0.000000    0.000000    0.000000
  0.013800000   -4.532387  -15.756215  -86.482015   58.736008    0.000000    0.000000    0.000000    0.000000
  0.014000000   -4.533950  -15.982298  -85.656699   55.943005    0.000000    0.000000    0.000000    0.000000
  0.014200000   -4.537516  -16.214972  -86.321986   54.260288    0.000000    0.000000    0.000000    0.000000
  0.014400000   -4.537176  -16.449366  -86.968109   53.630085    0.000000    0.000000    0.000000    0.000000
  0.014600000   -4.537831  -16.687908  -86.941558   49.427280    0.000000    0.000000    0.000000    0.000000
  0.014800000   -4.538052  -16.921675  -86.937119   49.716618    0.000000    0.000000    0.000000    0.000000
  0.015000000   -4.540687  -17.135170  -87.133172   45.629711    0.000000    0.000000    0.000000    0.000000
  0.015200000   -4.540680  -17.363750  -87.842610   50.098557    0.000000    0.000000    0.000000    0.000000
  0.015400000   -4.542175  -17.616745  -87.752955   46.129562    0.000000    0.000000    0.000000    0.000000
  0.015600000   -4.544489  -17.732807  -88.444569   44.466789    0.000000    0.000000    0.000000    0.000000
  0.015800000   -4.546485  -18.079201  -88.460920   49.000889    0.000000    0.000000    0.000000    0.000000
  0.016000000   -4.545894  -18.323246  -88.867523   44.778912    0.000000    0.000000    0.000000    0.000000
  0.016200000   -4.546429  -18.540514  -89.086818   44.420334    0.000000    0.000000    0.000000    0.000000
  0.016400000   -4.548462  -18.763584  -89.458812   42.083900    0.000000    0.000000    0.000000    0.000000
  0.016600000   -4.550405  -18.986544  -89.182198   47.159687    0.000000    0.000000    0.000000    0.000000
  0.016800000   -4.551596  -19.236353  -89.930445   46.901314    0.000000    0.000000    0.000000    0.000000
  0.017000000   -4.550746  -19.477953  -89.829306   43.585075    0.000000    0.000000    0.000000    0.000000
  0.017200000   -4.548482  -19.712305  -90.110986   45.987297    0.000000    0.000000    0.000000    0.000000
  0.017400000   -4.547760  -19.937403  -89.830859   44.304905    0.000000    0.000000    0.000000    0.000000
  0.017600000   -4.547303  -20.201031  -90.223062   50.351616    0.000000    0.000000    0.000000    0.000000
  0.017800000   -4.549980  -20.408890  -90.619381   47.170399    0.000000    0.000000    0.000000    0.000000
  0.018000000   -4.548764  -20.652355  -89.935030   46.902065    0.000000    0.000000    0.000000    0.000000
  0.018200000   -4.550156  -20.871025  -90.380768   48.464760    0.000000    0.000000    0.000000    0.000000
  0.018400000   -4.553464  -21.116121  -90.359195   48.042362    0.000000    0.000000    0.000000    0.000000
  0.018600000   -4.560763  -21.347769  -91.290553   48.202923    0.000000    0.000000    0.000000    0.000000
  0.018800000   -4.557575  -21.595713  -91.512591   44.800541    0.000000    0.000000    0.000000    0.000000
  0.019000000   -4.556370  -21.827658  -90.610818   45.658817    0.000000    0.000000    0.000000    0.000000
  0.019200000   -4.555757  -22.039871  -90.432316   46.392471    0.000000    0.000000    0.000000    0.000000
  0.019400000   -4.556132  -22.279417  -90.537980   39.175957    0.000000    0.000000    0.000000    0.000000
  0.019600000   -4.559507  -22.511564  -90.274317   39.728832    0.000000    0.000000    0.000000    0.000000
  0.019800000   -4.559128  -22.752378  -91.075102   36.560341    0.000000    0.000000    0.000000    0.000000
  0.020000000   -4.558700  -22.995251  -90.597515   34.582661    0.000000    0.000000    0.000000    0.000000
  0.020200000   -4.555806  -23.199951  -90.885198   38.966084    0.000000    0.000000    0.000000    0.000000
  0.020400000   -4.556512  -23.437155  -91.353906   38.206352    0.000000    0.000000    0.000000    0.000000
  0.020600000   -4.553275  -23.690481  -90.827294   36.818600    0.000000    0.000000    0.000000    0.000000
  0.020800000   -4.552016  -23.904276  -91.243263   39.222813    0.000000    0.000000    0.000000    0.000000
  0.021000000   -4.552059  -24.170666  -91.109794   37.133137    0.000000    0.000000    0.000000    0.000000
  0.021200000   -4.558052  -24.399836  -91.338799   31.612196    0.000000    0.000000    0.000000    0.000000
  0.021400000   -4.554279  -24.650785  -92.167546   29.074434    0.000000    0.000000    0.000000    0.000000
  0.021600000   -4.554753  -24.871176  -91.858156   31.308699    0.000000    0.000000    0.000000    0.000000
  0.021800000   -4.556885  -25.101803  -91.909666   24.999573    0.000000    0.000000    0.000000    0.000000
  0.022000000   -4.555910  -25.332705  -91.533300   27.107973    0.000000    0.000000    0.000000    0.000000
  0.022200000   -4.555916  -25.539305  -92.953459   26.465322    0.000000    0.000000    0.000000    0.000000
  0.022400000   -4.558307  -25.759220  -93.615962   33.219990    0.000000    0.000000    0.000000    0.000000
  0.022600000   -4.557593  -25.990150  -92.629870   27.946945    0.000000    0.000000    0.000000    0.000000
  0.022800000   -4.555881  -26.209948  -92.494106   24.929258    0.000000    0.000000    0.000000    0.000000
  0.023000000   -4.558989  -26.422518  -92.278585   32.768356    0.000000    0.000000    0.000000    0.000000
  0.023200000   -4.561856  -26.647411  -94.812848   30.809849    0.000000    0.000000    0.000000    0.000000
  0.023400000   -4.562580  -26.873980  -93.715155   27.949846    0.000000    0.000000    0.000000    0.000000
  0.023600000   -4.561575  -27.125137  -93.724739   35.645660    0.000000    0.000000    0.000000    0.000000
  0.023800000   -4.562178  -27.351091  -94.264497   28.919065    0.000000    0.000000    0.000000    0.000000
  0.024000000   -4.558174  -27.605705  -93.556225   37.822643    0.000000    0.000000    0.000000    0.000000
  0.024200000   -4.552096  -27.825205  -94.279108   30.777624    0.000000    0.000000    0.000000    0.000000
  0.024400000   -4.553693  -28.060621  -95.034474   34.520069    0.000000    0.000000    0.000000    0.000000
  0.024600000   -4.553339  -28.294333  -93.436578   27.656744    0.000000    0.000000    0.000000    0.000000
  0.024800000   -4.555821  -28.535622  -94.841774   31.917511    0.000000    0.000000    0.000000    0.000000
  0.025000000   -4.555351  -28.760178  -94.716949   34.670380    0.000000    0.000000    0.000000    0.000000
  0.025200000   -4.555529  -28.977596  -94.616603   33.553177    0.000000    0.000000    0.000000    0.000000
  0.025400000   -4.557579  -29.166674  -94.632718   27.108915    0.000000    0.000000    0.000000    0.000000
  0.025600000   -4.559341  -29.394236  -93.447187   26.951721    0.000000    0.000000    0.000000    0.000000
  0.025800000   -4.561321  -29.563620  -94.614772   19.858593    0.000000    0.000000    0.000000    0.000000
  0.026000000   -4.564024  -29.787319  -94.629780   29.821375    0.000000    0.000000    0.000000    0.000000
  0.026200000   -4.569336  -30.003685  -94.300293   26.099468    0.000000    0.000000    0.000000    0.000000
  0.026400000   -4.570004  -30.232231  -93.996348   18.851402    0.000000    0.000000    0.000000    0.000000
  0.026600000   -4.574550  -30.452303  -94.414841   19.617855    0.000000    0.000000    0.000000    0.000000
  0.026800000   -4.575169  -30.699251  -94.323259   15.889431    0.000000    0.000000    0.000000    0.000000
  0.027000000   -4.574620  -30.940331  -94.148842   23.346216    0.000000    0.000000    0.000000    0.000000
  0.027200000   -4.576174  -31.188450  -95.153785   23.420088    0.000000    0.000000    0.000000    0.000000
  0.027400000   -4.575947  -31.451860  -95.013971   16.379007    0.000000    0.000000    0.000000    0.000000
  0.027600000   -4.578830  -31.703569  -96.040724   22.214624    0.000000    0.000000    0.000000    0.000000
  0.027800000   -4.581911  -31.954313  -94.784413   20.207634    0.000000    0.000000    0.000000    0.000000
  0.028000000   -4.584622  -32.195885  -95.987519   22.254971    0.000000    0.000000    0.000000    0.000000
  0.028200000   -4.585302  -32.465767  -95.576000   17.758686    0.000000    0.000000    0.000000    0.000000
  0.028400000   -4.584978  -32.730740  -96.484603   21.627289    0.000000    0.000000    0.000000    0.000000
  0.028600000   -4.582638  -32.969673  -96.479695   14.059723    0.000000    0.000000    0.000000    0.000000
  0.028800000   -4.579511  -33.189369  -96.067333   18.262640    0.000000    0.000000    0.000000    0.000000
  0.029000000   -4.578345  -33.397533  -96.193150   17.745173    0.000000    0.000000    0.000000    0.000000
  0.029200000   -4.575448  -33.595047  -95.840825   17.803730    0.000000    0.000000    0.000000    0.000000
  0.029400000   -4.577110  -33.793396  -96.480440   14.485160    0.000000    0.000000    0.000000    0.000000
  0.029600000   -4.575570  -33.982723  -96.850320   12.354610    0.000000    0.000000    0.000000    0.000000
  0.029800000   -4.581470  -34.211617  -97.035879   13.185335    0.000000    0.000000    0.000000    0.000000
  0.030000000   -4.588420  -34.423904  -98.232110   18.643522    0.000000    0.000000    0.000000    0.000000
  0.030200000   -4.594485  -34.677586  -97.944279   15.981132    0.000000    0.000000    0.000000    0.000000
  0.030400000   -4.597792  -34.931782  -97.509127   15.611043    0.000000    0.000000    0.000000    0.000000
  0.030600000   -4.600217  -35.192493  -98.238867   11.473742    0.000000    0.000000    0.000000    0.000000
  0.030800000   -4.599248  -35.479939  -96.801260   14.435895    0.000000    0.000000    0.000000    0.000000
  0.031000000   -4.596844  -35.755306  -97.145544   16.761391    0.000000    0.000000    0.000000    0.000000
  0.031200000   -4.593400  -35.977440  -95.409120   29.319462    0.000000    0.000000    0.000000    0.000000
  0.031400000   -4.589844  -36.254662  -95.743743   17.530123    0.000000    0.000000    0.000000    0.000000
  0.031600000   -4.586655  -36.497684  -97.821874    7.753972    0.000000    0.000000    0.000000    0.000000
  0.031800000   -4.587495  -36.736031  -97.511641   22.439564    0.000000    0.000000    0.000000    0.000000
  0.032000000   -4.582531  -36.969196  -97.135803   23.862745    0.000000    0.000000    0.000000    0.000000
  0.032200000   -4.575741  -37.192680  -96.794282   13.950410    0.000000    0.000000    0.000000    0.000000
  0.032400000   -4.567677  -37.421867  -98.100158   16.000408    0.000000    0.000000    0.000000    0.000000
  0.032600000   -4.563546  -37.607441  -97.108320   17.118328    0.000000    0.000000    0.000000    0.000000
  0.032800000   -4.559315  -37.806995  -97.555196   22.317266    0.000000    0.000000    0.000000    0.000000
  0.033000000   -4.554277  -38.000027  -98.742348   12.154655    0.000000    0.000000    0.000000    0.000000
  0.033200000   -4.555330  -38.209679  -98.312585   11.693688    0.000000    0.000000    0.000000    0.000000
  0.033400000   -4.559768  -38.398026  -98.809804   20.058989    0.000000    0.000000    0.000000    0.000000
  0.033600000   -4.561870  -38.615524  -97.459780    0.966492    0.000000    0.000000    0.000000    0.000000
  0.033800000   -4.560964  -38.833111  -99.096724   13.972974    0.000000    0.000000    0.000000    0.000000
  0.034000000   -4.564159  -39.044579  -98.235616   16.447069    0.000000    0.000000    0.000000    0.000000
  0.034200000   -4.568307  -39.307434  -98.825751    8.727468    0.000000    0.000000    0.000000    0.000000
  0.034400000   -4.569723  -39.522686  -98.594513   11.428594    0.000000    0.000000    0.000000    0.000000
  0.034600000   -4.576066  -39.751194  -97.681909    6.246800    0.000000    0.000000    0.000000    0.000000
  0.034800000   -4.578402  -40.000668  -98.369156    7.499701    0.000000    0.000000    0.000000    0.000000
  0.035000000   -4.586186  -40.246235  -98.914335    0.534204    0.000000    0.000000    0.000000    0.000000
  0.035200000   -4.590974  -40.497574  -97.105224    2.574632    0.000000    0.000000    0.000000    0.000000
  0.035400000   -4.594415  -40.750038  -98.780921    5.129558    0.000000    0.000000    0.000000    0.000000
  0.035600000   -4.592131  -40.983215  -98.808540    8.576114    0.000000    0.000000    0.000000    0.000000
  0.035800000   -4.596415  -41.217812  -99.793118    9.126329    0.000000    0.000000    0.000000    0.000000
  0.036000000   -4.595065  -41.459843  -98.163267   10.409087    0.000000    0.000000    0.000000    0.000000
  0.036200000   -4.593524  -41.707180  -98.311586    5.316390    0.000000    0.000000    0.000000    0.000000
  0.036400000   -4.595016  -41.971546  -99.236227    6.460750    0.000000    0.000000    0.000000    0.000000
  0.036600000   -4.588147  -42.196781  -98.914750    0.169687    0.000000    0.000000    0.000000    0.000000
  0.036800000   -4.582648  -42.428841  -99.139932   15.764238    0.000000    0.000000    0.000000    0.000000
  0.037000000   -4.580428  -42.632816 -100.528141    4.858560    0.000000    0.000000    0.000000    0.000000
  0.037200000   -4.578712  -42.838322  -99.006900    8.455966    0.000000    0.000000    0.000000    0.000000
  0.037400000   -4.583838  -43.012966  -98.707239   22.024933    0.000000    0.000000    0.000000    0.000000
  0.037600000   -4.589516  -43.242004 -100.252777   18.626038    0.000000    0.000000    0.000000    0.000000
  0.037800000   -4.597736  -43.483524  -98.434212   10.991515    0.000000    0.000000    0.000000    0.000000
  0.038000000   -4.604226  -43.741913  -99.420595    0.562707    0.000000    0.000000    0.000000    0.000000
  0.038200000   -4.613666  -43.992672  -98.140393   26.394234    0.000000    0.000000    0.000000    0.000000
  0.038400000   -4.619297  -44.268978  -99.586331    3.410792    0.000000    0.000000    0.000000    0.000000
  0.038600000   -4.623004  -44.503643  -99.761065   11.848493    0.000000    0.000000    0.000000    0.000000
  0.038800000   -4.624462  -44.806393  -99.380706   11.360888    0.000000    0.000000    0.000000    0.000000
  0.039000000   -4.621357  -45.070145  -99.970352   10.634142    0.000000    0.000000    0.000000    0.000000
  0.039200000   -4.621893  -45.312878  -97.545407   13.979216    0.000000    0.000000    0.000000    0.000000
  0.039400000   -4.618825  -45.614513 -100.223926    9.848359    0.000000    0.000000    0.000000    0.000000
  0.039600000   -4.615152  -45.853645  -97.761978   10.781703    0.000000    0.000000    0.000000    0.000000
  0.039800000   -4.607158  -46.104717 -102.574167    8.735224    0.000000    0.000000    0.000000    0.000000
  0.040000000   -4.602357  -46.363693  -99.396089    8.779983    0.000000    0.000000    0.000000    0.000000
  0.040200000   -4.596277  -46.554817 -101.390350   11.479191    0.000000    0.000000    0.000000    0.000000
  0.040400000   -4.593196  -46.778004 -100.744026   15.375280    0.000000    0.000000    0.000000    0.000000
  0.040600000   -4.589795  -46.983585 -103.264672    1.240857    0.000000    0.000000    0.000000    0.000000
  0.040800000   -4.589683  -47.185455  -98.927733   -7.901904    0.000000    0.000000    0.000000    0.000000
  0.041000000   -4.591176  -47.373348 -100.026436   11.214817    0.000000    0.000000    0.000000    0.000000
  0.041200000   -4.592834  -47.604664 -101.208914   -2.643996    0.000000    0.000000    0.000000    0.000000
  0.041400000   -4.597809  -47.814602 -101.639240    4.159093    0.000000    0.000000    0.000000    0.000000
  0.041600000   -4.601935  -48.051128 -102.049787    7.003664    0.000000    0.000000    0.000000    0.000000
  0.041800000   -4.603009  -48.299870 -102.772811   15.284107    0.000000    0.000000    0.000000    0.000000
  0.042000000   -4.609909  -48.537800 -100.559015    1.743783    0.000000    0.000000    0.000000    0.000000
  0.042200000   -4.609472  -48.756271  -99.680655   18.117704    0.000000    0.000000    0.000000    0.000000
  0.042400000   -4.611739  -48.963375 -101.109403   -6.913188    0.000000    0.000000    0.000000    0.000000
  0.042600000   -4.614212  -49.194790 -102.732201  -10.812744    0.000000    0.000000    0.000000    0.000000
  0.042800000   -4.611166  -49.423855 -102.550297   -7.380689    0.000000    0.000000    0.000000    0.000000
