! Anritsu VNA Master:                     Model: MS2036C/10/77
! SN:                                  1601066
! /card0/usr/256.ns.n.r50.22.s2p
! Existing Calibration Information:
! TYPE:                         Current Settings,       Active Cal Settings
! TIME:             	   12/19/2017 04:18:53 PM,    12/19/2017 03:58:02 PM
! INTERNAL TEMP:    	                   46.3 C,                    47.0 C
! # POINTS:         	                      501,                       501
! START FREQ:       	               10.000 MHz,                10.000 MHz
! STOP FREQ:        	              110.000 MHz,               110.000 MHz
! SOURCE POWER:     	                     High,                      High
! IFBW:             	                   100 Hz,                    100 Hz
! AVG FACTOR:       	                       1 ,                        1 
! REF PLANE 1:      	                     0 mm,                      0 mm
! REF PLANE 2:      	                     0 mm,                      0 mm
! CAL TYPE:         	                 Full S11,                  Full S11
! CAL METHOD:       	                     SOLT,                      SOLT
! CAL LINE TYPE:    	                     Coax,                      Coax
! DUT PORT 1:       	                N-Conn(F),                 N-Conn(F)
! DUT PORT 2:       	                K-Conn(F),                 K-Conn(F)
! CAL STATUS:       	        OK: Accuracy High,                        --
# GHZ S DB R 50.0
! FREQ.GHZ       S11DB        S11A       S21DB        S21A       S12DB        S12A       S22DB        S22A
  0.010000000  -43.961038   55.853653  -82.626156   80.218460    0.000000    0.000000    0.000000    0.000000
  0.010200000  -43.750092   56.614719  -82.971285   76.873177    0.000000    0.000000    0.000000    0.000000
  0.010400000  -43.791903   58.437077  -83.568466   71.845398    0.000000    0.000000    0.000000    0.000000
  0.010600000  -43.705459   56.604935  -83.801618   76.603111    0.000000    0.000000    0.000000    0.000000
  0.010800000  -43.433541   56.794140  -83.789987   70.640556    0.000000    0.000000    0.000000    0.000000
  0.011000000  -43.391932   55.407948  -84.138244   69.794914    0.000000    0.000000    0.000000    0.000000
  0.011200000  -42.848851   56.817661  -84.446424   73.000328    0.000000    0.000000    0.000000    0.000000
  0.011400000  -42.980544   57.077816  -85.067429   67.465935    0.000000    0.000000    0.000000    0.000000
  0.011600000  -42.486995   56.365456  -84.933408   70.887512    0.000000    0.000000    0.000000    0.000000
  0.011800000  -42.809887   57.754658  -85.466686   66.081879    0.000000    0.000000    0.000000    0.000000
  0.012000000  -42.368942   57.950802  -85.525608   65.866928    0.000000    0.000000    0.000000    0.000000
  0.012200000  -42.261712   56.440277  -85.081500   64.196648    0.000000    0.000000    0.000000    0.000000
  0.012400000  -42.257164   56.405155  -85.422380   67.465652    0.000000    0.000000    0.000000    0.000000
  0.012600000  -42.098891   58.301865  -85.845217   61.004250    0.000000    0.000000    0.000000    0.000000
  0.012800000  -42.084467   57.459568  -85.853006   64.884972    0.000000    0.000000    0.000000    0.000000
  0.013000000  -41.902815   57.150486  -86.293540   58.352539    0.000000    0.000000    0.000000    0.000000
  0.013200000  -42.026177   57.432369  -86.462110   58.825600    0.000000    0.000000    0.000000    0.000000
  0.013400000  -41.641473   57.883060  -86.419856   59.853394    0.000000    0.000000    0.000000    0.000000
  0.013600000  -41.922714   58.360939  -86.828295   60.687370    0.000000    0.000000    0.000000    0.000000
  0.013800000  -41.752012   58.229420  -86.648107   59.493618    0.000000    0.000000    0.000000    0.000000
  0.014000000  -41.642296   57.633224  -86.997189   55.475143    0.000000    0.000000    0.000000    0.000000
  0.014200000  -41.607450   56.971935  -87.069404   54.261589    0.000000    0.000000    0.000000    0.000000
  0.014400000  -41.647875   57.161560  -87.421133   57.189281    0.000000    0.000000    0.000000    0.000000
  0.014600000  -41.551326   56.882366  -87.468509   54.557487    0.000000    0.000000    0.000000    0.000000
  0.014800000  -41.542919   57.455360  -86.947846   55.367477    0.000000    0.000000    0.000000    0.000000
  0.015000000  -41.122491   56.974159  -87.757142   52.899738    0.000000    0.000000    0.000000    0.000000
  0.015200000  -41.232392   56.687119  -87.409939   52.280045    0.000000    0.000000    0.000000    0.000000
  0.015400000  -41.107702   56.305923  -87.877580   53.569592    0.000000    0.000000    0.000000    0.000000
  0.015600000  -41.111250   57.013000  -88.279032   48.295322    0.000000    0.000000    0.000000    0.000000
  0.015800000  -41.056194   56.656609  -87.968989   48.722740    0.000000    0.000000    0.000000    0.000000
  0.016000000  -40.983644   55.958004  -88.664325   54.140182    0.000000    0.000000    0.000000    0.000000
  0.016200000  -40.930382   55.527039  -87.893151   51.130116    0.000000    0.000000    0.000000    0.000000
  0.016400000  -40.866014   55.414894  -88.293645   46.584145    0.000000    0.000000    0.000000    0.000000
  0.016600000  -40.688611   55.888031  -88.810009   48.487072    0.000000    0.000000    0.000000    0.000000
  0.016800000  -40.614924   55.246311  -89.258674   49.640648    0.000000    0.000000    0.000000    0.000000
  0.017000000  -40.664977   55.185413  -88.675994   44.404320    0.000000    0.000000    0.000000    0.000000
  0.017200000  -40.482512   54.698383  -89.395384   48.545631    0.000000    0.000000    0.000000    0.000000
  0.017400000  -40.444179   56.165012  -89.357517   44.026676    0.000000    0.000000    0.000000    0.000000
  0.017600000  -40.304865   53.904404  -89.301136   45.784485    0.000000    0.000000    0.000000    0.000000
  0.017800000  -40.097051   54.861416  -89.696329   46.033577    0.000000    0.000000    0.000000    0.000000
  0.018000000  -40.101670   54.712723  -89.868634   40.554893    0.000000    0.000000    0.000000    0.000000
  0.018200000  -40.074037   53.878433  -89.873396   39.802437    0.000000    0.000000    0.000000    0.000000
  0.018400000  -40.062610   54.361668  -90.706267   42.133385    0.000000    0.000000    0.000000    0.000000
  0.018600000  -39.913613   54.690166  -90.396368   35.955582    0.000000    0.000000    0.000000    0.000000
  0.018800000  -39.734345   54.571297  -90.533786   37.211311    0.000000    0.000000    0.000000    0.000000
  0.019000000  -39.868953   53.826630  -90.793820   39.947433    0.000000    0.000000    0.000000    0.000000
  0.019200000  -39.782250   54.618641  -90.180084   35.388443    0.000000    0.000000    0.000000    0.000000
  0.019400000  -39.691295   54.143494  -91.008112   40.653118    0.000000    0.000000    0.000000    0.000000
  0.019600000  -39.640099   53.742592  -91.391791   37.768776    0.000000    0.000000    0.000000    0.000000
  0.019800000  -39.665610   54.031071  -91.073951   35.393837    0.000000    0.000000    0.000000    0.000000
  0.020000000  -39.548448   53.674084  -90.506936   42.336208    0.000000    0.000000    0.000000    0.000000
  0.020200000  -39.543589   53.804890  -91.725695   36.737206    0.000000    0.000000    0.000000    0.000000
  0.020400000  -39.482104   54.173409  -91.512814   37.096897    0.000000    0.000000    0.000000    0.000000
  0.020600000  -39.462617   53.791565  -92.307256   32.697525    0.000000    0.000000    0.000000    0.000000
  0.020800000  -39.382762   53.852596  -91.836065   38.941841    0.000000    0.000000    0.000000    0.000000
  0.021000000  -39.248896   52.054718  -92.295748   41.328876    0.000000    0.000000    0.000000    0.000000
  0.021200000  -39.239248   52.475536  -91.897409   34.793682    0.000000    0.000000    0.000000    0.000000
  0.021400000  -39.133665   51.725773  -91.803638   36.094105    0.000000    0.000000    0.000000    0.000000
  0.021600000  -39.033117   51.805424  -91.730343   35.155388    0.000000    0.000000    0.000000    0.000000
  0.021800000  -38.922803   52.013832  -92.465444   30.559206    0.000000    0.000000    0.000000    0.000000
  0.022000000  -38.962378   51.312901  -91.676033   33.644539    0.000000    0.000000    0.000000    0.000000
  0.022200000  -38.821227   51.070564  -90.962748   36.687233    0.000000    0.000000    0.000000    0.000000
  0.022400000  -38.643425   51.037365  -92.080077   28.185347    0.000000    0.000000    0.000000    0.000000
  0.022600000  -38.629216   51.505123  -92.454327   33.247040    0.000000    0.000000    0.000000    0.000000
  0.022800000  -38.543010   50.807678  -93.322112   28.984488    0.000000    0.000000    0.000000    0.000000
  0.023000000  -38.441349   50.121876  -92.904867   23.205687    0.000000    0.000000    0.000000    0.000000
  0.023200000  -38.254476   49.760635  -92.848975   27.461802    0.000000    0.000000    0.000000    0.000000
  0.023400000  -38.337672   50.302116  -93.810538   26.199053    0.000000    0.000000    0.000000    0.000000
  0.023600000  -38.148921   49.199837  -93.439925   32.192535    0.000000    0.000000    0.000000    0.000000
  0.023800000  -38.007438   50.644283  -94.031252   28.438513    0.000000    0.000000    0.000000    0.000000
  0.024000000  -37.985335   50.230099  -93.591166   22.367348    0.000000    0.000000    0.000000    0.000000
  0.024200000  -37.866742   50.222626  -93.054600   30.851347    0.000000    0.000000    0.000000    0.000000
  0.024400000  -37.781803   50.836136  -94.255061   30.309317    0.000000    0.000000    0.000000    0.000000
  0.024600000  -37.612911   50.326603  -93.936706   29.028721    0.000000    0.000000    0.000000    0.000000
  0.024800000  -37.622964   51.157253  -93.657972   30.059980    0.000000    0.000000    0.000000    0.000000
  0.025000000  -37.597460   50.753647  -93.766932   27.934666    0.000000    0.000000    0.000000    0.000000
  0.025200000  -37.599342   50.892700  -95.353117   23.781208    0.000000    0.000000    0.000000    0.000000
  0.025400000  -37.413221   51.853039  -94.402755   21.989723    0.000000    0.000000    0.000000    0.000000
  0.025600000  -37.434497   51.736614  -94.569675   21.156708    0.000000    0.000000    0.000000    0.000000
  0.025800000  -37.351998   50.915455  -94.897385   22.092142    0.000000    0.000000    0.000000    0.000000
  0.026000000  -37.377140   51.677174  -93.629251   24.134275    0.000000    0.000000    0.000000    0.000000
  0.026200000  -37.393738   51.926033  -94.519404   25.978773    0.000000    0.000000    0.000000    0.000000
  0.026400000  -37.336475   52.115200  -95.958282   29.427017    0.000000    0.000000    0.000000    0.000000
  0.026600000  -37.294642   51.802799  -94.087466   17.460360    0.000000    0.000000    0.000000    0.000000
  0.026800000  -37.265663   52.172501  -94.192717   28.438049    0.000000    0.000000    0.000000    0.000000
  0.027000000  -37.323584   51.821831  -94.064717   23.871803    0.000000    0.000000    0.000000    0.000000
  0.027200000  -37.208256   52.385353  -95.415267   15.841023    0.000000    0.000000    0.000000    0.000000
  0.027400000  -37.259038   52.044193  -95.772834   14.998023    0.000000    0.000000    0.000000    0.000000
  0.027600000  -37.284894   52.180237  -96.197241   19.343470    0.000000    0.000000    0.000000    0.000000
  0.027800000  -37.270383   51.662861  -95.934719   21.687876    0.000000    0.000000    0.000000    0.000000
  0.028000000  -37.180191   51.579460  -95.950937   11.273026    0.000000    0.000000    0.000000    0.000000
  0.028200000  -37.154156   51.322136  -95.933564   16.292147    0.000000    0.000000    0.000000    0.000000
  0.028400000  -37.212130   51.035484  -95.001731   23.644579    0.000000    0.000000    0.000000    0.000000
  0.028600000  -37.137587   50.778137  -96.336281   28.968775    0.000000    0.000000    0.000000    0.000000
  0.028800000  -37.226005   50.795174  -96.800170   16.474739    0.000000    0.000000    0.000000    0.000000
  0.029000000  -37.049612   50.207756  -96.242401   21.365578    0.000000    0.000000    0.000000    0.000000
  0.029200000  -37.093003   49.870552  -96.357329   22.384035    0.000000    0.000000    0.000000    0.000000
  0.029400000  -37.026887   49.917641  -97.043968   19.466185    0.000000    0.000000    0.000000    0.000000
  0.029600000  -36.982997   49.478397  -95.790660   17.266350    0.000000    0.000000    0.000000    0.000000
  0.029800000  -36.965252   48.886883  -96.814424   19.061182    0.000000    0.000000    0.000000    0.000000
  0.030000000  -36.892387   48.697083  -97.546722   18.469456    0.000000    0.000000    0.000000    0.000000
  0.030200000  -36.886483   48.044365  -96.263166   16.228287    0.000000    0.000000    0.000000    0.000000
  0.030400000  -36.751686   48.010441  -96.542380   11.752398    0.000000    0.000000    0.000000    0.000000
  0.030600000  -36.693728   47.417255  -96.614744   18.935835    0.000000    0.000000    0.000000    0.000000
  0.030800000  -36.626187   47.478706  -96.427285   17.747305    0.000000    0.000000    0.000000    0.000000
  0.031000000  -36.571127   46.426033  -97.456197   18.626684    0.000000    0.000000    0.000000    0.000000
  0.031200000  -36.459208   46.370029  -97.063564   16.928156    0.000000    0.000000    0.000000    0.000000
  0.031400000  -36.395247   46.526966  -96.166330   17.054537    0.000000    0.000000    0.000000    0.000000
  0.031600000  -36.389660   46.573856  -97.676169   18.766111    0.000000    0.000000    0.000000    0.000000
  0.031800000  -36.213184   46.994850  -96.841871   13.444113    0.000000    0.000000    0.000000    0.000000
  0.032000000  -36.221396   46.849808  -98.257524   21.191919    0.000000    0.000000    0.000000    0.000000
  0.032200000  -36.177131   46.756615  -97.469738   18.277903    0.000000    0.000000    0.000000    0.000000
  0.032400000  -36.075640   46.346428  -96.813783   17.761454    0.000000    0.000000    0.000000    0.000000
  0.032600000  -36.088916   47.020771  -98.076740   20.133430    0.000000    0.000000    0.000000    0.000000
  0.032800000  -35.878396   47.491024  -98.586677   21.198172    0.000000    0.000000    0.000000    0.000000
  0.033000000  -35.858819   47.020767  -98.820993   12.370348    0.000000    0.000000    0.000000    0.000000
  0.033200000  -35.829281   46.742554  -97.612314    8.854755    0.000000    0.000000    0.000000    0.000000
  0.033400000  -35.726349   47.945946  -98.423607   21.724697    0.000000    0.000000    0.000000    0.000000
  0.033600000  -35.712378   47.896641  -96.807443    3.199845    0.000000    0.000000    0.000000    0.000000
  0.033800000  -35.713977   46.652748  -97.231329   12.099430    0.000000    0.000000    0.000000    0.000000
  0.034000000  -35.691343   47.636215  -97.399142   19.403587    0.000000    0.000000    0.000000    0.000000
  0.034200000  -35.674127   47.556313  -98.238245   14.801247    0.000000    0.000000    0.000000    0.000000
  0.034400000  -35.544490   47.127075  -99.418489   14.579631    0.000000    0.000000    0.000000    0.000000
  0.034600000  -35.557751   48.150307  -96.569315    0.923652    0.000000    0.000000    0.000000    0.000000
  0.034800000  -35.541657   47.321003  -96.664309    8.343010    0.000000    0.000000    0.000000    0.000000
  0.035000000  -35.664757   48.289165  -98.411108   19.397663    0.000000    0.000000    0.000000    0.000000
  0.035200000  -35.540594   47.778210  -99.752519   13.135794    0.000000    0.000000    0.000000    0.000000
  0.035400000  -35.560808   48.314743  -98.577246   15.714562    0.000000    0.000000    0.000000    0.000000
  0.035600000  -35.565512   47.961975  -98.312183   15.085248    0.000000    0.000000    0.000000    0.000000
  0.035800000  -35.500510   48.024937  -97.517748   13.602791    0.000000    0.000000    0.000000    0.000000
  0.036000000  -35.460384   48.060059  -97.945450    0.294718    0.000000    0.000000    0.000000    0.000000
  0.036200000  -35.519957   48.046986  -99.267820   -1.805757    0.000000    0.000000    0.000000    0.000000
  0.036400000  -35.537681   48.064384  -98.986742    5.949246    0.000000    0.000000    0.000000    0.000000
  0.036600000  -35.536003   48.289986  -98.303264    9.710736    0.000000    0.000000    0.000000    0.000000
  0.036800000  -35.550999   47.495522  -98.038616   20.509069    0.000000    0.000000    0.000000    0.000000
  0.037000000  -35.562784   47.359261  -99.010184    4.758995    0.000000    0.000000    0.000000    0.000000
  0.037200000  -35.541524   46.918411  -98.943475    9.735543    0.000000    0.000000    0.000000    0.000000
  0.037400000  -35.542685   46.300488 -103.557699    3.449553    0.000000    0.000000    0.000000    0.000000
  0.037600000  -35.557649   46.158390 -100.901794   38.722382    0.000000    0.000000    0.000000    0.000000
  0.037800000  -35.516639   45.916908  -99.844124    2.915565    0.000000    0.000000    0.000000    0.000000
  0.038000000  -35.561500   45.996525 -101.271590   17.107195    0.000000    0.000000    0.000000    0.000000
  0.038200000  -35.543725   45.126125  -99.471846    6.651409    0.000000    0.000000    0.000000    0.000000
  0.038400000  -35.553128   45.003643 -100.715662    1.864186    0.000000    0.000000    0.000000    0.000000
  0.038600000  -35.471500   44.473938  -97.691805    3.138833    0.000000    0.000000    0.000000    0.000000
  0.038800000  -35.499172   43.996845  -98.594455    4.991075    0.000000    0.000000    0.000000    0.000000
  0.039000000  -35.528270   43.382698  -99.363750    5.640918    0.000000    0.000000    0.000000    0.000000
  0.039200000  -35.336514   42.161873  -99.793667   17.737837    0.000000    0.000000    0.000000    0.000000
  0.039400000  -35.364050   42.749535 -101.626341   13.725755    0.000000    0.000000    0.000000    0.000000
  0.039600000  -35.201372   42.709412 -101.175314    6.652238    0.000000    0.000000    0.000000    0.000000
  0.039800000  -35.218921   42.070938 -101.204640   11.548400    0.000000    0.000000    0.000000    0.000000
  0.040000000  -35.211889   42.200001  -99.912770   -3.810805    0.000000    0.000000    0.000000    0.000000
  0.040200000  -35.048045   42.045467  -99.237232   25.636309    0.000000    0.000000    0.000000    0.000000
  0.040400000  -35.051380   41.752617 -102.546425    7.364329    0.000000    0.000000    0.000000    0.000000
  0.040600000  -35.003807   41.312309  -99.072486   -4.509088    0.000000    0.000000    0.000000    0.000000
  0.040800000  -35.003682   41.597591 -101.579678   23.141531    0.000000    0.000000    0.000000    0.000000
  0.041000000  -34.855522   41.104454 -102.170114   16.495937    0.000000    0.000000    0.000000    0.000000
  0.041200000  -34.816883   40.522560 -101.599632    0.665312    0.000000    0.000000    0.000000    0.000000
  0.041400000  -34.728904   40.687366  -99.175400   20.691607    0.000000    0.000000    0.000000    0.000000
  0.041600000  -34.673771   40.525665 -101.813461    0.574029    0.000000    0.000000    0.000000    0.000000
  0.041800000  -34.636363   40.391727 -100.604396    4.680792    0.000000    0.000000    0.000000    0.000000
  0.042000000  -34.579885   41.377277 -104.474873  -16.958858    0.000000    0.000000    0.000000    0.000000
  0.042200000  -34.481850   40.446884 -101.276698   11.336914    0.000000    0.000000    0.000000    0.000000
  0.042400000  -34.429178   40.488590  -99.332314   -5.001574    0.000000    0.000000    0.000000    0.000000
  0.042600000  -34.350670   40.974472 -100.763459   -3.028073    0.000000    0.000000    0.000000    0.000000
  0.042800000  -34.327038   39.983326 -101.303364    4.001786    0.000000    0.000000    0.000000    0.000000
