! Anritsu VNA Master:                     Model: MS2036C/10/77
! SN:                                  1601066
! /card0/usr/256.ns.n.r20.12.s2p
! Existing Calibration Information:
! TYPE:                         Current Settings,       Active Cal Settings
! TIME:             	   12/19/2017 04:05:22 PM,    12/19/2017 03:58:02 PM
! INTERNAL TEMP:    	                   46.8 C,                    47.0 C
! # POINTS:         	                      501,                       501
! START FREQ:       	               10.000 MHz,                10.000 MHz
! STOP FREQ:        	              110.000 MHz,               110.000 MHz
! SOURCE POWER:     	                     High,                      High
! IFBW:             	                   100 Hz,                    100 Hz
! AVG FACTOR:       	                       1 ,                        1 
! REF PLANE 1:      	                     0 mm,                      0 mm
! REF PLANE 2:      	                     0 mm,                      0 mm
! CAL TYPE:         	                 Full S11,                  Full S11
! CAL METHOD:       	                     SOLT,                      SOLT
! CAL LINE TYPE:    	                     Coax,                      Coax
! DUT PORT 1:       	                N-Conn(F),                 N-Conn(F)
! DUT PORT 2:       	                K-Conn(F),                 K-Conn(F)
! CAL STATUS:       	        OK: Accuracy High,                        --
# GHZ S DB R 50.0
! FREQ.GHZ       S11DB        S11A       S21DB        S21A       S12DB        S12A       S22DB        S22A
  0.010000000   -7.228956  166.969376  -82.383083   79.630180    0.000000    0.000000    0.000000    0.000000
  0.010200000   -7.213832  166.777344  -82.494483   74.945381    0.000000    0.000000    0.000000    0.000000
  0.010400000   -7.210469  166.494034  -82.616388   73.581680    0.000000    0.000000    0.000000    0.000000
  0.010600000   -7.216309  166.269501  -82.850436   74.708939    0.000000    0.000000    0.000000    0.000000
  0.010800000   -7.216009  166.044342  -83.425482   69.867210    0.000000    0.000000    0.000000    0.000000
  0.011000000   -7.220270  165.757797  -82.942578   65.181038    0.000000    0.000000    0.000000    0.000000
  0.011200000   -7.221872  165.493210  -83.682763   67.165237    0.000000    0.000000    0.000000    0.000000
  0.011400000   -7.218604  165.235718  -84.177129   65.082527    0.000000    0.000000    0.000000    0.000000
  0.011600000   -7.219425  164.969513  -84.597472   62.292854    0.000000    0.000000    0.000000    0.000000
  0.011800000   -7.222501  164.773361  -85.240134   61.485390    0.000000    0.000000    0.000000    0.000000
  0.012000000   -7.230301  164.452225  -85.052368   63.308014    0.000000    0.000000    0.000000    0.000000
  0.012200000   -7.229609  164.203857  -85.390091   59.714767    0.000000    0.000000    0.000000    0.000000
  0.012400000   -7.231991  163.939240  -85.635067   58.347183    0.000000    0.000000    0.000000    0.000000
  0.012600000   -7.230977  163.692627  -86.196651   59.303474    0.000000    0.000000    0.000000    0.000000
  0.012800000   -7.233735  163.417328  -86.266508   56.950500    0.000000    0.000000    0.000000    0.000000
  0.013000000   -7.234812  163.173752  -86.442663   57.907825    0.000000    0.000000    0.000000    0.000000
  0.013200000   -7.242134  162.920715  -86.627255   60.078133    0.000000    0.000000    0.000000    0.000000
  0.013400000   -7.241604  162.651855  -87.289635   58.691944    0.000000    0.000000    0.000000    0.000000
  0.013600000   -7.239146  162.400925  -87.300826   57.882881    0.000000    0.000000    0.000000    0.000000
  0.013800000   -7.238640  162.151871  -87.150184   59.857231    0.000000    0.000000    0.000000    0.000000
  0.014000000   -7.238627  161.890213  -87.806147   56.647587    0.000000    0.000000    0.000000    0.000000
  0.014200000   -7.244123  161.628174  -87.320413   56.654400    0.000000    0.000000    0.000000    0.000000
  0.014400000   -7.244134  161.354080  -87.527783   55.707432    0.000000    0.000000    0.000000    0.000000
  0.014600000   -7.245168  161.092987  -87.825700   57.207932    0.000000    0.000000    0.000000    0.000000
  0.014800000   -7.244597  160.842926  -87.687993   60.762280    0.000000    0.000000    0.000000    0.000000
  0.015000000   -7.251353  160.557281  -88.140347   56.379627    0.000000    0.000000    0.000000    0.000000
  0.015200000   -7.251396  160.309723  -88.003629   57.313980    0.000000    0.000000    0.000000    0.000000
  0.015400000   -7.252048  160.036285  -88.141884   52.155231    0.000000    0.000000    0.000000    0.000000
  0.015600000   -7.251354  159.839752  -87.914815   52.878220    0.000000    0.000000    0.000000    0.000000
  0.015800000   -7.252053  159.499527  -88.063828   54.041611    0.000000    0.000000    0.000000    0.000000
  0.016000000   -7.254676  159.244095  -88.237006   50.952435    0.000000    0.000000    0.000000    0.000000
  0.016200000   -7.257986  158.972305  -88.038414   51.941948    0.000000    0.000000    0.000000    0.000000
  0.016400000   -7.254961  158.747452  -88.728825   52.276047    0.000000    0.000000    0.000000    0.000000
  0.016600000   -7.253418  158.481644  -88.234138   49.412930    0.000000    0.000000    0.000000    0.000000
  0.016800000   -7.255364  158.207245  -88.347475   46.304420    0.000000    0.000000    0.000000    0.000000
  0.017000000   -7.256778  157.963562  -88.415484   41.469887    0.000000    0.000000    0.000000    0.000000
  0.017200000   -7.253209  157.713852  -88.962375   43.253208    0.000000    0.000000    0.000000    0.000000
  0.017400000   -7.249010  157.450760  -89.114470   45.634743    0.000000    0.000000    0.000000    0.000000
  0.017600000   -7.254496  157.196228  -89.696100   45.512299    0.000000    0.000000    0.000000    0.000000
  0.017800000   -7.252078  156.918030  -89.125033   36.165115    0.000000    0.000000    0.000000    0.000000
  0.018000000   -7.250474  156.671173  -89.097824   40.179001    0.000000    0.000000    0.000000    0.000000
  0.018200000   -7.255644  156.431519  -89.414239   39.764263    0.000000    0.000000    0.000000    0.000000
  0.018400000   -7.254899  156.204910  -89.881793   39.623634    0.000000    0.000000    0.000000    0.000000
  0.018600000   -7.254485  155.952820  -90.006911   37.973682    0.000000    0.000000    0.000000    0.000000
  0.018800000   -7.255660  155.682770  -90.442614   35.477238    0.000000    0.000000    0.000000    0.000000
  0.019000000   -7.255898  155.453384  -90.716834   36.845379    0.000000    0.000000    0.000000    0.000000
  0.019200000   -7.257156  155.215652  -90.887321   38.100758    0.000000    0.000000    0.000000    0.000000
  0.019400000   -7.258725  154.972519  -90.896746   40.143707    0.000000    0.000000    0.000000    0.000000
  0.019600000   -7.256875  154.735046  -91.575633   39.793503    0.000000    0.000000    0.000000    0.000000
  0.019800000   -7.259146  154.479446  -90.639397   34.236820    0.000000    0.000000    0.000000    0.000000
  0.020000000   -7.259196  154.226395  -91.843232   30.964754    0.000000    0.000000    0.000000    0.000000
  0.020200000   -7.258165  153.978500  -91.767640   36.881443    0.000000    0.000000    0.000000    0.000000
  0.020400000   -7.261613  153.730011  -92.592724   38.016087    0.000000    0.000000    0.000000    0.000000
  0.020600000   -7.256185  153.495514  -91.036689   35.241756    0.000000    0.000000    0.000000    0.000000
  0.020800000   -7.252958  153.233261  -91.886708   37.388409    0.000000    0.000000    0.000000    0.000000
  0.021000000   -7.256925  152.983765  -92.726654   35.125725    0.000000    0.000000    0.000000    0.000000
  0.021200000   -7.256314  152.735519  -91.981950   41.092842    0.000000    0.000000    0.000000    0.000000
  0.021400000   -7.262207  152.445313  -92.298048   33.490185    0.000000    0.000000    0.000000    0.000000
  0.021600000   -7.265007  152.221710  -92.483357   32.513100    0.000000    0.000000    0.000000    0.000000
  0.021800000   -7.261709  151.973801  -93.254434   35.607128    0.000000    0.000000    0.000000    0.000000
  0.022000000   -7.267883  151.728683  -91.813223   38.925583    0.000000    0.000000    0.000000    0.000000
  0.022200000   -7.271309  151.481689  -91.706489   33.891411    0.000000    0.000000    0.000000    0.000000
  0.022400000   -7.271968  151.227936  -93.214018   35.281166    0.000000    0.000000    0.000000    0.000000
  0.022600000   -7.274009  151.002960  -92.040619   29.553696    0.000000    0.000000    0.000000    0.000000
  0.022800000   -7.275994  150.723267  -92.833382   34.586433    0.000000    0.000000    0.000000    0.000000
  0.023000000   -7.280246  150.463913  -93.102115   29.490046    0.000000    0.000000    0.000000    0.000000
  0.023200000   -7.283844  150.211609  -92.132047   30.622541    0.000000    0.000000    0.000000    0.000000
  0.023400000   -7.280124  150.051804  -92.058883   31.748129    0.000000    0.000000    0.000000    0.000000
  0.023600000   -7.282996  149.712418  -93.843372   21.340670    0.000000    0.000000    0.000000    0.000000
  0.023800000   -7.279944  149.410614  -92.114234   26.028505    0.000000    0.000000    0.000000    0.000000
  0.024000000   -7.279097  149.155365  -93.303481   26.287487    0.000000    0.000000    0.000000    0.000000
  0.024200000   -7.281157  148.880508  -92.450058   24.000568    0.000000    0.000000    0.000000    0.000000
  0.024400000   -7.279432  148.599319  -94.061568   26.788698    0.000000    0.000000    0.000000    0.000000
  0.024600000   -7.280838  148.314606  -94.130636   26.548546    0.000000    0.000000    0.000000    0.000000
  0.024800000   -7.278926  148.034790  -93.964532   20.125463    0.000000    0.000000    0.000000    0.000000
  0.025000000   -7.279698  147.801010  -95.247413   24.594385    0.000000    0.000000    0.000000    0.000000
  0.025200000   -7.275661  147.542480  -94.097258   25.831331    0.000000    0.000000    0.000000    0.000000
  0.025400000   -7.278248  147.313614  -93.615932   22.255396    0.000000    0.000000    0.000000    0.000000
  0.025600000   -7.277477  147.068878  -93.863527   19.796928    0.000000    0.000000    0.000000    0.000000
  0.025800000   -7.281767  146.811005  -94.385075   23.965916    0.000000    0.000000    0.000000    0.000000
  0.026000000   -7.281761  146.590347  -94.562603   16.598883    0.000000    0.000000    0.000000    0.000000
  0.026200000   -7.280949  146.350098  -94.930494   19.016174    0.000000    0.000000    0.000000    0.000000
  0.026400000   -7.283241  146.085068  -94.772438   29.075306    0.000000    0.000000    0.000000    0.000000
  0.026600000   -7.286858  145.838135  -96.241510   19.962231    0.000000    0.000000    0.000000    0.000000
  0.026800000   -7.288463  145.583939  -94.152108   25.785749    0.000000    0.000000    0.000000    0.000000
  0.027000000   -7.289937  145.298340  -95.747326   18.592297    0.000000    0.000000    0.000000    0.000000
  0.027200000   -7.285525  145.000168  -95.860343   13.459031    0.000000    0.000000    0.000000    0.000000
  0.027400000   -7.284449  144.733032  -96.080349   22.075514    0.000000    0.000000    0.000000    0.000000
  0.027600000   -7.276934  144.448380  -96.566824   19.260981    0.000000    0.000000    0.000000    0.000000
  0.027800000   -7.275623  144.199966  -96.410569   20.025778    0.000000    0.000000    0.000000    0.000000
  0.028000000   -7.275822  143.900681  -97.080478   18.290960    0.000000    0.000000    0.000000    0.000000
  0.028200000   -7.274028  143.645279  -96.663979   28.000914    0.000000    0.000000    0.000000    0.000000
  0.028400000   -7.270561  143.396194  -97.161417   24.801014    0.000000    0.000000    0.000000    0.000000
  0.028600000   -7.265783  143.172470  -96.091283   18.670685    0.000000    0.000000    0.000000    0.000000
  0.028800000   -7.265143  142.961060  -95.746075   21.532343    0.000000    0.000000    0.000000    0.000000
  0.029000000   -7.259716  142.747849  -96.072209   12.774067    0.000000    0.000000    0.000000    0.000000
  0.029200000   -7.260618  142.554794  -96.118273   31.511051    0.000000    0.000000    0.000000    0.000000
  0.029400000   -7.254185  142.354095  -95.384642   19.544144    0.000000    0.000000    0.000000    0.000000
  0.029600000   -7.258496  142.149124  -95.678828   17.731020    0.000000    0.000000    0.000000    0.000000
  0.029800000   -7.260640  141.940994  -96.337325   18.961176    0.000000    0.000000    0.000000    0.000000
  0.030000000   -7.261510  141.689789  -97.216189   17.937840    0.000000    0.000000    0.000000    0.000000
  0.030200000   -7.264287  141.439789  -96.942669   20.912170    0.000000    0.000000    0.000000    0.000000
  0.030400000   -7.267715  141.182571  -97.168234   17.794567    0.000000    0.000000    0.000000    0.000000
  0.030600000   -7.269936  140.909241  -96.258737   20.675398    0.000000    0.000000    0.000000    0.000000
  0.030800000   -7.269891  140.645432  -96.457671   12.646190    0.000000    0.000000    0.000000    0.000000
  0.031000000   -7.275274  140.394791  -96.498518   14.278792    0.000000    0.000000    0.000000    0.000000
  0.031200000   -7.268282  140.167801  -97.263656   14.873940    0.000000    0.000000    0.000000    0.000000
  0.031400000   -7.270524  139.929138  -96.958865   10.783660    0.000000    0.000000    0.000000    0.000000
  0.031600000   -7.277411  139.649277  -97.690831    9.296122    0.000000    0.000000    0.000000    0.000000
  0.031800000   -7.274107  139.364578  -99.643593    6.634133    0.000000    0.000000    0.000000    0.000000
  0.032000000   -7.275713  139.108810  -97.349796   13.083851    0.000000    0.000000    0.000000    0.000000
  0.032200000   -7.272184  138.854111  -99.382741    0.059100    0.000000    0.000000    0.000000    0.000000
  0.032400000   -7.268876  138.586975  -97.325887    9.165960    0.000000    0.000000    0.000000    0.000000
  0.032600000   -7.264395  138.339966  -97.691488   18.781086    0.000000    0.000000    0.000000    0.000000
  0.032800000   -7.256693  138.096436  -96.298943    2.145899    0.000000    0.000000    0.000000    0.000000
  0.033000000   -7.259740  137.853653  -97.153292   20.709887    0.000000    0.000000    0.000000    0.000000
  0.033200000   -7.261408  137.645981  -99.622145   13.613204    0.000000    0.000000    0.000000    0.000000
  0.033400000   -7.254883  137.406998  -98.871942    9.647271    0.000000    0.000000    0.000000    0.000000
  0.033600000   -7.256969  137.192444  -97.881762   24.838223    0.000000    0.000000    0.000000    0.000000
  0.033800000   -7.267491  136.979355  -98.579931    4.744556    0.000000    0.000000    0.000000    0.000000
  0.034000000   -7.264928  136.704727  -99.040485   18.910938    0.000000    0.000000    0.000000    0.000000
  0.034200000   -7.271712  136.441971  -98.292577   10.404855    0.000000    0.000000    0.000000    0.000000
  0.034400000   -7.275013  136.149612  -97.050791   12.820964    0.000000    0.000000    0.000000    0.000000
  0.034600000   -7.276521  135.860443  -98.765350    7.427756    0.000000    0.000000    0.000000    0.000000
  0.034800000   -7.284573  135.567490  -98.572556   17.278074    0.000000    0.000000    0.000000    0.000000
  0.035000000   -7.284261  135.291550  -97.624153   16.657457    0.000000    0.000000    0.000000    0.000000
  0.035200000   -7.284146  134.993912  -98.295730   11.607383    0.000000    0.000000    0.000000    0.000000
  0.035400000   -7.279801  134.727982  -98.036555    9.934710    0.000000    0.000000    0.000000    0.000000
  0.035600000   -7.277439  134.468185  -97.435731    6.038933    0.000000    0.000000    0.000000    0.000000
  0.035800000   -7.272799  134.157440  -98.846322   17.328901    0.000000    0.000000    0.000000    0.000000
  0.036000000   -7.262556  133.892334  -97.098794   13.254441    0.000000    0.000000    0.000000    0.000000
  0.036200000   -7.252554  133.652359  -98.082268    9.411972    0.000000    0.000000    0.000000    0.000000
  0.036400000   -7.245867  133.437607  -98.440646   16.307224    0.000000    0.000000    0.000000    0.000000
  0.036600000   -7.240417  133.183456 -101.496544    2.195622    0.000000    0.000000    0.000000    0.000000
  0.036800000   -7.234579  132.962128  -99.415872    4.915088    0.000000    0.000000    0.000000    0.000000
  0.037000000   -7.234876  132.767059  -99.737730    4.886134    0.000000    0.000000    0.000000    0.000000
  0.037200000   -7.233994  132.573700  -99.458899   11.321019    0.000000    0.000000    0.000000    0.000000
  0.037400000   -7.236197  132.334061  -99.420009   16.289181    0.000000    0.000000    0.000000    0.000000
  0.037600000   -7.235943  132.122162 -100.999439    0.137869    0.000000    0.000000    0.000000    0.000000
  0.037800000   -7.242673  131.866913 -100.270191   11.437719    0.000000    0.000000    0.000000    0.000000
  0.038000000   -7.241558  131.664047 -101.012626   16.355135    0.000000    0.000000    0.000000    0.000000
  0.038200000   -7.246884  131.397156  -97.863784   12.219700    0.000000    0.000000    0.000000    0.000000
  0.038400000   -7.252100  131.131973 -102.016009   10.831474    0.000000    0.000000    0.000000    0.000000
  0.038600000   -7.251491  130.899567 -100.703812    2.853739    0.000000    0.000000    0.000000    0.000000
  0.038800000   -7.252774  130.639420 -101.103108    3.974028    0.000000    0.000000    0.000000    0.000000
  0.039000000   -7.253148  130.394836  -99.983897   15.797175    0.000000    0.000000    0.000000    0.000000
  0.039200000   -7.256683  130.133301 -102.125566   -2.519329    0.000000    0.000000    0.000000    0.000000
  0.039400000   -7.253191  129.906631  -98.785064   10.863006    0.000000    0.000000    0.000000    0.000000
  0.039600000   -7.250244  129.645798 -100.756956    6.583973    0.000000    0.000000    0.000000    0.000000
  0.039800000   -7.247773  129.379471 -100.083110   21.274664    0.000000    0.000000    0.000000    0.000000
  0.040000000   -7.244932  129.137161  -99.384655   13.558276    0.000000    0.000000    0.000000    0.000000
  0.040200000   -7.237648  128.867264 -101.435027   10.409734    0.000000    0.000000    0.000000    0.000000
  0.040400000   -7.234219  128.637512 -101.263355    2.811772    0.000000    0.000000    0.000000    0.000000
  0.040600000   -7.235294  128.449905 -101.970600   -2.886694    0.000000    0.000000    0.000000    0.000000
  0.040800000   -7.232619  128.262192 -101.086146   -8.789084    0.000000    0.000000    0.000000    0.000000
  0.041000000   -7.236174  128.028595  -99.185041   -2.057616    0.000000    0.000000    0.000000    0.000000
  0.041200000   -7.249607  127.848625 -101.211240   19.243776    0.000000    0.000000    0.000000    0.000000
  0.041400000   -7.250691  127.584297  -99.653712    0.724733    0.000000    0.000000    0.000000    0.000000
  0.041600000   -7.259883  127.312447 -100.533873    2.580237    0.000000    0.000000    0.000000    0.000000
  0.041800000   -7.268864  127.070740 -105.174242    6.234704    0.000000    0.000000    0.000000    0.000000
  0.042000000   -7.272036  126.824524 -102.740108   30.148108    0.000000    0.000000    0.000000    0.000000
  0.042200000   -7.274046  126.517044 -102.205601   12.181147    0.000000    0.000000    0.000000    0.000000
  0.042400000   -7.282673  126.221100  -97.690348   -8.131232    0.000000    0.000000    0.000000    0.000000
  0.042600000   -7.281360  125.951790 -102.411332   10.891485    0.000000    0.000000    0.000000    0.000000
  0.042800000   -7.283596  125.651360 -101.675452  -11.546679    0.000000    0.000000    0.000000    0.000000
