! Anritsu VNA Master:                     Model: MS2036C/10/77
! SN:                                  1601066
! /card0/usr/256.ns.sma.me.s2p
! Existing Calibration Information:
! TYPE:                         Current Settings,       Active Cal Settings
! TIME:             	   12/19/2017 03:45:59 PM,    12/19/2017 03:30:41 PM
! INTERNAL TEMP:    	                   47.5 C,                    48.0 C
! # POINTS:         	                      501,                       501
! START FREQ:       	               10.000 MHz,                10.000 MHz
! STOP FREQ:        	              110.000 MHz,               110.000 MHz
! SOURCE POWER:     	                     High,                      High
! IFBW:             	                   100 Hz,                    100 Hz
! AVG FACTOR:       	                       1 ,                        1 
! REF PLANE 1:      	                     0 mm,                      0 mm
! REF PLANE 2:      	                     0 mm,                      0 mm
! CAL TYPE:         	                 Full S11,                  Full S11
! CAL METHOD:       	                     SOLT,                      SOLT
! CAL LINE TYPE:    	                     Coax,                      Coax
! DUT PORT 1:       	                N-Conn(F),                 N-Conn(F)
! DUT PORT 2:       	                K-Conn(F),                 K-Conn(F)
! CAL STATUS:       	        OK: Accuracy High,                        --
# GHZ S DB R 50.0
! FREQ.GHZ       S11DB        S11A       S21DB        S21A       S12DB        S12A       S22DB        S22A
  0.010000000  -53.573416  161.922333  -84.932136   83.117325    0.000000    0.000000    0.000000    0.000000
  0.010200000  -53.785376  159.275452  -84.531271   81.827492    0.000000    0.000000    0.000000    0.000000
  0.010400000  -54.283610  162.961197  -84.344511   86.622627    0.000000    0.000000    0.000000    0.000000
  0.010600000  -53.805205  161.938766  -84.913271   83.791344    0.000000    0.000000    0.000000    0.000000
  0.010800000  -53.626369  159.673233  -83.805998   87.138367    0.000000    0.000000    0.000000    0.000000
  0.011000000  -54.082631  159.020157  -84.158662   83.928192    0.000000    0.000000    0.000000    0.000000
  0.011200000  -53.608219  160.287781  -84.091617   81.070961    0.000000    0.000000    0.000000    0.000000
  0.011400000  -53.742046  158.171082  -83.984746   79.881714    0.000000    0.000000    0.000000    0.000000
  0.011600000  -54.085227  152.195160  -84.329123   76.074905    0.000000    0.000000    0.000000    0.000000
  0.011800000  -54.030391  156.455627  -83.537639   73.303970    0.000000    0.000000    0.000000    0.000000
  0.012000000  -54.234697  151.424316  -83.884147   70.629318    0.000000    0.000000    0.000000    0.000000
  0.012200000  -53.801496  151.794586  -84.281056   72.253426    0.000000    0.000000    0.000000    0.000000
  0.012400000  -53.929530  150.274353  -84.283259   66.322914    0.000000    0.000000    0.000000    0.000000
  0.012600000  -54.134454  148.494476  -84.179064   66.954399    0.000000    0.000000    0.000000    0.000000
  0.012800000  -53.910744  149.231522  -84.378735   61.143684    0.000000    0.000000    0.000000    0.000000
  0.013000000  -53.674089  147.831070  -84.732608   60.360764    0.000000    0.000000    0.000000    0.000000
  0.013200000  -53.924980  145.283890  -84.932200   55.845657    0.000000    0.000000    0.000000    0.000000
  0.013400000  -54.023470  144.599258  -85.401581   51.741657    0.000000    0.000000    0.000000    0.000000
  0.013600000  -54.028731  144.272415  -85.938508   52.475113    0.000000    0.000000    0.000000    0.000000
  0.013800000  -54.079088  145.201141  -85.757956   49.505116    0.000000    0.000000    0.000000    0.000000
  0.014000000  -54.020121  142.671707  -86.419158   49.924259    0.000000    0.000000    0.000000    0.000000
  0.014200000  -53.771323  142.754517  -86.839986   47.905876    0.000000    0.000000    0.000000    0.000000
  0.014400000  -53.720730  141.612701  -87.213162   48.764351    0.000000    0.000000    0.000000    0.000000
  0.014600000  -54.030972  142.554306  -87.639895   45.950417    0.000000    0.000000    0.000000    0.000000
  0.014800000  -53.782200  140.371735  -88.171430   46.478008    0.000000    0.000000    0.000000    0.000000
  0.015000000  -53.940934  139.969879  -88.727268   47.725132    0.000000    0.000000    0.000000    0.000000
  0.015200000  -53.952712  139.277008  -88.960810   46.448090    0.000000    0.000000    0.000000    0.000000
  0.015400000  -53.941809  138.084213  -88.643600   47.918987    0.000000    0.000000    0.000000    0.000000
  0.015600000  -53.702683  137.081558  -89.851691   51.361610    0.000000    0.000000    0.000000    0.000000
  0.015800000  -53.945014  135.841827  -89.748979   53.851711    0.000000    0.000000    0.000000    0.000000
  0.016000000  -53.975102  134.169647  -89.843535   48.086594    0.000000    0.000000    0.000000    0.000000
  0.016200000  -53.833722  133.937195  -90.119986   54.543343    0.000000    0.000000    0.000000    0.000000
  0.016400000  -53.905856  132.915588  -89.196475   54.329563    0.000000    0.000000    0.000000    0.000000
  0.016600000  -53.932715  132.921829  -89.197591   53.098053    0.000000    0.000000    0.000000    0.000000
  0.016800000  -53.727109  130.792786  -89.702824   51.897404    0.000000    0.000000    0.000000    0.000000
  0.017000000  -53.840458  130.282669  -89.574121   55.284611    0.000000    0.000000    0.000000    0.000000
  0.017200000  -53.786484  130.889206  -89.908076   53.894138    0.000000    0.000000    0.000000    0.000000
  0.017400000  -53.850979  129.309479  -89.150753   48.515602    0.000000    0.000000    0.000000    0.000000
  0.017600000  -53.843535  128.539032  -89.530074   52.371212    0.000000    0.000000    0.000000    0.000000
  0.017800000  -53.977592  128.609940  -88.657607   50.785763    0.000000    0.000000    0.000000    0.000000
  0.018000000  -53.869387  126.554947  -88.864203   50.674343    0.000000    0.000000    0.000000    0.000000
  0.018200000  -53.910163  125.553398  -89.142094   49.002491    0.000000    0.000000    0.000000    0.000000
  0.018400000  -53.739851  126.470474  -89.522631   43.650791    0.000000    0.000000    0.000000    0.000000
  0.018600000  -53.786840  125.714676  -88.833618   39.554447    0.000000    0.000000    0.000000    0.000000
  0.018800000  -53.567993  125.079910  -89.547869   43.969952    0.000000    0.000000    0.000000    0.000000
  0.019000000  -53.638202  122.316597  -88.975560   39.273941    0.000000    0.000000    0.000000    0.000000
  0.019200000  -53.782103  123.625519  -89.316286   38.699017    0.000000    0.000000    0.000000    0.000000
  0.019400000  -53.647791  123.442734  -90.109664   37.719105    0.000000    0.000000    0.000000    0.000000
  0.019600000  -53.686262  122.206085  -89.903235   32.733891    0.000000    0.000000    0.000000    0.000000
  0.019800000  -53.667218  121.597984  -90.122035   29.984739    0.000000    0.000000    0.000000    0.000000
  0.020000000  -53.422584  120.228760  -91.400298   32.417477    0.000000    0.000000    0.000000    0.000000
  0.020200000  -53.688873  119.347145  -91.609064   29.210913    0.000000    0.000000    0.000000    0.000000
  0.020400000  -53.469932  118.844650  -91.483020   25.194811    0.000000    0.000000    0.000000    0.000000
  0.020600000  -53.883194  117.821037  -91.878771   31.190704    0.000000    0.000000    0.000000    0.000000
  0.020800000  -53.417215  116.944725  -93.950417   30.810682    0.000000    0.000000    0.000000    0.000000
  0.021000000  -53.476247  115.135719  -92.084593   27.855841    0.000000    0.000000    0.000000    0.000000
  0.021200000  -53.346616  114.787842  -93.290067   28.762264    0.000000    0.000000    0.000000    0.000000
  0.021400000  -53.365712  113.901421  -93.741569   38.408844    0.000000    0.000000    0.000000    0.000000
  0.021600000  -53.317190  113.517403  -93.273952   31.967979    0.000000    0.000000    0.000000    0.000000
  0.021800000  -53.275850  111.749039  -92.805998   31.487415    0.000000    0.000000    0.000000    0.000000
  0.022000000  -53.130153  111.252426  -93.731624   28.799353    0.000000    0.000000    0.000000    0.000000
  0.022200000  -52.984150  110.764465  -92.891307   35.207691    0.000000    0.000000    0.000000    0.000000
  0.022400000  -53.006857  110.513374  -92.293050   33.667431    0.000000    0.000000    0.000000    0.000000
  0.022600000  -52.951640  108.830460  -92.922344   39.902870    0.000000    0.000000    0.000000    0.000000
  0.022800000  -53.057426  107.784500  -92.978187   40.165810    0.000000    0.000000    0.000000    0.000000
  0.023000000  -53.016960  108.183083  -92.933288   37.001148    0.000000    0.000000    0.000000    0.000000
  0.023200000  -52.835834  107.066704  -92.375182   40.601707    0.000000    0.000000    0.000000    0.000000
  0.023400000  -51.930792  105.507950  -92.649058   34.877022    0.000000    0.000000    0.000000    0.000000
  0.023600000  -52.750176  105.133736  -92.057432   30.438011    0.000000    0.000000    0.000000    0.000000
  0.023800000  -52.662305  103.065552  -93.390406   33.331161    0.000000    0.000000    0.000000    0.000000
  0.024000000  -52.791532  103.594246  -92.159171   28.504107    0.000000    0.000000    0.000000    0.000000
  0.024200000  -52.650724  102.762482  -93.114055   30.327574    0.000000    0.000000    0.000000    0.000000
  0.024400000  -52.630852  101.437431  -93.516958   29.661732    0.000000    0.000000    0.000000    0.000000
  0.024600000  -52.587081  101.068115  -93.114207   21.751690    0.000000    0.000000    0.000000    0.000000
  0.024800000  -52.685386   99.146797  -92.812623   26.952730    0.000000    0.000000    0.000000    0.000000
  0.025000000  -52.393679   98.649063  -93.047113   17.638660    0.000000    0.000000    0.000000    0.000000
  0.025200000  -52.381718   97.587433  -93.828804   20.266994    0.000000    0.000000    0.000000    0.000000
  0.025400000  -52.461993   96.662193  -94.112285   19.026478    0.000000    0.000000    0.000000    0.000000
  0.025600000  -52.378693   95.604340  -93.885445   14.937670    0.000000    0.000000    0.000000    0.000000
  0.025800000  -52.356706   94.829613  -93.480997   22.621687    0.000000    0.000000    0.000000    0.000000
  0.026000000  -52.462346   93.853981  -94.444402   18.985323    0.000000    0.000000    0.000000    0.000000
  0.026200000  -52.182316   92.950989  -95.639430   21.700203    0.000000    0.000000    0.000000    0.000000
  0.026400000  -52.267093   91.984436  -95.120815   15.981015    0.000000    0.000000    0.000000    0.000000
  0.026600000  -52.282099   90.764305  -97.372756   21.740355    0.000000    0.000000    0.000000    0.000000
  0.026800000  -52.310550   90.532059  -94.906163   13.968185    0.000000    0.000000    0.000000    0.000000
  0.027000000  -52.186913   88.652122  -96.537496   19.012352    0.000000    0.000000    0.000000    0.000000
  0.027200000  -52.074081   87.943634  -95.943300   19.887995    0.000000    0.000000    0.000000    0.000000
  0.027400000  -52.134543   87.424889  -98.557904   24.488903    0.000000    0.000000    0.000000    0.000000
  0.027600000  -52.124531   86.545135  -96.128409   18.086868    0.000000    0.000000    0.000000    0.000000
  0.027800000  -51.905555   86.147453  -96.364801   19.621523    0.000000    0.000000    0.000000    0.000000
  0.028000000  -51.975076   84.706223  -97.699487   27.125486    0.000000    0.000000    0.000000    0.000000
  0.028200000  -51.885139   83.152878  -96.286309   19.721888    0.000000    0.000000    0.000000    0.000000
  0.028400000  -51.813962   83.170845  -95.519734   23.555725    0.000000    0.000000    0.000000    0.000000
  0.028600000  -51.880831   81.131271  -95.978978   27.890619    0.000000    0.000000    0.000000    0.000000
  0.028800000  -51.838553   79.477730  -96.565656   21.245981    0.000000    0.000000    0.000000    0.000000
  0.029000000  -51.750723   79.397903  -96.035165   25.280890    0.000000    0.000000    0.000000    0.000000
  0.029200000  -51.621805   78.219429  -97.537243   26.584772    0.000000    0.000000    0.000000    0.000000
  0.029400000  -51.604663   77.134506  -94.891963   24.163889    0.000000    0.000000    0.000000    0.000000
  0.029600000  -51.558089   76.384010  -96.354870   17.448416    0.000000    0.000000    0.000000    0.000000
  0.029800000  -51.546127   75.721184  -96.022970   18.855652    0.000000    0.000000    0.000000    0.000000
  0.030000000  -51.344554   74.510742  -95.670493   19.906796    0.000000    0.000000    0.000000    0.000000
  0.030200000  -51.406496   73.582161  -96.869256   13.284389    0.000000    0.000000    0.000000    0.000000
  0.030400000  -51.324944   71.613556  -96.154954   20.420681    0.000000    0.000000    0.000000    0.000000
  0.030600000  -51.096202   71.571381  -97.071007    7.024785    0.000000    0.000000    0.000000    0.000000
  0.030800000  -51.154502   69.504814  -96.366003   14.544729    0.000000    0.000000    0.000000    0.000000
  0.031000000  -51.010015   68.933365  -97.029017   14.783992    0.000000    0.000000    0.000000    0.000000
  0.031200000  -50.786490   67.187668  -99.071198    2.391008    0.000000    0.000000    0.000000    0.000000
  0.031400000  -50.648590   66.158234  -96.521702   15.908515    0.000000    0.000000    0.000000    0.000000
  0.031600000  -50.592925   65.635803  -96.996270    9.464028    0.000000    0.000000    0.000000    0.000000
  0.031800000  -50.383432   65.053764  -99.813907   18.979261    0.000000    0.000000    0.000000    0.000000
  0.032000000  -50.449552   63.781319  -96.960047   13.644770    0.000000    0.000000    0.000000    0.000000
  0.032200000  -50.331704   62.380165  -97.421886    0.431308    0.000000    0.000000    0.000000    0.000000
  0.032400000  -50.073143   62.546604  -96.670624    6.589000    0.000000    0.000000    0.000000    0.000000
  0.032600000  -49.930579   60.179924  -96.048204   21.063461    0.000000    0.000000    0.000000    0.000000
  0.032800000  -49.772114   58.940475  -96.776235   16.356503    0.000000    0.000000    0.000000    0.000000
  0.033000000  -49.818461   57.551659 -100.943901    1.660785    0.000000    0.000000    0.000000    0.000000
  0.033200000  -49.782934   56.840637  -99.346042   18.756069    0.000000    0.000000    0.000000    0.000000
  0.033400000  -49.465687   54.835270  -99.617367   19.317385    0.000000    0.000000    0.000000    0.000000
  0.033600000  -49.525528   53.976231  -99.453209   22.559793    0.000000    0.000000    0.000000    0.000000
  0.033800000  -49.333964   52.540066  -98.619769    3.602713    0.000000    0.000000    0.000000    0.000000
  0.034000000  -49.216891   51.059330  -99.507870    4.410810    0.000000    0.000000    0.000000    0.000000
  0.034200000  -48.867322   49.937317  -98.363951   17.237469    0.000000    0.000000    0.000000    0.000000
  0.034400000  -48.884926   49.108860  -97.484743   11.982237    0.000000    0.000000    0.000000    0.000000
  0.034600000  -48.820287   47.999969  -97.796325    4.226434    0.000000    0.000000    0.000000    0.000000
  0.034800000  -48.659097   46.463989  -96.919118   20.831661    0.000000    0.000000    0.000000    0.000000
  0.035000000  -48.448001   44.415146  -97.319495   20.608057    0.000000    0.000000    0.000000    0.000000
  0.035200000  -48.322060   42.779701  -99.735216    7.381489    0.000000    0.000000    0.000000    0.000000
  0.035400000  -48.175537   41.916813  -96.035640   14.495291    0.000000    0.000000    0.000000    0.000000
  0.035600000  -48.034497   39.955685  -98.159995    9.644362    0.000000    0.000000    0.000000    0.000000
  0.035800000  -47.959596   38.851559 -100.177178   14.508431    0.000000    0.000000    0.000000    0.000000
  0.036000000  -47.800248   37.621658  -97.020898    7.545890    0.000000    0.000000    0.000000    0.000000
  0.036200000  -47.656935   36.638611  -98.217653    8.215858    0.000000    0.000000    0.000000    0.000000
  0.036400000  -47.424284   34.513283  -98.504182    3.769651    0.000000    0.000000    0.000000    0.000000
  0.036600000  -47.334515   32.846737  -98.063969    5.845356    0.000000    0.000000    0.000000    0.000000
  0.036800000  -47.109239   31.341143  -99.143708    2.658040    0.000000    0.000000    0.000000    0.000000
  0.037000000  -46.930828   29.976414  -97.352509    8.500060    0.000000    0.000000    0.000000    0.000000
  0.037200000  -46.801924   28.718889  -98.613048   16.632584    0.000000    0.000000    0.000000    0.000000
  0.037400000  -46.604812   28.174389  -99.543870    9.145451    0.000000    0.000000    0.000000    0.000000
  0.037600000  -46.633760   25.614634 -101.409870    7.479904    0.000000    0.000000    0.000000    0.000000
  0.037800000  -46.321038   23.724199 -101.024096   -6.022804    0.000000    0.000000    0.000000    0.000000
  0.038000000  -46.108956   21.345806  -97.828075    7.849709    0.000000    0.000000    0.000000    0.000000
  0.038200000  -45.981757   19.756468  -99.965768   12.941181    0.000000    0.000000    0.000000    0.000000
  0.038400000  -45.811855   17.428221  -99.243465    4.460915    0.000000    0.000000    0.000000    0.000000
  0.038600000  -45.506066   15.820603 -102.039637    9.069074    0.000000    0.000000    0.000000    0.000000
  0.038800000  -45.182060   13.822831 -100.134661    8.759825    0.000000    0.000000    0.000000    0.000000
  0.039000000  -44.879279   11.753501 -102.438692   21.623838    0.000000    0.000000    0.000000    0.000000
  0.039200000  -44.684128   10.414288 -100.890675   13.286041    0.000000    0.000000    0.000000    0.000000
  0.039400000  -44.520646    7.903694 -100.061281   13.766523    0.000000    0.000000    0.000000    0.000000
  0.039600000  -44.216956    5.696938  -97.816671    7.327088    0.000000    0.000000    0.000000    0.000000
  0.039800000  -43.881748    4.063745 -100.794257    6.810804    0.000000    0.000000    0.000000    0.000000
  0.040000000  -43.765806    0.905976 -102.326736   12.061791    0.000000    0.000000    0.000000    0.000000
  0.040200000  -43.444471   -0.727837 -101.331872    1.823094    0.000000    0.000000    0.000000    0.000000
  0.040400000  -43.088151   -2.990601  -99.398350    8.280505    0.000000    0.000000    0.000000    0.000000
  0.040600000  -42.916515   -5.835514  -99.964219    6.714860    0.000000    0.000000    0.000000    0.000000
  0.040800000  -42.508525   -9.358681  -97.921735    0.881148    0.000000    0.000000    0.000000    0.000000
  0.041000000  -42.326816  -11.777530 -102.107256    3.745676    0.000000    0.000000    0.000000    0.000000
  0.041200000  -42.046490  -13.564117 -103.483963    4.749335    0.000000    0.000000    0.000000    0.000000
  0.041400000  -41.656179  -17.551353 -100.310602    2.617215    0.000000    0.000000    0.000000    0.000000
  0.041600000  -41.391096  -20.908375 -101.433322    6.635183    0.000000    0.000000    0.000000    0.000000
  0.041800000  -41.173416  -23.249113 -101.576585  -11.856042    0.000000    0.000000    0.000000    0.000000
  0.042000000  -40.843084  -27.507755 -101.381293  -11.804485    0.000000    0.000000    0.000000    0.000000
  0.042200000  -40.543951  -30.870987 -100.641737    0.217047    0.000000    0.000000    0.000000    0.000000
  0.042400000  -40.355879  -34.164207 -101.208507   13.799893    0.000000    0.000000    0.000000    0.000000
  0.042600000  -40.001983  -38.159157 -104.718938   10.648530    0.000000    0.000000    0.000000    0.000000
  0.042800000  -39.776823  -42.649933 -100.426546    8.049915    0.000000    0.000000    0.000000    0.000000
