! Anritsu VNA Master:                 Model: MS2034B/10/19/501
! SN:                                  1337062
! /bd0/ovro-jan-2016/dcp3-y2-balun-short.s2p
! Existing Calibration Information:
! TYPE:                         Current Settings,       Active Cal Settings
! TIME:             	   01/14/2016 12:19:35 PM,    01/14/2016 12:01:10 PM
! INTERNAL TEMP:    	                   43.8 C,                    43.8 C
! # POINTS:         	                      500,                       500
! START FREQ:       	               10.000 MHz,                10.000 MHz
! STOP FREQ:        	              110.000 MHz,               110.000 MHz
! SOURCE POWER:     	                     High,                      High
! IFBW:             	                   100 Hz,                    100 Hz
! AVG FACTOR:       	                       4 ,                        4 
! REF PLANE 1:      	                     0 mm,                      0 mm
! REF PLANE 2:      	                     0 mm,                      0 mm
! CAL TYPE:         	                 Full S11,                  Full S11
! CAL METHOD:       	                     SOLT,                      SOLT
! CAL LINE TYPE:    	                     Coax,                      Coax
! DUT PORT 1:       	                K-Conn(M),                 K-Conn(M)
! DUT PORT 2:       	                N-Conn(M),                 N-Conn(M)
! CAL STATUS:       	        OK: Accuracy High,                        --
# GHZ S DB R 50.0
! FREQ.GHZ       S11DB        S11A       S21DB        S21A       S12DB        S12A       S22DB        S22A
  0.010000000   -0.132426  174.120712 -103.956779  140.790421    0.000000    0.000000    0.000000    0.000000
  0.010200401   -0.135602  174.009903 -104.509231  138.492340    0.000000    0.000000    0.000000    0.000000
  0.010400802   -0.137874  173.922974 -105.335207  135.455719    0.000000    0.000000    0.000000    0.000000
  0.010601202   -0.140524  173.779800 -105.867928  129.646988    0.000000    0.000000    0.000000    0.000000
  0.010801603   -0.144549  173.666901 -104.995457  135.647369    0.000000    0.000000    0.000000    0.000000
  0.011002004   -0.142377  173.563522 -107.064224  136.609390    0.000000    0.000000    0.000000    0.000000
  0.011202405   -0.146902  173.468079 -105.837445  124.668274    0.000000    0.000000    0.000000    0.000000
  0.011402806   -0.147945  173.371613 -105.985456  125.460114    0.000000    0.000000    0.000000    0.000000
  0.011603206   -0.149652  173.240997 -105.559133  130.492767    0.000000    0.000000    0.000000    0.000000
  0.011803607   -0.151043  173.139862 -106.423388  130.633911    0.000000    0.000000    0.000000    0.000000
  0.012004008   -0.147803  173.047745 -105.914543  131.520386    0.000000    0.000000    0.000000    0.000000
  0.012204409   -0.152659  172.946609 -105.657808  133.788986    0.000000    0.000000    0.000000    0.000000
  0.012404810   -0.152449  172.827667 -106.466576  127.412811    0.000000    0.000000    0.000000    0.000000
  0.012605210   -0.156310  172.693970 -106.306602  128.390915    0.000000    0.000000    0.000000    0.000000
  0.012805611   -0.159670  172.577332 -107.531889  134.420364    0.000000    0.000000    0.000000    0.000000
  0.013006012   -0.156919  172.466873 -105.651819  141.418304    0.000000    0.000000    0.000000    0.000000
  0.013206413   -0.160911  172.371948 -106.817088  140.822906    0.000000    0.000000    0.000000    0.000000
  0.013406814   -0.162781  172.252075 -105.291465  135.897583    0.000000    0.000000    0.000000    0.000000
  0.013607214   -0.164585  172.139008 -106.932583  130.428711    0.000000    0.000000    0.000000    0.000000
  0.013807615   -0.164199  172.032486 -106.477356  131.627869    0.000000    0.000000    0.000000    0.000000
  0.014008016   -0.164861  171.917465 -107.128753  134.967331    0.000000    0.000000    0.000000    0.000000
  0.014208417   -0.166143  171.808716 -107.058496  135.177597    0.000000    0.000000    0.000000    0.000000
  0.014408818   -0.166363  171.708710 -106.873847  134.830063    0.000000    0.000000    0.000000    0.000000
  0.014609218   -0.167177  171.582077 -106.444584  135.080750    0.000000    0.000000    0.000000    0.000000
  0.014809619   -0.170758  171.481674 -107.549062  135.603012    0.000000    0.000000    0.000000    0.000000
  0.015010020   -0.169720  171.368851 -108.818081  136.694733    0.000000    0.000000    0.000000    0.000000
  0.015210421   -0.172238  171.255890 -108.858429  133.957336    0.000000    0.000000    0.000000    0.000000
  0.015410822   -0.172270  171.152130 -107.505510  135.466751    0.000000    0.000000    0.000000    0.000000
  0.015611222   -0.173141  171.046799 -108.194963  130.392426    0.000000    0.000000    0.000000    0.000000
  0.015811623   -0.173815  170.926315 -107.267372  127.915359    0.000000    0.000000    0.000000    0.000000
  0.016012024   -0.174935  170.835495 -109.475759  142.218002    0.000000    0.000000    0.000000    0.000000
  0.016212425   -0.175824  170.721710 -107.044553  133.171432    0.000000    0.000000    0.000000    0.000000
  0.016412826   -0.177787  170.610840 -107.033546  137.576248    0.000000    0.000000    0.000000    0.000000
  0.016613226   -0.177315  170.520706 -108.269646  148.428940    0.000000    0.000000    0.000000    0.000000
  0.016813627   -0.179529  170.400482 -107.008639  146.814926    0.000000    0.000000    0.000000    0.000000
  0.017014028   -0.181379  170.299500 -108.927750  148.072861    0.000000    0.000000    0.000000    0.000000
  0.017214429   -0.179763  170.201553 -107.810658  138.105911    0.000000    0.000000    0.000000    0.000000
  0.017414830   -0.182066  170.098923 -108.490808  141.127762    0.000000    0.000000    0.000000    0.000000
  0.017615230   -0.183586  170.001282 -109.794058  134.739395    0.000000    0.000000    0.000000    0.000000
  0.017815631   -0.183762  169.895157 -108.111736  142.927948    0.000000    0.000000    0.000000    0.000000
  0.018016032   -0.184492  169.780731 -108.603422  139.131927    0.000000    0.000000    0.000000    0.000000
  0.018216433   -0.186847  169.679642 -109.698795  137.451996    0.000000    0.000000    0.000000    0.000000
  0.018416834   -0.189298  169.585861 -106.806006  146.113373    0.000000    0.000000    0.000000    0.000000
  0.018617234   -0.189344  169.470215 -108.405760  133.848068    0.000000    0.000000    0.000000    0.000000
  0.018817635   -0.192527  169.375259 -108.599612  144.782150    0.000000    0.000000    0.000000    0.000000
  0.019018036   -0.194854  169.275772 -108.094783  142.021271    0.000000    0.000000    0.000000    0.000000
  0.019218437   -0.195753  169.166565 -108.304004  140.066696    0.000000    0.000000    0.000000    0.000000
  0.019418838   -0.198421  169.065948 -107.563935  142.247147    0.000000    0.000000    0.000000    0.000000
  0.019619238   -0.200530  168.952454 -109.170090  147.585724    0.000000    0.000000    0.000000    0.000000
  0.019819639   -0.202453  168.850784 -108.367022  149.786850    0.000000    0.000000    0.000000    0.000000
  0.020020040   -0.204159  168.728668 -109.850790  146.693497    0.000000    0.000000    0.000000    0.000000
  0.020220441   -0.207135  168.614868 -108.701572  135.882660    0.000000    0.000000    0.000000    0.000000
  0.020420842   -0.208762  168.510513 -109.113126  152.764099    0.000000    0.000000    0.000000    0.000000
  0.020621242   -0.209442  168.397858 -107.630074  139.564957    0.000000    0.000000    0.000000    0.000000
  0.020821643   -0.213961  168.290710 -108.251967  147.970947    0.000000    0.000000    0.000000    0.000000
  0.021022044   -0.215457  168.182541 -108.428910  139.554825    0.000000    0.000000    0.000000    0.000000
  0.021222445   -0.217941  168.074570 -109.147568  148.649063    0.000000    0.000000    0.000000    0.000000
  0.021422846   -0.219258  167.965759 -107.656193  147.764893    0.000000    0.000000    0.000000    0.000000
  0.021623246   -0.220305  167.839279 -107.961257  142.024170    0.000000    0.000000    0.000000    0.000000
  0.021823647   -0.219155  167.728729 -107.800873  132.838715    0.000000    0.000000    0.000000    0.000000
  0.022024048   -0.223772  167.619492 -108.271584  143.825836    0.000000    0.000000    0.000000    0.000000
  0.022224449   -0.224795  167.496689 -109.214045  147.879822    0.000000    0.000000    0.000000    0.000000
  0.022424850   -0.226895  167.379608 -107.636233  154.074722    0.000000    0.000000    0.000000    0.000000
  0.022625251   -0.227702  167.272186 -107.530588  147.883438    0.000000    0.000000    0.000000    0.000000
  0.022825651   -0.228788  167.148300 -108.299339  141.536011    0.000000    0.000000    0.000000    0.000000
  0.023026052   -0.226543  167.042831 -108.278134  145.236908    0.000000    0.000000    0.000000    0.000000
  0.023226453   -0.228401  166.918304 -108.035614  142.101959    0.000000    0.000000    0.000000    0.000000
  0.023426854   -0.227984  166.802002 -107.796376  145.607407    0.000000    0.000000    0.000000    0.000000
  0.023627255   -0.229375  166.686279 -108.090670  143.235077    0.000000    0.000000    0.000000    0.000000
  0.023827655   -0.230513  166.568756 -108.140893  143.477615    0.000000    0.000000    0.000000    0.000000
  0.024028056   -0.227984  166.473190 -107.829127  142.394302    0.000000    0.000000    0.000000    0.000000
  0.024228457   -0.229396  166.359711 -106.921725  143.394104    0.000000    0.000000    0.000000    0.000000
  0.024428858   -0.227860  166.266876 -107.548498  142.357819    0.000000    0.000000    0.000000    0.000000
  0.024629259   -0.227618  166.141235 -107.394234  142.240799    0.000000    0.000000    0.000000    0.000000
  0.024829659   -0.223684  166.074051 -106.919029  152.646790    0.000000    0.000000    0.000000    0.000000
  0.025030060   -0.223657  165.975952 -108.248746  146.666550    0.000000    0.000000    0.000000    0.000000
  0.025230461   -0.224416  165.848557 -108.096409  133.563644    0.000000    0.000000    0.000000    0.000000
  0.025430862   -0.223186  165.743454 -107.459010  149.501663    0.000000    0.000000    0.000000    0.000000
  0.025631263   -0.223268  165.638046 -107.194836  149.858978    0.000000    0.000000    0.000000    0.000000
  0.025831663   -0.222728  165.558243 -107.255313  143.171524    0.000000    0.000000    0.000000    0.000000
  0.026032064   -0.223279  165.434265 -107.169268  138.674622    0.000000    0.000000    0.000000    0.000000
  0.026232465   -0.219738  165.346039 -108.303837  141.144943    0.000000    0.000000    0.000000    0.000000
  0.026432866   -0.222649  165.223663 -106.872852  137.452682    0.000000    0.000000    0.000000    0.000000
  0.026633267   -0.220503  165.123062 -106.581034  143.377289    0.000000    0.000000    0.000000    0.000000
  0.026833667   -0.220507  165.030060 -107.702195  144.503555    0.000000    0.000000    0.000000    0.000000
  0.027034068   -0.221384  164.921722 -108.062578  145.960220    0.000000    0.000000    0.000000    0.000000
  0.027234469   -0.223117  164.826813 -107.554839  146.337692    0.000000    0.000000    0.000000    0.000000
  0.027434870   -0.226191  164.751709 -107.426375  137.656815    0.000000    0.000000    0.000000    0.000000
  0.027635271   -0.228273  164.624344 -106.500918  140.465057    0.000000    0.000000    0.000000    0.000000
  0.027835671   -0.227740  164.519196 -108.051809  143.160812    0.000000    0.000000    0.000000    0.000000
  0.028036072   -0.224548  164.429764 -106.571204  140.272430    0.000000    0.000000    0.000000    0.000000
  0.028236473   -0.226700  164.298553 -107.784076  139.790115    0.000000    0.000000    0.000000    0.000000
  0.028436874   -0.231014  164.209778 -106.449659  142.558777    0.000000    0.000000    0.000000    0.000000
  0.028637275   -0.233377  164.117462 -107.223061  137.874786    0.000000    0.000000    0.000000    0.000000
  0.028837675   -0.235497  163.998383 -107.518663  148.043091    0.000000    0.000000    0.000000    0.000000
  0.029038076   -0.238071  163.895767 -106.515041  140.984314    0.000000    0.000000    0.000000    0.000000
  0.029238477   -0.239778  163.816299 -105.953769  133.502563    0.000000    0.000000    0.000000    0.000000
  0.029438878   -0.238409  163.708817 -106.634283  140.281021    0.000000    0.000000    0.000000    0.000000
  0.029639279   -0.239319  163.608734 -106.088628  141.214920    0.000000    0.000000    0.000000    0.000000
  0.029839679   -0.240335  163.486893 -106.695571  136.852829    0.000000    0.000000    0.000000    0.000000
  0.030040080   -0.245169  163.377945 -106.353933  136.759018    0.000000    0.000000    0.000000    0.000000
  0.030240481   -0.245091  163.276398 -106.767096  140.344345    0.000000    0.000000    0.000000    0.000000
  0.030440882   -0.242610  163.192032 -105.618025  145.028076    0.000000    0.000000    0.000000    0.000000
  0.030641283   -0.248276  163.074387 -106.756167  136.149185    0.000000    0.000000    0.000000    0.000000
  0.030841683   -0.250910  162.950638 -107.262481  139.643692    0.000000    0.000000    0.000000    0.000000
  0.031042084   -0.249441  162.858917 -106.714268  137.737991    0.000000    0.000000    0.000000    0.000000
  0.031242485   -0.253077  162.728256 -106.454228  130.436707    0.000000    0.000000    0.000000    0.000000
  0.031442886   -0.254249  162.642044 -105.942777  142.932953    0.000000    0.000000    0.000000    0.000000
  0.031643287   -0.257275  162.540619 -105.318121  138.840637    0.000000    0.000000    0.000000    0.000000
  0.031843687   -0.255009  162.417801 -107.416275  132.902939    0.000000    0.000000    0.000000    0.000000
  0.032044088   -0.262871  162.323532 -105.285728  139.319061    0.000000    0.000000    0.000000    0.000000
  0.032244489   -0.253172  162.209885 -106.446331  137.230667    0.000000    0.000000    0.000000    0.000000
  0.032444890   -0.259225  162.077881 -106.179050  138.337265    0.000000    0.000000    0.000000    0.000000
  0.032645291   -0.259439  161.996674 -105.755811  135.649216    0.000000    0.000000    0.000000    0.000000
  0.032845691   -0.264479  161.860245 -105.355822  139.145706    0.000000    0.000000    0.000000    0.000000
  0.033046092   -0.263574  161.779205 -106.749787  142.333282    0.000000    0.000000    0.000000    0.000000
  0.033246493   -0.263454  161.676590 -106.095085  145.454391    0.000000    0.000000    0.000000    0.000000
  0.033446894   -0.264552  161.576233 -105.741658  141.524872    0.000000    0.000000    0.000000    0.000000
  0.033647295   -0.266549  161.497208 -106.247638  141.378571    0.000000    0.000000    0.000000    0.000000
  0.033847695   -0.268481  161.369080 -106.669567  142.973328    0.000000    0.000000    0.000000    0.000000
  0.034048096   -0.267441  161.258423 -106.246235  142.537735    0.000000    0.000000    0.000000    0.000000
  0.034248497   -0.269544  161.154266 -106.588144  140.482315    0.000000    0.000000    0.000000    0.000000
  0.034448898   -0.269014  161.054276 -106.755312  140.724854    0.000000    0.000000    0.000000    0.000000
  0.034649299   -0.270549  160.937012 -107.355520  150.974274    0.000000    0.000000    0.000000    0.000000
  0.034849699   -0.270583  160.834976 -106.848735  139.336868    0.000000    0.000000    0.000000    0.000000
  0.035050100   -0.272106  160.734985 -106.283397  144.928482    0.000000    0.000000    0.000000    0.000000
  0.035250501   -0.272552  160.634720 -105.625951  143.645782    0.000000    0.000000    0.000000    0.000000
  0.035450902   -0.273569  160.524277 -107.149590  139.837479    0.000000    0.000000    0.000000    0.000000
  0.035651303   -0.272646  160.425766 -105.694203  143.638016    0.000000    0.000000    0.000000    0.000000
  0.035851703   -0.275808  160.300339 -104.719446  140.734360    0.000000    0.000000    0.000000    0.000000
  0.036052104   -0.275318  160.222321 -105.749277  151.784805    0.000000    0.000000    0.000000    0.000000
  0.036252505   -0.275311  160.116730 -105.705765  147.013870    0.000000    0.000000    0.000000    0.000000
  0.036452906   -0.276639  160.007660 -104.516330  142.635559    0.000000    0.000000    0.000000    0.000000
  0.036653307   -0.276126  159.904007 -106.139224  144.492737    0.000000    0.000000    0.000000    0.000000
  0.036853707   -0.277780  159.796341 -104.153021  140.918991    0.000000    0.000000    0.000000    0.000000
  0.037054108   -0.279631  159.710297 -105.297921  142.006073    0.000000    0.000000    0.000000    0.000000
  0.037254509   -0.279383  159.589996 -105.899023  145.429764    0.000000    0.000000    0.000000    0.000000
  0.037454910   -0.282384  159.511002 -105.250314  142.990250    0.000000    0.000000    0.000000    0.000000
  0.037655311   -0.282900  159.390564 -106.267740  141.396103    0.000000    0.000000    0.000000    0.000000
  0.037855711   -0.281566  159.284698 -104.728527  142.511948    0.000000    0.000000    0.000000    0.000000
  0.038056112   -0.283779  159.195801 -105.505742  138.589371    0.000000    0.000000    0.000000    0.000000
  0.038256513   -0.285288  159.089554 -105.238715  143.098434    0.000000    0.000000    0.000000    0.000000
  0.038456914   -0.287057  158.981155 -105.111589  137.231033    0.000000    0.000000    0.000000    0.000000
  0.038657315   -0.285552  158.865158 -105.599890  138.790054    0.000000    0.000000    0.000000    0.000000
  0.038857715   -0.287642  158.766846 -105.345923  146.018005    0.000000    0.000000    0.000000    0.000000
  0.039058116   -0.290918  158.657028 -106.246540  138.855804    0.000000    0.000000    0.000000    0.000000
  0.039258517   -0.294433  158.551331 -106.238268  151.365387    0.000000    0.000000    0.000000    0.000000
  0.039458918   -0.294564  158.450027 -105.720080  139.551895    0.000000    0.000000    0.000000    0.000000
  0.039659319   -0.293645  158.339569 -104.994182  137.462128    0.000000    0.000000    0.000000    0.000000
  0.039859719   -0.296733  158.225235 -106.166107  141.747864    0.000000    0.000000    0.000000    0.000000
  0.040060120   -0.298552  158.120605 -106.851144  150.744766    0.000000    0.000000    0.000000    0.000000
  0.040260521   -0.298050  158.008392 -106.318969  145.080612    0.000000    0.000000    0.000000    0.000000
  0.040460922   -0.299594  157.909210 -106.318961  133.046600    0.000000    0.000000    0.000000    0.000000
  0.040661323   -0.299230  157.798828 -105.557898  140.591125    0.000000    0.000000    0.000000    0.000000
  0.040861723   -0.302624  157.680206 -106.369163  136.429733    0.000000    0.000000    0.000000    0.000000
  0.041062124   -0.305692  157.571762 -105.858981  145.534531    0.000000    0.000000    0.000000    0.000000
  0.041262525   -0.303975  157.460144 -105.577962  137.354706    0.000000    0.000000    0.000000    0.000000
  0.041462926   -0.306587  157.349869 -104.311501  136.202789    0.000000    0.000000    0.000000    0.000000
  0.041663327   -0.307605  157.229691 -106.143517  144.925949    0.000000    0.000000    0.000000    0.000000
  0.041863727   -0.306509  157.127579 -106.114107  146.637207    0.000000    0.000000    0.000000    0.000000
  0.042064128   -0.306718  157.011551 -105.594286  148.181030    0.000000    0.000000    0.000000    0.000000
  0.042264529   -0.301192  156.897659 -106.510395  143.949585    0.000000    0.000000    0.000000    0.000000
  0.042464930   -0.306651  156.787506 -105.977972  139.795609    0.000000    0.000000    0.000000    0.000000
  0.042665331   -0.308868  156.686111 -105.459883  144.026382    0.000000    0.000000    0.000000    0.000000
  0.042865731   -0.308945  156.563843 -106.073068  140.995285    0.000000    0.000000    0.000000    0.000000
