! Anritsu VNA Master:                 Model: MS2034B/10/19/501
! SN:                                  1337062
! /bd0/ovro-jan-2016/dcp3-b2-balun-load.s2p
! Existing Calibration Information:
! TYPE:                         Current Settings,       Active Cal Settings
! TIME:             	   01/14/2016 12:46:59 PM,    01/14/2016 12:01:10 PM
! INTERNAL TEMP:    	                   42.5 C,                    43.8 C
! # POINTS:         	                      500,                       500
! START FREQ:       	               10.000 MHz,                10.000 MHz
! STOP FREQ:        	              110.000 MHz,               110.000 MHz
! SOURCE POWER:     	                     High,                      High
! IFBW:             	                   100 Hz,                    100 Hz
! AVG FACTOR:       	                       4 ,                        4 
! REF PLANE 1:      	                     0 mm,                      0 mm
! REF PLANE 2:      	                     0 mm,                      0 mm
! CAL TYPE:         	                 Full S11,                  Full S11
! CAL METHOD:       	                     SOLT,                      SOLT
! CAL LINE TYPE:    	                     Coax,                      Coax
! DUT PORT 1:       	                K-Conn(M),                 K-Conn(M)
! DUT PORT 2:       	                N-Conn(M),                 N-Conn(M)
! CAL STATUS:       	        OK: Accuracy High,                        --
# GHZ S DB R 50.0
! FREQ.GHZ       S11DB        S11A       S21DB        S21A       S12DB        S12A       S22DB        S22A
  0.010000000  -11.132873  175.077621 -103.730836  137.248596    0.000000    0.000000    0.000000    0.000000
  0.010200401  -11.124205  174.970352 -105.166362  140.725922    0.000000    0.000000    0.000000    0.000000
  0.010400802  -11.089623  174.942154 -105.312963  138.129822    0.000000    0.000000    0.000000    0.000000
  0.010601202  -11.108003  174.793335 -104.820709  137.805435    0.000000    0.000000    0.000000    0.000000
  0.010801603  -11.098939  174.736053 -104.677378  134.702332    0.000000    0.000000    0.000000    0.000000
  0.011002004  -11.093722  174.647812 -106.593189  132.390823    0.000000    0.000000    0.000000    0.000000
  0.011202405  -11.085482  174.552994 -105.756367  140.558853    0.000000    0.000000    0.000000    0.000000
  0.011402806  -11.070384  174.487885 -104.631262  135.452499    0.000000    0.000000    0.000000    0.000000
  0.011603206  -11.051888  174.400879 -104.796655  136.342316    0.000000    0.000000    0.000000    0.000000
  0.011803607  -11.038565  174.336365 -105.908421  144.547745    0.000000    0.000000    0.000000    0.000000
  0.012004008  -11.026965  174.247849 -106.482249  131.655746    0.000000    0.000000    0.000000    0.000000
  0.012204409  -11.021949  174.194244 -105.940447  132.199860    0.000000    0.000000    0.000000    0.000000
  0.012404810  -11.008114  174.120651 -105.771681  135.931213    0.000000    0.000000    0.000000    0.000000
  0.012605210  -10.994606  174.030167 -106.727361  135.447495    0.000000    0.000000    0.000000    0.000000
  0.012805611  -10.984529  173.940033 -105.374241  137.364075    0.000000    0.000000    0.000000    0.000000
  0.013006012  -10.978174  173.877914 -106.112998  139.818481    0.000000    0.000000    0.000000    0.000000
  0.013206413  -10.965512  173.836563 -105.546999  135.197647    0.000000    0.000000    0.000000    0.000000
  0.013406814  -10.955965  173.731216 -107.337653  144.363190    0.000000    0.000000    0.000000    0.000000
  0.013607214  -10.954194  173.634933 -105.481895  134.442764    0.000000    0.000000    0.000000    0.000000
  0.013807615  -10.943103  173.564651 -105.313326  142.320816    0.000000    0.000000    0.000000    0.000000
  0.014008016  -10.936232  173.516113 -105.666207  131.603149    0.000000    0.000000    0.000000    0.000000
  0.014208417  -10.927386  173.421326 -107.612806  138.913666    0.000000    0.000000    0.000000    0.000000
  0.014408818  -10.923948  173.355194 -105.612296  140.156891    0.000000    0.000000    0.000000    0.000000
  0.014609218  -10.919192  173.284805 -106.397601  137.299240    0.000000    0.000000    0.000000    0.000000
  0.014809619  -10.918215  173.213257 -106.796759  138.736435    0.000000    0.000000    0.000000    0.000000
  0.015010020  -10.911035  173.125870 -106.197036  143.413101    0.000000    0.000000    0.000000    0.000000
  0.015210421  -10.905704  173.056396 -106.047055  139.196915    0.000000    0.000000    0.000000    0.000000
  0.015410822  -10.908054  172.990967 -105.453339  137.958603    0.000000    0.000000    0.000000    0.000000
  0.015611222  -10.902895  172.920547 -105.851504  137.747009    0.000000    0.000000    0.000000    0.000000
  0.015811623  -10.908079  172.842255 -106.029142  141.644424    0.000000    0.000000    0.000000    0.000000
  0.016012024  -10.909032  172.802017 -105.172269  142.486633    0.000000    0.000000    0.000000    0.000000
  0.016212425  -10.912760  172.733688 -105.690088  135.279785    0.000000    0.000000    0.000000    0.000000
  0.016412826  -10.898894  172.818054 -106.455536  136.246246    0.000000    0.000000    0.000000    0.000000
  0.016613226  -10.897776  172.729553 -107.014843  142.937210    0.000000    0.000000    0.000000    0.000000
  0.016813627  -10.897061  172.586075 -105.932049  141.675110    0.000000    0.000000    0.000000    0.000000
  0.017014028  -10.890768  172.600143 -106.905320  137.064377    0.000000    0.000000    0.000000    0.000000
  0.017214429  -10.888178  172.532852 -106.651718  136.349854    0.000000    0.000000    0.000000    0.000000
  0.017414830  -10.878195  172.452179 -106.326188  136.430573    0.000000    0.000000    0.000000    0.000000
  0.017615230  -10.872941  172.392288 -107.347679  141.967010    0.000000    0.000000    0.000000    0.000000
  0.017815631  -10.870404  172.287369 -107.055311  140.203781    0.000000    0.000000    0.000000    0.000000
  0.018016032  -10.872374  172.144333 -105.633624  139.280457    0.000000    0.000000    0.000000    0.000000
  0.018216433  -10.865171  172.112106 -106.749291  143.406677    0.000000    0.000000    0.000000    0.000000
  0.018416834  -10.866376  172.090744 -106.773662  146.942780    0.000000    0.000000    0.000000    0.000000
  0.018617234  -10.865430  171.996887 -106.942372  141.864944    0.000000    0.000000    0.000000    0.000000
  0.018817635  -10.869941  171.917007 -108.068053  151.768997    0.000000    0.000000    0.000000    0.000000
  0.019018036  -10.869279  171.848114 -107.420728  130.176254    0.000000    0.000000    0.000000    0.000000
  0.019218437  -10.878563  171.672607 -106.538714  142.150574    0.000000    0.000000    0.000000    0.000000
  0.019418838  -10.874177  171.675629 -107.508374  142.901962    0.000000    0.000000    0.000000    0.000000
  0.019619238  -10.875795  171.611771 -107.070326  142.836639    0.000000    0.000000    0.000000    0.000000
  0.019819639  -10.877984  171.532806 -107.340071  143.087372    0.000000    0.000000    0.000000    0.000000
  0.020020040  -10.878474  171.432587 -107.159594  141.483063    0.000000    0.000000    0.000000    0.000000
  0.020220441  -10.880689  171.333649 -106.907120  143.562805    0.000000    0.000000    0.000000    0.000000
  0.020420842  -10.887535  171.241638 -107.253216  145.916107    0.000000    0.000000    0.000000    0.000000
  0.020621242  -10.887581  171.080276 -107.869479  152.847504    0.000000    0.000000    0.000000    0.000000
  0.020821643  -10.885324  171.079956 -106.552208  151.315796    0.000000    0.000000    0.000000    0.000000
  0.021022044  -10.885996  170.988281 -106.856322  144.496429    0.000000    0.000000    0.000000    0.000000
  0.021222445  -10.886806  170.933792 -105.989863  142.400162    0.000000    0.000000    0.000000    0.000000
  0.021422846  -10.887433  170.835419 -105.449390  140.580643    0.000000    0.000000    0.000000    0.000000
  0.021623246  -10.887747  170.736664 -107.424178  140.210114    0.000000    0.000000    0.000000    0.000000
  0.021823647  -10.891376  170.595169 -107.342962  145.024750    0.000000    0.000000    0.000000    0.000000
  0.022024048  -10.893479  170.612564 -107.468069  149.657684    0.000000    0.000000    0.000000    0.000000
  0.022224449  -10.892705  170.512054 -107.741577  149.185837    0.000000    0.000000    0.000000    0.000000
  0.022424850  -10.893436  170.402679 -106.828560  150.469528    0.000000    0.000000    0.000000    0.000000
  0.022625251  -10.898694  170.357300 -105.797488  146.229309    0.000000    0.000000    0.000000    0.000000
  0.022825651  -10.902483  170.252945 -107.451248  146.276917    0.000000    0.000000    0.000000    0.000000
  0.023026052  -10.903434  170.098297 -106.379567  145.947098    0.000000    0.000000    0.000000    0.000000
  0.023226453  -10.904417  170.081680 -106.540756  137.336075    0.000000    0.000000    0.000000    0.000000
  0.023426854  -10.912648  170.048828 -107.606149  138.318954    0.000000    0.000000    0.000000    0.000000
  0.023627255  -10.918564  169.964050 -106.576788  139.424377    0.000000    0.000000    0.000000    0.000000
  0.023827655  -10.928324  169.884109 -107.588499  139.559845    0.000000    0.000000    0.000000    0.000000
  0.024028056  -10.922958  169.770126 -106.720527  143.859268    0.000000    0.000000    0.000000    0.000000
  0.024228457  -10.924611  169.632874 -106.229155  134.624512    0.000000    0.000000    0.000000    0.000000
  0.024428858  -10.922314  169.638519 -105.802235  140.024078    0.000000    0.000000    0.000000    0.000000
  0.024629259  -10.927434  169.571320 -105.683663  138.586121    0.000000    0.000000    0.000000    0.000000
  0.024829659  -10.916786  169.525986 -105.816468  149.963150    0.000000    0.000000    0.000000    0.000000
  0.025030060  -10.925959  169.477661 -106.627129  144.994781    0.000000    0.000000    0.000000    0.000000
  0.025230461  -10.924334  169.359924 -105.241954  146.921799    0.000000    0.000000    0.000000    0.000000
  0.025430862  -10.924257  169.236771 -107.388761  130.774887    0.000000    0.000000    0.000000    0.000000
  0.025631263  -10.927333  169.211838 -105.701059  144.206680    0.000000    0.000000    0.000000    0.000000
  0.025831663  -10.929837  169.197281 -106.221427  136.943100    0.000000    0.000000    0.000000    0.000000
  0.026032064  -10.931447  169.073914 -107.675439  136.398697    0.000000    0.000000    0.000000    0.000000
  0.026232465  -10.935790  169.007477 -106.528465  142.348984    0.000000    0.000000    0.000000    0.000000
  0.026432866  -10.936129  168.914612 -106.399619  143.458969    0.000000    0.000000    0.000000    0.000000
  0.026633267  -10.941633  168.837708 -106.131080  138.886658    0.000000    0.000000    0.000000    0.000000
  0.026833667  -10.937637  168.691544 -107.533249  144.080551    0.000000    0.000000    0.000000    0.000000
  0.027034068  -10.945554  168.669495 -106.548136  145.011078    0.000000    0.000000    0.000000    0.000000
  0.027234469  -10.956474  168.604202 -107.334715  142.552475    0.000000    0.000000    0.000000    0.000000
  0.027434870  -10.963599  168.530365 -105.924926  140.784607    0.000000    0.000000    0.000000    0.000000
  0.027635271  -10.966176  168.452484 -105.994480  146.947769    0.000000    0.000000    0.000000    0.000000
  0.027835671  -10.976474  168.372192 -107.398842  139.968369    0.000000    0.000000    0.000000    0.000000
  0.028036072  -10.968574  168.217545 -107.532859  136.886765    0.000000    0.000000    0.000000    0.000000
  0.028236473  -10.975946  168.209518 -106.657498  153.434448    0.000000    0.000000    0.000000    0.000000
  0.028436874  -10.987574  168.132416 -108.276294  146.211151    0.000000    0.000000    0.000000    0.000000
  0.028637275  -10.994086  168.076263 -106.125098  143.224045    0.000000    0.000000    0.000000    0.000000
  0.028837675  -11.000033  167.976151 -106.126285  142.509430    0.000000    0.000000    0.000000    0.000000
  0.029038076  -11.008399  167.911240 -105.790124  136.302460    0.000000    0.000000    0.000000    0.000000
  0.029238477  -11.003887  167.787537 -106.143649  139.033905    0.000000    0.000000    0.000000    0.000000
  0.029438878  -11.015563  167.746078 -107.023585  140.764740    0.000000    0.000000    0.000000    0.000000
  0.029639279  -11.025184  167.691772 -106.563094  138.612503    0.000000    0.000000    0.000000    0.000000
  0.029839679  -11.028109  167.607330 -107.058058  139.226761    0.000000    0.000000    0.000000    0.000000
  0.030040080  -11.038203  167.488663 -106.148413  148.124603    0.000000    0.000000    0.000000    0.000000
  0.030240481  -11.046350  167.403885 -105.564815  138.882645    0.000000    0.000000    0.000000    0.000000
  0.030440882  -11.031975  167.328140 -107.702860  139.069672    0.000000    0.000000    0.000000    0.000000
  0.030641283  -11.048827  167.256577 -107.295553  144.069595    0.000000    0.000000    0.000000    0.000000
  0.030841683  -11.109058  167.173798 -106.241983  137.251144    0.000000    0.000000    0.000000    0.000000
  0.031042084  -11.079363  167.101593 -106.144290  135.371841    0.000000    0.000000    0.000000    0.000000
  0.031242485  -11.097218  167.008896 -107.025707  142.212112    0.000000    0.000000    0.000000    0.000000
  0.031442886  -11.179888  166.942993 -106.892262  143.777313    0.000000    0.000000    0.000000    0.000000
  0.031643287  -11.258097  166.889847 -105.143631  149.609100    0.000000    0.000000    0.000000    0.000000
  0.031843687  -11.343770  166.768494 -107.816741  138.662460    0.000000    0.000000    0.000000    0.000000
  0.032044088  -11.410677  166.740158 -104.863480  143.167435    0.000000    0.000000    0.000000    0.000000
  0.032244489  -11.351018  166.632294 -105.912225  133.956589    0.000000    0.000000    0.000000    0.000000
  0.032444890  -11.276986  166.524582 -106.022326  131.670517    0.000000    0.000000    0.000000    0.000000
  0.032645291  -11.193085  166.466019 -105.508064  143.606918    0.000000    0.000000    0.000000    0.000000
  0.032845691  -11.154730  166.366470 -104.982950  136.198364    0.000000    0.000000    0.000000    0.000000
  0.033046092  -11.102790  166.376282 -107.226346  138.345673    0.000000    0.000000    0.000000    0.000000
  0.033246493  -11.078343  166.279984 -106.342820  143.717834    0.000000    0.000000    0.000000    0.000000
  0.033446894  -11.054830  166.202103 -105.723202  149.325516    0.000000    0.000000    0.000000    0.000000
  0.033647295  -11.045359  166.144226 -106.451415  146.712814    0.000000    0.000000    0.000000    0.000000
  0.033847695  -11.046814  166.047791 -108.621485  136.163635    0.000000    0.000000    0.000000    0.000000
  0.034048096  -11.048685  165.976395 -106.130451  143.488831    0.000000    0.000000    0.000000    0.000000
  0.034248497  -11.054790  165.899796 -106.054374  143.775024    0.000000    0.000000    0.000000    0.000000
  0.034448898  -11.056955  165.847565 -107.341750  138.899246    0.000000    0.000000    0.000000    0.000000
  0.034649299  -11.073066  165.765732 -107.051895  147.242020    0.000000    0.000000    0.000000    0.000000
  0.034849699  -11.092412  165.687973 -106.173063  141.005585    0.000000    0.000000    0.000000    0.000000
  0.035050100  -11.108887  165.623154 -105.857712  140.785751    0.000000    0.000000    0.000000    0.000000
  0.035250501  -11.134163  165.577835 -106.823270  143.688812    0.000000    0.000000    0.000000    0.000000
  0.035450902  -11.163938  165.515427 -105.120237  134.147842    0.000000    0.000000    0.000000    0.000000
  0.035651303  -11.191425  165.435913 -105.007446  136.346085    0.000000    0.000000    0.000000    0.000000
  0.035851703  -11.240157  165.362854 -106.049233  139.855942    0.000000    0.000000    0.000000    0.000000
  0.036052104  -11.284649  165.341461 -106.041795  145.210663    0.000000    0.000000    0.000000    0.000000
  0.036252505  -11.339940  165.254318 -106.123293  138.853577    0.000000    0.000000    0.000000    0.000000
  0.036452906  -11.379043  165.186295 -105.722724  140.550522    0.000000    0.000000    0.000000    0.000000
  0.036653307  -11.384561  165.106430 -106.610202  142.545425    0.000000    0.000000    0.000000    0.000000
  0.036853707  -11.392370  165.038040 -105.046602  136.924973    0.000000    0.000000    0.000000    0.000000
  0.037054108  -11.407105  164.959946 -106.414241  143.662231    0.000000    0.000000    0.000000    0.000000
  0.037254509  -11.395333  164.864929 -105.854132  145.645035    0.000000    0.000000    0.000000    0.000000
  0.037454910  -11.380661  164.819855 -106.265793  142.709717    0.000000    0.000000    0.000000    0.000000
  0.037655311  -11.390002  164.742752 -105.969323  139.124817    0.000000    0.000000    0.000000    0.000000
  0.037855711  -11.381150  164.660614 -105.298492  143.396530    0.000000    0.000000    0.000000    0.000000
  0.038056112  -11.351622  164.596878 -105.157506  150.155502    0.000000    0.000000    0.000000    0.000000
  0.038256513  -11.329965  164.528305 -104.876858  139.116333    0.000000    0.000000    0.000000    0.000000
  0.038456914  -11.321996  164.458069 -107.675020  145.141220    0.000000    0.000000    0.000000    0.000000
  0.038657315  -11.313283  164.359573 -106.027632  139.309433    0.000000    0.000000    0.000000    0.000000
  0.038857715  -11.309030  164.277542 -105.701241  142.525238    0.000000    0.000000    0.000000    0.000000
  0.039058116  -11.310393  164.212418 -106.012576  145.809875    0.000000    0.000000    0.000000    0.000000
  0.039258517  -11.308344  164.140793 -106.427652  144.261490    0.000000    0.000000    0.000000    0.000000
  0.039458918  -11.299407  164.041519 -107.210238  138.320847    0.000000    0.000000    0.000000    0.000000
  0.039659319  -11.299580  163.964539 -105.549442  142.682358    0.000000    0.000000    0.000000    0.000000
  0.039859719  -11.298809  163.879272 -106.729038  139.760315    0.000000    0.000000    0.000000    0.000000
  0.040060120  -11.296187  163.791656 -106.048625  145.902573    0.000000    0.000000    0.000000    0.000000
  0.040260521  -11.299724  163.677048 -105.761352  139.072876    0.000000    0.000000    0.000000    0.000000
  0.040460922  -11.301973  163.622192 -106.217625  136.164398    0.000000    0.000000    0.000000    0.000000
  0.040661323  -11.304186  163.531769 -105.906466  140.464935    0.000000    0.000000    0.000000    0.000000
  0.040861723  -11.302358  163.429657 -106.684924  138.890457    0.000000    0.000000    0.000000    0.000000
  0.041062124  -11.301529  163.367126 -105.933479  139.115692    0.000000    0.000000    0.000000    0.000000
  0.041262525  -11.303997  163.269653 -106.646635  135.912155    0.000000    0.000000    0.000000    0.000000
  0.041462926  -11.310916  163.214508 -106.290629  144.159470    0.000000    0.000000    0.000000    0.000000
  0.041663327  -11.318332  163.135925 -107.000220  152.487762    0.000000    0.000000    0.000000    0.000000
  0.041863727  -11.325822  163.049667 -105.434861  140.767822    0.000000    0.000000    0.000000    0.000000
  0.042064128  -11.330859  162.933090 -105.803930  135.450562    0.000000    0.000000    0.000000    0.000000
  0.042264529  -11.342285  162.853256 -106.361861  136.210968    0.000000    0.000000    0.000000    0.000000
  0.042464930  -11.354953  162.797562 -106.039736  139.811813    0.000000    0.000000    0.000000    0.000000
  0.042665331  -11.360208  162.720566 -105.109324  141.426559    0.000000    0.000000    0.000000    0.000000
  0.042865731  -11.370046  162.633102 -105.729215  139.616669    0.000000    0.000000    0.000000    0.000000
