! Anritsu VNA Master:                 Model: MS2034B/10/19/501
! SN:                                  1337062
! /bd0/ovro-jan-2016/dcp3-b1-balun-load.s2p
! Existing Calibration Information:
! TYPE:                         Current Settings,       Active Cal Settings
! TIME:             	   01/14/2016 12:44:47 PM,    01/14/2016 12:01:10 PM
! INTERNAL TEMP:    	                   42.0 C,                    43.8 C
! # POINTS:         	                      500,                       500
! START FREQ:       	               10.000 MHz,                10.000 MHz
! STOP FREQ:        	              110.000 MHz,               110.000 MHz
! SOURCE POWER:     	                     High,                      High
! IFBW:             	                   100 Hz,                    100 Hz
! AVG FACTOR:       	                       4 ,                        4 
! REF PLANE 1:      	                     0 mm,                      0 mm
! REF PLANE 2:      	                     0 mm,                      0 mm
! CAL TYPE:         	                 Full S11,                  Full S11
! CAL METHOD:       	                     SOLT,                      SOLT
! CAL LINE TYPE:    	                     Coax,                      Coax
! DUT PORT 1:       	                K-Conn(M),                 K-Conn(M)
! DUT PORT 2:       	                N-Conn(M),                 N-Conn(M)
! CAL STATUS:       	        OK: Accuracy High,                        --
# GHZ S DB R 50.0
! FREQ.GHZ       S11DB        S11A       S21DB        S21A       S12DB        S12A       S22DB        S22A
  0.010000000   -9.579874  174.961899 -105.084987  137.054794    0.000000    0.000000    0.000000    0.000000
  0.010200401   -9.583549  174.860428 -104.543802  130.358170    0.000000    0.000000    0.000000    0.000000
  0.010400802   -9.585819  174.832169 -105.428794  134.719101    0.000000    0.000000    0.000000    0.000000
  0.010601202   -9.607243  174.683929 -104.353872  136.860291    0.000000    0.000000    0.000000    0.000000
  0.010801603   -9.611256  174.589645 -105.239762  137.021790    0.000000    0.000000    0.000000    0.000000
  0.011002004   -9.614058  174.513306 -104.776450  136.570053    0.000000    0.000000    0.000000    0.000000
  0.011202405   -9.618888  174.425079 -106.020633  136.293167    0.000000    0.000000    0.000000    0.000000
  0.011402806   -9.616789  174.337509 -105.284621  135.609283    0.000000    0.000000    0.000000    0.000000
  0.011603206   -9.615724  174.248016 -106.000689  134.513962    0.000000    0.000000    0.000000    0.000000
  0.011803607   -9.619635  174.174164 -105.240875  134.856232    0.000000    0.000000    0.000000    0.000000
  0.012004008   -9.621583  174.110794 -105.352877  135.136780    0.000000    0.000000    0.000000    0.000000
  0.012204409   -9.619412  174.018295 -104.874118  137.958344    0.000000    0.000000    0.000000    0.000000
  0.012404810   -9.621665  173.942581 -106.332279  131.626328    0.000000    0.000000    0.000000    0.000000
  0.012605210   -9.624108  173.846878 -104.864095  143.572998    0.000000    0.000000    0.000000    0.000000
  0.012805611   -9.626928  173.743454 -106.028918  130.724487    0.000000    0.000000    0.000000    0.000000
  0.013006012   -9.625656  173.668976 -105.811483  133.036484    0.000000    0.000000    0.000000    0.000000
  0.013206413   -9.626626  173.627609 -105.941593  140.184235    0.000000    0.000000    0.000000    0.000000
  0.013406814   -9.626023  173.530212 -105.267342  141.070313    0.000000    0.000000    0.000000    0.000000
  0.013607214   -9.628719  173.432068 -105.813868  142.671051    0.000000    0.000000    0.000000    0.000000
  0.013807615   -9.628053  173.348831 -105.107064  142.930817    0.000000    0.000000    0.000000    0.000000
  0.014008016   -9.628158  173.293579 -105.614130  146.995956    0.000000    0.000000    0.000000    0.000000
  0.014208417   -9.630683  173.189209 -106.394882  138.076553    0.000000    0.000000    0.000000    0.000000
  0.014408818   -9.631670  173.129761 -106.172377  140.423035    0.000000    0.000000    0.000000    0.000000
  0.014609218   -9.633914  173.045547 -105.396553  142.795822    0.000000    0.000000    0.000000    0.000000
  0.014809619   -9.637695  172.977646 -106.733692  138.352798    0.000000    0.000000    0.000000    0.000000
  0.015010020   -9.636772  172.897385 -105.664542  146.133774    0.000000    0.000000    0.000000    0.000000
  0.015210421   -9.640172  172.834503 -106.253953  130.433899    0.000000    0.000000    0.000000    0.000000
  0.015410822   -9.643212  172.727219 -106.449413  132.431213    0.000000    0.000000    0.000000    0.000000
  0.015611222   -9.641149  172.652557 -104.381221  139.427353    0.000000    0.000000    0.000000    0.000000
  0.015811623   -9.644121  172.575226 -106.897743  139.928131    0.000000    0.000000    0.000000    0.000000
  0.016012024   -9.646150  172.525955 -106.532714  138.717270    0.000000    0.000000    0.000000    0.000000
  0.016212425   -9.648987  172.431137 -106.880969  135.293457    0.000000    0.000000    0.000000    0.000000
  0.016412826   -9.641686  172.500778 -105.678834  136.165192    0.000000    0.000000    0.000000    0.000000
  0.016613226   -9.644631  172.420929 -107.507125  142.402939    0.000000    0.000000    0.000000    0.000000
  0.016813627   -9.651264  172.270996 -105.829787  139.125015    0.000000    0.000000    0.000000    0.000000
  0.017014028   -9.650513  172.274597 -107.072547  135.778183    0.000000    0.000000    0.000000    0.000000
  0.017214429   -9.653164  172.214722 -105.995294  143.536682    0.000000    0.000000    0.000000    0.000000
  0.017414830   -9.653764  172.108124 -108.003092  144.296509    0.000000    0.000000    0.000000    0.000000
  0.017615230   -9.655723  172.044357 -106.305152  144.114899    0.000000    0.000000    0.000000    0.000000
  0.017815631   -9.659032  171.949371 -106.612461  139.097122    0.000000    0.000000    0.000000    0.000000
  0.018016032   -9.664563  171.794373 -105.666587  138.820648    0.000000    0.000000    0.000000    0.000000
  0.018216433   -9.665612  171.769089 -106.594019  144.489517    0.000000    0.000000    0.000000    0.000000
  0.018416834   -9.667935  171.724121 -106.422236  145.030472    0.000000    0.000000    0.000000    0.000000
  0.018617234   -9.671896  171.631638 -106.755633  143.200592    0.000000    0.000000    0.000000    0.000000
  0.018817635   -9.677410  171.548294 -108.492635  148.470901    0.000000    0.000000    0.000000    0.000000
  0.019018036   -9.679553  171.469162 -108.018948  144.803665    0.000000    0.000000    0.000000    0.000000
  0.019218437   -9.685931  171.299057 -107.704573  152.205444    0.000000    0.000000    0.000000    0.000000
  0.019418838   -9.685329  171.301971 -107.236842  153.078720    0.000000    0.000000    0.000000    0.000000
  0.019619238   -9.690802  171.223892 -107.283959  148.276825    0.000000    0.000000    0.000000    0.000000
  0.019819639   -9.691752  171.116165 -106.898746  143.822021    0.000000    0.000000    0.000000    0.000000
  0.020020040   -9.694789  171.031799 -107.317252  146.375916    0.000000    0.000000    0.000000    0.000000
  0.020220441   -9.698428  170.940781 -106.801983  144.116043    0.000000    0.000000    0.000000    0.000000
  0.020420842   -9.699395  170.833588 -106.790294  142.389084    0.000000    0.000000    0.000000    0.000000
  0.020621242   -9.700312  170.662811 -107.664342  145.162750    0.000000    0.000000    0.000000    0.000000
  0.020821643   -9.702394  170.669724 -106.697210  145.477097    0.000000    0.000000    0.000000    0.000000
  0.021022044   -9.702610  170.568741 -108.047924  157.290527    0.000000    0.000000    0.000000    0.000000
  0.021222445   -9.704092  170.492218 -108.812254  139.588043    0.000000    0.000000    0.000000    0.000000
  0.021422846   -9.707189  170.407776 -107.086149  143.595078    0.000000    0.000000    0.000000    0.000000
  0.021623246   -9.708035  170.311951 -107.252479  139.588974    0.000000    0.000000    0.000000    0.000000
  0.021823647   -9.710286  170.158554 -105.709295  144.067734    0.000000    0.000000    0.000000    0.000000
  0.022024048   -9.713912  170.163132 -106.442027  141.022568    0.000000    0.000000    0.000000    0.000000
  0.022224449   -9.713184  170.060013 -106.624397  138.980331    0.000000    0.000000    0.000000    0.000000
  0.022424850   -9.711010  169.946365 -106.666387  142.367813    0.000000    0.000000    0.000000    0.000000
  0.022625251   -9.713977  169.870270 -107.152931  138.551544    0.000000    0.000000    0.000000    0.000000
  0.022825651   -9.715043  169.780426 -107.188748  141.988907    0.000000    0.000000    0.000000    0.000000
  0.023026052   -9.710507  169.638168 -106.710274  139.388062    0.000000    0.000000    0.000000    0.000000
  0.023226453   -9.712302  169.608475 -105.641654  141.020615    0.000000    0.000000    0.000000    0.000000
  0.023426854   -9.713606  169.538956 -106.741889  141.393677    0.000000    0.000000    0.000000    0.000000
  0.023627255   -9.716420  169.463043 -105.748430  147.578079    0.000000    0.000000    0.000000    0.000000
  0.023827655   -9.721895  169.379318 -106.536145  143.941132    0.000000    0.000000    0.000000    0.000000
  0.024028056   -9.715241  169.282776 -106.669897  142.950806    0.000000    0.000000    0.000000    0.000000
  0.024228457   -9.713189  169.154495 -107.771181  144.803879    0.000000    0.000000    0.000000    0.000000
  0.024428858   -9.714035  169.131500 -106.294240  147.494568    0.000000    0.000000    0.000000    0.000000
  0.024629259   -9.716629  169.066437 -106.028886  144.239578    0.000000    0.000000    0.000000    0.000000
  0.024829659   -9.700455  169.019562 -106.509274  148.708908    0.000000    0.000000    0.000000    0.000000
  0.025030060   -9.708005  168.967438 -106.338352  142.708542    0.000000    0.000000    0.000000    0.000000
  0.025230461   -9.705897  168.836487 -107.283230  139.460052    0.000000    0.000000    0.000000    0.000000
  0.025430862   -9.701606  168.719925 -106.546196  140.802704    0.000000    0.000000    0.000000    0.000000
  0.025631263   -9.706174  168.696442 -107.419507  141.586853    0.000000    0.000000    0.000000    0.000000
  0.025831663   -9.709885  168.655396 -106.127727  141.454620    0.000000    0.000000    0.000000    0.000000
  0.026032064   -9.707241  168.533539 -106.647338  144.933777    0.000000    0.000000    0.000000    0.000000
  0.026232465   -9.706986  168.470749 -107.479049  138.812759    0.000000    0.000000    0.000000    0.000000
  0.026432866   -9.708220  168.375153 -106.534351  145.751450    0.000000    0.000000    0.000000    0.000000
  0.026633267   -9.710667  168.282654 -108.281074  147.621674    0.000000    0.000000    0.000000    0.000000
  0.026833667   -9.704022  168.142105 -107.018372  150.929855    0.000000    0.000000    0.000000    0.000000
  0.027034068   -9.709502  168.109711 -107.636578  149.417328    0.000000    0.000000    0.000000    0.000000
  0.027234469   -9.714019  168.024338 -106.555730  143.365738    0.000000    0.000000    0.000000    0.000000
  0.027434870   -9.715524  167.974945 -106.230273  147.141891    0.000000    0.000000    0.000000    0.000000
  0.027635271   -9.714995  167.882324 -106.458491  133.943405    0.000000    0.000000    0.000000    0.000000
  0.027835671   -9.719580  167.782944 -106.960132  146.199585    0.000000    0.000000    0.000000    0.000000
  0.028036072   -9.707249  167.654068 -106.460465  144.757782    0.000000    0.000000    0.000000    0.000000
  0.028236473   -9.713083  167.623398 -108.221602  142.562943    0.000000    0.000000    0.000000    0.000000
  0.028436874   -9.723420  167.544800 -108.403350  133.267639    0.000000    0.000000    0.000000    0.000000
  0.028637275   -9.724907  167.468170 -106.409052  146.623718    0.000000    0.000000    0.000000    0.000000
  0.028837675   -9.726351  167.371429 -107.636966  145.612747    0.000000    0.000000    0.000000    0.000000
  0.029038076   -9.730143  167.303299 -106.992804  145.548523    0.000000    0.000000    0.000000    0.000000
  0.029238477   -9.725958  167.192459 -105.167425  145.733078    0.000000    0.000000    0.000000    0.000000
  0.029438878   -9.732494  167.138977 -105.608643  136.968735    0.000000    0.000000    0.000000    0.000000
  0.029639279   -9.735530  167.053253 -106.609312  136.294189    0.000000    0.000000    0.000000    0.000000
  0.029839679   -9.733585  166.961700 -105.955136  150.132980    0.000000    0.000000    0.000000    0.000000
  0.030040080   -9.739098  166.862762 -105.844725  137.097458    0.000000    0.000000    0.000000    0.000000
  0.030240481   -9.740046  166.776108 -107.023124  136.397644    0.000000    0.000000    0.000000    0.000000
  0.030440882   -9.725779  166.656586 -105.839898  141.244507    0.000000    0.000000    0.000000    0.000000
  0.030641283   -9.735343  166.599197 -105.551925  138.487534    0.000000    0.000000    0.000000    0.000000
  0.030841683   -9.739214  166.501144 -105.682395  138.764893    0.000000    0.000000    0.000000    0.000000
  0.031042084   -9.738510  166.426270 -105.574675  144.720200    0.000000    0.000000    0.000000    0.000000
  0.031242485   -9.741477  166.336029 -105.316988  136.887024    0.000000    0.000000    0.000000    0.000000
  0.031442886   -9.741962  166.256348 -106.585099  143.974136    0.000000    0.000000    0.000000    0.000000
  0.031643287   -9.742155  166.192871 -106.618826  147.270706    0.000000    0.000000    0.000000    0.000000
  0.031843687   -9.735836  166.073883 -106.192028  140.002563    0.000000    0.000000    0.000000    0.000000
  0.032044088   -9.745572  166.023132 -106.300704  142.607712    0.000000    0.000000    0.000000    0.000000
  0.032244489   -9.735849  165.912308 -105.315861  141.060043    0.000000    0.000000    0.000000    0.000000
  0.032444890   -9.742641  165.815887 -106.274167  145.426392    0.000000    0.000000    0.000000    0.000000
  0.032645291   -9.740011  165.747452 -106.865157  142.922272    0.000000    0.000000    0.000000    0.000000
  0.032845691   -9.744828  165.649216 -105.613443  139.930450    0.000000    0.000000    0.000000    0.000000
  0.033046092   -9.728738  165.659851 -106.017961  146.346191    0.000000    0.000000    0.000000    0.000000
  0.033246493   -9.729395  165.548859 -105.743176  141.272186    0.000000    0.000000    0.000000    0.000000
  0.033446894   -9.731352  165.492798 -106.917403  137.196899    0.000000    0.000000    0.000000    0.000000
  0.033647295   -9.731349  165.418594 -106.621767  137.332779    0.000000    0.000000    0.000000    0.000000
  0.033847695   -9.731122  165.327972 -106.173513  146.918808    0.000000    0.000000    0.000000    0.000000
  0.034048096   -9.732040  165.253479 -106.861937  142.528870    0.000000    0.000000    0.000000    0.000000
  0.034248497   -9.735403  165.179169 -106.974862  147.318817    0.000000    0.000000    0.000000    0.000000
  0.034448898   -9.733549  165.106995 -107.289298  148.891754    0.000000    0.000000    0.000000    0.000000
  0.034649299   -9.737019  165.025055 -108.500405  150.152328    0.000000    0.000000    0.000000    0.000000
  0.034849699   -9.734458  164.948502 -106.450473  142.507782    0.000000    0.000000    0.000000    0.000000
  0.035050100   -9.736035  164.858871 -106.075199  142.126160    0.000000    0.000000    0.000000    0.000000
  0.035250501   -9.739022  164.803894 -106.572845  142.027298    0.000000    0.000000    0.000000    0.000000
  0.035450902   -9.741871  164.729691 -105.009086  140.491562    0.000000    0.000000    0.000000    0.000000
  0.035651303   -9.742564  164.663071 -105.745433  141.634308    0.000000    0.000000    0.000000    0.000000
  0.035851703   -9.749638  164.566025 -105.310562  139.522644    0.000000    0.000000    0.000000    0.000000
  0.036052104   -9.750311  164.523300 -105.602045  141.601700    0.000000    0.000000    0.000000    0.000000
  0.036252505   -9.750633  164.445374 -105.937117  142.369751    0.000000    0.000000    0.000000    0.000000
  0.036452906   -9.752026  164.351944 -104.706760  133.254074    0.000000    0.000000    0.000000    0.000000
  0.036653307   -9.756517  164.270493 -107.640924  144.202499    0.000000    0.000000    0.000000    0.000000
  0.036853707   -9.758799  164.193451 -105.835383  138.928101    0.000000    0.000000    0.000000    0.000000
  0.037054108   -9.757796  164.119171 -106.186874  142.608490    0.000000    0.000000    0.000000    0.000000
  0.037254509   -9.760719  164.012070 -105.376967  139.859558    0.000000    0.000000    0.000000    0.000000
  0.037454910   -9.760303  163.952728 -105.772255  136.902420    0.000000    0.000000    0.000000    0.000000
  0.037655311   -9.764948  163.884628 -105.478618  142.267532    0.000000    0.000000    0.000000    0.000000
  0.037855711   -9.765352  163.781693 -105.588831  138.552307    0.000000    0.000000    0.000000    0.000000
  0.038056112   -9.767098  163.729172 -105.241353  138.740738    0.000000    0.000000    0.000000    0.000000
  0.038256513   -9.769265  163.661148 -104.899408  136.798645    0.000000    0.000000    0.000000    0.000000
  0.038456914   -9.773683  163.582581 -105.687633  140.124191    0.000000    0.000000    0.000000    0.000000
  0.038657315   -9.773183  163.482971 -107.131625  141.893799    0.000000    0.000000    0.000000    0.000000
  0.038857715   -9.776946  163.413422 -105.639550  143.290588    0.000000    0.000000    0.000000    0.000000
  0.039058116   -9.782121  163.340057 -105.132764  136.451859    0.000000    0.000000    0.000000    0.000000
  0.039258517   -9.784555  163.238663 -105.178618  141.852692    0.000000    0.000000    0.000000    0.000000
  0.039458918   -9.787423  163.164307 -106.066720  141.393188    0.000000    0.000000    0.000000    0.000000
  0.039659319   -9.789709  163.095825 -105.142518  137.400253    0.000000    0.000000    0.000000    0.000000
  0.039859719   -9.792355  162.984482 -105.716284  136.549637    0.000000    0.000000    0.000000    0.000000
  0.040060120   -9.794386  162.883438 -104.986753  147.273529    0.000000    0.000000    0.000000    0.000000
  0.040260521   -9.794474  162.795975 -105.815985  135.190582    0.000000    0.000000    0.000000    0.000000
  0.040460922   -9.791166  162.731003 -105.741517  138.656586    0.000000    0.000000    0.000000    0.000000
  0.040661323   -9.793741  162.628601 -106.123525  136.062790    0.000000    0.000000    0.000000    0.000000
  0.040861723   -9.795917  162.554337 -106.736767  143.088364    0.000000    0.000000    0.000000    0.000000
  0.041062124   -9.795210  162.488815 -106.796589  150.966583    0.000000    0.000000    0.000000    0.000000
  0.041262525   -9.795251  162.382385 -106.038063  138.260956    0.000000    0.000000    0.000000    0.000000
  0.041462926   -9.798956  162.309738 -106.402055  141.442108    0.000000    0.000000    0.000000    0.000000
  0.041663327   -9.800099  162.226944 -106.464278  144.377197    0.000000    0.000000    0.000000    0.000000
  0.041863727   -9.801290  162.142578 -105.765461  140.547394    0.000000    0.000000    0.000000    0.000000
  0.042064128   -9.801286  162.050323 -106.812100  143.850708    0.000000    0.000000    0.000000    0.000000
  0.042264529   -9.800479  161.945145 -106.643587  140.185104    0.000000    0.000000    0.000000    0.000000
  0.042464930   -9.802737  161.881226 -106.374230  154.226074    0.000000    0.000000    0.000000    0.000000
  0.042665331   -9.804405  161.793732 -106.541381  136.838028    0.000000    0.000000    0.000000    0.000000
  0.042865731   -9.802898  161.694046 -105.501253  134.457321    0.000000    0.000000    0.000000    0.000000
