! Anritsu VNA Master:                 Model: MS2034B/10/19/501
! SN:                                  1337062
! /bd0/ovro-jan-2016/vna-jan/vna-green-ms147-with-board-open.s2p
! Existing Calibration Information:
! TYPE:                         Current Settings,       Active Cal Settings
! TIME:             	   01/13/2016 12:45:57 PM,    01/12/2016 05:57:47 PM
! INTERNAL TEMP:    	                   44.3 C,                    46.0 C
! # POINTS:         	                      500,                       500
! START FREQ:       	               10.000 MHz,                10.000 MHz
! STOP FREQ:        	              110.000 MHz,               110.000 MHz
! SOURCE POWER:     	                      Low,                       Low
! IFBW:             	                   100 Hz,                     1 kHz
! AVG FACTOR:       	                       1 ,                        3 
! REF PLANE 1:      	                     0 mm,                      0 mm
! REF PLANE 2:      	                     0 mm,                      0 mm
! CAL TYPE:         	             1P2P S11,S21,              1P2P S11,S21
! CAL METHOD:       	                     SOLT,                      SOLT
! CAL LINE TYPE:    	                     Coax,                      Coax
! DUT PORT 1:       	                K-Conn(M),                 K-Conn(M)
! DUT PORT 2:       	                N-Conn(M),                 N-Conn(M)
! CAL STATUS:       	        OK: Accuracy High,                        --
# GHZ S DB R 50.0
! FREQ.GHZ       S11DB        S11A       S21DB        S21A       S12DB        S12A       S22DB        S22A
  0.010000000   -0.080177  -34.233021  -68.736504   59.646629    0.000000    0.000000    0.000000    0.000000
  0.010200401   -0.078212  -35.102695  -68.462662   69.048332    0.000000    0.000000    0.000000    0.000000
  0.010400802   -0.086639  -35.594498  -66.442086   57.651585    0.000000    0.000000    0.000000    0.000000
  0.010601202   -0.081896  -36.221989  -67.509589   57.419384    0.000000    0.000000    0.000000    0.000000
  0.010801603   -0.096004  -37.000084  -66.933955   61.955425    0.000000    0.000000    0.000000    0.000000
  0.011002004   -0.085753  -37.613659  -65.967603   73.833351    0.000000    0.000000    0.000000    0.000000
  0.011202405   -0.089565  -38.312763  -64.704102   72.235497    0.000000    0.000000    0.000000    0.000000
  0.011402806   -0.085221  -38.971336  -66.429879   70.552155    0.000000    0.000000    0.000000    0.000000
  0.011603206   -0.101235  -39.711899  -63.838543   75.116211    0.000000    0.000000    0.000000    0.000000
  0.011803607   -0.095291  -40.314682  -66.176762   79.675873    0.000000    0.000000    0.000000    0.000000
  0.012004008   -0.134470  -41.021782  -66.161301   72.698936    0.000000    0.000000    0.000000    0.000000
  0.012204409   -0.128401  -41.644901  -65.155155   62.258404    0.000000    0.000000    0.000000    0.000000
  0.012404810   -0.110973  -42.468002  -65.152316   90.681236    0.000000    0.000000    0.000000    0.000000
  0.012605210   -0.105685  -43.060421  -68.860061   78.397270    0.000000    0.000000    0.000000    0.000000
  0.012805611   -0.109548  -43.800037  -65.376009   88.135330    0.000000    0.000000    0.000000    0.000000
  0.013006012   -0.130862  -44.206303  -65.277355   84.352776    0.000000    0.000000    0.000000    0.000000
  0.013206413   -0.112540  -45.156334  -62.991374   82.215744    0.000000    0.000000    0.000000    0.000000
  0.013406814   -0.134545  -45.783211  -66.960562   81.879372    0.000000    0.000000    0.000000    0.000000
  0.013607214   -0.125621  -46.476017  -69.648786   87.833054    0.000000    0.000000    0.000000    0.000000
  0.013807615   -0.138050  -47.013256  -68.523761   77.067245    0.000000    0.000000    0.000000    0.000000
  0.014008016   -0.138001  -47.955212  -69.250087   98.566536    0.000000    0.000000    0.000000    0.000000
  0.014208417   -0.168633  -48.314369  -67.458151   73.759689    0.000000    0.000000    0.000000    0.000000
  0.014408818   -0.127783  -49.089157  -65.604479   83.941330    0.000000    0.000000    0.000000    0.000000
  0.014609218   -0.149153  -49.891182  -66.049723   69.150444    0.000000    0.000000    0.000000    0.000000
  0.014809619   -0.154838  -50.650238  -65.949356   99.270226    0.000000    0.000000    0.000000    0.000000
  0.015010020   -0.165185  -51.098915  -65.178644   90.857513    0.000000    0.000000    0.000000    0.000000
  0.015210421   -0.135655  -51.940365  -71.262310   85.668221    0.000000    0.000000    0.000000    0.000000
  0.015410822   -0.156356  -52.635918  -63.801292   93.092651    0.000000    0.000000    0.000000    0.000000
  0.015611222   -0.192807  -52.929493  -65.537221   90.689667    0.000000    0.000000    0.000000    0.000000
  0.015811623   -0.147226  -53.820168  -64.908964   95.352798    0.000000    0.000000    0.000000    0.000000
  0.016012024   -0.168826  -54.729366  -66.347604   92.396271    0.000000    0.000000    0.000000    0.000000
  0.016212425   -0.165592  -55.350937  -65.718738   92.378616    0.000000    0.000000    0.000000    0.000000
  0.016412826   -0.170976  -55.889069  -68.854327  106.705513    0.000000    0.000000    0.000000    0.000000
  0.016613226   -0.173742  -56.491264  -66.403763   84.837448    0.000000    0.000000    0.000000    0.000000
  0.016813627   -0.190559  -57.275295  -66.912162   96.312447    0.000000    0.000000    0.000000    0.000000
  0.017014028   -0.161034  -58.106632  -66.625623   85.357040    0.000000    0.000000    0.000000    0.000000
  0.017214429   -0.170075  -58.751923  -67.093484   85.257637    0.000000    0.000000    0.000000    0.000000
  0.017414830   -0.183378  -59.420876  -68.007831   95.063835    0.000000    0.000000    0.000000    0.000000
  0.017615230   -0.179673  -60.044598  -65.889392   99.432533    0.000000    0.000000    0.000000    0.000000
  0.017815631   -0.183032  -60.798443  -68.080612   99.520340    0.000000    0.000000    0.000000    0.000000
  0.018016032   -0.232990  -61.161907  -66.609024  107.760216    0.000000    0.000000    0.000000    0.000000
  0.018216433   -0.198415  -62.001911  -66.085917  101.528740    0.000000    0.000000    0.000000    0.000000
  0.018416834   -0.189737  -62.687298  -66.296589  101.238274    0.000000    0.000000    0.000000    0.000000
  0.018617234   -0.202394  -63.509174  -67.400256  102.808159    0.000000    0.000000    0.000000    0.000000
  0.018817635   -0.212828  -64.113579  -64.663436  105.465363    0.000000    0.000000    0.000000    0.000000
  0.019018036   -0.192362  -64.882736  -65.131874  101.890388    0.000000    0.000000    0.000000    0.000000
  0.019218437   -0.225169  -65.295776  -68.304707  108.414726    0.000000    0.000000    0.000000    0.000000
  0.019418838   -0.217004  -66.151718  -67.867476  110.760262    0.000000    0.000000    0.000000    0.000000
  0.019619238   -0.231454  -66.864395  -67.812978  100.834518    0.000000    0.000000    0.000000    0.000000
  0.019819639   -0.224715  -67.280510  -69.661372  110.208183    0.000000    0.000000    0.000000    0.000000
  0.020020040   -0.205419  -68.135796  -66.155385  109.619011    0.000000    0.000000    0.000000    0.000000
  0.020220441   -0.179248  -68.793060  -68.440869  119.520813    0.000000    0.000000    0.000000    0.000000
  0.020420842   -0.215538  -69.612015  -67.327576  108.118240    0.000000    0.000000    0.000000    0.000000
  0.020621242   -0.244691  -69.905998  -68.153560  118.521927    0.000000    0.000000    0.000000    0.000000
  0.020821643   -0.212503  -70.844101  -68.093976   90.634010    0.000000    0.000000    0.000000    0.000000
  0.021022044   -0.208011  -71.672264  -67.528846  111.214005    0.000000    0.000000    0.000000    0.000000
  0.021222445   -0.213652  -72.197510  -66.382503  125.037552    0.000000    0.000000    0.000000    0.000000
  0.021422846   -0.214704  -72.853180  -66.286089  125.965317    0.000000    0.000000    0.000000    0.000000
  0.021623246   -0.224080  -73.578590  -66.107056  113.420532    0.000000    0.000000    0.000000    0.000000
  0.021823647   -0.225540  -74.169693  -67.639932  126.603455    0.000000    0.000000    0.000000    0.000000
  0.022024048   -0.220259  -74.888107  -66.066205  118.528831    0.000000    0.000000    0.000000    0.000000
  0.022224449   -0.201359  -75.589043  -65.234520  103.178131    0.000000    0.000000    0.000000    0.000000
  0.022424850   -0.231773  -76.266434  -66.418177  116.261093    0.000000    0.000000    0.000000    0.000000
  0.022625251   -0.231106  -76.732559  -68.212685  115.807961    0.000000    0.000000    0.000000    0.000000
  0.022825651   -0.218588  -77.575623  -67.096685  136.755707    0.000000    0.000000    0.000000    0.000000
  0.023026052   -0.238860  -78.065804  -65.814569  114.683907    0.000000    0.000000    0.000000    0.000000
  0.023226453   -0.234599  -78.846466  -65.882291  118.517357    0.000000    0.000000    0.000000    0.000000
  0.023426854   -0.218160  -79.581398  -66.042245  115.405502    0.000000    0.000000    0.000000    0.000000
  0.023627255   -0.234131  -80.232651  -67.143557  112.908897    0.000000    0.000000    0.000000    0.000000
  0.023827655   -0.205505  -80.872910  -67.379909  114.697891    0.000000    0.000000    0.000000    0.000000
  0.024028056   -0.236969  -81.574318  -66.777660  122.744225    0.000000    0.000000    0.000000    0.000000
  0.024228457   -0.260006  -82.279556  -64.607482  120.628326    0.000000    0.000000    0.000000    0.000000
  0.024428858   -0.248867  -82.968941  -67.664316  127.072777    0.000000    0.000000    0.000000    0.000000
  0.024629259   -0.253050  -83.672020  -66.775101  143.769775    0.000000    0.000000    0.000000    0.000000
  0.024829659   -0.222637  -84.367012  -64.163152  151.523102    0.000000    0.000000    0.000000    0.000000
  0.025030060   -0.215634  -85.116722  -62.848432  141.538345    0.000000    0.000000    0.000000    0.000000
  0.025230461   -0.217596  -85.669273  -63.560146  136.934113    0.000000    0.000000    0.000000    0.000000
  0.025430862   -0.256155  -86.444702  -64.312130  160.920029    0.000000    0.000000    0.000000    0.000000
  0.025631263   -0.221302  -87.302124  -65.690553  167.493576    0.000000    0.000000    0.000000    0.000000
  0.025831663   -0.232366  -87.834045  -66.003244  171.393860    0.000000    0.000000    0.000000    0.000000
  0.026032064   -0.240642  -88.569084  -63.954556  147.537094    0.000000    0.000000    0.000000    0.000000
  0.026232465   -0.250688  -89.177979  -64.468477  155.306076    0.000000    0.000000    0.000000    0.000000
  0.026432866   -0.251124  -89.679283  -63.618775  172.212021    0.000000    0.000000    0.000000    0.000000
  0.026633267   -0.221339  -90.370590  -64.722738  169.110992    0.000000    0.000000    0.000000    0.000000
  0.026833667   -0.251528  -91.151154  -64.464519  165.875336    0.000000    0.000000    0.000000    0.000000
  0.027034068   -0.221242  -91.694298  -66.353551  164.395828    0.000000    0.000000    0.000000    0.000000
  0.027234469   -0.224914  -92.618233  -67.181542  154.883026    0.000000    0.000000    0.000000    0.000000
  0.027434870   -0.206297  -93.131409  -64.393800  163.311157    0.000000    0.000000    0.000000    0.000000
  0.027635271   -0.256006  -93.830765  -65.430201  160.604065    0.000000    0.000000    0.000000    0.000000
  0.027835671   -0.204275  -94.258308  -65.699039  169.037354    0.000000    0.000000    0.000000    0.000000
  0.028036072   -0.247876  -95.262520  -66.591701 -179.756393    0.000000    0.000000    0.000000    0.000000
  0.028236473   -0.226263  -95.929062  -67.157752  154.043304    0.000000    0.000000    0.000000    0.000000
  0.028436874   -0.229489  -96.366951  -65.868412 -171.558350    0.000000    0.000000    0.000000    0.000000
  0.028637275   -0.231530  -97.195938  -64.822980  178.111984    0.000000    0.000000    0.000000    0.000000
  0.028837675   -0.197964  -97.910507  -64.475761  163.549515    0.000000    0.000000    0.000000    0.000000
  0.029038076   -0.233618  -98.472694  -66.317377 -173.176392    0.000000    0.000000    0.000000    0.000000
  0.029238477   -0.205857  -99.117065  -64.660027  164.756958    0.000000    0.000000    0.000000    0.000000
  0.029438878   -0.214404  -99.851830  -65.036237 -176.653183    0.000000    0.000000    0.000000    0.000000
  0.029639279   -0.202347 -100.570793  -65.636849  163.321228    0.000000    0.000000    0.000000    0.000000
  0.029839679   -0.193949 -101.079597  -67.577220  168.598511    0.000000    0.000000    0.000000    0.000000
  0.030040080   -0.205676 -101.790436  -63.688655  169.447617    0.000000    0.000000    0.000000    0.000000
  0.030240481   -0.237987 -102.570648  -66.909193  167.079712    0.000000    0.000000    0.000000    0.000000
  0.030440882   -0.260454 -103.190346  -66.937802 -176.210373    0.000000    0.000000    0.000000    0.000000
  0.030641283   -0.193091 -103.824478  -66.118249  159.077164    0.000000    0.000000    0.000000    0.000000
  0.030841683   -0.184190 -104.508316  -66.867549 -177.295181    0.000000    0.000000    0.000000    0.000000
  0.031042084   -0.200981 -105.193192  -66.679084 -177.001053    0.000000    0.000000    0.000000    0.000000
  0.031242485   -0.198804 -105.931389  -68.156224 -177.894989    0.000000    0.000000    0.000000    0.000000
  0.031442886   -0.201191 -106.500595  -66.957303  168.451263    0.000000    0.000000    0.000000    0.000000
  0.031643287   -0.217488 -107.083572  -66.449563 -179.188858    0.000000    0.000000    0.000000    0.000000
  0.031843687   -0.223839 -107.841492  -67.108899  179.245026    0.000000    0.000000    0.000000    0.000000
  0.032044088   -0.190808 -108.569725  -68.338114  177.508850    0.000000    0.000000    0.000000    0.000000
  0.032244489   -0.175561 -109.158012  -65.654534 -177.035706    0.000000    0.000000    0.000000    0.000000
  0.032444890   -0.202966 -109.865318  -64.595071  176.850571    0.000000    0.000000    0.000000    0.000000
  0.032645291   -0.175615 -110.411713  -65.993564  161.231873    0.000000    0.000000    0.000000    0.000000
  0.032845691   -0.196146 -111.056572  -66.221644  179.197540    0.000000    0.000000    0.000000    0.000000
  0.033046092   -0.225531 -111.882149  -65.944103 -178.132324    0.000000    0.000000    0.000000    0.000000
  0.033246493   -0.207924 -112.428467  -67.694968 -170.089981    0.000000    0.000000    0.000000    0.000000
  0.033446894   -0.201636 -113.170830  -67.934982 -171.056625    0.000000    0.000000    0.000000    0.000000
  0.033647295   -0.197963 -113.733582  -66.545391 -179.875656    0.000000    0.000000    0.000000    0.000000
  0.033847695   -0.178223 -114.494408  -66.476838 -171.714615    0.000000    0.000000    0.000000    0.000000
  0.034048096   -0.195137 -115.042900  -67.293824  169.942398    0.000000    0.000000    0.000000    0.000000
  0.034248497   -0.190258 -115.743210  -68.815634 -163.519836    0.000000    0.000000    0.000000    0.000000
  0.034448898   -0.189906 -116.473892  -68.779384 -162.705582    0.000000    0.000000    0.000000    0.000000
  0.034649299   -0.194888 -117.171211  -67.594694 -164.814865    0.000000    0.000000    0.000000    0.000000
  0.034849699   -0.177130 -117.713295  -67.117231  178.689072    0.000000    0.000000    0.000000    0.000000
  0.035050100   -0.193740 -118.446053  -66.438049 -179.667480    0.000000    0.000000    0.000000    0.000000
  0.035250501   -0.169622 -118.985107  -65.666834  178.023453    0.000000    0.000000    0.000000    0.000000
  0.035450902   -0.202466 -119.864250  -67.815795 -171.986084    0.000000    0.000000    0.000000    0.000000
  0.035651303   -0.195911 -120.477898  -66.518679  171.020157    0.000000    0.000000    0.000000    0.000000
  0.035851703   -0.172689 -121.230927  -67.674196 -176.200226    0.000000    0.000000    0.000000    0.000000
  0.036052104   -0.180637 -121.720459  -67.931652  174.483795    0.000000    0.000000    0.000000    0.000000
  0.036252505   -0.185743 -122.407547  -66.572209 -177.498672    0.000000    0.000000    0.000000    0.000000
  0.036452906   -0.189113 -122.969772  -66.905525 -171.708954    0.000000    0.000000    0.000000    0.000000
  0.036653307   -0.200077 -123.616684  -66.797668 -177.486389    0.000000    0.000000    0.000000    0.000000
  0.036853707   -0.216369 -124.547829  -66.104236  173.964905    0.000000    0.000000    0.000000    0.000000
  0.037054108   -0.185211 -124.992241  -66.665760 -170.855072    0.000000    0.000000    0.000000    0.000000
  0.037254509   -0.173546 -125.634338  -67.047928 -172.777618    0.000000    0.000000    0.000000    0.000000
  0.037454910   -0.184942 -126.238426  -67.168473 -170.475647    0.000000    0.000000    0.000000    0.000000
  0.037655311   -0.197814 -126.853935  -68.263678 -153.682892    0.000000    0.000000    0.000000    0.000000
  0.037855711   -0.185030 -127.613289  -67.159311 -174.005005    0.000000    0.000000    0.000000    0.000000
  0.038056112   -0.216681 -128.472580  -68.569875 -158.824402    0.000000    0.000000    0.000000    0.000000
  0.038256513   -0.183831 -128.866364  -69.484154 -152.912750    0.000000    0.000000    0.000000    0.000000
  0.038456914   -0.197270 -129.595108  -67.931981 -171.937500    0.000000    0.000000    0.000000    0.000000
  0.038657315   -0.190359 -130.228470  -68.417842 -154.727478    0.000000    0.000000    0.000000    0.000000
  0.038857715   -0.210699 -130.906799  -67.391987 -163.210770    0.000000    0.000000    0.000000    0.000000
  0.039058116   -0.203438 -131.496353  -68.880220 -148.398651    0.000000    0.000000    0.000000    0.000000
  0.039258517   -0.188858 -132.350677  -68.093714 -164.170593    0.000000    0.000000    0.000000    0.000000
  0.039458918   -0.185690 -132.757797  -66.776301 -154.377945    0.000000    0.000000    0.000000    0.000000
  0.039659319   -0.190355 -133.612564  -68.962663 -151.253204    0.000000    0.000000    0.000000    0.000000
  0.039859719   -0.181266 -134.128662  -68.442743 -158.596313    0.000000    0.000000    0.000000    0.000000
  0.040060120   -0.204554 -134.754562  -68.857735 -152.472992    0.000000    0.000000    0.000000    0.000000
  0.040260521   -0.200689 -135.469772  -67.077445 -162.733414    0.000000    0.000000    0.000000    0.000000
  0.040460922   -0.214569 -136.180649  -66.808076 -159.219910    0.000000    0.000000    0.000000    0.000000
  0.040661323   -0.209285 -136.830597  -67.716388 -151.356506    0.000000    0.000000    0.000000    0.000000
  0.040861723   -0.186461 -137.410675  -68.607923 -148.394699    0.000000    0.000000    0.000000    0.000000
  0.041062124   -0.222476 -137.951523  -68.165628 -152.259674    0.000000    0.000000    0.000000    0.000000
  0.041262525   -0.212305 -138.612183  -67.510096 -152.048599    0.000000    0.000000    0.000000    0.000000
  0.041462926   -0.214479 -139.330078  -67.351238 -132.518768    0.000000    0.000000    0.000000    0.000000
  0.041663327   -0.206819 -139.884689  -68.075015 -140.350601    0.000000    0.000000    0.000000    0.000000
  0.041863727   -0.222940 -140.656601  -70.158375 -147.276138    0.000000    0.000000    0.000000    0.000000
  0.042064128   -0.233300 -141.315796  -68.251574 -131.881927    0.000000    0.000000    0.000000    0.000000
  0.042264529   -0.225234 -141.833405  -68.821068 -143.254791    0.000000    0.000000    0.000000    0.000000
  0.042464930   -0.223433 -142.480911  -68.520391 -144.295364    0.000000    0.000000    0.000000    0.000000
  0.042665331   -0.220639 -143.236084  -69.079079 -143.488708    0.000000    0.000000    0.000000    0.000000
  0.042865731   -0.231773 -143.864685  -67.262415 -135.863144    0.000000    0.000000    0.000000    0.000000
