! Anritsu VNA Master:                 Model: MS2034B/10/19/501
! SN:                                  1337062
! /bd0/ovro-jan-2016/vna-jan/vna-ant255-d1-s11.s2p
! Existing Calibration Information:
! TYPE:                         Current Settings,       Active Cal Settings
! TIME:             	   01/13/2016 03:13:36 PM,    01/13/2016 02:51:14 PM
! INTERNAL TEMP:    	                   35.0 C,                    37.8 C
! # POINTS:         	                      500,                       500
! START FREQ:       	               10.000 MHz,                10.000 MHz
! STOP FREQ:        	              110.000 MHz,               110.000 MHz
! SOURCE POWER:     	                     High,                      High
! IFBW:             	                   100 Hz,                    100 Hz
! AVG FACTOR:       	                       4 ,                        4 
! REF PLANE 1:      	                     0 mm,                      0 mm
! REF PLANE 2:      	                     0 mm,                      0 mm
! CAL TYPE:         	                 Full S11,                  Full S11
! CAL METHOD:       	                     SOLT,                      SOLT
! CAL LINE TYPE:    	                     Coax,                      Coax
! DUT PORT 1:       	                K-Conn(M),                 K-Conn(M)
! DUT PORT 2:       	                N-Conn(M),                 N-Conn(M)
! CAL STATUS:       	        OK: Accuracy High,                        --
# GHZ S DB R 50.0
! FREQ.GHZ       S11DB        S11A       S21DB        S21A       S12DB        S12A       S22DB        S22A
  0.010000000   -0.551040  -46.605873 -103.432153  146.895233    0.000000    0.000000    0.000000    0.000000
  0.010200401   -0.535506  -47.597572 -103.998474  151.265396    0.000000    0.000000    0.000000    0.000000
  0.010400802   -0.514470  -48.486801 -103.741762  145.998947    0.000000    0.000000    0.000000    0.000000
  0.010601202   -0.505988  -49.443748 -103.435240  139.647095    0.000000    0.000000    0.000000    0.000000
  0.010801603   -0.511638  -50.457970 -102.909507  151.797089    0.000000    0.000000    0.000000    0.000000
  0.011002004   -0.509304  -51.404961 -103.444249  146.162872    0.000000    0.000000    0.000000    0.000000
  0.011202405   -0.516878  -52.372135 -102.364186  144.704330    0.000000    0.000000    0.000000    0.000000
  0.011402806   -0.518962  -53.343849 -102.993119  145.486435    0.000000    0.000000    0.000000    0.000000
  0.011603206   -0.516778  -54.378460 -102.282155  146.102097    0.000000    0.000000    0.000000    0.000000
  0.011803607   -0.524742  -55.292061 -102.565228  143.805283    0.000000    0.000000    0.000000    0.000000
  0.012004008   -0.530131  -56.405132 -102.313351  132.999649    0.000000    0.000000    0.000000    0.000000
  0.012204409   -0.522312  -57.441700 -102.202246  136.518433    0.000000    0.000000    0.000000    0.000000
  0.012404810   -0.527642  -58.464520 -101.265958  137.700455    0.000000    0.000000    0.000000    0.000000
  0.012605210   -0.525852  -59.457329 -102.154330  138.420090    0.000000    0.000000    0.000000    0.000000
  0.012805611   -0.523573  -60.487411 -101.957274  135.444870    0.000000    0.000000    0.000000    0.000000
  0.013006012   -0.539739  -61.431759 -102.791498  147.228302    0.000000    0.000000    0.000000    0.000000
  0.013206413   -0.527783  -62.536282 -101.536575  127.398300    0.000000    0.000000    0.000000    0.000000
  0.013406814   -0.534105  -63.608002 -103.742769  141.707565    0.000000    0.000000    0.000000    0.000000
  0.013607214   -0.541851  -64.677979 -103.119124  138.434174    0.000000    0.000000    0.000000    0.000000
  0.013807615   -0.539629  -65.769363 -103.580519  134.107666    0.000000    0.000000    0.000000    0.000000
  0.014008016   -0.538350  -66.882004 -101.164047  132.143707    0.000000    0.000000    0.000000    0.000000
  0.014208417   -0.553532  -67.984688 -104.074094  135.982544    0.000000    0.000000    0.000000    0.000000
  0.014408818   -0.533010  -69.057266 -103.087052  130.186050    0.000000    0.000000    0.000000    0.000000
  0.014609218   -0.526884  -70.134369 -103.264492  131.613297    0.000000    0.000000    0.000000    0.000000
  0.014809619   -0.522803  -71.200302 -104.047642  132.178848    0.000000    0.000000    0.000000    0.000000
  0.015010020   -0.513880  -72.262756 -103.528547  129.559647    0.000000    0.000000    0.000000    0.000000
  0.015210421   -0.519147  -73.302193 -105.541822  133.845367    0.000000    0.000000    0.000000    0.000000
  0.015410822   -0.521483  -74.379883 -105.477235  127.909782    0.000000    0.000000    0.000000    0.000000
  0.015611222   -0.532791  -75.578224 -106.889176  127.798233    0.000000    0.000000    0.000000    0.000000
  0.015811623   -0.524198  -76.566238 -106.024006  131.144775    0.000000    0.000000    0.000000    0.000000
  0.016012024   -0.531328  -77.700966 -105.592582  131.607285    0.000000    0.000000    0.000000    0.000000
  0.016212425   -0.534093  -78.802032 -108.046990  142.132248    0.000000    0.000000    0.000000    0.000000
  0.016412826   -0.531340  -79.954536 -106.701185  131.630508    0.000000    0.000000    0.000000    0.000000
  0.016613226   -0.530388  -81.072136 -106.445026  128.096939    0.000000    0.000000    0.000000    0.000000
  0.016813627   -0.528796  -82.307709 -106.477135  128.412247    0.000000    0.000000    0.000000    0.000000
  0.017014028   -0.531321  -83.394791 -106.049688  130.954788    0.000000    0.000000    0.000000    0.000000
  0.017214429   -0.529787  -84.539207 -107.336910  139.027115    0.000000    0.000000    0.000000    0.000000
  0.017414830   -0.527465  -85.725700 -107.874326  144.914017    0.000000    0.000000    0.000000    0.000000
  0.017615230   -0.521153  -86.889336 -105.850253  136.367386    0.000000    0.000000    0.000000    0.000000
  0.017815631   -0.516289  -88.058235 -107.762334  133.751160    0.000000    0.000000    0.000000    0.000000
  0.018016032   -0.501084  -89.292122 -105.225909  139.273575    0.000000    0.000000    0.000000    0.000000
  0.018216433   -0.498550  -90.436920 -106.749578  140.348419    0.000000    0.000000    0.000000    0.000000
  0.018416834   -0.492699  -91.581078 -105.173961  143.773773    0.000000    0.000000    0.000000    0.000000
  0.018617234   -0.485760  -92.753632 -105.283935  140.452957    0.000000    0.000000    0.000000    0.000000
  0.018817635   -0.476924  -93.902946 -105.543677  136.656326    0.000000    0.000000    0.000000    0.000000
  0.019018036   -0.468024  -95.061371 -104.349039  139.774399    0.000000    0.000000    0.000000    0.000000
  0.019218437   -0.447566  -96.233292 -103.740413  142.180038    0.000000    0.000000    0.000000    0.000000
  0.019418838   -0.450694  -97.362633 -104.586283  146.268112    0.000000    0.000000    0.000000    0.000000
  0.019619238   -0.448921  -98.504143 -102.972527  141.694138    0.000000    0.000000    0.000000    0.000000
  0.019819639   -0.439353  -99.652390 -103.305282  147.760147    0.000000    0.000000    0.000000    0.000000
  0.020020040   -0.436393 -100.818245 -103.937619  140.382584    0.000000    0.000000    0.000000    0.000000
  0.020220441   -0.431862 -101.919914 -103.979895  147.436798    0.000000    0.000000    0.000000    0.000000
  0.020420842   -0.428033 -103.053909 -103.011508  139.814529    0.000000    0.000000    0.000000    0.000000
  0.020621242   -0.427292 -104.164322 -104.572013  142.313232    0.000000    0.000000    0.000000    0.000000
  0.020821643   -0.434671 -105.373459 -103.825829  141.578857    0.000000    0.000000    0.000000    0.000000
  0.021022044   -0.437591 -106.536751 -103.116734  128.574097    0.000000    0.000000    0.000000    0.000000
  0.021222445   -0.447255 -107.743507 -103.726117  136.888077    0.000000    0.000000    0.000000    0.000000
  0.021422846   -0.454058 -108.981987 -103.471317  135.821243    0.000000    0.000000    0.000000    0.000000
  0.021623246   -0.460216 -110.191238 -104.461870  146.632355    0.000000    0.000000    0.000000    0.000000
  0.021823647   -0.458879 -111.417290 -103.341593  134.356644    0.000000    0.000000    0.000000    0.000000
  0.022024048   -0.455022 -112.738274 -105.544061  129.997696    0.000000    0.000000    0.000000    0.000000
  0.022224449   -0.457484 -114.001236 -104.992647  136.156876    0.000000    0.000000    0.000000    0.000000
  0.022424850   -0.456345 -115.277313 -105.061866  139.727615    0.000000    0.000000    0.000000    0.000000
  0.022625251   -0.454992 -116.533249 -103.150832  135.281891    0.000000    0.000000    0.000000    0.000000
  0.022825651   -0.460905 -117.781929 -104.113380  136.471695    0.000000    0.000000    0.000000    0.000000
  0.023026052   -0.469584 -119.008072 -106.238747  141.276154    0.000000    0.000000    0.000000    0.000000
  0.023226453   -0.473673 -120.363174 -106.409320  135.177429    0.000000    0.000000    0.000000    0.000000
  0.023426854   -0.477640 -121.659531 -104.711874  131.994705    0.000000    0.000000    0.000000    0.000000
  0.023627255   -0.485935 -123.033035 -105.807030  129.735718    0.000000    0.000000    0.000000    0.000000
  0.023827655   -0.489541 -124.386787 -106.402947  134.747925    0.000000    0.000000    0.000000    0.000000
  0.024028056   -0.495194 -125.770584 -105.571863  136.053787    0.000000    0.000000    0.000000    0.000000
  0.024228457   -0.506762 -127.140846 -105.627184  133.140411    0.000000    0.000000    0.000000    0.000000
  0.024428858   -0.501405 -128.511429 -105.928697  136.046280    0.000000    0.000000    0.000000    0.000000
  0.024629259   -0.506125 -129.866867 -106.191129  129.970490    0.000000    0.000000    0.000000    0.000000
  0.024829659   -0.509651 -131.288452 -105.117650  145.743942    0.000000    0.000000    0.000000    0.000000
  0.025030060   -0.519326 -132.674164 -105.145896  136.148682    0.000000    0.000000    0.000000    0.000000
  0.025230461   -0.538123 -134.079041 -105.091136  144.335007    0.000000    0.000000    0.000000    0.000000
  0.025430862   -0.559339 -135.526215 -106.798950  133.330429    0.000000    0.000000    0.000000    0.000000
  0.025631263   -0.573990 -136.956772 -105.541988  139.882721    0.000000    0.000000    0.000000    0.000000
  0.025831663   -0.583240 -138.406204 -105.148843  136.926529    0.000000    0.000000    0.000000    0.000000
  0.026032064   -0.600686 -139.969940 -105.824714  146.647522    0.000000    0.000000    0.000000    0.000000
  0.026232465   -0.608256 -141.432877 -105.738809  142.988022    0.000000    0.000000    0.000000    0.000000
  0.026432866   -0.623272 -142.994507 -106.769399  138.402817    0.000000    0.000000    0.000000    0.000000
  0.026633267   -0.633148 -144.488663 -105.436363  142.219986    0.000000    0.000000    0.000000    0.000000
  0.026833667   -0.633855 -146.058121 -105.433975  135.663773    0.000000    0.000000    0.000000    0.000000
  0.027034068   -0.651826 -147.483536 -105.908348  139.617981    0.000000    0.000000    0.000000    0.000000
  0.027234469   -0.662456 -148.984711 -104.420937  141.816711    0.000000    0.000000    0.000000    0.000000
  0.027434870   -0.678435 -150.472046 -105.052993  138.674026    0.000000    0.000000    0.000000    0.000000
  0.027635271   -0.691146 -151.976089 -106.517192  142.850433    0.000000    0.000000    0.000000    0.000000
  0.027835671   -0.712484 -153.502945 -106.979372  134.044983    0.000000    0.000000    0.000000    0.000000
  0.028036072   -0.720352 -155.028030 -104.560773  146.133759    0.000000    0.000000    0.000000    0.000000
  0.028236473   -0.743348 -156.558517 -104.696398  137.602844    0.000000    0.000000    0.000000    0.000000
  0.028436874   -0.765369 -158.110840 -103.746489  126.334045    0.000000    0.000000    0.000000    0.000000
  0.028637275   -0.783579 -159.653305 -105.834246  142.481720    0.000000    0.000000    0.000000    0.000000
  0.028837675   -0.801398 -161.197784 -102.547561  135.716705    0.000000    0.000000    0.000000    0.000000
  0.029038076   -0.824566 -162.749222 -104.677159  132.162598    0.000000    0.000000    0.000000    0.000000
  0.029238477   -0.844916 -164.292099 -104.932038  149.280670    0.000000    0.000000    0.000000    0.000000
  0.029438878   -0.876940 -165.861252 -103.813514  134.517014    0.000000    0.000000    0.000000    0.000000
  0.029639279   -0.906252 -167.432007 -103.641902  137.304565    0.000000    0.000000    0.000000    0.000000
  0.029839679   -0.937139 -169.031906 -106.816793  130.728867    0.000000    0.000000    0.000000    0.000000
  0.030040080   -0.966392 -170.662476 -104.207720  146.575729    0.000000    0.000000    0.000000    0.000000
  0.030240481   -0.996518 -172.296249 -105.385254  132.007889    0.000000    0.000000    0.000000    0.000000
  0.030440882   -1.026517 -173.945526 -105.812439  145.714783    0.000000    0.000000    0.000000    0.000000
  0.030641283   -1.059173 -175.593292 -104.333503  133.718384    0.000000    0.000000    0.000000    0.000000
  0.030841683   -1.090956 -177.268997 -105.765407  132.085449    0.000000    0.000000    0.000000    0.000000
  0.031042084   -1.128706 -178.924026 -104.619702  149.068436    0.000000    0.000000    0.000000    0.000000
  0.031242485   -1.164086  179.379990 -105.260324  143.749466    0.000000    0.000000    0.000000    0.000000
  0.031442886   -1.201629  177.661407 -104.681996  142.032166    0.000000    0.000000    0.000000    0.000000
  0.031643287   -1.242447  175.936630 -106.586556  139.801590    0.000000    0.000000    0.000000    0.000000
  0.031843687   -1.279544  174.186356 -106.109463  130.480392    0.000000    0.000000    0.000000    0.000000
  0.032044088   -1.315408  172.449646 -105.367645  146.228958    0.000000    0.000000    0.000000    0.000000
  0.032244489   -1.357785  170.661255 -106.280153  139.741333    0.000000    0.000000    0.000000    0.000000
  0.032444890   -1.396538  168.879913 -107.549086  133.085144    0.000000    0.000000    0.000000    0.000000
  0.032645291   -1.442134  167.074402 -106.158162  136.708191    0.000000    0.000000    0.000000    0.000000
  0.032845691   -1.488458  165.273880 -106.214369  150.432922    0.000000    0.000000    0.000000    0.000000
  0.033046092   -1.535361  163.448883 -105.443690  129.842789    0.000000    0.000000    0.000000    0.000000
  0.033246493   -1.586281  161.605606 -105.522161  138.239761    0.000000    0.000000    0.000000    0.000000
  0.033446894   -1.631215  159.720215 -106.848276  138.915558    0.000000    0.000000    0.000000    0.000000
  0.033647295   -1.672530  157.840347 -106.136106  144.739975    0.000000    0.000000    0.000000    0.000000
  0.033847695   -1.713155  155.946823 -105.656490  140.857193    0.000000    0.000000    0.000000    0.000000
  0.034048096   -1.755623  154.049591 -105.110494  143.942291    0.000000    0.000000    0.000000    0.000000
  0.034248497   -1.783924  152.202347 -104.760086  143.312637    0.000000    0.000000    0.000000    0.000000
  0.034448898   -1.832342  150.342285 -105.324998  150.558014    0.000000    0.000000    0.000000    0.000000
  0.034649299   -1.880835  148.500122 -103.997344  142.579819    0.000000    0.000000    0.000000    0.000000
  0.034849699   -1.928925  146.639938 -103.532854  142.278625    0.000000    0.000000    0.000000    0.000000
  0.035050100   -1.981314  144.783752 -103.642830  138.901398    0.000000    0.000000    0.000000    0.000000
  0.035250501   -2.034171  142.941925 -104.170670  136.509140    0.000000    0.000000    0.000000    0.000000
  0.035450902   -2.087474  141.033081 -104.940359  135.133804    0.000000    0.000000    0.000000    0.000000
  0.035651303   -2.145555  139.163284 -104.297482  134.300751    0.000000    0.000000    0.000000    0.000000
  0.035851703   -2.193159  137.269897 -104.290781  138.184830    0.000000    0.000000    0.000000    0.000000
  0.036052104   -2.243296  135.430222 -104.892844  141.552597    0.000000    0.000000    0.000000    0.000000
  0.036252505   -2.293181  133.495514 -106.200333  140.057190    0.000000    0.000000    0.000000    0.000000
  0.036452906   -2.345923  131.655548 -105.187847  133.092361    0.000000    0.000000    0.000000    0.000000
  0.036653307   -2.409002  129.892380 -104.374394  137.582138    0.000000    0.000000    0.000000    0.000000
  0.036853707   -2.447277  127.965996 -103.659125  134.708405    0.000000    0.000000    0.000000    0.000000
  0.037054108   -2.523797  126.145905 -104.996028  146.364090    0.000000    0.000000    0.000000    0.000000
  0.037254509   -2.569642  124.197945 -104.651917  139.411163    0.000000    0.000000    0.000000    0.000000
  0.037454910   -2.630894  122.320969 -104.568876  137.773453    0.000000    0.000000    0.000000    0.000000
  0.037655311   -2.709634  120.469910 -104.278006  140.441788    0.000000    0.000000    0.000000    0.000000
  0.037855711   -2.749142  118.600090 -103.371644  133.505997    0.000000    0.000000    0.000000    0.000000
  0.038056112   -2.826659  116.783394 -104.286193  139.428543    0.000000    0.000000    0.000000    0.000000
  0.038256513   -2.857426  114.947098 -102.947667  133.540085    0.000000    0.000000    0.000000    0.000000
  0.038456914   -2.917507  113.107506 -103.826084  134.511475    0.000000    0.000000    0.000000    0.000000
  0.038657315   -2.969360  111.299484 -104.967497  138.214828    0.000000    0.000000    0.000000    0.000000
  0.038857715   -3.033468  109.485062 -105.051168  135.927521    0.000000    0.000000    0.000000    0.000000
  0.039058116   -3.095279  107.630974 -105.003864  142.352417    0.000000    0.000000    0.000000    0.000000
  0.039258517   -3.168424  105.705353 -106.274079  148.021011    0.000000    0.000000    0.000000    0.000000
  0.039458918   -3.226628  103.931107 -105.543938  146.259567    0.000000    0.000000    0.000000    0.000000
  0.039659319   -3.298699  102.077805 -104.686374  139.127701    0.000000    0.000000    0.000000    0.000000
  0.039859719   -3.365176  100.220497 -104.555306  132.330032    0.000000    0.000000    0.000000    0.000000
  0.040060120   -3.431919   98.312149 -105.666653  134.008865    0.000000    0.000000    0.000000    0.000000
  0.040260521   -3.502180   96.438416 -105.344804  136.143494    0.000000    0.000000    0.000000    0.000000
  0.040460922   -3.571263   94.520363 -104.589522  139.027359    0.000000    0.000000    0.000000    0.000000
  0.040661323   -3.639704   92.653603 -106.804505  142.960724    0.000000    0.000000    0.000000    0.000000
  0.040861723   -3.708174   90.696396 -104.446037  134.548538    0.000000    0.000000    0.000000    0.000000
  0.041062124   -3.771895   88.784554 -106.494576  148.423935    0.000000    0.000000    0.000000    0.000000
  0.041262525   -3.829983   86.893814 -104.606181  139.045319    0.000000    0.000000    0.000000    0.000000
  0.041462926   -3.889276   84.967941 -106.617191  141.268021    0.000000    0.000000    0.000000    0.000000
  0.041663327   -3.941823   83.029716 -104.424519  138.003021    0.000000    0.000000    0.000000    0.000000
  0.041863727   -3.991047   81.133858 -104.557857  137.553680    0.000000    0.000000    0.000000    0.000000
  0.042064128   -4.047619   79.259697 -106.071260  138.015930    0.000000    0.000000    0.000000    0.000000
  0.042264529   -4.098094   77.368507 -104.041487  127.723183    0.000000    0.000000    0.000000    0.000000
  0.042464930   -4.143087   75.472244 -104.219404  138.815140    0.000000    0.000000    0.000000    0.000000
  0.042665331   -4.199058   73.620941 -103.946517  135.466507    0.000000    0.000000    0.000000    0.000000
  0.042865731   -4.238546   71.765549 -104.307584  136.190948    0.000000    0.000000    0.000000    0.000000
