! Anritsu VNA Master:                     Model: MS2036C/10/77
! SN:                                  1601066
! /bd0/18may09/254.ew.m11.s2p
! Existing Calibration Information:
! TYPE:                         Current Settings,       Active Cal Settings
! TIME:             	   05/09/2018 12:11:16 PM,    05/09/2018 12:08:51 PM
! INTERNAL TEMP:    	                   55.0 C,                    54.8 C
! # POINTS:         	                      494,                       494
! START FREQ:       	               20.000 MHz,                20.000 MHz
! STOP FREQ:        	          118.797 594 MHz,           118.797 594 MHz
! SOURCE POWER:     	                     High,                      High
! IFBW:             	                    50 Hz,                     50 Hz
! AVG FACTOR:       	                       1 ,                        1 
! REF PLANE 1:      	                     0 mm,                      0 mm
! REF PLANE 2:      	                     0 mm,                      0 mm
! CAL TYPE:         	                 Full S22,                  Full S22
! CAL METHOD:       	                     SOLT,                      SOLT
! CAL LINE TYPE:    	                     Coax,                      Coax
! DUT PORT 1:       	                K-Conn(M),                 K-Conn(M)
! DUT PORT 2:       	                K-Conn(M),                 K-Conn(M)
! CAL STATUS:       	        OK: Accuracy High,                        --
# GHZ S DB R 50.0
! FREQ.GHZ       S11DB        S11A       S21DB        S21A       S12DB        S12A       S22DB        S22A
  0.020000000    0.000000    0.000000    0.000000    0.000000  -89.574457   33.739544   -0.634529 -126.753792
  0.020200401    0.000000    0.000000    0.000000    0.000000  -89.411565   34.066784   -0.637086 -128.222488
  0.020400802    0.000000    0.000000    0.000000    0.000000  -89.985230   33.320187   -0.637573 -129.704834
  0.020601202    0.000000    0.000000    0.000000    0.000000  -90.696542   32.518002   -0.640125 -131.210114
  0.020801603    0.000000    0.000000    0.000000    0.000000  -90.401548   30.675066   -0.642963 -132.733109
  0.021002004    0.000000    0.000000    0.000000    0.000000  -90.622116   33.821785   -0.645456 -134.265884
  0.021202405    0.000000    0.000000    0.000000    0.000000  -91.764782   36.980053   -0.647931 -135.815323
  0.021402806    0.000000    0.000000    0.000000    0.000000  -91.214411   36.213005   -0.649813 -137.351822
  0.021603206    0.000000    0.000000    0.000000    0.000000  -91.870208   35.087841   -0.653411 -138.880264
  0.021803607    0.000000    0.000000    0.000000    0.000000  -91.348666   38.954048   -0.656965 -140.406662
  0.022004008    0.000000    0.000000    0.000000    0.000000  -91.867487   40.260288   -0.661649 -141.944275
  0.022204409    0.000000    0.000000    0.000000    0.000000  -91.218897   39.490879   -0.668323 -143.519363
  0.022404810    0.000000    0.000000    0.000000    0.000000  -92.172950   43.005119   -0.673350 -145.096558
  0.022605210    0.000000    0.000000    0.000000    0.000000  -91.692530   42.848457   -0.676523 -146.700119
  0.022805611    0.000000    0.000000    0.000000    0.000000  -91.822676   42.026581   -0.680144 -148.293701
  0.023006012    0.000000    0.000000    0.000000    0.000000  -91.102348   40.970955   -0.687777 -149.878998
  0.023206413    0.000000    0.000000    0.000000    0.000000  -91.370844   41.182613   -0.692347 -151.467880
  0.023406814    0.000000    0.000000    0.000000    0.000000  -91.164729   41.358433   -0.696592 -153.052170
  0.023607214    0.000000    0.000000    0.000000    0.000000  -91.463077   42.300591   -0.703167 -154.662704
  0.023807615    0.000000    0.000000    0.000000    0.000000  -91.553199   41.499580   -0.712156 -156.270493
  0.024008016    0.000000    0.000000    0.000000    0.000000  -91.027670   37.369888   -0.719602 -157.915070
  0.024208417    0.000000    0.000000    0.000000    0.000000  -91.077552   38.413052   -0.725799 -159.561447
  0.024408818    0.000000    0.000000    0.000000    0.000000  -90.708020   35.996647   -0.732504 -161.229935
  0.024609218    0.000000    0.000000    0.000000    0.000000  -91.236337   30.416611   -0.738774 -162.879868
  0.024809619    0.000000    0.000000    0.000000    0.000000  -91.601163   32.559101   -0.747715 -164.561676
  0.025010020    0.000000    0.000000    0.000000    0.000000  -91.787729   27.608849   -0.756284 -166.221039
  0.025210421    0.000000    0.000000    0.000000    0.000000  -91.951837   28.262976   -0.766215 -167.909195
  0.025410822    0.000000    0.000000    0.000000    0.000000  -92.217396   26.694223   -0.776608 -169.610092
  0.025611222    0.000000    0.000000    0.000000    0.000000  -92.829401   27.937975   -0.787601 -171.317047
  0.025811623    0.000000    0.000000    0.000000    0.000000  -92.521891   27.773083   -0.796675 -173.027115
  0.026012024    0.000000    0.000000    0.000000    0.000000  -92.765818   24.468184   -0.807762 -174.762604
  0.026212425    0.000000    0.000000    0.000000    0.000000  -93.335444   22.728598   -0.819520 -176.502777
  0.026412826    0.000000    0.000000    0.000000    0.000000  -93.776741   24.223459   -0.832555 -178.241440
  0.026613226    0.000000    0.000000    0.000000    0.000000  -93.811318   22.161547   -0.845949  179.992096
  0.026813627    0.000000    0.000000    0.000000    0.000000  -93.864223   26.966999   -0.860174  178.227310
  0.027014028    0.000000    0.000000    0.000000    0.000000  -94.768974   26.952084   -0.875660  176.457901
  0.027214429    0.000000    0.000000    0.000000    0.000000  -94.129582   28.066042   -0.890882  174.676971
  0.027414830    0.000000    0.000000    0.000000    0.000000  -94.787336   25.634903   -0.906810  172.897644
  0.027615230    0.000000    0.000000    0.000000    0.000000  -94.962866   28.900696   -0.922521  171.097305
  0.027815631    0.000000    0.000000    0.000000    0.000000  -95.022926   28.783943   -0.939317  169.293030
  0.028016032    0.000000    0.000000    0.000000    0.000000  -94.271120   29.681768   -0.957045  167.478607
  0.028216433    0.000000    0.000000    0.000000    0.000000  -94.607229   34.115246   -0.975448  165.645630
  0.028416834    0.000000    0.000000    0.000000    0.000000  -94.664308   33.499119   -0.995130  163.802368
  0.028617234    0.000000    0.000000    0.000000    0.000000  -94.859476   33.440086   -1.014775  161.956619
  0.028817635    0.000000    0.000000    0.000000    0.000000  -94.465815   29.886551   -1.035044  160.119080
  0.029018036    0.000000    0.000000    0.000000    0.000000  -94.337164   34.921585   -1.055738  158.270554
  0.029218437    0.000000    0.000000    0.000000    0.000000  -94.136920   34.679874   -1.079015  156.411636
  0.029418838    0.000000    0.000000    0.000000    0.000000  -94.754511   30.310627   -1.102734  154.521408
  0.029619238    0.000000    0.000000    0.000000    0.000000  -94.060947   31.409414   -1.127283  152.636063
  0.029819639    0.000000    0.000000    0.000000    0.000000  -93.979903   31.995028   -1.152423  150.736328
  0.030020040    0.000000    0.000000    0.000000    0.000000  -94.147796   27.321056   -1.177279  148.833389
  0.030220441    0.000000    0.000000    0.000000    0.000000  -93.926491   26.315922   -1.201051  146.923828
  0.030420842    0.000000    0.000000    0.000000    0.000000  -94.276625   26.876026   -1.227717  145.016968
  0.030621242    0.000000    0.000000    0.000000    0.000000  -94.962162   22.548445   -1.256073  143.115402
  0.030821643    0.000000    0.000000    0.000000    0.000000  -94.485859   20.545601   -1.285617  141.198822
  0.031022044    0.000000    0.000000    0.000000    0.000000  -94.277589   25.112299   -1.314876  139.261383
  0.031222445    0.000000    0.000000    0.000000    0.000000  -93.953618   20.953028   -1.340898  137.324509
  0.031422846    0.000000    0.000000    0.000000    0.000000  -95.146135   18.261982   -1.369084  135.360901
  0.031623246    0.000000    0.000000    0.000000    0.000000  -95.325210   18.666016   -1.403378  133.388412
  0.031823647    0.000000    0.000000    0.000000    0.000000  -95.028311   24.579359   -1.435722  131.403549
  0.032024048    0.000000    0.000000    0.000000    0.000000  -94.727145   23.264851   -1.468649  129.431778
  0.032224449    0.000000    0.000000    0.000000    0.000000  -95.835511   19.374001   -1.504662  127.452682
  0.032424850    0.000000    0.000000    0.000000    0.000000  -95.624014   18.471645   -1.537597  125.458321
  0.032625250    0.000000    0.000000    0.000000    0.000000  -94.785454   21.218594   -1.575999  123.450714
  0.032825651    0.000000    0.000000    0.000000    0.000000  -96.213409   22.980465   -1.610801  121.404808
  0.033026052    0.000000    0.000000    0.000000    0.000000  -95.626095   17.129797   -1.648128  119.382210
  0.033226453    0.000000    0.000000    0.000000    0.000000  -97.155733   11.038054   -1.684404  117.347610
  0.033426854    0.000000    0.000000    0.000000    0.000000  -97.025370   23.888094   -1.722956  115.313263
  0.033627254    0.000000    0.000000    0.000000    0.000000  -96.186479   24.141146   -1.763038  113.293236
  0.033827655    0.000000    0.000000    0.000000    0.000000  -96.440152   17.999197   -1.802363  111.247154
  0.034028056    0.000000    0.000000    0.000000    0.000000  -95.574925   19.681530   -1.840669  109.203056
  0.034228457    0.000000    0.000000    0.000000    0.000000  -96.827321   25.312357   -1.883317  107.151283
  0.034428858    0.000000    0.000000    0.000000    0.000000  -95.772814   25.733017   -1.924115  105.080681
  0.034629258    0.000000    0.000000    0.000000    0.000000  -95.597481   23.922476   -1.968501  103.007507
  0.034829659    0.000000    0.000000    0.000000    0.000000  -96.008692   29.019575   -2.011524  100.951958
  0.035030060    0.000000    0.000000    0.000000    0.000000  -96.970344   26.050901   -2.057068   98.868614
  0.035230461    0.000000    0.000000    0.000000    0.000000  -96.155602   27.634192   -2.102418   96.781982
  0.035430862    0.000000    0.000000    0.000000    0.000000  -96.959245   22.989952   -2.150684   94.705246
  0.035631262    0.000000    0.000000    0.000000    0.000000  -96.159539   24.682600   -2.198387   92.640434
  0.035831663    0.000000    0.000000    0.000000    0.000000  -96.370029   26.093807   -2.244666   90.542564
  0.036032064    0.000000    0.000000    0.000000    0.000000  -98.202053   25.606924   -2.293284   88.463730
  0.036232465    0.000000    0.000000    0.000000    0.000000  -95.714041   31.500891   -2.344228   86.358910
  0.036432866    0.000000    0.000000    0.000000    0.000000  -96.557253   27.079454   -2.392480   84.260933
  0.036633266    0.000000    0.000000    0.000000    0.000000  -96.962852   25.590851   -2.443296   82.186508
  0.036833667    0.000000    0.000000    0.000000    0.000000  -97.071773   18.310801   -2.494187   80.085655
  0.037034068    0.000000    0.000000    0.000000    0.000000  -96.556838   15.923329   -2.547789   77.995705
  0.037234469    0.000000    0.000000    0.000000    0.000000  -96.432192   22.592684   -2.600367   75.894714
  0.037434870    0.000000    0.000000    0.000000    0.000000  -96.642239   27.851194   -2.650673   73.812943
  0.037635270    0.000000    0.000000    0.000000    0.000000  -97.555518   15.508816   -2.701423   71.724846
  0.037835671    0.000000    0.000000    0.000000    0.000000  -96.717170   24.772877   -2.755729   69.627235
  0.038036072    0.000000    0.000000    0.000000    0.000000  -97.794210   23.278316   -2.808895   67.496384
  0.038236473    0.000000    0.000000    0.000000    0.000000  -96.765336   19.812204   -2.866080   65.384071
  0.038436874    0.000000    0.000000    0.000000    0.000000  -97.532714   33.435429   -2.920757   63.253830
  0.038637274    0.000000    0.000000    0.000000    0.000000  -98.521960   25.291058   -2.976681   61.156734
  0.038837675    0.000000    0.000000    0.000000    0.000000  -97.475348   24.286469   -3.032816   59.050415
  0.039038076    0.000000    0.000000    0.000000    0.000000  -98.310241   30.495035   -3.083103   56.963596
  0.039238477    0.000000    0.000000    0.000000    0.000000  -98.067524   23.041407   -3.136171   54.893120
  0.039438878    0.000000    0.000000    0.000000    0.000000  -97.162091   27.274616   -3.192407   52.809578
  0.039639278    0.000000    0.000000    0.000000    0.000000  -97.111095   33.069939   -3.242297   50.705791
  0.039839679    0.000000    0.000000    0.000000    0.000000  -97.393122   27.379583   -3.297609   48.604065
  0.040040080    0.000000    0.000000    0.000000    0.000000  -96.291578   28.045471   -3.351251   46.514763
  0.040240481    0.000000    0.000000    0.000000    0.000000  -98.545329   23.355534   -3.399901   44.427895
  0.040440882    0.000000    0.000000    0.000000    0.000000  -97.447174   31.146782   -3.452804   42.349415
  0.040641283    0.000000    0.000000    0.000000    0.000000  -97.541308   25.700434   -3.503972   40.288822
  0.040841683    0.000000    0.000000    0.000000    0.000000  -97.409840   26.223856   -3.554264   38.224213
  0.041042084    0.000000    0.000000    0.000000    0.000000  -97.902826   28.603785   -3.610706   36.180676
  0.041242485    0.000000    0.000000    0.000000    0.000000  -98.336042   28.948784   -3.663061   34.117512
  0.041442886    0.000000    0.000000    0.000000    0.000000  -96.763340   26.249882   -3.712873   32.057629
  0.041643287    0.000000    0.000000    0.000000    0.000000  -97.744281   24.852615   -3.767198   29.989128
  0.041843687    0.000000    0.000000    0.000000    0.000000  -97.951720   23.158897   -3.815476   27.921124
  0.042044088    0.000000    0.000000    0.000000    0.000000  -98.293337   23.100300   -3.866511   25.888105
  0.042244489    0.000000    0.000000    0.000000    0.000000  -97.791048   22.561996   -3.916247   23.847200
  0.042444890    0.000000    0.000000    0.000000    0.000000  -97.975123   26.995800   -3.965887   21.818575
  0.042645291    0.000000    0.000000    0.000000    0.000000  -97.766610   19.470072   -4.018945   19.789312
  0.042845691    0.000000    0.000000    0.000000    0.000000  -97.706143   31.512365   -4.069581   17.769650
  0.043046092    0.000000    0.000000    0.000000    0.000000  -98.457015   23.669678   -4.120297   15.746490
  0.043246493    0.000000    0.000000    0.000000    0.000000  -99.344544   28.201359   -4.169540   13.718278
  0.043446894    0.000000    0.000000    0.000000    0.000000  -98.875649   31.542137   -4.214256   11.734260
  0.043647295    0.000000    0.000000    0.000000    0.000000  -98.388371   15.779058   -4.263127    9.721993
  0.043847695    0.000000    0.000000    0.000000    0.000000  -99.334538   26.871977   -4.311409    7.725225
  0.044048096    0.000000    0.000000    0.000000    0.000000  -98.743913   37.534222   -4.358562    5.752666
  0.044248497    0.000000    0.000000    0.000000    0.000000 -101.016838   29.923018   -4.405067    3.761308
  0.044448898    0.000000    0.000000    0.000000    0.000000 -100.267428   34.247154   -4.449525    1.821571
  0.044649299    0.000000    0.000000    0.000000    0.000000  -98.920262   26.333202   -4.496445   -0.146226
  0.044849699    0.000000    0.000000    0.000000    0.000000 -100.315883   26.995422   -4.540737   -2.073054
  0.045050100    0.000000    0.000000    0.000000    0.000000  -98.432793   25.905569   -4.583783   -4.041542
  0.045250501    0.000000    0.000000    0.000000    0.000000  -98.816192   35.173927   -4.626807   -5.970328
  0.045450902    0.000000    0.000000    0.000000    0.000000  -98.833281   31.810524   -4.669999   -7.898323
  0.045651303    0.000000    0.000000    0.000000    0.000000  -98.379781   27.516150   -4.710129   -9.815949
  0.045851703    0.000000    0.000000    0.000000    0.000000  -97.886243   24.897261   -4.751101  -11.697603
  0.046052104    0.000000    0.000000    0.000000    0.000000  -99.212289   39.550346   -4.789653  -13.594021
  0.046252505    0.000000    0.000000    0.000000    0.000000  -98.431832   33.960232   -4.829666  -15.465860
  0.046452906    0.000000    0.000000    0.000000    0.000000  -99.710505   33.309963   -4.866604  -17.313742
  0.046653307    0.000000    0.000000    0.000000    0.000000  -97.996522   34.127071   -4.905608  -19.186977
  0.046853707    0.000000    0.000000    0.000000    0.000000  -99.879164   33.235531   -4.941548  -21.050974
  0.047054108    0.000000    0.000000    0.000000    0.000000  -99.034059   26.440559   -4.975878  -22.896912
  0.047254509    0.000000    0.000000    0.000000    0.000000  -99.052011   26.948835   -5.012721  -24.740995
  0.047454910    0.000000    0.000000    0.000000    0.000000  -99.905524   39.931278   -5.045027  -26.570732
  0.047655311    0.000000    0.000000    0.000000    0.000000  -97.722754   33.405579   -5.079503  -28.372040
  0.047855711    0.000000    0.000000    0.000000    0.000000  -99.433116   34.447540   -5.112537  -30.164703
  0.048056112    0.000000    0.000000    0.000000    0.000000  -98.745985   32.358467   -5.147160  -31.953791
  0.048256513    0.000000    0.000000    0.000000    0.000000  -98.426133   29.767221   -5.178833  -33.699303
  0.048456914    0.000000    0.000000    0.000000    0.000000  -97.992631   41.420441   -5.210167  -35.475430
  0.048657315    0.000000    0.000000    0.000000    0.000000  -98.817157   30.276657   -5.240421  -37.246655
  0.048857715    0.000000    0.000000    0.000000    0.000000  -98.599066   34.097630   -5.269210  -38.992489
  0.049058116    0.000000    0.000000    0.000000    0.000000  -99.184738   27.404556   -5.292911  -40.762177
  0.049258517    0.000000    0.000000    0.000000    0.000000  -99.013652   41.810757   -5.322237  -42.497818
  0.049458918    0.000000    0.000000    0.000000    0.000000 -100.152540   33.470734   -5.345189  -44.189960
  0.049659319    0.000000    0.000000    0.000000    0.000000  -98.685454   28.790901   -5.374253  -45.896858
  0.049859719    0.000000    0.000000    0.000000    0.000000  -98.872924   34.249325   -5.400293  -47.602112
  0.050060120    0.000000    0.000000    0.000000    0.000000  -98.317067   36.516140   -5.425473  -49.275730
  0.050260521    0.000000    0.000000    0.000000    0.000000 -100.071329   43.389015   -5.444826  -50.961540
  0.050460922    0.000000    0.000000    0.000000    0.000000  -99.406257   31.417814   -5.468818  -52.649940
  0.050661323    0.000000    0.000000    0.000000    0.000000  -99.589729   31.588720   -5.485405  -54.309677
  0.050861723    0.000000    0.000000    0.000000    0.000000  -99.731058   38.088131   -5.506507  -55.955494
  0.051062124    0.000000    0.000000    0.000000    0.000000 -100.078427   31.356424   -5.530855  -57.588257
  0.051262525    0.000000    0.000000    0.000000    0.000000  -99.068218   30.647991   -5.549286  -59.211178
  0.051462926    0.000000    0.000000    0.000000    0.000000  -98.337450   39.668884   -5.570929  -60.798470
  0.051663327    0.000000    0.000000    0.000000    0.000000  -99.263075   25.707228   -5.589311  -62.396019
  0.051863727    0.000000    0.000000    0.000000    0.000000  -99.378695   33.256466   -5.605597  -64.001007
  0.052064128    0.000000    0.000000    0.000000    0.000000  -99.892815   36.902168   -5.621313  -65.582443
  0.052264529    0.000000    0.000000    0.000000    0.000000  -99.857361   31.050722   -5.634153  -67.136971
  0.052464930    0.000000    0.000000    0.000000    0.000000 -100.521483   27.895660   -5.643990  -68.690216
  0.052665331    0.000000    0.000000    0.000000    0.000000  -99.517172   34.523880   -5.659526  -70.230263
  0.052865731    0.000000    0.000000    0.000000    0.000000  -98.566281   32.285797   -5.672420  -71.736679
