! Anritsu VNA Master:                     Model: MS2036C/10/77
! SN:                                  1601066
! /bd0/18may09/254.ew.m10.s2p
! Existing Calibration Information:
! TYPE:                         Current Settings,       Active Cal Settings
! TIME:             	   05/09/2018 12:03:30 PM,    05/09/2018 11:52:33 AM
! INTERNAL TEMP:    	                   54.5 C,                    53.5 C
! # POINTS:         	                      494,                       494
! START FREQ:       	               20.000 MHz,                20.000 MHz
! STOP FREQ:        	          118.797 594 MHz,           118.797 594 MHz
! SOURCE POWER:     	                     High,                      High
! IFBW:             	                    50 Hz,                     50 Hz
! AVG FACTOR:       	                       1 ,                        1 
! REF PLANE 1:      	                     0 mm,                      0 mm
! REF PLANE 2:      	                     0 mm,                      0 mm
! CAL TYPE:         	                 Full S22,                  Full S22
! CAL METHOD:       	                     SOLT,                      SOLT
! CAL LINE TYPE:    	                     Coax,                      Coax
! DUT PORT 1:       	                K-Conn(M),                 K-Conn(M)
! DUT PORT 2:       	                K-Conn(M),                 K-Conn(M)
! CAL STATUS:       	        OK: Accuracy High,                        --
# GHZ S DB R 50.0
! FREQ.GHZ       S11DB        S11A       S21DB        S21A       S12DB        S12A       S22DB        S22A
  0.020000000    0.000000    0.000000    0.000000    0.000000  -89.345924   34.753834   -0.640999 -126.600372
  0.020200401    0.000000    0.000000    0.000000    0.000000  -89.792087   34.882633   -0.640895 -128.078476
  0.020400802    0.000000    0.000000    0.000000    0.000000  -90.410910   33.155769   -0.644715 -129.540268
  0.020601202    0.000000    0.000000    0.000000    0.000000  -90.427710   34.912312   -0.648397 -131.052139
  0.020801603    0.000000    0.000000    0.000000    0.000000  -90.684439   32.550144   -0.651396 -132.586014
  0.021002004    0.000000    0.000000    0.000000    0.000000  -91.010849   33.671322   -0.651725 -134.134537
  0.021202405    0.000000    0.000000    0.000000    0.000000  -92.358826   36.535187   -0.653778 -135.684021
  0.021402806    0.000000    0.000000    0.000000    0.000000  -92.043881   32.190536   -0.658459 -137.230087
  0.021603206    0.000000    0.000000    0.000000    0.000000  -91.973369   36.970592   -0.658933 -138.754395
  0.021803607    0.000000    0.000000    0.000000    0.000000  -92.663479   40.327034   -0.662913 -140.298996
  0.022004008    0.000000    0.000000    0.000000    0.000000  -91.908657   40.044540   -0.668750 -141.844742
  0.022204409    0.000000    0.000000    0.000000    0.000000  -91.976186   39.939083   -0.672024 -143.415375
  0.022404810    0.000000    0.000000    0.000000    0.000000  -91.610342   41.314358   -0.680162 -144.994797
  0.022605210    0.000000    0.000000    0.000000    0.000000  -91.475667   44.314571   -0.683594 -146.581436
  0.022805611    0.000000    0.000000    0.000000    0.000000  -91.586934   42.042973   -0.683410 -148.179932
  0.023006012    0.000000    0.000000    0.000000    0.000000  -91.992073   43.849205   -0.687654 -149.767410
  0.023206413    0.000000    0.000000    0.000000    0.000000  -91.428102   40.594555   -0.691241 -151.346344
  0.023406814    0.000000    0.000000    0.000000    0.000000  -91.529476   41.781414   -0.696962 -152.929977
  0.023607214    0.000000    0.000000    0.000000    0.000000  -90.757061   39.437748   -0.705112 -154.505280
  0.023807615    0.000000    0.000000    0.000000    0.000000  -91.266075   40.023876   -0.712695 -156.105103
  0.024008016    0.000000    0.000000    0.000000    0.000000  -90.778356   38.518711   -0.718489 -157.735443
  0.024208417    0.000000    0.000000    0.000000    0.000000  -90.574634   34.062565   -0.724715 -159.374695
  0.024408818    0.000000    0.000000    0.000000    0.000000  -91.219843   33.235069   -0.731117 -161.031235
  0.024609218    0.000000    0.000000    0.000000    0.000000  -91.463407   32.684975   -0.737705 -162.662766
  0.024809619    0.000000    0.000000    0.000000    0.000000  -91.838560   31.614853   -0.745490 -164.323166
  0.025010020    0.000000    0.000000    0.000000    0.000000  -91.465367   33.985954   -0.753699 -165.981689
  0.025210421    0.000000    0.000000    0.000000    0.000000  -91.665348   23.812559   -0.764780 -167.651733
  0.025410822    0.000000    0.000000    0.000000    0.000000  -91.926933   28.910969   -0.774214 -169.344009
  0.025611222    0.000000    0.000000    0.000000    0.000000  -92.021094   26.112560   -0.785215 -171.039749
  0.025811623    0.000000    0.000000    0.000000    0.000000  -92.434984   24.669537   -0.796614 -172.758453
  0.026012024    0.000000    0.000000    0.000000    0.000000  -93.064062   25.752092   -0.807476 -174.484207
  0.026212425    0.000000    0.000000    0.000000    0.000000  -93.591192   25.218634   -0.819976 -176.225403
  0.026412826    0.000000    0.000000    0.000000    0.000000  -93.499669   27.042618   -0.832693 -177.976410
  0.026613226    0.000000    0.000000    0.000000    0.000000  -93.955705   23.091873   -0.847278 -179.741852
  0.026813627    0.000000    0.000000    0.000000    0.000000  -93.701470   33.050426   -0.861937  178.487289
  0.027014028    0.000000    0.000000    0.000000    0.000000  -94.284814   26.042568   -0.876550  176.708282
  0.027214429    0.000000    0.000000    0.000000    0.000000  -94.833187   27.690302   -0.893226  174.918304
  0.027414830    0.000000    0.000000    0.000000    0.000000  -95.287188   26.916033   -0.908794  173.120850
  0.027615230    0.000000    0.000000    0.000000    0.000000  -94.935785   33.055000   -0.926094  171.307053
  0.027815631    0.000000    0.000000    0.000000    0.000000  -95.079540   35.835045   -0.942446  169.489883
  0.028016032    0.000000    0.000000    0.000000    0.000000  -94.266582   33.224411   -0.959255  167.662750
  0.028216433    0.000000    0.000000    0.000000    0.000000  -94.470848   29.848200   -0.978864  165.813034
  0.028416834    0.000000    0.000000    0.000000    0.000000  -94.182628   31.401316   -0.996398  163.967712
  0.028617234    0.000000    0.000000    0.000000    0.000000  -94.538353   30.864416   -1.016065  162.124283
  0.028817635    0.000000    0.000000    0.000000    0.000000  -94.276015   34.494568   -1.035743  160.274399
  0.029018036    0.000000    0.000000    0.000000    0.000000  -94.156047   31.779213   -1.057713  158.429825
  0.029218437    0.000000    0.000000    0.000000    0.000000  -94.712698   35.011379   -1.079145  156.567108
  0.029418838    0.000000    0.000000    0.000000    0.000000  -93.848648   29.871136   -1.103999  154.684448
  0.029619238    0.000000    0.000000    0.000000    0.000000  -93.995932   31.067078   -1.125920  152.809952
  0.029819639    0.000000    0.000000    0.000000    0.000000  -94.570160   28.364466   -1.151015  150.916840
  0.030020040    0.000000    0.000000    0.000000    0.000000  -93.838926   29.173340   -1.175856  149.024643
  0.030220441    0.000000    0.000000    0.000000    0.000000  -93.454871   29.611509   -1.199756  147.132858
  0.030420842    0.000000    0.000000    0.000000    0.000000  -94.332263   30.317520   -1.225919  145.238846
  0.030621242    0.000000    0.000000    0.000000    0.000000  -94.583857   25.610285   -1.255022  143.353561
  0.030821643    0.000000    0.000000    0.000000    0.000000  -94.651512   23.373793   -1.284577  141.449203
  0.031022044    0.000000    0.000000    0.000000    0.000000  -94.648463   26.850384   -1.315360  139.531006
  0.031222445    0.000000    0.000000    0.000000    0.000000  -94.413412   18.157663   -1.338893  137.604279
  0.031422846    0.000000    0.000000    0.000000    0.000000  -95.002846   20.137009   -1.373612  135.653046
  0.031623246    0.000000    0.000000    0.000000    0.000000  -94.785613   20.452250   -1.406524  133.683884
  0.031823647    0.000000    0.000000    0.000000    0.000000  -94.841057   20.510422   -1.439964  131.713608
  0.032024048    0.000000    0.000000    0.000000    0.000000  -94.408834   13.821104   -1.475437  129.732559
  0.032224449    0.000000    0.000000    0.000000    0.000000  -94.407567   18.798349   -1.509222  127.754059
  0.032424850    0.000000    0.000000    0.000000    0.000000  -94.882307   16.780807   -1.548208  125.770844
  0.032625250    0.000000    0.000000    0.000000    0.000000  -95.017282   17.798571   -1.585433  123.749763
  0.032825651    0.000000    0.000000    0.000000    0.000000  -96.635605   20.287052   -1.621286  121.714821
  0.033026052    0.000000    0.000000    0.000000    0.000000  -95.844915   18.917192   -1.657745  119.674774
  0.033226453    0.000000    0.000000    0.000000    0.000000  -96.247113   19.084726   -1.696060  117.633041
  0.033426854    0.000000    0.000000    0.000000    0.000000  -96.872693   19.052719   -1.733706  115.596481
  0.033627254    0.000000    0.000000    0.000000    0.000000  -96.322091   18.924305   -1.773253  113.546371
  0.033827655    0.000000    0.000000    0.000000    0.000000  -97.576689   28.606094   -1.811362  111.505997
  0.034028056    0.000000    0.000000    0.000000    0.000000  -96.328007   18.274128   -1.851494  109.432716
  0.034228457    0.000000    0.000000    0.000000    0.000000  -96.629460   26.857773   -1.893223  107.366730
  0.034428858    0.000000    0.000000    0.000000    0.000000  -96.192183   23.896967   -1.936180  105.287636
  0.034629258    0.000000    0.000000    0.000000    0.000000  -96.895341   17.675262   -1.977348  103.201164
  0.034829659    0.000000    0.000000    0.000000    0.000000  -96.187927   26.992285   -2.020894  101.117523
  0.035030060    0.000000    0.000000    0.000000    0.000000  -96.180912   27.228539   -2.064942   99.048515
  0.035230461    0.000000    0.000000    0.000000    0.000000  -96.579731   29.168520   -2.109425   96.964790
  0.035430862    0.000000    0.000000    0.000000    0.000000  -96.495053   29.580658   -2.156873   94.886093
  0.035631262    0.000000    0.000000    0.000000    0.000000  -95.785248   24.327881   -2.202886   92.801193
  0.035831663    0.000000    0.000000    0.000000    0.000000  -96.395219   27.771973   -2.253014   90.747528
  0.036032064    0.000000    0.000000    0.000000    0.000000  -97.067983   24.336174   -2.299477   88.654083
  0.036232465    0.000000    0.000000    0.000000    0.000000  -95.730735   28.540781   -2.348120   86.557472
  0.036432866    0.000000    0.000000    0.000000    0.000000  -95.672530   15.898828   -2.397682   84.474205
  0.036633266    0.000000    0.000000    0.000000    0.000000  -96.253007   27.639826   -2.449439   82.399857
  0.036833667    0.000000    0.000000    0.000000    0.000000  -97.400486   21.276203   -2.501307   80.329475
  0.037034068    0.000000    0.000000    0.000000    0.000000  -97.187160   26.373472   -2.554937   78.241829
  0.037234469    0.000000    0.000000    0.000000    0.000000  -96.732795   21.582323   -2.608638   76.162674
  0.037434870    0.000000    0.000000    0.000000    0.000000  -97.713536   21.334940   -2.662613   74.090698
  0.037635270    0.000000    0.000000    0.000000    0.000000  -97.072097   23.469625   -2.714869   72.026009
  0.037835671    0.000000    0.000000    0.000000    0.000000  -97.016241   21.686026   -2.769928   69.904106
  0.038036072    0.000000    0.000000    0.000000    0.000000  -97.481991   22.248838   -2.826025   67.794479
  0.038236473    0.000000    0.000000    0.000000    0.000000  -97.184708   20.617508   -2.883255   65.674591
  0.038436874    0.000000    0.000000    0.000000    0.000000  -97.656729   14.094113   -2.941787   63.562328
  0.038637274    0.000000    0.000000    0.000000    0.000000  -97.366576   15.387734   -3.000340   61.454155
  0.038837675    0.000000    0.000000    0.000000    0.000000  -98.930068   22.976971   -3.054875   59.342274
  0.039038076    0.000000    0.000000    0.000000    0.000000  -97.272025   23.618504   -3.107277   57.249474
  0.039238477    0.000000    0.000000    0.000000    0.000000  -97.904305   22.370312   -3.162380   55.144367
  0.039438878    0.000000    0.000000    0.000000    0.000000  -97.697505   26.444162   -3.216635   53.055111
  0.039639278    0.000000    0.000000    0.000000    0.000000  -97.996118   21.491299   -3.271348   50.943207
  0.039839679    0.000000    0.000000    0.000000    0.000000  -97.738641   33.889168   -3.324903   48.832783
  0.040040080    0.000000    0.000000    0.000000    0.000000  -98.097602   23.881430   -3.376553   46.716545
  0.040240481    0.000000    0.000000    0.000000    0.000000  -97.459942   32.757740   -3.428780   44.602337
  0.040440882    0.000000    0.000000    0.000000    0.000000  -97.636408   30.437799   -3.478800   42.513798
  0.040641283    0.000000    0.000000    0.000000    0.000000  -97.504606   28.437792   -3.529163   40.427670
  0.040841683    0.000000    0.000000    0.000000    0.000000  -97.951949   29.896599   -3.579642   38.360020
  0.041042084    0.000000    0.000000    0.000000    0.000000  -98.739191   33.667114   -3.632358   36.297432
  0.041242485    0.000000    0.000000    0.000000    0.000000  -97.372905   32.015141   -3.684110   34.237797
  0.041442886    0.000000    0.000000    0.000000    0.000000  -97.544800   28.219275   -3.734742   32.171127
  0.041643287    0.000000    0.000000    0.000000    0.000000  -97.993513   25.140211   -3.784790   30.106651
  0.041843687    0.000000    0.000000    0.000000    0.000000  -98.610479   20.982117   -3.832699   28.039015
  0.042044088    0.000000    0.000000    0.000000    0.000000  -97.165187   24.837835   -3.881668   25.987000
  0.042244489    0.000000    0.000000    0.000000    0.000000  -99.255194   24.899517   -3.929012   23.961309
  0.042444890    0.000000    0.000000    0.000000    0.000000  -98.711977   24.637465   -3.981175   21.936726
  0.042645291    0.000000    0.000000    0.000000    0.000000  -98.642438   28.664671   -4.031611   19.908939
  0.042845691    0.000000    0.000000    0.000000    0.000000  -97.602707   32.775696   -4.081906   17.913506
  0.043046092    0.000000    0.000000    0.000000    0.000000  -99.927094   29.075705   -4.130031   15.899700
  0.043246493    0.000000    0.000000    0.000000    0.000000  -99.023307   26.252439   -4.182029   13.870465
  0.043446894    0.000000    0.000000    0.000000    0.000000  -98.855760   34.015759   -4.228495   11.871795
  0.043647295    0.000000    0.000000    0.000000    0.000000  -98.581015   21.764948   -4.276155    9.869529
  0.043847695    0.000000    0.000000    0.000000    0.000000  -98.709216   25.996174   -4.322618    7.897189
  0.044048096    0.000000    0.000000    0.000000    0.000000  -99.366029   21.716261   -4.372552    5.914545
  0.044248497    0.000000    0.000000    0.000000    0.000000  -98.761193   25.796921   -4.420640    3.932722
  0.044448898    0.000000    0.000000    0.000000    0.000000  -98.525356   21.862507   -4.468822    1.977793
  0.044649299    0.000000    0.000000    0.000000    0.000000  -99.941398   21.757111   -4.514683    0.020991
  0.044849699    0.000000    0.000000    0.000000    0.000000  -99.580882   23.669571   -4.561726   -1.925915
  0.045050100    0.000000    0.000000    0.000000    0.000000  -98.721635   35.112293   -4.604207   -3.872096
  0.045250501    0.000000    0.000000    0.000000    0.000000 -101.142670   36.956398   -4.645238   -5.833797
  0.045450902    0.000000    0.000000    0.000000    0.000000  -98.680288   25.361101   -4.685537   -7.772892
  0.045651303    0.000000    0.000000    0.000000    0.000000  -98.912010   29.907455   -4.725927   -9.698839
  0.045851703    0.000000    0.000000    0.000000    0.000000  -97.612416   40.756908   -4.768510  -11.610379
  0.046052104    0.000000    0.000000    0.000000    0.000000  -99.298310   25.082104   -4.807353  -13.504703
  0.046252505    0.000000    0.000000    0.000000    0.000000  -98.730741   30.004993   -4.846399  -15.378251
  0.046452906    0.000000    0.000000    0.000000    0.000000  -98.721414   25.943842   -4.884826  -17.238052
  0.046653307    0.000000    0.000000    0.000000    0.000000  -99.255978   34.538651   -4.921905  -19.100637
  0.046853707    0.000000    0.000000    0.000000    0.000000  -99.954619   29.594540   -4.958004  -20.965265
  0.047054108    0.000000    0.000000    0.000000    0.000000  -99.447474   37.722336   -4.992682  -22.800695
  0.047254509    0.000000    0.000000    0.000000    0.000000  -98.914353   32.855869   -5.025541  -24.647038
  0.047454910    0.000000    0.000000    0.000000    0.000000  -98.935469   25.861334   -5.055478  -26.474344
  0.047655311    0.000000    0.000000    0.000000    0.000000  -97.921924   28.280392   -5.088017  -28.280420
  0.047855711    0.000000    0.000000    0.000000    0.000000  -98.129514   27.403143   -5.119509  -30.067713
  0.048056112    0.000000    0.000000    0.000000    0.000000  -98.420690   31.440525   -5.153341  -31.832151
  0.048256513    0.000000    0.000000    0.000000    0.000000  -99.680895   28.945082   -5.183311  -33.595604
  0.048456914    0.000000    0.000000    0.000000    0.000000  -99.573180   36.587917   -5.217250  -35.352962
  0.048657315    0.000000    0.000000    0.000000    0.000000  -99.164668   40.077469   -5.245566  -37.108276
  0.048857715    0.000000    0.000000    0.000000    0.000000  -99.128939   31.439077   -5.273150  -38.853901
  0.049058116    0.000000    0.000000    0.000000    0.000000 -100.343137   37.518780   -5.300131  -40.610561
  0.049258517    0.000000    0.000000    0.000000    0.000000  -99.594381   29.971083   -5.326599  -42.322987
  0.049458918    0.000000    0.000000    0.000000    0.000000  -99.268061   30.517172   -5.352167  -44.024532
  0.049659319    0.000000    0.000000    0.000000    0.000000 -100.355793   25.731182   -5.383546  -45.723560
  0.049859719    0.000000    0.000000    0.000000    0.000000  -99.212180   39.269836   -5.410250  -47.425995
  0.050060120    0.000000    0.000000    0.000000    0.000000  -98.661965   27.926542   -5.434359  -49.093979
  0.050260521    0.000000    0.000000    0.000000    0.000000  -98.470861   46.227486   -5.459079  -50.796127
  0.050460922    0.000000    0.000000    0.000000    0.000000  -98.905698   31.951786   -5.481045  -52.483715
  0.050661323    0.000000    0.000000    0.000000    0.000000  -97.615664   34.652859   -5.501113  -54.142105
  0.050861723    0.000000    0.000000    0.000000    0.000000 -100.889533   21.534636   -5.522213  -55.808132
  0.051062124    0.000000    0.000000    0.000000    0.000000 -100.728458   37.110146   -5.541195  -57.475613
  0.051262525    0.000000    0.000000    0.000000    0.000000  -98.854765   35.418518   -5.564025  -59.077805
  0.051462926    0.000000    0.000000    0.000000    0.000000  -98.600166   36.621281   -5.584229  -60.689049
  0.051663327    0.000000    0.000000    0.000000    0.000000  -98.489720   39.407673   -5.599120  -62.315441
  0.051863727    0.000000    0.000000    0.000000    0.000000  -98.677344   15.613828   -5.617022  -63.888100
  0.052064128    0.000000    0.000000    0.000000    0.000000  -98.967584   26.827335   -5.631298  -65.491608
  0.052264529    0.000000    0.000000    0.000000    0.000000  -98.182685   28.402313   -5.640305  -67.063416
  0.052464930    0.000000    0.000000    0.000000    0.000000  -98.891730   43.135239   -5.651337  -68.597122
  0.052665331    0.000000    0.000000    0.000000    0.000000  -99.964451   33.207714   -5.663591  -70.154465
  0.052865731    0.000000    0.000000    0.000000    0.000000 -100.461108   31.122211   -5.674023  -71.664185
