! Anritsu VNA Master:                     Model: MS2036C/10/77
! SN:                                  1601066
! /bd0/18may09/254.ew.m1.s2p
! Existing Calibration Information:
! TYPE:                         Current Settings,       Active Cal Settings
! TIME:             	   05/09/2018 10:11:00 AM,    05/09/2018 10:08:40 AM
! INTERNAL TEMP:    	                   48.3 C,                    48.0 C
! # POINTS:         	                      500,                       500
! START FREQ:       	               20.000 MHz,                20.000 MHz
! STOP FREQ:        	              120.000 MHz,               120.000 MHz
! SOURCE POWER:     	                     High,                      High
! IFBW:             	                    50 Hz,                     50 Hz
! AVG FACTOR:       	                       1 ,                        1 
! REF PLANE 1:      	                     0 mm,                      0 mm
! REF PLANE 2:      	                     0 mm,                      0 mm
! CAL TYPE:         	                 Full S11,                  Full S11
! CAL METHOD:       	                     SOLT,                      SOLT
! CAL LINE TYPE:    	                     Coax,                      Coax
! DUT PORT 1:       	                K-Conn(F),                 K-Conn(F)
! DUT PORT 2:       	                K-Conn(F),                 K-Conn(F)
! CAL STATUS:       	        OK: Accuracy High,                        --
# GHZ S DB R 50.0
! FREQ.GHZ       S11DB        S11A       S21DB        S21A       S12DB        S12A       S22DB        S22A
  0.020000000   -0.611922 -125.146523  -90.744419   30.239101    0.000000    0.000000    0.000000    0.000000
  0.020200401   -0.608541 -126.597885  -91.304445   25.830687    0.000000    0.000000    0.000000    0.000000
  0.020400802   -0.609273 -128.041687  -91.032046   29.344749    0.000000    0.000000    0.000000    0.000000
  0.020601202   -0.608079 -129.516663  -92.255926   29.290262    0.000000    0.000000    0.000000    0.000000
  0.020801603   -0.611204 -131.000839  -92.331077   29.084503    0.000000    0.000000    0.000000    0.000000
  0.021002004   -0.616731 -132.516769  -92.268207   31.561279    0.000000    0.000000    0.000000    0.000000
  0.021202405   -0.621577 -134.049088  -92.491668   30.563942    0.000000    0.000000    0.000000    0.000000
  0.021402806   -0.626216 -135.575348  -92.738202   26.603586    0.000000    0.000000    0.000000    0.000000
  0.021603206   -0.628243 -137.110550  -92.749139   35.418304    0.000000    0.000000    0.000000    0.000000
  0.021803607   -0.633070 -138.643524  -92.889389   35.559826    0.000000    0.000000    0.000000    0.000000
  0.022004008   -0.637779 -140.175720  -92.851512   25.419655    0.000000    0.000000    0.000000    0.000000
  0.022204409   -0.645678 -141.729141  -93.011098   34.313747    0.000000    0.000000    0.000000    0.000000
  0.022404810   -0.649051 -143.286484  -93.224283   35.398037    0.000000    0.000000    0.000000    0.000000
  0.022605210   -0.652556 -144.897888  -92.975009   39.205788    0.000000    0.000000    0.000000    0.000000
  0.022805611   -0.652887 -146.482498  -92.974921   38.496208    0.000000    0.000000    0.000000    0.000000
  0.023006012   -0.658294 -148.061447  -93.834189   37.186787    0.000000    0.000000    0.000000    0.000000
  0.023206413   -0.659367 -149.651260  -92.373309   35.136196    0.000000    0.000000    0.000000    0.000000
  0.023406814   -0.662249 -151.230698  -92.789705   35.594215    0.000000    0.000000    0.000000    0.000000
  0.023607214   -0.666442 -152.813202  -93.052538   34.482849    0.000000    0.000000    0.000000    0.000000
  0.023807615   -0.672407 -154.424042  -92.628129   27.133095    0.000000    0.000000    0.000000    0.000000
  0.024008016   -0.680088 -156.037018  -93.115944   30.835606    0.000000    0.000000    0.000000    0.000000
  0.024208417   -0.689606 -157.676773  -92.498588   28.371273    0.000000    0.000000    0.000000    0.000000
  0.024408818   -0.697469 -159.318375  -92.369343   27.889923    0.000000    0.000000    0.000000    0.000000
  0.024609218   -0.703099 -160.955368  -93.032784   21.594320    0.000000    0.000000    0.000000    0.000000
  0.024809619   -0.711409 -162.621582  -92.066459   25.602354    0.000000    0.000000    0.000000    0.000000
  0.025010020   -0.719699 -164.265320  -92.783698   23.178625    0.000000    0.000000    0.000000    0.000000
  0.025210421   -0.730942 -165.924484  -93.768419   22.828049    0.000000    0.000000    0.000000    0.000000
  0.025410822   -0.742025 -167.598312  -94.113792   22.920492    0.000000    0.000000    0.000000    0.000000
  0.025611222   -0.754473 -169.297638  -94.592672   16.550007    0.000000    0.000000    0.000000    0.000000
  0.025811623   -0.764507 -171.008041  -94.029422   17.180065    0.000000    0.000000    0.000000    0.000000
  0.026012024   -0.773094 -172.741974  -94.910443   17.457773    0.000000    0.000000    0.000000    0.000000
  0.026212425   -0.781893 -174.456024  -95.156535   17.784096    0.000000    0.000000    0.000000    0.000000
  0.026412826   -0.793541 -176.182388  -95.842930   18.221394    0.000000    0.000000    0.000000    0.000000
  0.026613226   -0.807870 -177.915588  -95.523615   13.711862    0.000000    0.000000    0.000000    0.000000
  0.026813627   -0.819717 -179.672272  -96.307336   21.269701    0.000000    0.000000    0.000000    0.000000
  0.027014028   -0.834126  178.567947  -95.984830   18.646040    0.000000    0.000000    0.000000    0.000000
  0.027214429   -0.849835  176.798569  -96.395114   18.969248    0.000000    0.000000    0.000000    0.000000
  0.027414830   -0.864032  175.004898  -95.781819   19.416260    0.000000    0.000000    0.000000    0.000000
  0.027615230   -0.877986  173.212418  -95.994758   20.954426    0.000000    0.000000    0.000000    0.000000
  0.027815631   -0.897119  171.416168  -95.620714   25.135090    0.000000    0.000000    0.000000    0.000000
  0.028016032   -0.915390  169.583878  -96.703431   25.832022    0.000000    0.000000    0.000000    0.000000
  0.028216433   -0.935399  167.764114  -96.315162   18.951204    0.000000    0.000000    0.000000    0.000000
  0.028416834   -0.954113  165.929672  -96.196662   20.679916    0.000000    0.000000    0.000000    0.000000
  0.028617234   -0.971857  164.098450  -95.656120   25.138573    0.000000    0.000000    0.000000    0.000000
  0.028817635   -0.989524  162.269180  -95.987501   24.402170    0.000000    0.000000    0.000000    0.000000
  0.029018036   -1.007949  160.435577  -95.680527   25.414539    0.000000    0.000000    0.000000    0.000000
  0.029218437   -1.026566  158.622208  -95.769843   19.918873    0.000000    0.000000    0.000000    0.000000
  0.029418838   -1.047976  156.790802  -96.088049   22.625832    0.000000    0.000000    0.000000    0.000000
  0.029619238   -1.071864  154.947083  -95.588049   23.497107    0.000000    0.000000    0.000000    0.000000
  0.029819639   -1.100011  153.071671  -96.596470   15.330049    0.000000    0.000000    0.000000    0.000000
  0.030020040   -1.128973  151.178497  -96.328151   15.871923    0.000000    0.000000    0.000000    0.000000
  0.030220441   -1.156613  149.252945  -96.420264   17.237566    0.000000    0.000000    0.000000    0.000000
  0.030420842   -1.182889  147.319382  -96.265320   17.713909    0.000000    0.000000    0.000000    0.000000
  0.030621242   -1.211921  145.414551  -96.606008   13.494368    0.000000    0.000000    0.000000    0.000000
  0.030821643   -1.242292  143.503174  -97.570667   16.019831    0.000000    0.000000    0.000000    0.000000
  0.031022044   -1.273861  141.583679  -97.169234   12.254105    0.000000    0.000000    0.000000    0.000000
  0.031222445   -1.302800  139.658234  -97.491592   14.023647    0.000000    0.000000    0.000000    0.000000
  0.031422846   -1.337602  137.681244  -96.997251   13.855619    0.000000    0.000000    0.000000    0.000000
  0.031623246   -1.372899  135.689529  -97.149469   16.734066    0.000000    0.000000    0.000000    0.000000
  0.031823647   -1.406510  133.698715  -96.682651   11.161298    0.000000    0.000000    0.000000    0.000000
  0.032024048   -1.436444  131.700348  -98.050537   10.420166    0.000000    0.000000    0.000000    0.000000
  0.032224449   -1.468676  129.711029  -96.851172   15.266719    0.000000    0.000000    0.000000    0.000000
  0.032424850   -1.500169  127.729797  -97.682195    2.426514    0.000000    0.000000    0.000000    0.000000
  0.032625251   -1.530782  125.768204  -96.862062   10.499347    0.000000    0.000000    0.000000    0.000000
  0.032825651   -1.564668  123.792114  -98.559887   20.117891    0.000000    0.000000    0.000000    0.000000
  0.033026052   -1.603845  121.810074  -97.699336    1.952173    0.000000    0.000000    0.000000    0.000000
  0.033226453   -1.645043  119.830017  -97.615999   18.568968    0.000000    0.000000    0.000000    0.000000
  0.033426854   -1.691936  117.845009  -97.055568   11.212540    0.000000    0.000000    0.000000    0.000000
  0.033627255   -1.739686  115.838394  -97.873627   11.762964    0.000000    0.000000    0.000000    0.000000
  0.033827655   -1.788298  113.790375  -97.876540    5.578394    0.000000    0.000000    0.000000    0.000000
  0.034028056   -1.836311  111.710083  -99.158156   19.674841    0.000000    0.000000    0.000000    0.000000
  0.034228457   -1.878995  109.602440  -97.287869    7.373536    0.000000    0.000000    0.000000    0.000000
  0.034428858   -1.926117  107.485184  -98.379034    5.319277    0.000000    0.000000    0.000000    0.000000
  0.034629259   -1.970937  105.347908  -98.110894    4.879488    0.000000    0.000000    0.000000    0.000000
  0.034829659   -2.011575  103.233910  -98.696806    4.717340    0.000000    0.000000    0.000000    0.000000
  0.035030060   -2.051389  101.112602  -99.165647    7.932518    0.000000    0.000000    0.000000    0.000000
  0.035230461   -2.092870   98.999504  -97.598486    4.816828    0.000000    0.000000    0.000000    0.000000
  0.035430862   -2.133079   96.920860  -98.463707    9.485652    0.000000    0.000000    0.000000    0.000000
  0.035631263   -2.170967   94.833832  -97.792488   13.793617    0.000000    0.000000    0.000000    0.000000
  0.035831663   -2.210571   92.774796  -98.338928   20.736996    0.000000    0.000000    0.000000    0.000000
  0.036032064   -2.252031   90.708862  -99.097534    9.250772    0.000000    0.000000    0.000000    0.000000
  0.036232465   -2.295881   88.658211  -99.279410    7.748114    0.000000    0.000000    0.000000    0.000000
  0.036432866   -2.344067   86.633911  -99.695481    7.754437    0.000000    0.000000    0.000000    0.000000
  0.036633267   -2.394723   84.584877  -99.035178    6.468228    0.000000    0.000000    0.000000    0.000000
  0.036833667   -2.446468   82.563644  -98.364215    5.204900    0.000000    0.000000    0.000000    0.000000
  0.037034068   -2.503491   80.505234  -99.731729    7.013707    0.000000    0.000000    0.000000    0.000000
  0.037234469   -2.562429   78.443695  -99.333691    2.599107    0.000000    0.000000    0.000000    0.000000
  0.037434870   -2.619372   76.338699  -98.939362    5.407794    0.000000    0.000000    0.000000    0.000000
  0.037635271   -2.675386   74.221786 -100.263059    2.543979    0.000000    0.000000    0.000000    0.000000
  0.037835671   -2.733861   72.082527  -99.186889    8.907668    0.000000    0.000000    0.000000    0.000000
  0.038036072   -2.793949   69.929283 -101.798840  -11.743208    0.000000    0.000000    0.000000    0.000000
  0.038236473   -2.852484   67.788361 -100.649572   14.741434    0.000000    0.000000    0.000000    0.000000
  0.038436874   -2.903599   65.644417  -99.126254    7.847960    0.000000    0.000000    0.000000    0.000000
  0.038637275   -2.955448   63.533394 -100.567046    8.628024    0.000000    0.000000    0.000000    0.000000
  0.038837675   -3.000516   61.423946 -100.452558    9.614623    0.000000    0.000000    0.000000    0.000000
  0.039038076   -3.043141   59.374508  -99.440566   19.120207    0.000000    0.000000    0.000000    0.000000
  0.039238477   -3.089617   57.333920 -100.213796   12.885297    0.000000    0.000000    0.000000    0.000000
  0.039438878   -3.137941   55.306328  -99.867309    8.807773    0.000000    0.000000    0.000000    0.000000
  0.039639279   -3.187877   53.310112 -100.226497    8.032969    0.000000    0.000000    0.000000    0.000000
  0.039839679   -3.245421   51.298950  -98.808965    2.306273    0.000000    0.000000    0.000000    0.000000
  0.040040080   -3.304331   49.250488  -99.757671    7.628996    0.000000    0.000000    0.000000    0.000000
  0.040240481   -3.360675   47.194500  -99.075416   11.395800    0.000000    0.000000    0.000000    0.000000
  0.040440882   -3.421244   45.145794  -99.581296   11.695311    0.000000    0.000000    0.000000    0.000000
  0.040641283   -3.478486   43.085320 -102.733976   12.135971    0.000000    0.000000    0.000000    0.000000
  0.040841683   -3.534049   41.012478  -99.922362    1.484045    0.000000    0.000000    0.000000    0.000000
  0.041042084   -3.588391   38.966805 -100.402540   10.993280    0.000000    0.000000    0.000000    0.000000
  0.041242485   -3.642288   36.910786 -100.293475    5.917633    0.000000    0.000000    0.000000    0.000000
  0.041442886   -3.694987   34.852692 -101.267134    8.142525    0.000000    0.000000    0.000000    0.000000
  0.041643287   -3.745060   32.770370 -102.185549   12.716004    0.000000    0.000000    0.000000    0.000000
  0.041843687   -3.794356   30.719654 -101.360226    9.428667    0.000000    0.000000    0.000000    0.000000
  0.042044088   -3.843205   28.679579 -101.854402    4.540795    0.000000    0.000000    0.000000    0.000000
  0.042244489   -3.890530   26.647940 -101.790380   -2.739793    0.000000    0.000000    0.000000    0.000000
  0.042444890   -3.936644   24.637455  -99.798777    4.043182    0.000000    0.000000    0.000000    0.000000
  0.042645291   -3.985085   22.638727 -101.839028   -1.558717    0.000000    0.000000    0.000000    0.000000
  0.042845691   -4.032085   20.648640 -100.797828    7.652251    0.000000    0.000000    0.000000    0.000000
  0.043046092   -4.077402   18.651117 -103.053401   -7.315705    0.000000    0.000000    0.000000    0.000000
  0.043246493   -4.125354   16.658899 -102.293182    2.053075    0.000000    0.000000    0.000000    0.000000
  0.043446894   -4.170203   14.675534 -103.148587   11.599933    0.000000    0.000000    0.000000    0.000000
  0.043647295   -4.212911   12.695448 -103.339692    4.867827    0.000000    0.000000    0.000000    0.000000
  0.043847695   -4.261152   10.732959 -102.519322    7.620332    0.000000    0.000000    0.000000    0.000000
  0.044048096   -4.306133    8.765793 -103.079279    4.513574    0.000000    0.000000    0.000000    0.000000
  0.044248497   -4.353863    6.809152 -102.449751    3.265906    0.000000    0.000000    0.000000    0.000000
  0.044448898   -4.398511    4.866927 -100.437062   16.461565    0.000000    0.000000    0.000000    0.000000
  0.044649299   -4.443348    2.930237 -103.294351   13.865879    0.000000    0.000000    0.000000    0.000000
  0.044849699   -4.484775    0.996295 -100.381543    2.562528    0.000000    0.000000    0.000000    0.000000
  0.045050100   -4.524558   -0.924702 -101.753871   10.409352    0.000000    0.000000    0.000000    0.000000
  0.045250501   -4.561914   -2.841545 -100.306020   -3.214073    0.000000    0.000000    0.000000    0.000000
  0.045450902   -4.600646   -4.746078 -102.426053   10.176741    0.000000    0.000000    0.000000    0.000000
  0.045651303   -4.641712   -6.621991 -101.252388    1.421180    0.000000    0.000000    0.000000    0.000000
  0.045851703   -4.682576   -8.476262 -101.461941    7.449510    0.000000    0.000000    0.000000    0.000000
  0.046052104   -4.719463  -10.336761 -102.356881   -1.412710    0.000000    0.000000    0.000000    0.000000
  0.046252505   -4.757366  -12.185292  -99.910613    3.785357    0.000000    0.000000    0.000000    0.000000
  0.046452906   -4.794849  -14.032913 -102.173811    1.208437    0.000000    0.000000    0.000000    0.000000
  0.046653307   -4.827841  -15.881141 -102.018120    2.293136    0.000000    0.000000    0.000000    0.000000
  0.046853707   -4.863025  -17.713905 -103.522915    7.048097    0.000000    0.000000    0.000000    0.000000
  0.047054108   -4.895453  -19.538298 -100.767610   -9.636939    0.000000    0.000000    0.000000    0.000000
  0.047254509   -4.925056  -21.336834 -102.176803    7.420224    0.000000    0.000000    0.000000    0.000000
  0.047454910   -4.956555  -23.142694 -101.692498   -1.911734    0.000000    0.000000    0.000000    0.000000
  0.047655311   -4.984584  -24.916998 -102.195407   -1.384456    0.000000    0.000000    0.000000    0.000000
  0.047855711   -5.011930  -26.651606 -101.751833    1.446494    0.000000    0.000000    0.000000    0.000000
  0.048056112   -5.040968  -28.383873 -102.094861    3.656357    0.000000    0.000000    0.000000    0.000000
  0.048256513   -5.074634  -30.131325 -102.892866   -2.057019    0.000000    0.000000    0.000000    0.000000
  0.048456914   -5.100689  -31.862635 -100.805447   -8.771612    0.000000    0.000000    0.000000    0.000000
  0.048657315   -5.130502  -33.588287 -102.149902   -8.387800    0.000000    0.000000    0.000000    0.000000
  0.048857715   -5.153423  -35.307266 -105.415804   -7.818774    0.000000    0.000000    0.000000    0.000000
  0.049058116   -5.180049  -37.024036 -103.993787   -4.189069    0.000000    0.000000    0.000000    0.000000
  0.049258517   -5.202561  -38.720169 -103.607807    8.782088    0.000000    0.000000    0.000000    0.000000
  0.049458918   -5.228377  -40.403618 -104.364175   11.395212    0.000000    0.000000    0.000000    0.000000
  0.049659319   -5.252004  -42.078575 -102.553553   -5.096080    0.000000    0.000000    0.000000    0.000000
  0.049859719   -5.273766  -43.758442 -104.732608    5.814859    0.000000    0.000000    0.000000    0.000000
  0.050060120   -5.298148  -45.422394 -104.041630   12.141156    0.000000    0.000000    0.000000    0.000000
  0.050260521   -5.317249  -47.107964 -103.558891   13.246312    0.000000    0.000000    0.000000    0.000000
  0.050460922   -5.336795  -48.773197 -102.332691   15.022528    0.000000    0.000000    0.000000    0.000000
  0.050661323   -5.350835  -50.424648 -105.157676   12.460745    0.000000    0.000000    0.000000    0.000000
  0.050861723   -5.366929  -52.062160 -101.203442    9.379416    0.000000    0.000000    0.000000    0.000000
  0.051062124   -5.380720  -53.679710 -102.021010    6.848041    0.000000    0.000000    0.000000    0.000000
  0.051262525   -5.395203  -55.246952 -102.302037   23.178310    0.000000    0.000000    0.000000    0.000000
  0.051462926   -5.405477  -56.800831 -102.144038   -7.811417    0.000000    0.000000    0.000000    0.000000
  0.051663327   -5.417880  -58.341927 -102.222061    6.477653    0.000000    0.000000    0.000000    0.000000
  0.051863727   -5.433217  -59.878357 -104.356783    6.391632    0.000000    0.000000    0.000000    0.000000
  0.052064128   -5.448666  -61.427055 -101.712044    8.131968    0.000000    0.000000    0.000000    0.000000
  0.052264529   -5.464037  -62.948902 -102.187464   -1.527463    0.000000    0.000000    0.000000    0.000000
  0.052464930   -5.481984  -64.473648 -101.049733   16.673941    0.000000    0.000000    0.000000    0.000000
  0.052665331   -5.498623  -66.002403 -104.723909   -4.481868    0.000000    0.000000    0.000000    0.000000
  0.052865731   -5.511290  -67.531319 -101.601404   -2.017176    0.000000    0.000000    0.000000    0.000000
