! Anritsu VNA Master:                     Model: MS2036C/10/77
! SN:                                  1601066
! /bd0/18may09/254.ew.m2.s2p
! Existing Calibration Information:
! TYPE:                         Current Settings,       Active Cal Settings
! TIME:             	   05/09/2018 10:13:27 AM,    05/09/2018 10:08:40 AM
! INTERNAL TEMP:    	                   48.5 C,                    48.0 C
! # POINTS:         	                      500,                       500
! START FREQ:       	               20.000 MHz,                20.000 MHz
! STOP FREQ:        	              120.000 MHz,               120.000 MHz
! SOURCE POWER:     	                     High,                      High
! IFBW:             	                    50 Hz,                     50 Hz
! AVG FACTOR:       	                       1 ,                        1 
! REF PLANE 1:      	                     0 mm,                      0 mm
! REF PLANE 2:      	                     0 mm,                      0 mm
! CAL TYPE:         	                 Full S11,                  Full S11
! CAL METHOD:       	                     SOLT,                      SOLT
! CAL LINE TYPE:    	                     Coax,                      Coax
! DUT PORT 1:       	                K-Conn(F),                 K-Conn(F)
! DUT PORT 2:       	                K-Conn(F),                 K-Conn(F)
! CAL STATUS:       	        OK: Accuracy High,                        --
# GHZ S DB R 50.0
! FREQ.GHZ       S11DB        S11A       S21DB        S21A       S12DB        S12A       S22DB        S22A
  0.020000000   -0.613417 -125.082794  -91.265290   27.335484    0.000000    0.000000    0.000000    0.000000
  0.020200401   -0.610530 -126.527054  -91.248146   28.417200    0.000000    0.000000    0.000000    0.000000
  0.020400802   -0.611325 -127.966843  -91.995024   29.172312    0.000000    0.000000    0.000000    0.000000
  0.020601202   -0.611028 -129.436584  -91.637855   31.413191    0.000000    0.000000    0.000000    0.000000
  0.020801603   -0.613935 -130.916580  -92.594961   27.698936    0.000000    0.000000    0.000000    0.000000
  0.021002004   -0.620039 -132.432892  -91.792908   26.731890    0.000000    0.000000    0.000000    0.000000
  0.021202405   -0.624557 -133.962723  -92.798397   29.504444    0.000000    0.000000    0.000000    0.000000
  0.021402806   -0.629916 -135.494263  -92.199559   37.369846    0.000000    0.000000    0.000000    0.000000
  0.021603206   -0.632795 -137.033554  -92.958669   32.508720    0.000000    0.000000    0.000000    0.000000
  0.021803607   -0.636593 -138.558777  -93.625741   34.578514    0.000000    0.000000    0.000000    0.000000
  0.022004008   -0.642023 -140.088287  -93.194875   34.616539    0.000000    0.000000    0.000000    0.000000
  0.022204409   -0.649932 -141.647644  -92.985056   32.701515    0.000000    0.000000    0.000000    0.000000
  0.022404810   -0.654304 -143.213669  -94.107760   37.202915    0.000000    0.000000    0.000000    0.000000
  0.022605210   -0.655500 -144.819321  -93.090507   37.912521    0.000000    0.000000    0.000000    0.000000
  0.022805611   -0.657800 -146.411636  -93.112312   32.831974    0.000000    0.000000    0.000000    0.000000
  0.023006012   -0.662744 -147.997055  -92.706569   36.538887    0.000000    0.000000    0.000000    0.000000
  0.023206413   -0.664376 -149.581207  -92.109201   33.257637    0.000000    0.000000    0.000000    0.000000
  0.023406814   -0.666056 -151.162888  -92.776808   34.093262    0.000000    0.000000    0.000000    0.000000
  0.023607214   -0.670953 -152.757690  -92.576126   32.024399    0.000000    0.000000    0.000000    0.000000
  0.023807615   -0.676226 -154.366592  -92.402617   28.006908    0.000000    0.000000    0.000000    0.000000
  0.024008016   -0.683688 -155.983368  -93.216047   27.189632    0.000000    0.000000    0.000000    0.000000
  0.024208417   -0.692905 -157.623825  -92.424841   31.185957    0.000000    0.000000    0.000000    0.000000
  0.024408818   -0.700787 -159.270203  -93.264956   26.454767    0.000000    0.000000    0.000000    0.000000
  0.024609218   -0.707553 -160.907394  -92.745600   25.979824    0.000000    0.000000    0.000000    0.000000
  0.024809619   -0.714418 -162.567017  -93.281555   28.192896    0.000000    0.000000    0.000000    0.000000
  0.025010020   -0.722424 -164.219421  -93.395826   26.445644    0.000000    0.000000    0.000000    0.000000
  0.025210421   -0.734332 -165.879410  -93.905624   18.588011    0.000000    0.000000    0.000000    0.000000
  0.025410822   -0.744149 -167.542114  -94.557531   23.122847    0.000000    0.000000    0.000000    0.000000
  0.025611222   -0.756700 -169.244217  -93.647638   17.310890    0.000000    0.000000    0.000000    0.000000
  0.025811623   -0.766851 -170.953400  -94.663475   18.572514    0.000000    0.000000    0.000000    0.000000
  0.026012024   -0.775715 -172.681152  -94.721466   18.371601    0.000000    0.000000    0.000000    0.000000
  0.026212425   -0.785004 -174.390625  -94.695057   17.494293    0.000000    0.000000    0.000000    0.000000
  0.026412826   -0.797205 -176.112320  -94.778777   13.206393    0.000000    0.000000    0.000000    0.000000
  0.026613226   -0.808945 -177.850510  -95.169026   16.923859    0.000000    0.000000    0.000000    0.000000
  0.026813627   -0.822047 -179.603363  -94.663865   14.832811    0.000000    0.000000    0.000000    0.000000
  0.027014028   -0.837540  178.642990  -95.470196   19.411139    0.000000    0.000000    0.000000    0.000000
  0.027214429   -0.852866  176.878601  -96.202090   16.515444    0.000000    0.000000    0.000000    0.000000
  0.027414830   -0.867216  175.085983  -96.329151   18.983988    0.000000    0.000000    0.000000    0.000000
  0.027615230   -0.881547  173.292252  -97.527536   23.311035    0.000000    0.000000    0.000000    0.000000
  0.027815631   -0.900251  171.495560  -95.899483   20.509661    0.000000    0.000000    0.000000    0.000000
  0.028016032   -0.918381  169.670044  -96.785678   22.165281    0.000000    0.000000    0.000000    0.000000
  0.028216433   -0.939373  167.844055  -96.874912   20.872004    0.000000    0.000000    0.000000    0.000000
  0.028416834   -0.958736  166.006851  -96.116665   26.666349    0.000000    0.000000    0.000000    0.000000
  0.028617234   -0.976885  164.167328  -96.707224   23.806894    0.000000    0.000000    0.000000    0.000000
  0.028817635   -0.994408  162.339935  -95.510218   28.909578    0.000000    0.000000    0.000000    0.000000
  0.029018036   -1.011934  160.511078  -96.683301   20.073208    0.000000    0.000000    0.000000    0.000000
  0.029218437   -1.031585  158.681778  -96.419317   22.405825    0.000000    0.000000    0.000000    0.000000
  0.029418838   -1.052832  156.850021  -95.779360   22.215727    0.000000    0.000000    0.000000    0.000000
  0.029619238   -1.077188  155.002243  -95.890007   14.347383    0.000000    0.000000    0.000000    0.000000
  0.029819639   -1.103696  153.128479  -96.353051   15.736136    0.000000    0.000000    0.000000    0.000000
  0.030020040   -1.133847  151.228439  -95.377495   14.206265    0.000000    0.000000    0.000000    0.000000
  0.030220441   -1.161006  149.300674  -96.322613   14.190266    0.000000    0.000000    0.000000    0.000000
  0.030420842   -1.187340  147.369217  -96.421383   11.271084    0.000000    0.000000    0.000000    0.000000
  0.030621242   -1.216239  145.458221  -97.133897    9.766752    0.000000    0.000000    0.000000    0.000000
  0.030821643   -1.245334  143.548126  -96.752915   10.607827    0.000000    0.000000    0.000000    0.000000
  0.031022044   -1.277489  141.625839  -96.660072    9.303908    0.000000    0.000000    0.000000    0.000000
  0.031222445   -1.306590  139.691498  -96.583671   11.943852    0.000000    0.000000    0.000000    0.000000
  0.031422846   -1.341805  137.715500  -96.896412    6.274940    0.000000    0.000000    0.000000    0.000000
  0.031623246   -1.376006  135.736496  -96.596628   17.119795    0.000000    0.000000    0.000000    0.000000
  0.031823647   -1.407605  133.746918  -98.152823   12.152413    0.000000    0.000000    0.000000    0.000000
  0.032024048   -1.438741  131.741653  -97.507385   10.100106    0.000000    0.000000    0.000000    0.000000
  0.032224449   -1.470492  129.759995  -96.700259    5.933589    0.000000    0.000000    0.000000    0.000000
  0.032424850   -1.501974  127.776054  -96.902017   11.725835    0.000000    0.000000    0.000000    0.000000
  0.032625251   -1.531829  125.815651  -98.119063    7.564290    0.000000    0.000000    0.000000    0.000000
  0.032825651   -1.566637  123.841766  -98.762031   12.591132    0.000000    0.000000    0.000000    0.000000
  0.033026052   -1.606403  121.860382  -97.848916    7.823942    0.000000    0.000000    0.000000    0.000000
  0.033226453   -1.646209  119.878113  -97.303208   17.019449    0.000000    0.000000    0.000000    0.000000
  0.033426854   -1.693817  117.912384  -97.691384   10.676101    0.000000    0.000000    0.000000    0.000000
  0.033627255   -1.741229  115.900841  -98.836373   18.530172    0.000000    0.000000    0.000000    0.000000
  0.033827655   -1.790355  113.860008  -98.419184   12.118320    0.000000    0.000000    0.000000    0.000000
  0.034028056   -1.838297  111.780243  -99.952488    4.604424    0.000000    0.000000    0.000000    0.000000
  0.034228457   -1.882794  109.674683  -97.309594    2.277523    0.000000    0.000000    0.000000    0.000000
  0.034428858   -1.928471  107.555267  -98.027684   14.856261    0.000000    0.000000    0.000000    0.000000
  0.034629259   -1.975228  105.417969  -99.339916   23.515917    0.000000    0.000000    0.000000    0.000000
  0.034829659   -2.014659  103.305946  -98.360681   15.297217    0.000000    0.000000    0.000000    0.000000
  0.035030060   -2.055854  101.187202  -99.066391   16.453156    0.000000    0.000000    0.000000    0.000000
  0.035230461   -2.096092   99.078049  -99.502540    9.595019    0.000000    0.000000    0.000000    0.000000
  0.035430862   -2.137276   96.986153  -98.675949    5.630412    0.000000    0.000000    0.000000    0.000000
  0.035631263   -2.175719   94.901085 -100.285207    3.547799    0.000000    0.000000    0.000000    0.000000
  0.035831663   -2.215564   92.823204  -99.699596    8.198765    0.000000    0.000000    0.000000    0.000000
  0.036032064   -2.258969   90.766655  -98.809969   -2.290884    0.000000    0.000000    0.000000    0.000000
  0.036232465   -2.300651   88.711601  -98.968162   -4.613515    0.000000    0.000000    0.000000    0.000000
  0.036432866   -2.349388   86.686455  -98.436638    9.016623    0.000000    0.000000    0.000000    0.000000
  0.036633267   -2.397785   84.638222  -99.000646    6.091609    0.000000    0.000000    0.000000    0.000000
  0.036833667   -2.451063   82.610008  -99.391862   12.200445    0.000000    0.000000    0.000000    0.000000
  0.037034068   -2.507228   80.549873  -99.238136    4.506238    0.000000    0.000000    0.000000    0.000000
  0.037234469   -2.566104   78.485100  -99.015699   12.107263    0.000000    0.000000    0.000000    0.000000
  0.037434870   -2.623054   76.388855 -102.063734    2.936073    0.000000    0.000000    0.000000    0.000000
  0.037635271   -2.678117   74.277061 -101.343005    2.990090    0.000000    0.000000    0.000000    0.000000
  0.037835671   -2.735634   72.134590 -100.530921    0.355951    0.000000    0.000000    0.000000    0.000000
  0.038036072   -2.795395   69.976875 -101.144294   -9.965798    0.000000    0.000000    0.000000    0.000000
  0.038236473   -2.854322   67.842545 -101.101646   26.905212    0.000000    0.000000    0.000000    0.000000
  0.038436874   -2.904373   65.698067  -98.813266   10.965549    0.000000    0.000000    0.000000    0.000000
  0.038637275   -2.957160   63.590469 -101.867181    0.382165    0.000000    0.000000    0.000000    0.000000
  0.038837675   -3.000592   61.490929 -100.728951    2.527432    0.000000    0.000000    0.000000    0.000000
  0.039038076   -3.044278   59.431778 -101.243692   19.953259    0.000000    0.000000    0.000000    0.000000
  0.039238477   -3.090873   57.404644 -100.724644   11.467839    0.000000    0.000000    0.000000    0.000000
  0.039438878   -3.138400   55.378109 -101.190059   11.485847    0.000000    0.000000    0.000000    0.000000
  0.039639279   -3.187820   53.387192 -100.593208   18.067350    0.000000    0.000000    0.000000    0.000000
  0.039839679   -3.245686   51.375492 -100.002540   13.598740    0.000000    0.000000    0.000000    0.000000
  0.040040080   -3.303442   49.339016  -99.672020    0.573341    0.000000    0.000000    0.000000    0.000000
  0.040240481   -3.360358   47.308327  -99.890752   22.838402    0.000000    0.000000    0.000000    0.000000
  0.040440882   -3.421836   45.236519 -101.094054    5.305480    0.000000    0.000000    0.000000    0.000000
  0.040641283   -3.478426   43.190300 -100.710248    1.485344    0.000000    0.000000    0.000000    0.000000
  0.040841683   -3.535459   41.117500 -100.681113    0.557112    0.000000    0.000000    0.000000    0.000000
  0.041042084   -3.590438   39.074516 -100.117556    6.725594    0.000000    0.000000    0.000000    0.000000
  0.041242485   -3.643184   37.002808  -99.090272    7.678880    0.000000    0.000000    0.000000    0.000000
  0.041442886   -3.696131   34.944866 -101.293213   14.287522    0.000000    0.000000    0.000000    0.000000
  0.041643287   -3.747360   32.870827 -100.511870    0.798703    0.000000    0.000000    0.000000    0.000000
  0.041843687   -3.798428   30.813074 -100.702240    6.466232    0.000000    0.000000    0.000000    0.000000
  0.042044088   -3.846494   28.764904 -102.526668    0.462517    0.000000    0.000000    0.000000    0.000000
  0.042244489   -3.895545   26.741484 -102.141001    1.179880    0.000000    0.000000    0.000000    0.000000
  0.042444890   -3.941268   24.724611 -100.344898   13.124497    0.000000    0.000000    0.000000    0.000000
  0.042645291   -3.988778   22.716610 -100.439827   -4.077935    0.000000    0.000000    0.000000    0.000000
  0.042845691   -4.035527   20.735077 -100.605398   -0.913159    0.000000    0.000000    0.000000    0.000000
  0.043046092   -4.081355   18.719046 -103.320992    1.122018    0.000000    0.000000    0.000000    0.000000
  0.043246493   -4.129640   16.727894 -101.841056   11.219413    0.000000    0.000000    0.000000    0.000000
  0.043446894   -4.174385   14.740808 -102.357647    3.992055    0.000000    0.000000    0.000000    0.000000
  0.043647295   -4.218601   12.756604 -101.937125   13.206744    0.000000    0.000000    0.000000    0.000000
  0.043847695   -4.264565   10.776962 -102.059677   10.203891    0.000000    0.000000    0.000000    0.000000
  0.044048096   -4.309826    8.812019 -100.843806   10.650324    0.000000    0.000000    0.000000    0.000000
  0.044248497   -4.356154    6.848423 -100.415960    4.459081    0.000000    0.000000    0.000000    0.000000
  0.044448898   -4.400583    4.913445 -102.405512   16.029039    0.000000    0.000000    0.000000    0.000000
  0.044649299   -4.446837    2.961024 -101.386113    6.292428    0.000000    0.000000    0.000000    0.000000
  0.044849699   -4.485350    1.041789 -101.396294   11.437791    0.000000    0.000000    0.000000    0.000000
  0.045050100   -4.525104   -0.886160 -101.576895    5.050023    0.000000    0.000000    0.000000    0.000000
  0.045250501   -4.561462   -2.799953  -99.929749    4.317360    0.000000    0.000000    0.000000    0.000000
  0.045450902   -4.601765   -4.682602 -101.564375   -0.980477    0.000000    0.000000    0.000000    0.000000
  0.045651303   -4.639881   -6.554435 -101.807573   12.206385    0.000000    0.000000    0.000000    0.000000
  0.045851703   -4.681473   -8.416286 -100.442425    2.866849    0.000000    0.000000    0.000000    0.000000
  0.046052104   -4.718553  -10.271603 -101.177638   -5.646427    0.000000    0.000000    0.000000    0.000000
  0.046252505   -4.756171  -12.126842  -99.704774    6.872422    0.000000    0.000000    0.000000    0.000000
  0.046452906   -4.792740  -13.950080 -102.430708    5.625435    0.000000    0.000000    0.000000    0.000000
  0.046653307   -4.826956  -15.808779 -102.991760    9.989394    0.000000    0.000000    0.000000    0.000000
  0.046853707   -4.859243  -17.633657 -101.880000   -3.880558    0.000000    0.000000    0.000000    0.000000
  0.047054108   -4.892007  -19.443876 -101.663941    1.021480    0.000000    0.000000    0.000000    0.000000
  0.047254509   -4.921412  -21.244442 -100.305633   -6.621917    0.000000    0.000000    0.000000    0.000000
  0.047454910   -4.952833  -23.036148 -101.487143   -2.395640    0.000000    0.000000    0.000000    0.000000
  0.047655311   -4.980639  -24.820091 -103.319273  -10.545539    0.000000    0.000000    0.000000    0.000000
  0.047855711   -5.009727  -26.550545 -102.938650    8.681586    0.000000    0.000000    0.000000    0.000000
  0.048056112   -5.040339  -28.285454 -102.782677   -1.784939    0.000000    0.000000    0.000000    0.000000
  0.048256513   -5.073075  -30.025856 -102.589681    9.977254    0.000000    0.000000    0.000000    0.000000
  0.048456914   -5.101993  -31.752733 -102.582284   -2.400376    0.000000    0.000000    0.000000    0.000000
  0.048657315   -5.130945  -33.472843 -102.737631    4.854565    0.000000    0.000000    0.000000    0.000000
  0.048857715   -5.154554  -35.217663 -103.297234    2.479411    0.000000    0.000000    0.000000    0.000000
  0.049058116   -5.181037  -36.929592 -103.871312   -6.772244    0.000000    0.000000    0.000000    0.000000
  0.049258517   -5.205446  -38.618763 -104.236079    7.568259    0.000000    0.000000    0.000000    0.000000
  0.049458918   -5.229142  -40.316753 -102.227623    4.391219    0.000000    0.000000    0.000000    0.000000
  0.049659319   -5.251554  -41.993996 -103.562878   -4.479911    0.000000    0.000000    0.000000    0.000000
  0.049859719   -5.275849  -43.671474 -102.730286    6.767225    0.000000    0.000000    0.000000    0.000000
  0.050060120   -5.298068  -45.332100 -105.600881   23.254576    0.000000    0.000000    0.000000    0.000000
  0.050260521   -5.317537  -47.036774 -103.465886    1.037441    0.000000    0.000000    0.000000    0.000000
  0.050460922   -5.335821  -48.696823 -103.273899   11.668786    0.000000    0.000000    0.000000    0.000000
  0.050661323   -5.351513  -50.356503 -102.636744   14.451282    0.000000    0.000000    0.000000    0.000000
  0.050861723   -5.366207  -51.989563 -103.255281    6.480705    0.000000    0.000000    0.000000    0.000000
  0.051062124   -5.379234  -53.609470 -101.423935   -1.350525    0.000000    0.000000    0.000000    0.000000
  0.051262525   -5.391487  -55.192974 -104.083315   17.494297    0.000000    0.000000    0.000000    0.000000
  0.051462926   -5.405046  -56.726753 -100.141157   11.969151    0.000000    0.000000    0.000000    0.000000
  0.051663327   -5.415225  -58.278362 -102.512856   16.091473    0.000000    0.000000    0.000000    0.000000
  0.051863727   -5.429721  -59.803082  -99.643930    4.593163    0.000000    0.000000    0.000000    0.000000
  0.052064128   -5.445419  -61.351490 -101.949944   14.761395    0.000000    0.000000    0.000000    0.000000
  0.052264529   -5.460636  -62.856449 -101.526025   10.032763    0.000000    0.000000    0.000000    0.000000
  0.052464930   -5.475688  -64.377388 -101.942926    1.529443    0.000000    0.000000    0.000000    0.000000
  0.052665331   -5.492977  -65.908340 -103.409253    4.421672    0.000000    0.000000    0.000000    0.000000
  0.052865731   -5.505153  -67.431976 -102.558456    2.445395    0.000000    0.000000    0.000000    0.000000
