! Anritsu VNA Master:                     Model: MS2036C/10/77
! SN:                                  1601066
! /bd0/18may09/252.ew.m2.s2p
! Existing Calibration Information:
! TYPE:                         Current Settings,       Active Cal Settings
! TIME:             	   05/09/2018 08:09:17 AM,    05/09/2018 08:04:56 AM
! INTERNAL TEMP:    	                   42.0 C,                    42.3 C
! # POINTS:         	                      500,                       500
! START FREQ:       	               20.000 MHz,                20.000 MHz
! STOP FREQ:        	              120.000 MHz,               120.000 MHz
! SOURCE POWER:     	                     High,                      High
! IFBW:             	                    50 Hz,                     50 Hz
! AVG FACTOR:       	                       1 ,                        1 
! REF PLANE 1:      	                     0 mm,                      0 mm
! REF PLANE 2:      	                     0 mm,                      0 mm
! CAL TYPE:         	                 Full S11,                  Full S11
! CAL METHOD:       	                     SOLT,                      SOLT
! CAL LINE TYPE:    	                     Coax,                      Coax
! DUT PORT 1:       	                K-Conn(F),                 K-Conn(F)
! DUT PORT 2:       	                K-Conn(F),                 K-Conn(F)
! CAL STATUS:       	        OK: Accuracy High,                        --
# GHZ S DB R 50.0
! FREQ.GHZ       S11DB        S11A       S21DB        S21A       S12DB        S12A       S22DB        S22A
  0.020000000   -0.613699 -124.193001  -90.982935   30.480679    0.000000    0.000000    0.000000    0.000000
  0.020200401   -0.612436 -125.638008  -91.496152   31.465643    0.000000    0.000000    0.000000    0.000000
  0.020400802   -0.613793 -127.071312  -91.739015   29.657000    0.000000    0.000000    0.000000    0.000000
  0.020601202   -0.613686 -128.526016  -91.765879   30.388498    0.000000    0.000000    0.000000    0.000000
  0.020801603   -0.618712 -130.006973  -91.875536   31.075087    0.000000    0.000000    0.000000    0.000000
  0.021002004   -0.625515 -131.509277  -92.949139   29.532362    0.000000    0.000000    0.000000    0.000000
  0.021202405   -0.631194 -133.032349  -92.698636   31.550301    0.000000    0.000000    0.000000    0.000000
  0.021402806   -0.634653 -134.554031  -93.145436   31.902071    0.000000    0.000000    0.000000    0.000000
  0.021603206   -0.637222 -136.051300  -92.560259   31.810598    0.000000    0.000000    0.000000    0.000000
  0.021803607   -0.641429 -137.564758  -93.205778   37.014034    0.000000    0.000000    0.000000    0.000000
  0.022004008   -0.647099 -139.097000  -93.723411   42.480202    0.000000    0.000000    0.000000    0.000000
  0.022204409   -0.650590 -140.631546  -93.137886   33.238384    0.000000    0.000000    0.000000    0.000000
  0.022404810   -0.654701 -142.190002  -92.706253   34.252918    0.000000    0.000000    0.000000    0.000000
  0.022605210   -0.658440 -143.765762  -92.734129   39.231789    0.000000    0.000000    0.000000    0.000000
  0.022805611   -0.662159 -145.352036  -92.979288   37.834141    0.000000    0.000000    0.000000    0.000000
  0.023006012   -0.664519 -146.915085  -93.242955   36.509800    0.000000    0.000000    0.000000    0.000000
  0.023206413   -0.664585 -148.498886  -93.178431   30.585127    0.000000    0.000000    0.000000    0.000000
  0.023406814   -0.668571 -150.059265  -92.679818   32.691727    0.000000    0.000000    0.000000    0.000000
  0.023607214   -0.672544 -151.654083  -92.590465   31.083969    0.000000    0.000000    0.000000    0.000000
  0.023807615   -0.680326 -153.237350  -92.994324   32.054699    0.000000    0.000000    0.000000    0.000000
  0.024008016   -0.690555 -154.854721  -92.678289   29.048880    0.000000    0.000000    0.000000    0.000000
  0.024208417   -0.698417 -156.483719  -92.746665   26.752033    0.000000    0.000000    0.000000    0.000000
  0.024408818   -0.706555 -158.127945  -92.609218   28.348017    0.000000    0.000000    0.000000    0.000000
  0.024609218   -0.716937 -159.759460  -92.504603   25.501293    0.000000    0.000000    0.000000    0.000000
  0.024809619   -0.725063 -161.387970  -92.980369   22.511913    0.000000    0.000000    0.000000    0.000000
  0.025010020   -0.737108 -163.037933  -93.709264   21.713253    0.000000    0.000000    0.000000    0.000000
  0.025210421   -0.749243 -164.690186  -94.285494   26.332668    0.000000    0.000000    0.000000    0.000000
  0.025410822   -0.762995 -166.375137  -93.514542   20.503469    0.000000    0.000000    0.000000    0.000000
  0.025611222   -0.777663 -168.067001  -94.458715   19.551210    0.000000    0.000000    0.000000    0.000000
  0.025811623   -0.787668 -169.780396  -94.541248   17.231411    0.000000    0.000000    0.000000    0.000000
  0.026012024   -0.796610 -171.469360  -95.505984   20.762287    0.000000    0.000000    0.000000    0.000000
  0.026212425   -0.808927 -173.199921  -94.748564   17.041082    0.000000    0.000000    0.000000    0.000000
  0.026412826   -0.821077 -174.918762  -94.856754   18.860813    0.000000    0.000000    0.000000    0.000000
  0.026613226   -0.836747 -176.653549  -95.339896   21.260784    0.000000    0.000000    0.000000    0.000000
  0.026813627   -0.851935 -178.396637  -95.565538   20.038294    0.000000    0.000000    0.000000    0.000000
  0.027014028   -0.868918  179.850067  -96.775052   24.032352    0.000000    0.000000    0.000000    0.000000
  0.027214429   -0.883456  178.074493  -96.200436   22.919544    0.000000    0.000000    0.000000    0.000000
  0.027414830   -0.898923  176.298553  -96.020875   14.787728    0.000000    0.000000    0.000000    0.000000
  0.027615230   -0.916270  174.500626  -96.484681   16.778034    0.000000    0.000000    0.000000    0.000000
  0.027815631   -0.936690  172.708099  -96.251439   24.685213    0.000000    0.000000    0.000000    0.000000
  0.028016032   -0.958085  170.893356  -95.699075   22.735058    0.000000    0.000000    0.000000    0.000000
  0.028216433   -0.980662  169.080933  -95.424574   28.029100    0.000000    0.000000    0.000000    0.000000
  0.028416834   -1.000464  167.255157  -95.809430   35.816578    0.000000    0.000000    0.000000    0.000000
  0.028617234   -1.019902  165.428955  -96.336497   20.526127    0.000000    0.000000    0.000000    0.000000
  0.028817635   -1.040162  163.605865  -95.532548   23.284792    0.000000    0.000000    0.000000    0.000000
  0.029018036   -1.060791  161.809006  -96.861534   24.795704    0.000000    0.000000    0.000000    0.000000
  0.029218437   -1.081588  159.985413  -95.917682   22.533968    0.000000    0.000000    0.000000    0.000000
  0.029418838   -1.106811  158.150421  -95.792695   17.559671    0.000000    0.000000    0.000000    0.000000
  0.029619238   -1.134712  156.289474  -96.108116   21.133604    0.000000    0.000000    0.000000    0.000000
  0.029819639   -1.164894  154.425430  -96.041169   20.205032    0.000000    0.000000    0.000000    0.000000
  0.030020040   -1.195174  152.507462  -96.230465   14.595040    0.000000    0.000000    0.000000    0.000000
  0.030220441   -1.224909  150.581512  -96.223756   15.452784    0.000000    0.000000    0.000000    0.000000
  0.030420842   -1.255306  148.668793  -95.929258   12.519617    0.000000    0.000000    0.000000    0.000000
  0.030621242   -1.286512  146.763550  -96.271841   12.430624    0.000000    0.000000    0.000000    0.000000
  0.030821643   -1.321681  144.834320  -96.432695   14.654782    0.000000    0.000000    0.000000    0.000000
  0.031022044   -1.357249  142.907944  -97.500748   16.532722    0.000000    0.000000    0.000000    0.000000
  0.031222445   -1.391646  140.976273  -98.076911    9.149763    0.000000    0.000000    0.000000    0.000000
  0.031422846   -1.428842  138.991913  -96.649168   12.988532    0.000000    0.000000    0.000000    0.000000
  0.031623246   -1.464706  136.988358  -96.124738   11.494777    0.000000    0.000000    0.000000    0.000000
  0.031823647   -1.501652  134.975250  -98.145809    8.888965    0.000000    0.000000    0.000000    0.000000
  0.032024048   -1.537503  132.990295  -97.048932   13.509274    0.000000    0.000000    0.000000    0.000000
  0.032224449   -1.571786  131.003510  -98.202891   11.391888    0.000000    0.000000    0.000000    0.000000
  0.032424850   -1.609676  129.034515  -97.114290   10.993525    0.000000    0.000000    0.000000    0.000000
  0.032625251   -1.647112  127.051163  -98.205727    7.800961    0.000000    0.000000    0.000000    0.000000
  0.032825651   -1.688768  125.066956  -97.574660    6.522773    0.000000    0.000000    0.000000    0.000000
  0.033026052   -1.734565  123.101089  -97.560656   11.180276    0.000000    0.000000    0.000000    0.000000
  0.033226453   -1.786758  121.112518  -99.904051    9.564648    0.000000    0.000000    0.000000    0.000000
  0.033426854   -1.841531  119.080170  -97.484571    9.907498    0.000000    0.000000    0.000000    0.000000
  0.033627255   -1.897396  117.063011  -99.138836    8.980663    0.000000    0.000000    0.000000    0.000000
  0.033827655   -1.952498  114.988403  -97.056357   20.003180    0.000000    0.000000    0.000000    0.000000
  0.034028056   -2.003174  112.879074  -97.750790   13.084953    0.000000    0.000000    0.000000    0.000000
  0.034228457   -2.055216  110.752327  -97.335646   17.565235    0.000000    0.000000    0.000000    0.000000
  0.034428858   -2.105220  108.621826  -98.462732   10.909741    0.000000    0.000000    0.000000    0.000000
  0.034629259   -2.152235  106.505226  -98.299052   19.490477    0.000000    0.000000    0.000000    0.000000
  0.034829659   -2.199516  104.394318  -97.669985    8.016256    0.000000    0.000000    0.000000    0.000000
  0.035030060   -2.244677  102.291199  -98.578016   12.525721    0.000000    0.000000    0.000000    0.000000
  0.035230461   -2.289997  100.201698  -98.611916    7.473469    0.000000    0.000000    0.000000    0.000000
  0.035430862   -2.335865   98.100861  -99.072359    4.673821    0.000000    0.000000    0.000000    0.000000
  0.035631263   -2.382420   96.036232  -97.999611    4.471379    0.000000    0.000000    0.000000    0.000000
  0.035831663   -2.429915   93.979263  -98.847302   10.597685    0.000000    0.000000    0.000000    0.000000
  0.036032064   -2.478615   91.937614  -99.025750   13.055665    0.000000    0.000000    0.000000    0.000000
  0.036232465   -2.530799   89.911453  -97.407678    3.893722    0.000000    0.000000    0.000000    0.000000
  0.036432866   -2.586875   87.881958  -98.327502    9.518497    0.000000    0.000000    0.000000    0.000000
  0.036633267   -2.643640   85.859604  -98.897641    8.036293    0.000000    0.000000    0.000000    0.000000
  0.036833667   -2.704608   83.818291  -98.337640    8.944974    0.000000    0.000000    0.000000    0.000000
  0.037034068   -2.772788   81.755684 -100.332064    8.545431    0.000000    0.000000    0.000000    0.000000
  0.037234469   -2.837902   79.678581  -99.303846    7.936312    0.000000    0.000000    0.000000    0.000000
  0.037434870   -2.900342   77.568069 -100.200435    0.458382    0.000000    0.000000    0.000000    0.000000
  0.037635271   -2.963456   75.465355  -98.850298   15.163527    0.000000    0.000000    0.000000    0.000000
  0.037835671   -3.024213   73.330872  -99.116282    6.527867    0.000000    0.000000    0.000000    0.000000
  0.038036072   -3.081944   71.168190  -98.580005    6.841546    0.000000    0.000000    0.000000    0.000000
  0.038236473   -3.140950   68.959930 -101.150064    9.603916    0.000000    0.000000    0.000000    0.000000
  0.038436874   -3.201806   66.807350 -102.041172    9.104381    0.000000    0.000000    0.000000    0.000000
  0.038637275   -3.259410   64.680542 -101.025958    7.192588    0.000000    0.000000    0.000000    0.000000
  0.038837675   -3.315077   62.583187 -101.759115    0.110979    0.000000    0.000000    0.000000    0.000000
  0.039038076   -3.367229   60.535168  -99.201180   -2.680042    0.000000    0.000000    0.000000    0.000000
  0.039238477   -3.424005   58.493073  -99.106139   12.913127    0.000000    0.000000    0.000000    0.000000
  0.039438878   -3.483508   56.483459 -100.697777    7.359270    0.000000    0.000000    0.000000    0.000000
  0.039639279   -3.548503   54.445667  -98.360791   13.460294    0.000000    0.000000    0.000000    0.000000
  0.039839679   -3.612997   52.405277  -99.559752    8.873865    0.000000    0.000000    0.000000    0.000000
  0.040040080   -3.681181   50.335331 -100.136333   22.081648    0.000000    0.000000    0.000000    0.000000
  0.040240481   -3.749152   48.260830  -99.708181    6.664238    0.000000    0.000000    0.000000    0.000000
  0.040440882   -3.813179   46.201801  -97.466446   -1.068511    0.000000    0.000000    0.000000    0.000000
  0.040641283   -3.879928   44.117916 -100.879661    6.997287    0.000000    0.000000    0.000000    0.000000
  0.040841683   -3.941099   42.038292  -98.918873    6.787310    0.000000    0.000000    0.000000    0.000000
  0.041042084   -4.004817   39.966831 -100.427916   15.706551    0.000000    0.000000    0.000000    0.000000
  0.041242485   -4.068526   37.897453  -99.859305   13.158088    0.000000    0.000000    0.000000    0.000000
  0.041442886   -4.126349   35.795982 -101.197948   -0.646168    0.000000    0.000000    0.000000    0.000000
  0.041643287   -4.183406   33.727032  -98.977573   10.946836    0.000000    0.000000    0.000000    0.000000
  0.041843687   -4.236836   31.664248 -100.970588   14.694032    0.000000    0.000000    0.000000    0.000000
  0.042044088   -4.291903   29.636017 -100.671512    8.043200    0.000000    0.000000    0.000000    0.000000
  0.042244489   -4.344791   27.623722 -100.457754   -8.626769    0.000000    0.000000    0.000000    0.000000
  0.042444890   -4.398925   25.605732  -99.220272    3.945101    0.000000    0.000000    0.000000    0.000000
  0.042645291   -4.449645   23.601011 -102.067451   -0.115353    0.000000    0.000000    0.000000    0.000000
  0.042845691   -4.503802   21.604773 -100.350345    6.482407    0.000000    0.000000    0.000000    0.000000
  0.043046092   -4.554062   19.585619 -103.856888   -5.371077    0.000000    0.000000    0.000000    0.000000
  0.043246493   -4.603290   17.616629 -101.446735   -0.438208    0.000000    0.000000    0.000000    0.000000
  0.043446894   -4.655756   15.638993 -101.328189    0.815818    0.000000    0.000000    0.000000    0.000000
  0.043647295   -4.706892   13.650536 -102.061549    6.230998    0.000000    0.000000    0.000000    0.000000
  0.043847695   -4.759021   11.702758 -101.999533    8.639135    0.000000    0.000000    0.000000    0.000000
  0.044048096   -4.810786    9.733226 -101.905214   18.442259    0.000000    0.000000    0.000000    0.000000
  0.044248497   -4.860451    7.776206 -102.019905    1.849820    0.000000    0.000000    0.000000    0.000000
  0.044448898   -4.910993    5.823887 -102.666434   20.819439    0.000000    0.000000    0.000000    0.000000
  0.044649299   -4.956298    3.891004 -100.805459   15.262341    0.000000    0.000000    0.000000    0.000000
  0.044849699   -4.999819    1.959992 -102.384290   13.608188    0.000000    0.000000    0.000000    0.000000
  0.045050100   -5.044572    0.020985 -100.827078   10.489589    0.000000    0.000000    0.000000    0.000000
  0.045250501   -5.085351   -1.879398 -101.248142   19.148685    0.000000    0.000000    0.000000    0.000000
  0.045450902   -5.127060   -3.766724 -103.643237    4.522397    0.000000    0.000000    0.000000    0.000000
  0.045651303   -5.172017   -5.651928 -101.969843    3.044318    0.000000    0.000000    0.000000    0.000000
  0.045851703   -5.212384   -7.542465 -102.437483   -1.285690    0.000000    0.000000    0.000000    0.000000
  0.046052104   -5.252766   -9.419341 -101.761099   17.135263    0.000000    0.000000    0.000000    0.000000
  0.046252505   -5.293995  -11.274484 -100.421446   10.113626    0.000000    0.000000    0.000000    0.000000
  0.046452906   -5.333093  -13.145095 -103.460226   10.689607    0.000000    0.000000    0.000000    0.000000
  0.046653307   -5.367976  -15.006113 -101.212932    4.217354    0.000000    0.000000    0.000000    0.000000
  0.046853707   -5.402133  -16.847477 -102.139247    3.512625    0.000000    0.000000    0.000000    0.000000
  0.047054108   -5.435862  -18.695030 -101.487621   -7.369998    0.000000    0.000000    0.000000    0.000000
  0.047254509   -5.469568  -20.519037 -103.991503    1.121040    0.000000    0.000000    0.000000    0.000000
  0.047454910   -5.500493  -22.317507 -101.412043  -10.406043    0.000000    0.000000    0.000000    0.000000
  0.047655311   -5.531025  -24.090343 -102.631469    7.173324    0.000000    0.000000    0.000000    0.000000
  0.047855711   -5.562694  -25.860064 -102.097230   -0.023565    0.000000    0.000000    0.000000    0.000000
  0.048056112   -5.591335  -27.633741 -101.205389   -0.160222    0.000000    0.000000    0.000000    0.000000
  0.048256513   -5.620818  -29.383265 -102.263576   18.314941    0.000000    0.000000    0.000000    0.000000
  0.048456914   -5.649516  -31.116341 -104.182797   28.187365    0.000000    0.000000    0.000000    0.000000
  0.048657315   -5.674330  -32.875881 -104.208355    2.895105    0.000000    0.000000    0.000000    0.000000
  0.048857715   -5.701843  -34.614510 -102.288915    7.428922    0.000000    0.000000    0.000000    0.000000
  0.049058116   -5.724236  -36.344990 -103.702949    0.794856    0.000000    0.000000    0.000000    0.000000
  0.049258517   -5.748941  -38.035877 -105.139882   18.306530    0.000000    0.000000    0.000000    0.000000
  0.049458918   -5.771039  -39.746548 -106.242260    2.785034    0.000000    0.000000    0.000000    0.000000
  0.049659319   -5.795732  -41.427692 -102.753754    7.993546    0.000000    0.000000    0.000000    0.000000
  0.049859719   -5.818338  -43.117077 -104.721062   -1.117307    0.000000    0.000000    0.000000    0.000000
  0.050060120   -5.837691  -44.807602 -102.832942   11.636744    0.000000    0.000000    0.000000    0.000000
  0.050260521   -5.856067  -46.490704 -103.323558   22.634747    0.000000    0.000000    0.000000    0.000000
  0.050460922   -5.873680  -48.165123 -102.725668   10.878848    0.000000    0.000000    0.000000    0.000000
  0.050661323   -5.885743  -49.815453 -104.435184   13.681311    0.000000    0.000000    0.000000    0.000000
  0.050861723   -5.896001  -51.449249 -101.563829    9.889404    0.000000    0.000000    0.000000    0.000000
  0.051062124   -5.909496  -53.069553 -104.030013   -1.011416    0.000000    0.000000    0.000000    0.000000
  0.051262525   -5.921681  -54.644043 -100.346747    6.589486    0.000000    0.000000    0.000000    0.000000
  0.051462926   -5.936957  -56.210686 -102.368062   12.438107    0.000000    0.000000    0.000000    0.000000
  0.051663327   -5.948371  -57.759159 -100.471872   17.882675    0.000000    0.000000    0.000000    0.000000
  0.051863727   -5.963336  -59.310059 -101.640940    6.450882    0.000000    0.000000    0.000000    0.000000
  0.052064128   -5.977213  -60.859726 -103.827706    4.737726    0.000000    0.000000    0.000000    0.000000
  0.052264529   -5.990264  -62.418232 -102.454534    0.610352    0.000000    0.000000    0.000000    0.000000
  0.052464930   -6.008181  -63.980156 -102.508486   -6.785732    0.000000    0.000000    0.000000    0.000000
  0.052665331   -6.022685  -65.547462 -101.775890   -5.040323    0.000000    0.000000    0.000000    0.000000
  0.052865731   -6.032986  -67.108437 -101.635622   -6.206109    0.000000    0.000000    0.000000    0.000000
