! Anritsu VNA Master:                     Model: MS2036C/10/77
! SN:                                  1601066
! /bd0/18may09/252.ew.m3.s2p
! Existing Calibration Information:
! TYPE:                         Current Settings,       Active Cal Settings
! TIME:             	   05/09/2018 08:10:45 AM,    05/09/2018 08:04:56 AM
! INTERNAL TEMP:    	                   41.8 C,                    42.3 C
! # POINTS:         	                      500,                       500
! START FREQ:       	               20.000 MHz,                20.000 MHz
! STOP FREQ:        	              120.000 MHz,               120.000 MHz
! SOURCE POWER:     	                     High,                      High
! IFBW:             	                    50 Hz,                     50 Hz
! AVG FACTOR:       	                       1 ,                        1 
! REF PLANE 1:      	                     0 mm,                      0 mm
! REF PLANE 2:      	                     0 mm,                      0 mm
! CAL TYPE:         	                 Full S11,                  Full S11
! CAL METHOD:       	                     SOLT,                      SOLT
! CAL LINE TYPE:    	                     Coax,                      Coax
! DUT PORT 1:       	                K-Conn(F),                 K-Conn(F)
! DUT PORT 2:       	                K-Conn(F),                 K-Conn(F)
! CAL STATUS:       	        OK: Accuracy High,                        --
# GHZ S DB R 50.0
! FREQ.GHZ       S11DB        S11A       S21DB        S21A       S12DB        S12A       S22DB        S22A
  0.020000000   -0.599657 -124.205681  -90.849288   33.190125    0.000000    0.000000    0.000000    0.000000
  0.020200401   -0.597070 -125.659500  -91.458287   31.143078    0.000000    0.000000    0.000000    0.000000
  0.020400802   -0.598238 -127.082253  -91.467648   32.844032    0.000000    0.000000    0.000000    0.000000
  0.020601202   -0.598608 -128.544205  -92.304997   28.531666    0.000000    0.000000    0.000000    0.000000
  0.020801603   -0.602812 -130.023956  -91.800234   32.890030    0.000000    0.000000    0.000000    0.000000
  0.021002004   -0.609173 -131.527481  -92.045229   30.099329    0.000000    0.000000    0.000000    0.000000
  0.021202405   -0.615505 -133.040894  -92.856388   33.108955    0.000000    0.000000    0.000000    0.000000
  0.021402806   -0.618982 -134.566849  -93.290994   32.316830    0.000000    0.000000    0.000000    0.000000
  0.021603206   -0.622192 -136.062149  -93.381952   33.251328    0.000000    0.000000    0.000000    0.000000
  0.021803607   -0.626117 -137.577576  -93.659085   41.047615    0.000000    0.000000    0.000000    0.000000
  0.022004008   -0.631324 -139.110519  -92.947388   36.116997    0.000000    0.000000    0.000000    0.000000
  0.022204409   -0.633078 -140.646347  -93.265688   39.469799    0.000000    0.000000    0.000000    0.000000
  0.022404810   -0.638476 -142.208435  -92.755030   39.488876    0.000000    0.000000    0.000000    0.000000
  0.022605210   -0.641054 -143.783813  -93.037621   38.710068    0.000000    0.000000    0.000000    0.000000
  0.022805611   -0.646903 -145.356476  -93.320411   37.518433    0.000000    0.000000    0.000000    0.000000
  0.023006012   -0.649274 -146.921371  -92.925245   38.008442    0.000000    0.000000    0.000000    0.000000
  0.023206413   -0.649615 -148.503235  -92.782998   35.051136    0.000000    0.000000    0.000000    0.000000
  0.023406814   -0.651962 -150.073776  -92.320839   36.587959    0.000000    0.000000    0.000000    0.000000
  0.023607214   -0.655076 -151.665710  -93.129180   34.966976    0.000000    0.000000    0.000000    0.000000
  0.023807615   -0.664372 -153.251785  -92.494889   32.236748    0.000000    0.000000    0.000000    0.000000
  0.024008016   -0.674947 -154.862640  -92.576380   30.067680    0.000000    0.000000    0.000000    0.000000
  0.024208417   -0.682919 -156.491333  -92.623176   25.222416    0.000000    0.000000    0.000000    0.000000
  0.024408818   -0.690877 -158.137329  -92.534116   24.716648    0.000000    0.000000    0.000000    0.000000
  0.024609218   -0.700282 -159.767166  -92.700534   23.102421    0.000000    0.000000    0.000000    0.000000
  0.024809619   -0.709726 -161.405533  -93.253034   21.730412    0.000000    0.000000    0.000000    0.000000
  0.025010020   -0.720169 -163.051361  -93.196400   22.078012    0.000000    0.000000    0.000000    0.000000
  0.025210421   -0.732139 -164.705536  -93.287046   22.762846    0.000000    0.000000    0.000000    0.000000
  0.025410822   -0.746780 -166.380356  -94.008763   25.033878    0.000000    0.000000    0.000000    0.000000
  0.025611222   -0.761317 -168.077866  -93.982465   21.937458    0.000000    0.000000    0.000000    0.000000
  0.025811623   -0.771233 -169.788101  -94.538522   22.806490    0.000000    0.000000    0.000000    0.000000
  0.026012024   -0.779344 -171.482315  -95.271450   19.344358    0.000000    0.000000    0.000000    0.000000
  0.026212425   -0.791928 -173.204117  -94.921271   15.011826    0.000000    0.000000    0.000000    0.000000
  0.026412826   -0.804503 -174.923767  -95.294612   12.080027    0.000000    0.000000    0.000000    0.000000
  0.026613226   -0.818984 -176.656784  -95.642644   18.601164    0.000000    0.000000    0.000000    0.000000
  0.026813627   -0.834928 -178.403091  -96.070703   21.041647    0.000000    0.000000    0.000000    0.000000
  0.027014028   -0.850904  179.839096  -95.580100   19.449759    0.000000    0.000000    0.000000    0.000000
  0.027214429   -0.866721  178.078369  -95.727704   20.206993    0.000000    0.000000    0.000000    0.000000
  0.027414830   -0.881782  176.293182  -96.305977   18.437069    0.000000    0.000000    0.000000    0.000000
  0.027615230   -0.899362  174.489807  -96.426809   16.633194    0.000000    0.000000    0.000000    0.000000
  0.027815631   -0.919135  172.709290  -96.393573   20.325409    0.000000    0.000000    0.000000    0.000000
  0.028016032   -0.940199  170.886963  -96.401230   23.408682    0.000000    0.000000    0.000000    0.000000
  0.028216433   -0.963054  169.074249  -96.900602   23.303211    0.000000    0.000000    0.000000    0.000000
  0.028416834   -0.983098  167.246231  -96.435629   23.686584    0.000000    0.000000    0.000000    0.000000
  0.028617234   -1.001455  165.421616  -96.497300   20.000984    0.000000    0.000000    0.000000    0.000000
  0.028817635   -1.022953  163.602020  -95.361399   28.368296    0.000000    0.000000    0.000000    0.000000
  0.029018036   -1.042249  161.798309  -95.710087   28.022602    0.000000    0.000000    0.000000    0.000000
  0.029218437   -1.064513  159.976990  -95.842313   17.222942    0.000000    0.000000    0.000000    0.000000
  0.029418838   -1.089656  158.142838  -95.725962   17.604359    0.000000    0.000000    0.000000    0.000000
  0.029619238   -1.117511  156.281250  -96.168786   18.132536    0.000000    0.000000    0.000000    0.000000
  0.029819639   -1.147074  154.415588  -96.155701   25.373774    0.000000    0.000000    0.000000    0.000000
  0.030020040   -1.177596  152.502213  -95.907136   19.752867    0.000000    0.000000    0.000000    0.000000
  0.030220441   -1.207495  150.571320  -96.857544   19.960337    0.000000    0.000000    0.000000    0.000000
  0.030420842   -1.238263  148.662827  -96.814435   16.021412    0.000000    0.000000    0.000000    0.000000
  0.030621242   -1.269245  146.758698  -96.445094   13.311327    0.000000    0.000000    0.000000    0.000000
  0.030821643   -1.303970  144.838104  -96.554517   14.209892    0.000000    0.000000    0.000000    0.000000
  0.031022044   -1.340065  142.905716  -96.677659    9.894117    0.000000    0.000000    0.000000    0.000000
  0.031222445   -1.373435  140.973511  -97.728892    7.790974    0.000000    0.000000    0.000000    0.000000
  0.031422846   -1.411149  138.975754  -97.650898   12.197287    0.000000    0.000000    0.000000    0.000000
  0.031623246   -1.447660  136.983658  -97.524380    9.311913    0.000000    0.000000    0.000000    0.000000
  0.031823647   -1.483237  134.974487  -96.837550   10.125251    0.000000    0.000000    0.000000    0.000000
  0.032024048   -1.519319  132.995132  -96.823135   16.024502    0.000000    0.000000    0.000000    0.000000
  0.032224449   -1.554547  131.004974  -98.373509   -1.034907    0.000000    0.000000    0.000000    0.000000
  0.032424850   -1.592453  129.031448  -98.305501   15.305105    0.000000    0.000000    0.000000    0.000000
  0.032625251   -1.630806  127.039413  -98.487447   13.628326    0.000000    0.000000    0.000000    0.000000
  0.032825651   -1.672473  125.065063  -96.764157    8.466352    0.000000    0.000000    0.000000    0.000000
  0.033026052   -1.717838  123.099731  -98.345124    4.912378    0.000000    0.000000    0.000000    0.000000
  0.033226453   -1.769280  121.108147  -98.617035   15.039660    0.000000    0.000000    0.000000    0.000000
  0.033426854   -1.823150  119.083336  -98.735937   18.649540    0.000000    0.000000    0.000000    0.000000
  0.033627255   -1.879758  117.059235  -99.794430   20.258806    0.000000    0.000000    0.000000    0.000000
  0.033827655   -1.935721  114.991219  -97.388301    6.610721    0.000000    0.000000    0.000000    0.000000
  0.034028056   -1.986783  112.878670  -98.164554   19.786257    0.000000    0.000000    0.000000    0.000000
  0.034228457   -2.039573  110.748131  -99.386200   18.564320    0.000000    0.000000    0.000000    0.000000
  0.034428858   -2.090361  108.630814  -97.916758   21.249645    0.000000    0.000000    0.000000    0.000000
  0.034629259   -2.136087  106.515182  -97.686031   16.429232    0.000000    0.000000    0.000000    0.000000
  0.034829659   -2.182365  104.402344  -99.126399    8.117176    0.000000    0.000000    0.000000    0.000000
  0.035030060   -2.229085  102.300499  -99.548058    8.735407    0.000000    0.000000    0.000000    0.000000
  0.035230461   -2.273238  100.218208  -98.633856    9.261688    0.000000    0.000000    0.000000    0.000000
  0.035430862   -2.319761   98.114105  -99.084832    7.383646    0.000000    0.000000    0.000000    0.000000
  0.035631263   -2.367218   96.040688  -97.593345    5.189203    0.000000    0.000000    0.000000    0.000000
  0.035831663   -2.415377   93.988274  -98.361543   12.629627    0.000000    0.000000    0.000000    0.000000
  0.036032064   -2.463969   91.955231  -99.481338    5.836052    0.000000    0.000000    0.000000    0.000000
  0.036232465   -2.514972   89.920227  -98.109621   11.171863    0.000000    0.000000    0.000000    0.000000
  0.036432866   -2.573073   87.890427  -99.206309    0.110737    0.000000    0.000000    0.000000    0.000000
  0.036633267   -2.630699   85.868332  -99.241258    6.894965    0.000000    0.000000    0.000000    0.000000
  0.036833667   -2.689259   83.827049 -100.102035   -3.578977    0.000000    0.000000    0.000000    0.000000
  0.037034068   -2.758047   81.770714  -98.714480   -0.439334    0.000000    0.000000    0.000000    0.000000
  0.037234469   -2.823605   79.684380 -100.539112    5.893515    0.000000    0.000000    0.000000    0.000000
  0.037434870   -2.887192   77.581200 -100.033504    7.193233    0.000000    0.000000    0.000000    0.000000
  0.037635271   -2.949472   75.484016 -100.770753    7.997946    0.000000    0.000000    0.000000    0.000000
  0.037835671   -3.009558   73.338478 -101.010497   11.562455    0.000000    0.000000    0.000000    0.000000
  0.038036072   -3.068629   71.175705 -101.583467    0.695839    0.000000    0.000000    0.000000    0.000000
  0.038236473   -3.127830   68.979210 -100.488916   11.297570    0.000000    0.000000    0.000000    0.000000
  0.038436874   -3.188518   66.825531  -99.892636   11.520818    0.000000    0.000000    0.000000    0.000000
  0.038637275   -3.245825   64.701721  -98.904050   10.935782    0.000000    0.000000    0.000000    0.000000
  0.038837675   -3.300099   62.605038  -99.592949    7.630122    0.000000    0.000000    0.000000    0.000000
  0.039038076   -3.354165   60.555351  -99.882716   21.518497    0.000000    0.000000    0.000000    0.000000
  0.039238477   -3.411833   58.515965 -100.778580   17.974125    0.000000    0.000000    0.000000    0.000000
  0.039438878   -3.469933   56.506023 -100.076800   14.270611    0.000000    0.000000    0.000000    0.000000
  0.039639279   -3.534368   54.464226  -99.996610   18.438318    0.000000    0.000000    0.000000    0.000000
  0.039839679   -3.602138   52.430614  -99.387314    8.353718    0.000000    0.000000    0.000000    0.000000
  0.040040080   -3.668282   50.360416  -99.616718   14.249518    0.000000    0.000000    0.000000    0.000000
  0.040240481   -3.738292   48.277340 -100.561822   21.175655    0.000000    0.000000    0.000000    0.000000
  0.040440882   -3.803604   46.214851 -100.883934   13.697144    0.000000    0.000000    0.000000    0.000000
  0.040641283   -3.870292   44.134331 -102.620542   10.544209    0.000000    0.000000    0.000000    0.000000
  0.040841683   -3.931522   42.058399 -100.178716    4.150201    0.000000    0.000000    0.000000    0.000000
  0.041042084   -3.995334   39.981228 -100.573721    9.726646    0.000000    0.000000    0.000000    0.000000
  0.041242485   -4.059639   37.918240 -100.887623    6.199359    0.000000    0.000000    0.000000    0.000000
  0.041442886   -4.119643   35.818245 -100.665560    8.094384    0.000000    0.000000    0.000000    0.000000
  0.041643287   -4.176057   33.758873 -100.200347   -3.001086    0.000000    0.000000    0.000000    0.000000
  0.041843687   -4.229099   31.693144 -100.501750    8.297204    0.000000    0.000000    0.000000    0.000000
  0.042044088   -4.284706   29.646372 -100.038162    7.610011    0.000000    0.000000    0.000000    0.000000
  0.042244489   -4.337135   27.636513 -100.764003   -7.057318    0.000000    0.000000    0.000000    0.000000
  0.042444890   -4.391748   25.611282 -100.717101   -8.889503    0.000000    0.000000    0.000000    0.000000
  0.042645291   -4.443417   23.618843 -102.019587   15.516143    0.000000    0.000000    0.000000    0.000000
  0.042845691   -4.496109   21.632050 -100.912161    4.729653    0.000000    0.000000    0.000000    0.000000
  0.043046092   -4.548923   19.606110 -101.494116   13.515964    0.000000    0.000000    0.000000    0.000000
  0.043246493   -4.598284   17.629318 -103.168126    9.579920    0.000000    0.000000    0.000000    0.000000
  0.043446894   -4.649249   15.649239 -101.836046   -7.129319    0.000000    0.000000    0.000000    0.000000
  0.043647295   -4.701923   13.679054 -102.049407   10.030255    0.000000    0.000000    0.000000    0.000000
  0.043847695   -4.753838   11.726124 -103.886033    5.063299    0.000000    0.000000    0.000000    0.000000
  0.044048096   -4.804312    9.751082 -102.567542   23.089001    0.000000    0.000000    0.000000    0.000000
  0.044248497   -4.854976    7.791754 -103.032957    9.974764    0.000000    0.000000    0.000000    0.000000
  0.044448898   -4.904182    5.843120 -101.275391   14.442963    0.000000    0.000000    0.000000    0.000000
  0.044649299   -4.953019    3.914683 -102.274261    0.913375    0.000000    0.000000    0.000000    0.000000
  0.044849699   -4.994120    1.974599 -101.316385    9.605393    0.000000    0.000000    0.000000    0.000000
  0.045050100   -5.040162    0.044044 -101.522831    6.649695    0.000000    0.000000    0.000000    0.000000
  0.045250501   -5.080789   -1.868358  -99.913083    7.695498    0.000000    0.000000    0.000000    0.000000
  0.045450902   -5.123208   -3.743386 -103.826200    8.306334    0.000000    0.000000    0.000000    0.000000
  0.045651303   -5.168933   -5.631617 -102.231981   18.828297    0.000000    0.000000    0.000000    0.000000
  0.045851703   -5.211035   -7.517373 -100.063563   -8.799219    0.000000    0.000000    0.000000    0.000000
  0.046052104   -5.247900   -9.414847 -101.409399   20.408047    0.000000    0.000000    0.000000    0.000000
  0.046252505   -5.290612  -11.251130 -101.442315    5.212400    0.000000    0.000000    0.000000    0.000000
  0.046452906   -5.328337  -13.125384 -100.471612    9.449951    0.000000    0.000000    0.000000    0.000000
  0.046653307   -5.363812  -14.996552 -101.294276    0.843346    0.000000    0.000000    0.000000    0.000000
  0.046853707   -5.398637  -16.835258 -101.276881    1.155261    0.000000    0.000000    0.000000    0.000000
  0.047054108   -5.434867  -18.677658 -100.929934   -5.175839    0.000000    0.000000    0.000000    0.000000
  0.047254509   -5.466217  -20.502619 -100.394677   -2.329917    0.000000    0.000000    0.000000    0.000000
  0.047454910   -5.500261  -22.295065 -100.699140  -11.028255    0.000000    0.000000    0.000000    0.000000
  0.047655311   -5.528974  -24.072315 -101.437947   -2.967940    0.000000    0.000000    0.000000    0.000000
  0.047855711   -5.561042  -25.859373 -101.059897   -3.611919    0.000000    0.000000    0.000000    0.000000
  0.048056112   -5.591763  -27.626722 -101.720700   -0.394876    0.000000    0.000000    0.000000    0.000000
  0.048256513   -5.620757  -29.367470 -102.433982  -10.383574    0.000000    0.000000    0.000000    0.000000
  0.048456914   -5.648939  -31.123919 -103.591368   -9.954496    0.000000    0.000000    0.000000    0.000000
  0.048657315   -5.673284  -32.863026 -103.998564    5.074762    0.000000    0.000000    0.000000    0.000000
  0.048857715   -5.701286  -34.614391 -102.528141   -5.077876    0.000000    0.000000    0.000000    0.000000
  0.049058116   -5.722479  -36.330280 -102.630552    3.158715    0.000000    0.000000    0.000000    0.000000
  0.049258517   -5.748417  -38.026962 -103.204901    0.083754    0.000000    0.000000    0.000000    0.000000
  0.049458918   -5.770821  -39.746365 -103.477874   13.122705    0.000000    0.000000    0.000000    0.000000
  0.049659319   -5.794455  -41.427113 -102.803574    7.158129    0.000000    0.000000    0.000000    0.000000
  0.049859719   -5.816610  -43.114681 -102.087286    0.718644    0.000000    0.000000    0.000000    0.000000
  0.050060120   -5.838024  -44.801720 -106.260644    8.706161    0.000000    0.000000    0.000000    0.000000
  0.050260521   -5.856032  -46.484257 -102.231049   30.830061    0.000000    0.000000    0.000000    0.000000
  0.050460922   -5.872989  -48.176918 -103.213334    9.138492    0.000000    0.000000    0.000000    0.000000
  0.050661323   -5.885021  -49.817852 -102.094620   11.770645    0.000000    0.000000    0.000000    0.000000
  0.050861723   -5.897437  -51.453541 -103.173862    2.077340    0.000000    0.000000    0.000000    0.000000
  0.051062124   -5.910895  -53.079185 -102.587848   -7.131024    0.000000    0.000000    0.000000    0.000000
  0.051262525   -5.923316  -54.658066 -103.280747   -2.643252    0.000000    0.000000    0.000000    0.000000
  0.051462926   -5.938422  -56.210636 -103.016283   19.660713    0.000000    0.000000    0.000000    0.000000
  0.051663327   -5.946618  -57.760006 -102.400622   17.984467    0.000000    0.000000    0.000000    0.000000
  0.051863727   -5.962864  -59.308594 -102.006722    4.431440    0.000000    0.000000    0.000000    0.000000
  0.052064128   -5.979671  -60.870789 -101.496512    5.832922    0.000000    0.000000    0.000000    0.000000
  0.052264529   -5.991283  -62.431850 -102.843975    6.148013    0.000000    0.000000    0.000000    0.000000
  0.052464930   -6.008813  -63.993660 -101.736352    7.309200    0.000000    0.000000    0.000000    0.000000
  0.052665331   -6.023945  -65.544685 -102.112041  -11.839179    0.000000    0.000000    0.000000    0.000000
  0.052865731   -6.034703  -67.114624 -102.664138   -8.262119    0.000000    0.000000    0.000000    0.000000
