! Anritsu VNA Master:                     Model: MS2036C/10/77
! SN:                                  1601066
! /bd0/18may09/252.ew.m10.s2p
! Existing Calibration Information:
! TYPE:                         Current Settings,       Active Cal Settings
! TIME:             	   05/09/2018 08:27:27 AM,    05/09/2018 08:17:55 AM
! INTERNAL TEMP:    	                   40.8 C,                    41.3 C
! # POINTS:         	                      500,                       500
! START FREQ:       	               20.000 MHz,                20.000 MHz
! STOP FREQ:        	              120.000 MHz,               120.000 MHz
! SOURCE POWER:     	                     High,                      High
! IFBW:             	                    50 Hz,                     50 Hz
! AVG FACTOR:       	                       1 ,                        1 
! REF PLANE 1:      	                     0 mm,                      0 mm
! REF PLANE 2:      	                     0 mm,                      0 mm
! CAL TYPE:         	                 Full S11,                  Full S11
! CAL METHOD:       	                     SOLT,                      SOLT
! CAL LINE TYPE:    	                     Coax,                      Coax
! DUT PORT 1:       	                K-Conn(F),                 K-Conn(F)
! DUT PORT 2:       	                K-Conn(F),                 K-Conn(F)
! CAL STATUS:       	        OK: Accuracy High,                        --
# GHZ S DB R 50.0
! FREQ.GHZ       S11DB        S11A       S21DB        S21A       S12DB        S12A       S22DB        S22A
  0.020000000   -0.593843 -124.325851  -90.767478   32.695889    0.000000    0.000000    0.000000    0.000000
  0.020200401   -0.592126 -125.771919  -91.378043   30.406773    0.000000    0.000000    0.000000    0.000000
  0.020400802   -0.593691 -127.219894  -92.414161   34.114201    0.000000    0.000000    0.000000    0.000000
  0.020601202   -0.593484 -128.652740  -91.556665   29.843655    0.000000    0.000000    0.000000    0.000000
  0.020801603   -0.599623 -130.139633  -92.159914   27.106710    0.000000    0.000000    0.000000    0.000000
  0.021002004   -0.605575 -131.654388  -92.872533   34.396282    0.000000    0.000000    0.000000    0.000000
  0.021202405   -0.611565 -133.165314  -92.671707   33.621578    0.000000    0.000000    0.000000    0.000000
  0.021402806   -0.616302 -134.682846  -92.933766   34.286026    0.000000    0.000000    0.000000    0.000000
  0.021603206   -0.618463 -136.194885  -92.758193   31.630281    0.000000    0.000000    0.000000    0.000000
  0.021803607   -0.621547 -137.715027  -93.469225   33.696434    0.000000    0.000000    0.000000    0.000000
  0.022004008   -0.629374 -139.232941  -92.988063   32.548248    0.000000    0.000000    0.000000    0.000000
  0.022204409   -0.631991 -140.768478  -92.774184   41.431675    0.000000    0.000000    0.000000    0.000000
  0.022404810   -0.637765 -142.334061  -92.314463   36.401749    0.000000    0.000000    0.000000    0.000000
  0.022605210   -0.642199 -143.905502  -92.336825   36.516922    0.000000    0.000000    0.000000    0.000000
  0.022805611   -0.640538 -145.488007  -93.425769   40.203308    0.000000    0.000000    0.000000    0.000000
  0.023006012   -0.643144 -147.068024  -93.354973   37.044579    0.000000    0.000000    0.000000    0.000000
  0.023206413   -0.644931 -148.632950  -93.270600   33.981300    0.000000    0.000000    0.000000    0.000000
  0.023406814   -0.650284 -150.205963  -92.167625   35.861584    0.000000    0.000000    0.000000    0.000000
  0.023607214   -0.655681 -151.778763  -92.842958   31.954496    0.000000    0.000000    0.000000    0.000000
  0.023807615   -0.663627 -153.373245  -92.559947   31.917597    0.000000    0.000000    0.000000    0.000000
  0.024008016   -0.672650 -154.993317  -92.523608   32.949837    0.000000    0.000000    0.000000    0.000000
  0.024208417   -0.682462 -156.633484  -92.590279   29.400578    0.000000    0.000000    0.000000    0.000000
  0.024408818   -0.690990 -158.258453  -92.683341   24.834526    0.000000    0.000000    0.000000    0.000000
  0.024609218   -0.699777 -159.898590  -92.323279   26.762196    0.000000    0.000000    0.000000    0.000000
  0.024809619   -0.709594 -161.531082  -92.841876   21.520025    0.000000    0.000000    0.000000    0.000000
  0.025010020   -0.721347 -163.182632  -93.222557   21.830175    0.000000    0.000000    0.000000    0.000000
  0.025210421   -0.733602 -164.837097  -93.620852   24.056053    0.000000    0.000000    0.000000    0.000000
  0.025410822   -0.747966 -166.507629  -94.283065   21.765022    0.000000    0.000000    0.000000    0.000000
  0.025611222   -0.761086 -168.208176  -94.147597   19.634901    0.000000    0.000000    0.000000    0.000000
  0.025811623   -0.772960 -169.909607  -94.185829   18.392719    0.000000    0.000000    0.000000    0.000000
  0.026012024   -0.781180 -171.618851  -94.500667   19.302149    0.000000    0.000000    0.000000    0.000000
  0.026212425   -0.793258 -173.335754  -94.926316   21.300194    0.000000    0.000000    0.000000    0.000000
  0.026412826   -0.808136 -175.056061  -95.134656   22.054802    0.000000    0.000000    0.000000    0.000000
  0.026613226   -0.821107 -176.787964  -95.047533   20.707563    0.000000    0.000000    0.000000    0.000000
  0.026813627   -0.837647 -178.533295  -94.772683   20.491220    0.000000    0.000000    0.000000    0.000000
  0.027014028   -0.854728  179.711182  -94.911858   20.779015    0.000000    0.000000    0.000000    0.000000
  0.027214429   -0.869080  177.940704  -95.546932   23.101646    0.000000    0.000000    0.000000    0.000000
  0.027414830   -0.886205  176.162949  -95.634902   26.206028    0.000000    0.000000    0.000000    0.000000
  0.027615230   -0.902856  174.358231  -96.662039   17.602341    0.000000    0.000000    0.000000    0.000000
  0.027815631   -0.923850  172.567673  -96.636785   21.928223    0.000000    0.000000    0.000000    0.000000
  0.028016032   -0.944823  170.755493  -95.772274   22.060434    0.000000    0.000000    0.000000    0.000000
  0.028216433   -0.966789  168.948853  -96.800786   25.449741    0.000000    0.000000    0.000000    0.000000
  0.028416834   -0.987730  167.120163  -96.209001   20.576078    0.000000    0.000000    0.000000    0.000000
  0.028617234   -1.007669  165.296829  -96.797385   22.310188    0.000000    0.000000    0.000000    0.000000
  0.028817635   -1.027484  163.481979  -96.198360   24.370283    0.000000    0.000000    0.000000    0.000000
  0.029018036   -1.048079  161.676468  -96.219205   23.040232    0.000000    0.000000    0.000000    0.000000
  0.029218437   -1.070154  159.848038  -95.422613   23.980783    0.000000    0.000000    0.000000    0.000000
  0.029418838   -1.095509  158.020004  -96.379195   21.497023    0.000000    0.000000    0.000000    0.000000
  0.029619238   -1.123490  156.169128  -96.489691   20.194944    0.000000    0.000000    0.000000    0.000000
  0.029819639   -1.152910  154.294022  -95.774054   16.347462    0.000000    0.000000    0.000000    0.000000
  0.030020040   -1.184953  152.386780  -96.720409   10.400101    0.000000    0.000000    0.000000    0.000000
  0.030220441   -1.214748  150.455048  -95.921955   16.285791    0.000000    0.000000    0.000000    0.000000
  0.030420842   -1.244262  148.538620  -95.589465   16.818245    0.000000    0.000000    0.000000    0.000000
  0.030621242   -1.278265  146.637436  -96.493398   11.788783    0.000000    0.000000    0.000000    0.000000
  0.030821643   -1.311992  144.718246  -97.196550   10.980628    0.000000    0.000000    0.000000    0.000000
  0.031022044   -1.347161  142.793732  -96.683660   11.920395    0.000000    0.000000    0.000000    0.000000
  0.031222445   -1.381826  140.870697  -96.551077   10.854521    0.000000    0.000000    0.000000    0.000000
  0.031422846   -1.420242  138.867004  -97.379849   17.430384    0.000000    0.000000    0.000000    0.000000
  0.031623246   -1.456072  136.869476  -96.310806   12.471602    0.000000    0.000000    0.000000    0.000000
  0.031823647   -1.491483  134.875076  -96.944300    9.329530    0.000000    0.000000    0.000000    0.000000
  0.032024048   -1.525719  132.884918  -97.733605   12.357191    0.000000    0.000000    0.000000    0.000000
  0.032224449   -1.561435  130.902618  -97.585353    9.550318    0.000000    0.000000    0.000000    0.000000
  0.032424850   -1.598624  128.937393  -97.810921    4.491161    0.000000    0.000000    0.000000    0.000000
  0.032625251   -1.638255  126.963875  -97.821686    7.028767    0.000000    0.000000    0.000000    0.000000
  0.032825651   -1.679898  124.986954  -97.088600    8.655015    0.000000    0.000000    0.000000    0.000000
  0.033026052   -1.726030  123.010803  -97.958241    8.462413    0.000000    0.000000    0.000000    0.000000
  0.033226453   -1.776891  121.001900  -98.056566   12.667300    0.000000    0.000000    0.000000    0.000000
  0.033426854   -1.834013  119.012138  -99.199600   11.385558    0.000000    0.000000    0.000000    0.000000
  0.033627255   -1.889465  116.981621  -97.416049   18.775866    0.000000    0.000000    0.000000    0.000000
  0.033827655   -1.941416  114.900955  -97.804984   20.559034    0.000000    0.000000    0.000000    0.000000
  0.034028056   -1.995369  112.792282  -97.931976   14.510541    0.000000    0.000000    0.000000    0.000000
  0.034228457   -2.047316  110.690331  -98.608756   16.914326    0.000000    0.000000    0.000000    0.000000
  0.034428858   -2.096232  108.533226  -97.990449   16.080336    0.000000    0.000000    0.000000    0.000000
  0.034629259   -2.143893  106.437225  -97.931298    9.247719    0.000000    0.000000    0.000000    0.000000
  0.034829659   -2.189806  104.327133  -97.730933   12.361370    0.000000    0.000000    0.000000    0.000000
  0.035030060   -2.232358  102.234322  -97.357649   14.300914    0.000000    0.000000    0.000000    0.000000
  0.035230461   -2.278923  100.138695  -97.772139   11.887863    0.000000    0.000000    0.000000    0.000000
  0.035430862   -2.326244   98.063843  -98.265381   21.408909    0.000000    0.000000    0.000000    0.000000
  0.035631263   -2.371570   95.990929  -99.424670   17.786234    0.000000    0.000000    0.000000    0.000000
  0.035831663   -2.419066   93.927078  -96.451227    6.875636    0.000000    0.000000    0.000000    0.000000
  0.036032064   -2.469423   91.895493  -98.737544    2.020740    0.000000    0.000000    0.000000    0.000000
  0.036232465   -2.518627   89.876183  -98.669722   10.317101    0.000000    0.000000    0.000000    0.000000
  0.036432866   -2.573992   87.848297  -99.313276    4.934692    0.000000    0.000000    0.000000    0.000000
  0.036633267   -2.632814   85.832306  -98.221975    4.684978    0.000000    0.000000    0.000000    0.000000
  0.036833667   -2.696230   83.799629  -99.587602    2.976011    0.000000    0.000000    0.000000    0.000000
  0.037034068   -2.759362   81.730728 -100.190969    6.931014    0.000000    0.000000    0.000000    0.000000
  0.037234469   -2.823985   79.628296  -98.336157    2.985549    0.000000    0.000000    0.000000    0.000000
  0.037434870   -2.890312   77.545403 -100.077987    6.810268    0.000000    0.000000    0.000000    0.000000
  0.037635271   -2.951633   75.447311 -100.312943    8.086975    0.000000    0.000000    0.000000    0.000000
  0.037835671   -3.012851   73.312180  -98.561337    4.616650    0.000000    0.000000    0.000000    0.000000
  0.038036072   -3.071177   71.144882  -98.130227   16.389002    0.000000    0.000000    0.000000    0.000000
  0.038236473   -3.128576   68.948975  -99.983519   -1.083927    0.000000    0.000000    0.000000    0.000000
  0.038436874   -3.189594   66.797562 -100.611843    6.092928    0.000000    0.000000    0.000000    0.000000
  0.038637275   -3.245949   64.679504 -102.264083    3.717376    0.000000    0.000000    0.000000    0.000000
  0.038837675   -3.299044   62.585243 -101.038117   10.230715    0.000000    0.000000    0.000000    0.000000
  0.039038076   -3.352446   60.522743 -100.497959   14.822718    0.000000    0.000000    0.000000    0.000000
  0.039238477   -3.408096   58.499428 -100.257245    7.246774    0.000000    0.000000    0.000000    0.000000
  0.039438878   -3.470209   56.471321 -101.470421   20.318979    0.000000    0.000000    0.000000    0.000000
  0.039639279   -3.534707   54.441151  -99.623826   16.169762    0.000000    0.000000    0.000000    0.000000
  0.039839679   -3.598982   52.399582  -99.321047   10.385131    0.000000    0.000000    0.000000    0.000000
  0.040040080   -3.666952   50.327499 -100.728491   12.141757    0.000000    0.000000    0.000000    0.000000
  0.040240481   -3.734289   48.254623  -98.493073    9.528526    0.000000    0.000000    0.000000    0.000000
  0.040440882   -3.802135   46.192051  -99.543932    6.013636    0.000000    0.000000    0.000000    0.000000
  0.040641283   -3.870547   44.115639 -100.500432   13.899461    0.000000    0.000000    0.000000    0.000000
  0.040841683   -3.930299   42.029408  -99.306464    4.554712    0.000000    0.000000    0.000000    0.000000
  0.041042084   -3.993635   39.981182  -99.444514   -2.896583    0.000000    0.000000    0.000000    0.000000
  0.041242485   -4.057140   37.897293 -100.689537    2.150354    0.000000    0.000000    0.000000    0.000000
  0.041442886   -4.116257   35.817902  -98.938858    5.501306    0.000000    0.000000    0.000000    0.000000
  0.041643287   -4.174206   33.739120 -101.083849   -2.828957    0.000000    0.000000    0.000000    0.000000
  0.041843687   -4.227531   31.666933 -101.428353    0.763168    0.000000    0.000000    0.000000    0.000000
  0.042044088   -4.280316   29.641874 -100.848131    9.587863    0.000000    0.000000    0.000000    0.000000
  0.042244489   -4.335072   27.611605 -100.063198    4.734590    0.000000    0.000000    0.000000    0.000000
  0.042444890   -4.388316   25.606438 -100.720548   -5.668386    0.000000    0.000000    0.000000    0.000000
  0.042645291   -4.441716   23.593708 -100.250772   -5.449196    0.000000    0.000000    0.000000    0.000000
  0.042845691   -4.493094   21.594286 -103.587236   -8.082846    0.000000    0.000000    0.000000    0.000000
  0.043046092   -4.545453   19.600628 -101.492432    4.876686    0.000000    0.000000    0.000000    0.000000
  0.043246493   -4.596695   17.614761 -102.274601   -3.934366    0.000000    0.000000    0.000000    0.000000
  0.043446894   -4.646443   15.627903 -103.535148   -4.733023    0.000000    0.000000    0.000000    0.000000
  0.043647295   -4.699160   13.644435 -104.398383   13.290280    0.000000    0.000000    0.000000    0.000000
  0.043847695   -4.749755   11.690710 -101.682916    7.042431    0.000000    0.000000    0.000000    0.000000
  0.044048096   -4.800801    9.708761 -100.898861    5.817770    0.000000    0.000000    0.000000    0.000000
  0.044248497   -4.851973    7.765035 -102.633833   11.840296    0.000000    0.000000    0.000000    0.000000
  0.044448898   -4.900864    5.823424 -102.022092   10.982396    0.000000    0.000000    0.000000    0.000000
  0.044649299   -4.949299    3.885885 -100.872560   12.956697    0.000000    0.000000    0.000000    0.000000
  0.044849699   -4.994173    1.943487 -100.879891    3.327903    0.000000    0.000000    0.000000    0.000000
  0.045050100   -5.038643    0.021462 -101.959748    7.252675    0.000000    0.000000    0.000000    0.000000
  0.045250501   -5.079878   -1.891342 -102.737046   14.262845    0.000000    0.000000    0.000000    0.000000
  0.045450902   -5.121896   -3.777334  -99.746917   18.931807    0.000000    0.000000    0.000000    0.000000
  0.045651303   -5.164776   -5.674574 -101.917809   12.467459    0.000000    0.000000    0.000000    0.000000
  0.045851703   -5.208812   -7.550169 -100.878275    5.672456    0.000000    0.000000    0.000000    0.000000
  0.046052104   -5.250457   -9.416921 -101.039172   12.256104    0.000000    0.000000    0.000000    0.000000
  0.046252505   -5.294245  -11.305551 -102.747178    1.900494    0.000000    0.000000    0.000000    0.000000
  0.046452906   -5.331580  -13.142221 -100.158164    6.141924    0.000000    0.000000    0.000000    0.000000
  0.046653307   -5.366757  -15.012321 -101.563941   -5.245616    0.000000    0.000000    0.000000    0.000000
  0.046853707   -5.404563  -16.857130 -101.625989    1.838394    0.000000    0.000000    0.000000    0.000000
  0.047054108   -5.437099  -18.704350 -103.004927    2.233204    0.000000    0.000000    0.000000    0.000000
  0.047254509   -5.467724  -20.553640 -101.300856   -5.957080    0.000000    0.000000    0.000000    0.000000
  0.047454910   -5.498601  -22.356129 -101.061361    3.620087    0.000000    0.000000    0.000000    0.000000
  0.047655311   -5.528545  -24.135109 -102.350199    2.240894    0.000000    0.000000    0.000000    0.000000
  0.047855711   -5.560366  -25.892721 -100.629400   -2.679227    0.000000    0.000000    0.000000    0.000000
  0.048056112   -5.590959  -27.664576 -103.041939    9.409646    0.000000    0.000000    0.000000    0.000000
  0.048256513   -5.621110  -29.419531 -101.395058    2.033808    0.000000    0.000000    0.000000    0.000000
  0.048456914   -5.651934  -31.169346 -102.286361    2.130880    0.000000    0.000000    0.000000    0.000000
  0.048657315   -5.676584  -32.916969 -104.607439    1.252468    0.000000    0.000000    0.000000    0.000000
  0.048857715   -5.701835  -34.656364 -103.622560   -1.162533    0.000000    0.000000    0.000000    0.000000
  0.049058116   -5.726045  -36.379776 -103.508183   11.277066    0.000000    0.000000    0.000000    0.000000
  0.049258517   -5.748961  -38.084354 -103.427883   11.470133    0.000000    0.000000    0.000000    0.000000
  0.049458918   -5.774398  -39.813400 -103.612414    8.444645    0.000000    0.000000    0.000000    0.000000
  0.049659319   -5.797756  -41.486130 -105.147647   13.583002    0.000000    0.000000    0.000000    0.000000
  0.049859719   -5.819779  -43.165718 -103.469968   23.397886    0.000000    0.000000    0.000000    0.000000
  0.050060120   -5.841029  -44.882053 -103.484303    3.172133    0.000000    0.000000    0.000000    0.000000
  0.050260521   -5.858175  -46.545086 -103.363376   21.119257    0.000000    0.000000    0.000000    0.000000
  0.050460922   -5.871866  -48.235062 -101.954139    4.897497    0.000000    0.000000    0.000000    0.000000
  0.050661323   -5.886684  -49.882996 -103.798959   10.585267    0.000000    0.000000    0.000000    0.000000
  0.050861723   -5.902172  -51.525452 -102.108570   13.992294    0.000000    0.000000    0.000000    0.000000
  0.051062124   -5.913066  -53.142574 -103.506076   18.090387    0.000000    0.000000    0.000000    0.000000
  0.051262525   -5.924556  -54.696854 -102.238413    8.245414    0.000000    0.000000    0.000000    0.000000
  0.051462926   -5.939369  -56.274727 -103.051842   17.143972    0.000000    0.000000    0.000000    0.000000
  0.051663327   -5.951944  -57.837543 -102.104791   18.206667    0.000000    0.000000    0.000000    0.000000
  0.051863727   -5.968627  -59.385475 -103.425685   11.300548    0.000000    0.000000    0.000000    0.000000
  0.052064128   -5.982748  -60.951393 -102.712155    6.146426    0.000000    0.000000    0.000000    0.000000
  0.052264529   -5.995694  -62.496300 -100.766101   16.112053    0.000000    0.000000    0.000000    0.000000
  0.052464930   -6.011378  -64.078857 -100.939504   16.284985    0.000000    0.000000    0.000000    0.000000
  0.052665331   -6.027843  -65.630478 -101.273151   -5.899598    0.000000    0.000000    0.000000    0.000000
  0.052865731   -6.040274  -67.178749 -102.604734    8.580786    0.000000    0.000000    0.000000    0.000000
