! Anritsu VNA Master:                     Model: MS2036C/10/77
! SN:                                  1601066
! /bd0/18may09/252.ew.m1.s2p
! Existing Calibration Information:
! TYPE:                         Current Settings,       Active Cal Settings
! TIME:             	   05/09/2018 08:07:17 AM,    05/09/2018 08:04:56 AM
! INTERNAL TEMP:    	                   42.3 C,                    42.3 C
! # POINTS:         	                      500,                       500
! START FREQ:       	               20.000 MHz,                20.000 MHz
! STOP FREQ:        	              120.000 MHz,               120.000 MHz
! SOURCE POWER:     	                     High,                      High
! IFBW:             	                    50 Hz,                     50 Hz
! AVG FACTOR:       	                       1 ,                        1 
! REF PLANE 1:      	                     0 mm,                      0 mm
! REF PLANE 2:      	                     0 mm,                      0 mm
! CAL TYPE:         	                 Full S11,                  Full S11
! CAL METHOD:       	                     SOLT,                      SOLT
! CAL LINE TYPE:    	                     Coax,                      Coax
! DUT PORT 1:       	                K-Conn(F),                 K-Conn(F)
! DUT PORT 2:       	                K-Conn(F),                 K-Conn(F)
! CAL STATUS:       	        OK: Accuracy High,                        --
# GHZ S DB R 50.0
! FREQ.GHZ       S11DB        S11A       S21DB        S21A       S12DB        S12A       S22DB        S22A
  0.020000000   -0.601502 -124.224800  -90.895492   34.200924    0.000000    0.000000    0.000000    0.000000
  0.020200401   -0.599744 -125.677979  -91.486119   28.621441    0.000000    0.000000    0.000000    0.000000
  0.020400802   -0.601505 -127.104546  -90.923163   32.477512    0.000000    0.000000    0.000000    0.000000
  0.020601202   -0.601039 -128.556595  -91.889178   34.455551    0.000000    0.000000    0.000000    0.000000
  0.020801603   -0.606362 -130.039063  -91.656723   25.529427    0.000000    0.000000    0.000000    0.000000
  0.021002004   -0.613092 -131.543060  -92.761532   32.535854    0.000000    0.000000    0.000000    0.000000
  0.021202405   -0.618708 -133.068558  -93.170858   33.353802    0.000000    0.000000    0.000000    0.000000
  0.021402806   -0.621939 -134.585632  -92.637256   30.196396    0.000000    0.000000    0.000000    0.000000
  0.021603206   -0.624468 -136.081192  -93.386403   34.519409    0.000000    0.000000    0.000000    0.000000
  0.021803607   -0.629136 -137.596100  -93.410003   34.794132    0.000000    0.000000    0.000000    0.000000
  0.022004008   -0.634455 -139.125244  -93.263937   36.832645    0.000000    0.000000    0.000000    0.000000
  0.022204409   -0.637145 -140.667801  -93.396954   34.224155    0.000000    0.000000    0.000000    0.000000
  0.022404810   -0.640646 -142.224167  -93.566085   33.278145    0.000000    0.000000    0.000000    0.000000
  0.022605210   -0.645641 -143.796829  -92.797696   31.124432    0.000000    0.000000    0.000000    0.000000
  0.022805611   -0.648605 -145.379257  -92.266117   40.420658    0.000000    0.000000    0.000000    0.000000
  0.023006012   -0.650564 -146.952667  -92.327753   38.219326    0.000000    0.000000    0.000000    0.000000
  0.023206413   -0.651809 -148.530289  -92.684281   38.944912    0.000000    0.000000    0.000000    0.000000
  0.023406814   -0.653904 -150.088364  -92.539009   35.387894    0.000000    0.000000    0.000000    0.000000
  0.023607214   -0.657898 -151.669357  -92.867009   38.256973    0.000000    0.000000    0.000000    0.000000
  0.023807615   -0.666507 -153.262131  -92.961425   31.056833    0.000000    0.000000    0.000000    0.000000
  0.024008016   -0.675542 -154.876251  -92.772475   27.553627    0.000000    0.000000    0.000000    0.000000
  0.024208417   -0.684633 -156.501617  -93.046176   27.702206    0.000000    0.000000    0.000000    0.000000
  0.024408818   -0.693332 -158.153702  -92.042060   27.289158    0.000000    0.000000    0.000000    0.000000
  0.024609218   -0.701760 -159.777084  -93.778858   24.553284    0.000000    0.000000    0.000000    0.000000
  0.024809619   -0.711294 -161.406265  -93.405891   21.211983    0.000000    0.000000    0.000000    0.000000
  0.025010020   -0.721844 -163.056839  -93.709018   23.835651    0.000000    0.000000    0.000000    0.000000
  0.025210421   -0.733657 -164.714035  -93.647961   22.469639    0.000000    0.000000    0.000000    0.000000
  0.025410822   -0.747942 -166.394241  -93.426242   18.590759    0.000000    0.000000    0.000000    0.000000
  0.025611222   -0.761833 -168.087326  -94.584480   23.460672    0.000000    0.000000    0.000000    0.000000
  0.025811623   -0.773059 -169.799866  -94.237002   14.964513    0.000000    0.000000    0.000000    0.000000
  0.026012024   -0.780785 -171.496277  -94.432193   14.459282    0.000000    0.000000    0.000000    0.000000
  0.026212425   -0.792305 -173.220703  -94.833046   19.881954    0.000000    0.000000    0.000000    0.000000
  0.026412826   -0.804899 -174.940445  -94.893612   16.850695    0.000000    0.000000    0.000000    0.000000
  0.026613226   -0.820433 -176.670349  -95.283718   17.841337    0.000000    0.000000    0.000000    0.000000
  0.026813627   -0.836106 -178.414886  -95.517091   21.217224    0.000000    0.000000    0.000000    0.000000
  0.027014028   -0.852238  179.822571  -95.425057   30.896416    0.000000    0.000000    0.000000    0.000000
  0.027214429   -0.867929  178.062744  -96.402582   20.902700    0.000000    0.000000    0.000000    0.000000
  0.027414830   -0.882537  176.277863  -96.355015   26.658354    0.000000    0.000000    0.000000    0.000000
  0.027615230   -0.900847  174.485413  -96.842712   21.861807    0.000000    0.000000    0.000000    0.000000
  0.027815631   -0.920144  172.689041  -96.200415   19.641272    0.000000    0.000000    0.000000    0.000000
  0.028016032   -0.942048  170.879196  -96.234505   23.925461    0.000000    0.000000    0.000000    0.000000
  0.028216433   -0.964009  169.067352  -96.299839   23.416826    0.000000    0.000000    0.000000    0.000000
  0.028416834   -0.982218  167.236313  -95.770095   24.784071    0.000000    0.000000    0.000000    0.000000
  0.028617234   -1.002891  165.413116  -96.437971   27.309923    0.000000    0.000000    0.000000    0.000000
  0.028817635   -1.024013  163.589279  -96.392142   22.630484    0.000000    0.000000    0.000000    0.000000
  0.029018036   -1.043826  161.793518  -95.457853   19.328114    0.000000    0.000000    0.000000    0.000000
  0.029218437   -1.065368  159.961075  -96.331837   18.299406    0.000000    0.000000    0.000000    0.000000
  0.029418838   -1.090156  158.137451  -95.989420   25.339741    0.000000    0.000000    0.000000    0.000000
  0.029619238   -1.117834  156.282364  -95.473032   19.976673    0.000000    0.000000    0.000000    0.000000
  0.029819639   -1.147861  154.411285  -96.096401   16.664509    0.000000    0.000000    0.000000    0.000000
  0.030020040   -1.178108  152.491806  -96.121027   12.010261    0.000000    0.000000    0.000000    0.000000
  0.030220441   -1.207327  150.577911  -96.946834   16.672909    0.000000    0.000000    0.000000    0.000000
  0.030420842   -1.238426  148.661163  -97.337097   14.962247    0.000000    0.000000    0.000000    0.000000
  0.030621242   -1.269618  146.756271  -96.439007   15.703353    0.000000    0.000000    0.000000    0.000000
  0.030821643   -1.305386  144.832184  -97.017097   11.827391    0.000000    0.000000    0.000000    0.000000
  0.031022044   -1.340428  142.901886  -97.254173    9.387561    0.000000    0.000000    0.000000    0.000000
  0.031222445   -1.375521  140.975647  -97.019495   11.291635    0.000000    0.000000    0.000000    0.000000
  0.031422846   -1.412724  138.987701  -96.675727    2.104472    0.000000    0.000000    0.000000    0.000000
  0.031623246   -1.448977  136.984436  -98.073487   11.012975    0.000000    0.000000    0.000000    0.000000
  0.031823647   -1.485232  134.968033  -97.817441   16.995100    0.000000    0.000000    0.000000    0.000000
  0.032024048   -1.522194  132.986481  -96.507776   12.586780    0.000000    0.000000    0.000000    0.000000
  0.032224449   -1.556667  130.997971  -97.135884    8.872891    0.000000    0.000000    0.000000    0.000000
  0.032424850   -1.595106  129.029343  -98.080177   12.344282    0.000000    0.000000    0.000000    0.000000
  0.032625251   -1.633148  127.037308  -98.654656    8.326739    0.000000    0.000000    0.000000    0.000000
  0.032825651   -1.675426  125.055817  -98.433410   13.992779    0.000000    0.000000    0.000000    0.000000
  0.033026052   -1.721403  123.088966  -99.029951    6.140825    0.000000    0.000000    0.000000    0.000000
  0.033226453   -1.772978  121.096703  -98.381069   12.400053    0.000000    0.000000    0.000000    0.000000
  0.033426854   -1.827628  119.079376  -97.849419   21.942322    0.000000    0.000000    0.000000    0.000000
  0.033627255   -1.883609  117.059105  -97.988222   13.270745    0.000000    0.000000    0.000000    0.000000
  0.033827655   -1.939167  114.982468  -98.387661    5.569435    0.000000    0.000000    0.000000    0.000000
  0.034028056   -1.990958  112.875671  -98.124108   16.956779    0.000000    0.000000    0.000000    0.000000
  0.034228457   -2.041382  110.751801  -97.925569   16.227835    0.000000    0.000000    0.000000    0.000000
  0.034428858   -2.093386  108.616776  -99.024226   20.030790    0.000000    0.000000    0.000000    0.000000
  0.034629259   -2.139899  106.506660  -97.926116   10.828931    0.000000    0.000000    0.000000    0.000000
  0.034829659   -2.186615  104.397751  -99.087761   14.323670    0.000000    0.000000    0.000000    0.000000
  0.035030060   -2.232745  102.288170  -99.302067   21.668816    0.000000    0.000000    0.000000    0.000000
  0.035230461   -2.278069  100.197922  -98.700679   17.371031    0.000000    0.000000    0.000000    0.000000
  0.035430862   -2.325363   98.101524  -98.889791   11.864333    0.000000    0.000000    0.000000    0.000000
  0.035631263   -2.372042   96.038177  -98.411616   18.662046    0.000000    0.000000    0.000000    0.000000
  0.035831663   -2.420471   93.981964  -99.109590    8.785934    0.000000    0.000000    0.000000    0.000000
  0.036032064   -2.469364   91.938789  -99.617551    7.684533    0.000000    0.000000    0.000000    0.000000
  0.036232465   -2.521042   89.918793  -98.500025    2.360852    0.000000    0.000000    0.000000    0.000000
  0.036432866   -2.577136   87.889648  -99.016144    0.382084    0.000000    0.000000    0.000000    0.000000
  0.036633267   -2.636006   85.863983  -99.142908   22.025103    0.000000    0.000000    0.000000    0.000000
  0.036833667   -2.695364   83.820145  -99.523900    3.675723    0.000000    0.000000    0.000000    0.000000
  0.037034068   -2.764507   81.764473 -100.120717    4.094505    0.000000    0.000000    0.000000    0.000000
  0.037234469   -2.830306   79.679962  -98.796603    9.445527    0.000000    0.000000    0.000000    0.000000
  0.037434870   -2.896146   77.580719  -99.579485    7.281531    0.000000    0.000000    0.000000    0.000000
  0.037635271   -2.957779   75.474052 -100.100688    5.642703    0.000000    0.000000    0.000000    0.000000
  0.037835671   -3.019228   73.331657  -99.759209    7.285258    0.000000    0.000000    0.000000    0.000000
  0.038036072   -3.076358   71.173759  -99.733693   21.142046    0.000000    0.000000    0.000000    0.000000
  0.038236473   -3.136033   68.972488  -99.913686   14.261147    0.000000    0.000000    0.000000    0.000000
  0.038436874   -3.197768   66.813080 -100.568245   -0.656137    0.000000    0.000000    0.000000    0.000000
  0.038637275   -3.255411   64.686195  -98.922258    7.040385    0.000000    0.000000    0.000000    0.000000
  0.038837675   -3.313161   62.586151 -101.573015    6.726355    0.000000    0.000000    0.000000    0.000000
  0.039038076   -3.364491   60.533932 -100.853456   20.305811    0.000000    0.000000    0.000000    0.000000
  0.039238477   -3.423351   58.504581  -98.883078    6.102428    0.000000    0.000000    0.000000    0.000000
  0.039438878   -3.481267   56.489655  -99.064518    9.160858    0.000000    0.000000    0.000000    0.000000
  0.039639279   -3.546773   54.449268 -100.277606   11.251947    0.000000    0.000000    0.000000    0.000000
  0.039839679   -3.612120   52.405457  -98.937528   17.591196    0.000000    0.000000    0.000000    0.000000
  0.040040080   -3.681963   50.341412  -98.766223   15.582851    0.000000    0.000000    0.000000    0.000000
  0.040240481   -3.749319   48.265514  -99.305980   16.863956    0.000000    0.000000    0.000000    0.000000
  0.040440882   -3.814483   46.190598  -99.628032    6.731140    0.000000    0.000000    0.000000    0.000000
  0.040641283   -3.881120   44.126667  -99.622487   15.383816    0.000000    0.000000    0.000000    0.000000
  0.040841683   -3.942744   42.039452  -99.436100   10.861231    0.000000    0.000000    0.000000    0.000000
  0.041042084   -4.005728   39.967010 -100.571319    6.584887    0.000000    0.000000    0.000000    0.000000
  0.041242485   -4.070865   37.904007  -98.793233    7.930183    0.000000    0.000000    0.000000    0.000000
  0.041442886   -4.131789   35.802319  -99.527840    1.441278    0.000000    0.000000    0.000000    0.000000
  0.041643287   -4.188903   33.742550  -99.216154   -3.456477    0.000000    0.000000    0.000000    0.000000
  0.041843687   -4.242887   31.669781 -101.486108   -6.050719    0.000000    0.000000    0.000000    0.000000
  0.042044088   -4.298163   29.643410 -100.921504    5.653711    0.000000    0.000000    0.000000    0.000000
  0.042244489   -4.349969   27.621437 -100.840950   -1.471468    0.000000    0.000000    0.000000    0.000000
  0.042444890   -4.405644   25.602821 -101.327667    4.626644    0.000000    0.000000    0.000000    0.000000
  0.042645291   -4.457332   23.607302 -102.246555    2.494605    0.000000    0.000000    0.000000    0.000000
  0.042845691   -4.510443   21.608145 -101.861937    6.456035    0.000000    0.000000    0.000000    0.000000
  0.043046092   -4.563573   19.594173 -101.585698   -5.985177    0.000000    0.000000    0.000000    0.000000
  0.043246493   -4.613611   17.623333 -102.624649   12.407032    0.000000    0.000000    0.000000    0.000000
  0.043446894   -4.666379   15.624208 -102.113315    5.635012    0.000000    0.000000    0.000000    0.000000
  0.043647295   -4.717997   13.650068 -101.701557   24.128593    0.000000    0.000000    0.000000    0.000000
  0.043847695   -4.769806   11.699570 -100.100413   -1.392964    0.000000    0.000000    0.000000    0.000000
  0.044048096   -4.820671    9.721825 -102.063600    7.452127    0.000000    0.000000    0.000000    0.000000
  0.044248497   -4.873115    7.758476 -101.895540   19.406708    0.000000    0.000000    0.000000    0.000000
  0.044448898   -4.923479    5.818020 -101.947589    7.281506    0.000000    0.000000    0.000000    0.000000
  0.044649299   -4.969081    3.880167 -100.373747    6.627194    0.000000    0.000000    0.000000    0.000000
  0.044849699   -5.014819    1.936911 -100.547500   12.653382    0.000000    0.000000    0.000000    0.000000
  0.045050100   -5.057763   -0.007736 -101.400313   21.233047    0.000000    0.000000    0.000000    0.000000
  0.045250501   -5.099192   -1.913228 -100.581065    2.717777    0.000000    0.000000    0.000000    0.000000
  0.045450902   -5.139466   -3.799178 -101.446058   13.628413    0.000000    0.000000    0.000000    0.000000
  0.045651303   -5.185386   -5.694250 -102.199155   16.435310    0.000000    0.000000    0.000000    0.000000
  0.045851703   -5.227687   -7.565053 -100.872358   12.766194    0.000000    0.000000    0.000000    0.000000
  0.046052104   -5.268511   -9.457211 -100.837078    5.146495    0.000000    0.000000    0.000000    0.000000
  0.046252505   -5.310043  -11.320266 -100.724756   -0.758619    0.000000    0.000000    0.000000    0.000000
  0.046452906   -5.348798  -13.188375 -100.659984    8.190819    0.000000    0.000000    0.000000    0.000000
  0.046653307   -5.384322  -15.049712 -101.317101   -3.987531    0.000000    0.000000    0.000000    0.000000
  0.046853707   -5.418899  -16.893185 -101.312511   14.591615    0.000000    0.000000    0.000000    0.000000
  0.047054108   -5.453224  -18.729971 -101.460016   -0.739043    0.000000    0.000000    0.000000    0.000000
  0.047254509   -5.485131  -20.559801 -101.481189   -7.689939    0.000000    0.000000    0.000000    0.000000
  0.047454910   -5.516377  -22.360096 -100.879999   -1.795260    0.000000    0.000000    0.000000    0.000000
  0.047655311   -5.546519  -24.145128 -102.615526  -11.037939    0.000000    0.000000    0.000000    0.000000
  0.047855711   -5.577297  -25.912010 -103.302485   -7.701928    0.000000    0.000000    0.000000    0.000000
  0.048056112   -5.606521  -27.685993 -103.448851   -8.491171    0.000000    0.000000    0.000000    0.000000
  0.048256513   -5.639622  -29.432053 -101.996540   -5.691782    0.000000    0.000000    0.000000    0.000000
  0.048456914   -5.666023  -31.180738 -104.093675   -5.104215    0.000000    0.000000    0.000000    0.000000
  0.048657315   -5.693220  -32.941017 -102.326890    1.363405    0.000000    0.000000    0.000000    0.000000
  0.048857715   -5.718864  -34.677052 -103.556031   -6.122338    0.000000    0.000000    0.000000    0.000000
  0.049058116   -5.741982  -36.394859 -104.171776    2.173012    0.000000    0.000000    0.000000    0.000000
  0.049258517   -5.767034  -38.104923 -102.650548   -2.166333    0.000000    0.000000    0.000000    0.000000
  0.049458918   -5.789536  -39.817242 -104.140234   19.084963    0.000000    0.000000    0.000000    0.000000
  0.049659319   -5.815524  -41.493511 -105.176479   -9.997989    0.000000    0.000000    0.000000    0.000000
  0.049859719   -5.835228  -43.191418 -105.023290   12.443915    0.000000    0.000000    0.000000    0.000000
  0.050060120   -5.853899  -44.875443 -103.392988   -0.340401    0.000000    0.000000    0.000000    0.000000
  0.050260521   -5.872965  -46.559193 -103.182683   11.238043    0.000000    0.000000    0.000000    0.000000
  0.050460922   -5.890187  -48.250214 -103.798597   11.572213    0.000000    0.000000    0.000000    0.000000
  0.050661323   -5.904356  -49.901470 -103.147324   10.813428    0.000000    0.000000    0.000000    0.000000
  0.050861723   -5.915344  -51.550629 -102.959781    1.080250    0.000000    0.000000    0.000000    0.000000
  0.051062124   -5.930171  -53.166752 -104.418709    4.889523    0.000000    0.000000    0.000000    0.000000
  0.051262525   -5.939358  -54.753380 -103.052477   -0.882667    0.000000    0.000000    0.000000    0.000000
  0.051462926   -5.953721  -56.298290 -102.560696    5.575734    0.000000    0.000000    0.000000    0.000000
  0.051663327   -5.966449  -57.850780 -102.065360   11.725153    0.000000    0.000000    0.000000    0.000000
  0.051863727   -5.980810  -59.421513 -102.632960    9.188159    0.000000    0.000000    0.000000    0.000000
  0.052064128   -5.994374  -60.980385 -101.655450   11.888258    0.000000    0.000000    0.000000    0.000000
  0.052264529   -6.008319  -62.532761 -101.455196   -0.056032    0.000000    0.000000    0.000000    0.000000
  0.052464930   -6.024540  -64.098450 -102.826339   -6.270903    0.000000    0.000000    0.000000    0.000000
  0.052665331   -6.038096  -65.658562 -101.740273   -4.018455    0.000000    0.000000    0.000000    0.000000
  0.052865731   -6.049397  -67.225250 -102.056595   -3.532592    0.000000    0.000000    0.000000    0.000000
