! Anritsu VNA Master:                     Model: MS2036C/10/77
! SN:                                  1601066
! /bd0/18may09/252.ew.m5.s2p
! Existing Calibration Information:
! TYPE:                         Current Settings,       Active Cal Settings
! TIME:             	   05/09/2018 08:13:59 AM,    05/09/2018 08:04:56 AM
! INTERNAL TEMP:    	                   41.5 C,                    42.3 C
! # POINTS:         	                      500,                       500
! START FREQ:       	               20.000 MHz,                20.000 MHz
! STOP FREQ:        	              120.000 MHz,               120.000 MHz
! SOURCE POWER:     	                     High,                      High
! IFBW:             	                    50 Hz,                     50 Hz
! AVG FACTOR:       	                       1 ,                        1 
! REF PLANE 1:      	                     0 mm,                      0 mm
! REF PLANE 2:      	                     0 mm,                      0 mm
! CAL TYPE:         	                 Full S11,                  Full S11
! CAL METHOD:       	                     SOLT,                      SOLT
! CAL LINE TYPE:    	                     Coax,                      Coax
! DUT PORT 1:       	                K-Conn(F),                 K-Conn(F)
! DUT PORT 2:       	                K-Conn(F),                 K-Conn(F)
! CAL STATUS:       	        OK: Accuracy High,                        --
# GHZ S DB R 50.0
! FREQ.GHZ       S11DB        S11A       S21DB        S21A       S12DB        S12A       S22DB        S22A
  0.020000000   -0.596469 -124.217506  -91.000237   26.164009    0.000000    0.000000    0.000000    0.000000
  0.020200401   -0.595795 -125.672806  -91.565943   32.144535    0.000000    0.000000    0.000000    0.000000
  0.020400802   -0.596094 -127.103096  -91.280614   32.757164    0.000000    0.000000    0.000000    0.000000
  0.020601202   -0.596514 -128.554535  -91.821495   28.740934    0.000000    0.000000    0.000000    0.000000
  0.020801603   -0.600804 -130.038101  -92.020273   29.116451    0.000000    0.000000    0.000000    0.000000
  0.021002004   -0.607522 -131.536636  -92.076043   35.642426    0.000000    0.000000    0.000000    0.000000
  0.021202405   -0.613531 -133.057175  -93.079412   34.700020    0.000000    0.000000    0.000000    0.000000
  0.021402806   -0.616904 -134.577682  -93.293292   33.573479    0.000000    0.000000    0.000000    0.000000
  0.021603206   -0.618848 -136.080139  -92.624464   30.794020    0.000000    0.000000    0.000000    0.000000
  0.021803607   -0.624058 -137.594666  -92.862324   34.626804    0.000000    0.000000    0.000000    0.000000
  0.022004008   -0.628141 -139.134567  -93.257079   35.230122    0.000000    0.000000    0.000000    0.000000
  0.022204409   -0.631683 -140.674683  -93.270511   36.603230    0.000000    0.000000    0.000000    0.000000
  0.022404810   -0.635299 -142.219147  -93.217859   32.449635    0.000000    0.000000    0.000000    0.000000
  0.022605210   -0.638661 -143.811111  -93.493208   40.773968    0.000000    0.000000    0.000000    0.000000
  0.022805611   -0.644443 -145.381866  -92.094807   33.001102    0.000000    0.000000    0.000000    0.000000
  0.023006012   -0.646717 -146.948410  -92.372909   39.600613    0.000000    0.000000    0.000000    0.000000
  0.023206413   -0.646845 -148.525284  -93.465514   32.826694    0.000000    0.000000    0.000000    0.000000
  0.023406814   -0.649632 -150.097580  -92.247751   35.139534    0.000000    0.000000    0.000000    0.000000
  0.023607214   -0.653493 -151.689301  -92.932239   34.338184    0.000000    0.000000    0.000000    0.000000
  0.023807615   -0.661775 -153.268646  -92.946343   32.098644    0.000000    0.000000    0.000000    0.000000
  0.024008016   -0.671524 -154.884781  -93.134662   28.655931    0.000000    0.000000    0.000000    0.000000
  0.024208417   -0.680560 -156.518494  -92.571941   26.257044    0.000000    0.000000    0.000000    0.000000
  0.024408818   -0.689086 -158.166199  -92.529479   27.779453    0.000000    0.000000    0.000000    0.000000
  0.024609218   -0.697758 -159.789520  -93.572018   24.795170    0.000000    0.000000    0.000000    0.000000
  0.024809619   -0.707545 -161.431030  -93.341134   24.189564    0.000000    0.000000    0.000000    0.000000
  0.025010020   -0.717851 -163.077621  -93.301201   26.400272    0.000000    0.000000    0.000000    0.000000
  0.025210421   -0.730911 -164.731003  -93.576652   24.513582    0.000000    0.000000    0.000000    0.000000
  0.025410822   -0.744971 -166.411758  -93.831491   17.001678    0.000000    0.000000    0.000000    0.000000
  0.025611222   -0.759070 -168.106384  -94.126626   15.952496    0.000000    0.000000    0.000000    0.000000
  0.025811623   -0.768886 -169.823654  -94.273308   22.636032    0.000000    0.000000    0.000000    0.000000
  0.026012024   -0.776612 -171.514328  -94.918155   20.398064    0.000000    0.000000    0.000000    0.000000
  0.026212425   -0.789258 -173.234024  -95.759249   19.754894    0.000000    0.000000    0.000000    0.000000
  0.026412826   -0.802114 -174.956039  -94.779975   21.777668    0.000000    0.000000    0.000000    0.000000
  0.026613226   -0.816199 -176.691116  -95.944330   21.219322    0.000000    0.000000    0.000000    0.000000
  0.026813627   -0.832350 -178.431519  -95.948448   14.715815    0.000000    0.000000    0.000000    0.000000
  0.027014028   -0.848207  179.805588  -96.020611   18.319807    0.000000    0.000000    0.000000    0.000000
  0.027214429   -0.864587  178.034790  -95.893796   22.294170    0.000000    0.000000    0.000000    0.000000
  0.027414830   -0.879541  176.250626  -95.954020   15.306065    0.000000    0.000000    0.000000    0.000000
  0.027615230   -0.896490  174.458862  -95.784339   28.522655    0.000000    0.000000    0.000000    0.000000
  0.027815631   -0.916998  172.661972  -96.045440   22.373373    0.000000    0.000000    0.000000    0.000000
  0.028016032   -0.938164  170.847351  -96.163071   21.950426    0.000000    0.000000    0.000000    0.000000
  0.028216433   -0.959896  169.029251  -96.115223   16.013380    0.000000    0.000000    0.000000    0.000000
  0.028416834   -0.979055  167.210983  -95.913406   26.330774    0.000000    0.000000    0.000000    0.000000
  0.028617234   -0.998503  165.388962  -95.886886   23.130688    0.000000    0.000000    0.000000    0.000000
  0.028817635   -1.019777  163.564911  -95.914125   18.987375    0.000000    0.000000    0.000000    0.000000
  0.029018036   -1.039101  161.759186  -95.786329   23.211731    0.000000    0.000000    0.000000    0.000000
  0.029218437   -1.061678  159.940659  -95.554228   24.615587    0.000000    0.000000    0.000000    0.000000
  0.029418838   -1.086258  158.102722  -95.223010   20.036539    0.000000    0.000000    0.000000    0.000000
  0.029619238   -1.114032  156.240875  -96.393672   23.389540    0.000000    0.000000    0.000000    0.000000
  0.029819639   -1.144926  154.374664  -95.960891   17.944607    0.000000    0.000000    0.000000    0.000000
  0.030020040   -1.174641  152.452744  -96.778142   14.645392    0.000000    0.000000    0.000000    0.000000
  0.030220441   -1.203270  150.527557  -96.199156   14.084796    0.000000    0.000000    0.000000    0.000000
  0.030420842   -1.234158  148.614349  -97.097622   14.303892    0.000000    0.000000    0.000000    0.000000
  0.030621242   -1.266157  146.713852  -96.286853   19.406057    0.000000    0.000000    0.000000    0.000000
  0.030821643   -1.300941  144.789566  -96.082982   10.005151    0.000000    0.000000    0.000000    0.000000
  0.031022044   -1.335754  142.860931  -97.095051   12.979017    0.000000    0.000000    0.000000    0.000000
  0.031222445   -1.370639  140.934036  -96.712024   13.301970    0.000000    0.000000    0.000000    0.000000
  0.031422846   -1.406656  138.938828  -96.429808    5.733536    0.000000    0.000000    0.000000    0.000000
  0.031623246   -1.443215  136.945114  -98.378606   16.880335    0.000000    0.000000    0.000000    0.000000
  0.031823647   -1.479297  134.928192  -98.095563   13.374645    0.000000    0.000000    0.000000    0.000000
  0.032024048   -1.514107  132.949753  -96.470109   12.019184    0.000000    0.000000    0.000000    0.000000
  0.032224449   -1.549427  130.954956  -97.112784   10.259801    0.000000    0.000000    0.000000    0.000000
  0.032424850   -1.587142  128.984741  -97.199031    7.036660    0.000000    0.000000    0.000000    0.000000
  0.032625251   -1.626239  127.002686  -98.169404    3.490281    0.000000    0.000000    0.000000    0.000000
  0.032825651   -1.667182  125.028961  -97.025645    7.713402    0.000000    0.000000    0.000000    0.000000
  0.033026052   -1.711437  123.049324  -99.455152    4.972373    0.000000    0.000000    0.000000    0.000000
  0.033226453   -1.764730  121.064636  -98.027916   14.103483    0.000000    0.000000    0.000000    0.000000
  0.033426854   -1.818004  119.036346  -97.835044   19.522453    0.000000    0.000000    0.000000    0.000000
  0.033627255   -1.873465  117.014336  -99.168899   19.189323    0.000000    0.000000    0.000000    0.000000
  0.033827655   -1.930832  114.951958  -97.508991    9.432596    0.000000    0.000000    0.000000    0.000000
  0.034028056   -1.981330  112.847252  -98.893244   13.096330    0.000000    0.000000    0.000000    0.000000
  0.034228457   -2.031938  110.705612  -98.291399   13.999831    0.000000    0.000000    0.000000    0.000000
  0.034428858   -2.084206  108.576019  -97.387471   11.938522    0.000000    0.000000    0.000000    0.000000
  0.034629259   -2.130574  106.473404  -98.206290   18.720289    0.000000    0.000000    0.000000    0.000000
  0.034829659   -2.176156  104.369415  -98.023287    3.487190    0.000000    0.000000    0.000000    0.000000
  0.035030060   -2.223150  102.257202  -99.836962   15.405027    0.000000    0.000000    0.000000    0.000000
  0.035230461   -2.267903  100.175125  -98.134421   11.607848    0.000000    0.000000    0.000000    0.000000
  0.035430862   -2.313454   98.076752  -98.074345   14.569125    0.000000    0.000000    0.000000    0.000000
  0.035631263   -2.360264   96.004440  -98.909790   11.459938    0.000000    0.000000    0.000000    0.000000
  0.035831663   -2.408703   93.947433  -99.153975   11.226853    0.000000    0.000000    0.000000    0.000000
  0.036032064   -2.457361   91.902603  -99.176995   10.728255    0.000000    0.000000    0.000000    0.000000
  0.036232465   -2.507817   89.879181  -97.633384    8.286398    0.000000    0.000000    0.000000    0.000000
  0.036432866   -2.564309   87.842499  -99.166683    3.894855    0.000000    0.000000    0.000000    0.000000
  0.036633267   -2.622401   85.831680  -99.688793    8.111105    0.000000    0.000000    0.000000    0.000000
  0.036833667   -2.681895   83.788147 -100.102262   12.763295    0.000000    0.000000    0.000000    0.000000
  0.037034068   -2.750086   81.721100 -100.521676    7.977365    0.000000    0.000000    0.000000    0.000000
  0.037234469   -2.814795   79.633904 -100.259710    5.214959    0.000000    0.000000    0.000000    0.000000
  0.037434870   -2.877873   77.538269 -100.127784   17.625799    0.000000    0.000000    0.000000    0.000000
  0.037635271   -2.942704   75.434593 -100.861344   16.511999    0.000000    0.000000    0.000000    0.000000
  0.037835671   -3.002690   73.311722  -98.917782    9.538380    0.000000    0.000000    0.000000    0.000000
  0.038036072   -3.058583   71.149384  -99.997713   18.665447    0.000000    0.000000    0.000000    0.000000
  0.038236473   -3.120689   68.944542  -99.342965   22.731733    0.000000    0.000000    0.000000    0.000000
  0.038436874   -3.179233   66.802841 -101.052992   15.566342    0.000000    0.000000    0.000000    0.000000
  0.038637275   -3.236475   64.677773  -99.985758   27.077099    0.000000    0.000000    0.000000    0.000000
  0.038837675   -3.291605   62.569389 -100.970984   -0.091816    0.000000    0.000000    0.000000    0.000000
  0.039038076   -3.344758   60.523441 -101.222301   -0.371989    0.000000    0.000000    0.000000    0.000000
  0.039238477   -3.401984   58.491917 -101.387218    9.957193    0.000000    0.000000    0.000000    0.000000
  0.039438878   -3.462140   56.489166  -99.905463    3.488660    0.000000    0.000000    0.000000    0.000000
  0.039639279   -3.526497   54.442753  -98.831924   18.459972    0.000000    0.000000    0.000000    0.000000
  0.039839679   -3.593860   52.408421  -99.810837   12.143020    0.000000    0.000000    0.000000    0.000000
  0.040040080   -3.661127   50.339615  -98.553012    6.978271    0.000000    0.000000    0.000000    0.000000
  0.040240481   -3.730226   48.262012  -99.415446   17.185595    0.000000    0.000000    0.000000    0.000000
  0.040440882   -3.794069   46.188744  -99.147714    5.942857    0.000000    0.000000    0.000000    0.000000
  0.040641283   -3.861370   44.122955  -99.347282   10.297008    0.000000    0.000000    0.000000    0.000000
  0.040841683   -3.922920   42.046146  -99.743108    6.364124    0.000000    0.000000    0.000000    0.000000
  0.041042084   -3.985762   39.964634  -99.445389   14.088990    0.000000    0.000000    0.000000    0.000000
  0.041242485   -4.050387   37.902908 -100.806164   11.047178    0.000000    0.000000    0.000000    0.000000
  0.041442886   -4.111048   35.804348 -100.051732   -8.165528    0.000000    0.000000    0.000000    0.000000
  0.041643287   -4.166618   33.737869 -102.032043    8.363952    0.000000    0.000000    0.000000    0.000000
  0.041843687   -4.220233   31.666359 -100.369936   10.516662    0.000000    0.000000    0.000000    0.000000
  0.042044088   -4.276152   29.639513 -101.648428    4.971072    0.000000    0.000000    0.000000    0.000000
  0.042244489   -4.328959   27.627026 -100.878809   -0.099507    0.000000    0.000000    0.000000    0.000000
  0.042444890   -4.382799   25.598473  -99.596136   -2.116247    0.000000    0.000000    0.000000    0.000000
  0.042645291   -4.433368   23.604773 -102.582967   -1.674899    0.000000    0.000000    0.000000    0.000000
  0.042845691   -4.486225   21.614265 -101.355310    2.678431    0.000000    0.000000    0.000000    0.000000
  0.043046092   -4.539745   19.608662 -101.752213    5.613641    0.000000    0.000000    0.000000    0.000000
  0.043246493   -4.588929   17.631845 -101.670084   11.839481    0.000000    0.000000    0.000000    0.000000
  0.043446894   -4.639484   15.639528 -101.098949    5.283299    0.000000    0.000000    0.000000    0.000000
  0.043647295   -4.690625   13.666186 -100.706729   -8.369991    0.000000    0.000000    0.000000    0.000000
  0.043847695   -4.744047   11.709997 -102.230985   15.816927    0.000000    0.000000    0.000000    0.000000
  0.044048096   -4.794640    9.739649 -103.473771    1.159199    0.000000    0.000000    0.000000    0.000000
  0.044248497   -4.844270    7.798188 -101.077802    9.056807    0.000000    0.000000    0.000000    0.000000
  0.044448898   -4.893293    5.847580 -102.421357    5.313507    0.000000    0.000000    0.000000    0.000000
  0.044649299   -4.940758    3.911535 -102.904028   10.734191    0.000000    0.000000    0.000000    0.000000
  0.044849699   -4.983855    1.995376 -100.963565   11.771068    0.000000    0.000000    0.000000    0.000000
  0.045050100   -5.027026    0.058458 -101.363241   13.029351    0.000000    0.000000    0.000000    0.000000
  0.045250501   -5.071659   -1.841705 -100.937245    8.641256    0.000000    0.000000    0.000000    0.000000
  0.045450902   -5.113016   -3.717319  -99.664024    9.095111    0.000000    0.000000    0.000000    0.000000
  0.045651303   -5.159871   -5.605066  -99.932541    9.219079    0.000000    0.000000    0.000000    0.000000
  0.045851703   -5.201645   -7.485024 -101.389778   14.623731    0.000000    0.000000    0.000000    0.000000
  0.046052104   -5.240221   -9.371066  -98.811877   -3.133843    0.000000    0.000000    0.000000    0.000000
  0.046252505   -5.282170  -11.238555 -101.126287    4.789036    0.000000    0.000000    0.000000    0.000000
  0.046452906   -5.321271  -13.102146 -103.137603    8.297830    0.000000    0.000000    0.000000    0.000000
  0.046653307   -5.353967  -14.952909 -100.265630   12.605749    0.000000    0.000000    0.000000    0.000000
  0.046853707   -5.390136  -16.801155 -102.751042   -0.981027    0.000000    0.000000    0.000000    0.000000
  0.047054108   -5.425244  -18.634075 -100.245970   12.073370    0.000000    0.000000    0.000000    0.000000
  0.047254509   -5.461365  -20.459917 -101.165509   -8.882939    0.000000    0.000000    0.000000    0.000000
  0.047454910   -5.491124  -22.268618 -102.966785   -3.848047    0.000000    0.000000    0.000000    0.000000
  0.047655311   -5.521667  -24.043804 -101.255062    4.554384    0.000000    0.000000    0.000000    0.000000
  0.047855711   -5.555288  -25.813349 -100.557679   -3.167312    0.000000    0.000000    0.000000    0.000000
  0.048056112   -5.584102  -27.573483 -100.984440   -3.199777    0.000000    0.000000    0.000000    0.000000
  0.048256513   -5.612378  -29.325848 -101.785896   -4.962152    0.000000    0.000000    0.000000    0.000000
  0.048456914   -5.642748  -31.072624 -102.529424   -5.077019    0.000000    0.000000    0.000000    0.000000
  0.048657315   -5.667618  -32.829597 -103.515391   -4.590016    0.000000    0.000000    0.000000    0.000000
  0.048857715   -5.693038  -34.570965 -103.761932   -7.326176    0.000000    0.000000    0.000000    0.000000
  0.049058116   -5.717350  -36.293884 -103.748535   -4.329237    0.000000    0.000000    0.000000    0.000000
  0.049258517   -5.741788  -37.979973 -103.574865    3.707909    0.000000    0.000000    0.000000    0.000000
  0.049458918   -5.765190  -39.701027 -104.981461   12.630208    0.000000    0.000000    0.000000    0.000000
  0.049659319   -5.786974  -41.374081 -102.492643    7.185072    0.000000    0.000000    0.000000    0.000000
  0.049859719   -5.810954  -43.071194 -105.671436   22.031572    0.000000    0.000000    0.000000    0.000000
  0.050060120   -5.829583  -44.756889 -104.006602   12.361121    0.000000    0.000000    0.000000    0.000000
  0.050260521   -5.849029  -46.437607 -103.134964   12.424234    0.000000    0.000000    0.000000    0.000000
  0.050460922   -5.866149  -48.117096 -102.760798   17.692249    0.000000    0.000000    0.000000    0.000000
  0.050661323   -5.876709  -49.744457 -102.468582   13.261117    0.000000    0.000000    0.000000    0.000000
  0.050861723   -5.889184  -51.395416 -105.434393   13.009952    0.000000    0.000000    0.000000    0.000000
  0.051062124   -5.904982  -53.007595 -101.656053   13.243855    0.000000    0.000000    0.000000    0.000000
  0.051262525   -5.915269  -54.596020 -103.223340    2.876567    0.000000    0.000000    0.000000    0.000000
  0.051462926   -5.931430  -56.144436 -104.258102   22.085619    0.000000    0.000000    0.000000    0.000000
  0.051663327   -5.943653  -57.686501 -101.730895    7.634732    0.000000    0.000000    0.000000    0.000000
  0.051863727   -5.955899  -59.250000 -102.274004    3.384687    0.000000    0.000000    0.000000    0.000000
  0.052064128   -5.972951  -60.813793 -101.270503   10.716227    0.000000    0.000000    0.000000    0.000000
  0.052264529   -5.988865  -62.355019 -104.012403    6.674370    0.000000    0.000000    0.000000    0.000000
  0.052464930   -6.004289  -63.927639 -100.717830    1.737985    0.000000    0.000000    0.000000    0.000000
  0.052665331   -6.017884  -65.480415 -103.589320    3.267417    0.000000    0.000000    0.000000    0.000000
  0.052865731   -6.031644  -67.039795 -101.242849    2.476771    0.000000    0.000000    0.000000    0.000000
