! Anritsu VNA Master:                     Model: MS2036C/10/77
! SN:                                  1601066
! /bd0/18may09/b252.ew.m3.s2p
! Existing Calibration Information:
! TYPE:                         Current Settings,       Active Cal Settings
! TIME:             	   05/09/2018 09:27:53 PM,    05/09/2018 09:20:00 PM
! INTERNAL TEMP:    	                   50.5 C,                    51.0 C
! # POINTS:         	                      494,                       494
! START FREQ:       	               20.000 MHz,                20.000 MHz
! STOP FREQ:        	          118.797 594 MHz,           118.797 594 MHz
! SOURCE POWER:     	                     High,                      High
! IFBW:             	                    50 Hz,                     50 Hz
! AVG FACTOR:       	                       1 ,                        1 
! REF PLANE 1:      	                     0 mm,                      0 mm
! REF PLANE 2:      	                     0 mm,                      0 mm
! CAL TYPE:         	                 Full S22,                  Full S22
! CAL METHOD:       	                     SOLT,                      SOLT
! CAL LINE TYPE:    	                     Coax,                      Coax
! DUT PORT 1:       	                K-Conn(M),                 K-Conn(M)
! DUT PORT 2:       	                K-Conn(M),                 K-Conn(M)
! CAL STATUS:       	        OK: Accuracy High,                        --
# GHZ S DB R 50.0
! FREQ.GHZ       S11DB        S11A       S21DB        S21A       S12DB        S12A       S22DB        S22A
  0.020000000    0.000000    0.000000    0.000000    0.000000  -89.328343   32.241470   -0.614934 -125.593147
  0.020200401    0.000000    0.000000    0.000000    0.000000  -89.873048   36.128407   -0.618026 -127.046761
  0.020400802    0.000000    0.000000    0.000000    0.000000  -90.181474   35.452164   -0.620178 -128.516174
  0.020601202    0.000000    0.000000    0.000000    0.000000  -90.129203   31.570131   -0.623331 -130.001205
  0.020801603    0.000000    0.000000    0.000000    0.000000  -91.044397   34.913830   -0.628397 -131.516891
  0.021002004    0.000000    0.000000    0.000000    0.000000  -91.903878   38.646107   -0.629307 -133.039169
  0.021202405    0.000000    0.000000    0.000000    0.000000  -91.746908   37.024490   -0.632751 -134.565292
  0.021402806    0.000000    0.000000    0.000000    0.000000  -91.674259   37.838219   -0.634885 -136.094208
  0.021603206    0.000000    0.000000    0.000000    0.000000  -91.936461   37.101860   -0.635564 -137.611450
  0.021803607    0.000000    0.000000    0.000000    0.000000  -91.530418   39.139309   -0.639935 -139.135544
  0.022004008    0.000000    0.000000    0.000000    0.000000  -91.760268   41.590294   -0.644248 -140.673996
  0.022204409    0.000000    0.000000    0.000000    0.000000  -92.255499   39.277138   -0.649655 -142.222778
  0.022404810    0.000000    0.000000    0.000000    0.000000  -91.427769   41.871399   -0.655902 -143.790909
  0.022605210    0.000000    0.000000    0.000000    0.000000  -91.249270   42.611191   -0.658599 -145.379822
  0.022805611    0.000000    0.000000    0.000000    0.000000  -91.670069   42.337105   -0.660437 -146.978348
  0.023006012    0.000000    0.000000    0.000000    0.000000  -91.443320   42.526756   -0.664257 -148.555542
  0.023206413    0.000000    0.000000    0.000000    0.000000  -91.291771   42.236965   -0.670446 -150.152679
  0.023406814    0.000000    0.000000    0.000000    0.000000  -90.816421   43.266476   -0.674736 -151.734192
  0.023607214    0.000000    0.000000    0.000000    0.000000  -91.063009   39.695477   -0.682044 -153.331390
  0.023807615    0.000000    0.000000    0.000000    0.000000  -91.177382   39.069141   -0.693052 -154.952652
  0.024008016    0.000000    0.000000    0.000000    0.000000  -92.063138   36.033623   -0.701035 -156.595108
  0.024208417    0.000000    0.000000    0.000000    0.000000  -91.186808   37.880432   -0.708538 -158.249115
  0.024408818    0.000000    0.000000    0.000000    0.000000  -91.071174   34.693417   -0.715115 -159.923340
  0.024609218    0.000000    0.000000    0.000000    0.000000  -91.533122   37.702667   -0.723050 -161.576370
  0.024809619    0.000000    0.000000    0.000000    0.000000  -91.849538   34.480732   -0.732487 -163.239853
  0.025010020    0.000000    0.000000    0.000000    0.000000  -91.815172   31.364594   -0.742970 -164.911057
  0.025210421    0.000000    0.000000    0.000000    0.000000  -92.087113   28.511589   -0.754482 -166.593643
  0.025410822    0.000000    0.000000    0.000000    0.000000  -92.264891   26.880239   -0.766994 -168.277527
  0.025611222    0.000000    0.000000    0.000000    0.000000  -92.224235   28.775427   -0.779561 -169.987274
  0.025811623    0.000000    0.000000    0.000000    0.000000  -92.942278   22.893970   -0.790830 -171.714996
  0.026012024    0.000000    0.000000    0.000000    0.000000  -92.838578   25.608339   -0.800750 -173.438065
  0.026212425    0.000000    0.000000    0.000000    0.000000  -92.900796   23.913132   -0.812975 -175.174683
  0.026412826    0.000000    0.000000    0.000000    0.000000  -93.544019   22.873623   -0.828647 -176.916779
  0.026613226    0.000000    0.000000    0.000000    0.000000  -93.573215   24.563231   -0.842804 -178.669937
  0.026813627    0.000000    0.000000    0.000000    0.000000  -93.578820   23.267561   -0.858922  179.565338
  0.027014028    0.000000    0.000000    0.000000    0.000000  -93.705684   29.902782   -0.874483  177.799774
  0.027214429    0.000000    0.000000    0.000000    0.000000  -94.157140   28.798420   -0.890946  176.026535
  0.027414830    0.000000    0.000000    0.000000    0.000000  -94.491157   34.182507   -0.909576  174.242722
  0.027615230    0.000000    0.000000    0.000000    0.000000  -95.422222   25.086992   -0.926167  172.441467
  0.027815631    0.000000    0.000000    0.000000    0.000000  -94.564268   29.527311   -0.944075  170.634094
  0.028016032    0.000000    0.000000    0.000000    0.000000  -94.543888   32.753265   -0.964213  168.818222
  0.028216433    0.000000    0.000000    0.000000    0.000000  -95.037212   33.511284   -0.985540  166.976868
  0.028416834    0.000000    0.000000    0.000000    0.000000  -94.044163   32.957115   -1.005354  165.145630
  0.028617234    0.000000    0.000000    0.000000    0.000000  -93.844577   33.156605   -1.026407  163.302277
  0.028817635    0.000000    0.000000    0.000000    0.000000  -93.783521   30.534845   -1.047823  161.456924
  0.029018036    0.000000    0.000000    0.000000    0.000000  -94.638204   32.985466   -1.071681  159.612091
  0.029218437    0.000000    0.000000    0.000000    0.000000  -94.354596   33.273010   -1.095918  157.744232
  0.029418838    0.000000    0.000000    0.000000    0.000000  -94.344987   32.664242   -1.122555  155.852005
  0.029619238    0.000000    0.000000    0.000000    0.000000  -93.830112   30.644102   -1.148616  153.956680
  0.029819639    0.000000    0.000000    0.000000    0.000000  -94.304930   33.227627   -1.175999  152.043747
  0.030020040    0.000000    0.000000    0.000000    0.000000  -94.172348   29.268354   -1.203141  150.132156
  0.030220441    0.000000    0.000000    0.000000    0.000000  -93.644950   30.388269   -1.230877  148.208282
  0.030420842    0.000000    0.000000    0.000000    0.000000  -93.956949   23.494761   -1.260518  146.294662
  0.030621242    0.000000    0.000000    0.000000    0.000000  -94.009392   29.352621   -1.291890  144.379257
  0.030821643    0.000000    0.000000    0.000000    0.000000  -94.347973   19.241112   -1.325599  142.447937
  0.031022044    0.000000    0.000000    0.000000    0.000000  -94.533355   20.752182   -1.359066  140.492691
  0.031222445    0.000000    0.000000    0.000000    0.000000  -94.272849   21.745090   -1.383083  138.557175
  0.031422846    0.000000    0.000000    0.000000    0.000000  -94.577736   19.611462   -1.419556  136.583954
  0.031623246    0.000000    0.000000    0.000000    0.000000  -94.962098   24.235790   -1.454577  134.585373
  0.031823647    0.000000    0.000000    0.000000    0.000000  -95.234519   18.370331   -1.493153  132.596283
  0.032024048    0.000000    0.000000    0.000000    0.000000  -95.301506   18.891363   -1.532141  130.605423
  0.032224449    0.000000    0.000000    0.000000    0.000000  -94.825277   15.428186   -1.569532  128.604584
  0.032424850    0.000000    0.000000    0.000000    0.000000  -96.410549   17.950254   -1.610582  126.602722
  0.032625250    0.000000    0.000000    0.000000    0.000000  -95.292810   19.630627   -1.650427  124.590927
  0.032825651    0.000000    0.000000    0.000000    0.000000  -94.961538   19.000799   -1.692284  122.544891
  0.033026052    0.000000    0.000000    0.000000    0.000000  -96.410420   19.523266   -1.732524  120.491638
  0.033226453    0.000000    0.000000    0.000000    0.000000  -96.972346   21.891621   -1.776322  118.471451
  0.033426854    0.000000    0.000000    0.000000    0.000000  -97.537013   15.976867   -1.818761  116.420959
  0.033627254    0.000000    0.000000    0.000000    0.000000  -96.020222   24.320053   -1.863080  114.394531
  0.033827655    0.000000    0.000000    0.000000    0.000000  -95.795193   20.606142   -1.909505  112.357689
  0.034028056    0.000000    0.000000    0.000000    0.000000  -95.792399   27.989994   -1.956150  110.317406
  0.034228457    0.000000    0.000000    0.000000    0.000000  -97.000156   24.662977   -2.002785  108.255768
  0.034428858    0.000000    0.000000    0.000000    0.000000  -96.211790   21.389709   -2.051717  106.183907
  0.034629258    0.000000    0.000000    0.000000    0.000000  -96.748818   20.159130   -2.101315  104.120300
  0.034829659    0.000000    0.000000    0.000000    0.000000  -96.422079   20.294363   -2.150066  102.043640
  0.035030060    0.000000    0.000000    0.000000    0.000000  -96.190585   23.688190   -2.201945   99.944168
  0.035230461    0.000000    0.000000    0.000000    0.000000  -97.396841   28.604189   -2.252873   97.876129
  0.035430862    0.000000    0.000000    0.000000    0.000000  -97.317202   31.680416   -2.307349   95.808456
  0.035631262    0.000000    0.000000    0.000000    0.000000  -97.139047   24.194256   -2.362460   93.726936
  0.035831663    0.000000    0.000000    0.000000    0.000000  -96.461091   20.924097   -2.416757   91.648666
  0.036032064    0.000000    0.000000    0.000000    0.000000  -96.159421   21.089815   -2.471372   89.552902
  0.036232465    0.000000    0.000000    0.000000    0.000000  -96.110861   21.196360   -2.527138   87.476585
  0.036432866    0.000000    0.000000    0.000000    0.000000  -96.416674   24.419462   -2.580186   85.364624
  0.036633266    0.000000    0.000000    0.000000    0.000000  -95.422245   21.643911   -2.638390   83.278297
  0.036833667    0.000000    0.000000    0.000000    0.000000  -97.179358   18.376362   -2.697183   81.180161
  0.037034068    0.000000    0.000000    0.000000    0.000000  -95.986994   24.291340   -2.756643   79.085022
  0.037234469    0.000000    0.000000    0.000000    0.000000  -97.053589   16.400345   -2.815312   76.994194
  0.037434870    0.000000    0.000000    0.000000    0.000000  -97.160551   18.974617   -2.875558   74.890434
  0.037635270    0.000000    0.000000    0.000000    0.000000  -97.388870   18.649643   -2.932162   72.811996
  0.037835671    0.000000    0.000000    0.000000    0.000000  -98.180905   21.582615   -2.993140   70.728203
  0.038036072    0.000000    0.000000    0.000000    0.000000  -98.298105   23.427713   -3.052125   68.617798
  0.038236473    0.000000    0.000000    0.000000    0.000000  -98.354201   26.023878   -3.111000   66.458534
  0.038436874    0.000000    0.000000    0.000000    0.000000  -97.022416   27.606962   -3.172485   64.332581
  0.038637274    0.000000    0.000000    0.000000    0.000000  -97.418583   21.298939   -3.237706   62.216835
  0.038837675    0.000000    0.000000    0.000000    0.000000  -97.114830   30.100756   -3.297710   60.113083
  0.039038076    0.000000    0.000000    0.000000    0.000000  -97.298043   29.458227   -3.358934   58.021809
  0.039238477    0.000000    0.000000    0.000000    0.000000  -97.767120   22.916790   -3.422110   55.935890
  0.039438878    0.000000    0.000000    0.000000    0.000000  -98.029790   26.442429   -3.482505   53.859093
  0.039639278    0.000000    0.000000    0.000000    0.000000  -97.674881   19.180538   -3.546257   51.761410
  0.039839679    0.000000    0.000000    0.000000    0.000000  -98.473513   25.150658   -3.607918   49.674660
  0.040040080    0.000000    0.000000    0.000000    0.000000  -96.693662   28.581486   -3.669406   47.572708
  0.040240481    0.000000    0.000000    0.000000    0.000000  -98.411201   26.740808   -3.727892   45.490940
  0.040440882    0.000000    0.000000    0.000000    0.000000  -98.031753   26.504541   -3.789723   43.403275
  0.040641283    0.000000    0.000000    0.000000    0.000000  -98.023674   23.590004   -3.851576   41.338154
  0.040841683    0.000000    0.000000    0.000000    0.000000  -98.523135   25.202105   -3.910963   39.287930
  0.041042084    0.000000    0.000000    0.000000    0.000000  -97.854853   29.989567   -3.973431   37.255833
  0.041242485    0.000000    0.000000    0.000000    0.000000  -97.217668   28.139694   -4.033971   35.182762
  0.041442886    0.000000    0.000000    0.000000    0.000000  -96.788352   19.103582   -4.096412   33.120216
  0.041643287    0.000000    0.000000    0.000000    0.000000  -97.618303   35.574497   -4.155122   31.068296
  0.041843687    0.000000    0.000000    0.000000    0.000000  -96.553693   31.327660   -4.212054   29.013868
  0.042044088    0.000000    0.000000    0.000000    0.000000  -97.656200   26.325397   -4.272232   26.975288
  0.042244489    0.000000    0.000000    0.000000    0.000000  -98.423874   26.062305   -4.331082   24.942947
  0.042444890    0.000000    0.000000    0.000000    0.000000  -98.682329   27.067789   -4.387314   22.922773
  0.042645291    0.000000    0.000000    0.000000    0.000000  -99.555097   24.519037   -4.446898   20.914387
  0.042845691    0.000000    0.000000    0.000000    0.000000  -98.640736   27.353281   -4.504875   18.897041
  0.043046092    0.000000    0.000000    0.000000    0.000000  -98.483297   25.570267   -4.560497   16.895298
  0.043246493    0.000000    0.000000    0.000000    0.000000  -98.757144   31.634407   -4.619576   14.886866
  0.043446894    0.000000    0.000000    0.000000    0.000000 -100.289310   20.239866   -4.671600   12.901691
  0.043647295    0.000000    0.000000    0.000000    0.000000  -99.238603   29.785379   -4.725320   10.902347
  0.043847695    0.000000    0.000000    0.000000    0.000000  -99.457324   31.185801   -4.779422    8.954410
  0.044048096    0.000000    0.000000    0.000000    0.000000  -98.024332   22.919886   -4.834224    6.974277
  0.044248497    0.000000    0.000000    0.000000    0.000000  -99.112280   34.116425   -4.886632    5.039204
  0.044448898    0.000000    0.000000    0.000000    0.000000  -98.762340   18.187778   -4.940159    3.089381
  0.044649299    0.000000    0.000000    0.000000    0.000000 -100.451284   34.268879   -4.991962    1.177958
  0.044849699    0.000000    0.000000    0.000000    0.000000  -99.319861   33.491741   -5.042098   -0.761397
  0.045050100    0.000000    0.000000    0.000000    0.000000  -97.850747   28.085697   -5.091230   -2.680351
  0.045250501    0.000000    0.000000    0.000000    0.000000  -98.984487   42.440929   -5.137771   -4.588725
  0.045450902    0.000000    0.000000    0.000000    0.000000  -98.107378   29.528120   -5.184502   -6.488427
  0.045651303    0.000000    0.000000    0.000000    0.000000  -98.991508   30.743620   -5.231711   -8.375912
  0.045851703    0.000000    0.000000    0.000000    0.000000  -97.311433   32.261654   -5.280511  -10.235335
  0.046052104    0.000000    0.000000    0.000000    0.000000  -98.490769   35.705311   -5.322887  -12.099602
  0.046252505    0.000000    0.000000    0.000000    0.000000  -97.795193   32.289261   -5.368078  -13.935361
  0.046452906    0.000000    0.000000    0.000000    0.000000  -98.933932   35.697117   -5.412576  -15.770176
  0.046653307    0.000000    0.000000    0.000000    0.000000  -98.050815   24.433786   -5.455079  -17.605316
  0.046853707    0.000000    0.000000    0.000000    0.000000  -98.977133   34.790932   -5.498092  -19.423805
  0.047054108    0.000000    0.000000    0.000000    0.000000 -100.174373   30.867613   -5.539082  -21.242567
  0.047254509    0.000000    0.000000    0.000000    0.000000  -98.212860   30.695837   -5.576362  -23.055197
  0.047454910    0.000000    0.000000    0.000000    0.000000  -98.556072   33.662357   -5.611775  -24.841148
  0.047655311    0.000000    0.000000    0.000000    0.000000  -98.442393   29.507103   -5.648796  -26.642628
  0.047855711    0.000000    0.000000    0.000000    0.000000  -99.817284   25.328241   -5.683182  -28.382195
  0.048056112    0.000000    0.000000    0.000000    0.000000  -98.174832   32.814884   -5.719784  -30.146856
  0.048256513    0.000000    0.000000    0.000000    0.000000  -99.015503   25.427589   -5.754451  -31.865507
  0.048456914    0.000000    0.000000    0.000000    0.000000  -98.061283   29.402988   -5.786089  -33.630394
  0.048657315    0.000000    0.000000    0.000000    0.000000  -99.635471   38.247906   -5.814623  -35.358521
  0.048857715    0.000000    0.000000    0.000000    0.000000  -98.641257   32.288273   -5.842825  -37.095001
  0.049058116    0.000000    0.000000    0.000000    0.000000  -98.522138   21.106016   -5.868853  -38.823624
  0.049258517    0.000000    0.000000    0.000000    0.000000  -99.390319   18.155243   -5.893855  -40.494186
  0.049458918    0.000000    0.000000    0.000000    0.000000  -98.226417   23.104910   -5.919608  -42.171692
  0.049659319    0.000000    0.000000    0.000000    0.000000  -99.789403   38.791313   -5.945483  -43.858826
  0.049859719    0.000000    0.000000    0.000000    0.000000 -100.032549   35.271027   -5.971083  -45.529903
  0.050060120    0.000000    0.000000    0.000000    0.000000 -100.341671   29.016136   -5.992788  -47.190834
  0.050260521    0.000000    0.000000    0.000000    0.000000  -99.661062   29.272804   -6.012842  -48.831188
  0.050460922    0.000000    0.000000    0.000000    0.000000  -98.410567   36.115734   -6.029594  -50.484676
  0.050661323    0.000000    0.000000    0.000000    0.000000 -100.350480   35.315945   -6.044124  -52.128078
  0.050861723    0.000000    0.000000    0.000000    0.000000  -99.499487   27.793518   -6.061694  -53.747055
  0.051062124    0.000000    0.000000    0.000000    0.000000 -100.642476   33.002121   -6.081422  -55.387756
  0.051262525    0.000000    0.000000    0.000000    0.000000  -98.820306   29.097141   -6.093867  -56.970940
  0.051462926    0.000000    0.000000    0.000000    0.000000  -98.357220   36.602177   -6.110818  -58.546135
  0.051663327    0.000000    0.000000    0.000000    0.000000  -99.396609   30.378643   -6.124898  -60.139175
  0.051863727    0.000000    0.000000    0.000000    0.000000 -100.821638   27.785448   -6.135866  -61.734051
  0.052064128    0.000000    0.000000    0.000000    0.000000  -99.014110   34.364212   -6.148083  -63.314091
  0.052264529    0.000000    0.000000    0.000000    0.000000  -98.976841   37.305283   -6.155140  -64.889297
  0.052464930    0.000000    0.000000    0.000000    0.000000  -97.254467   33.714874   -6.163981  -66.446297
  0.052665331    0.000000    0.000000    0.000000    0.000000  -98.118525   26.168852   -6.174215  -67.980354
  0.052865731    0.000000    0.000000    0.000000    0.000000  -98.770051   35.765240   -6.184892  -69.516052
