! Anritsu VNA Master:                     Model: MS2036C/10/77
! SN:                                  1601066
! /bd0/18may09/252.ns.m1.s2p
! Existing Calibration Information:
! TYPE:                         Current Settings,       Active Cal Settings
! TIME:             	   05/09/2018 08:51:01 AM,    05/09/2018 08:47:23 AM
! INTERNAL TEMP:    	                   40.0 C,                    40.0 C
! # POINTS:         	                      500,                       500
! START FREQ:       	               20.000 MHz,                20.000 MHz
! STOP FREQ:        	              120.000 MHz,               120.000 MHz
! SOURCE POWER:     	                     High,                      High
! IFBW:             	                    50 Hz,                     50 Hz
! AVG FACTOR:       	                       1 ,                        1 
! REF PLANE 1:      	                     0 mm,                      0 mm
! REF PLANE 2:      	                     0 mm,                      0 mm
! CAL TYPE:         	                 Full S11,                  Full S11
! CAL METHOD:       	                     SOLT,                      SOLT
! CAL LINE TYPE:    	                     Coax,                      Coax
! DUT PORT 1:       	                K-Conn(F),                 K-Conn(F)
! DUT PORT 2:       	                K-Conn(F),                 K-Conn(F)
! CAL STATUS:       	        OK: Accuracy High,                        --
# GHZ S DB R 50.0
! FREQ.GHZ       S11DB        S11A       S21DB        S21A       S12DB        S12A       S22DB        S22A
  0.020000000   -0.587195 -124.129494  -91.006687   32.744202    0.000000    0.000000    0.000000    0.000000
  0.020200401   -0.588037 -125.540421  -91.501138   26.080004    0.000000    0.000000    0.000000    0.000000
  0.020400802   -0.589342 -126.975349  -90.978638   31.465590    0.000000    0.000000    0.000000    0.000000
  0.020601202   -0.592055 -128.411331  -91.950456   31.546701    0.000000    0.000000    0.000000    0.000000
  0.020801603   -0.596268 -129.866104  -91.972287   30.661823    0.000000    0.000000    0.000000    0.000000
  0.021002004   -0.602167 -131.360123  -92.775484   38.252506    0.000000    0.000000    0.000000    0.000000
  0.021202405   -0.611742 -132.865067  -92.545299   32.902039    0.000000    0.000000    0.000000    0.000000
  0.021402806   -0.616304 -134.345932  -92.675116   33.241241    0.000000    0.000000    0.000000    0.000000
  0.021603206   -0.620333 -135.838104  -92.820591   34.996746    0.000000    0.000000    0.000000    0.000000
  0.021803607   -0.626171 -137.328079  -93.137687   37.203194    0.000000    0.000000    0.000000    0.000000
  0.022004008   -0.630458 -138.833557  -92.790000   33.316811    0.000000    0.000000    0.000000    0.000000
  0.022204409   -0.636637 -140.346436  -93.134900   38.529255    0.000000    0.000000    0.000000    0.000000
  0.022404810   -0.642642 -141.866928  -92.740788   29.295467    0.000000    0.000000    0.000000    0.000000
  0.022605210   -0.646251 -143.434082  -92.761878   44.662460    0.000000    0.000000    0.000000    0.000000
  0.022805611   -0.648920 -144.986908  -93.126761   41.275364    0.000000    0.000000    0.000000    0.000000
  0.023006012   -0.654524 -146.531052  -92.868139   34.301956    0.000000    0.000000    0.000000    0.000000
  0.023206413   -0.654880 -148.056046  -92.234409   35.773315    0.000000    0.000000    0.000000    0.000000
  0.023406814   -0.658867 -149.607986  -92.368905   36.391186    0.000000    0.000000    0.000000    0.000000
  0.023607214   -0.664287 -151.150818  -92.641413   35.525173    0.000000    0.000000    0.000000    0.000000
  0.023807615   -0.671924 -152.721725  -92.514402   33.025604    0.000000    0.000000    0.000000    0.000000
  0.024008016   -0.680356 -154.302979  -92.904597   30.877495    0.000000    0.000000    0.000000    0.000000
  0.024208417   -0.688100 -155.906479  -92.335990   26.298273    0.000000    0.000000    0.000000    0.000000
  0.024408818   -0.696309 -157.514572  -92.585896   22.796864    0.000000    0.000000    0.000000    0.000000
  0.024609218   -0.704652 -159.114304  -93.036144   26.745956    0.000000    0.000000    0.000000    0.000000
  0.024809619   -0.713168 -160.721695  -93.106946   23.888695    0.000000    0.000000    0.000000    0.000000
  0.025010020   -0.722747 -162.345200  -93.524130   24.397387    0.000000    0.000000    0.000000    0.000000
  0.025210421   -0.734200 -163.973206  -93.601621   21.682249    0.000000    0.000000    0.000000    0.000000
  0.025410822   -0.747639 -165.630768  -94.065873   21.778654    0.000000    0.000000    0.000000    0.000000
  0.025611222   -0.759364 -167.297394  -93.888040   15.644605    0.000000    0.000000    0.000000    0.000000
  0.025811623   -0.768874 -168.975540  -94.624950   21.578932    0.000000    0.000000    0.000000    0.000000
  0.026012024   -0.777501 -170.665375  -94.167032   17.715960    0.000000    0.000000    0.000000    0.000000
  0.026212425   -0.788014 -172.356628  -95.856354   19.180986    0.000000    0.000000    0.000000    0.000000
  0.026412826   -0.800323 -174.056747  -94.467493   23.424362    0.000000    0.000000    0.000000    0.000000
  0.026613226   -0.812627 -175.765549  -95.728030   18.323355    0.000000    0.000000    0.000000    0.000000
  0.026813627   -0.828157 -177.495728  -95.309545   24.249470    0.000000    0.000000    0.000000    0.000000
  0.027014028   -0.843334 -179.219711  -95.661553   18.872471    0.000000    0.000000    0.000000    0.000000
  0.027214429   -0.858778  179.025513  -96.544956   21.564747    0.000000    0.000000    0.000000    0.000000
  0.027414830   -0.873345  177.270462  -95.904535   23.198215    0.000000    0.000000    0.000000    0.000000
  0.027615230   -0.890905  175.502853  -96.614247   22.682655    0.000000    0.000000    0.000000    0.000000
  0.027815631   -0.910335  173.721573  -96.439064   20.725647    0.000000    0.000000    0.000000    0.000000
  0.028016032   -0.932495  171.934158  -96.700338   21.724749    0.000000    0.000000    0.000000    0.000000
  0.028216433   -0.954740  170.140076  -95.563048   23.896833    0.000000    0.000000    0.000000    0.000000
  0.028416834   -0.974960  168.346603  -95.929645   25.366850    0.000000    0.000000    0.000000    0.000000
  0.028617234   -0.995721  166.535934  -96.208261   28.040512    0.000000    0.000000    0.000000    0.000000
  0.028817635   -1.016888  164.748703  -96.142073   23.007813    0.000000    0.000000    0.000000    0.000000
  0.029018036   -1.037720  162.961334  -95.686313   26.513718    0.000000    0.000000    0.000000    0.000000
  0.029218437   -1.061510  161.166611  -95.537378   23.666470    0.000000    0.000000    0.000000    0.000000
  0.029418838   -1.088191  159.363251  -95.623362   21.153654    0.000000    0.000000    0.000000    0.000000
  0.029619238   -1.116105  157.545639  -95.941305   23.414953    0.000000    0.000000    0.000000    0.000000
  0.029819639   -1.147468  155.700241  -96.265876   22.211737    0.000000    0.000000    0.000000    0.000000
  0.030020040   -1.178488  153.828812  -95.734300   15.862148    0.000000    0.000000    0.000000    0.000000
  0.030220441   -1.209783  151.953247  -95.292503   16.427877    0.000000    0.000000    0.000000    0.000000
  0.030420842   -1.240586  150.079620  -95.272887   17.030697    0.000000    0.000000    0.000000    0.000000
  0.030621242   -1.273736  148.210663  -96.098361   17.972780    0.000000    0.000000    0.000000    0.000000
  0.030821643   -1.307722  146.336899  -96.958817   13.502925    0.000000    0.000000    0.000000    0.000000
  0.031022044   -1.344306  144.449356  -97.366980   19.218119    0.000000    0.000000    0.000000    0.000000
  0.031222445   -1.378076  142.573547  -96.454564   18.329664    0.000000    0.000000    0.000000    0.000000
  0.031422846   -1.413414  140.646011  -96.849714   13.380049    0.000000    0.000000    0.000000    0.000000
  0.031623246   -1.447547  138.701248  -97.528821   12.822326    0.000000    0.000000    0.000000    0.000000
  0.031823647   -1.477875  136.738815  -97.957905    8.716669    0.000000    0.000000    0.000000    0.000000
  0.032024048   -1.507807  134.797577  -96.762365    9.860728    0.000000    0.000000    0.000000    0.000000
  0.032224449   -1.540206  132.868805  -97.505463    7.354234    0.000000    0.000000    0.000000    0.000000
  0.032424850   -1.572204  130.950607  -98.652453    9.975117    0.000000    0.000000    0.000000    0.000000
  0.032625251   -1.604852  128.988602  -98.088705   16.238628    0.000000    0.000000    0.000000    0.000000
  0.032825651   -1.640943  127.063118  -98.193219   21.476835    0.000000    0.000000    0.000000    0.000000
  0.033026052   -1.679259  125.103989  -96.959089   11.703833    0.000000    0.000000    0.000000    0.000000
  0.033226453   -1.728385  123.145126  -98.160945    6.206295    0.000000    0.000000    0.000000    0.000000
  0.033426854   -1.774853  121.171494  -98.314484   21.960806    0.000000    0.000000    0.000000    0.000000
  0.033627255   -1.823650  119.139290  -98.062529   12.581816    0.000000    0.000000    0.000000    0.000000
  0.033827655   -1.870494  117.062584  -97.872467   17.654091    0.000000    0.000000    0.000000    0.000000
  0.034028056   -1.917848  114.973297  -98.913263   19.361078    0.000000    0.000000    0.000000    0.000000
  0.034228457   -1.961860  112.862244  -98.285189   15.327288    0.000000    0.000000    0.000000    0.000000
  0.034428858   -2.006488  110.733002  -98.687136   11.610418    0.000000    0.000000    0.000000    0.000000
  0.034629259   -2.047242  108.618355  -97.987640   16.037874    0.000000    0.000000    0.000000    0.000000
  0.034829659   -2.086465  106.509895  -97.846846    7.276898    0.000000    0.000000    0.000000    0.000000
  0.035030060   -2.124771  104.400902  -97.988004   17.954941    0.000000    0.000000    0.000000    0.000000
  0.035230461   -2.166546  102.292603  -97.770933   13.847672    0.000000    0.000000    0.000000    0.000000
  0.035430862   -2.204941  100.220230  -98.354732   11.192689    0.000000    0.000000    0.000000    0.000000
  0.035631263   -2.246293   98.153084  -98.353783   11.143617    0.000000    0.000000    0.000000    0.000000
  0.035831663   -2.291308   96.070183  -98.005771    5.588241    0.000000    0.000000    0.000000    0.000000
  0.036032064   -2.336289   94.009354  -98.059533    5.315262    0.000000    0.000000    0.000000    0.000000
  0.036232465   -2.382265   91.960686  -99.254039    3.004274    0.000000    0.000000    0.000000    0.000000
  0.036432866   -2.432672   89.930611  -98.675470    4.276844    0.000000    0.000000    0.000000    0.000000
  0.036633267   -2.487855   87.856476  -99.848091    1.144356    0.000000    0.000000    0.000000    0.000000
  0.036833667   -2.549998   85.810791  -98.916945    8.583711    0.000000    0.000000    0.000000    0.000000
  0.037034068   -2.611309   83.712898  -98.749821   12.819717    0.000000    0.000000    0.000000    0.000000
  0.037234469   -2.672179   81.601158 -101.316600   10.585583    0.000000    0.000000    0.000000    0.000000
  0.037434870   -2.735900   79.467171  -99.330682    2.184331    0.000000    0.000000    0.000000    0.000000
  0.037635271   -2.800110   77.302383  -99.843379   10.283325    0.000000    0.000000    0.000000    0.000000
  0.037835671   -2.866859   75.123413  -99.509403   15.127831    0.000000    0.000000    0.000000    0.000000
  0.038036072   -2.937335   72.975044 -101.085846   20.635431    0.000000    0.000000    0.000000    0.000000
  0.038236473   -2.993709   70.884628 -100.779836   16.338661    0.000000    0.000000    0.000000    0.000000
  0.038436874   -3.043914   68.740448 -100.596142    4.271889    0.000000    0.000000    0.000000    0.000000
  0.038637275   -3.087880   66.599365 -101.759571   17.393049    0.000000    0.000000    0.000000    0.000000
  0.038837675   -3.135126   64.480576 -100.863780    8.809160    0.000000    0.000000    0.000000    0.000000
  0.039038076   -3.182034   62.401325  -99.789781   17.688486    0.000000    0.000000    0.000000    0.000000
  0.039238477   -3.235085   60.316166  -99.715181   20.911470    0.000000    0.000000    0.000000    0.000000
  0.039438878   -3.288369   58.254436  -99.223866   19.498405    0.000000    0.000000    0.000000    0.000000
  0.039639279   -3.350068   56.192219  -98.682378   18.194418    0.000000    0.000000    0.000000    0.000000
  0.039839679   -3.414342   54.112186  -99.346378    5.433719    0.000000    0.000000    0.000000    0.000000
  0.040040080   -3.478358   52.015419 -100.254328   10.889132    0.000000    0.000000    0.000000    0.000000
  0.040240481   -3.543932   49.881096  -99.675171    4.243196    0.000000    0.000000    0.000000    0.000000
  0.040440882   -3.607479   47.770870 -100.577013    7.663883    0.000000    0.000000    0.000000    0.000000
  0.040641283   -3.670449   45.662231  -99.226292    5.533483    0.000000    0.000000    0.000000    0.000000
  0.040841683   -3.733724   43.530090  -99.089030    3.401547    0.000000    0.000000    0.000000    0.000000
  0.041042084   -3.794528   41.430645 -100.631033    0.288907    0.000000    0.000000    0.000000    0.000000
  0.041242485   -3.852651   39.292774 -100.013693    8.569196    0.000000    0.000000    0.000000    0.000000
  0.041442886   -3.910348   37.160393 -101.522714    3.920449    0.000000    0.000000    0.000000    0.000000
  0.041643287   -3.968006   35.036152 -100.865390   -2.167567    0.000000    0.000000    0.000000    0.000000
  0.041843687   -4.021613   32.928936 -100.748504   -2.392822    0.000000    0.000000    0.000000    0.000000
  0.042044088   -4.075093   30.849478 -101.076669    2.126880    0.000000    0.000000    0.000000    0.000000
  0.042244489   -4.125806   28.778858  -99.722819  -10.620597    0.000000    0.000000    0.000000    0.000000
  0.042444890   -4.178445   26.735674 -100.677633   11.779265    0.000000    0.000000    0.000000    0.000000
  0.042645291   -4.231538   24.680197 -101.182137   -1.222087    0.000000    0.000000    0.000000    0.000000
  0.042845691   -4.284164   22.631138 -100.827375    4.250053    0.000000    0.000000    0.000000    0.000000
  0.043046092   -4.335599   20.602995 -102.052242    7.786504    0.000000    0.000000    0.000000    0.000000
  0.043246493   -4.387986   18.581064 -100.385380   -3.183712    0.000000    0.000000    0.000000    0.000000
  0.043446894   -4.438500   16.534538 -101.514006    2.911756    0.000000    0.000000    0.000000    0.000000
  0.043647295   -4.490196   14.514259 -103.015726   20.086590    0.000000    0.000000    0.000000    0.000000
  0.043847695   -4.540536   12.513306 -101.376103   12.539024    0.000000    0.000000    0.000000    0.000000
  0.044048096   -4.593487   10.502004 -100.537842   12.528166    0.000000    0.000000    0.000000    0.000000
  0.044248497   -4.645655    8.520231 -102.213833   12.601394    0.000000    0.000000    0.000000    0.000000
  0.044448898   -4.691964    6.537825 -101.543394   15.704675    0.000000    0.000000    0.000000    0.000000
  0.044649299   -4.739789    4.554500 -100.124456   13.603834    0.000000    0.000000    0.000000    0.000000
  0.044849699   -4.785857    2.565499 -102.675376   12.918106    0.000000    0.000000    0.000000    0.000000
  0.045050100   -4.826250    0.610210 -100.337510   24.142738    0.000000    0.000000    0.000000    0.000000
  0.045250501   -4.867804   -1.345602 -102.154323    7.396346    0.000000    0.000000    0.000000    0.000000
  0.045450902   -4.909642   -3.260496 -102.140699    2.535018    0.000000    0.000000    0.000000    0.000000
  0.045651303   -4.953613   -5.188515 -100.860460   10.128599    0.000000    0.000000    0.000000    0.000000
  0.045851703   -4.996386   -7.068161 -101.126282    2.841536    0.000000    0.000000    0.000000    0.000000
  0.046052104   -5.036630   -8.986661 -101.233644    7.539896    0.000000    0.000000    0.000000    0.000000
  0.046252505   -5.073418  -10.883242 -101.265279    6.343934    0.000000    0.000000    0.000000    0.000000
  0.046452906   -5.112320  -12.762406 -100.576294   -7.228176    0.000000    0.000000    0.000000    0.000000
  0.046653307   -5.144830  -14.676768 -102.037145    4.844467    0.000000    0.000000    0.000000    0.000000
  0.046853707   -5.177054  -16.525063 -101.413560   -1.789215    0.000000    0.000000    0.000000    0.000000
  0.047054108   -5.209776  -18.412109 -101.342808   -2.304394    0.000000    0.000000    0.000000    0.000000
  0.047254509   -5.238199  -20.263638 -100.891756   -7.265784    0.000000    0.000000    0.000000    0.000000
  0.047454910   -5.268636  -22.104956 -100.583283   -2.421813    0.000000    0.000000    0.000000    0.000000
  0.047655311   -5.294416  -23.903938 -101.573443  -10.405441    0.000000    0.000000    0.000000    0.000000
  0.047855711   -5.322578  -25.709642 -102.272360  -11.173673    0.000000    0.000000    0.000000    0.000000
  0.048056112   -5.350815  -27.511738 -102.584242  -12.527561    0.000000    0.000000    0.000000    0.000000
  0.048256513   -5.376384  -29.286520 -101.723555   -5.562102    0.000000    0.000000    0.000000    0.000000
  0.048456914   -5.404710  -31.065544 -102.493063  -11.598391    0.000000    0.000000    0.000000    0.000000
  0.048657315   -5.428015  -32.848053 -103.322547  -17.944859    0.000000    0.000000    0.000000    0.000000
  0.048857715   -5.447597  -34.633549 -105.435744   11.838758    0.000000    0.000000    0.000000    0.000000
  0.049058116   -5.471318  -36.388390 -102.774098   -2.747957    0.000000    0.000000    0.000000    0.000000
  0.049258517   -5.491070  -38.129227 -104.060636    5.127127    0.000000    0.000000    0.000000    0.000000
  0.049458918   -5.512471  -39.845493 -102.569066   14.217186    0.000000    0.000000    0.000000    0.000000
  0.049659319   -5.536952  -41.597565 -103.011872   -3.299322    0.000000    0.000000    0.000000    0.000000
  0.049859719   -5.554695  -43.316299 -104.196035   11.015462    0.000000    0.000000    0.000000    0.000000
  0.050060120   -5.573179  -45.032860 -104.352149   -7.439495    0.000000    0.000000    0.000000    0.000000
  0.050260521   -5.586121  -46.764988 -104.054153   22.502750    0.000000    0.000000    0.000000    0.000000
  0.050460922   -5.601395  -48.489220 -103.720361    4.984572    0.000000    0.000000    0.000000    0.000000
  0.050661323   -5.608510  -50.183262 -102.629195   -0.487172    0.000000    0.000000    0.000000    0.000000
  0.050861723   -5.622362  -51.848854 -101.893804    5.174120    0.000000    0.000000    0.000000    0.000000
  0.051062124   -5.635419  -53.508053 -102.878968   15.229094    0.000000    0.000000    0.000000    0.000000
  0.051262525   -5.647621  -55.090321 -100.772170   14.370795    0.000000    0.000000    0.000000    0.000000
  0.051462926   -5.658837  -56.692253 -102.509016  -10.131927    0.000000    0.000000    0.000000    0.000000
  0.051663327   -5.667496  -58.287296 -101.706703   11.716685    0.000000    0.000000    0.000000    0.000000
  0.051863727   -5.684134  -59.881710 -101.797777   -4.525302    0.000000    0.000000    0.000000    0.000000
  0.052064128   -5.698367  -61.480083 -102.757661   15.944304    0.000000    0.000000    0.000000    0.000000
  0.052264529   -5.711186  -63.072350 -101.129857    6.163001    0.000000    0.000000    0.000000    0.000000
  0.052464930   -5.726838  -64.664497 -102.334793    0.401705    0.000000    0.000000    0.000000    0.000000
  0.052665331   -5.739995  -66.245285 -103.326846    2.755095    0.000000    0.000000    0.000000    0.000000
  0.052865731   -5.754157  -67.827652 -102.214766   -1.067954    0.000000    0.000000    0.000000    0.000000
