! Anritsu VNA Master:                     Model: MS2036C/10/77
! SN:                                  1601066
! /bd0/18may10/252.ew.m9.s2p
! Existing Calibration Information:
! TYPE:                         Current Settings,       Active Cal Settings
! TIME:             	   05/10/2018 06:47:05 PM,    05/10/2018 06:36:47 PM
! INTERNAL TEMP:    	                   61.0 C,                    61.0 C
! # POINTS:         	                      487,                       487
! START FREQ:       	           20.601 202 MHz,            20.601 202 MHz
! STOP FREQ:        	          117.995 991 MHz,           117.995 991 MHz
! SOURCE POWER:     	                     High,                      High
! IFBW:             	                    50 Hz,                     50 Hz
! AVG FACTOR:       	                       1 ,                        1 
! REF PLANE 1:      	                     0 mm,                      0 mm
! REF PLANE 2:      	                     0 mm,                      0 mm
! CAL TYPE:         	                 Full S22,                  Full S22
! CAL METHOD:       	                     SOLT,                      SOLT
! CAL LINE TYPE:    	                     Coax,                      Coax
! DUT PORT 1:       	                K-Conn(M),                 K-Conn(M)
! DUT PORT 2:       	                K-Conn(M),                 K-Conn(M)
! CAL STATUS:       	        OK: Accuracy High,                        --
# GHZ S DB R 50.0
! FREQ.GHZ       S11DB        S11A       S21DB        S21A       S12DB        S12A       S22DB        S22A
  0.020601202    0.000000    0.000000    0.000000    0.000000  -90.664499   32.828701   -0.638104 -130.217163
  0.020801603    0.000000    0.000000    0.000000    0.000000  -90.451081   33.780369   -0.640851 -131.732056
  0.021002004    0.000000    0.000000    0.000000    0.000000  -90.900946   33.242939   -0.642195 -133.262619
  0.021202405    0.000000    0.000000    0.000000    0.000000  -91.875955   32.728024   -0.643278 -134.785782
  0.021402806    0.000000    0.000000    0.000000    0.000000  -91.729146   34.873398   -0.645613 -136.304352
  0.021603206    0.000000    0.000000    0.000000    0.000000  -91.943908   37.395054   -0.646115 -137.828461
  0.021803607    0.000000    0.000000    0.000000    0.000000  -92.160981   40.096512   -0.649242 -139.347321
  0.022004008    0.000000    0.000000    0.000000    0.000000  -92.400567   37.439457   -0.654089 -140.859802
  0.022204409    0.000000    0.000000    0.000000    0.000000  -92.301467   33.570271   -0.658273 -142.412491
  0.022404810    0.000000    0.000000    0.000000    0.000000  -91.398700   38.643456   -0.667021 -143.976196
  0.022605210    0.000000    0.000000    0.000000    0.000000  -92.099520   37.525040   -0.668913 -145.558456
  0.022805611    0.000000    0.000000    0.000000    0.000000  -91.246474   40.718372   -0.671659 -147.151443
  0.023006012    0.000000    0.000000    0.000000    0.000000  -91.482886   40.398026   -0.675013 -148.749939
  0.023206413    0.000000    0.000000    0.000000    0.000000  -91.275173   40.775295   -0.678421 -150.340286
  0.023406814    0.000000    0.000000    0.000000    0.000000  -92.175962   42.866570   -0.685601 -151.929733
  0.023607214    0.000000    0.000000    0.000000    0.000000  -91.208618   39.795120   -0.695179 -153.545761
  0.023807615    0.000000    0.000000    0.000000    0.000000  -91.282894   34.724174   -0.703558 -155.173859
  0.024008016    0.000000    0.000000    0.000000    0.000000  -91.505275   37.166859   -0.712445 -156.817535
  0.024208417    0.000000    0.000000    0.000000    0.000000  -90.868784   35.296215   -0.720515 -158.495972
  0.024408818    0.000000    0.000000    0.000000    0.000000  -91.581624   33.389889   -0.728915 -160.179428
  0.024609218    0.000000    0.000000    0.000000    0.000000  -91.078593   35.185860   -0.735334 -161.850372
  0.024809619    0.000000    0.000000    0.000000    0.000000  -91.296472   30.605602   -0.744928 -163.545349
  0.025010020    0.000000    0.000000    0.000000    0.000000  -91.689532   32.272228   -0.755343 -165.240799
  0.025210421    0.000000    0.000000    0.000000    0.000000  -91.648559   30.621103   -0.766152 -166.943710
  0.025410822    0.000000    0.000000    0.000000    0.000000  -91.734984   27.921991   -0.779086 -168.653656
  0.025611222    0.000000    0.000000    0.000000    0.000000  -92.023068   25.813679   -0.789908 -170.377655
  0.025811623    0.000000    0.000000    0.000000    0.000000  -93.102072   23.017139   -0.800977 -172.107910
  0.026012024    0.000000    0.000000    0.000000    0.000000  -93.171354   26.078655   -0.812632 -173.851593
  0.026212425    0.000000    0.000000    0.000000    0.000000  -93.163211   19.655512   -0.823930 -175.590836
  0.026412826    0.000000    0.000000    0.000000    0.000000  -93.405615   23.388300   -0.838058 -177.348068
  0.026613226    0.000000    0.000000    0.000000    0.000000  -93.582908   23.371584   -0.852710 -179.107040
  0.026813627    0.000000    0.000000    0.000000    0.000000  -94.285258   23.594250   -0.866990  179.131332
  0.027014028    0.000000    0.000000    0.000000    0.000000  -94.139582   26.545946   -0.883112  177.365463
  0.027214429    0.000000    0.000000    0.000000    0.000000  -94.377717   21.908594   -0.898221  175.594940
  0.027414830    0.000000    0.000000    0.000000    0.000000  -95.169998   30.270086   -0.913905  173.819977
  0.027615230    0.000000    0.000000    0.000000    0.000000  -95.900259   28.776459   -0.932511  172.036896
  0.027815631    0.000000    0.000000    0.000000    0.000000  -94.701406   26.844915   -0.950226  170.237244
  0.028016032    0.000000    0.000000    0.000000    0.000000  -94.994017   30.133436   -0.969470  168.426346
  0.028216433    0.000000    0.000000    0.000000    0.000000  -94.183948   29.785690   -0.989056  166.608170
  0.028416834    0.000000    0.000000    0.000000    0.000000  -94.354831   32.819740   -1.010305  164.783539
  0.028617234    0.000000    0.000000    0.000000    0.000000  -94.276493   34.188324   -1.032770  162.945343
  0.028817635    0.000000    0.000000    0.000000    0.000000  -94.548519   35.558727   -1.054734  161.111435
  0.029018036    0.000000    0.000000    0.000000    0.000000  -93.660025   30.380688   -1.077788  159.264557
  0.029218437    0.000000    0.000000    0.000000    0.000000  -94.289853   32.403633   -1.103602  157.404556
  0.029418838    0.000000    0.000000    0.000000    0.000000  -94.613997   30.018991   -1.130440  155.515488
  0.029619238    0.000000    0.000000    0.000000    0.000000  -93.742880   33.552975   -1.156921  153.617493
  0.029819639    0.000000    0.000000    0.000000    0.000000  -94.398914   31.006012   -1.184524  151.707306
  0.030020040    0.000000    0.000000    0.000000    0.000000  -93.863522   24.446413   -1.213739  149.780075
  0.030220441    0.000000    0.000000    0.000000    0.000000  -94.201100   26.779335   -1.241471  147.856232
  0.030420842    0.000000    0.000000    0.000000    0.000000  -94.457765   28.023859   -1.270342  145.928009
  0.030621242    0.000000    0.000000    0.000000    0.000000  -94.390178   27.382454   -1.301981  143.996628
  0.030821643    0.000000    0.000000    0.000000    0.000000  -94.589440   24.039316   -1.336120  142.037384
  0.031022044    0.000000    0.000000    0.000000    0.000000  -94.638473   21.184240   -1.368365  140.085678
  0.031222445    0.000000    0.000000    0.000000    0.000000  -94.300413   23.574600   -1.395558  138.126617
  0.031422846    0.000000    0.000000    0.000000    0.000000  -94.549325   15.091020   -1.430373  136.129761
  0.031623246    0.000000    0.000000    0.000000    0.000000  -94.078816   23.085752   -1.466692  134.128601
  0.031823647    0.000000    0.000000    0.000000    0.000000  -94.173164   24.324463   -1.505002  132.131149
  0.032024048    0.000000    0.000000    0.000000    0.000000  -95.194955   20.288712   -1.542552  130.133652
  0.032224449    0.000000    0.000000    0.000000    0.000000  -95.506476   18.690977   -1.581658  128.133377
  0.032424850    0.000000    0.000000    0.000000    0.000000  -94.634766   13.744597   -1.621331  126.129906
  0.032625250    0.000000    0.000000    0.000000    0.000000  -96.529022   15.022495   -1.662660  124.102570
  0.032825651    0.000000    0.000000    0.000000    0.000000  -96.218308   23.790897   -1.699472  122.070633
  0.033026052    0.000000    0.000000    0.000000    0.000000  -96.274395   20.878174   -1.741154  120.027733
  0.033226453    0.000000    0.000000    0.000000    0.000000  -95.411116    7.739880   -1.783779  117.988350
  0.033426854    0.000000    0.000000    0.000000    0.000000  -95.777701   22.079018   -1.823058  115.958267
  0.033627254    0.000000    0.000000    0.000000    0.000000  -95.951653   24.260612   -1.868172  113.938866
  0.033827655    0.000000    0.000000    0.000000    0.000000  -96.301208   22.413160   -1.914192  111.914078
  0.034028056    0.000000    0.000000    0.000000    0.000000  -97.597004   19.022175   -1.960009  109.881233
  0.034228457    0.000000    0.000000    0.000000    0.000000  -97.057146   25.392145   -2.004007  107.827477
  0.034428858    0.000000    0.000000    0.000000    0.000000  -95.988305   19.598076   -2.054803  105.782303
  0.034629258    0.000000    0.000000    0.000000    0.000000  -95.617924   26.554962   -2.104089  103.706444
  0.034829659    0.000000    0.000000    0.000000    0.000000  -96.291018   25.235338   -2.151721  101.634155
  0.035030060    0.000000    0.000000    0.000000    0.000000  -96.098181   21.827616   -2.205785   99.568497
  0.035230461    0.000000    0.000000    0.000000    0.000000  -96.122234   21.741396   -2.259122   97.494057
  0.035430862    0.000000    0.000000    0.000000    0.000000  -96.732369   25.876612   -2.313320   95.408150
  0.035631262    0.000000    0.000000    0.000000    0.000000  -95.669947   21.726213   -2.368425   93.323059
  0.035831663    0.000000    0.000000    0.000000    0.000000  -96.526312   28.697409   -2.420685   91.236549
  0.036032064    0.000000    0.000000    0.000000    0.000000  -96.933548   16.136169   -2.475927   89.131371
  0.036232465    0.000000    0.000000    0.000000    0.000000  -95.859453   21.664150   -2.529605   87.027374
  0.036432866    0.000000    0.000000    0.000000    0.000000  -96.148873   22.533379   -2.586617   84.905235
  0.036633266    0.000000    0.000000    0.000000    0.000000  -96.816127   22.437138   -2.644667   82.794853
  0.036833667    0.000000    0.000000    0.000000    0.000000  -96.075774   25.192129   -2.699410   80.677681
  0.037034068    0.000000    0.000000    0.000000    0.000000  -97.386720   12.696819   -2.759304   78.544472
  0.037234469    0.000000    0.000000    0.000000    0.000000  -96.139675   18.936810   -2.815915   76.449440
  0.037434870    0.000000    0.000000    0.000000    0.000000  -97.246911   23.693579   -2.874018   74.324547
  0.037635270    0.000000    0.000000    0.000000    0.000000  -97.465751   22.743744   -2.930798   72.228989
  0.037835671    0.000000    0.000000    0.000000    0.000000  -97.859147   17.276354   -2.989278   70.120369
  0.038036072    0.000000    0.000000    0.000000    0.000000  -97.856047   21.856356   -3.047104   67.976379
  0.038236473    0.000000    0.000000    0.000000    0.000000  -97.292591   16.967104   -3.106020   65.848274
  0.038436874    0.000000    0.000000    0.000000    0.000000  -97.440258   13.024857   -3.164602   63.714554
  0.038637274    0.000000    0.000000    0.000000    0.000000 -100.469733   22.376751   -3.227115   61.598198
  0.038837675    0.000000    0.000000    0.000000    0.000000  -97.559643   22.432335   -3.282572   59.493938
  0.039038076    0.000000    0.000000    0.000000    0.000000  -96.700602   22.683821   -3.339968   57.407993
  0.039238477    0.000000    0.000000    0.000000    0.000000  -97.869255   26.158648   -3.394211   55.338085
  0.039438878    0.000000    0.000000    0.000000    0.000000  -99.557208   21.353405   -3.453409   53.259506
  0.039639278    0.000000    0.000000    0.000000    0.000000  -98.777341   27.956240   -3.510702   51.189667
  0.039839679    0.000000    0.000000    0.000000    0.000000  -99.744456   32.619205   -3.570995   49.104107
  0.040040080    0.000000    0.000000    0.000000    0.000000  -98.482607   33.072529   -3.625554   47.019878
  0.040240481    0.000000    0.000000    0.000000    0.000000  -98.038301   28.884413   -3.684278   44.946812
  0.040440882    0.000000    0.000000    0.000000    0.000000  -97.525350   28.699505   -3.741455   42.905453
  0.040641283    0.000000    0.000000    0.000000    0.000000  -97.688004   29.975876   -3.798842   40.850655
  0.040841683    0.000000    0.000000    0.000000    0.000000  -98.428721   32.581974   -3.856674   38.793781
  0.041042084    0.000000    0.000000    0.000000    0.000000  -98.241396   28.519678   -3.915465   36.776333
  0.041242485    0.000000    0.000000    0.000000    0.000000  -98.698585   23.501451   -3.974223   34.725044
  0.041442886    0.000000    0.000000    0.000000    0.000000  -97.221007   20.899553   -4.032746   32.686249
  0.041643287    0.000000    0.000000    0.000000    0.000000  -98.343240   23.640564   -4.088577   30.625082
  0.041843687    0.000000    0.000000    0.000000    0.000000  -97.262919   24.859476   -4.145050   28.564016
  0.042044088    0.000000    0.000000    0.000000    0.000000  -97.172735   29.883629   -4.200390   26.519627
  0.042244489    0.000000    0.000000    0.000000    0.000000  -98.681185   25.902901   -4.257995   24.479422
  0.042444890    0.000000    0.000000    0.000000    0.000000  -99.176127   28.685637   -4.311774   22.460812
  0.042645291    0.000000    0.000000    0.000000    0.000000  -98.284827   30.141666   -4.368285   20.419336
  0.042845691    0.000000    0.000000    0.000000    0.000000  -98.712069   24.705967   -4.421343   18.406673
  0.043046092    0.000000    0.000000    0.000000    0.000000  -98.599639   20.765646   -4.474479   16.371611
  0.043246493    0.000000    0.000000    0.000000    0.000000  -97.417228   24.591358   -4.527662   14.366515
  0.043446894    0.000000    0.000000    0.000000    0.000000  -98.872128   27.020205   -4.577808   12.348133
  0.043647295    0.000000    0.000000    0.000000    0.000000  -98.894526   13.825938   -4.626466   10.336980
  0.043847695    0.000000    0.000000    0.000000    0.000000  -98.351057   26.051203   -4.675935    8.348297
  0.044048096    0.000000    0.000000    0.000000    0.000000  -98.209397   32.938709   -4.723805    6.376270
  0.044248497    0.000000    0.000000    0.000000    0.000000  -99.668462   28.424170   -4.771829    4.399740
  0.044448898    0.000000    0.000000    0.000000    0.000000  -98.212521   29.365128   -4.818468    2.447294
  0.044649299    0.000000    0.000000    0.000000    0.000000 -100.064209   41.112671   -4.865403    0.516949
  0.044849699    0.000000    0.000000    0.000000    0.000000  -98.351363   32.820824   -4.910063   -1.414866
  0.045050100    0.000000    0.000000    0.000000    0.000000  -99.461824   27.294046   -4.954680   -3.341690
  0.045250501    0.000000    0.000000    0.000000    0.000000  -99.635108   25.472977   -4.998003   -5.260038
  0.045450902    0.000000    0.000000    0.000000    0.000000  -98.785697   28.404835   -5.040686   -7.171267
  0.045651303    0.000000    0.000000    0.000000    0.000000  -99.166086   28.384100   -5.083448   -9.074972
  0.045851703    0.000000    0.000000    0.000000    0.000000  -98.638855   33.444973   -5.122923  -10.962844
  0.046052104    0.000000    0.000000    0.000000    0.000000  -96.968306   31.240620   -5.167350  -12.834464
  0.046252505    0.000000    0.000000    0.000000    0.000000  -98.924071   20.387087   -5.209032  -14.678483
  0.046452906    0.000000    0.000000    0.000000    0.000000  -98.818160   27.210260   -5.250772  -16.533432
  0.046653307    0.000000    0.000000    0.000000    0.000000  -98.049000   26.834253   -5.295760  -18.374210
  0.046853707    0.000000    0.000000    0.000000    0.000000  -97.172152   30.552027   -5.334884  -20.212921
  0.047054108    0.000000    0.000000    0.000000    0.000000  -98.811763   30.407404   -5.376621  -22.075777
  0.047254509    0.000000    0.000000    0.000000    0.000000  -98.182771   24.393284   -5.414813  -23.904186
  0.047454910    0.000000    0.000000    0.000000    0.000000  -99.986440   28.191816   -5.452972  -25.720997
  0.047655311    0.000000    0.000000    0.000000    0.000000  -99.883853   31.848537   -5.489840  -27.559319
  0.047855711    0.000000    0.000000    0.000000    0.000000  -98.909776   26.080980   -5.527783  -29.355160
  0.048056112    0.000000    0.000000    0.000000    0.000000  -99.358483   28.007526   -5.563759  -31.148012
  0.048256513    0.000000    0.000000    0.000000    0.000000  -98.791002   34.955318   -5.601693  -32.946384
  0.048456914    0.000000    0.000000    0.000000    0.000000 -100.139800   19.519381   -5.636818  -34.734894
  0.048657315    0.000000    0.000000    0.000000    0.000000 -100.476465   31.235958   -5.669055  -36.500626
  0.048857715    0.000000    0.000000    0.000000    0.000000  -99.290268   22.419907   -5.700811  -38.275043
  0.049058116    0.000000    0.000000    0.000000    0.000000  -99.732590   29.470293   -5.728416  -40.039780
  0.049258517    0.000000    0.000000    0.000000    0.000000  -99.401337   28.914131   -5.755997  -41.773922
  0.049458918    0.000000    0.000000    0.000000    0.000000  -99.032502   32.636391   -5.783581  -43.503307
  0.049659319    0.000000    0.000000    0.000000    0.000000  -99.260493   34.942963   -5.810949  -45.209843
  0.049859719    0.000000    0.000000    0.000000    0.000000  -99.323762   28.459885   -5.837896  -46.895267
  0.050060120    0.000000    0.000000    0.000000    0.000000  -98.523329   38.627068   -5.864499  -48.566849
  0.050260521    0.000000    0.000000    0.000000    0.000000 -100.943985   40.908051   -5.883915  -50.247147
  0.050460922    0.000000    0.000000    0.000000    0.000000  -99.368532   30.299246   -5.910927  -51.918861
  0.050661323    0.000000    0.000000    0.000000    0.000000  -98.170385   35.235519   -5.930155  -53.551403
  0.050861723    0.000000    0.000000    0.000000    0.000000 -100.388044   41.873631   -5.948497  -55.185665
  0.051062124    0.000000    0.000000    0.000000    0.000000  -99.425474   38.174484   -5.971780  -56.768097
  0.051262525    0.000000    0.000000    0.000000    0.000000  -99.521620   28.722752   -5.994810  -58.375851
  0.051462926    0.000000    0.000000    0.000000    0.000000  -98.893552   30.876331   -6.014941  -59.945099
  0.051663327    0.000000    0.000000    0.000000    0.000000 -100.319157   39.063194   -6.032422  -61.511086
  0.051863727    0.000000    0.000000    0.000000    0.000000  -99.210272   38.273075   -6.054855  -63.055870
  0.052064128    0.000000    0.000000    0.000000    0.000000  -98.083951   27.253117   -6.071204  -64.603790
  0.052264529    0.000000    0.000000    0.000000    0.000000  -99.097184   27.046656   -6.087591  -66.162819
  0.052464930    0.000000    0.000000    0.000000    0.000000  -98.081554   29.019995   -6.102560  -67.671898
  0.052665331    0.000000    0.000000    0.000000    0.000000  -98.156492   26.836447   -6.123248  -69.196220
  0.052865731    0.000000    0.000000    0.000000    0.000000  -98.683650   36.848106   -6.141285  -70.712303
  0.053066132    0.000000    0.000000    0.000000    0.000000  -97.955293   29.862751   -6.157563  -72.218750
  0.053266533    0.000000    0.000000    0.000000    0.000000  -98.146200   33.481361   -6.175925  -73.703300
  0.053466934    0.000000    0.000000    0.000000    0.000000  -98.057274   31.641384   -6.195054  -75.205345
