! Anritsu VNA Master:                     Model: MS2036C/10/77
! SN:                                  1601066
! /bd0/18may10/252.ew.m5.s2p
! Existing Calibration Information:
! TYPE:                         Current Settings,       Active Cal Settings
! TIME:             	   05/10/2018 06:32:46 PM,    05/10/2018 06:18:15 PM
! INTERNAL TEMP:    	                   60.8 C,                    60.0 C
! # POINTS:         	                      487,                       487
! START FREQ:       	           20.601 202 MHz,            20.601 202 MHz
! STOP FREQ:        	          117.995 991 MHz,           117.995 991 MHz
! SOURCE POWER:     	                     High,                      High
! IFBW:             	                    50 Hz,                     50 Hz
! AVG FACTOR:       	                       1 ,                        1 
! REF PLANE 1:      	                     0 mm,                      0 mm
! REF PLANE 2:      	                     0 mm,                      0 mm
! CAL TYPE:         	                 Full S22,                  Full S22
! CAL METHOD:       	                     SOLT,                      SOLT
! CAL LINE TYPE:    	                     Coax,                      Coax
! DUT PORT 1:       	                K-Conn(M),                 K-Conn(M)
! DUT PORT 2:       	                K-Conn(M),                 K-Conn(M)
! CAL STATUS:       	        OK: Accuracy High,                        --
# GHZ S DB R 50.0
! FREQ.GHZ       S11DB        S11A       S21DB        S21A       S12DB        S12A       S22DB        S22A
  0.020601202    0.000000    0.000000    0.000000    0.000000  -90.535286   32.164486   -0.656326 -129.324158
  0.020801603    0.000000    0.000000    0.000000    0.000000  -90.893368   34.595375   -0.660779 -130.841309
  0.021002004    0.000000    0.000000    0.000000    0.000000  -91.415537   33.564915   -0.662773 -132.374954
  0.021202405    0.000000    0.000000    0.000000    0.000000  -91.711431   35.173683   -0.666634 -133.913239
  0.021402806    0.000000    0.000000    0.000000    0.000000  -91.992116   33.897129   -0.669697 -135.457962
  0.021603206    0.000000    0.000000    0.000000    0.000000  -91.621803   37.928402   -0.671172 -136.989899
  0.021803607    0.000000    0.000000    0.000000    0.000000  -91.601697   40.424149   -0.674674 -138.540131
  0.022004008    0.000000    0.000000    0.000000    0.000000  -92.127455   39.210155   -0.680358 -140.097473
  0.022204409    0.000000    0.000000    0.000000    0.000000  -91.843028   42.055447   -0.684257 -141.675735
  0.022404810    0.000000    0.000000    0.000000    0.000000  -91.767959   42.191345   -0.690320 -143.264618
  0.022605210    0.000000    0.000000    0.000000    0.000000  -92.062665   39.868080   -0.693867 -144.867996
  0.022805611    0.000000    0.000000    0.000000    0.000000  -91.748917   40.748898   -0.696078 -146.476425
  0.023006012    0.000000    0.000000    0.000000    0.000000  -92.021101   43.092117   -0.699319 -148.081146
  0.023206413    0.000000    0.000000    0.000000    0.000000  -91.683896   42.658840   -0.701363 -149.673279
  0.023406814    0.000000    0.000000    0.000000    0.000000  -91.649036   41.384960   -0.705342 -151.273438
  0.023607214    0.000000    0.000000    0.000000    0.000000  -91.137807   39.785286   -0.710396 -152.867874
  0.023807615    0.000000    0.000000    0.000000    0.000000  -91.763108   40.310417   -0.718214 -154.470215
  0.024008016    0.000000    0.000000    0.000000    0.000000  -91.604789   36.862793   -0.726882 -156.096603
  0.024208417    0.000000    0.000000    0.000000    0.000000  -90.995752   32.196304   -0.732413 -157.742142
  0.024408818    0.000000    0.000000    0.000000    0.000000  -91.256841   31.904770   -0.739196 -159.381638
  0.024609218    0.000000    0.000000    0.000000    0.000000  -91.468664   31.861576   -0.745418 -161.018768
  0.024809619    0.000000    0.000000    0.000000    0.000000  -91.402913   31.221407   -0.752655 -162.659195
  0.025010020    0.000000    0.000000    0.000000    0.000000  -91.460442   28.827763   -0.763576 -164.308807
  0.025210421    0.000000    0.000000    0.000000    0.000000  -91.273767   27.570360   -0.773799 -165.957962
  0.025410822    0.000000    0.000000    0.000000    0.000000  -92.449718   28.752850   -0.786134 -167.624908
  0.025611222    0.000000    0.000000    0.000000    0.000000  -92.360245   22.782217   -0.798224 -169.301743
  0.025811623    0.000000    0.000000    0.000000    0.000000  -92.585839   26.915024   -0.810463 -171.001602
  0.026012024    0.000000    0.000000    0.000000    0.000000  -93.121668   24.651207   -0.820668 -172.711166
  0.026212425    0.000000    0.000000    0.000000    0.000000  -93.019141   25.535053   -0.833536 -174.431442
  0.026412826    0.000000    0.000000    0.000000    0.000000  -93.554355   25.005959   -0.849194 -176.153198
  0.026613226    0.000000    0.000000    0.000000    0.000000  -93.843363   24.921677   -0.865265 -177.903656
  0.026813627    0.000000    0.000000    0.000000    0.000000  -93.400546   23.832918   -0.881693 -179.665665
  0.027014028    0.000000    0.000000    0.000000    0.000000  -94.105428   24.764112   -0.900213  178.571960
  0.027214429    0.000000    0.000000    0.000000    0.000000  -94.437116   23.126947   -0.916225  176.788101
  0.027414830    0.000000    0.000000    0.000000    0.000000  -95.061411   26.268608   -0.933715  174.992706
  0.027615230    0.000000    0.000000    0.000000    0.000000  -94.518415   30.770962   -0.953154  173.189529
  0.027815631    0.000000    0.000000    0.000000    0.000000  -95.581593   32.591625   -0.972047  171.364685
  0.028016032    0.000000    0.000000    0.000000    0.000000  -94.038742   29.320219   -0.991793  169.524948
  0.028216433    0.000000    0.000000    0.000000    0.000000  -94.568972   32.478226   -1.011735  167.678528
  0.028416834    0.000000    0.000000    0.000000    0.000000  -94.518677   32.255283   -1.033180  165.821884
  0.028617234    0.000000    0.000000    0.000000    0.000000  -94.745758   30.951309   -1.053375  163.949860
  0.028817635    0.000000    0.000000    0.000000    0.000000  -94.198090   32.379169   -1.074356  162.091339
  0.029018036    0.000000    0.000000    0.000000    0.000000  -94.596743   29.447237   -1.098262  160.235001
  0.029218437    0.000000    0.000000    0.000000    0.000000  -94.514222   33.800678   -1.122156  158.353531
  0.029418838    0.000000    0.000000    0.000000    0.000000  -94.409552   30.702585   -1.145748  156.452942
  0.029619238    0.000000    0.000000    0.000000    0.000000  -94.043691   28.482006   -1.171206  154.564316
  0.029819639    0.000000    0.000000    0.000000    0.000000  -94.230523   26.790083   -1.197386  152.667007
  0.030020040    0.000000    0.000000    0.000000    0.000000  -94.551342   25.470421   -1.223924  150.752548
  0.030220441    0.000000    0.000000    0.000000    0.000000  -94.500718   29.778610   -1.251087  148.846237
  0.030420842    0.000000    0.000000    0.000000    0.000000  -94.221513   25.020073   -1.279969  146.930649
  0.030621242    0.000000    0.000000    0.000000    0.000000  -94.542469   26.442406   -1.309372  145.023666
  0.030821643    0.000000    0.000000    0.000000    0.000000  -93.945069   26.952229   -1.342830  143.107376
  0.031022044    0.000000    0.000000    0.000000    0.000000  -94.182848   25.133755   -1.375248  141.179535
  0.031222445    0.000000    0.000000    0.000000    0.000000  -94.804700   20.726490   -1.404679  139.251007
  0.031422846    0.000000    0.000000    0.000000    0.000000  -94.884623   22.546057   -1.439662  137.297409
  0.031623246    0.000000    0.000000    0.000000    0.000000  -94.268071   22.800617   -1.475719  135.327194
  0.031823647    0.000000    0.000000    0.000000    0.000000  -94.892843   21.930151   -1.515741  133.355942
  0.032024048    0.000000    0.000000    0.000000    0.000000  -95.264998   16.550850   -1.555664  131.370667
  0.032224449    0.000000    0.000000    0.000000    0.000000  -96.373185   18.783812   -1.596956  129.372665
  0.032424850    0.000000    0.000000    0.000000    0.000000  -95.421619   16.095243   -1.638627  127.381577
  0.032625250    0.000000    0.000000    0.000000    0.000000  -95.635299   21.205486   -1.680137  125.351631
  0.032825651    0.000000    0.000000    0.000000    0.000000  -96.265554   17.682085   -1.722895  123.315826
  0.033026052    0.000000    0.000000    0.000000    0.000000  -95.846332   16.562521   -1.765473  121.254494
  0.033226453    0.000000    0.000000    0.000000    0.000000  -95.348507   18.888283   -1.805687  119.177483
  0.033426854    0.000000    0.000000    0.000000    0.000000  -96.508003   22.907991   -1.850757  117.128021
  0.033627254    0.000000    0.000000    0.000000    0.000000  -96.183464   28.276356   -1.896418  115.064758
  0.033827655    0.000000    0.000000    0.000000    0.000000  -96.567449   25.440224   -1.939364  112.997276
  0.034028056    0.000000    0.000000    0.000000    0.000000  -97.602816   24.896820   -1.986934  110.936729
  0.034228457    0.000000    0.000000    0.000000    0.000000  -95.775412   29.214222   -2.032858  108.857666
  0.034428858    0.000000    0.000000    0.000000    0.000000  -96.188629   28.165239   -2.078956  106.772736
  0.034629258    0.000000    0.000000    0.000000    0.000000  -95.996921   27.307308   -2.127163  104.686028
  0.034829659    0.000000    0.000000    0.000000    0.000000  -95.965321   24.177687   -2.172639  102.585052
  0.035030060    0.000000    0.000000    0.000000    0.000000  -97.210777   23.989780   -2.222671  100.499695
  0.035230461    0.000000    0.000000    0.000000    0.000000  -96.914657   30.549107   -2.275982   98.411446
  0.035430862    0.000000    0.000000    0.000000    0.000000  -96.814133   27.645494   -2.322914   96.350883
  0.035631262    0.000000    0.000000    0.000000    0.000000  -96.058607   33.409058   -2.375715   94.265945
  0.035831663    0.000000    0.000000    0.000000    0.000000  -97.320997   24.157717   -2.426129   92.187401
  0.036032064    0.000000    0.000000    0.000000    0.000000  -96.058871   23.622427   -2.477253   90.120705
  0.036232465    0.000000    0.000000    0.000000    0.000000  -95.683118   19.325579   -2.529365   88.055664
  0.036432866    0.000000    0.000000    0.000000    0.000000  -96.629688   23.013990   -2.583469   85.974411
  0.036633266    0.000000    0.000000    0.000000    0.000000  -96.547664   21.204479   -2.636387   83.925308
  0.036833667    0.000000    0.000000    0.000000    0.000000  -96.877965   20.684778   -2.690869   81.861458
  0.037034068    0.000000    0.000000    0.000000    0.000000  -96.291651   23.272966   -2.749903   79.797417
  0.037234469    0.000000    0.000000    0.000000    0.000000  -95.585397   22.324472   -2.803301   77.687386
  0.037434870    0.000000    0.000000    0.000000    0.000000  -96.585691   18.445820   -2.861603   75.652763
  0.037635270    0.000000    0.000000    0.000000    0.000000  -97.288955   21.729692   -2.920500   73.596344
  0.037835671    0.000000    0.000000    0.000000    0.000000  -96.412107   20.647345   -2.980840   71.518272
  0.038036072    0.000000    0.000000    0.000000    0.000000  -97.293602   22.919439   -3.040680   69.433525
  0.038236473    0.000000    0.000000    0.000000    0.000000  -97.791077   22.391863   -3.102585   67.334877
  0.038436874    0.000000    0.000000    0.000000    0.000000  -96.257137   27.587736   -3.166877   65.225960
  0.038637274    0.000000    0.000000    0.000000    0.000000  -98.757053   27.797768   -3.230267   63.123344
  0.038837675    0.000000    0.000000    0.000000    0.000000  -97.500364   21.971041   -3.290905   61.031216
  0.039038076    0.000000    0.000000    0.000000    0.000000  -97.384364   19.091921   -3.352822   58.954948
  0.039238477    0.000000    0.000000    0.000000    0.000000  -97.918965   16.761002   -3.412117   56.861042
  0.039438878    0.000000    0.000000    0.000000    0.000000  -98.030242   27.359138   -3.473232   54.783176
  0.039639278    0.000000    0.000000    0.000000    0.000000  -96.390780   26.015053   -3.534147   52.679287
  0.039839679    0.000000    0.000000    0.000000    0.000000  -97.568638   26.635628   -3.595556   50.566109
  0.040040080    0.000000    0.000000    0.000000    0.000000  -97.777067   35.375809   -3.652827   48.470425
  0.040240481    0.000000    0.000000    0.000000    0.000000  -97.565003   27.253248   -3.711894   46.376369
  0.040440882    0.000000    0.000000    0.000000    0.000000  -97.152537   24.340117   -3.769590   44.294521
  0.040641283    0.000000    0.000000    0.000000    0.000000  -96.622083   29.399815   -3.824474   42.215870
  0.040841683    0.000000    0.000000    0.000000    0.000000  -97.985201   24.936445   -3.880395   40.157207
  0.041042084    0.000000    0.000000    0.000000    0.000000  -98.242868   27.562695   -3.938460   38.122173
  0.041242485    0.000000    0.000000    0.000000    0.000000  -98.027857   30.058422   -3.994005   36.076145
  0.041442886    0.000000    0.000000    0.000000    0.000000  -98.701170   27.642704   -4.050222   34.031437
  0.041643287    0.000000    0.000000    0.000000    0.000000  -96.447335   23.245075   -4.106284   31.988825
  0.041843687    0.000000    0.000000    0.000000    0.000000  -98.068371   30.722675   -4.158437   29.926533
  0.042044088    0.000000    0.000000    0.000000    0.000000  -97.926491   25.022524   -4.212497   27.928818
  0.042244489    0.000000    0.000000    0.000000    0.000000  -96.713057   30.538025   -4.266426   25.899174
  0.042444890    0.000000    0.000000    0.000000    0.000000  -98.539447   24.815798   -4.318848   23.927568
  0.042645291    0.000000    0.000000    0.000000    0.000000  -97.572505   20.319759   -4.375879   21.920918
  0.042845691    0.000000    0.000000    0.000000    0.000000  -98.760074   20.366024   -4.430019   19.939445
  0.043046092    0.000000    0.000000    0.000000    0.000000  -99.553174   29.087324   -4.481797   17.956417
  0.043246493    0.000000    0.000000    0.000000    0.000000  -97.192017   28.292530   -4.536132   15.966424
  0.043446894    0.000000    0.000000    0.000000    0.000000  -99.510945   27.116369   -4.588852   13.995681
  0.043647295    0.000000    0.000000    0.000000    0.000000 -100.238368   28.590027   -4.639825   12.022642
  0.043847695    0.000000    0.000000    0.000000    0.000000  -99.684653   32.789047   -4.690489   10.049033
  0.044048096    0.000000    0.000000    0.000000    0.000000  -98.480527   34.529308   -4.742771    8.093098
  0.044248497    0.000000    0.000000    0.000000    0.000000  -97.905527   28.152197   -4.794001    6.124363
  0.044448898    0.000000    0.000000    0.000000    0.000000  -99.104455   30.891146   -4.842453    4.182844
  0.044649299    0.000000    0.000000    0.000000    0.000000  -98.547806   28.855900   -4.894069    2.225934
  0.044849699    0.000000    0.000000    0.000000    0.000000  -98.391472   24.418215   -4.943169    0.298894
  0.045050100    0.000000    0.000000    0.000000    0.000000  -99.407386   25.460882   -4.991913   -1.642056
  0.045250501    0.000000    0.000000    0.000000    0.000000  -97.794836   35.003090   -5.040554   -3.579422
  0.045450902    0.000000    0.000000    0.000000    0.000000  -98.929181   18.946169   -5.087074   -5.501187
  0.045651303    0.000000    0.000000    0.000000    0.000000  -98.189330   44.159412   -5.130781   -7.419282
  0.045851703    0.000000    0.000000    0.000000    0.000000  -99.429316   27.375381   -5.172277   -9.335460
  0.046052104    0.000000    0.000000    0.000000    0.000000  -99.541112   32.103462   -5.216009  -11.228094
  0.046252505    0.000000    0.000000    0.000000    0.000000  -98.407866   39.741383   -5.254280  -13.120443
  0.046452906    0.000000    0.000000    0.000000    0.000000  -98.580714   34.730083   -5.293964  -14.988297
  0.046653307    0.000000    0.000000    0.000000    0.000000  -97.363035   32.480778   -5.334047  -16.856157
  0.046853707    0.000000    0.000000    0.000000    0.000000  -97.701706   24.461620   -5.371680  -18.704079
  0.047054108    0.000000    0.000000    0.000000    0.000000  -97.676501   34.787193   -5.411402  -20.557518
  0.047254509    0.000000    0.000000    0.000000    0.000000  -97.088907   27.309172   -5.447881  -22.391310
  0.047454910    0.000000    0.000000    0.000000    0.000000  -99.736966   32.283390   -5.482110  -24.207033
  0.047655311    0.000000    0.000000    0.000000    0.000000  -99.090886   32.056053   -5.517796  -26.008171
  0.047855711    0.000000    0.000000    0.000000    0.000000  -98.496809   35.528339   -5.554658  -27.786587
  0.048056112    0.000000    0.000000    0.000000    0.000000  -98.793497   31.285675   -5.588457  -29.537306
  0.048256513    0.000000    0.000000    0.000000    0.000000  -99.317956   26.701591   -5.624631  -31.296740
  0.048456914    0.000000    0.000000    0.000000    0.000000  -99.667343   25.432093   -5.660115  -33.046776
  0.048657315    0.000000    0.000000    0.000000    0.000000  -97.555665   27.349945   -5.689145  -34.779118
  0.048857715    0.000000    0.000000    0.000000    0.000000  -99.557431   28.509087   -5.724086  -36.539474
  0.049058116    0.000000    0.000000    0.000000    0.000000  -99.555845   28.215118   -5.757021  -38.264111
  0.049258517    0.000000    0.000000    0.000000    0.000000 -100.146738   35.893131   -5.789391  -39.975998
  0.049458918    0.000000    0.000000    0.000000    0.000000  -99.120079   33.187130   -5.820560  -41.687805
  0.049659319    0.000000    0.000000    0.000000    0.000000  -98.895427   30.772911   -5.852231  -43.374165
  0.049859719    0.000000    0.000000    0.000000    0.000000  -98.972173   33.892742   -5.885991  -45.063667
  0.050060120    0.000000    0.000000    0.000000    0.000000  -99.927816   33.464642   -5.917274  -46.754856
  0.050260521    0.000000    0.000000    0.000000    0.000000  -99.029338   31.393261   -5.944056  -48.451080
  0.050460922    0.000000    0.000000    0.000000    0.000000 -100.315759   24.894121   -5.969984  -50.156441
  0.050661323    0.000000    0.000000    0.000000    0.000000  -99.902619   41.691917   -5.994881  -51.818184
  0.050861723    0.000000    0.000000    0.000000    0.000000  -99.756986   23.987196   -6.022178  -53.499340
  0.051062124    0.000000    0.000000    0.000000    0.000000  -99.682491   33.166771   -6.044855  -55.156193
  0.051262525    0.000000    0.000000    0.000000    0.000000  -98.164233   35.409943   -6.068348  -56.800095
  0.051462926    0.000000    0.000000    0.000000    0.000000  -98.711116   23.982885   -6.088089  -58.417782
  0.051663327    0.000000    0.000000    0.000000    0.000000  -99.792254   29.487782   -6.109133  -60.042740
  0.051863727    0.000000    0.000000    0.000000    0.000000  -98.438014   31.706640   -6.126107  -61.671036
  0.052064128    0.000000    0.000000    0.000000    0.000000  -98.464594   30.821144   -6.142421  -63.264694
  0.052264529    0.000000    0.000000    0.000000    0.000000  -99.047452   36.076405   -6.154277  -64.854691
  0.052464930    0.000000    0.000000    0.000000    0.000000  -98.651432   33.194103   -6.162136  -66.453644
  0.052665331    0.000000    0.000000    0.000000    0.000000  -98.639325   36.517311   -6.174917  -67.984650
  0.052865731    0.000000    0.000000    0.000000    0.000000  -98.361515   29.414545   -6.186385  -69.529076
  0.053066132    0.000000    0.000000    0.000000    0.000000  -98.494809   33.859051   -6.198189  -71.054123
  0.053266533    0.000000    0.000000    0.000000    0.000000  -98.204233   27.431307   -6.206817  -72.532379
  0.053466934    0.000000    0.000000    0.000000    0.000000  -99.653503   33.712528   -6.219917  -74.052704
