! Anritsu VNA Master:                     Model: MS2036C/10/77
! SN:                                  1601066
! /bd0/18may10/252.ew.m2.s2p
! Existing Calibration Information:
! TYPE:                         Current Settings,       Active Cal Settings
! TIME:             	   05/10/2018 06:26:55 PM,    05/10/2018 06:18:15 PM
! INTERNAL TEMP:    	                   60.3 C,                    60.0 C
! # POINTS:         	                      487,                       487
! START FREQ:       	           20.601 202 MHz,            20.601 202 MHz
! STOP FREQ:        	          117.995 991 MHz,           117.995 991 MHz
! SOURCE POWER:     	                     High,                      High
! IFBW:             	                    50 Hz,                     50 Hz
! AVG FACTOR:       	                       1 ,                        1 
! REF PLANE 1:      	                     0 mm,                      0 mm
! REF PLANE 2:      	                     0 mm,                      0 mm
! CAL TYPE:         	                 Full S22,                  Full S22
! CAL METHOD:       	                     SOLT,                      SOLT
! CAL LINE TYPE:    	                     Coax,                      Coax
! DUT PORT 1:       	                K-Conn(M),                 K-Conn(M)
! DUT PORT 2:       	                K-Conn(M),                 K-Conn(M)
! CAL STATUS:       	        OK: Accuracy High,                        --
# GHZ S DB R 50.0
! FREQ.GHZ       S11DB        S11A       S21DB        S21A       S12DB        S12A       S22DB        S22A
  0.020601202    0.000000    0.000000    0.000000    0.000000  -90.488323   31.951649   -0.642473 -129.564865
  0.020801603    0.000000    0.000000    0.000000    0.000000  -90.506272   33.387821   -0.646990 -131.083847
  0.021002004    0.000000    0.000000    0.000000    0.000000  -91.009600   35.956390   -0.649967 -132.616531
  0.021202405    0.000000    0.000000    0.000000    0.000000  -91.674121   32.669132   -0.653771 -134.148834
  0.021402806    0.000000    0.000000    0.000000    0.000000  -91.373519   33.800488   -0.656042 -135.692245
  0.021603206    0.000000    0.000000    0.000000    0.000000  -91.962517   37.325497   -0.657906 -137.221512
  0.021803607    0.000000    0.000000    0.000000    0.000000  -92.194876   36.254929   -0.662378 -138.769257
  0.022004008    0.000000    0.000000    0.000000    0.000000  -91.897246   40.605522   -0.669124 -140.311951
  0.022204409    0.000000    0.000000    0.000000    0.000000  -91.548512   41.574341   -0.674405 -141.882813
  0.022404810    0.000000    0.000000    0.000000    0.000000  -91.845661   39.419304   -0.676959 -143.479355
  0.022605210    0.000000    0.000000    0.000000    0.000000  -91.421068   42.405163   -0.679603 -145.075256
  0.022805611    0.000000    0.000000    0.000000    0.000000  -91.935622   43.254490   -0.683194 -146.681442
  0.023006012    0.000000    0.000000    0.000000    0.000000  -92.472875   41.762817   -0.687563 -148.282928
  0.023206413    0.000000    0.000000    0.000000    0.000000  -91.562183   42.587521   -0.691040 -149.861694
  0.023406814    0.000000    0.000000    0.000000    0.000000  -91.372113   39.582767   -0.693857 -151.469955
  0.023607214    0.000000    0.000000    0.000000    0.000000  -91.262789   42.135361   -0.698924 -153.074509
  0.023807615    0.000000    0.000000    0.000000    0.000000  -91.184625   40.181850   -0.707213 -154.667679
  0.024008016    0.000000    0.000000    0.000000    0.000000  -91.646014   36.381939   -0.716469 -156.297684
  0.024208417    0.000000    0.000000    0.000000    0.000000  -91.250024   36.290237   -0.723414 -157.959213
  0.024408818    0.000000    0.000000    0.000000    0.000000  -91.219518   33.392838   -0.730576 -159.600891
  0.024609218    0.000000    0.000000    0.000000    0.000000  -91.606877   33.708267   -0.737244 -161.237610
  0.024809619    0.000000    0.000000    0.000000    0.000000  -91.650704   29.973711   -0.744808 -162.897415
  0.025010020    0.000000    0.000000    0.000000    0.000000  -91.901852   30.993193   -0.755864 -164.550964
  0.025210421    0.000000    0.000000    0.000000    0.000000  -92.089676   28.526810   -0.766290 -166.214188
  0.025410822    0.000000    0.000000    0.000000    0.000000  -91.990466   27.499386   -0.778198 -167.892502
  0.025611222    0.000000    0.000000    0.000000    0.000000  -92.324455   24.901899   -0.791656 -169.576050
  0.025811623    0.000000    0.000000    0.000000    0.000000  -93.042829   25.239954   -0.803698 -171.280334
  0.026012024    0.000000    0.000000    0.000000    0.000000  -93.085409   25.481684   -0.814286 -172.993118
  0.026212425    0.000000    0.000000    0.000000    0.000000  -93.445433   25.629589   -0.826990 -174.721008
  0.026412826    0.000000    0.000000    0.000000    0.000000  -93.458408   24.802361   -0.842254 -176.451508
  0.026613226    0.000000    0.000000    0.000000    0.000000  -93.926564   27.654743   -0.857489 -178.205215
  0.026813627    0.000000    0.000000    0.000000    0.000000  -93.709369   27.640375   -0.874248 -179.971649
  0.027014028    0.000000    0.000000    0.000000    0.000000  -93.930918   28.876381   -0.891891  178.257507
  0.027214429    0.000000    0.000000    0.000000    0.000000  -94.142523   28.872395   -0.908779  176.480896
  0.027414830    0.000000    0.000000    0.000000    0.000000  -94.178516   31.019455   -0.924742  174.692307
  0.027615230    0.000000    0.000000    0.000000    0.000000  -94.232769   27.820271   -0.943618  172.883774
  0.027815631    0.000000    0.000000    0.000000    0.000000  -93.964959   29.972130   -0.962704  171.069809
  0.028016032    0.000000    0.000000    0.000000    0.000000  -95.733747   28.603249   -0.981810  169.233688
  0.028216433    0.000000    0.000000    0.000000    0.000000  -94.553073   31.995041   -1.003249  167.386597
  0.028416834    0.000000    0.000000    0.000000    0.000000  -94.769975   33.629234   -1.023492  165.541519
  0.028617234    0.000000    0.000000    0.000000    0.000000  -93.843787   34.766418   -1.043378  163.685959
  0.028817635    0.000000    0.000000    0.000000    0.000000  -94.594749   36.019417   -1.065040  161.823395
  0.029018036    0.000000    0.000000    0.000000    0.000000  -94.305719   33.389774   -1.088452  159.976730
  0.029218437    0.000000    0.000000    0.000000    0.000000  -94.554826   25.728447   -1.112534  158.100113
  0.029418838    0.000000    0.000000    0.000000    0.000000  -93.808187   27.327190   -1.136544  156.208954
  0.029619238    0.000000    0.000000    0.000000    0.000000  -94.586727   29.642359   -1.162486  154.317963
  0.029819639    0.000000    0.000000    0.000000    0.000000  -93.857088   28.667080   -1.189389  152.422180
  0.030020040    0.000000    0.000000    0.000000    0.000000  -93.785125   28.400015   -1.215649  150.511963
  0.030220441    0.000000    0.000000    0.000000    0.000000  -94.664026   26.933489   -1.242580  148.607452
  0.030420842    0.000000    0.000000    0.000000    0.000000  -94.467946   26.528160   -1.271281  146.695145
  0.030621242    0.000000    0.000000    0.000000    0.000000  -93.851301   26.112797   -1.301179  144.790985
  0.030821643    0.000000    0.000000    0.000000    0.000000  -94.630486   22.819511   -1.334314  142.873077
  0.031022044    0.000000    0.000000    0.000000    0.000000  -94.349939   18.641569   -1.367335  140.937729
  0.031222445    0.000000    0.000000    0.000000    0.000000  -93.853603   21.189035   -1.395122  139.010468
  0.031422846    0.000000    0.000000    0.000000    0.000000  -94.350754   19.829535   -1.430405  137.046204
  0.031623246    0.000000    0.000000    0.000000    0.000000  -94.809841   21.904432   -1.465428  135.076111
  0.031823647    0.000000    0.000000    0.000000    0.000000  -95.086608   23.896660   -1.505851  133.098038
  0.032024048    0.000000    0.000000    0.000000    0.000000  -95.447642   13.995138   -1.544587  131.115311
  0.032224449    0.000000    0.000000    0.000000    0.000000  -95.417743   20.429569   -1.585957  129.106720
  0.032424850    0.000000    0.000000    0.000000    0.000000  -94.729507   16.711239   -1.628010  127.100761
  0.032625250    0.000000    0.000000    0.000000    0.000000  -94.972820   17.198465   -1.669442  125.076744
  0.032825651    0.000000    0.000000    0.000000    0.000000  -96.398234   24.115885   -1.711227  123.046852
  0.033026052    0.000000    0.000000    0.000000    0.000000  -96.307656   18.278843   -1.752882  120.986191
  0.033226453    0.000000    0.000000    0.000000    0.000000  -96.066265   19.196714   -1.794041  118.915108
  0.033426854    0.000000    0.000000    0.000000    0.000000  -97.199237   27.052912   -1.838339  116.869431
  0.033627254    0.000000    0.000000    0.000000    0.000000  -96.887155   14.936164   -1.884175  114.805618
  0.033827655    0.000000    0.000000    0.000000    0.000000  -95.967819   24.756231   -1.926522  112.753021
  0.034028056    0.000000    0.000000    0.000000    0.000000  -96.279740   23.731874   -1.972382  110.697746
  0.034228457    0.000000    0.000000    0.000000    0.000000  -95.935485   19.725996   -2.019255  108.621559
  0.034428858    0.000000    0.000000    0.000000    0.000000  -95.799367   25.220285   -2.065816  106.542267
  0.034629258    0.000000    0.000000    0.000000    0.000000  -96.909590   27.108471   -2.113585  104.449425
  0.034829659    0.000000    0.000000    0.000000    0.000000  -95.566179   25.727722   -2.161033  102.362595
  0.035030060    0.000000    0.000000    0.000000    0.000000  -96.141785   28.617592   -2.211041  100.278786
  0.035230461    0.000000    0.000000    0.000000    0.000000  -96.997417   22.311987   -2.264048   98.206467
  0.035430862    0.000000    0.000000    0.000000    0.000000  -96.709180   26.227072   -2.312389   96.129547
  0.035631262    0.000000    0.000000    0.000000    0.000000  -95.663508   25.338482   -2.364416   94.048500
  0.035831663    0.000000    0.000000    0.000000    0.000000  -95.767118   23.674002   -2.416651   91.961708
  0.036032064    0.000000    0.000000    0.000000    0.000000  -96.446429   22.180954   -2.467929   89.901398
  0.036232465    0.000000    0.000000    0.000000    0.000000  -95.867051   13.743764   -2.521022   87.832130
  0.036432866    0.000000    0.000000    0.000000    0.000000  -96.568354   21.172379   -2.575539   85.743172
  0.036633266    0.000000    0.000000    0.000000    0.000000  -96.914857   23.845354   -2.629088   83.687294
  0.036833667    0.000000    0.000000    0.000000    0.000000  -96.223072   15.505226   -2.683471   81.610741
  0.037034068    0.000000    0.000000    0.000000    0.000000  -97.356900   17.307610   -2.742346   79.528061
  0.037234469    0.000000    0.000000    0.000000    0.000000  -97.428812   18.284853   -2.798609   77.459793
  0.037434870    0.000000    0.000000    0.000000    0.000000  -96.813743   22.624273   -2.857758   75.411339
  0.037635270    0.000000    0.000000    0.000000    0.000000  -97.491064   15.526419   -2.917255   73.335472
  0.037835671    0.000000    0.000000    0.000000    0.000000  -97.236985   18.285839   -2.976883   71.253593
  0.038036072    0.000000    0.000000    0.000000    0.000000  -97.517805   17.452358   -3.035865   69.155006
  0.038236473    0.000000    0.000000    0.000000    0.000000  -98.050160   23.662739   -3.099633   67.053230
  0.038436874    0.000000    0.000000    0.000000    0.000000  -98.471579   24.364723   -3.161608   64.927071
  0.038637274    0.000000    0.000000    0.000000    0.000000  -97.712838   20.434175   -3.224083   62.834160
  0.038837675    0.000000    0.000000    0.000000    0.000000  -97.845617   18.204391   -3.285260   60.734310
  0.039038076    0.000000    0.000000    0.000000    0.000000  -98.105527   11.838198   -3.346461   58.653042
  0.039238477    0.000000    0.000000    0.000000    0.000000  -96.986490   25.846827   -3.404509   56.562977
  0.039438878    0.000000    0.000000    0.000000    0.000000  -99.065865   17.406384   -3.466284   54.473640
  0.039639278    0.000000    0.000000    0.000000    0.000000  -98.781656   19.578213   -3.526931   52.393421
  0.039839679    0.000000    0.000000    0.000000    0.000000  -96.361753   26.343781   -3.585874   50.267662
  0.040040080    0.000000    0.000000    0.000000    0.000000  -96.372642   31.872450   -3.644599   48.182140
  0.040240481    0.000000    0.000000    0.000000    0.000000  -97.545012   30.119343   -3.701063   46.076679
  0.040440882    0.000000    0.000000    0.000000    0.000000  -98.390847   24.980900   -3.758411   44.011688
  0.040641283    0.000000    0.000000    0.000000    0.000000  -97.023773   29.323572   -3.814880   41.929050
  0.040841683    0.000000    0.000000    0.000000    0.000000  -98.660811   19.447041   -3.870595   39.874325
  0.041042084    0.000000    0.000000    0.000000    0.000000  -97.661210   21.748981   -3.928542   37.839008
  0.041242485    0.000000    0.000000    0.000000    0.000000  -97.174391   28.507568   -3.985998   35.795551
  0.041442886    0.000000    0.000000    0.000000    0.000000  -96.918073   31.560705   -4.040638   33.754944
  0.041643287    0.000000    0.000000    0.000000    0.000000  -97.378201   18.299753   -4.098499   31.713324
  0.041843687    0.000000    0.000000    0.000000    0.000000  -98.102055   19.471510   -4.149710   29.651272
  0.042044088    0.000000    0.000000    0.000000    0.000000  -97.852450   18.392897   -4.205277   27.647694
  0.042244489    0.000000    0.000000    0.000000    0.000000  -98.938552   19.907576   -4.257721   25.624554
  0.042444890    0.000000    0.000000    0.000000    0.000000  -98.555390   25.152452   -4.312896   23.632010
  0.042645291    0.000000    0.000000    0.000000    0.000000  -97.554795   24.155945   -4.369089   21.632431
  0.042845691    0.000000    0.000000    0.000000    0.000000  -99.541722   21.875139   -4.421453   19.638159
  0.043046092    0.000000    0.000000    0.000000    0.000000  -97.249191   31.036312   -4.475618   17.648048
  0.043246493    0.000000    0.000000    0.000000    0.000000  -97.950295   26.973886   -4.530665   15.645020
  0.043446894    0.000000    0.000000    0.000000    0.000000  -97.570310   26.779451   -4.581483   13.666099
  0.043647295    0.000000    0.000000    0.000000    0.000000  -97.967796   24.606779   -4.635480   11.694988
  0.043847695    0.000000    0.000000    0.000000    0.000000  -99.143731   27.842888   -4.684882    9.717289
  0.044048096    0.000000    0.000000    0.000000    0.000000  -98.764185   23.863323   -4.733728    7.760817
  0.044248497    0.000000    0.000000    0.000000    0.000000  -98.580444   36.928463   -4.786884    5.794353
  0.044448898    0.000000    0.000000    0.000000    0.000000  -97.771015   35.707832   -4.838019    3.843711
  0.044649299    0.000000    0.000000    0.000000    0.000000 -100.702573   32.731480   -4.886999    1.893462
  0.044849699    0.000000    0.000000    0.000000    0.000000  -98.943965   38.951893   -4.932182   -0.041630
  0.045050100    0.000000    0.000000    0.000000    0.000000  -97.088275   27.415306   -4.979914   -2.005435
  0.045250501    0.000000    0.000000    0.000000    0.000000  -98.651509   32.312233   -5.028318   -3.928329
  0.045450902    0.000000    0.000000    0.000000    0.000000  -99.909373   26.765095   -5.075892   -5.839067
  0.045651303    0.000000    0.000000    0.000000    0.000000  -98.957049   32.930576   -5.118208   -7.766874
  0.045851703    0.000000    0.000000    0.000000    0.000000  -98.355897   35.407017   -5.161239   -9.669747
  0.046052104    0.000000    0.000000    0.000000    0.000000  -98.430146   30.627617   -5.202639  -11.572536
  0.046252505    0.000000    0.000000    0.000000    0.000000  -98.662660   32.726467   -5.242438  -13.451249
  0.046452906    0.000000    0.000000    0.000000    0.000000  -98.358649   26.403334   -5.283695  -15.311847
  0.046653307    0.000000    0.000000    0.000000    0.000000  -98.416069   34.446632   -5.321378  -17.184109
  0.046853707    0.000000    0.000000    0.000000    0.000000  -97.228768   30.139217   -5.359589  -19.033718
  0.047054108    0.000000    0.000000    0.000000    0.000000  -98.480971   30.723322   -5.398809  -20.877058
  0.047254509    0.000000    0.000000    0.000000    0.000000  -98.664796   31.701271   -5.435052  -22.707762
  0.047454910    0.000000    0.000000    0.000000    0.000000  -98.948674   40.754478   -5.470384  -24.521852
  0.047655311    0.000000    0.000000    0.000000    0.000000  -98.912467   32.247757   -5.505310  -26.327246
  0.047855711    0.000000    0.000000    0.000000    0.000000  -97.784704   27.814234   -5.542870  -28.095110
  0.048056112    0.000000    0.000000    0.000000    0.000000  -97.736013   25.110857   -5.577801  -29.852585
  0.048256513    0.000000    0.000000    0.000000    0.000000  -98.863501   22.358883   -5.616295  -31.608948
  0.048456914    0.000000    0.000000    0.000000    0.000000  -98.914262   27.638220   -5.652091  -33.355019
  0.048657315    0.000000    0.000000    0.000000    0.000000  -99.725339   39.497242   -5.681273  -35.112312
  0.048857715    0.000000    0.000000    0.000000    0.000000  -99.005475   26.755404   -5.715746  -36.871803
  0.049058116    0.000000    0.000000    0.000000    0.000000  -99.083956   29.705265   -5.746802  -38.603207
  0.049258517    0.000000    0.000000    0.000000    0.000000  -98.384302   28.264000   -5.779288  -40.318939
  0.049458918    0.000000    0.000000    0.000000    0.000000  -99.237728   25.861221   -5.811138  -42.031395
  0.049659319    0.000000    0.000000    0.000000    0.000000  -97.633254   32.554214   -5.841228  -43.709614
  0.049859719    0.000000    0.000000    0.000000    0.000000  -99.645568   23.897440   -5.877423  -45.430641
  0.050060120    0.000000    0.000000    0.000000    0.000000  -99.695214   22.212580   -5.906272  -47.107418
  0.050260521    0.000000    0.000000    0.000000    0.000000 -100.423499   32.509785   -5.932528  -48.801987
  0.050460922    0.000000    0.000000    0.000000    0.000000  -98.884865   36.150318   -5.958013  -50.494400
  0.050661323    0.000000    0.000000    0.000000    0.000000  -99.528022   37.427536   -5.983005  -52.165165
  0.050861723    0.000000    0.000000    0.000000    0.000000 -100.042288   36.906975   -6.007172  -53.839077
  0.051062124    0.000000    0.000000    0.000000    0.000000  -99.707905   38.022682   -6.030430  -55.491898
  0.051262525    0.000000    0.000000    0.000000    0.000000  -99.193055   38.384628   -6.055526  -57.132790
  0.051462926    0.000000    0.000000    0.000000    0.000000  -99.720147   39.666435   -6.076408  -58.760170
  0.051663327    0.000000    0.000000    0.000000    0.000000  -98.731712   29.992914   -6.093368  -60.345432
  0.051863727    0.000000    0.000000    0.000000    0.000000  -98.472031   30.253025   -6.112450  -61.994835
  0.052064128    0.000000    0.000000    0.000000    0.000000  -98.161879   26.487787   -6.127732  -63.588001
  0.052264529    0.000000    0.000000    0.000000    0.000000  -99.768615   28.427864   -6.139056  -65.175713
  0.052464930    0.000000    0.000000    0.000000    0.000000  -98.824640   30.126715   -6.149271  -66.760208
  0.052665331    0.000000    0.000000    0.000000    0.000000  -98.756664   29.312944   -6.162290  -68.301132
  0.052865731    0.000000    0.000000    0.000000    0.000000  -99.089747   38.630650   -6.174071  -69.818184
  0.053066132    0.000000    0.000000    0.000000    0.000000  -99.126622   29.401386   -6.188221  -71.346680
  0.053266533    0.000000    0.000000    0.000000    0.000000  -99.858771   40.763165   -6.195995  -72.838837
  0.053466934    0.000000    0.000000    0.000000    0.000000  -98.748703   33.385605   -6.211449  -74.338173
