! Anritsu VNA Master:                     Model: MS2036C/10/77
! SN:                                  1601066
! /bd0/18may26.balun/4a.47.2.s2p
! Existing Calibration Information:
! TYPE:                         Current Settings,       Active Cal Settings
! TIME:             	   05/26/2018 03:17:24 PM,    05/26/2018 02:51:55 PM
! INTERNAL TEMP:    	                   59.5 C,                    59.5 C
! # POINTS:         	                      500,                       500
! START FREQ:       	               20.000 MHz,                20.000 MHz
! STOP FREQ:        	              120.000 MHz,               120.000 MHz
! SOURCE POWER:     	                     High,                      High
! IFBW:             	                    50 Hz,                     50 Hz
! AVG FACTOR:       	                       1 ,                        1 
! REF PLANE 1:      	                     0 mm,                      0 mm
! REF PLANE 2:      	                     0 mm,                      0 mm
! CAL TYPE:         	                 Full S11,                  Full S11
! CAL METHOD:       	                     SOLT,                      SOLT
! CAL LINE TYPE:    	                     Coax,                      Coax
! DUT PORT 1:       	                K-Conn(M),                 K-Conn(M)
! DUT PORT 2:       	                K-Conn(M),                 K-Conn(M)
! CAL STATUS:       	        OK: Accuracy High,                        --
# GHZ S DB R 50.0
! FREQ.GHZ       S11DB        S11A       S21DB        S21A       S12DB        S12A       S22DB        S22A
  0.020000000   -0.042018  -56.116341  -90.104664   35.580250    0.000000    0.000000    0.000000    0.000000
  0.020200401   -0.037806  -56.687698  -90.202566   35.500145    0.000000    0.000000    0.000000    0.000000
  0.020400802   -0.034151  -57.218784  -90.763383   29.105389    0.000000    0.000000    0.000000    0.000000
  0.020601202   -0.034891  -57.749203  -91.311814   33.480373    0.000000    0.000000    0.000000    0.000000
  0.020801603   -0.032625  -58.293621  -90.938963   29.355951    0.000000    0.000000    0.000000    0.000000
  0.021002004   -0.030829  -58.853130  -91.508798   28.900990    0.000000    0.000000    0.000000    0.000000
  0.021202405   -0.033966  -59.398445  -91.734385   29.384892    0.000000    0.000000    0.000000    0.000000
  0.021402806   -0.032876  -59.940155  -92.420289   28.631020    0.000000    0.000000    0.000000    0.000000
  0.021603206   -0.036042  -60.468628  -92.668072   26.020281    0.000000    0.000000    0.000000    0.000000
  0.021803607   -0.040509  -60.996170  -93.123184   22.994953    0.000000    0.000000    0.000000    0.000000
  0.022004008   -0.042967  -61.504406  -93.436352   22.500710    0.000000    0.000000    0.000000    0.000000
  0.022204409   -0.044440  -62.056648  -94.125980   25.533323    0.000000    0.000000    0.000000    0.000000
  0.022404810   -0.046184  -62.616116  -92.643047   25.241819    0.000000    0.000000    0.000000    0.000000
  0.022605210   -0.048838  -63.177891  -93.486290   29.248543    0.000000    0.000000    0.000000    0.000000
  0.022805611   -0.049669  -63.736492  -93.672471   29.321585    0.000000    0.000000    0.000000    0.000000
  0.023006012   -0.041402  -64.286964  -94.234011   34.254871    0.000000    0.000000    0.000000    0.000000
  0.023206413   -0.033854  -64.862724  -94.397171   29.142057    0.000000    0.000000    0.000000    0.000000
  0.023406814   -0.025135  -65.427231  -93.732973   35.506573    0.000000    0.000000    0.000000    0.000000
  0.023607214   -0.024034  -65.981621  -93.788821   30.450087    0.000000    0.000000    0.000000    0.000000
  0.023807615   -0.021901  -66.513023  -94.071659   30.972544    0.000000    0.000000    0.000000    0.000000
  0.024008016   -0.026927  -67.009033  -93.276953   35.052586    0.000000    0.000000    0.000000    0.000000
  0.024208417   -0.031959  -67.507599  -93.668675   28.596548    0.000000    0.000000    0.000000    0.000000
  0.024408818   -0.037133  -67.972603  -93.189148   26.918461    0.000000    0.000000    0.000000    0.000000
  0.024609218   -0.042501  -68.474396  -93.553141   27.542097    0.000000    0.000000    0.000000    0.000000
  0.024809619   -0.048647  -69.002686  -93.392409   19.495501    0.000000    0.000000    0.000000    0.000000
  0.025010020   -0.051287  -69.562668  -93.633758   20.869789    0.000000    0.000000    0.000000    0.000000
  0.025210421   -0.055240  -70.142715  -93.941956   19.731779    0.000000    0.000000    0.000000    0.000000
  0.025410822   -0.057349  -70.711876  -93.958444   18.150858    0.000000    0.000000    0.000000    0.000000
  0.025611222   -0.057188  -71.285385  -93.710760   19.405987    0.000000    0.000000    0.000000    0.000000
  0.025811623   -0.059187  -71.852386  -94.797392   18.140869    0.000000    0.000000    0.000000    0.000000
  0.026012024   -0.056604  -72.410278  -95.318259   17.693224    0.000000    0.000000    0.000000    0.000000
  0.026212425   -0.053563  -72.972466  -94.806784   15.310221    0.000000    0.000000    0.000000    0.000000
  0.026412826   -0.049968  -73.505539  -95.773409   19.671579    0.000000    0.000000    0.000000    0.000000
  0.026613226   -0.053194  -74.030609  -96.255624   13.631596    0.000000    0.000000    0.000000    0.000000
  0.026813627   -0.056277  -74.521568  -96.197724   15.514940    0.000000    0.000000    0.000000    0.000000
  0.027014028   -0.061181  -74.990646  -96.459672   22.521360    0.000000    0.000000    0.000000    0.000000
  0.027214429   -0.068722  -75.478577  -96.567020   18.997000    0.000000    0.000000    0.000000    0.000000
  0.027414830   -0.079309  -76.018768  -98.107726   22.107742    0.000000    0.000000    0.000000    0.000000
  0.027615230   -0.085018  -76.595581  -95.753614   20.011669    0.000000    0.000000    0.000000    0.000000
  0.027815631   -0.089737  -77.193314  -96.127744   24.900015    0.000000    0.000000    0.000000    0.000000
  0.028016032   -0.089173  -77.799545  -96.266407   17.747782    0.000000    0.000000    0.000000    0.000000
  0.028216433   -0.081972  -78.424751  -96.784942   19.284967    0.000000    0.000000    0.000000    0.000000
  0.028416834   -0.074705  -79.032257  -97.512539   24.525131    0.000000    0.000000    0.000000    0.000000
  0.028617234   -0.064127  -79.619324  -96.563228   18.957026    0.000000    0.000000    0.000000    0.000000
  0.028817635   -0.056026  -80.180634  -96.098188   23.178335    0.000000    0.000000    0.000000    0.000000
  0.029018036   -0.043889  -80.698616  -95.474847   23.263243    0.000000    0.000000    0.000000    0.000000
  0.029218437   -0.034461  -81.158615  -96.505143   16.749231    0.000000    0.000000    0.000000    0.000000
  0.029418838   -0.029057  -81.590012  -96.602507   20.811934    0.000000    0.000000    0.000000    0.000000
  0.029619238   -0.025038  -82.027420  -96.405615   18.173504    0.000000    0.000000    0.000000    0.000000
  0.029819639   -0.025880  -82.460403  -95.729430   14.576841    0.000000    0.000000    0.000000    0.000000
  0.030020040   -0.028933  -82.927078  -96.657637   16.444815    0.000000    0.000000    0.000000    0.000000
  0.030220441   -0.036833  -83.409431  -96.855178   17.773981    0.000000    0.000000    0.000000    0.000000
  0.030420842   -0.048340  -83.935593  -96.849382    9.791310    0.000000    0.000000    0.000000    0.000000
  0.030621242   -0.058168  -84.474464  -96.947154   10.822598    0.000000    0.000000    0.000000    0.000000
  0.030821643   -0.062340  -85.027588  -96.951327    9.768550    0.000000    0.000000    0.000000    0.000000
  0.031022044   -0.066111  -85.576172  -98.206003   13.561733    0.000000    0.000000    0.000000    0.000000
  0.031222445   -0.066470  -86.111465  -96.989738   13.660919    0.000000    0.000000    0.000000    0.000000
  0.031422846   -0.069169  -86.657867  -96.457744    4.532691    0.000000    0.000000    0.000000    0.000000
  0.031623246   -0.070927  -87.187782  -97.847787   11.080012    0.000000    0.000000    0.000000    0.000000
  0.031823647   -0.070442  -87.720558  -97.781925    9.974664    0.000000    0.000000    0.000000    0.000000
  0.032024048   -0.066862  -88.207268  -97.630167    8.981197    0.000000    0.000000    0.000000    0.000000
  0.032224449   -0.068005  -88.665138  -97.844981    8.033066    0.000000    0.000000    0.000000    0.000000
  0.032424850   -0.072896  -89.136490  -98.360862   16.543516    0.000000    0.000000    0.000000    0.000000
  0.032625251   -0.081767  -89.631821  -98.570369   17.885212    0.000000    0.000000    0.000000    0.000000
  0.032825651   -0.090391  -90.124458  -97.689580   10.289029    0.000000    0.000000    0.000000    0.000000
  0.033026052   -0.099880  -90.670792  -98.515705    7.394139    0.000000    0.000000    0.000000    0.000000
  0.033226453   -0.103665  -91.228294  -97.993255   10.172062    0.000000    0.000000    0.000000    0.000000
  0.033426854   -0.111253  -91.814720  -98.626811   16.726374    0.000000    0.000000    0.000000    0.000000
  0.033627255   -0.112310  -92.396095  -98.308982    9.722266    0.000000    0.000000    0.000000    0.000000
  0.033827655   -0.113534  -93.021309  -99.073110    4.522399    0.000000    0.000000    0.000000    0.000000
  0.034028056   -0.111951  -93.598900  -99.278537   15.379023    0.000000    0.000000    0.000000    0.000000
  0.034228457   -0.105360  -94.177002  -98.919140    9.160106    0.000000    0.000000    0.000000    0.000000
  0.034428858   -0.094440  -94.737915  -98.632514   12.350318    0.000000    0.000000    0.000000    0.000000
  0.034629259   -0.083614  -95.240448  -99.106178    2.185452    0.000000    0.000000    0.000000    0.000000
  0.034829659   -0.072708  -95.744019  -98.317594    5.739716    0.000000    0.000000    0.000000    0.000000
  0.035030060   -0.066623  -96.223862  -98.968969    9.925619    0.000000    0.000000    0.000000    0.000000
  0.035230461   -0.060312  -96.677383  -98.689883    3.729300    0.000000    0.000000    0.000000    0.000000
  0.035430862   -0.061224  -97.115799  -98.855095   -1.028819    0.000000    0.000000    0.000000    0.000000
  0.035631263   -0.066424  -97.555458  -98.019481    6.600223    0.000000    0.000000    0.000000    0.000000
  0.035831663   -0.072760  -98.024612 -100.395673    3.761669    0.000000    0.000000    0.000000    0.000000
  0.036032064   -0.081043  -98.539368  -99.226514    3.116052    0.000000    0.000000    0.000000    0.000000
  0.036232465   -0.090529  -99.063278  -99.974305   10.196611    0.000000    0.000000    0.000000    0.000000
  0.036432866   -0.096637  -99.625641 -100.306077    1.368166    0.000000    0.000000    0.000000    0.000000
  0.036633267   -0.103480 -100.173103  -99.232385    7.002178    0.000000    0.000000    0.000000    0.000000
  0.036833667   -0.103983 -100.709251 -101.713932    8.893106    0.000000    0.000000    0.000000    0.000000
  0.037034068   -0.103560 -101.231552  -99.791814    0.905307    0.000000    0.000000    0.000000    0.000000
  0.037234469   -0.096839 -101.757050 -100.188641   14.527105    0.000000    0.000000    0.000000    0.000000
  0.037434870   -0.086874 -102.230568 -100.105530   10.773050    0.000000    0.000000    0.000000    0.000000
  0.037635271   -0.081457 -102.655655  -99.153659   -2.493520    0.000000    0.000000    0.000000    0.000000
  0.037835671   -0.082391 -103.105843  -99.364889   14.238386    0.000000    0.000000    0.000000    0.000000
  0.038036072   -0.088202 -103.550194  -98.994911    8.662266    0.000000    0.000000    0.000000    0.000000
  0.038236473   -0.097980 -104.039230  -98.882851    3.687045    0.000000    0.000000    0.000000    0.000000
  0.038436874   -0.103798 -104.533081 -100.306124   12.623054    0.000000    0.000000    0.000000    0.000000
  0.038637275   -0.109911 -105.032707  -99.289331   10.782033    0.000000    0.000000    0.000000    0.000000
  0.038837675   -0.117005 -105.544205  -99.426593    4.772511    0.000000    0.000000    0.000000    0.000000
  0.039038076   -0.125592 -106.103340  -99.525159    0.017272    0.000000    0.000000    0.000000    0.000000
  0.039238477   -0.133572 -106.666512  -99.613651    2.219270    0.000000    0.000000    0.000000    0.000000
  0.039438878   -0.135849 -107.229485  -98.703716    5.910608    0.000000    0.000000    0.000000    0.000000
  0.039639279   -0.135294 -107.797646  -99.538421    2.505978    0.000000    0.000000    0.000000    0.000000
  0.039839679   -0.129540 -108.357689 -100.903199    3.736846    0.000000    0.000000    0.000000    0.000000
  0.040040080   -0.119787 -108.870842  -99.993233   -1.810096    0.000000    0.000000    0.000000    0.000000
  0.040240481   -0.113744 -109.373680 -100.434887    2.256604    0.000000    0.000000    0.000000    0.000000
  0.040440882   -0.107601 -109.869591 -100.993557   -4.692977    0.000000    0.000000    0.000000    0.000000
  0.040641283   -0.104577 -110.350670 -103.843682   -5.754504    0.000000    0.000000    0.000000    0.000000
  0.040841683   -0.100402 -110.830330 -103.374686    2.691902    0.000000    0.000000    0.000000    0.000000
  0.041042084   -0.102079 -111.319588 -101.048443    6.839993    0.000000    0.000000    0.000000    0.000000
  0.041242485   -0.109730 -111.760895 -103.667029   -0.652473    0.000000    0.000000    0.000000    0.000000
  0.041442886   -0.119175 -112.233635 -101.364855    4.649196    0.000000    0.000000    0.000000    0.000000
  0.041643287   -0.130588 -112.734772 -100.913311    7.784911    0.000000    0.000000    0.000000    0.000000
  0.041843687   -0.138536 -113.273010 -101.629102    4.320323    0.000000    0.000000    0.000000    0.000000
  0.042044088   -0.141320 -113.792450 -105.183523   -0.480554    0.000000    0.000000    0.000000    0.000000
  0.042244489   -0.136544 -114.333481 -103.244460    9.249165    0.000000    0.000000    0.000000    0.000000
  0.042444890   -0.133101 -114.857346 -101.890590    6.420465    0.000000    0.000000    0.000000    0.000000
  0.042645291   -0.121008 -115.330246 -101.101717   14.463023    0.000000    0.000000    0.000000    0.000000
  0.042845691   -0.113658 -115.768990 -102.330278   10.475471    0.000000    0.000000    0.000000    0.000000
  0.043046092   -0.112874 -116.207214 -100.223967   15.556157    0.000000    0.000000    0.000000    0.000000
  0.043246493   -0.114643 -116.635643 -100.675017   10.384418    0.000000    0.000000    0.000000    0.000000
  0.043446894   -0.117107 -117.093132 -101.366052   -2.209383    0.000000    0.000000    0.000000    0.000000
  0.043647295   -0.122677 -117.521889 -101.733017   13.927432    0.000000    0.000000    0.000000    0.000000
  0.043847695   -0.127869 -117.997566 -101.590060    3.338486    0.000000    0.000000    0.000000    0.000000
  0.044048096   -0.132658 -118.472694 -100.169127    3.162787    0.000000    0.000000    0.000000    0.000000
  0.044248497   -0.139489 -118.953865 -102.143457   -2.351298    0.000000    0.000000    0.000000    0.000000
  0.044448898   -0.146724 -119.460091 -101.724799    8.172449    0.000000    0.000000    0.000000    0.000000
  0.044649299   -0.150591 -119.991043  -99.809581    0.399522    0.000000    0.000000    0.000000    0.000000
  0.044849699   -0.152952 -120.493828  -99.735955   -0.782010    0.000000    0.000000    0.000000    0.000000
  0.045050100   -0.153064 -121.001526  -99.406763   -6.050954    0.000000    0.000000    0.000000    0.000000
  0.045250501   -0.150248 -121.487076 -102.315849  -12.732285    0.000000    0.000000    0.000000    0.000000
  0.045450902   -0.148506 -121.999443 -102.466449   -7.415629    0.000000    0.000000    0.000000    0.000000
  0.045651303   -0.144606 -122.500389 -102.517571    2.208120    0.000000    0.000000    0.000000    0.000000
  0.045851703   -0.142149 -123.020187 -101.124861   -0.110925    0.000000    0.000000    0.000000    0.000000
  0.046052104   -0.141062 -123.514412 -102.043843   -3.080278    0.000000    0.000000    0.000000    0.000000
  0.046252505   -0.136512 -124.015800 -106.405729   21.514441    0.000000    0.000000    0.000000    0.000000
  0.046452906   -0.138247 -124.468529 -101.612678  -11.360423    0.000000    0.000000    0.000000    0.000000
  0.046653307   -0.143142 -124.934570 -102.923017   -2.676591    0.000000    0.000000    0.000000    0.000000
  0.046853707   -0.153340 -125.419716 -105.020682    4.399387    0.000000    0.000000    0.000000    0.000000
  0.047054108   -0.162498 -125.937019 -105.095687   24.805901    0.000000    0.000000    0.000000    0.000000
  0.047254509   -0.169571 -126.481987 -103.285131    8.040914    0.000000    0.000000    0.000000    0.000000
  0.047454910   -0.165433 -126.997421 -104.620967   -1.430017    0.000000    0.000000    0.000000    0.000000
  0.047655311   -0.163773 -127.525192 -101.357588   20.902258    0.000000    0.000000    0.000000    0.000000
  0.047855711   -0.152521 -128.000504 -102.258412   11.880135    0.000000    0.000000    0.000000    0.000000
  0.048056112   -0.148621 -128.461243 -100.515712   18.016455    0.000000    0.000000    0.000000    0.000000
  0.048256513   -0.144177 -128.913147 -101.531606   12.079073    0.000000    0.000000    0.000000    0.000000
  0.048456914   -0.143743 -129.349304 -100.524367   10.302457    0.000000    0.000000    0.000000    0.000000
  0.048657315   -0.142208 -129.771744 -101.851986    1.285075    0.000000    0.000000    0.000000    0.000000
  0.048857715   -0.146366 -130.215088 -102.545748   -1.447313    0.000000    0.000000    0.000000    0.000000
  0.049058116   -0.150563 -130.639877 -100.653964   -3.120447    0.000000    0.000000    0.000000    0.000000
  0.049258517   -0.157387 -131.078247 -100.799869  -10.448744    0.000000    0.000000    0.000000    0.000000
  0.049458918   -0.163639 -131.520950 -100.602672  -14.532840    0.000000    0.000000    0.000000    0.000000
  0.049659319   -0.167079 -132.002411 -101.790610    1.710791    0.000000    0.000000    0.000000    0.000000
  0.049859719   -0.171234 -132.482956 -102.748742   -3.774481    0.000000    0.000000    0.000000    0.000000
  0.050060120   -0.169257 -132.951584 -101.909655   -8.118816    0.000000    0.000000    0.000000    0.000000
  0.050260521   -0.170207 -133.401474 -106.344283  -26.245628    0.000000    0.000000    0.000000    0.000000
  0.050460922   -0.172666 -133.862457 -103.927431   -1.055129    0.000000    0.000000    0.000000    0.000000
  0.050661323   -0.172363 -134.341446 -102.267311   -8.437510    0.000000    0.000000    0.000000    0.000000
  0.050861723   -0.174232 -134.857315 -105.634280    0.702316    0.000000    0.000000    0.000000    0.000000
  0.051062124   -0.172665 -135.339645 -105.665684    6.158378    0.000000    0.000000    0.000000    0.000000
  0.051262525   -0.172280 -135.828003 -104.793240   -4.996080    0.000000    0.000000    0.000000    0.000000
  0.051462926   -0.171249 -136.300522 -105.970797   11.327696    0.000000    0.000000    0.000000    0.000000
  0.051663327   -0.172008 -136.750534 -104.782381   13.321177    0.000000    0.000000    0.000000    0.000000
  0.051863727   -0.175111 -137.198212 -106.419578   15.997341    0.000000    0.000000    0.000000    0.000000
  0.052064128   -0.182819 -137.664001 -105.032186   15.424415    0.000000    0.000000    0.000000    0.000000
  0.052264529   -0.188987 -138.127121 -105.313331   17.042261    0.000000    0.000000    0.000000    0.000000
  0.052464930   -0.193912 -138.645340 -102.136705   13.580976    0.000000    0.000000    0.000000    0.000000
  0.052665331   -0.194033 -139.158401 -101.174744   28.330400    0.000000    0.000000    0.000000    0.000000
  0.052865731   -0.191874 -139.659943 -102.667605    8.028117    0.000000    0.000000    0.000000    0.000000
