! Anritsu VNA Master:                     Model: MS2036C/10/77
! SN:                                  1601066
! /bd0/18may26.balun/4a.66.2.s2p
! Existing Calibration Information:
! TYPE:                         Current Settings,       Active Cal Settings
! TIME:             	   05/26/2018 03:20:26 PM,    05/26/2018 02:51:55 PM
! INTERNAL TEMP:    	                   59.8 C,                    59.5 C
! # POINTS:         	                      500,                       500
! START FREQ:       	               20.000 MHz,                20.000 MHz
! STOP FREQ:        	              120.000 MHz,               120.000 MHz
! SOURCE POWER:     	                     High,                      High
! IFBW:             	                    50 Hz,                     50 Hz
! AVG FACTOR:       	                       1 ,                        1 
! REF PLANE 1:      	                     0 mm,                      0 mm
! REF PLANE 2:      	                     0 mm,                      0 mm
! CAL TYPE:         	                 Full S11,                  Full S11
! CAL METHOD:       	                     SOLT,                      SOLT
! CAL LINE TYPE:    	                     Coax,                      Coax
! DUT PORT 1:       	                K-Conn(M),                 K-Conn(M)
! DUT PORT 2:       	                K-Conn(M),                 K-Conn(M)
! CAL STATUS:       	        OK: Accuracy High,                        --
# GHZ S DB R 50.0
! FREQ.GHZ       S11DB        S11A       S21DB        S21A       S12DB        S12A       S22DB        S22A
  0.020000000   -0.052707  -68.191505  -90.621467   32.431499    0.000000    0.000000    0.000000    0.000000
  0.020200401   -0.049578  -68.848282  -90.417067   31.838097    0.000000    0.000000    0.000000    0.000000
  0.020400802   -0.046484  -69.490173  -90.626711   28.252073    0.000000    0.000000    0.000000    0.000000
  0.020601202   -0.045886  -70.113052  -91.132589   28.656704    0.000000    0.000000    0.000000    0.000000
  0.020801603   -0.043138  -70.757523  -90.930621   24.584309    0.000000    0.000000    0.000000    0.000000
  0.021002004   -0.042797  -71.401802  -91.828219   28.387362    0.000000    0.000000    0.000000    0.000000
  0.021202405   -0.045967  -72.032883  -91.869320   25.027740    0.000000    0.000000    0.000000    0.000000
  0.021402806   -0.047460  -72.667076  -92.389165   25.716568    0.000000    0.000000    0.000000    0.000000
  0.021603206   -0.051966  -73.299973  -92.397284   28.562723    0.000000    0.000000    0.000000    0.000000
  0.021803607   -0.056351  -73.925766  -93.384065   25.669510    0.000000    0.000000    0.000000    0.000000
  0.022004008   -0.059938  -74.532906  -93.057616   25.969204    0.000000    0.000000    0.000000    0.000000
  0.022204409   -0.060589  -75.179298  -94.287356   24.141668    0.000000    0.000000    0.000000    0.000000
  0.022404810   -0.061262  -75.835373  -94.284077   32.911900    0.000000    0.000000    0.000000    0.000000
  0.022605210   -0.064760  -76.490814  -94.126033   30.278891    0.000000    0.000000    0.000000    0.000000
  0.022805611   -0.064720  -77.132080  -93.677994   34.874481    0.000000    0.000000    0.000000    0.000000
  0.023006012   -0.054556  -77.778740  -94.154561   33.318745    0.000000    0.000000    0.000000    0.000000
  0.023206413   -0.045418  -78.432289  -93.315108   33.333080    0.000000    0.000000    0.000000    0.000000
  0.023406814   -0.037971  -79.081337  -93.731108   34.342323    0.000000    0.000000    0.000000    0.000000
  0.023607214   -0.037474  -79.707634  -93.375870   29.920265    0.000000    0.000000    0.000000    0.000000
  0.023807615   -0.037304  -80.312920  -92.922156   30.403030    0.000000    0.000000    0.000000    0.000000
  0.024008016   -0.044272  -80.891365  -93.334645   35.783184    0.000000    0.000000    0.000000    0.000000
  0.024208417   -0.049073  -81.479355  -93.206285   30.793365    0.000000    0.000000    0.000000    0.000000
  0.024408818   -0.055420  -82.026199  -93.672039   26.881037    0.000000    0.000000    0.000000    0.000000
  0.024609218   -0.060480  -82.612091  -93.991800   21.075695    0.000000    0.000000    0.000000    0.000000
  0.024809619   -0.065873  -83.222755  -93.620655   24.027267    0.000000    0.000000    0.000000    0.000000
  0.025010020   -0.069663  -83.868011  -93.678292   21.783962    0.000000    0.000000    0.000000    0.000000
  0.025210421   -0.075107  -84.534393  -93.664428   20.695013    0.000000    0.000000    0.000000    0.000000
  0.025410822   -0.077472  -85.180428  -94.118679   12.766431    0.000000    0.000000    0.000000    0.000000
  0.025611222   -0.074611  -85.848938  -94.395679   19.338200    0.000000    0.000000    0.000000    0.000000
  0.025811623   -0.073021  -86.494553  -94.478809   16.787277    0.000000    0.000000    0.000000    0.000000
  0.026012024   -0.069002  -87.117279  -94.129954   21.407465    0.000000    0.000000    0.000000    0.000000
  0.026212425   -0.067001  -87.721016  -96.112812   13.777422    0.000000    0.000000    0.000000    0.000000
  0.026412826   -0.066797  -88.314758  -95.708128   21.585281    0.000000    0.000000    0.000000    0.000000
  0.026613226   -0.072670  -88.916267  -96.001964   20.239227    0.000000    0.000000    0.000000    0.000000
  0.026813627   -0.079835  -89.486588  -96.246408   19.902561    0.000000    0.000000    0.000000    0.000000
  0.027014028   -0.086022  -90.036812  -96.290750   12.230694    0.000000    0.000000    0.000000    0.000000
  0.027214429   -0.096261  -90.619247  -96.867721   20.939064    0.000000    0.000000    0.000000    0.000000
  0.027414830   -0.106903  -91.238487  -95.966149   18.973166    0.000000    0.000000    0.000000    0.000000
  0.027615230   -0.110590  -91.911758  -96.713671   23.937647    0.000000    0.000000    0.000000    0.000000
  0.027815631   -0.113142  -92.588982  -96.623244   20.646683    0.000000    0.000000    0.000000    0.000000
  0.028016032   -0.109830  -93.275246  -96.529914   23.911974    0.000000    0.000000    0.000000    0.000000
  0.028216433   -0.101523  -93.961716  -95.860269   19.979702    0.000000    0.000000    0.000000    0.000000
  0.028416834   -0.092776  -94.637238  -95.395379   25.057434    0.000000    0.000000    0.000000    0.000000
  0.028617234   -0.083123  -95.269905  -96.139315   21.698540    0.000000    0.000000    0.000000    0.000000
  0.028817635   -0.074619  -95.877556  -96.309504   27.086267    0.000000    0.000000    0.000000    0.000000
  0.029018036   -0.063994  -96.439804  -95.227448   19.842375    0.000000    0.000000    0.000000    0.000000
  0.029218437   -0.057448  -96.975418  -96.338016   14.229591    0.000000    0.000000    0.000000    0.000000
  0.029418838   -0.053290  -97.471985  -95.599747   13.652854    0.000000    0.000000    0.000000    0.000000
  0.029619238   -0.047762  -97.992447  -96.838255   17.595373    0.000000    0.000000    0.000000    0.000000
  0.029819639   -0.050913  -98.491287  -96.518170   11.377024    0.000000    0.000000    0.000000    0.000000
  0.030020040   -0.056188  -99.022720  -96.048259   15.044496    0.000000    0.000000    0.000000    0.000000
  0.030220441   -0.064850  -99.563568  -96.407617   10.539852    0.000000    0.000000    0.000000    0.000000
  0.030420842   -0.076209 -100.157845  -97.887541    8.531165    0.000000    0.000000    0.000000    0.000000
  0.030621242   -0.086948 -100.780029  -96.848261   11.802771    0.000000    0.000000    0.000000    0.000000
  0.030821643   -0.087757 -101.414330  -97.419508   11.270652    0.000000    0.000000    0.000000    0.000000
  0.031022044   -0.090121 -102.029266  -97.981512    9.966250    0.000000    0.000000    0.000000    0.000000
  0.031222445   -0.086956 -102.624771  -97.880724    7.623908    0.000000    0.000000    0.000000    0.000000
  0.031422846   -0.088686 -103.215446  -98.794952   11.284942    0.000000    0.000000    0.000000    0.000000
  0.031623246   -0.086934 -103.796364  -97.137763   15.449912    0.000000    0.000000    0.000000    0.000000
  0.031823647   -0.086589 -104.349045  -96.843966   11.530073    0.000000    0.000000    0.000000    0.000000
  0.032024048   -0.088212 -104.858406  -97.732706   12.831070    0.000000    0.000000    0.000000    0.000000
  0.032224449   -0.093994 -105.362579  -98.242169   15.884618    0.000000    0.000000    0.000000    0.000000
  0.032424850   -0.103347 -105.897476  -97.449792   15.621233    0.000000    0.000000    0.000000    0.000000
  0.032625251   -0.115272 -106.476501  -97.067501   15.013310    0.000000    0.000000    0.000000    0.000000
  0.032825651   -0.124716 -107.056122  -98.504166   16.780090    0.000000    0.000000    0.000000    0.000000
  0.033026052   -0.132042 -107.682526  -98.123605    9.987100    0.000000    0.000000    0.000000    0.000000
  0.033226453   -0.132770 -108.306908  -97.554762   16.743475    0.000000    0.000000    0.000000    0.000000
  0.033426854   -0.135603 -108.943756  -98.207127   13.118362    0.000000    0.000000    0.000000    0.000000
  0.033627255   -0.134677 -109.573662  -98.307147   14.216536    0.000000    0.000000    0.000000    0.000000
  0.033827655   -0.134761 -110.246246  -98.187612   13.186392    0.000000    0.000000    0.000000    0.000000
  0.034028056   -0.133605 -110.851448  -98.546983   23.070648    0.000000    0.000000    0.000000    0.000000
  0.034228457   -0.128833 -111.488113  -99.415076   14.670154    0.000000    0.000000    0.000000    0.000000
  0.034428858   -0.120156 -112.088676  -97.670293   11.818781    0.000000    0.000000    0.000000    0.000000
  0.034629259   -0.109940 -112.633575  -99.368243    8.409902    0.000000    0.000000    0.000000    0.000000
  0.034829659   -0.098768 -113.173790  -99.234604   18.319231    0.000000    0.000000    0.000000    0.000000
  0.035030060   -0.095992 -113.680954  -97.728442   11.790795    0.000000    0.000000    0.000000    0.000000
  0.035230461   -0.090614 -114.190681  -99.428331    0.350786    0.000000    0.000000    0.000000    0.000000
  0.035430862   -0.093093 -114.695709 -100.112812    2.176384    0.000000    0.000000    0.000000    0.000000
  0.035631263   -0.098942 -115.207832 -100.148933    3.632224    0.000000    0.000000    0.000000    0.000000
  0.035831663   -0.105566 -115.722176 -100.740750    4.390200    0.000000    0.000000    0.000000    0.000000
  0.036032064   -0.113271 -116.280403  -99.016933    7.465808    0.000000    0.000000    0.000000    0.000000
  0.036232465   -0.123470 -116.863525  -99.758339   13.130621    0.000000    0.000000    0.000000    0.000000
  0.036432866   -0.131155 -117.476151  -99.213205    8.236435    0.000000    0.000000    0.000000    0.000000
  0.036633267   -0.135782 -118.086075  -99.512041    0.198212    0.000000    0.000000    0.000000    0.000000
  0.036833667   -0.131431 -118.660904  -99.394779   17.066607    0.000000    0.000000    0.000000    0.000000
  0.037034068   -0.125520 -119.219559 -101.186252   -0.993839    0.000000    0.000000    0.000000    0.000000
  0.037234469   -0.117162 -119.738831 -100.381798    6.721677    0.000000    0.000000    0.000000    0.000000
  0.037434870   -0.111393 -120.196838  -99.150092    6.169307    0.000000    0.000000    0.000000    0.000000
  0.037635271   -0.111269 -120.671631  -99.045526   18.918375    0.000000    0.000000    0.000000    0.000000
  0.037835671   -0.116777 -121.166733  -99.510756    8.296902    0.000000    0.000000    0.000000    0.000000
  0.038036072   -0.125517 -121.679176  -99.046606   13.797744    0.000000    0.000000    0.000000    0.000000
  0.038236473   -0.136328 -122.231728  -98.410099    7.945153    0.000000    0.000000    0.000000    0.000000
  0.038436874   -0.139465 -122.777512 -100.484458    5.328984    0.000000    0.000000    0.000000    0.000000
  0.038637275   -0.144329 -123.333931  -99.752468    0.493077    0.000000    0.000000    0.000000    0.000000
  0.038837675   -0.149415 -123.900154  -99.283263    2.854617    0.000000    0.000000    0.000000    0.000000
  0.039038076   -0.155877 -124.488800 -101.477880    1.997639    0.000000    0.000000    0.000000    0.000000
  0.039238477   -0.161656 -125.096321  -99.111996   -9.882082    0.000000    0.000000    0.000000    0.000000
  0.039438878   -0.162321 -125.686325  -99.465152   -3.704384    0.000000    0.000000    0.000000    0.000000
  0.039639279   -0.160976 -126.273026  -99.150680    7.374761    0.000000    0.000000    0.000000    0.000000
  0.039839679   -0.155887 -126.841042  -99.898118   -3.837546    0.000000    0.000000    0.000000    0.000000
  0.040040080   -0.148349 -127.384056 -101.873945    1.234606    0.000000    0.000000    0.000000    0.000000
  0.040240481   -0.145984 -127.905678 -102.243277   -3.535583    0.000000    0.000000    0.000000    0.000000
  0.040440882   -0.141677 -128.455582 -100.383059    9.283996    0.000000    0.000000    0.000000    0.000000
  0.040641283   -0.138975 -128.977280 -100.562246    0.985365    0.000000    0.000000    0.000000    0.000000
  0.040841683   -0.136600 -129.505798 -100.586850   -7.309750    0.000000    0.000000    0.000000    0.000000
  0.041042084   -0.137760 -130.015640 -102.295238    5.376839    0.000000    0.000000    0.000000    0.000000
  0.041242485   -0.144895 -130.486664 -102.537246    6.306453    0.000000    0.000000    0.000000    0.000000
  0.041442886   -0.156532 -130.979156 -104.011269   18.620266    0.000000    0.000000    0.000000    0.000000
  0.041643287   -0.167330 -131.527451 -103.904642   21.268757    0.000000    0.000000    0.000000    0.000000
  0.041843687   -0.172003 -132.109528 -102.980233   13.843865    0.000000    0.000000    0.000000    0.000000
  0.042044088   -0.172638 -132.659393 -101.384515    1.989236    0.000000    0.000000    0.000000    0.000000
  0.042244489   -0.160305 -133.214005 -101.478452   16.577824    0.000000    0.000000    0.000000    0.000000
  0.042444890   -0.153755 -133.715866 -102.047531   14.770186    0.000000    0.000000    0.000000    0.000000
  0.042645291   -0.145988 -134.190384 -101.621595   21.611263    0.000000    0.000000    0.000000    0.000000
  0.042845691   -0.145558 -134.637939  -99.199262   17.449312    0.000000    0.000000    0.000000    0.000000
  0.043046092   -0.147991 -135.099304  -98.913419   12.714480    0.000000    0.000000    0.000000    0.000000
  0.043246493   -0.152346 -135.576050 -100.154687   14.368858    0.000000    0.000000    0.000000    0.000000
  0.043446894   -0.153673 -136.069397  -99.647558    6.585169    0.000000    0.000000    0.000000    0.000000
  0.043647295   -0.159516 -136.540146 -100.159908   10.504377    0.000000    0.000000    0.000000    0.000000
  0.043847695   -0.164425 -137.038513 -100.160965   -3.072295    0.000000    0.000000    0.000000    0.000000
  0.044048096   -0.169514 -137.556488 -100.986205   -1.009405    0.000000    0.000000    0.000000    0.000000
  0.044248497   -0.174875 -138.082672  -99.758267    7.165947    0.000000    0.000000    0.000000    0.000000
  0.044448898   -0.180048 -138.623688  -99.705727    8.123405    0.000000    0.000000    0.000000    0.000000
  0.044649299   -0.180953 -139.174774 -101.203278   -5.060749    0.000000    0.000000    0.000000    0.000000
  0.044849699   -0.182297 -139.691910 -102.235012    2.179705    0.000000    0.000000    0.000000    0.000000
  0.045050100   -0.184628 -140.205566 -101.456993   -2.006589    0.000000    0.000000    0.000000    0.000000
  0.045250501   -0.183943 -140.708069 -100.958726   -5.581157    0.000000    0.000000    0.000000    0.000000
  0.045450902   -0.185539 -141.249619 -100.663166  -13.652287    0.000000    0.000000    0.000000    0.000000
  0.045651303   -0.181682 -141.783356 -102.777339    7.616738    0.000000    0.000000    0.000000    0.000000
  0.045851703   -0.178802 -142.327789 -104.281252    2.144813    0.000000    0.000000    0.000000    0.000000
  0.046052104   -0.176486 -142.854996 -103.181712    3.850668    0.000000    0.000000    0.000000    0.000000
  0.046252505   -0.173190 -143.361938 -104.500176    2.065548    0.000000    0.000000    0.000000    0.000000
  0.046452906   -0.176779 -143.835785 -103.357458   -2.938576    0.000000    0.000000    0.000000    0.000000
  0.046653307   -0.184331 -144.327377 -105.634447   12.880930    0.000000    0.000000    0.000000    0.000000
  0.046853707   -0.193052 -144.849380 -102.682899   16.793724    0.000000    0.000000    0.000000    0.000000
  0.047054108   -0.198242 -145.386353 -102.406109    7.103368    0.000000    0.000000    0.000000    0.000000
  0.047254509   -0.201416 -145.944534 -102.210895   11.337688    0.000000    0.000000    0.000000    0.000000
  0.047454910   -0.192819 -146.466232 -100.909992   12.313268    0.000000    0.000000    0.000000    0.000000
  0.047655311   -0.188943 -146.969803 -101.832717   17.195492    0.000000    0.000000    0.000000    0.000000
  0.047855711   -0.183096 -147.431778 -102.983998   11.168218    0.000000    0.000000    0.000000    0.000000
  0.048056112   -0.179585 -147.892502 -102.024874   14.795470    0.000000    0.000000    0.000000    0.000000
  0.048256513   -0.180519 -148.360931  -98.777474   11.811818    0.000000    0.000000    0.000000    0.000000
  0.048456914   -0.179308 -148.815643 -100.934949   11.073324    0.000000    0.000000    0.000000    0.000000
  0.048657315   -0.177607 -149.263504 -101.638447    8.121531    0.000000    0.000000    0.000000    0.000000
  0.048857715   -0.181764 -149.720352 -100.147268    2.889569    0.000000    0.000000    0.000000    0.000000
  0.049058116   -0.187669 -150.149216 -100.400227   -6.637432    0.000000    0.000000    0.000000    0.000000
  0.049258517   -0.193316 -150.624130 -100.174265   -4.258525    0.000000    0.000000    0.000000    0.000000
  0.049458918   -0.198048 -151.092148 -102.971263   -7.235917    0.000000    0.000000    0.000000    0.000000
  0.049659319   -0.199919 -151.590469 -100.778597   -8.295551    0.000000    0.000000    0.000000    0.000000
  0.049859719   -0.201126 -152.073746 -104.653711   -0.504848    0.000000    0.000000    0.000000    0.000000
  0.050060120   -0.199704 -152.537033 -102.419552  -14.459375    0.000000    0.000000    0.000000    0.000000
  0.050260521   -0.203674 -152.993744 -103.483502  -12.307596    0.000000    0.000000    0.000000    0.000000
  0.050460922   -0.207044 -153.470261 -105.093267  -11.840469    0.000000    0.000000    0.000000    0.000000
  0.050661323   -0.208046 -153.971130 -103.265058    2.853584    0.000000    0.000000    0.000000    0.000000
  0.050861723   -0.209001 -154.493546 -106.637653   -7.562570    0.000000    0.000000    0.000000    0.000000
  0.051062124   -0.207066 -154.995621 -105.145125   32.268932    0.000000    0.000000    0.000000    0.000000
  0.051262525   -0.206602 -155.471695 -102.683819    1.681037    0.000000    0.000000    0.000000    0.000000
  0.051462926   -0.208380 -155.971786 -103.211490   14.403003    0.000000    0.000000    0.000000    0.000000
  0.051663327   -0.210680 -156.434738 -104.309259    5.813420    0.000000    0.000000    0.000000    0.000000
  0.051863727   -0.213406 -156.917892 -103.974767    9.634337    0.000000    0.000000    0.000000    0.000000
  0.052064128   -0.219102 -157.397629 -105.166155   22.278248    0.000000    0.000000    0.000000    0.000000
  0.052264529   -0.221992 -157.885376 -104.222031   13.597683    0.000000    0.000000    0.000000    0.000000
  0.052464930   -0.223653 -158.393723 -101.590389   20.320765    0.000000    0.000000    0.000000    0.000000
  0.052665331   -0.221565 -158.901443 -102.153574   18.519831    0.000000    0.000000    0.000000    0.000000
  0.052865731   -0.218255 -159.400543 -105.958132   11.482764    0.000000    0.000000    0.000000    0.000000
