! Anritsu VNA Master:                     Model: MS2036C/10/77
! SN:                                  1601066
! /bd0/18may26.balun/4a.me3.s2p
! Existing Calibration Information:
! TYPE:                         Current Settings,       Active Cal Settings
! TIME:             	   05/26/2018 03:29:39 PM,    05/26/2018 02:51:55 PM
! INTERNAL TEMP:    	                   60.0 C,                    59.5 C
! # POINTS:         	                      500,                       500
! START FREQ:       	               20.000 MHz,                20.000 MHz
! STOP FREQ:        	              120.000 MHz,               120.000 MHz
! SOURCE POWER:     	                     High,                      High
! IFBW:             	                    50 Hz,                     50 Hz
! AVG FACTOR:       	                       1 ,                        1 
! REF PLANE 1:      	                     0 mm,                      0 mm
! REF PLANE 2:      	                     0 mm,                      0 mm
! CAL TYPE:         	                 Full S11,                  Full S11
! CAL METHOD:       	                     SOLT,                      SOLT
! CAL LINE TYPE:    	                     Coax,                      Coax
! DUT PORT 1:       	                K-Conn(M),                 K-Conn(M)
! DUT PORT 2:       	                K-Conn(M),                 K-Conn(M)
! CAL STATUS:       	        OK: Accuracy High,                        --
# GHZ S DB R 50.0
! FREQ.GHZ       S11DB        S11A       S21DB        S21A       S12DB        S12A       S22DB        S22A
  0.020000000   -0.661382 -126.007553  -91.012247   29.496664    0.000000    0.000000    0.000000    0.000000
  0.020200401   -0.659809 -127.524033  -91.501615   31.367815    0.000000    0.000000    0.000000    0.000000
  0.020400802   -0.658226 -128.997375  -91.599288   26.555117    0.000000    0.000000    0.000000    0.000000
  0.020601202   -0.659066 -130.469315  -92.051384   27.970285    0.000000    0.000000    0.000000    0.000000
  0.020801603   -0.662178 -131.956284  -92.070828   25.866617    0.000000    0.000000    0.000000    0.000000
  0.021002004   -0.668689 -133.498413  -93.179669   25.981829    0.000000    0.000000    0.000000    0.000000
  0.021202405   -0.675442 -135.032013  -93.138078   27.189888    0.000000    0.000000    0.000000    0.000000
  0.021402806   -0.679920 -136.595093  -93.388437   30.343781    0.000000    0.000000    0.000000    0.000000
  0.021603206   -0.684628 -138.146347  -92.336413   34.439110    0.000000    0.000000    0.000000    0.000000
  0.021803607   -0.689287 -139.710510  -93.068435   36.074959    0.000000    0.000000    0.000000    0.000000
  0.022004008   -0.694812 -141.268570  -93.276375   33.664417    0.000000    0.000000    0.000000    0.000000
  0.022204409   -0.694937 -142.880219  -92.886807   37.534599    0.000000    0.000000    0.000000    0.000000
  0.022404810   -0.695805 -144.473450  -92.714328   32.885109    0.000000    0.000000    0.000000    0.000000
  0.022605210   -0.699390 -146.046783  -92.650414   35.567600    0.000000    0.000000    0.000000    0.000000
  0.022805611   -0.700681 -147.613373  -92.833281   28.410126    0.000000    0.000000    0.000000    0.000000
  0.023006012   -0.698863 -149.176270  -92.471724   32.608212    0.000000    0.000000    0.000000    0.000000
  0.023206413   -0.704295 -150.766037  -93.025749   27.120213    0.000000    0.000000    0.000000    0.000000
  0.023406814   -0.712423 -152.372681  -92.292103   33.983574    0.000000    0.000000    0.000000    0.000000
  0.023607214   -0.719803 -153.986618  -92.425436   28.870352    0.000000    0.000000    0.000000    0.000000
  0.023807615   -0.727014 -155.612106  -93.199600   25.764090    0.000000    0.000000    0.000000    0.000000
  0.024008016   -0.736113 -157.215790  -93.213109   22.337008    0.000000    0.000000    0.000000    0.000000
  0.024208417   -0.746445 -158.852844  -94.312637   21.104692    0.000000    0.000000    0.000000    0.000000
  0.024408818   -0.758127 -160.484329  -92.904308   20.240223    0.000000    0.000000    0.000000    0.000000
  0.024609218   -0.771458 -162.162262  -94.500914   13.583267    0.000000    0.000000    0.000000    0.000000
  0.024809619   -0.780107 -163.863846  -94.413806   16.160635    0.000000    0.000000    0.000000    0.000000
  0.025010020   -0.785572 -165.555954  -94.150349   13.471079    0.000000    0.000000    0.000000    0.000000
  0.025210421   -0.795274 -167.267380  -94.677470   19.658848    0.000000    0.000000    0.000000    0.000000
  0.025410822   -0.804897 -168.983215  -95.635703   22.012976    0.000000    0.000000    0.000000    0.000000
  0.025611222   -0.816563 -170.699783  -95.473010   22.955267    0.000000    0.000000    0.000000    0.000000
  0.025811623   -0.825424 -172.429535  -95.224591   19.309130    0.000000    0.000000    0.000000    0.000000
  0.026012024   -0.838061 -174.183945  -95.400571   23.116205    0.000000    0.000000    0.000000    0.000000
  0.026212425   -0.851223 -175.934601  -96.194450   28.093409    0.000000    0.000000    0.000000    0.000000
  0.026412826   -0.866028 -177.699921  -95.972433   24.697897    0.000000    0.000000    0.000000    0.000000
  0.026613226   -0.882663 -179.471436  -95.642033   27.967054    0.000000    0.000000    0.000000    0.000000
  0.026813627   -0.895631  178.749695  -95.378545   32.028194    0.000000    0.000000    0.000000    0.000000
  0.027014028   -0.908073  176.996262  -95.478126   21.000053    0.000000    0.000000    0.000000    0.000000
  0.027214429   -0.921088  175.238510  -95.498487   26.115114    0.000000    0.000000    0.000000    0.000000
  0.027414830   -0.934172  173.473862  -95.218647   25.436974    0.000000    0.000000    0.000000    0.000000
  0.027615230   -0.948273  171.717957  -95.509213   24.004030    0.000000    0.000000    0.000000    0.000000
  0.027815631   -0.965553  169.943893  -95.933570   22.584414    0.000000    0.000000    0.000000    0.000000
  0.028016032   -0.983560  168.146683  -95.886932   18.921009    0.000000    0.000000    0.000000    0.000000
  0.028216433   -1.001193  166.335022  -95.800705   18.682423    0.000000    0.000000    0.000000    0.000000
  0.028416834   -1.021240  164.528000  -95.454428   17.784128    0.000000    0.000000    0.000000    0.000000
  0.028617234   -1.043859  162.723602  -95.508030   18.301775    0.000000    0.000000    0.000000    0.000000
  0.028817635   -1.066620  160.890549  -96.107849    9.277476    0.000000    0.000000    0.000000    0.000000
  0.029018036   -1.091764  159.041138  -96.036683   10.011946    0.000000    0.000000    0.000000    0.000000
  0.029218437   -1.117417  157.150528  -96.021159   11.470412    0.000000    0.000000    0.000000    0.000000
  0.029418838   -1.140421  155.246765  -97.009381    8.081566    0.000000    0.000000    0.000000    0.000000
  0.029619238   -1.164008  153.388657  -97.360024   14.102895    0.000000    0.000000    0.000000    0.000000
  0.029819639   -1.188162  151.496613  -98.053144   15.074328    0.000000    0.000000    0.000000    0.000000
  0.030020040   -1.211812  149.592819  -97.956827   16.007681    0.000000    0.000000    0.000000    0.000000
  0.030220441   -1.238651  147.691635  -97.547945   19.358839    0.000000    0.000000    0.000000    0.000000
  0.030420842   -1.271592  145.784195  -98.792646    7.328137    0.000000    0.000000    0.000000    0.000000
  0.030621242   -1.308238  143.824234  -97.865544   13.145719    0.000000    0.000000    0.000000    0.000000
  0.030821643   -1.343164  141.823166  -97.681496   10.417296    0.000000    0.000000    0.000000    0.000000
  0.031022044   -1.375743  139.802719  -98.218140   16.935623    0.000000    0.000000    0.000000    0.000000
  0.031222445   -1.402045  137.745743  -97.136206   15.880263    0.000000    0.000000    0.000000    0.000000
  0.031422846   -1.426501  135.717163  -96.471863    3.611120    0.000000    0.000000    0.000000    0.000000
  0.031623246   -1.451793  133.696030  -97.363383   16.889606    0.000000    0.000000    0.000000    0.000000
  0.031823647   -1.472221  131.705231  -98.722049   17.086552    0.000000    0.000000    0.000000    0.000000
  0.032024048   -1.490781  129.715927  -97.833743    8.282549    0.000000    0.000000    0.000000    0.000000
  0.032224449   -1.514312  127.764275  -97.594358   13.343938    0.000000    0.000000    0.000000    0.000000
  0.032424850   -1.539379  125.858109  -96.798773    7.640279    0.000000    0.000000    0.000000    0.000000
  0.032625251   -1.569766  123.908035  -97.668015   10.435434    0.000000    0.000000    0.000000    0.000000
  0.032825651   -1.607980  121.994408  -97.150591    8.259304    0.000000    0.000000    0.000000    0.000000
  0.033026052   -1.648826  120.069168  -96.977575    7.341340    0.000000    0.000000    0.000000    0.000000
  0.033226453   -1.691948  118.109612  -97.955529    3.146360    0.000000    0.000000    0.000000    0.000000
  0.033426854   -1.740546  116.142097  -98.695125   10.273333    0.000000    0.000000    0.000000    0.000000
  0.033627255   -1.787460  114.128845  -99.282687    6.777457    0.000000    0.000000    0.000000    0.000000
  0.033827655   -1.834347  112.056419  -97.928150    7.114167    0.000000    0.000000    0.000000    0.000000
  0.034028056   -1.880973  110.006531 -100.334365    5.570594    0.000000    0.000000    0.000000    0.000000
  0.034228457   -1.929067  107.892632  -99.048859   18.737747    0.000000    0.000000    0.000000    0.000000
  0.034428858   -1.976963  105.808655  -98.608744   12.485024    0.000000    0.000000    0.000000    0.000000
  0.034629259   -2.021139  103.700897  -97.620350    8.000855    0.000000    0.000000    0.000000    0.000000
  0.034829659   -2.060644  101.591499  -98.490712   11.559924    0.000000    0.000000    0.000000    0.000000
  0.035030060   -2.094686   99.523613  -98.631434   17.621964    0.000000    0.000000    0.000000    0.000000
  0.035230461   -2.141213   97.459213  -99.521012    8.027519    0.000000    0.000000    0.000000    0.000000
  0.035430862   -2.185506   95.398216 -101.152732    6.165496    0.000000    0.000000    0.000000    0.000000
  0.035631263   -2.239690   93.326820  -99.966836   12.832078    0.000000    0.000000    0.000000    0.000000
  0.035831663   -2.296943   91.218513  -99.101135   15.261380    0.000000    0.000000    0.000000    0.000000
  0.036032064   -2.350484   89.074959  -98.925537    5.567571    0.000000    0.000000    0.000000    0.000000
  0.036232465   -2.403329   86.894104  -98.559867   11.031143    0.000000    0.000000    0.000000    0.000000
  0.036432866   -2.453729   84.721031  -98.317270    4.015955    0.000000    0.000000    0.000000    0.000000
  0.036633267   -2.498457   82.529976  -97.794916    7.769722    0.000000    0.000000    0.000000    0.000000
  0.036833667   -2.542776   80.358063 -100.009917    8.238066    0.000000    0.000000    0.000000    0.000000
  0.037034068   -2.578854   78.217690  -99.304471    9.151231    0.000000    0.000000    0.000000    0.000000
  0.037234469   -2.615253   76.122414  -99.071706    7.329916    0.000000    0.000000    0.000000    0.000000
  0.037434870   -2.652365   74.061028  -99.957157   -1.156628    0.000000    0.000000    0.000000    0.000000
  0.037635271   -2.689815   72.023972  -99.868709    3.686175    0.000000    0.000000    0.000000    0.000000
  0.037835671   -2.739147   69.979080 -100.866305    1.959823    0.000000    0.000000    0.000000    0.000000
  0.038036072   -2.791914   67.968826  -99.398030    7.529978    0.000000    0.000000    0.000000    0.000000
  0.038236473   -2.850268   66.002899 -101.391546    8.621415    0.000000    0.000000    0.000000    0.000000
  0.038436874   -2.908857   64.001572 -100.670039   -5.029335    0.000000    0.000000    0.000000    0.000000
  0.038637275   -2.974909   61.992039 -100.353861   -2.534160    0.000000    0.000000    0.000000    0.000000
  0.038837675   -3.040645   59.929684  -99.376339   14.612181    0.000000    0.000000    0.000000    0.000000
  0.039038076   -3.107336   57.826370 -101.829117    5.967062    0.000000    0.000000    0.000000    0.000000
  0.039238477   -3.165891   55.672913 -100.100500    9.664536    0.000000    0.000000    0.000000    0.000000
  0.039438878   -3.219004   53.491680 -102.599283   18.964945    0.000000    0.000000    0.000000    0.000000
  0.039639279   -3.266059   51.378651 -100.387952    9.859442    0.000000    0.000000    0.000000    0.000000
  0.039839679   -3.312914   49.280754  -99.343435    4.942402    0.000000    0.000000    0.000000    0.000000
  0.040040080   -3.358324   47.183224 -101.655425    9.878341    0.000000    0.000000    0.000000    0.000000
  0.040240481   -3.407553   45.134708  -99.484820    6.936443    0.000000    0.000000    0.000000    0.000000
  0.040440882   -3.459473   43.063248 -100.654390   12.149461    0.000000    0.000000    0.000000    0.000000
  0.040641283   -3.515137   40.954205 -100.544696   13.609282    0.000000    0.000000    0.000000    0.000000
  0.040841683   -3.568431   38.863846 -101.758133    2.763575    0.000000    0.000000    0.000000    0.000000
  0.041042084   -3.620542   36.763309 -101.048781   11.504107    0.000000    0.000000    0.000000    0.000000
  0.041242485   -3.667555   34.683708  -99.352252    9.538468    0.000000    0.000000    0.000000    0.000000
  0.041442886   -3.716007   32.602005 -100.450992    1.717527    0.000000    0.000000    0.000000    0.000000
  0.041643287   -3.759587   30.533373 -102.154966    6.153869    0.000000    0.000000    0.000000    0.000000
  0.041843687   -3.804686   28.480261 -101.587579   -1.000863    0.000000    0.000000    0.000000    0.000000
  0.042044088   -3.841801   26.440992 -101.933299   -2.749701    0.000000    0.000000    0.000000    0.000000
  0.042244489   -3.883666   24.458971  -99.777108   -5.411930    0.000000    0.000000    0.000000    0.000000
  0.042444890   -3.924670   22.497456 -101.951321   -3.546207    0.000000    0.000000    0.000000    0.000000
  0.042645291   -3.967180   20.518215 -101.901990   -6.276968    0.000000    0.000000    0.000000    0.000000
  0.042845691   -4.012221   18.595898 -103.025838    4.189381    0.000000    0.000000    0.000000    0.000000
  0.043046092   -4.052899   16.644175 -102.726254   -1.408985    0.000000    0.000000    0.000000    0.000000
  0.043246493   -4.099378   14.704650 -101.881783   15.948426    0.000000    0.000000    0.000000    0.000000
  0.043446894   -4.146294   12.779357 -101.509220    2.210550    0.000000    0.000000    0.000000    0.000000
  0.043647295   -4.195894   10.834040 -101.671963    9.298440    0.000000    0.000000    0.000000    0.000000
  0.043847695   -4.242651    8.885644 -103.076312    3.278047    0.000000    0.000000    0.000000    0.000000
  0.044048096   -4.293541    6.941575 -102.616225   20.573689    0.000000    0.000000    0.000000    0.000000
  0.044248497   -4.338627    4.983819 -102.099013   13.116563    0.000000    0.000000    0.000000    0.000000
  0.044448898   -4.382674    3.007745 -100.945300   10.345689    0.000000    0.000000    0.000000    0.000000
  0.044649299   -4.421707    1.043135 -101.593639  -10.538440    0.000000    0.000000    0.000000    0.000000
  0.044849699   -4.463704   -0.892003 -101.957404    2.280473    0.000000    0.000000    0.000000    0.000000
  0.045050100   -4.506941   -2.817270 -101.478362   14.134268    0.000000    0.000000    0.000000    0.000000
  0.045250501   -4.545162   -4.752182 -100.991978   13.261956    0.000000    0.000000    0.000000    0.000000
  0.045450902   -4.578968   -6.679204 -100.781093   -2.047058    0.000000    0.000000    0.000000    0.000000
  0.045651303   -4.611172   -8.625655 -101.025512   -8.547468    0.000000    0.000000    0.000000    0.000000
  0.045851703   -4.641325  -10.536602 -101.276867    0.244625    0.000000    0.000000    0.000000    0.000000
  0.046052104   -4.667394  -12.432508 -101.051995   -0.142004    0.000000    0.000000    0.000000    0.000000
  0.046252505   -4.693037  -14.315305 -102.547788    1.616317    0.000000    0.000000    0.000000    0.000000
  0.046452906   -4.721268  -16.164610 -101.249530    0.942844    0.000000    0.000000    0.000000    0.000000
  0.046653307   -4.746069  -17.961380 -101.506958   -0.223579    0.000000    0.000000    0.000000    0.000000
  0.046853707   -4.773893  -19.749567 -102.011602  -14.091513    0.000000    0.000000    0.000000    0.000000
  0.047054108   -4.806164  -21.539541 -102.499566   -0.611115    0.000000    0.000000    0.000000    0.000000
  0.047254509   -4.833209  -23.296942 -101.822109  -12.200249    0.000000    0.000000    0.000000    0.000000
  0.047454910   -4.859762  -25.045923 -103.578109   11.126800    0.000000    0.000000    0.000000    0.000000
  0.047655311   -4.891538  -26.787939 -104.706077   -5.603900    0.000000    0.000000    0.000000    0.000000
  0.047855711   -4.918518  -28.510788 -106.223045   10.180736    0.000000    0.000000    0.000000    0.000000
  0.048056112   -4.950010  -30.239792 -104.254103   -1.015445    0.000000    0.000000    0.000000    0.000000
  0.048256513   -4.979533  -31.978607 -103.265855    7.504125    0.000000    0.000000    0.000000    0.000000
  0.048456914   -5.011619  -33.706024 -102.282321   -2.175150    0.000000    0.000000    0.000000    0.000000
  0.048657315   -5.036080  -35.469517 -103.058831    4.033822    0.000000    0.000000    0.000000    0.000000
  0.048857715   -5.067604  -37.214424 -100.371272   18.173332    0.000000    0.000000    0.000000    0.000000
  0.049058116   -5.090770  -38.932884 -101.487003   14.240437    0.000000    0.000000    0.000000    0.000000
  0.049258517   -5.117908  -40.639317 -102.546546    0.819928    0.000000    0.000000    0.000000    0.000000
  0.049458918   -5.142140  -42.325096 -102.079887   10.566006    0.000000    0.000000    0.000000    0.000000
  0.049659319   -5.165256  -44.037514 -102.412909   13.415032    0.000000    0.000000    0.000000    0.000000
  0.049859719   -5.196239  -45.750797 -101.019492    6.103158    0.000000    0.000000    0.000000    0.000000
  0.050060120   -5.216280  -47.487423 -101.381790    6.412508    0.000000    0.000000    0.000000    0.000000
  0.050260521   -5.240674  -49.205090 -102.997603    8.655066    0.000000    0.000000    0.000000    0.000000
  0.050460922   -5.258372  -50.910522 -102.012485   -5.637445    0.000000    0.000000    0.000000    0.000000
  0.050661323   -5.274236  -52.632729 -101.687812    1.940654    0.000000    0.000000    0.000000    0.000000
  0.050861723   -5.285780  -54.354618 -102.734301   -3.347241    0.000000    0.000000    0.000000    0.000000
  0.051062124   -5.292664  -56.010094 -101.690211  -10.148815    0.000000    0.000000    0.000000    0.000000
  0.051262525   -5.299118  -57.657513 -101.720901   -1.919983    0.000000    0.000000    0.000000    0.000000
  0.051462926   -5.303455  -59.270210 -104.524940   -8.965240    0.000000    0.000000    0.000000    0.000000
  0.051663327   -5.309686  -60.833202 -102.249720    1.729121    0.000000    0.000000    0.000000    0.000000
  0.051863727   -5.317934  -62.347942 -103.995967   -7.099151    0.000000    0.000000    0.000000    0.000000
  0.052064128   -5.329199  -63.858040 -106.010788   12.762624    0.000000    0.000000    0.000000    0.000000
  0.052264529   -5.340696  -65.367195 -105.065635   14.952712    0.000000    0.000000    0.000000    0.000000
  0.052464930   -5.352173  -66.871140 -104.197136   10.884510    0.000000    0.000000    0.000000    0.000000
  0.052665331   -5.363529  -68.365532 -104.326139    7.514668    0.000000    0.000000    0.000000    0.000000
  0.052865731   -5.377144  -69.840546 -102.644806   11.271995    0.000000    0.000000    0.000000    0.000000
