! Anritsu VNA Master:                     Model: MS2036C/10/77
! SN:                                  1601066
! /bd0/18may26.balun/4a.r200.s2p
! Existing Calibration Information:
! TYPE:                         Current Settings,       Active Cal Settings
! TIME:             	   05/26/2018 03:09:30 PM,    05/26/2018 02:51:55 PM
! INTERNAL TEMP:    	                   59.3 C,                    59.5 C
! # POINTS:         	                      500,                       500
! START FREQ:       	               20.000 MHz,                20.000 MHz
! STOP FREQ:        	              120.000 MHz,               120.000 MHz
! SOURCE POWER:     	                     High,                      High
! IFBW:             	                    50 Hz,                     50 Hz
! AVG FACTOR:       	                       1 ,                        1 
! REF PLANE 1:      	                     0 mm,                      0 mm
! REF PLANE 2:      	                     0 mm,                      0 mm
! CAL TYPE:         	                 Full S11,                  Full S11
! CAL METHOD:       	                     SOLT,                      SOLT
! CAL LINE TYPE:    	                     Coax,                      Coax
! DUT PORT 1:       	                K-Conn(M),                 K-Conn(M)
! DUT PORT 2:       	                K-Conn(M),                 K-Conn(M)
! CAL STATUS:       	        OK: Accuracy High,                        --
# GHZ S DB R 50.0
! FREQ.GHZ       S11DB        S11A       S21DB        S21A       S12DB        S12A       S22DB        S22A
  0.020000000   -4.554550  -22.637638  -90.537475   36.804440    0.000000    0.000000    0.000000    0.000000
  0.020200401   -4.552024  -22.868044  -91.105584   39.490875    0.000000    0.000000    0.000000    0.000000
  0.020400802   -4.550158  -23.090879  -91.181637   35.511635    0.000000    0.000000    0.000000    0.000000
  0.020601202   -4.549244  -23.302162  -90.691433   37.111023    0.000000    0.000000    0.000000    0.000000
  0.020801603   -4.546201  -23.526924  -91.708778   28.749392    0.000000    0.000000    0.000000    0.000000
  0.021002004   -4.545415  -23.743782  -91.956259   31.280315    0.000000    0.000000    0.000000    0.000000
  0.021202405   -4.545579  -23.980356  -91.729377   32.439785    0.000000    0.000000    0.000000    0.000000
  0.021402806   -4.545367  -24.205662  -92.130342   29.821100    0.000000    0.000000    0.000000    0.000000
  0.021603206   -4.546089  -24.437656  -91.998167   25.320913    0.000000    0.000000    0.000000    0.000000
  0.021803607   -4.548082  -24.627569  -91.910678   26.331516    0.000000    0.000000    0.000000    0.000000
  0.022004008   -4.549823  -24.846296  -92.718354   27.186340    0.000000    0.000000    0.000000    0.000000
  0.022204409   -4.550115  -25.054298  -93.052369   30.503679    0.000000    0.000000    0.000000    0.000000
  0.022404810   -4.546903  -25.258928  -92.892626   30.870071    0.000000    0.000000    0.000000    0.000000
  0.022605210   -4.552259  -25.482214  -93.821155   28.351635    0.000000    0.000000    0.000000    0.000000
  0.022805611   -4.557047  -25.702869  -93.652276   27.227379    0.000000    0.000000    0.000000    0.000000
  0.023006012   -4.558217  -25.944334  -93.515706   26.832645    0.000000    0.000000    0.000000    0.000000
  0.023206413   -4.555293  -26.173304  -94.272445   26.227724    0.000000    0.000000    0.000000    0.000000
  0.023406814   -4.551021  -26.405600  -93.319343   31.275631    0.000000    0.000000    0.000000    0.000000
  0.023607214   -4.547432  -26.646019  -92.940620   32.407658    0.000000    0.000000    0.000000    0.000000
  0.023807615   -4.550486  -26.892590  -94.551339   30.618103    0.000000    0.000000    0.000000    0.000000
  0.024008016   -4.552958  -27.132025  -94.516316   32.103779    0.000000    0.000000    0.000000    0.000000
  0.024208417   -4.553657  -27.356901  -93.642577   23.094542    0.000000    0.000000    0.000000    0.000000
  0.024408818   -4.555217  -27.550190  -94.354749   24.101812    0.000000    0.000000    0.000000    0.000000
  0.024609218   -4.558583  -27.757923  -94.486658   24.089764    0.000000    0.000000    0.000000    0.000000
  0.024809619   -4.561552  -27.978855  -94.568140   22.441927    0.000000    0.000000    0.000000    0.000000
  0.025010020   -4.562372  -28.208403  -94.602084   23.814930    0.000000    0.000000    0.000000    0.000000
  0.025210421   -4.568935  -28.456476  -94.076865   23.767714    0.000000    0.000000    0.000000    0.000000
  0.025410822   -4.569232  -28.692484  -94.419316   19.224270    0.000000    0.000000    0.000000    0.000000
  0.025611222   -4.566618  -28.963066  -94.278309   19.135031    0.000000    0.000000    0.000000    0.000000
  0.025811623   -4.568465  -29.216331  -94.417487   19.142452    0.000000    0.000000    0.000000    0.000000
  0.026012024   -4.568763  -29.464117  -95.126552   19.842228    0.000000    0.000000    0.000000    0.000000
  0.026212425   -4.568576  -29.723656  -94.836240   22.407665    0.000000    0.000000    0.000000    0.000000
  0.026412826   -4.564844  -29.983673  -94.915327   17.265987    0.000000    0.000000    0.000000    0.000000
  0.026613226   -4.562915  -30.245472  -95.278121   14.334820    0.000000    0.000000    0.000000    0.000000
  0.026813627   -4.559215  -30.452990  -96.195911   19.120535    0.000000    0.000000    0.000000    0.000000
  0.027014028   -4.557214  -30.643774  -95.847721   19.822975    0.000000    0.000000    0.000000    0.000000
  0.027214429   -4.557183  -30.817684  -95.993778   19.871771    0.000000    0.000000    0.000000    0.000000
  0.027414830   -4.558021  -30.997717  -95.516786   16.965885    0.000000    0.000000    0.000000    0.000000
  0.027615230   -4.558687  -31.199293  -95.941835   17.468382    0.000000    0.000000    0.000000    0.000000
  0.027815631   -4.564297  -31.411934  -95.640076   20.222197    0.000000    0.000000    0.000000    0.000000
  0.028016032   -4.571053  -31.649796  -96.055404   17.790300    0.000000    0.000000    0.000000    0.000000
  0.028216433   -4.573442  -31.899719  -96.200380   18.934072    0.000000    0.000000    0.000000    0.000000
  0.028416834   -4.573733  -32.146915  -96.674399   23.172791    0.000000    0.000000    0.000000    0.000000
  0.028617234   -4.570017  -32.408016  -97.814577   24.124676    0.000000    0.000000    0.000000    0.000000
  0.028817635   -4.569060  -32.664722  -96.207616   22.719191    0.000000    0.000000    0.000000    0.000000
  0.029018036   -4.565989  -32.908119  -96.586535   15.761987    0.000000    0.000000    0.000000    0.000000
  0.029218437   -4.562899  -33.149265  -95.854195   22.069456    0.000000    0.000000    0.000000    0.000000
  0.029418838   -4.558610  -33.341736  -96.983987   18.449469    0.000000    0.000000    0.000000    0.000000
  0.029619238   -4.557426  -33.544540  -96.756712   16.764637    0.000000    0.000000    0.000000    0.000000
  0.029819639   -4.553220  -33.716640  -96.655676   16.218578    0.000000    0.000000    0.000000    0.000000
  0.030020040   -4.550692  -33.903801  -96.780588   20.387039    0.000000    0.000000    0.000000    0.000000
  0.030220441   -4.552026  -34.081291  -96.484597   20.813137    0.000000    0.000000    0.000000    0.000000
  0.030420842   -4.555253  -34.336613  -96.870381   12.253639    0.000000    0.000000    0.000000    0.000000
  0.030621242   -4.561300  -34.571842  -97.126405   16.456686    0.000000    0.000000    0.000000    0.000000
  0.030821643   -4.562554  -34.813335  -96.761507   11.486779    0.000000    0.000000    0.000000    0.000000
  0.031022044   -4.565778  -35.049927  -97.385136   11.853240    0.000000    0.000000    0.000000    0.000000
  0.031222445   -4.558968  -35.251717  -97.976826   11.410389    0.000000    0.000000    0.000000    0.000000
  0.031422846   -4.563697  -35.500427  -97.195138    7.654541    0.000000    0.000000    0.000000    0.000000
  0.031623246   -4.567187  -35.758617  -97.577810    9.945003    0.000000    0.000000    0.000000    0.000000
  0.031823647   -4.569040  -36.032906  -98.662198    7.746107    0.000000    0.000000    0.000000    0.000000
  0.032024048   -4.568944  -36.259129  -97.938636   17.779018    0.000000    0.000000    0.000000    0.000000
  0.032224449   -4.565642  -36.479160  -97.948581    9.239393    0.000000    0.000000    0.000000    0.000000
  0.032424850   -4.563100  -36.714508  -97.411596    8.170160    0.000000    0.000000    0.000000    0.000000
  0.032625251   -4.556876  -36.935444  -97.524860   14.163302    0.000000    0.000000    0.000000    0.000000
  0.032825651   -4.551721  -37.113468  -98.401680   18.211712    0.000000    0.000000    0.000000    0.000000
  0.033026052   -4.552407  -37.293312  -98.378998    8.280760    0.000000    0.000000    0.000000    0.000000
  0.033226453   -4.554564  -37.446415  -99.559567    9.893373    0.000000    0.000000    0.000000    0.000000
  0.033426854   -4.561673  -37.636326 -100.681974   12.862489    0.000000    0.000000    0.000000    0.000000
  0.033627255   -4.567454  -37.849545  -98.419531   13.518389    0.000000    0.000000    0.000000    0.000000
  0.033827655   -4.572111  -38.097153  -98.354305   16.690117    0.000000    0.000000    0.000000    0.000000
  0.034028056   -4.579818  -38.348148  -99.480545    8.041467    0.000000    0.000000    0.000000    0.000000
  0.034228457   -4.585376  -38.610867  -97.639133    8.648184    0.000000    0.000000    0.000000    0.000000
  0.034428858   -4.583295  -38.866699  -98.051179    6.813692    0.000000    0.000000    0.000000    0.000000
  0.034629259   -4.582567  -39.090923  -97.764401    1.081040    0.000000    0.000000    0.000000    0.000000
  0.034829659   -4.580073  -39.376953  -98.047885    8.325457    0.000000    0.000000    0.000000    0.000000
  0.035030060   -4.575796  -39.625256  -98.116057    7.632667    0.000000    0.000000    0.000000    0.000000
  0.035230461   -4.569790  -39.863289  -98.337281    6.686632    0.000000    0.000000    0.000000    0.000000
  0.035430862   -4.569163  -40.063869  -99.298745    7.527919    0.000000    0.000000    0.000000    0.000000
  0.035631263   -4.569367  -40.266113  -98.675543    0.764156    0.000000    0.000000    0.000000    0.000000
  0.035831663   -4.572071  -40.478832  -99.170159   -0.982519    0.000000    0.000000    0.000000    0.000000
  0.036032064   -4.575156  -40.708977 -100.048630    6.538902    0.000000    0.000000    0.000000    0.000000
  0.036232465   -4.578934  -40.957535  -99.848485   11.025260    0.000000    0.000000    0.000000    0.000000
  0.036432866   -4.583966  -41.215389  -98.370665    7.683811    0.000000    0.000000    0.000000    0.000000
  0.036633267   -4.589711  -41.493629 -100.468122   -1.079093    0.000000    0.000000    0.000000    0.000000
  0.036833667   -4.591364  -41.753231  -99.670063    1.660394    0.000000    0.000000    0.000000    0.000000
  0.037034068   -4.594841  -42.013817  -99.631528   11.316556    0.000000    0.000000    0.000000    0.000000
  0.037234469   -4.595377  -42.265011  -99.888760   10.771983    0.000000    0.000000    0.000000    0.000000
  0.037434870   -4.591949  -42.497368  -99.527989    1.423736    0.000000    0.000000    0.000000    0.000000
  0.037635271   -4.589467  -42.723198  -98.871100    8.868163    0.000000    0.000000    0.000000    0.000000
  0.037835671   -4.583535  -42.983215 -100.142478   19.497406    0.000000    0.000000    0.000000    0.000000
  0.038036072   -4.575845  -43.200562  -99.660761    5.132392    0.000000    0.000000    0.000000    0.000000
  0.038236473   -4.570748  -43.421898  -99.844272    5.827013    0.000000    0.000000    0.000000    0.000000
  0.038436874   -4.563698  -43.561764 -100.343999   10.506776    0.000000    0.000000    0.000000    0.000000
  0.038637275   -4.564366  -43.712444  -99.128727   14.126698    0.000000    0.000000    0.000000    0.000000
  0.038837675   -4.570284  -43.862793  -98.769254   16.989498    0.000000    0.000000    0.000000    0.000000
  0.039038076   -4.578066  -44.060284  -99.577538    8.079232    0.000000    0.000000    0.000000    0.000000
  0.039238477   -4.587544  -44.280922 -101.263761    8.744711    0.000000    0.000000    0.000000    0.000000
  0.039438878   -4.594991  -44.513355 -101.460892   10.026775    0.000000    0.000000    0.000000    0.000000
  0.039639279   -4.603684  -44.739742  -98.701057   15.883284    0.000000    0.000000    0.000000    0.000000
  0.039839679   -4.609285  -44.997452  -99.818114   11.500299    0.000000    0.000000    0.000000    0.000000
  0.040040080   -4.608072  -45.253914  -99.680987   -4.112054    0.000000    0.000000    0.000000    0.000000
  0.040240481   -4.607838  -45.499142 -101.918832    1.314311    0.000000    0.000000    0.000000    0.000000
  0.040440882   -4.602934  -45.766678 -101.234095    2.320471    0.000000    0.000000    0.000000    0.000000
  0.040641283   -4.600938  -46.003380  -99.546047    4.983449    0.000000    0.000000    0.000000    0.000000
  0.040841683   -4.594601  -46.240875 -100.761086    6.558914    0.000000    0.000000    0.000000    0.000000
  0.041042084   -4.597594  -46.462505 -101.284552    1.292364    0.000000    0.000000    0.000000    0.000000
  0.041242485   -4.601428  -46.672634  -99.831950    5.674358    0.000000    0.000000    0.000000    0.000000
  0.041442886   -4.606655  -46.913239 -101.097303    4.115428    0.000000    0.000000    0.000000    0.000000
  0.041643287   -4.612819  -47.172325 -101.642800   10.937252    0.000000    0.000000    0.000000    0.000000
  0.041843687   -4.617593  -47.464558 -101.948236    8.131157    0.000000    0.000000    0.000000    0.000000
  0.042044088   -4.621421  -47.733883 -100.855626    4.658603    0.000000    0.000000    0.000000    0.000000
  0.042244489   -4.620602  -48.001690 -103.792632  -10.070159    0.000000    0.000000    0.000000    0.000000
  0.042444890   -4.623287  -48.266132 -102.005035    7.735882    0.000000    0.000000    0.000000    0.000000
  0.042645291   -4.621230  -48.518375 -101.177453   18.676653    0.000000    0.000000    0.000000    0.000000
  0.042845691   -4.619193  -48.765392 -102.325454   17.234106    0.000000    0.000000    0.000000    0.000000
  0.043046092   -4.612910  -49.040581 -100.796759    8.070226    0.000000    0.000000    0.000000    0.000000
  0.043246493   -4.604835  -49.301323 -102.608817   10.950023    0.000000    0.000000    0.000000    0.000000
  0.043446894   -4.594432  -49.539196 -102.693725    2.394199    0.000000    0.000000    0.000000    0.000000
  0.043647295   -4.585339  -49.703751 -102.371264    6.343124    0.000000    0.000000    0.000000    0.000000
  0.043847695   -4.581623  -49.886726 -100.062732    4.277675    0.000000    0.000000    0.000000    0.000000
  0.044048096   -4.579011  -50.033722 -101.562274   10.981985    0.000000    0.000000    0.000000    0.000000
  0.044248497   -4.583313  -50.188038 -101.548400   11.396941    0.000000    0.000000    0.000000    0.000000
  0.044448898   -4.587452  -50.360729 -101.744388    1.603613    0.000000    0.000000    0.000000    0.000000
  0.044649299   -4.593885  -50.568192 -100.061385    8.569580    0.000000    0.000000    0.000000    0.000000
  0.044849699   -4.599699  -50.746159 -100.348217   -4.795436    0.000000    0.000000    0.000000    0.000000
  0.045050100   -4.606287  -50.975967 -101.191742   10.614355    0.000000    0.000000    0.000000    0.000000
  0.045250501   -4.611776  -51.169460 -101.915496   11.878165    0.000000    0.000000    0.000000    0.000000
  0.045450902   -4.615358  -51.403061 -102.197708    1.647555    0.000000    0.000000    0.000000    0.000000
  0.045651303   -4.612298  -51.654617 -101.578995   -3.340399    0.000000    0.000000    0.000000    0.000000
  0.045851703   -4.612016  -51.890511 -101.143812   -7.074113    0.000000    0.000000    0.000000    0.000000
  0.046052104   -4.609666  -52.118343 -101.727324   -2.076226    0.000000    0.000000    0.000000    0.000000
  0.046252505   -4.609413  -52.338993 -102.910829    1.689909    0.000000    0.000000    0.000000    0.000000
  0.046452906   -4.613387  -52.558849 -102.865678    4.689441    0.000000    0.000000    0.000000    0.000000
  0.046653307   -4.620017  -52.780018 -103.735440   -8.532861    0.000000    0.000000    0.000000    0.000000
  0.046853707   -4.625558  -53.025509 -104.343527   -7.553656    0.000000    0.000000    0.000000    0.000000
  0.047054108   -4.633680  -53.306805 -102.762788  -13.932453    0.000000    0.000000    0.000000    0.000000
  0.047254509   -4.641644  -53.601536 -102.359195    8.733360    0.000000    0.000000    0.000000    0.000000
  0.047454910   -4.643236  -53.842232 -103.578100   16.269468    0.000000    0.000000    0.000000    0.000000
  0.047655311   -4.651553  -54.118656 -102.949061   19.163185    0.000000    0.000000    0.000000    0.000000
  0.047855711   -4.651991  -54.383717 -102.039837   20.309134    0.000000    0.000000    0.000000    0.000000
  0.048056112   -4.649074  -54.665314 -103.779679    1.264455    0.000000    0.000000    0.000000    0.000000
  0.048256513   -4.645861  -54.960732 -103.473954   13.408220    0.000000    0.000000    0.000000    0.000000
  0.048456914   -4.639998  -55.242496 -101.313688   15.785839    0.000000    0.000000    0.000000    0.000000
  0.048657315   -4.628311  -55.512363 -102.291208   22.045881    0.000000    0.000000    0.000000    0.000000
  0.048857715   -4.623641  -55.763496 -100.814245   -4.583054    0.000000    0.000000    0.000000    0.000000
  0.049058116   -4.618931  -55.963097 -102.684166    3.142050    0.000000    0.000000    0.000000    0.000000
  0.049258517   -4.615187  -56.143433 -102.383237   -2.342221    0.000000    0.000000    0.000000    0.000000
  0.049458918   -4.613281  -56.295715 -101.471654   19.918924    0.000000    0.000000    0.000000    0.000000
  0.049659319   -4.612581  -56.485764 -102.058591    3.758712    0.000000    0.000000    0.000000    0.000000
  0.049859719   -4.615462  -56.687481 -103.635973   19.586168    0.000000    0.000000    0.000000    0.000000
  0.050060120   -4.618678  -56.862034 -103.264928   10.033850    0.000000    0.000000    0.000000    0.000000
  0.050260521   -4.623653  -57.070133 -103.050170    0.497002    0.000000    0.000000    0.000000    0.000000
  0.050460922   -4.626612  -57.279690 -101.891411   -4.097700    0.000000    0.000000    0.000000    0.000000
  0.050661323   -4.627175  -57.505569 -103.379396    2.334899    0.000000    0.000000    0.000000    0.000000
  0.050861723   -4.628092  -57.759804 -101.753068   -1.626693    0.000000    0.000000    0.000000    0.000000
  0.051062124   -4.627325  -57.981174 -102.381568  -15.178418    0.000000    0.000000    0.000000    0.000000
  0.051262525   -4.626339  -58.207474 -103.790527    5.995705    0.000000    0.000000    0.000000    0.000000
  0.051462926   -4.624826  -58.421326 -102.647088  -16.104391    0.000000    0.000000    0.000000    0.000000
  0.051663327   -4.629105  -58.634190 -102.429955    4.533239    0.000000    0.000000    0.000000    0.000000
  0.051863727   -4.633070  -58.829090 -104.109215   14.490109    0.000000    0.000000    0.000000    0.000000
  0.052064128   -4.638382  -59.052402 -105.546153   -1.221641    0.000000    0.000000    0.000000    0.000000
  0.052264529   -4.644887  -59.294689 -103.088739   -7.128722    0.000000    0.000000    0.000000    0.000000
  0.052464930   -4.650335  -59.538937 -106.628258   -9.365017    0.000000    0.000000    0.000000    0.000000
  0.052665331   -4.654812  -59.776981 -104.169966   -3.655327    0.000000    0.000000    0.000000    0.000000
  0.052865731   -4.659126  -60.031948 -103.660583    3.967277    0.000000    0.000000    0.000000    0.000000
