! Anritsu VNA Master:                     Model: MS2036C/10/77
! SN:                                  1601066
! /bd0/18may26.balun/4a.r50.2.s2p
! Existing Calibration Information:
! TYPE:                         Current Settings,       Active Cal Settings
! TIME:             	   05/26/2018 03:25:00 PM,    05/26/2018 02:51:55 PM
! INTERNAL TEMP:    	                   59.8 C,                    59.5 C
! # POINTS:         	                      500,                       500
! START FREQ:       	               20.000 MHz,                20.000 MHz
! STOP FREQ:        	              120.000 MHz,               120.000 MHz
! SOURCE POWER:     	                     High,                      High
! IFBW:             	                    50 Hz,                     50 Hz
! AVG FACTOR:       	                       1 ,                        1 
! REF PLANE 1:      	                     0 mm,                      0 mm
! REF PLANE 2:      	                     0 mm,                      0 mm
! CAL TYPE:         	                 Full S11,                  Full S11
! CAL METHOD:       	                     SOLT,                      SOLT
! CAL LINE TYPE:    	                     Coax,                      Coax
! DUT PORT 1:       	                K-Conn(M),                 K-Conn(M)
! DUT PORT 2:       	                K-Conn(M),                 K-Conn(M)
! CAL STATUS:       	        OK: Accuracy High,                        --
# GHZ S DB R 50.0
! FREQ.GHZ       S11DB        S11A       S21DB        S21A       S12DB        S12A       S22DB        S22A
  0.020000000  -39.128022   49.234165  -91.990689   32.102837    0.000000    0.000000    0.000000    0.000000
  0.020200401  -38.973584   49.362289  -91.624837   33.962658    0.000000    0.000000    0.000000    0.000000
  0.020400802  -38.900319   48.611610  -91.399808   31.691828    0.000000    0.000000    0.000000    0.000000
  0.020601202  -38.710872   49.332531  -92.243643   32.822292    0.000000    0.000000    0.000000    0.000000
  0.020801603  -38.575580   48.742420  -91.704418   33.814808    0.000000    0.000000    0.000000    0.000000
  0.021002004  -38.567433   49.390221  -91.893151   29.383785    0.000000    0.000000    0.000000    0.000000
  0.021202405  -38.333423   49.215927  -92.700691   30.993608    0.000000    0.000000    0.000000    0.000000
  0.021402806  -38.390569   49.608879  -92.397355   29.341236    0.000000    0.000000    0.000000    0.000000
  0.021603206  -38.243866   49.142799  -92.390876   30.759283    0.000000    0.000000    0.000000    0.000000
  0.021803607  -38.208995   50.089283  -92.254627   30.418848    0.000000    0.000000    0.000000    0.000000
  0.022004008  -38.099180   49.429611  -92.246525   29.611164    0.000000    0.000000    0.000000    0.000000
  0.022204409  -38.129020   50.042877  -92.413771   27.468370    0.000000    0.000000    0.000000    0.000000
  0.022404810  -37.951884   49.681316  -92.883250   30.248804    0.000000    0.000000    0.000000    0.000000
  0.022605210  -37.984862   49.891693  -92.444750   28.486012    0.000000    0.000000    0.000000    0.000000
  0.022805611  -37.789596   49.659584  -92.933257   26.189985    0.000000    0.000000    0.000000    0.000000
  0.023006012  -37.896113   49.666348  -92.530907   28.688543    0.000000    0.000000    0.000000    0.000000
  0.023206413  -37.763731   50.026344  -92.991298   29.364552    0.000000    0.000000    0.000000    0.000000
  0.023406814  -37.811054   50.059254  -94.173819   19.842285    0.000000    0.000000    0.000000    0.000000
  0.023607214  -37.645729   49.868275  -93.251973   20.259432    0.000000    0.000000    0.000000    0.000000
  0.023807615  -37.672885   49.666965  -94.052754   35.379826    0.000000    0.000000    0.000000    0.000000
  0.024008016  -37.615340   49.087582  -93.826529   23.843262    0.000000    0.000000    0.000000    0.000000
  0.024208417  -37.531610   49.631374  -94.108972   25.407434    0.000000    0.000000    0.000000    0.000000
  0.024408818  -37.412618   48.735054  -94.188440   26.275959    0.000000    0.000000    0.000000    0.000000
  0.024609218  -37.383794   48.934357  -93.890907   27.964254    0.000000    0.000000    0.000000    0.000000
  0.024809619  -37.226325   48.747021  -93.684845   18.139584    0.000000    0.000000    0.000000    0.000000
  0.025010020  -37.225604   48.435101  -93.392889   19.988461    0.000000    0.000000    0.000000    0.000000
  0.025210421  -37.201862   49.161884  -94.385172   25.557764    0.000000    0.000000    0.000000    0.000000
  0.025410822  -37.058127   48.961090  -94.321566   23.840889    0.000000    0.000000    0.000000    0.000000
  0.025611222  -37.012318   48.832813  -94.635178   24.618822    0.000000    0.000000    0.000000    0.000000
  0.025811623  -36.959995   49.501839  -94.205509   23.748056    0.000000    0.000000    0.000000    0.000000
  0.026012024  -36.835738   49.304398  -94.754471   21.158113    0.000000    0.000000    0.000000    0.000000
  0.026212425  -36.780294   49.400387  -94.697625   17.744150    0.000000    0.000000    0.000000    0.000000
  0.026412826  -36.790183   49.868767  -95.734340   20.352451    0.000000    0.000000    0.000000    0.000000
  0.026613226  -36.758020   50.539055  -95.147748   17.356731    0.000000    0.000000    0.000000    0.000000
  0.026813627  -36.690098   50.831055  -96.462343   22.783009    0.000000    0.000000    0.000000    0.000000
  0.027014028  -36.608885   51.082153  -95.713857   24.425102    0.000000    0.000000    0.000000    0.000000
  0.027214429  -36.731303   50.795658  -95.244077   17.314007    0.000000    0.000000    0.000000    0.000000
  0.027414830  -36.741365   51.188927  -96.024383   24.082169    0.000000    0.000000    0.000000    0.000000
  0.027615230  -36.875183   50.581509  -95.851242   22.304533    0.000000    0.000000    0.000000    0.000000
  0.027815631  -36.833499   50.801018  -96.203898   19.922869    0.000000    0.000000    0.000000    0.000000
  0.028016032  -36.798274   50.551208  -96.846217   22.700701    0.000000    0.000000    0.000000    0.000000
  0.028216433  -36.820241   50.433788  -96.101070   16.194220    0.000000    0.000000    0.000000    0.000000
  0.028416834  -36.766855   49.934036  -96.479782   17.585014    0.000000    0.000000    0.000000    0.000000
  0.028617234  -36.776545   49.739006  -96.251895   17.540009    0.000000    0.000000    0.000000    0.000000
  0.028817635  -36.698743   49.342850  -96.633956   20.614523    0.000000    0.000000    0.000000    0.000000
  0.029018036  -36.743685   48.602211  -96.101261   15.649817    0.000000    0.000000    0.000000    0.000000
  0.029218437  -36.674396   48.441139  -96.270511   16.985413    0.000000    0.000000    0.000000    0.000000
  0.029418838  -36.633137   47.899197  -96.544087   15.693038    0.000000    0.000000    0.000000    0.000000
  0.029619238  -36.591834   47.723373  -97.324119   14.529319    0.000000    0.000000    0.000000    0.000000
  0.029819639  -36.455492   47.178547  -97.315017   21.059477    0.000000    0.000000    0.000000    0.000000
  0.030020040  -36.401661   46.794594  -96.659178   12.611683    0.000000    0.000000    0.000000    0.000000
  0.030220441  -36.281207   46.626701  -95.941044   12.684990    0.000000    0.000000    0.000000    0.000000
  0.030420842  -36.281938   46.327026  -97.030285   22.340153    0.000000    0.000000    0.000000    0.000000
  0.030621242  -36.161332   46.684116  -96.949753   19.820230    0.000000    0.000000    0.000000    0.000000
  0.030821643  -36.070849   45.891750  -97.765377   14.752114    0.000000    0.000000    0.000000    0.000000
  0.031022044  -35.963210   46.538155  -97.965865   13.476945    0.000000    0.000000    0.000000    0.000000
  0.031222445  -35.845355   46.763618  -97.845581   14.963788    0.000000    0.000000    0.000000    0.000000
  0.031422846  -35.712273   47.219563  -97.389075    8.646487    0.000000    0.000000    0.000000    0.000000
  0.031623246  -35.675623   47.040180  -96.799356   14.751596    0.000000    0.000000    0.000000    0.000000
  0.031823647  -35.748354   47.228062  -97.975195   20.940329    0.000000    0.000000    0.000000    0.000000
  0.032024048  -35.619143   47.508083  -97.962079   13.893679    0.000000    0.000000    0.000000    0.000000
  0.032224449  -35.545806   47.902542  -97.905565    6.616811    0.000000    0.000000    0.000000    0.000000
  0.032424850  -35.704561   48.967056  -97.481325    5.450234    0.000000    0.000000    0.000000    0.000000
  0.032625251  -35.693360   48.972572  -97.274886    9.065456    0.000000    0.000000    0.000000    0.000000
  0.032825651  -35.687196   49.232544  -97.895668    9.397089    0.000000    0.000000    0.000000    0.000000
  0.033026052  -35.745581   49.132450  -97.855890    8.580566    0.000000    0.000000    0.000000    0.000000
  0.033226453  -35.775945   48.818810  -97.773178   12.488256    0.000000    0.000000    0.000000    0.000000
  0.033426854  -35.802849   48.849716  -98.418164   18.557711    0.000000    0.000000    0.000000    0.000000
  0.033627255  -35.888267   47.787411  -97.986095    7.396572    0.000000    0.000000    0.000000    0.000000
  0.033827655  -35.874222   47.342552  -98.116890   15.937995    0.000000    0.000000    0.000000    0.000000
  0.034028056  -35.910315   46.993298  -98.815809    9.125593    0.000000    0.000000    0.000000    0.000000
  0.034228457  -35.950386   46.551907  -98.678671    3.977340    0.000000    0.000000    0.000000    0.000000
  0.034428858  -35.935885   45.689194  -98.953210    9.394203    0.000000    0.000000    0.000000    0.000000
  0.034629259  -35.900001   44.700802  -98.671105    9.403349    0.000000    0.000000    0.000000    0.000000
  0.034829659  -35.824190   44.016220  -97.531365    6.878908    0.000000    0.000000    0.000000    0.000000
  0.035030060  -35.771512   43.712608  -99.683125    0.776589    0.000000    0.000000    0.000000    0.000000
  0.035230461  -35.714224   42.918800  -98.816543   16.975277    0.000000    0.000000    0.000000    0.000000
  0.035430862  -35.570294   42.974930  -99.471853   -3.560956    0.000000    0.000000    0.000000    0.000000
  0.035631263  -35.354269   42.281277  -98.236819   11.840189    0.000000    0.000000    0.000000    0.000000
  0.035831663  -35.312390   41.836769  -99.240980   13.805640    0.000000    0.000000    0.000000    0.000000
  0.036032064  -35.219992   41.605793  -99.852832    7.946971    0.000000    0.000000    0.000000    0.000000
  0.036232465  -35.034542   41.402592  -99.768745   14.422464    0.000000    0.000000    0.000000    0.000000
  0.036432866  -34.967525   41.715191  -99.465723   -5.804304    0.000000    0.000000    0.000000    0.000000
  0.036633267  -34.817313   42.003700  -99.172718    5.066515    0.000000    0.000000    0.000000    0.000000
  0.036833667  -34.737458   41.702183  -99.232506    5.779327    0.000000    0.000000    0.000000    0.000000
  0.037034068  -34.628319   42.436264  -98.497821    9.443385    0.000000    0.000000    0.000000    0.000000
  0.037234469  -34.536182   42.961784  -99.513030    4.830074    0.000000    0.000000    0.000000    0.000000
  0.037434870  -34.438406   43.196156  -98.755464   17.157047    0.000000    0.000000    0.000000    0.000000
  0.037635271  -34.395507   43.997532  -98.836507   10.884282    0.000000    0.000000    0.000000    0.000000
  0.037835671  -34.481788   44.818848  -99.338060    3.564473    0.000000    0.000000    0.000000    0.000000
  0.038036072  -34.398887   45.092903  -99.423742    3.264919    0.000000    0.000000    0.000000    0.000000
  0.038236473  -34.485158   45.964123 -100.810835    5.699433    0.000000    0.000000    0.000000    0.000000
  0.038436874  -34.527460   45.851871  -99.892195    6.317719    0.000000    0.000000    0.000000    0.000000
  0.038637275  -34.571561   46.027985 -100.768565    5.484700    0.000000    0.000000    0.000000    0.000000
  0.038837675  -34.629189   45.886360  -98.378811    7.026295    0.000000    0.000000    0.000000    0.000000
  0.039038076  -34.722638   46.041168 -100.904549    3.640248    0.000000    0.000000    0.000000    0.000000
  0.039238477  -34.734290   46.065113 -101.173956   -5.899103    0.000000    0.000000    0.000000    0.000000
  0.039438878  -34.782066   45.772999 -101.236521   15.500872    0.000000    0.000000    0.000000    0.000000
  0.039639279  -34.799744   45.325493 -100.727870    0.654150    0.000000    0.000000    0.000000    0.000000
  0.039839679  -34.857124   45.306137  -98.956701    0.569428    0.000000    0.000000    0.000000    0.000000
  0.040040080  -34.878836   44.191605 -100.572637    4.038765    0.000000    0.000000    0.000000    0.000000
  0.040240481  -34.892643   43.860825 -100.926959    7.662838    0.000000    0.000000    0.000000    0.000000
  0.040440882  -34.841165   43.352894 -100.924951    8.038004    0.000000    0.000000    0.000000    0.000000
  0.040641283  -34.884078   42.654598 -101.259601   11.121873    0.000000    0.000000    0.000000    0.000000
  0.040841683  -34.813094   41.620369 -100.000007    7.046111    0.000000    0.000000    0.000000    0.000000
  0.041042084  -34.831847   41.176441 -103.366611   17.159956    0.000000    0.000000    0.000000    0.000000
  0.041242485  -34.691648   41.193241 -100.756060    2.194298    0.000000    0.000000    0.000000    0.000000
  0.041442886  -34.653116   40.423660  -99.874501    4.152607    0.000000    0.000000    0.000000    0.000000
  0.041643287  -34.530327   39.927273 -101.435588   -7.962789    0.000000    0.000000    0.000000    0.000000
  0.041843687  -34.470792   39.681984 -101.521905    5.211082    0.000000    0.000000    0.000000    0.000000
  0.042044088  -34.345720   39.505039 -100.783699    6.446327    0.000000    0.000000    0.000000    0.000000
  0.042244489  -34.272164   39.447327 -102.565138    5.231680    0.000000    0.000000    0.000000    0.000000
  0.042444890  -34.196951   39.804104 -100.691168    0.292086    0.000000    0.000000    0.000000    0.000000
  0.042645291  -34.094799   39.781742 -101.998868   17.683533    0.000000    0.000000    0.000000    0.000000
  0.042845691  -34.057593   39.826485 -101.258221   -2.487332    0.000000    0.000000    0.000000    0.000000
  0.043046092  -33.944346   40.227814 -101.368810    6.531334    0.000000    0.000000    0.000000    0.000000
  0.043246493  -33.916943   40.145603 -101.644930   -1.723601    0.000000    0.000000    0.000000    0.000000
  0.043446894  -33.945909   40.283649 -102.880815   13.922029    0.000000    0.000000    0.000000    0.000000
  0.043647295  -33.873024   40.181385 -102.094298    5.741858    0.000000    0.000000    0.000000    0.000000
  0.043847695  -33.905379   40.788151 -101.262287    8.166131    0.000000    0.000000    0.000000    0.000000
  0.044048096  -33.909513   40.767406 -101.732979   -1.406007    0.000000    0.000000    0.000000    0.000000
  0.044248497  -33.888315   40.897530 -101.699512   11.488126    0.000000    0.000000    0.000000    0.000000
  0.044448898  -33.885790   40.525337 -100.831690    9.450329    0.000000    0.000000    0.000000    0.000000
  0.044649299  -33.939989   40.400574 -101.496598    9.305453    0.000000    0.000000    0.000000    0.000000
  0.044849699  -33.896035   40.088833 -100.945505   -4.518236    0.000000    0.000000    0.000000    0.000000
  0.045050100  -33.908820   40.355400 -101.433534   -2.016964    0.000000    0.000000    0.000000    0.000000
  0.045250501  -33.874323   39.756142 -102.765546    1.905583    0.000000    0.000000    0.000000    0.000000
  0.045450902  -33.861005   39.595814 -101.465818   -0.961158    0.000000    0.000000    0.000000    0.000000
  0.045651303  -33.872407   38.634617 -104.901970    0.514630    0.000000    0.000000    0.000000    0.000000
  0.045851703  -33.815335   38.873840 -100.772387   10.403143    0.000000    0.000000    0.000000    0.000000
  0.046052104  -33.757807   38.325684 -102.357871    2.885997    0.000000    0.000000    0.000000    0.000000
  0.046252505  -33.768834   38.269188 -102.864605   14.175213    0.000000    0.000000    0.000000    0.000000
  0.046452906  -33.718260   37.534927 -100.792196    4.286739    0.000000    0.000000    0.000000    0.000000
  0.046653307  -33.664405   37.672340 -101.815655   -4.530274    0.000000    0.000000    0.000000    0.000000
  0.046853707  -33.554016   37.377888 -101.611580   11.231162    0.000000    0.000000    0.000000    0.000000
  0.047054108  -33.520157   37.240211 -102.110776    7.809102    0.000000    0.000000    0.000000    0.000000
  0.047254509  -33.475419   37.583637 -101.842119   10.451880    0.000000    0.000000    0.000000    0.000000
  0.047454910  -33.371161   37.435474 -104.722892    4.753679    0.000000    0.000000    0.000000    0.000000
  0.047655311  -33.312393   37.943321 -101.798592   11.773536    0.000000    0.000000    0.000000    0.000000
  0.047855711  -33.231542   37.526604 -106.559650   -2.108204    0.000000    0.000000    0.000000    0.000000
  0.048056112  -33.246490   38.007999 -104.299495    5.819262    0.000000    0.000000    0.000000    0.000000
  0.048256513  -33.206258   38.090500 -103.225641   13.582561    0.000000    0.000000    0.000000    0.000000
  0.048456914  -33.148289   38.193417 -101.834017   11.479858    0.000000    0.000000    0.000000    0.000000
  0.048657315  -33.188733   37.603470 -103.113606   -2.843954    0.000000    0.000000    0.000000    0.000000
  0.048857715  -33.146280   38.548145 -103.660181   -3.123235    0.000000    0.000000    0.000000    0.000000
  0.049058116  -33.155259   38.321873 -103.227332    9.532743    0.000000    0.000000    0.000000    0.000000
  0.049258517  -33.214984   38.787312 -104.288166    3.557091    0.000000    0.000000    0.000000    0.000000
  0.049458918  -33.180897   38.265572 -102.625916    8.343490    0.000000    0.000000    0.000000    0.000000
  0.049659319  -33.196333   38.555595 -102.054624    9.693383    0.000000    0.000000    0.000000    0.000000
  0.049859719  -33.203133   38.469795 -102.957387    4.288141    0.000000    0.000000    0.000000    0.000000
  0.050060120  -33.247949   38.276707 -103.322720   -6.070521    0.000000    0.000000    0.000000    0.000000
  0.050260521  -33.308221   37.658127 -106.275311   18.778027    0.000000    0.000000    0.000000    0.000000
  0.050460922  -33.294167   37.402149 -102.784742    3.293550    0.000000    0.000000    0.000000    0.000000
  0.050661323  -33.272788   37.155228 -101.814981   -5.639778    0.000000    0.000000    0.000000    0.000000
  0.050861723  -33.338181   36.828014 -102.325840    4.288496    0.000000    0.000000    0.000000    0.000000
  0.051062124  -33.278907   36.362629 -103.718610   -3.276994    0.000000    0.000000    0.000000    0.000000
  0.051262525  -33.202538   36.320957 -104.260083    4.130519    0.000000    0.000000    0.000000    0.000000
  0.051462926  -33.221312   35.910072 -100.946514   15.795022    0.000000    0.000000    0.000000    0.000000
  0.051663327  -33.198277   35.260048 -104.131512   10.270551    0.000000    0.000000    0.000000    0.000000
  0.051863727  -33.126871   34.977875 -102.424844    3.901419    0.000000    0.000000    0.000000    0.000000
  0.052064128  -33.159948   34.646297 -102.824706    4.390966    0.000000    0.000000    0.000000    0.000000
  0.052264529  -33.039141   34.324108 -103.829779    0.519497    0.000000    0.000000    0.000000    0.000000
  0.052464930  -32.957185   34.222298 -104.954425   -4.332937    0.000000    0.000000    0.000000    0.000000
  0.052665331  -32.946150   34.093864 -102.325135    3.465563    0.000000    0.000000    0.000000    0.000000
  0.052865731  -32.836044   33.520527 -104.306832    2.682978    0.000000    0.000000    0.000000    0.000000
