! Anritsu VNA Master:                     Model: MS2036C/10/77
! SN:                                  1601066
! /bd0/18may26.balun/4a.r200.2.s2p
! Existing Calibration Information:
! TYPE:                         Current Settings,       Active Cal Settings
! TIME:             	   05/26/2018 03:26:44 PM,    05/26/2018 02:51:55 PM
! INTERNAL TEMP:    	                   59.8 C,                    59.5 C
! # POINTS:         	                      500,                       500
! START FREQ:       	               20.000 MHz,                20.000 MHz
! STOP FREQ:        	              120.000 MHz,               120.000 MHz
! SOURCE POWER:     	                     High,                      High
! IFBW:             	                    50 Hz,                     50 Hz
! AVG FACTOR:       	                       1 ,                        1 
! REF PLANE 1:      	                     0 mm,                      0 mm
! REF PLANE 2:      	                     0 mm,                      0 mm
! CAL TYPE:         	                 Full S11,                  Full S11
! CAL METHOD:       	                     SOLT,                      SOLT
! CAL LINE TYPE:    	                     Coax,                      Coax
! DUT PORT 1:       	                K-Conn(M),                 K-Conn(M)
! DUT PORT 2:       	                K-Conn(M),                 K-Conn(M)
! CAL STATUS:       	        OK: Accuracy High,                        --
# GHZ S DB R 50.0
! FREQ.GHZ       S11DB        S11A       S21DB        S21A       S12DB        S12A       S22DB        S22A
  0.020000000   -4.566975  -22.178154  -91.260337   37.768974    0.000000    0.000000    0.000000    0.000000
  0.020200401   -4.563855  -22.389143  -91.374249   38.165718    0.000000    0.000000    0.000000    0.000000
  0.020400802   -4.561896  -22.605692  -91.673583   33.096661    0.000000    0.000000    0.000000    0.000000
  0.020601202   -4.559308  -22.792580  -91.484354   33.757374    0.000000    0.000000    0.000000    0.000000
  0.020801603   -4.559618  -23.004030  -91.764825   32.920132    0.000000    0.000000    0.000000    0.000000
  0.021002004   -4.558175  -23.222242  -91.380215   28.171148    0.000000    0.000000    0.000000    0.000000
  0.021202405   -4.559397  -23.438763  -91.663138   30.626059    0.000000    0.000000    0.000000    0.000000
  0.021402806   -4.559676  -23.665546  -92.352900   29.136147    0.000000    0.000000    0.000000    0.000000
  0.021603206   -4.561422  -23.882309  -92.017691   30.062628    0.000000    0.000000    0.000000    0.000000
  0.021803607   -4.565073  -24.084650  -92.490816   26.843534    0.000000    0.000000    0.000000    0.000000
  0.022004008   -4.567161  -24.296440  -92.775711   27.433743    0.000000    0.000000    0.000000    0.000000
  0.022204409   -4.568653  -24.523405  -93.089266   30.068525    0.000000    0.000000    0.000000    0.000000
  0.022404810   -4.566410  -24.743134  -92.022109   25.311750    0.000000    0.000000    0.000000    0.000000
  0.022605210   -4.571566  -24.971855  -92.727313   27.997044    0.000000    0.000000    0.000000    0.000000
  0.022805611   -4.577579  -25.194483  -93.817637   28.858273    0.000000    0.000000    0.000000    0.000000
  0.023006012   -4.578369  -25.444002  -93.773499   24.672779    0.000000    0.000000    0.000000    0.000000
  0.023206413   -4.574803  -25.685873  -93.139951   24.638819    0.000000    0.000000    0.000000    0.000000
  0.023406814   -4.567733  -25.927999  -93.568168   27.771111    0.000000    0.000000    0.000000    0.000000
  0.023607214   -4.565773  -26.165291  -93.838978   27.992558    0.000000    0.000000    0.000000    0.000000
  0.023807615   -4.564058  -26.404192  -93.735676   32.014832    0.000000    0.000000    0.000000    0.000000
  0.024008016   -4.565493  -26.625296  -93.442059   30.751728    0.000000    0.000000    0.000000    0.000000
  0.024208417   -4.564653  -26.843325  -94.254963   26.846870    0.000000    0.000000    0.000000    0.000000
  0.024408818   -4.563681  -27.013424  -93.753944   26.395079    0.000000    0.000000    0.000000    0.000000
  0.024609218   -4.565854  -27.202568  -94.433930   27.063019    0.000000    0.000000    0.000000    0.000000
  0.024809619   -4.566518  -27.395489  -93.902892   21.576458    0.000000    0.000000    0.000000    0.000000
  0.025010020   -4.569608  -27.590246  -94.094942   22.794241    0.000000    0.000000    0.000000    0.000000
  0.025210421   -4.574617  -27.802355  -94.118993   21.138704    0.000000    0.000000    0.000000    0.000000
  0.025410822   -4.575639  -28.026510  -94.103429   24.919872    0.000000    0.000000    0.000000    0.000000
  0.025611222   -4.574583  -28.258810  -94.648842   23.670944    0.000000    0.000000    0.000000    0.000000
  0.025811623   -4.577538  -28.488577  -94.729382   19.905573    0.000000    0.000000    0.000000    0.000000
  0.026012024   -4.581268  -28.706079  -95.442321   18.878431    0.000000    0.000000    0.000000    0.000000
  0.026212425   -4.585037  -28.957554  -94.579440   17.630486    0.000000    0.000000    0.000000    0.000000
  0.026412826   -4.583982  -29.208641  -94.616652   17.780022    0.000000    0.000000    0.000000    0.000000
  0.026613226   -4.587502  -29.473434  -95.376745   20.320744    0.000000    0.000000    0.000000    0.000000
  0.026813627   -4.585864  -29.685143  -95.391606   19.845690    0.000000    0.000000    0.000000    0.000000
  0.027014028   -4.586634  -29.889423  -95.830493   16.421673    0.000000    0.000000    0.000000    0.000000
  0.027214429   -4.590042  -30.092115  -95.349359   11.510369    0.000000    0.000000    0.000000    0.000000
  0.027414830   -4.594901  -30.297596  -95.617156   11.991312    0.000000    0.000000    0.000000    0.000000
  0.027615230   -4.597305  -30.527834  -96.746934   14.950248    0.000000    0.000000    0.000000    0.000000
  0.027815631   -4.602863  -30.771355  -97.222271   21.183819    0.000000    0.000000    0.000000    0.000000
  0.028016032   -4.610416  -31.040762  -96.283793   20.366848    0.000000    0.000000    0.000000    0.000000
  0.028216433   -4.612306  -31.324816  -96.003974   21.105562    0.000000    0.000000    0.000000    0.000000
  0.028416834   -4.610081  -31.610081  -96.712165   15.185058    0.000000    0.000000    0.000000    0.000000
  0.028617234   -4.603410  -31.889750  -97.217196   19.714903    0.000000    0.000000    0.000000    0.000000
  0.028817635   -4.599888  -32.172768  -96.849655   23.269876    0.000000    0.000000    0.000000    0.000000
  0.029018036   -4.595799  -32.426975  -97.140405   21.552355    0.000000    0.000000    0.000000    0.000000
  0.029218437   -4.586592  -32.671539  -97.011064   16.631710    0.000000    0.000000    0.000000    0.000000
  0.029418838   -4.580035  -32.872391  -96.601329   15.171261    0.000000    0.000000    0.000000    0.000000
  0.029619238   -4.574974  -33.077011  -95.281258   12.791873    0.000000    0.000000    0.000000    0.000000
  0.029819639   -4.567223  -33.216320  -97.421846   14.257311    0.000000    0.000000    0.000000    0.000000
  0.030020040   -4.560597  -33.375885  -96.495578   18.703762    0.000000    0.000000    0.000000    0.000000
  0.030220441   -4.559683  -33.537331  -96.731046   13.609803    0.000000    0.000000    0.000000    0.000000
  0.030420842   -4.562724  -33.743942  -96.443140   12.038624    0.000000    0.000000    0.000000    0.000000
  0.030621242   -4.567419  -33.936340  -96.875215   10.294333    0.000000    0.000000    0.000000    0.000000
  0.030821643   -4.569018  -34.138958  -97.459824   13.450013    0.000000    0.000000    0.000000    0.000000
  0.031022044   -4.575542  -34.344471  -97.479229   13.894735    0.000000    0.000000    0.000000    0.000000
  0.031222445   -4.569482  -34.505573  -96.040535   10.889174    0.000000    0.000000    0.000000    0.000000
  0.031422846   -4.579233  -34.726444  -96.770093    9.531914    0.000000    0.000000    0.000000    0.000000
  0.031623246   -4.584714  -34.961739  -96.339613   10.691992    0.000000    0.000000    0.000000    0.000000
  0.031823647   -4.591894  -35.227791  -97.327543   12.206495    0.000000    0.000000    0.000000    0.000000
  0.032024048   -4.595219  -35.447994  -96.967430   11.057953    0.000000    0.000000    0.000000    0.000000
  0.032224449   -4.598196  -35.681087  -98.462935   14.774722    0.000000    0.000000    0.000000    0.000000
  0.032424850   -4.600009  -35.945507  -98.822290   11.856069    0.000000    0.000000    0.000000    0.000000
  0.032625251   -4.596981  -36.212620  -98.799192   10.078933    0.000000    0.000000    0.000000    0.000000
  0.032825651   -4.595064  -36.421799  -99.589619    9.215261    0.000000    0.000000    0.000000    0.000000
  0.033026052   -4.600441  -36.653660  -98.221188    6.321194    0.000000    0.000000    0.000000    0.000000
  0.033226453   -4.598071  -36.855709  -98.187895    0.361448    0.000000    0.000000    0.000000    0.000000
  0.033426854   -4.608115  -37.086872  -98.518760   15.881581    0.000000    0.000000    0.000000    0.000000
  0.033627255   -4.610508  -37.355133  -97.684008   11.961645    0.000000    0.000000    0.000000    0.000000
  0.033827655   -4.611915  -37.638180  -98.695160   16.546898    0.000000    0.000000    0.000000    0.000000
  0.034028056   -4.614710  -37.928062  -98.707177   17.767015    0.000000    0.000000    0.000000    0.000000
  0.034228457   -4.616152  -38.211998  -98.453733   11.129230    0.000000    0.000000    0.000000    0.000000
  0.034428858   -4.610577  -38.481373  -99.262788   22.086170    0.000000    0.000000    0.000000    0.000000
  0.034629259   -4.604280  -38.729591  -98.084349    5.933333    0.000000    0.000000    0.000000    0.000000
  0.034829659   -4.593481  -38.990425  -97.668220   10.631867    0.000000    0.000000    0.000000    0.000000
  0.035030060   -4.583006  -39.213497  -97.293853   10.284382    0.000000    0.000000    0.000000    0.000000
  0.035230461   -4.573026  -39.417507  -99.356946   20.371925    0.000000    0.000000    0.000000    0.000000
  0.035430862   -4.565161  -39.579678  -99.474955   17.690088    0.000000    0.000000    0.000000    0.000000
  0.035631263   -4.563434  -39.724167  -99.899300    4.855819    0.000000    0.000000    0.000000    0.000000
  0.035831663   -4.561847  -39.866760  -99.636774    1.048594    0.000000    0.000000    0.000000    0.000000
  0.036032064   -4.563538  -40.045345  -99.278981    1.353105    0.000000    0.000000    0.000000    0.000000
  0.036232465   -4.569022  -40.207413  -98.249467    1.116420    0.000000    0.000000    0.000000    0.000000
  0.036432866   -4.574009  -40.412998  -98.481390    6.364799    0.000000    0.000000    0.000000    0.000000
  0.036633267   -4.582150  -40.630249  -98.940690    0.982470    0.000000    0.000000    0.000000    0.000000
  0.036833667   -4.588104  -40.848549  -99.887140    2.763590    0.000000    0.000000    0.000000    0.000000
  0.037034068   -4.597406  -41.049305 -101.218107   -3.731746    0.000000    0.000000    0.000000    0.000000
  0.037234469   -4.604931  -41.258389  -99.100649    7.119762    0.000000    0.000000    0.000000    0.000000
  0.037434870   -4.607222  -41.480198 -100.938618    0.772571    0.000000    0.000000    0.000000    0.000000
  0.037635271   -4.612221  -41.719330  -99.378082   10.142336    0.000000    0.000000    0.000000    0.000000
  0.037835671   -4.612491  -41.979935 -100.510548   -3.928946    0.000000    0.000000    0.000000    0.000000
  0.038036072   -4.612615  -42.236397 -100.220751    8.954316    0.000000    0.000000    0.000000    0.000000
  0.038236473   -4.610974  -42.486290  -99.517549   15.301833    0.000000    0.000000    0.000000    0.000000
  0.038436874   -4.608118  -42.690598  -99.415252   16.732542    0.000000    0.000000    0.000000    0.000000
  0.038637275   -4.614500  -42.889946  -99.891422    2.557926    0.000000    0.000000    0.000000    0.000000
  0.038837675   -4.619177  -43.095039 -100.573052    6.444338    0.000000    0.000000    0.000000    0.000000
  0.039038076   -4.628114  -43.360821 -100.825339    6.306590    0.000000    0.000000    0.000000    0.000000
  0.039238477   -4.635220  -43.639290  -98.874951    8.626962    0.000000    0.000000    0.000000    0.000000
  0.039438878   -4.638944  -43.923515 -100.551099    7.767514    0.000000    0.000000    0.000000    0.000000
  0.039639279   -4.643804  -44.200657 -102.509668   -1.713706    0.000000    0.000000    0.000000    0.000000
  0.039839679   -4.642577  -44.499207 -100.575028    9.259763    0.000000    0.000000    0.000000    0.000000
  0.040040080   -4.635689  -44.781406  -98.565427   11.104173    0.000000    0.000000    0.000000    0.000000
  0.040240481   -4.628578  -45.043419 -100.233697    1.071848    0.000000    0.000000    0.000000    0.000000
  0.040440882   -4.616990  -45.312634  -99.453620   10.219573    0.000000    0.000000    0.000000    0.000000
  0.040641283   -4.607988  -45.527111 -100.787394   -2.820505    0.000000    0.000000    0.000000    0.000000
  0.040841683   -4.595328  -45.719379 -100.246493   -4.795281    0.000000    0.000000    0.000000    0.000000
  0.041042084   -4.591998  -45.893036 -100.123355    1.024488    0.000000    0.000000    0.000000    0.000000
  0.041242485   -4.590953  -46.059624 -100.999922  -12.347493    0.000000    0.000000    0.000000    0.000000
  0.041442886   -4.592490  -46.233219 -101.449237  -11.044433    0.000000    0.000000    0.000000    0.000000
  0.041643287   -4.597965  -46.406216 -101.741848   -1.790723    0.000000    0.000000    0.000000    0.000000
  0.041843687   -4.601024  -46.607159  -99.575161   -2.484741    0.000000    0.000000    0.000000    0.000000
  0.042044088   -4.607665  -46.814381 -101.088838    8.866035    0.000000    0.000000    0.000000    0.000000
  0.042244489   -4.610001  -47.021080 -101.944266    4.527380    0.000000    0.000000    0.000000    0.000000
  0.042444890   -4.615822  -47.215084 -102.167200    7.318615    0.000000    0.000000    0.000000    0.000000
  0.042645291   -4.619405  -47.440090 -101.282695    6.454198    0.000000    0.000000    0.000000    0.000000
  0.042845691   -4.624095  -47.637611 -102.631690   11.417110    0.000000    0.000000    0.000000    0.000000
  0.043046092   -4.626046  -47.882160 -102.534388    6.424206    0.000000    0.000000    0.000000    0.000000
  0.043246493   -4.624611  -48.129662 -103.047504    1.364166    0.000000    0.000000    0.000000    0.000000
  0.043446894   -4.622022  -48.403500 -102.556308   16.507921    0.000000    0.000000    0.000000    0.000000
  0.043647295   -4.620643  -48.589584 -102.183576    7.331485    0.000000    0.000000    0.000000    0.000000
  0.043847695   -4.621612  -48.811440 -100.993661    3.511643    0.000000    0.000000    0.000000    0.000000
  0.044048096   -4.621639  -49.005032 -100.541972   17.803793    0.000000    0.000000    0.000000    0.000000
  0.044248497   -4.628272  -49.224922 -101.664731    4.716917    0.000000    0.000000    0.000000    0.000000
  0.044448898   -4.633824  -49.463768 -100.841557    8.552318    0.000000    0.000000    0.000000    0.000000
  0.044649299   -4.638969  -49.727188 -101.600581    2.284878    0.000000    0.000000    0.000000    0.000000
  0.044849699   -4.643781  -49.960846  -98.596343    0.116730    0.000000    0.000000    0.000000    0.000000
  0.045050100   -4.649184  -50.240776  -99.928718    3.308455    0.000000    0.000000    0.000000    0.000000
  0.045250501   -4.648884  -50.483971 -100.463760    6.595417    0.000000    0.000000    0.000000    0.000000
  0.045450902   -4.644307  -50.745190 -100.968434    1.177172    0.000000    0.000000    0.000000    0.000000
  0.045651303   -4.634009  -51.004932 -100.451583    3.218015    0.000000    0.000000    0.000000    0.000000
  0.045851703   -4.626506  -51.240993 -100.738725    3.397652    0.000000    0.000000    0.000000    0.000000
  0.046052104   -4.616507  -51.461349 -103.406134    1.008504    0.000000    0.000000    0.000000    0.000000
  0.046252505   -4.607572  -51.663254 -101.453124   -0.376572    0.000000    0.000000    0.000000    0.000000
  0.046452906   -4.607617  -51.845181 -103.139214   -5.391791    0.000000    0.000000    0.000000    0.000000
  0.046653307   -4.608409  -52.019600 -102.545006   -2.785848    0.000000    0.000000    0.000000    0.000000
  0.046853707   -4.614341  -52.203465 -103.643618    6.327738    0.000000    0.000000    0.000000    0.000000
  0.047054108   -4.617700  -52.416458 -103.406562   24.313793    0.000000    0.000000    0.000000    0.000000
  0.047254509   -4.624959  -52.627041 -102.808905    9.304038    0.000000    0.000000    0.000000    0.000000
  0.047454910   -4.624130  -52.815758 -102.680665    6.863044    0.000000    0.000000    0.000000    0.000000
  0.047655311   -4.635064  -53.028774 -105.016930   -6.495080    0.000000    0.000000    0.000000    0.000000
  0.047855711   -4.640637  -53.223537 -105.234033   17.512852    0.000000    0.000000    0.000000    0.000000
  0.048056112   -4.643701  -53.455559 -100.786505   19.115448    0.000000    0.000000    0.000000    0.000000
  0.048256513   -4.647214  -53.715836 -102.430408   13.121499    0.000000    0.000000    0.000000    0.000000
  0.048456914   -4.646241  -53.965881 -102.215151    2.933273    0.000000    0.000000    0.000000    0.000000
  0.048657315   -4.643201  -54.213829 -104.380448   23.602715    0.000000    0.000000    0.000000    0.000000
  0.048857715   -4.644251  -54.466557 -102.314128    0.786969    0.000000    0.000000    0.000000    0.000000
  0.049058116   -4.646695  -54.694782 -102.310922    9.465740    0.000000    0.000000    0.000000    0.000000
  0.049258517   -4.648282  -54.903271 -102.225125    3.874375    0.000000    0.000000    0.000000    0.000000
  0.049458918   -4.650510  -55.113007 -101.681257    5.691282    0.000000    0.000000    0.000000    0.000000
  0.049659319   -4.655144  -55.350510 -102.224336    0.309533    0.000000    0.000000    0.000000    0.000000
  0.049859719   -4.660524  -55.591827 -102.236817    8.340817    0.000000    0.000000    0.000000    0.000000
  0.050060120   -4.664160  -55.829319 -102.523511   -2.187819    0.000000    0.000000    0.000000    0.000000
  0.050260521   -4.668379  -56.101933 -102.111326   -1.285363    0.000000    0.000000    0.000000    0.000000
  0.050460922   -4.669342  -56.369263 -103.248908  -11.302680    0.000000    0.000000    0.000000    0.000000
  0.050661323   -4.665130  -56.639286 -101.681633    2.612234    0.000000    0.000000    0.000000    0.000000
  0.050861723   -4.661330  -56.940472 -102.390553   -1.369897    0.000000    0.000000    0.000000    0.000000
  0.051062124   -4.655126  -57.191891 -102.704165  -11.936213    0.000000    0.000000    0.000000    0.000000
  0.051262525   -4.646723  -57.434803 -103.322973  -12.007502    0.000000    0.000000    0.000000    0.000000
  0.051462926   -4.641036  -57.646774 -103.274992   -9.912267    0.000000    0.000000    0.000000    0.000000
  0.051663327   -4.636646  -57.864849 -103.878176    1.282040    0.000000    0.000000    0.000000    0.000000
  0.051863727   -4.635350  -58.041958 -103.793901    7.254959    0.000000    0.000000    0.000000    0.000000
  0.052064128   -4.633890  -58.221863 -104.574038   -6.322637    0.000000    0.000000    0.000000    0.000000
  0.052264529   -4.637930  -58.413689 -102.181769    3.947118    0.000000    0.000000    0.000000    0.000000
  0.052464930   -4.637342  -58.605850 -104.456175   25.621435    0.000000    0.000000    0.000000    0.000000
  0.052665331   -4.639694  -58.793720 -103.569992  -13.688531    0.000000    0.000000    0.000000    0.000000
  0.052865731   -4.642165  -58.999569 -105.289332   -7.811245    0.000000    0.000000    0.000000    0.000000
