! Anritsu VNA Master:                     Model: MS2036C/10/77
! SN:                                  1601066
! /bd0/18may10/bot50.s2p
! Existing Calibration Information:
! TYPE:                         Current Settings,       Active Cal Settings
! TIME:             	   05/10/2018 01:21:04 PM,    05/10/2018 01:17:32 PM
! INTERNAL TEMP:    	                   52.5 C,                    52.0 C
! # POINTS:         	                      492,                       492
! START FREQ:       	               20.000 MHz,                20.000 MHz
! STOP FREQ:        	          118.396 793 MHz,           118.396 793 MHz
! SOURCE POWER:     	                     High,                      High
! IFBW:             	                    50 Hz,                     50 Hz
! AVG FACTOR:       	                       1 ,                        1 
! REF PLANE 1:      	                     0 mm,                      0 mm
! REF PLANE 2:      	                     0 mm,                      0 mm
! CAL TYPE:         	                 Full S22,                  Full S22
! CAL METHOD:       	                     SOLT,                      SOLT
! CAL LINE TYPE:    	                     Coax,                      Coax
! DUT PORT 1:       	                K-Conn(M),                 K-Conn(M)
! DUT PORT 2:       	                K-Conn(M),                 K-Conn(M)
! CAL STATUS:       	        OK: Accuracy High,                        --
# GHZ S DB R 50.0
! FREQ.GHZ       S11DB        S11A       S21DB        S21A       S12DB        S12A       S22DB        S22A
  0.020000000    0.000000    0.000000    0.000000    0.000000  -89.806607   41.141468  -38.723086   50.498024
  0.020200401    0.000000    0.000000    0.000000    0.000000  -89.509227   42.124859  -38.620598   50.273258
  0.020400802    0.000000    0.000000    0.000000    0.000000  -89.743365   39.284134  -38.604263   50.207512
  0.020601202    0.000000    0.000000    0.000000    0.000000  -90.280775   40.170322  -38.504898   50.265072
  0.020801603    0.000000    0.000000    0.000000    0.000000  -90.723766   38.785198  -38.426056   50.257961
  0.021002004    0.000000    0.000000    0.000000    0.000000  -90.550717   38.237904  -38.393535   50.186188
  0.021202405    0.000000    0.000000    0.000000    0.000000  -90.758919   38.648628  -38.314737   50.346443
  0.021402806    0.000000    0.000000    0.000000    0.000000  -90.514562   38.983551  -38.352560   50.160870
  0.021603206    0.000000    0.000000    0.000000    0.000000  -90.454453   37.601364  -38.172354   49.843681
  0.021803607    0.000000    0.000000    0.000000    0.000000  -90.606612   40.353783  -38.169478   49.693756
  0.022004008    0.000000    0.000000    0.000000    0.000000  -90.672136   34.183289  -38.073553   49.162903
  0.022204409    0.000000    0.000000    0.000000    0.000000  -90.648380   37.447277  -38.005513   50.271984
  0.022404810    0.000000    0.000000    0.000000    0.000000  -91.122710   38.052906  -37.985099   49.751160
  0.022605210    0.000000    0.000000    0.000000    0.000000  -90.715294   36.506874  -37.910466   49.378345
  0.022805611    0.000000    0.000000    0.000000    0.000000  -91.363053   37.789467  -37.886050   49.794151
  0.023006012    0.000000    0.000000    0.000000    0.000000  -90.734919   36.609734  -37.873371   49.692528
  0.023206413    0.000000    0.000000    0.000000    0.000000  -91.811998   36.250778  -37.775913   49.155655
  0.023406814    0.000000    0.000000    0.000000    0.000000  -91.579119   39.196140  -37.665679   49.343796
  0.023607214    0.000000    0.000000    0.000000    0.000000  -92.021150   35.601952  -37.653310   49.210320
  0.023807615    0.000000    0.000000    0.000000    0.000000  -91.344440   33.403904  -37.666069   48.955696
  0.024008016    0.000000    0.000000    0.000000    0.000000  -92.064502   32.250210  -37.601342   49.085796
  0.024208417    0.000000    0.000000    0.000000    0.000000  -92.145142   35.127975  -37.562921   49.018005
  0.024408818    0.000000    0.000000    0.000000    0.000000  -92.179287   33.260204  -37.506045   49.304947
  0.024609218    0.000000    0.000000    0.000000    0.000000  -92.278238   32.387878  -37.351262   49.096416
  0.024809619    0.000000    0.000000    0.000000    0.000000  -91.919071   34.657650  -37.342692   49.133022
  0.025010020    0.000000    0.000000    0.000000    0.000000  -92.375444   31.535618  -37.313597   48.268013
  0.025210421    0.000000    0.000000    0.000000    0.000000  -92.601897   31.194895  -37.288303   48.732803
  0.025410822    0.000000    0.000000    0.000000    0.000000  -92.608239   33.220867  -37.238444   48.567310
  0.025611222    0.000000    0.000000    0.000000    0.000000  -92.568120   30.028564  -37.162240   48.512424
  0.025811623    0.000000    0.000000    0.000000    0.000000  -92.594009   27.954144  -37.096436   48.434601
  0.026012024    0.000000    0.000000    0.000000    0.000000  -92.834460   28.014824  -37.053343   48.050465
  0.026212425    0.000000    0.000000    0.000000    0.000000  -93.118503   30.294849  -36.958858   48.189564
  0.026412826    0.000000    0.000000    0.000000    0.000000  -93.045184   25.033035  -36.935912   48.411194
  0.026613226    0.000000    0.000000    0.000000    0.000000  -93.262266   30.518934  -36.930466   48.119980
  0.026813627    0.000000    0.000000    0.000000    0.000000  -92.836854   31.743137  -36.857056   48.249367
  0.027014028    0.000000    0.000000    0.000000    0.000000  -93.705735   32.118492  -36.861564   47.956200
  0.027214429    0.000000    0.000000    0.000000    0.000000  -93.654963   30.326262  -36.789513   48.051571
  0.027414830    0.000000    0.000000    0.000000    0.000000  -93.762886   28.052757  -36.751054   47.831139
  0.027615230    0.000000    0.000000    0.000000    0.000000  -93.296104   29.904509  -36.677440   48.025394
  0.027815631    0.000000    0.000000    0.000000    0.000000  -93.440886   31.264835  -36.647838   47.913658
  0.028016032    0.000000    0.000000    0.000000    0.000000  -94.131238   26.797174  -36.612222   47.522991
  0.028216433    0.000000    0.000000    0.000000    0.000000  -93.625042   28.885136  -36.537062   47.640579
  0.028416834    0.000000    0.000000    0.000000    0.000000  -94.747619   29.919125  -36.504712   47.370152
  0.028617234    0.000000    0.000000    0.000000    0.000000  -94.197705   27.716816  -36.471837   47.358761
  0.028817635    0.000000    0.000000    0.000000    0.000000  -94.554300   27.535414  -36.407532   47.273521
  0.029018036    0.000000    0.000000    0.000000    0.000000  -94.585399   29.523994  -36.409223   47.519627
  0.029218437    0.000000    0.000000    0.000000    0.000000  -94.182248   26.949493  -36.371664   47.288712
  0.029418838    0.000000    0.000000    0.000000    0.000000  -94.379416   28.541124  -36.280436   46.981304
  0.029619238    0.000000    0.000000    0.000000    0.000000  -94.662252   24.125637  -36.245232   47.264038
  0.029819639    0.000000    0.000000    0.000000    0.000000  -95.303347   27.035105  -36.248939   47.040459
  0.030020040    0.000000    0.000000    0.000000    0.000000  -94.531476   27.119625  -36.186612   46.673874
  0.030220441    0.000000    0.000000    0.000000    0.000000  -95.153553   24.830841  -36.174309   46.724995
  0.030420842    0.000000    0.000000    0.000000    0.000000  -95.187128   27.739609  -36.108989   46.805294
  0.030621242    0.000000    0.000000    0.000000    0.000000  -94.935404   26.773409  -36.055789   46.533287
  0.030821643    0.000000    0.000000    0.000000    0.000000  -94.903735   24.485332  -36.068218   46.746315
  0.031022044    0.000000    0.000000    0.000000    0.000000  -94.645192   28.560999  -35.960023   46.405235
  0.031222445    0.000000    0.000000    0.000000    0.000000  -96.066732   29.901711  -35.899336   46.487957
  0.031422846    0.000000    0.000000    0.000000    0.000000  -94.315744   21.540207  -35.915877   46.485477
  0.031623246    0.000000    0.000000    0.000000    0.000000  -95.527975   28.873587  -35.841304   46.263386
  0.031823647    0.000000    0.000000    0.000000    0.000000  -95.264234   22.280197  -35.803106   46.117367
  0.032024048    0.000000    0.000000    0.000000    0.000000  -94.631274   19.105022  -35.760708   45.961945
  0.032224449    0.000000    0.000000    0.000000    0.000000  -95.749728   27.646713  -35.739297   45.718178
  0.032424850    0.000000    0.000000    0.000000    0.000000  -95.181620   19.811365  -35.638752   46.009354
  0.032625250    0.000000    0.000000    0.000000    0.000000  -94.949603   21.934593  -35.667498   45.510509
  0.032825651    0.000000    0.000000    0.000000    0.000000  -95.919871   24.430592  -35.636136   45.571918
  0.033026052    0.000000    0.000000    0.000000    0.000000  -95.787228   24.366621  -35.572070   45.667007
  0.033226453    0.000000    0.000000    0.000000    0.000000  -95.891093   21.529997  -35.568262   45.447796
  0.033426854    0.000000    0.000000    0.000000    0.000000  -96.222164   18.679903  -35.540066   45.503075
  0.033627254    0.000000    0.000000    0.000000    0.000000  -95.522952   21.846239  -35.457063   45.381340
  0.033827655    0.000000    0.000000    0.000000    0.000000  -96.437741   22.500553  -35.440140   45.354237
  0.034028056    0.000000    0.000000    0.000000    0.000000  -96.513905   22.527082  -35.398709   45.209908
  0.034228457    0.000000    0.000000    0.000000    0.000000  -96.659334   25.206062  -35.347421   45.065449
  0.034428858    0.000000    0.000000    0.000000    0.000000  -96.072914   21.602785  -35.303780   44.919544
  0.034629258    0.000000    0.000000    0.000000    0.000000  -96.344188   24.266811  -35.280470   44.852932
  0.034829659    0.000000    0.000000    0.000000    0.000000  -95.236943   20.863871  -35.281508   44.683475
  0.035030060    0.000000    0.000000    0.000000    0.000000  -96.107025   25.418545  -35.259494   44.878407
  0.035230461    0.000000    0.000000    0.000000    0.000000  -96.541193   23.772161  -35.193320   44.817829
  0.035430862    0.000000    0.000000    0.000000    0.000000  -96.448898   13.877934  -35.160068   44.444660
  0.035631262    0.000000    0.000000    0.000000    0.000000  -96.647735   23.748547  -35.089203   44.122978
  0.035831663    0.000000    0.000000    0.000000    0.000000  -96.798873   22.252792  -35.047955   44.026783
  0.036032064    0.000000    0.000000    0.000000    0.000000  -96.706031   25.836185  -35.019201   43.829258
  0.036232465    0.000000    0.000000    0.000000    0.000000  -96.683619   23.719294  -34.983278   43.987606
  0.036432866    0.000000    0.000000    0.000000    0.000000  -97.187607   32.490471  -34.946641   43.989376
  0.036633266    0.000000    0.000000    0.000000    0.000000  -96.100290   23.665174  -34.992675   43.882915
  0.036833667    0.000000    0.000000    0.000000    0.000000  -96.789982   27.213978  -34.945294   43.865673
  0.037034068    0.000000    0.000000    0.000000    0.000000  -96.874715   24.550926  -34.840182   43.731216
  0.037234469    0.000000    0.000000    0.000000    0.000000  -96.608627   22.730047  -34.836055   43.510868
  0.037434870    0.000000    0.000000    0.000000    0.000000  -97.301333   29.796310  -34.801423   43.612801
  0.037635270    0.000000    0.000000    0.000000    0.000000  -96.687839   23.940935  -34.773691   43.166004
  0.037835671    0.000000    0.000000    0.000000    0.000000  -97.457495   19.840305  -34.684061   43.440449
  0.038036072    0.000000    0.000000    0.000000    0.000000  -97.083587   26.468931  -34.701891   43.350910
  0.038236473    0.000000    0.000000    0.000000    0.000000  -98.636502   24.466648  -34.662996   43.207870
  0.038436874    0.000000    0.000000    0.000000    0.000000  -96.395699   26.541430  -34.644682   43.246437
  0.038637274    0.000000    0.000000    0.000000    0.000000  -97.251584   22.988955  -34.566769   42.877815
  0.038837675    0.000000    0.000000    0.000000    0.000000  -97.262503   27.663132  -34.576697   42.767895
  0.039038076    0.000000    0.000000    0.000000    0.000000  -98.218586   21.122057  -34.522085   42.857418
  0.039238477    0.000000    0.000000    0.000000    0.000000  -98.127111   16.517307  -34.505740   42.674706
  0.039438878    0.000000    0.000000    0.000000    0.000000  -97.417936   29.926399  -34.484640   42.501343
  0.039639278    0.000000    0.000000    0.000000    0.000000  -97.220808   29.121840  -34.442226   42.560787
  0.039839679    0.000000    0.000000    0.000000    0.000000  -98.416831   24.206606  -34.394024   42.591091
  0.040040080    0.000000    0.000000    0.000000    0.000000  -96.642729   29.110529  -34.376710   42.436703
  0.040240481    0.000000    0.000000    0.000000    0.000000  -97.903228   22.335514  -34.347946   42.208847
  0.040440882    0.000000    0.000000    0.000000    0.000000  -98.109652   24.570189  -34.329539   42.151199
  0.040641283    0.000000    0.000000    0.000000    0.000000  -99.325823   22.593483  -34.290216   42.010406
  0.040841683    0.000000    0.000000    0.000000    0.000000  -98.652098   33.161926  -34.290878   42.103527
  0.041042084    0.000000    0.000000    0.000000    0.000000  -97.999872   28.297285  -34.203203   41.947819
  0.041242485    0.000000    0.000000    0.000000    0.000000  -98.496150   39.180592  -34.192772   41.730457
  0.041442886    0.000000    0.000000    0.000000    0.000000  -98.282703   25.122755  -34.171394   41.609268
  0.041643287    0.000000    0.000000    0.000000    0.000000  -98.790153   26.910131  -34.161688   41.442699
  0.041843687    0.000000    0.000000    0.000000    0.000000  -97.430994   24.669210  -34.094070   41.673893
  0.042044088    0.000000    0.000000    0.000000    0.000000  -97.594136   33.632607  -34.056060   41.111591
  0.042244489    0.000000    0.000000    0.000000    0.000000  -97.059217   29.095819  -34.060276   41.211548
  0.042444890    0.000000    0.000000    0.000000    0.000000  -98.998286   28.713860  -34.012863   41.244228
  0.042645291    0.000000    0.000000    0.000000    0.000000  -99.181147   17.484758  -34.018594   40.722588
  0.042845691    0.000000    0.000000    0.000000    0.000000  -97.758264   29.064344  -33.943609   40.764687
  0.043046092    0.000000    0.000000    0.000000    0.000000  -99.007305   28.018467  -33.920702   40.721386
  0.043246493    0.000000    0.000000    0.000000    0.000000  -99.261801   28.306164  -33.921767   40.819126
  0.043446894    0.000000    0.000000    0.000000    0.000000  -98.924857   32.541237  -33.825724   40.851017
  0.043647295    0.000000    0.000000    0.000000    0.000000  -99.415092   29.667944  -33.858411   40.574512
  0.043847695    0.000000    0.000000    0.000000    0.000000  -98.897387   30.840599  -33.803704   40.470932
  0.044048096    0.000000    0.000000    0.000000    0.000000  -97.634315   31.688807  -33.826953   40.230507
  0.044248497    0.000000    0.000000    0.000000    0.000000  -98.885835   32.265388  -33.778866   39.976574
  0.044448898    0.000000    0.000000    0.000000    0.000000  -99.257608   29.181116  -33.747978   40.148083
  0.044649299    0.000000    0.000000    0.000000    0.000000  -97.589097   27.912359  -33.718594   40.090725
  0.044849699    0.000000    0.000000    0.000000    0.000000 -100.129698   34.634865  -33.730397   39.986816
  0.045050100    0.000000    0.000000    0.000000    0.000000  -99.332241   32.865570  -33.671827   39.574528
  0.045250501    0.000000    0.000000    0.000000    0.000000  -97.948703   39.004299  -33.621449   39.576710
  0.045450902    0.000000    0.000000    0.000000    0.000000  -98.037930   32.244774  -33.634660   39.626308
  0.045651303    0.000000    0.000000    0.000000    0.000000  -99.133637   25.839430  -33.583465   39.465313
  0.045851703    0.000000    0.000000    0.000000    0.000000  -98.464253   24.252350  -33.563083   39.490936
  0.046052104    0.000000    0.000000    0.000000    0.000000  -98.943087   33.784790  -33.523751   39.176521
  0.046252505    0.000000    0.000000    0.000000    0.000000  -98.291017   33.470116  -33.516440   39.307293
  0.046452906    0.000000    0.000000    0.000000    0.000000  -98.202049   40.396538  -33.510274   38.934742
  0.046653307    0.000000    0.000000    0.000000    0.000000  -97.783713   33.906342  -33.485660   39.036247
  0.046853707    0.000000    0.000000    0.000000    0.000000  -99.454686   34.569363  -33.460431   38.736767
  0.047054108    0.000000    0.000000    0.000000    0.000000  -98.932822   35.954700  -33.406396   38.522179
  0.047254509    0.000000    0.000000    0.000000    0.000000 -100.233971   34.509666  -33.387992   38.746159
  0.047454910    0.000000    0.000000    0.000000    0.000000  -99.155595   30.036985  -33.362717   38.612343
  0.047655311    0.000000    0.000000    0.000000    0.000000  -99.930492   27.379305  -33.407105   38.486141
  0.047855711    0.000000    0.000000    0.000000    0.000000  -99.699013   32.787308  -33.340759   38.226696
  0.048056112    0.000000    0.000000    0.000000    0.000000  -99.394022   34.367702  -33.300767   38.147583
  0.048256513    0.000000    0.000000    0.000000    0.000000  -99.282985   27.040955  -33.277713   38.212124
  0.048456914    0.000000    0.000000    0.000000    0.000000  -98.094801   40.725620  -33.271994   38.022701
  0.048657315    0.000000    0.000000    0.000000    0.000000  -98.808813   38.005508  -33.284597   37.895508
  0.048857715    0.000000    0.000000    0.000000    0.000000  -98.362130   29.926945  -33.241117   37.691120
  0.049058116    0.000000    0.000000    0.000000    0.000000  -98.687848   30.116264  -33.218040   37.614819
  0.049258517    0.000000    0.000000    0.000000    0.000000  -99.141100   34.462673  -33.190579   37.224171
  0.049458918    0.000000    0.000000    0.000000    0.000000  -98.430181   35.686848  -33.135471   37.514545
  0.049659319    0.000000    0.000000    0.000000    0.000000  -99.516935   27.231470  -33.115011   37.423859
  0.049859719    0.000000    0.000000    0.000000    0.000000  -99.690982   31.738947  -33.109626   37.450214
  0.050060120    0.000000    0.000000    0.000000    0.000000 -100.337433   25.434280  -33.051466   37.038475
  0.050260521    0.000000    0.000000    0.000000    0.000000 -100.362540   38.484177  -33.065040   36.902390
  0.050460922    0.000000    0.000000    0.000000    0.000000  -99.091529   29.855690  -33.003013   36.957100
  0.050661323    0.000000    0.000000    0.000000    0.000000  -99.375840   24.920303  -32.959502   36.769020
  0.050861723    0.000000    0.000000    0.000000    0.000000  -98.307956   37.909618  -32.959110   36.447857
  0.051062124    0.000000    0.000000    0.000000    0.000000 -101.525420   38.501472  -32.930498   36.243942
  0.051262525    0.000000    0.000000    0.000000    0.000000 -100.038529   41.868641  -32.975466   36.400406
  0.051462926    0.000000    0.000000    0.000000    0.000000  -99.169314   32.877758  -32.886155   36.166344
  0.051663327    0.000000    0.000000    0.000000    0.000000  -99.401751   36.903732  -32.882815   36.153687
  0.051863727    0.000000    0.000000    0.000000    0.000000  -99.474563   42.941620  -32.840961   35.840717
  0.052064128    0.000000    0.000000    0.000000    0.000000 -100.578966   27.680729  -32.846807   36.041924
  0.052264529    0.000000    0.000000    0.000000    0.000000  -98.616647   27.152109  -32.825294   36.092991
  0.052464930    0.000000    0.000000    0.000000    0.000000  -99.199936   33.767399  -32.796689   35.669361
  0.052665331    0.000000    0.000000    0.000000    0.000000  -99.587807   35.639130  -32.796529   35.583714
  0.052865731    0.000000    0.000000    0.000000    0.000000  -99.773562   34.411827  -32.763278   35.477371
