! Anritsu VNA Master:                     Model: MS2036C/10/77
! SN:                                  1601066
! /bd0/18may26.balun/2a.r20.2.s2p
! Existing Calibration Information:
! TYPE:                         Current Settings,       Active Cal Settings
! TIME:             	   05/26/2018 07:57:21 PM,    05/26/2018 07:26:54 PM
! INTERNAL TEMP:    	                   45.5 C,                    45.5 C
! # POINTS:         	                      500,                       500
! START FREQ:       	               20.000 MHz,                20.000 MHz
! STOP FREQ:        	              120.000 MHz,               120.000 MHz
! SOURCE POWER:     	                     High,                      High
! IFBW:             	                    50 Hz,                     50 Hz
! AVG FACTOR:       	                       1 ,                        1 
! REF PLANE 1:      	                     0 mm,                      0 mm
! REF PLANE 2:      	                     0 mm,                      0 mm
! CAL TYPE:         	                 Full S11,                  Full S11
! CAL METHOD:       	                     SOLT,                      SOLT
! CAL LINE TYPE:    	                     Coax,                      Coax
! DUT PORT 1:       	                K-Conn(M),                 K-Conn(M)
! DUT PORT 2:       	                K-Conn(M),                 K-Conn(M)
! CAL STATUS:       	        OK: Accuracy High,                        --
# GHZ S DB R 50.0
! FREQ.GHZ       S11DB        S11A       S21DB        S21A       S12DB        S12A       S22DB        S22A
  0.020000000   -7.270408  154.473282  -91.698055   32.217354    0.000000    0.000000    0.000000    0.000000
  0.020200401   -7.268836  154.251068  -91.574720   34.135971    0.000000    0.000000    0.000000    0.000000
  0.020400802   -7.269304  153.987076  -91.956047   37.615166    0.000000    0.000000    0.000000    0.000000
  0.020601202   -7.266960  153.757874  -91.851857   36.634041    0.000000    0.000000    0.000000    0.000000
  0.020801603   -7.264775  153.516144  -91.957875   36.590103    0.000000    0.000000    0.000000    0.000000
  0.021002004   -7.263664  153.291489  -92.069857   36.342865    0.000000    0.000000    0.000000    0.000000
  0.021202405   -7.264819  153.030380  -91.569526   34.315662    0.000000    0.000000    0.000000    0.000000
  0.021402806   -7.266333  152.817459  -92.029644   36.416714    0.000000    0.000000    0.000000    0.000000
  0.021603206   -7.269277  152.586838  -91.799842   33.786694    0.000000    0.000000    0.000000    0.000000
  0.021803607   -7.275911  152.336975  -92.136599   36.842232    0.000000    0.000000    0.000000    0.000000
  0.022004008   -7.282654  152.091202  -92.333951   33.927135    0.000000    0.000000    0.000000    0.000000
  0.022204409   -7.282727  151.867569  -92.622833   36.173580    0.000000    0.000000    0.000000    0.000000
  0.022404810   -7.285861  151.606827  -92.858055   32.120678    0.000000    0.000000    0.000000    0.000000
  0.022605210   -7.288590  151.348953  -92.370541   33.147240    0.000000    0.000000    0.000000    0.000000
  0.022805611   -7.288913  151.099686  -92.976181   30.237698    0.000000    0.000000    0.000000    0.000000
  0.023006012   -7.292883  150.842896  -92.020556   28.791914    0.000000    0.000000    0.000000    0.000000
  0.023206413   -7.291457  150.551849  -93.034112   26.328779    0.000000    0.000000    0.000000    0.000000
  0.023406814   -7.292754  150.286911  -92.579873   29.088665    0.000000    0.000000    0.000000    0.000000
  0.023607214   -7.287701  149.991776  -92.664942   27.179779    0.000000    0.000000    0.000000    0.000000
  0.023807615   -7.287649  149.706619  -93.536513   26.385033    0.000000    0.000000    0.000000    0.000000
  0.024008016   -7.287565  149.459244  -93.888247   20.361750    0.000000    0.000000    0.000000    0.000000
  0.024208417   -7.287369  149.217865  -93.371512   23.124090    0.000000    0.000000    0.000000    0.000000
  0.024408818   -7.287153  148.980301  -93.766976   27.970490    0.000000    0.000000    0.000000    0.000000
  0.024609218   -7.288399  148.753372  -94.066833   27.355120    0.000000    0.000000    0.000000    0.000000
  0.024809619   -7.289940  148.547028  -94.452720   26.306345    0.000000    0.000000    0.000000    0.000000
  0.025010020   -7.286557  148.278839  -93.934661   23.413492    0.000000    0.000000    0.000000    0.000000
  0.025210421   -7.293425  148.027283  -94.873955   23.391203    0.000000    0.000000    0.000000    0.000000
  0.025410822   -7.295439  147.767075  -94.626118   24.258493    0.000000    0.000000    0.000000    0.000000
  0.025611222   -7.292689  147.528671  -94.397268   21.530489    0.000000    0.000000    0.000000    0.000000
  0.025811623   -7.289228  147.261581  -94.707761   23.710907    0.000000    0.000000    0.000000    0.000000
  0.026012024   -7.281650  146.989120  -94.490214   26.046478    0.000000    0.000000    0.000000    0.000000
  0.026212425   -7.282036  146.732224  -95.262180   23.037657    0.000000    0.000000    0.000000    0.000000
  0.026412826   -7.282051  146.489670  -94.140719   24.866489    0.000000    0.000000    0.000000    0.000000
  0.026613226   -7.281071  146.267715  -95.226418   20.373709    0.000000    0.000000    0.000000    0.000000
  0.026813627   -7.284907  146.057236  -94.606079   27.471693    0.000000    0.000000    0.000000    0.000000
  0.027014028   -7.285479  145.835815  -95.068411   27.433710    0.000000    0.000000    0.000000    0.000000
  0.027214429   -7.289037  145.650284  -94.622164   22.926620    0.000000    0.000000    0.000000    0.000000
  0.027414830   -7.293903  145.441986  -95.032717   21.813030    0.000000    0.000000    0.000000    0.000000
  0.027615230   -7.300945  145.188354  -95.387363   19.192442    0.000000    0.000000    0.000000    0.000000
  0.027815631   -7.309433  144.918274  -95.500249   18.193565    0.000000    0.000000    0.000000    0.000000
  0.028016032   -7.313891  144.648682  -95.680582   16.260307    0.000000    0.000000    0.000000    0.000000
  0.028216433   -7.314954  144.343399  -95.702932   14.339653    0.000000    0.000000    0.000000    0.000000
  0.028416834   -7.315722  144.048477  -96.203055   10.146035    0.000000    0.000000    0.000000    0.000000
  0.028617234   -7.316809  143.754639  -95.476258   15.514594    0.000000    0.000000    0.000000    0.000000
  0.028817635   -7.312636  143.436493  -96.401216   18.335243    0.000000    0.000000    0.000000    0.000000
  0.029018036   -7.314116  143.145233  -96.092890   18.011711    0.000000    0.000000    0.000000    0.000000
  0.029218437   -7.308123  142.886581  -96.316170   12.086986    0.000000    0.000000    0.000000    0.000000
  0.029418838   -7.302980  142.651535  -97.003020   13.676427    0.000000    0.000000    0.000000    0.000000
  0.029619238   -7.294408  142.443695  -96.602308   14.181624    0.000000    0.000000    0.000000    0.000000
  0.029819639   -7.292727  142.241226  -97.042557   17.122820    0.000000    0.000000    0.000000    0.000000
  0.030020040   -7.291516  142.063828  -97.416652   16.563551    0.000000    0.000000    0.000000    0.000000
  0.030220441   -7.294520  141.841599  -97.345567   20.558882    0.000000    0.000000    0.000000    0.000000
  0.030420842   -7.300801  141.604813  -96.790754   18.617527    0.000000    0.000000    0.000000    0.000000
  0.030621242   -7.306551  141.360870  -97.467116   21.368576    0.000000    0.000000    0.000000    0.000000
  0.030821643   -7.308937  141.060776  -97.932059   14.073022    0.000000    0.000000    0.000000    0.000000
  0.031022044   -7.306606  140.772446  -96.990158   16.970589    0.000000    0.000000    0.000000    0.000000
  0.031222445   -7.299357  140.542526  -96.406877   12.194268    0.000000    0.000000    0.000000    0.000000
  0.031422846   -7.297786  140.256119  -96.971778   14.615077    0.000000    0.000000    0.000000    0.000000
  0.031623246   -7.298239  139.980835  -98.588786   22.302681    0.000000    0.000000    0.000000    0.000000
  0.031823647   -7.292509  139.755630  -97.174319   16.717003    0.000000    0.000000    0.000000    0.000000
  0.032024048   -7.285201  139.536087  -98.526359   12.343560    0.000000    0.000000    0.000000    0.000000
  0.032224449   -7.279062  139.300003  -96.293903   11.446232    0.000000    0.000000    0.000000    0.000000
  0.032424850   -7.277430  139.069901  -97.430226   14.116875    0.000000    0.000000    0.000000    0.000000
  0.032625251   -7.275040  138.872452  -98.427232   13.785055    0.000000    0.000000    0.000000    0.000000
  0.032825651   -7.277661  138.666977  -97.263395   14.474468    0.000000    0.000000    0.000000    0.000000
  0.033026052   -7.283010  138.421570  -97.004607    8.568713    0.000000    0.000000    0.000000    0.000000
  0.033226453   -7.288249  138.161896  -98.079509   12.918459    0.000000    0.000000    0.000000    0.000000
  0.033426854   -7.294999  137.902954  -99.472591    5.121101    0.000000    0.000000    0.000000    0.000000
  0.033627255   -7.298708  137.621857  -97.515346    6.473599    0.000000    0.000000    0.000000    0.000000
  0.033827655   -7.301218  137.309357  -98.436603    7.968141    0.000000    0.000000    0.000000    0.000000
  0.034028056   -7.309182  137.018600  -98.563018    4.286555    0.000000    0.000000    0.000000    0.000000
  0.034228457   -7.312894  136.711639  -96.963100   11.869614    0.000000    0.000000    0.000000    0.000000
  0.034428858   -7.307937  136.451752  -98.195304   12.367260    0.000000    0.000000    0.000000    0.000000
  0.034629259   -7.309472  136.155869  -97.481916   11.894225    0.000000    0.000000    0.000000    0.000000
  0.034829659   -7.300890  135.883896  -99.889818   20.852282    0.000000    0.000000    0.000000    0.000000
  0.035030060   -7.286739  135.618057  -98.334446    7.116615    0.000000    0.000000    0.000000    0.000000
  0.035230461   -7.280777  135.389893  -99.943144   14.995004    0.000000    0.000000    0.000000    0.000000
  0.035430862   -7.270979  135.194168  -99.149027    9.633060    0.000000    0.000000    0.000000    0.000000
  0.035631263   -7.267199  135.003082  -98.087475   13.942830    0.000000    0.000000    0.000000    0.000000
  0.035831663   -7.269512  134.821579  -98.295740   12.702893    0.000000    0.000000    0.000000    0.000000
  0.036032064   -7.275268  134.609039  -98.332001   11.969189    0.000000    0.000000    0.000000    0.000000
  0.036232465   -7.280611  134.370743 -100.430188   11.609423    0.000000    0.000000    0.000000    0.000000
  0.036432866   -7.292779  134.086273  -98.036563   11.202777    0.000000    0.000000    0.000000    0.000000
  0.036633267   -7.297713  133.832077  -99.836396   12.962938    0.000000    0.000000    0.000000    0.000000
  0.036833667   -7.298032  133.550079  -98.677701    8.323009    0.000000    0.000000    0.000000    0.000000
  0.037034068   -7.299456  133.272415  -98.412115   13.478805    0.000000    0.000000    0.000000    0.000000
  0.037234469   -7.297659  132.995346  -98.801071   13.116736    0.000000    0.000000    0.000000    0.000000
  0.037434870   -7.291497  132.700638  -99.449494   11.869647    0.000000    0.000000    0.000000    0.000000
  0.037635271   -7.286231  132.470947  -99.169332   15.397765    0.000000    0.000000    0.000000    0.000000
  0.037835671   -7.278384  132.237823  -98.742930    8.363950    0.000000    0.000000    0.000000    0.000000
  0.038036072   -7.272634  132.014465 -100.957981   15.894980    0.000000    0.000000    0.000000    0.000000
  0.038236473   -7.272212  131.815063  -98.125110    2.490394    0.000000    0.000000    0.000000    0.000000
  0.038436874   -7.276538  131.603577  -98.715154   -2.696752    0.000000    0.000000    0.000000    0.000000
  0.038637275   -7.281950  131.367447 -101.190282   15.993587    0.000000    0.000000    0.000000    0.000000
  0.038837675   -7.285693  131.104645  -99.280764   -0.020393    0.000000    0.000000    0.000000    0.000000
  0.039038076   -7.295332  130.813492 -100.321333    7.994327    0.000000    0.000000    0.000000    0.000000
  0.039238477   -7.295487  130.532318 -100.872450   -4.210659    0.000000    0.000000    0.000000    0.000000
  0.039438878   -7.298270  130.249588 -100.424062    4.561578    0.000000    0.000000    0.000000    0.000000
  0.039639279   -7.300524  129.979309  -99.965179    0.213342    0.000000    0.000000    0.000000    0.000000
  0.039839679   -7.296150  129.719894 -101.123900    5.825729    0.000000    0.000000    0.000000    0.000000
  0.040040080   -7.289997  129.457535 -100.678278    1.453307    0.000000    0.000000    0.000000    0.000000
  0.040240481   -7.282196  129.165924  -99.810146   10.491755    0.000000    0.000000    0.000000    0.000000
  0.040440882   -7.272530  128.880707 -102.227441    6.062515    0.000000    0.000000    0.000000    0.000000
  0.040641283   -7.263750  128.649445 -100.916125    4.770973    0.000000    0.000000    0.000000    0.000000
  0.040841683   -7.255479  128.458771 -100.699101    7.632227    0.000000    0.000000    0.000000    0.000000
  0.041042084   -7.256016  128.282120 -100.332787    5.855845    0.000000    0.000000    0.000000    0.000000
  0.041242485   -7.256731  128.125107  -99.628396   11.655363    0.000000    0.000000    0.000000    0.000000
  0.041442886   -7.262878  127.919418  -99.654803   15.583962    0.000000    0.000000    0.000000    0.000000
  0.041643287   -7.270904  127.690636  -99.878207   18.117214    0.000000    0.000000    0.000000    0.000000
  0.041843687   -7.275512  127.426140 -100.789257    4.222367    0.000000    0.000000    0.000000    0.000000
  0.042044088   -7.283884  127.173286  -99.413016    7.989382    0.000000    0.000000    0.000000    0.000000
  0.042244489   -7.288206  126.926064 -100.080176    5.797513    0.000000    0.000000    0.000000    0.000000
  0.042444890   -7.290578  126.655586  -99.289667    7.755726    0.000000    0.000000    0.000000    0.000000
  0.042645291   -7.291799  126.390862  -99.764889    5.236363    0.000000    0.000000    0.000000    0.000000
  0.042845691   -7.287935  126.097229  -99.946291    1.495209    0.000000    0.000000    0.000000    0.000000
  0.043046092   -7.280060  125.815598 -101.695929   17.559746    0.000000    0.000000    0.000000    0.000000
  0.043246493   -7.277403  125.553673 -100.046773    4.896924    0.000000    0.000000    0.000000    0.000000
  0.043446894   -7.270877  125.330162 -102.791649    1.931038    0.000000    0.000000    0.000000    0.000000
  0.043647295   -7.274562  125.080353 -102.584170    7.309597    0.000000    0.000000    0.000000    0.000000
  0.043847695   -7.276513  124.857979 -102.965165   -0.863438    0.000000    0.000000    0.000000    0.000000
  0.044048096   -7.280709  124.608810 -102.703268  -10.899870    0.000000    0.000000    0.000000    0.000000
  0.044248497   -7.285261  124.369469 -102.831448    9.626838    0.000000    0.000000    0.000000    0.000000
  0.044448898   -7.288617  124.093010 -103.843076    6.942948    0.000000    0.000000    0.000000    0.000000
  0.044649299   -7.288169  123.834892 -101.534143    0.408234    0.000000    0.000000    0.000000    0.000000
  0.044849699   -7.289760  123.551659 -102.347748    6.505965    0.000000    0.000000    0.000000    0.000000
  0.045050100   -7.289200  123.285149 -102.455891   -2.535713    0.000000    0.000000    0.000000    0.000000
  0.045250501   -7.282437  123.037170 -103.049052    7.141407    0.000000    0.000000    0.000000    0.000000
  0.045450902   -7.280864  122.750206 -102.009075   13.926210    0.000000    0.000000    0.000000    0.000000
  0.045651303   -7.269987  122.487999 -104.889590    1.819302    0.000000    0.000000    0.000000    0.000000
  0.045851703   -7.260548  122.247787 -102.530262   14.171863    0.000000    0.000000    0.000000    0.000000
  0.046052104   -7.253472  122.007095 -102.914648   12.617523    0.000000    0.000000    0.000000    0.000000
  0.046252505   -7.247089  121.816475 -103.158755    0.485594    0.000000    0.000000    0.000000    0.000000
  0.046452906   -7.242920  121.655502 -101.541522    2.714315    0.000000    0.000000    0.000000    0.000000
  0.046653307   -7.243763  121.467262 -100.559851   13.512742    0.000000    0.000000    0.000000    0.000000
  0.046853707   -7.250209  121.269997 -101.555031   11.540020    0.000000    0.000000    0.000000    0.000000
  0.047054108   -7.256754  121.064896 -100.624992   12.084298    0.000000    0.000000    0.000000    0.000000
  0.047254509   -7.267241  120.832314 -101.504185   14.032591    0.000000    0.000000    0.000000    0.000000
  0.047454910   -7.268272  120.604622 -100.754527    2.650869    0.000000    0.000000    0.000000    0.000000
  0.047655311   -7.275931  120.312195 -100.122438    5.394306    0.000000    0.000000    0.000000    0.000000
  0.047855711   -7.275451  120.050591 -101.977615   -5.207470    0.000000    0.000000    0.000000    0.000000
  0.048056112   -7.277286  119.784241 -102.898406    2.902431    0.000000    0.000000    0.000000    0.000000
  0.048256513   -7.272061  119.497604 -103.095430    9.258158    0.000000    0.000000    0.000000    0.000000
  0.048456914   -7.267156  119.254074 -101.264662   -2.037930    0.000000    0.000000    0.000000    0.000000
  0.048657315   -7.266804  118.991882 -103.306641    2.984459    0.000000    0.000000    0.000000    0.000000
  0.048857715   -7.264822  118.753754 -104.412998    3.263154    0.000000    0.000000    0.000000    0.000000
  0.049058116   -7.263685  118.528030 -103.237463    7.894487    0.000000    0.000000    0.000000    0.000000
  0.049258517   -7.270184  118.298111 -104.193326  -14.638366    0.000000    0.000000    0.000000    0.000000
  0.049458918   -7.273720  118.051910 -104.399008   11.554458    0.000000    0.000000    0.000000    0.000000
  0.049659319   -7.273368  117.784027 -104.716076   -2.254736    0.000000    0.000000    0.000000    0.000000
  0.049859719   -7.279819  117.524223 -103.125161    0.933829    0.000000    0.000000    0.000000    0.000000
  0.050060120   -7.277457  117.261795 -102.109429    2.944676    0.000000    0.000000    0.000000    0.000000
  0.050260521   -7.276267  117.001549 -103.774088    3.913731    0.000000    0.000000    0.000000    0.000000
  0.050460922   -7.275158  116.722374 -101.746855   15.420721    0.000000    0.000000    0.000000    0.000000
  0.050661323   -7.273156  116.458908 -105.143601    9.209434    0.000000    0.000000    0.000000    0.000000
  0.050861723   -7.264060  116.180672 -103.364231   15.887407    0.000000    0.000000    0.000000    0.000000
  0.051062124   -7.255898  115.903709 -101.557920    4.935680    0.000000    0.000000    0.000000    0.000000
  0.051262525   -7.247006  115.630692 -103.015998   14.225698    0.000000    0.000000    0.000000    0.000000
  0.051462926   -7.245450  115.449554 -101.177456   10.966743    0.000000    0.000000    0.000000    0.000000
  0.051663327   -7.240165  115.265602 -102.182780   12.256320    0.000000    0.000000    0.000000    0.000000
  0.051863727   -7.239381  115.058922 -101.575542   -0.130704    0.000000    0.000000    0.000000    0.000000
  0.052064128   -7.240291  114.874519 -103.779741    1.667054    0.000000    0.000000    0.000000    0.000000
  0.052264529   -7.244190  114.692017 -103.538229    4.267430    0.000000    0.000000    0.000000    0.000000
  0.052464930   -7.249904  114.475761 -100.961172    3.136404    0.000000    0.000000    0.000000    0.000000
  0.052665331   -7.254301  114.229149 -101.676033   -0.634590    0.000000    0.000000    0.000000    0.000000
  0.052865731   -7.260423  113.982330 -101.703225    2.392425    0.000000    0.000000    0.000000    0.000000
