! Anritsu VNA Master:                     Model: MS2036C/10/77
! SN:                                  1601066
! /bd0/18may10/252.ns.m1.s2p
! Existing Calibration Information:
! TYPE:                         Current Settings,       Active Cal Settings
! TIME:             	   05/10/2018 05:13:59 PM,    05/10/2018 05:07:06 PM
! INTERNAL TEMP:    	                   53.0 C,                    50.3 C
! # POINTS:         	                      490,                       490
! START FREQ:       	               20.000 MHz,                20.000 MHz
! STOP FREQ:        	          117.995 991 MHz,           117.995 991 MHz
! SOURCE POWER:     	                     High,                      High
! IFBW:             	                    50 Hz,                     50 Hz
! AVG FACTOR:       	                       1 ,                        1 
! REF PLANE 1:      	                     0 mm,                      0 mm
! REF PLANE 2:      	                     0 mm,                      0 mm
! CAL TYPE:         	                 Full S22,                  Full S22
! CAL METHOD:       	                     SOLT,                      SOLT
! CAL LINE TYPE:    	                     Coax,                      Coax
! DUT PORT 1:       	                K-Conn(M),                 K-Conn(M)
! DUT PORT 2:       	                K-Conn(M),                 K-Conn(M)
! CAL STATUS:       	        OK: Accuracy High,                        --
# GHZ S DB R 50.0
! FREQ.GHZ       S11DB        S11A       S21DB        S21A       S12DB        S12A       S22DB        S22A
  0.020000000    0.000000    0.000000    0.000000    0.000000  -89.263449   36.025013   -0.673816 -125.037430
  0.020200401    0.000000    0.000000    0.000000    0.000000  -90.156247   37.060123   -0.673614 -126.480812
  0.020400802    0.000000    0.000000    0.000000    0.000000  -90.345026   35.754688   -0.676638 -127.919365
  0.020601202    0.000000    0.000000    0.000000    0.000000  -90.415988   35.198685   -0.679994 -129.382324
  0.020801603    0.000000    0.000000    0.000000    0.000000  -91.195697   34.237633   -0.683273 -130.876419
  0.021002004    0.000000    0.000000    0.000000    0.000000  -91.472845   37.582611   -0.687453 -132.398041
  0.021202405    0.000000    0.000000    0.000000    0.000000  -91.642508   38.008915   -0.691409 -133.903641
  0.021402806    0.000000    0.000000    0.000000    0.000000  -91.964463   40.802479   -0.693443 -135.415131
  0.021603206    0.000000    0.000000    0.000000    0.000000  -91.442660   41.141472   -0.698198 -136.913391
  0.021803607    0.000000    0.000000    0.000000    0.000000  -92.139201   37.560539   -0.701298 -138.416931
  0.022004008    0.000000    0.000000    0.000000    0.000000  -91.878761   38.384396   -0.707122 -139.943619
  0.022204409    0.000000    0.000000    0.000000    0.000000  -92.043803   39.673161   -0.715007 -141.462296
  0.022404810    0.000000    0.000000    0.000000    0.000000  -91.678378   43.105156   -0.721504 -143.039078
  0.022605210    0.000000    0.000000    0.000000    0.000000  -91.657693   42.111298   -0.721054 -144.630646
  0.022805611    0.000000    0.000000    0.000000    0.000000  -92.396177   42.763451   -0.725938 -146.201065
  0.023006012    0.000000    0.000000    0.000000    0.000000  -91.468294   42.703365   -0.730605 -147.760162
  0.023206413    0.000000    0.000000    0.000000    0.000000  -90.987310   44.282711   -0.734159 -149.321060
  0.023406814    0.000000    0.000000    0.000000    0.000000  -90.678902   41.257786   -0.740726 -150.886734
  0.023607214    0.000000    0.000000    0.000000    0.000000  -91.330764   40.180233   -0.745210 -152.465607
  0.023807615    0.000000    0.000000    0.000000    0.000000  -91.440962   35.136730   -0.749842 -154.064163
  0.024008016    0.000000    0.000000    0.000000    0.000000  -91.077767   34.384319   -0.758047 -155.686462
  0.024208417    0.000000    0.000000    0.000000    0.000000  -91.353681   35.695580   -0.764946 -157.316193
  0.024408818    0.000000    0.000000    0.000000    0.000000  -91.012589   35.275921   -0.768669 -158.964355
  0.024609218    0.000000    0.000000    0.000000    0.000000  -91.316408   30.065233   -0.775269 -160.596970
  0.024809619    0.000000    0.000000    0.000000    0.000000  -91.525229   33.510014   -0.781967 -162.244949
  0.025010020    0.000000    0.000000    0.000000    0.000000  -92.092937   30.852493   -0.790549 -163.900024
  0.025210421    0.000000    0.000000    0.000000    0.000000  -92.075625   28.053267   -0.799453 -165.562912
  0.025410822    0.000000    0.000000    0.000000    0.000000  -91.800877   28.578844   -0.809135 -167.232971
  0.025611222    0.000000    0.000000    0.000000    0.000000  -92.294501   25.801964   -0.819563 -168.917969
  0.025811623    0.000000    0.000000    0.000000    0.000000  -92.195862   27.283522   -0.829880 -170.623734
  0.026012024    0.000000    0.000000    0.000000    0.000000  -92.610066   21.479658   -0.841226 -172.334030
  0.026212425    0.000000    0.000000    0.000000    0.000000  -93.006085   27.720455   -0.851781 -174.057877
  0.026412826    0.000000    0.000000    0.000000    0.000000  -93.597950   25.356514   -0.866533 -175.783539
  0.026613226    0.000000    0.000000    0.000000    0.000000  -93.583963   20.684626   -0.880145 -177.527161
  0.026813627    0.000000    0.000000    0.000000    0.000000  -93.415475   27.873835   -0.894387 -179.271240
  0.027014028    0.000000    0.000000    0.000000    0.000000  -94.064304   26.465483   -0.911134  178.970963
  0.027214429    0.000000    0.000000    0.000000    0.000000  -94.099855   31.739630   -0.928493  177.214951
  0.027414830    0.000000    0.000000    0.000000    0.000000  -94.387850   28.630333   -0.945115  175.448486
  0.027615230    0.000000    0.000000    0.000000    0.000000  -94.394910   25.680134   -0.963970  173.668564
  0.027815631    0.000000    0.000000    0.000000    0.000000  -94.811927   26.402191   -0.982277  171.869659
  0.028016032    0.000000    0.000000    0.000000    0.000000  -93.994309   31.384794   -1.001220  170.067398
  0.028216433    0.000000    0.000000    0.000000    0.000000  -94.825530   31.069851   -1.023235  168.253754
  0.028416834    0.000000    0.000000    0.000000    0.000000  -94.887928   31.387379   -1.044832  166.430954
  0.028617234    0.000000    0.000000    0.000000    0.000000  -94.329716   28.264475   -1.065564  164.614532
  0.028817635    0.000000    0.000000    0.000000    0.000000  -94.772550   34.161636   -1.089450  162.781158
  0.029018036    0.000000    0.000000    0.000000    0.000000  -94.029024   32.817333   -1.114051  160.954926
  0.029218437    0.000000    0.000000    0.000000    0.000000  -94.857710   35.534729   -1.139168  159.116180
  0.029418838    0.000000    0.000000    0.000000    0.000000  -94.190449   34.209545   -1.162811  157.202988
  0.029619238    0.000000    0.000000    0.000000    0.000000  -94.383255   35.567051   -1.189860  155.346130
  0.029819639    0.000000    0.000000    0.000000    0.000000  -94.480608   28.439077   -1.219897  153.472275
  0.030020040    0.000000    0.000000    0.000000    0.000000  -94.413433   31.942844   -1.248561  151.590073
  0.030220441    0.000000    0.000000    0.000000    0.000000  -93.941243   28.091587   -1.277805  149.726181
  0.030420842    0.000000    0.000000    0.000000    0.000000  -93.759534   30.222921   -1.308070  147.856735
  0.030621242    0.000000    0.000000    0.000000    0.000000  -93.972541   24.829271   -1.340003  145.998169
  0.030821643    0.000000    0.000000    0.000000    0.000000  -94.386313   29.105827   -1.375705  144.123428
  0.031022044    0.000000    0.000000    0.000000    0.000000  -94.576171   25.698114   -1.409826  142.229736
  0.031222445    0.000000    0.000000    0.000000    0.000000  -94.419123   22.582136   -1.442035  140.336380
  0.031422846    0.000000    0.000000    0.000000    0.000000  -94.682783   26.409956   -1.476069  138.407410
  0.031623246    0.000000    0.000000    0.000000    0.000000  -95.459931   25.834900   -1.511668  136.473740
  0.031823647    0.000000    0.000000    0.000000    0.000000  -95.158592   17.485826   -1.544670  134.549210
  0.032024048    0.000000    0.000000    0.000000    0.000000  -95.259057   18.178268   -1.580108  132.619263
  0.032224449    0.000000    0.000000    0.000000    0.000000  -94.936303   19.435513   -1.615703  130.683884
  0.032424850    0.000000    0.000000    0.000000    0.000000  -95.875290   21.513353   -1.652549  128.724197
  0.032625250    0.000000    0.000000    0.000000    0.000000  -95.277143   17.468500   -1.687496  126.758965
  0.032825651    0.000000    0.000000    0.000000    0.000000  -95.805498   19.722025   -1.723550  124.763474
  0.033026052    0.000000    0.000000    0.000000    0.000000  -95.765169   19.207848   -1.758729  122.763359
  0.033226453    0.000000    0.000000    0.000000    0.000000  -96.094527   15.493253   -1.796161  120.753250
  0.033426854    0.000000    0.000000    0.000000    0.000000  -96.978237   31.648958   -1.829337  118.742416
  0.033627254    0.000000    0.000000    0.000000    0.000000  -94.706082   23.374447   -1.869020  116.722618
  0.033827655    0.000000    0.000000    0.000000    0.000000  -96.373718   22.369053   -1.907670  114.713615
  0.034028056    0.000000    0.000000    0.000000    0.000000  -96.300274   31.404291   -1.948377  112.693916
  0.034228457    0.000000    0.000000    0.000000    0.000000  -96.321157   27.988899   -1.990156  110.655144
  0.034428858    0.000000    0.000000    0.000000    0.000000  -97.023591   26.139452   -2.031584  108.589249
  0.034629258    0.000000    0.000000    0.000000    0.000000  -97.398000   24.406301   -2.074161  106.526985
  0.034829659    0.000000    0.000000    0.000000    0.000000  -95.548070   25.651920   -2.119516  104.464272
  0.035030060    0.000000    0.000000    0.000000    0.000000  -97.177591   31.444613   -2.165325  102.389275
  0.035230461    0.000000    0.000000    0.000000    0.000000  -95.813210   31.671515   -2.211675  100.338821
  0.035430862    0.000000    0.000000    0.000000    0.000000  -96.387784   21.540804   -2.259314   98.258286
  0.035631262    0.000000    0.000000    0.000000    0.000000  -95.790044   18.652294   -2.309927   96.190865
  0.035831663    0.000000    0.000000    0.000000    0.000000  -96.577294   22.222231   -2.359171   94.114899
  0.036032064    0.000000    0.000000    0.000000    0.000000  -96.836262   22.564280   -2.406967   92.037949
  0.036232465    0.000000    0.000000    0.000000    0.000000  -96.892499   23.024607   -2.457596   89.968468
  0.036432866    0.000000    0.000000    0.000000    0.000000  -96.373451   23.246550   -2.509942   87.878639
  0.036633266    0.000000    0.000000    0.000000    0.000000  -96.598211   24.521341   -2.563506   85.794487
  0.036833667    0.000000    0.000000    0.000000    0.000000  -96.057911   21.801207   -2.617629   83.704620
  0.037034068    0.000000    0.000000    0.000000    0.000000  -97.151567   19.888683   -2.672557   81.595665
  0.037234469    0.000000    0.000000    0.000000    0.000000  -97.068786   23.955572   -2.727785   79.516769
  0.037434870    0.000000    0.000000    0.000000    0.000000  -97.618912   21.859808   -2.783229   77.403412
  0.037635270    0.000000    0.000000    0.000000    0.000000  -96.955600   22.356411   -2.843270   75.288895
  0.037835671    0.000000    0.000000    0.000000    0.000000  -98.238721   29.819407   -2.905335   73.157104
  0.038036072    0.000000    0.000000    0.000000    0.000000  -97.213595   21.234732   -2.973077   71.002739
  0.038236473    0.000000    0.000000    0.000000    0.000000  -98.177563   21.582785   -3.041754   68.939308
  0.038436874    0.000000    0.000000    0.000000    0.000000  -97.776305   24.940111   -3.097815   66.853813
  0.038637274    0.000000    0.000000    0.000000    0.000000  -98.302200   23.964043   -3.156456   64.749062
  0.038837675    0.000000    0.000000    0.000000    0.000000  -97.565819   20.151411   -3.213707   62.631435
  0.039038076    0.000000    0.000000    0.000000    0.000000  -97.266811   31.176914   -3.267900   60.512669
  0.039238477    0.000000    0.000000    0.000000    0.000000  -98.586887   25.764227   -3.324410   58.425781
  0.039438878    0.000000    0.000000    0.000000    0.000000  -98.303316   30.753611   -3.384637   56.307514
  0.039639278    0.000000    0.000000    0.000000    0.000000  -97.829674   29.106203   -3.440915   54.206032
  0.039839679    0.000000    0.000000    0.000000    0.000000  -98.693797   31.257559   -3.497699   52.079746
  0.040040080    0.000000    0.000000    0.000000    0.000000  -98.819519   25.504690   -3.555286   49.990246
  0.040240481    0.000000    0.000000    0.000000    0.000000  -97.749953   28.742580   -3.612001   47.883717
  0.040440882    0.000000    0.000000    0.000000    0.000000  -97.881885   30.845718   -3.666925   45.771473
  0.040641283    0.000000    0.000000    0.000000    0.000000  -97.579157   38.968925   -3.723836   43.717430
  0.040841683    0.000000    0.000000    0.000000    0.000000  -97.889390   26.056940   -3.777422   41.643398
  0.041042084    0.000000    0.000000    0.000000    0.000000  -97.266068   21.533270   -3.833417   39.565304
  0.041242485    0.000000    0.000000    0.000000    0.000000  -97.738960   25.604958   -3.893909   37.490078
  0.041442886    0.000000    0.000000    0.000000    0.000000  -98.255892   32.391914   -3.948787   35.436649
  0.041643287    0.000000    0.000000    0.000000    0.000000  -98.209247   30.547508   -4.006289   33.347168
  0.041843687    0.000000    0.000000    0.000000    0.000000  -96.368241   29.764107   -4.059193   31.269279
  0.042044088    0.000000    0.000000    0.000000    0.000000  -97.131213   20.248978   -4.113877   29.234442
  0.042244489    0.000000    0.000000    0.000000    0.000000  -97.791315   21.422167   -4.169011   27.173805
  0.042444890    0.000000    0.000000    0.000000    0.000000  -98.083475   28.706694   -4.222907   25.137211
  0.042645291    0.000000    0.000000    0.000000    0.000000  -98.660178   26.072729   -4.277201   23.098015
  0.042845691    0.000000    0.000000    0.000000    0.000000  -98.248478   32.833466   -4.333815   21.069584
  0.043046092    0.000000    0.000000    0.000000    0.000000  -99.442546   14.128332   -4.385736   19.045925
  0.043246493    0.000000    0.000000    0.000000    0.000000  -98.383127   25.240923   -4.440694   17.017389
  0.043446894    0.000000    0.000000    0.000000    0.000000  -98.334854   24.696623   -4.492400   14.982224
  0.043647295    0.000000    0.000000    0.000000    0.000000  -98.674439   27.271564   -4.542721   12.983988
  0.043847695    0.000000    0.000000    0.000000    0.000000  -98.211291   34.224007   -4.594347   10.976147
  0.044048096    0.000000    0.000000    0.000000    0.000000  -99.540917   21.149767   -4.645598    8.990528
  0.044248497    0.000000    0.000000    0.000000    0.000000 -100.950385   20.749723   -4.694572    6.987465
  0.044448898    0.000000    0.000000    0.000000    0.000000  -98.315708   23.118380   -4.743765    5.030154
  0.044649299    0.000000    0.000000    0.000000    0.000000  -97.037400   24.643208   -4.790625    3.050644
  0.044849699    0.000000    0.000000    0.000000    0.000000  -99.069037   26.533722   -4.839498    1.097694
  0.045050100    0.000000    0.000000    0.000000    0.000000  -98.513903   34.971619   -4.883592   -0.855577
  0.045250501    0.000000    0.000000    0.000000    0.000000  -99.318008   31.948914   -4.927788   -2.818647
  0.045450902    0.000000    0.000000    0.000000    0.000000  -98.041162   35.478355   -4.967262   -4.737968
  0.045651303    0.000000    0.000000    0.000000    0.000000  -99.348455   38.775902   -5.009354   -6.677011
  0.045851703    0.000000    0.000000    0.000000    0.000000  -99.369809   29.038776   -5.047923   -8.562449
  0.046052104    0.000000    0.000000    0.000000    0.000000 -100.238915   32.645294   -5.088107  -10.448783
  0.046252505    0.000000    0.000000    0.000000    0.000000  -99.134424   38.004925   -5.127733  -12.349109
  0.046452906    0.000000    0.000000    0.000000    0.000000  -99.078847   34.385189   -5.164779  -14.193875
  0.046653307    0.000000    0.000000    0.000000    0.000000  -98.756687   30.003170   -5.201831  -16.042414
  0.046853707    0.000000    0.000000    0.000000    0.000000  -97.650073   29.689163   -5.235012  -17.904890
  0.047054108    0.000000    0.000000    0.000000    0.000000  -99.944298   29.983253   -5.270251  -19.747635
  0.047254509    0.000000    0.000000    0.000000    0.000000  -98.810253   42.829311   -5.303461  -21.588299
  0.047454910    0.000000    0.000000    0.000000    0.000000  -98.470452   34.052074   -5.333397  -23.410181
  0.047655311    0.000000    0.000000    0.000000    0.000000  -98.442691   32.005344   -5.364824  -25.221149
  0.047855711    0.000000    0.000000    0.000000    0.000000  -98.987788   29.319727   -5.396320  -27.017756
  0.048056112    0.000000    0.000000    0.000000    0.000000  -99.090655   36.675526   -5.427009  -28.806986
  0.048256513    0.000000    0.000000    0.000000    0.000000  -98.496394   21.724051   -5.460306  -30.591263
  0.048456914    0.000000    0.000000    0.000000    0.000000  -99.672589   19.363689   -5.488658  -32.356377
  0.048657315    0.000000    0.000000    0.000000    0.000000  -99.643255   25.646608   -5.517163  -34.138275
  0.048857715    0.000000    0.000000    0.000000    0.000000  -98.372469   31.387373   -5.544258  -35.907928
  0.049058116    0.000000    0.000000    0.000000    0.000000 -100.802715   25.875383   -5.572951  -37.692722
  0.049258517    0.000000    0.000000    0.000000    0.000000 -100.053037   38.753681   -5.595903  -39.440334
  0.049458918    0.000000    0.000000    0.000000    0.000000 -100.361647   34.553249   -5.621908  -41.202862
  0.049659319    0.000000    0.000000    0.000000    0.000000  -99.231592   36.589085   -5.651011  -42.948822
  0.049859719    0.000000    0.000000    0.000000    0.000000  -98.140248   33.979279   -5.673553  -44.667168
  0.050060120    0.000000    0.000000    0.000000    0.000000  -98.868443   30.273693   -5.695939  -46.384293
  0.050260521    0.000000    0.000000    0.000000    0.000000  -98.186309   27.286066   -5.719207  -48.105984
  0.050460922    0.000000    0.000000    0.000000    0.000000  -99.929910   32.170338   -5.740684  -49.813461
  0.050661323    0.000000    0.000000    0.000000    0.000000 -100.543507   39.708191   -5.756163  -51.518337
  0.050861723    0.000000    0.000000    0.000000    0.000000  -98.475468   40.500092   -5.770429  -53.216232
  0.051062124    0.000000    0.000000    0.000000    0.000000  -99.820375   41.241558   -5.791541  -54.888313
  0.051262525    0.000000    0.000000    0.000000    0.000000  -99.151646   32.993458   -5.809523  -56.553894
  0.051462926    0.000000    0.000000    0.000000    0.000000  -99.097815   27.895823   -5.824523  -58.178692
  0.051663327    0.000000    0.000000    0.000000    0.000000  -98.726655   30.787716   -5.841631  -59.833763
  0.051863727    0.000000    0.000000    0.000000    0.000000  -99.873926   34.026520   -5.857127  -61.472496
  0.052064128    0.000000    0.000000    0.000000    0.000000  -98.758386   33.727341   -5.864915  -63.076599
  0.052264529    0.000000    0.000000    0.000000    0.000000  -99.231172   30.074928   -5.876103  -64.667503
  0.052464930    0.000000    0.000000    0.000000    0.000000  -98.721343   37.085514   -5.885038  -66.266129
  0.052665331    0.000000    0.000000    0.000000    0.000000  -98.681540   39.200871   -5.895408  -67.830505
  0.052865731    0.000000    0.000000    0.000000    0.000000  -98.141616   36.649979   -5.908557  -69.388367
