! Anritsu VNA Master:                     Model: MS2036C/10/77
! SN:                                  1601066
! /bd0/18may10/252.ns.m4.s2p
! Existing Calibration Information:
! TYPE:                         Current Settings,       Active Cal Settings
! TIME:             	   05/10/2018 05:41:00 PM,    05/10/2018 05:30:44 PM
! INTERNAL TEMP:    	                   59.0 C,                    57.8 C
! # POINTS:         	                      490,                       490
! START FREQ:       	               20.000 MHz,                20.000 MHz
! STOP FREQ:        	          117.995 991 MHz,           117.995 991 MHz
! SOURCE POWER:     	                     High,                      High
! IFBW:             	                    50 Hz,                     50 Hz
! AVG FACTOR:       	                       1 ,                        1 
! REF PLANE 1:      	                     0 mm,                      0 mm
! REF PLANE 2:      	                     0 mm,                      0 mm
! CAL TYPE:         	                 Full S22,                  Full S22
! CAL METHOD:       	                     SOLT,                      SOLT
! CAL LINE TYPE:    	                     Coax,                      Coax
! DUT PORT 1:       	                K-Conn(M),                 K-Conn(M)
! DUT PORT 2:       	                K-Conn(M),                 K-Conn(M)
! CAL STATUS:       	        OK: Accuracy High,                        --
# GHZ S DB R 50.0
! FREQ.GHZ       S11DB        S11A       S21DB        S21A       S12DB        S12A       S22DB        S22A
  0.020000000    0.000000    0.000000    0.000000    0.000000  -89.360318   32.393593   -0.639787 -125.423088
  0.020200401    0.000000    0.000000    0.000000    0.000000  -89.562587   35.626682   -0.643185 -126.874176
  0.020400802    0.000000    0.000000    0.000000    0.000000  -90.474395   30.756416   -0.646724 -128.328842
  0.020601202    0.000000    0.000000    0.000000    0.000000  -90.506792   31.727819   -0.649484 -129.801895
  0.020801603    0.000000    0.000000    0.000000    0.000000  -90.534084   33.145363   -0.654705 -131.305573
  0.021002004    0.000000    0.000000    0.000000    0.000000  -91.512039   33.645748   -0.656701 -132.812744
  0.021202405    0.000000    0.000000    0.000000    0.000000  -91.701730   33.657181   -0.659362 -134.326202
  0.021402806    0.000000    0.000000    0.000000    0.000000  -91.285268   32.863422   -0.662320 -135.823441
  0.021603206    0.000000    0.000000    0.000000    0.000000  -91.623062   33.771965   -0.665391 -137.328995
  0.021803607    0.000000    0.000000    0.000000    0.000000  -92.089577   40.011627   -0.671045 -138.822144
  0.022004008    0.000000    0.000000    0.000000    0.000000  -92.771742   43.656651   -0.676146 -140.347519
  0.022204409    0.000000    0.000000    0.000000    0.000000  -91.979875   41.644577   -0.683049 -141.860748
  0.022404810    0.000000    0.000000    0.000000    0.000000  -92.246500   38.507095   -0.689625 -143.402435
  0.022605210    0.000000    0.000000    0.000000    0.000000  -91.688750   36.578918   -0.690709 -144.974365
  0.022805611    0.000000    0.000000    0.000000    0.000000  -91.933559   44.197586   -0.692502 -146.546509
  0.023006012    0.000000    0.000000    0.000000    0.000000  -91.444409   43.058804   -0.696479 -148.091354
  0.023206413    0.000000    0.000000    0.000000    0.000000  -91.651083   39.628601   -0.703121 -149.645996
  0.023406814    0.000000    0.000000    0.000000    0.000000  -91.299582   41.215637   -0.709255 -151.197998
  0.023607214    0.000000    0.000000    0.000000    0.000000  -91.698349   37.590649   -0.716664 -152.763626
  0.023807615    0.000000    0.000000    0.000000    0.000000  -90.821373   34.650719   -0.722264 -154.355209
  0.024008016    0.000000    0.000000    0.000000    0.000000  -91.161530   35.144417   -0.730207 -155.960342
  0.024208417    0.000000    0.000000    0.000000    0.000000  -91.258583   36.308849   -0.737918 -157.592255
  0.024408818    0.000000    0.000000    0.000000    0.000000  -91.408472   32.956165   -0.743017 -159.229248
  0.024609218    0.000000    0.000000    0.000000    0.000000  -91.630165   32.663372   -0.749123 -160.859116
  0.024809619    0.000000    0.000000    0.000000    0.000000  -91.416983   34.897591   -0.757405 -162.506638
  0.025010020    0.000000    0.000000    0.000000    0.000000  -91.359138   30.373718   -0.765328 -164.160706
  0.025210421    0.000000    0.000000    0.000000    0.000000  -91.415077   28.506018   -0.776349 -165.824432
  0.025410822    0.000000    0.000000    0.000000    0.000000  -92.523720   23.667830   -0.787054 -167.491684
  0.025611222    0.000000    0.000000    0.000000    0.000000  -92.520969   25.272102   -0.797408 -169.188919
  0.025811623    0.000000    0.000000    0.000000    0.000000  -92.110773   29.625963   -0.808552 -170.888535
  0.026012024    0.000000    0.000000    0.000000    0.000000  -92.671727   22.944931   -0.819165 -172.598297
  0.026212425    0.000000    0.000000    0.000000    0.000000  -92.838107   23.622953   -0.830451 -174.323196
  0.026412826    0.000000    0.000000    0.000000    0.000000  -93.390152   27.591272   -0.843278 -176.053329
  0.026613226    0.000000    0.000000    0.000000    0.000000  -94.268314   26.033043   -0.859298 -177.793152
  0.026813627    0.000000    0.000000    0.000000    0.000000  -93.798667   25.369051   -0.874261 -179.543121
  0.027014028    0.000000    0.000000    0.000000    0.000000  -94.587094   31.738577   -0.890946  178.696960
  0.027214429    0.000000    0.000000    0.000000    0.000000  -94.424726   27.071095   -0.907415  176.934753
  0.027414830    0.000000    0.000000    0.000000    0.000000  -94.409805   29.961790   -0.924613  175.169632
  0.027615230    0.000000    0.000000    0.000000    0.000000  -94.453169   29.916813   -0.942304  173.386734
  0.027815631    0.000000    0.000000    0.000000    0.000000  -94.728980   29.490482   -0.961455  171.590286
  0.028016032    0.000000    0.000000    0.000000    0.000000  -94.401368   30.031109   -0.980325  169.783173
  0.028216433    0.000000    0.000000    0.000000    0.000000  -94.291380   34.417660   -1.000973  167.966263
  0.028416834    0.000000    0.000000    0.000000    0.000000  -95.347373   31.734804   -1.023015  166.142014
  0.028617234    0.000000    0.000000    0.000000    0.000000  -94.732712   33.084694   -1.045039  164.316147
  0.028817635    0.000000    0.000000    0.000000    0.000000  -94.588707   34.433281   -1.067855  162.475739
  0.029018036    0.000000    0.000000    0.000000    0.000000  -94.179900   30.988342   -1.094235  160.644257
  0.029218437    0.000000    0.000000    0.000000    0.000000  -94.262528   30.897236   -1.119271  158.785522
  0.029418838    0.000000    0.000000    0.000000    0.000000  -94.028699   35.268433   -1.146936  156.923477
  0.029619238    0.000000    0.000000    0.000000    0.000000  -94.067910   27.539209   -1.175010  155.039841
  0.029819639    0.000000    0.000000    0.000000    0.000000  -93.610093   30.229956   -1.204175  153.162918
  0.030020040    0.000000    0.000000    0.000000    0.000000  -93.500375   27.960670   -1.232823  151.275955
  0.030220441    0.000000    0.000000    0.000000    0.000000  -94.240079   29.554853   -1.263322  149.387299
  0.030420842    0.000000    0.000000    0.000000    0.000000  -93.679043   25.041996   -1.293230  147.505936
  0.030621242    0.000000    0.000000    0.000000    0.000000  -94.099824   26.689110   -1.326823  145.627762
  0.030821643    0.000000    0.000000    0.000000    0.000000  -94.396658   26.445955   -1.359238  143.740982
  0.031022044    0.000000    0.000000    0.000000    0.000000  -94.326583   22.299610   -1.394111  141.842529
  0.031222445    0.000000    0.000000    0.000000    0.000000  -94.340464   21.899624   -1.424084  139.933441
  0.031422846    0.000000    0.000000    0.000000    0.000000  -94.641522   12.534002   -1.458586  138.009033
  0.031623246    0.000000    0.000000    0.000000    0.000000  -94.464690   26.413584   -1.493754  136.061707
  0.031823647    0.000000    0.000000    0.000000    0.000000  -95.735383   15.100705   -1.526983  134.133545
  0.032024048    0.000000    0.000000    0.000000    0.000000  -94.663761   22.859486   -1.560194  132.197006
  0.032224449    0.000000    0.000000    0.000000    0.000000  -96.528546   14.031343   -1.597515  130.253494
  0.032424850    0.000000    0.000000    0.000000    0.000000  -95.763667   13.046394   -1.632162  128.292297
  0.032625250    0.000000    0.000000    0.000000    0.000000  -95.272064   24.276646   -1.666821  126.316154
  0.032825651    0.000000    0.000000    0.000000    0.000000  -96.325356   11.998923   -1.702116  124.330017
  0.033026052    0.000000    0.000000    0.000000    0.000000  -96.337930   15.938897   -1.737045  122.324142
  0.033226453    0.000000    0.000000    0.000000    0.000000  -95.942773   14.633298   -1.773908  120.325706
  0.033426854    0.000000    0.000000    0.000000    0.000000  -96.359367   25.527456   -1.808068  118.325203
  0.033627254    0.000000    0.000000    0.000000    0.000000  -97.248475   22.733488   -1.847151  116.327591
  0.033827655    0.000000    0.000000    0.000000    0.000000  -97.104371   22.917606   -1.886528  114.327515
  0.034028056    0.000000    0.000000    0.000000    0.000000  -95.978330   20.614357   -1.925560  112.277893
  0.034228457    0.000000    0.000000    0.000000    0.000000  -95.727234   25.747620   -1.968525  110.246735
  0.034428858    0.000000    0.000000    0.000000    0.000000  -96.541236   25.021624   -2.009062  108.199486
  0.034629258    0.000000    0.000000    0.000000    0.000000  -95.742976   30.820951   -2.056096  106.102127
  0.034829659    0.000000    0.000000    0.000000    0.000000  -95.948606   26.892984   -2.098826  104.048996
  0.035030060    0.000000    0.000000    0.000000    0.000000  -95.974672   22.423254   -2.145829  101.974014
  0.035230461    0.000000    0.000000    0.000000    0.000000  -95.895854   32.080013   -2.194255   99.888481
  0.035430862    0.000000    0.000000    0.000000    0.000000  -95.374817   25.457012   -2.241553   97.789520
  0.035631262    0.000000    0.000000    0.000000    0.000000  -95.774753   25.117912   -2.292727   95.712677
  0.035831663    0.000000    0.000000    0.000000    0.000000  -96.454618   25.129820   -2.342717   93.590500
  0.036032064    0.000000    0.000000    0.000000    0.000000  -95.592541   21.930286   -2.394697   91.472939
  0.036232465    0.000000    0.000000    0.000000    0.000000  -95.996419   20.481167   -2.445637   89.379295
  0.036432866    0.000000    0.000000    0.000000    0.000000  -95.938895   26.151014   -2.497218   87.255386
  0.036633266    0.000000    0.000000    0.000000    0.000000  -96.303276   27.815258   -2.549471   85.136826
  0.036833667    0.000000    0.000000    0.000000    0.000000  -96.805942   25.423456   -2.605416   83.003189
  0.037034068    0.000000    0.000000    0.000000    0.000000  -96.519074   22.088182   -2.658163   80.877991
  0.037234469    0.000000    0.000000    0.000000    0.000000  -96.667087   21.209482   -2.713230   78.752586
  0.037434870    0.000000    0.000000    0.000000    0.000000  -96.875730   20.260044   -2.766420   76.605247
  0.037635270    0.000000    0.000000    0.000000    0.000000  -97.735938   20.182493   -2.824270   74.471024
  0.037835671    0.000000    0.000000    0.000000    0.000000  -97.152719   25.004063   -2.885634   72.320343
  0.038036072    0.000000    0.000000    0.000000    0.000000  -97.919275   26.650711   -2.950236   70.170143
  0.038236473    0.000000    0.000000    0.000000    0.000000  -96.598830   25.681252   -3.015831   68.103348
  0.038436874    0.000000    0.000000    0.000000    0.000000  -97.499612   20.797064   -3.072640   66.012543
  0.038637274    0.000000    0.000000    0.000000    0.000000  -97.269413   26.349606   -3.126416   63.908043
  0.038837675    0.000000    0.000000    0.000000    0.000000  -97.987430   20.475088   -3.181714   61.790550
  0.039038076    0.000000    0.000000    0.000000    0.000000  -97.666008   26.344673   -3.232443   59.681080
  0.039238477    0.000000    0.000000    0.000000    0.000000  -98.750987   37.866184   -3.287437   57.591335
  0.039438878    0.000000    0.000000    0.000000    0.000000  -98.279127   28.031225   -3.342638   55.481499
  0.039639278    0.000000    0.000000    0.000000    0.000000  -98.225165   21.729769   -3.399595   53.395802
  0.039839679    0.000000    0.000000    0.000000    0.000000  -98.988705   18.695274   -3.456387   51.293510
  0.040040080    0.000000    0.000000    0.000000    0.000000  -98.789999   23.163837   -3.509685   49.177780
  0.040240481    0.000000    0.000000    0.000000    0.000000  -97.908815   25.466419   -3.563002   47.074726
  0.040440882    0.000000    0.000000    0.000000    0.000000  -97.838311   22.683664   -3.620696   45.005898
  0.040641283    0.000000    0.000000    0.000000    0.000000  -98.564663   18.391804   -3.674425   42.934803
  0.040841683    0.000000    0.000000    0.000000    0.000000  -96.904227   27.628984   -3.731576   40.862679
  0.041042084    0.000000    0.000000    0.000000    0.000000  -97.676750   28.410269   -3.787745   38.830299
  0.041242485    0.000000    0.000000    0.000000    0.000000  -98.419582   33.498573   -3.845835   36.776550
  0.041442886    0.000000    0.000000    0.000000    0.000000  -97.230158   28.332001   -3.902204   34.713310
  0.041643287    0.000000    0.000000    0.000000    0.000000  -97.817983   34.267544   -3.958054   32.651077
  0.041843687    0.000000    0.000000    0.000000    0.000000  -98.045290   29.150131   -4.014682   30.572527
  0.042044088    0.000000    0.000000    0.000000    0.000000  -98.263244   23.801159   -4.069192   28.531351
  0.042244489    0.000000    0.000000    0.000000    0.000000  -97.466112   19.895729   -4.124408   26.476931
  0.042444890    0.000000    0.000000    0.000000    0.000000  -98.881849   18.697317   -4.179464   24.440617
  0.042645291    0.000000    0.000000    0.000000    0.000000  -97.751337   21.341858   -4.237372   22.394115
  0.042845691    0.000000    0.000000    0.000000    0.000000  -97.580999   22.957701   -4.290814   20.368313
  0.043046092    0.000000    0.000000    0.000000    0.000000  -99.054576   26.904526   -4.344567   18.328316
  0.043246493    0.000000    0.000000    0.000000    0.000000  -97.575263   25.501263   -4.398638   16.291388
  0.043446894    0.000000    0.000000    0.000000    0.000000  -98.289197   26.418806   -4.451154   14.262032
  0.043647295    0.000000    0.000000    0.000000    0.000000  -99.929816   29.189281   -4.500511   12.238802
  0.043847695    0.000000    0.000000    0.000000    0.000000  -97.997175   19.389479   -4.551799   10.216567
  0.044048096    0.000000    0.000000    0.000000    0.000000  -98.199556   14.767779   -4.602982    8.234312
  0.044248497    0.000000    0.000000    0.000000    0.000000  -99.492528   39.779522   -4.651394    6.227937
  0.044448898    0.000000    0.000000    0.000000    0.000000  -98.656970   28.990967   -4.699231    4.279005
  0.044649299    0.000000    0.000000    0.000000    0.000000  -98.344353   27.543625   -4.747505    2.284833
  0.044849699    0.000000    0.000000    0.000000    0.000000  -98.896687   32.850368   -4.792320    0.336548
  0.045050100    0.000000    0.000000    0.000000    0.000000  -97.702729   21.141750   -4.837281   -1.631641
  0.045250501    0.000000    0.000000    0.000000    0.000000  -99.742983   29.771269   -4.880970   -3.578530
  0.045450902    0.000000    0.000000    0.000000    0.000000  -98.225923   31.220905   -4.921942   -5.499434
  0.045651303    0.000000    0.000000    0.000000    0.000000  -97.578744   31.996256   -4.966682   -7.432913
  0.045851703    0.000000    0.000000    0.000000    0.000000  -98.443888   29.479939   -5.004383   -9.331316
  0.046052104    0.000000    0.000000    0.000000    0.000000  -98.291379   35.551689   -5.043537  -11.227675
  0.046252505    0.000000    0.000000    0.000000    0.000000 -100.578465   34.646946   -5.081119  -13.107963
  0.046452906    0.000000    0.000000    0.000000    0.000000  -98.133705   26.947641   -5.118463  -14.970480
  0.046653307    0.000000    0.000000    0.000000    0.000000  -98.389874   37.074371   -5.155740  -16.837908
  0.046853707    0.000000    0.000000    0.000000    0.000000  -97.787832   25.818485   -5.191465  -18.696905
  0.047054108    0.000000    0.000000    0.000000    0.000000 -100.117950   26.664532   -5.224591  -20.547541
  0.047254509    0.000000    0.000000    0.000000    0.000000  -97.699459   23.409048   -5.256329  -22.401241
  0.047454910    0.000000    0.000000    0.000000    0.000000  -98.584516   27.264633   -5.284045  -24.240952
  0.047655311    0.000000    0.000000    0.000000    0.000000  -98.764904   24.766539   -5.316364  -26.075617
  0.047855711    0.000000    0.000000    0.000000    0.000000  -97.026705   31.767555   -5.345372  -27.850029
  0.048056112    0.000000    0.000000    0.000000    0.000000  -99.773717   33.216301   -5.379253  -29.642870
  0.048256513    0.000000    0.000000    0.000000    0.000000  -99.286144   28.045660   -5.407997  -31.433002
  0.048456914    0.000000    0.000000    0.000000    0.000000  -98.450083   30.551914   -5.438428  -33.205544
  0.048657315    0.000000    0.000000    0.000000    0.000000  -99.174716   26.589260   -5.462481  -34.989246
  0.048857715    0.000000    0.000000    0.000000    0.000000  -97.908331   30.238604   -5.486786  -36.752846
  0.049058116    0.000000    0.000000    0.000000    0.000000  -98.846439   31.126295   -5.512549  -38.527184
  0.049258517    0.000000    0.000000    0.000000    0.000000  -98.550262   32.075089   -5.534353  -40.272118
  0.049458918    0.000000    0.000000    0.000000    0.000000  -99.528100   29.207272   -5.559731  -41.997284
  0.049659319    0.000000    0.000000    0.000000    0.000000  -99.761460   29.218880   -5.582921  -43.712673
  0.049859719    0.000000    0.000000    0.000000    0.000000  -99.388653   28.068764   -5.610326  -45.431206
  0.050060120    0.000000    0.000000    0.000000    0.000000 -100.252298   31.768532   -5.630478  -47.123932
  0.050260521    0.000000    0.000000    0.000000    0.000000 -100.996876   32.621536   -5.652389  -48.822102
  0.050460922    0.000000    0.000000    0.000000    0.000000  -99.001192   34.475460   -5.671321  -50.545040
  0.050661323    0.000000    0.000000    0.000000    0.000000  -97.817402   31.010834   -5.689153  -52.202034
  0.050861723    0.000000    0.000000    0.000000    0.000000  -98.170265   31.646595   -5.705591  -53.864483
  0.051062124    0.000000    0.000000    0.000000    0.000000  -98.169556   41.836472   -5.723870  -55.525948
  0.051262525    0.000000    0.000000    0.000000    0.000000  -98.875525   41.817741   -5.746036  -57.160717
  0.051462926    0.000000    0.000000    0.000000    0.000000  -98.499516   30.057838   -5.763758  -58.798168
  0.051663327    0.000000    0.000000    0.000000    0.000000  -98.443758   35.904438   -5.780727  -60.414677
  0.051863727    0.000000    0.000000    0.000000    0.000000  -99.659901   30.479774   -5.797944  -62.032864
  0.052064128    0.000000    0.000000    0.000000    0.000000  -98.482558   28.718599   -5.810996  -63.648907
  0.052264529    0.000000    0.000000    0.000000    0.000000  -99.527046   30.084602   -5.825042  -65.232147
  0.052464930    0.000000    0.000000    0.000000    0.000000  -98.562790   32.783539   -5.836100  -66.829361
  0.052665331    0.000000    0.000000    0.000000    0.000000  -97.272486   35.092384   -5.850194  -68.405563
  0.052865731    0.000000    0.000000    0.000000    0.000000  -99.815696   33.943447   -5.866930  -69.989876
