! Anritsu VNA Master:                     Model: MS2036C/10/77
! SN:                                  1601066
! /bd0/18may10/252.ns.cal2.s2p
! Existing Calibration Information:
! TYPE:                         Current Settings,       Active Cal Settings
! TIME:             	   05/10/2018 05:31:17 PM,    05/10/2018 05:30:44 PM
! INTERNAL TEMP:    	                   57.8 C,                    57.8 C
! # POINTS:         	                      490,                       490
! START FREQ:       	               20.000 MHz,                20.000 MHz
! STOP FREQ:        	          117.995 991 MHz,           117.995 991 MHz
! SOURCE POWER:     	                     High,                      High
! IFBW:             	                    50 Hz,                     50 Hz
! AVG FACTOR:       	                       1 ,                        1 
! REF PLANE 1:      	                     0 mm,                      0 mm
! REF PLANE 2:      	                     0 mm,                      0 mm
! CAL TYPE:         	                 Full S22,                  Full S22
! CAL METHOD:       	                     SOLT,                      SOLT
! CAL LINE TYPE:    	                     Coax,                      Coax
! DUT PORT 1:       	                K-Conn(M),                 K-Conn(M)
! DUT PORT 2:       	                K-Conn(M),                 K-Conn(M)
! CAL STATUS:       	        OK: Accuracy High,                        --
# GHZ S DB R 50.0
! FREQ.GHZ       S11DB        S11A       S21DB        S21A       S12DB        S12A       S22DB        S22A
  0.020000000    0.000000    0.000000    0.000000    0.000000  -89.553143   42.491356  -79.952653  109.431915
  0.020200401    0.000000    0.000000    0.000000    0.000000  -89.721379   41.311371  -75.745569   94.501915
  0.020400802    0.000000    0.000000    0.000000    0.000000  -89.943932   40.629742  -83.244313  136.282562
  0.020601202    0.000000    0.000000    0.000000    0.000000  -90.041350   40.499008  -88.720675  175.886063
  0.020801603    0.000000    0.000000    0.000000    0.000000  -89.747329   37.387280  -90.147377  123.103043
  0.021002004    0.000000    0.000000    0.000000    0.000000  -90.710390   41.664173  -84.056468  -37.927090
  0.021202405    0.000000    0.000000    0.000000    0.000000  -90.664753   41.558365  -88.154368 -166.806885
  0.021402806    0.000000    0.000000    0.000000    0.000000  -91.086924   39.283169  -86.873947  -95.204254
  0.021603206    0.000000    0.000000    0.000000    0.000000  -90.265347   41.545563  -75.343901  175.746735
  0.021803607    0.000000    0.000000    0.000000    0.000000  -90.451995   38.944653  -76.716399   20.178925
  0.022004008    0.000000    0.000000    0.000000    0.000000  -90.574619   38.448643  -79.145914  154.335022
  0.022204409    0.000000    0.000000    0.000000    0.000000  -91.742340   36.282875  -84.741961  131.021805
  0.022404810    0.000000    0.000000    0.000000    0.000000  -90.852046   36.049324  -90.748950  141.906296
  0.022605210    0.000000    0.000000    0.000000    0.000000  -91.484157   38.711403  -80.748870 -126.556931
  0.022805611    0.000000    0.000000    0.000000    0.000000  -91.898472   33.410191  -82.485025 -122.126266
  0.023006012    0.000000    0.000000    0.000000    0.000000  -91.062366   34.862572  -81.704394  -66.843376
  0.023206413    0.000000    0.000000    0.000000    0.000000  -91.376615   36.819370  -79.785706  110.544289
  0.023406814    0.000000    0.000000    0.000000    0.000000  -91.707424   37.875271  -78.630535  -63.611397
  0.023607214    0.000000    0.000000    0.000000    0.000000  -92.191660   30.774117  -84.683861   69.217690
  0.023807615    0.000000    0.000000    0.000000    0.000000  -91.779910   31.601048  -81.762776   43.019112
  0.024008016    0.000000    0.000000    0.000000    0.000000  -91.923812   30.606853  -85.672618 -116.557426
  0.024208417    0.000000    0.000000    0.000000    0.000000  -92.109538   34.603813  -90.141807   35.727062
  0.024408818    0.000000    0.000000    0.000000    0.000000  -92.507098   32.208668  -83.495963   96.056007
  0.024609218    0.000000    0.000000    0.000000    0.000000  -92.109175   32.754570  -83.384173  -38.002106
  0.024809619    0.000000    0.000000    0.000000    0.000000  -93.010521   35.126373  -78.301909  -84.977448
  0.025010020    0.000000    0.000000    0.000000    0.000000  -92.989561   30.580338  -80.794087  -25.296705
  0.025210421    0.000000    0.000000    0.000000    0.000000  -91.832804   30.383820  -80.132674 -134.244812
  0.025410822    0.000000    0.000000    0.000000    0.000000  -92.622610   33.220020  -78.243676   12.831341
  0.025611222    0.000000    0.000000    0.000000    0.000000  -92.658124   33.502739  -77.044312  -92.038864
  0.025811623    0.000000    0.000000    0.000000    0.000000  -92.896924   33.978294  -79.458967 -106.585594
  0.026012024    0.000000    0.000000    0.000000    0.000000  -93.087353   33.584099  -78.355933  159.677353
  0.026212425    0.000000    0.000000    0.000000    0.000000  -92.835464   28.736485  -81.537491   78.819031
  0.026412826    0.000000    0.000000    0.000000    0.000000  -93.843683   29.345186  -88.257490   59.898663
  0.026613226    0.000000    0.000000    0.000000    0.000000  -93.436573   29.891623  -81.237470  -87.901787
  0.026813627    0.000000    0.000000    0.000000    0.000000  -93.241299   31.044039  -84.423479  114.664726
  0.027014028    0.000000    0.000000    0.000000    0.000000  -93.130759   30.505434  -91.031579   62.210052
  0.027214429    0.000000    0.000000    0.000000    0.000000  -93.390627   31.407167  -92.656661  -87.973564
  0.027414830    0.000000    0.000000    0.000000    0.000000  -93.458478   28.309454  -83.649284   -3.516815
  0.027615230    0.000000    0.000000    0.000000    0.000000  -93.909933   30.453255  -86.436165 -140.473694
  0.027815631    0.000000    0.000000    0.000000    0.000000  -94.038899   30.148317  -84.528996   25.439653
  0.028016032    0.000000    0.000000    0.000000    0.000000  -93.737099   27.148979  -80.813365  -33.421898
  0.028216433    0.000000    0.000000    0.000000    0.000000  -93.813453   30.454458  -81.189969 -123.604202
  0.028416834    0.000000    0.000000    0.000000    0.000000  -94.651051   27.114246  -86.268369  -77.546898
  0.028617234    0.000000    0.000000    0.000000    0.000000  -93.931641   28.553400  -87.728845   94.086510
  0.028817635    0.000000    0.000000    0.000000    0.000000  -93.840295   29.231710  -86.827431 -178.449142
  0.029018036    0.000000    0.000000    0.000000    0.000000  -94.511842   28.350758  -93.282288  -74.801086
  0.029218437    0.000000    0.000000    0.000000    0.000000  -94.763531   25.913876  -95.552171   53.710243
  0.029418838    0.000000    0.000000    0.000000    0.000000  -94.245865   31.869516  -76.272103 -128.144852
  0.029619238    0.000000    0.000000    0.000000    0.000000  -94.332960   31.077179  -82.105186  -47.415459
  0.029819639    0.000000    0.000000    0.000000    0.000000  -94.592483   23.180628  -81.547214  -42.716301
  0.030020040    0.000000    0.000000    0.000000    0.000000  -94.531743   27.305796  -78.071888 -160.641510
  0.030220441    0.000000    0.000000    0.000000    0.000000  -95.013512   24.163225  -87.112313  -75.009010
  0.030420842    0.000000    0.000000    0.000000    0.000000  -94.754460   24.829622  -85.843247 -128.679108
  0.030621242    0.000000    0.000000    0.000000    0.000000  -94.683642   25.594053  -80.229521 -114.285881
  0.030821643    0.000000    0.000000    0.000000    0.000000  -94.580298   25.958199  -89.985735   -5.362958
  0.031022044    0.000000    0.000000    0.000000    0.000000  -95.336065   30.397999  -88.052543 -178.251801
  0.031222445    0.000000    0.000000    0.000000    0.000000  -95.162249   17.915419  -84.243319   86.957901
  0.031422846    0.000000    0.000000    0.000000    0.000000  -95.166639   26.690195  -85.489146 -137.429611
  0.031623246    0.000000    0.000000    0.000000    0.000000  -96.074112   26.083860  -79.468681 -101.005150
  0.031823647    0.000000    0.000000    0.000000    0.000000  -94.784598   17.444487  -80.202293    4.959878
  0.032024048    0.000000    0.000000    0.000000    0.000000  -95.599830   22.008511  -76.305118   86.733826
  0.032224449    0.000000    0.000000    0.000000    0.000000  -95.480013   21.588768  -80.730231  -92.192596
  0.032424850    0.000000    0.000000    0.000000    0.000000  -95.665657   24.740273  -82.984411  -25.649212
  0.032625250    0.000000    0.000000    0.000000    0.000000  -94.721570   22.862818  -75.278106   25.268118
  0.032825651    0.000000    0.000000    0.000000    0.000000  -94.996629   18.806026  -80.270883  -60.724522
  0.033026052    0.000000    0.000000    0.000000    0.000000  -95.801863   28.946947  -87.721199  135.466354
  0.033226453    0.000000    0.000000    0.000000    0.000000  -95.598992   24.579374  -87.882874   58.461582
  0.033426854    0.000000    0.000000    0.000000    0.000000  -95.265687   17.102718  -77.795623   24.778097
  0.033627254    0.000000    0.000000    0.000000    0.000000  -95.648761   19.388174  -80.785463  127.764587
  0.033827655    0.000000    0.000000    0.000000    0.000000  -96.783416   21.408358  -85.334225  161.918976
  0.034028056    0.000000    0.000000    0.000000    0.000000  -95.159305   23.762140  -94.381351   97.920349
  0.034228457    0.000000    0.000000    0.000000    0.000000  -95.327376   18.124811 -101.147538   34.956295
  0.034428858    0.000000    0.000000    0.000000    0.000000  -97.095706   17.955074  -77.290140  139.730072
  0.034629258    0.000000    0.000000    0.000000    0.000000  -96.343642   30.423428  -83.948969  -35.445705
  0.034829659    0.000000    0.000000    0.000000    0.000000  -96.237236   26.247404  -84.725181  176.989380
  0.035030060    0.000000    0.000000    0.000000    0.000000  -96.326240   24.819162  -81.255580 -104.311279
  0.035230461    0.000000    0.000000    0.000000    0.000000  -98.210551   23.674873  -80.892380 -164.201538
  0.035430862    0.000000    0.000000    0.000000    0.000000  -97.259743   26.503336  -92.126059  106.492249
  0.035631262    0.000000    0.000000    0.000000    0.000000  -96.878295   23.220602  -91.196600  169.656433
  0.035831663    0.000000    0.000000    0.000000    0.000000  -96.686817   25.155582  -82.074029   -8.664304
  0.036032064    0.000000    0.000000    0.000000    0.000000  -97.141540   23.092815  -75.245013  -11.969590
  0.036232465    0.000000    0.000000    0.000000    0.000000  -96.576323   24.628721  -89.692219  106.554718
  0.036432866    0.000000    0.000000    0.000000    0.000000  -96.782350   19.477837  -97.502420   79.696075
  0.036633266    0.000000    0.000000    0.000000    0.000000  -96.192280   24.074638  -92.680068 -115.280899
  0.036833667    0.000000    0.000000    0.000000    0.000000  -97.493155   20.932920  -80.775601  -65.120537
  0.037034068    0.000000    0.000000    0.000000    0.000000  -96.880574   27.185745  -81.603748  -47.507851
  0.037234469    0.000000    0.000000    0.000000    0.000000  -97.181384   33.082157  -80.550867  -69.001808
  0.037434870    0.000000    0.000000    0.000000    0.000000  -98.774259   23.510092  -85.226515   78.150467
  0.037635270    0.000000    0.000000    0.000000    0.000000  -97.874124   21.982538  -89.541815 -151.231155
  0.037835671    0.000000    0.000000    0.000000    0.000000  -97.100619   25.304066  -86.886138  147.997696
  0.038036072    0.000000    0.000000    0.000000    0.000000  -97.376204   29.039846  -79.055588   26.744761
  0.038236473    0.000000    0.000000    0.000000    0.000000  -96.731736   20.181574  -78.526109 -107.130013
  0.038436874    0.000000    0.000000    0.000000    0.000000  -97.695645   23.057625  -75.914217 -109.244667
  0.038637274    0.000000    0.000000    0.000000    0.000000  -97.703835   24.803501  -82.500617  -19.771776
  0.038837675    0.000000    0.000000    0.000000    0.000000  -97.468680   26.609661  -83.856268  -78.482918
  0.039038076    0.000000    0.000000    0.000000    0.000000  -98.248089   19.986519  -79.613923  149.469940
  0.039238477    0.000000    0.000000    0.000000    0.000000  -95.755110   25.318716  -82.773465  -61.280903
  0.039438878    0.000000    0.000000    0.000000    0.000000  -96.783872   31.684319  -82.800719  121.155128
  0.039639278    0.000000    0.000000    0.000000    0.000000  -97.591734   29.354589 -111.107821    3.355916
  0.039839679    0.000000    0.000000    0.000000    0.000000 -100.589588   30.177399  -81.642953 -145.593872
  0.040040080    0.000000    0.000000    0.000000    0.000000  -97.548447   26.898712  -79.661265  -66.984612
  0.040240481    0.000000    0.000000    0.000000    0.000000  -98.685063   21.438402  -72.039630   13.905698
  0.040440882    0.000000    0.000000    0.000000    0.000000  -97.011227   26.900932  -79.872562 -127.491753
  0.040641283    0.000000    0.000000    0.000000    0.000000  -97.738850   26.070570  -78.781079   34.737087
  0.040841683    0.000000    0.000000    0.000000    0.000000  -97.647568   27.622017  -91.988293   12.612347
  0.041042084    0.000000    0.000000    0.000000    0.000000  -97.788488   22.228703  -79.569204  -93.722969
  0.041242485    0.000000    0.000000    0.000000    0.000000  -98.417845   31.126490  -77.396635  -23.792086
  0.041442886    0.000000    0.000000    0.000000    0.000000  -97.491187   26.668400  -81.666142  -59.558273
  0.041643287    0.000000    0.000000    0.000000    0.000000  -98.042046   31.773500  -79.054628   78.435654
  0.041843687    0.000000    0.000000    0.000000    0.000000  -98.669449   23.699055  -88.379205  -14.120904
  0.042044088    0.000000    0.000000    0.000000    0.000000  -98.104887   22.356913  -89.400460  100.274475
  0.042244489    0.000000    0.000000    0.000000    0.000000  -98.521689   29.667391  -79.487857  104.426201
  0.042444890    0.000000    0.000000    0.000000    0.000000  -98.251414   27.650932  -91.820151  156.034515
  0.042645291    0.000000    0.000000    0.000000    0.000000  -98.589065   25.567924  -75.074721 -131.800949
  0.042845691    0.000000    0.000000    0.000000    0.000000  -97.868715   42.376225  -88.294304 -119.036591
  0.043046092    0.000000    0.000000    0.000000    0.000000  -98.237945   31.793655  -81.877881  -73.798317
  0.043246493    0.000000    0.000000    0.000000    0.000000  -98.130223   17.750523  -78.159123   28.267088
  0.043446894    0.000000    0.000000    0.000000    0.000000  -99.532371   30.423086  -77.998562   40.211876
  0.043647295    0.000000    0.000000    0.000000    0.000000  -98.380502   29.025221  -84.685859 -147.408890
  0.043847695    0.000000    0.000000    0.000000    0.000000  -98.524912   34.582165  -72.951148    7.563540
  0.044048096    0.000000    0.000000    0.000000    0.000000  -98.476397   37.576458  -87.097439  179.369980
  0.044248497    0.000000    0.000000    0.000000    0.000000  -99.278342   31.058743  -79.375440  -82.175873
  0.044448898    0.000000    0.000000    0.000000    0.000000  -97.769913   31.640083  -90.899835  124.690536
  0.044649299    0.000000    0.000000    0.000000    0.000000  -99.052583   30.743973  -82.640066  -29.576427
  0.044849699    0.000000    0.000000    0.000000    0.000000  -99.883909   28.618822  -85.614590    6.724906
  0.045050100    0.000000    0.000000    0.000000    0.000000  -98.943559   25.270353  -93.993407 -134.494766
  0.045250501    0.000000    0.000000    0.000000    0.000000  -97.844511   40.620350  -79.886402 -135.130966
  0.045450902    0.000000    0.000000    0.000000    0.000000  -98.902273   32.563648  -78.935310   58.365353
  0.045651303    0.000000    0.000000    0.000000    0.000000  -98.592169   29.220871  -82.315740  171.635880
  0.045851703    0.000000    0.000000    0.000000    0.000000  -97.988090   36.801086  -92.947304  -10.309666
  0.046052104    0.000000    0.000000    0.000000    0.000000  -99.373961   30.329632  -84.286822 -129.649063
  0.046252505    0.000000    0.000000    0.000000    0.000000  -98.812266   25.255619  -80.748996   12.283876
  0.046452906    0.000000    0.000000    0.000000    0.000000  -99.591454   45.118740  -93.399746 -157.808212
  0.046653307    0.000000    0.000000    0.000000    0.000000  -98.854291   38.207497  -79.772800  -43.095787
  0.046853707    0.000000    0.000000    0.000000    0.000000  -99.688381   26.318214  -91.311106 -152.964066
  0.047054108    0.000000    0.000000    0.000000    0.000000  -98.520793   38.411694  -79.663786  176.934875
  0.047254509    0.000000    0.000000    0.000000    0.000000  -98.596282   35.574547  -74.513491  144.182907
  0.047454910    0.000000    0.000000    0.000000    0.000000  -98.702168   27.204702  -94.024512  131.664963
  0.047655311    0.000000    0.000000    0.000000    0.000000  -98.330720   26.792427  -74.285784 -101.726082
  0.047855711    0.000000    0.000000    0.000000    0.000000  -99.157249   33.332306  -85.465124   19.968008
  0.048056112    0.000000    0.000000    0.000000    0.000000  -99.175815   28.645845  -79.765903  163.743149
  0.048256513    0.000000    0.000000    0.000000    0.000000 -100.167756   20.517368  -84.496124   14.011688
  0.048456914    0.000000    0.000000    0.000000    0.000000  -98.310778   28.462376  -79.713902 -165.886383
  0.048657315    0.000000    0.000000    0.000000    0.000000  -99.566105   32.042606  -95.764495 -119.458794
  0.048857715    0.000000    0.000000    0.000000    0.000000  -98.612245   35.643536  -92.180367   77.809837
  0.049058116    0.000000    0.000000    0.000000    0.000000  -98.023343   28.613207  -77.653177 -147.512177
  0.049258517    0.000000    0.000000    0.000000    0.000000  -99.416612   33.692238  -81.502600  155.938171
  0.049458918    0.000000    0.000000    0.000000    0.000000  -98.821808   25.791048  -79.220092   78.601990
  0.049659319    0.000000    0.000000    0.000000    0.000000  -99.973716   36.474171  -82.285790  -23.330572
  0.049859719    0.000000    0.000000    0.000000    0.000000  -99.286577   30.412794  -84.874598 -103.118057
  0.050060120    0.000000    0.000000    0.000000    0.000000  -99.159360   31.425848  -94.799939   12.660331
  0.050260521    0.000000    0.000000    0.000000    0.000000  -99.560759   27.902630  -85.477555  -62.930283
  0.050460922    0.000000    0.000000    0.000000    0.000000  -99.251840   31.946995  -75.660421 -147.573273
  0.050661323    0.000000    0.000000    0.000000    0.000000  -99.140953   37.078209  -82.214963   -0.929810
  0.050861723    0.000000    0.000000    0.000000    0.000000  -99.972147   32.477699 -101.092279  113.245689
  0.051062124    0.000000    0.000000    0.000000    0.000000  -98.460864   30.866100  -77.469024  -70.929901
  0.051262525    0.000000    0.000000    0.000000    0.000000  -99.367277   26.041431  -85.289952  125.189224
  0.051462926    0.000000    0.000000    0.000000    0.000000  -99.148486   28.047054  -75.803828   77.799263
  0.051663327    0.000000    0.000000    0.000000    0.000000  -99.386265   26.937679  -85.197949 -106.600273
  0.051863727    0.000000    0.000000    0.000000    0.000000 -100.360213   27.738060  -83.510059   73.433769
  0.052064128    0.000000    0.000000    0.000000    0.000000  -99.592421   38.040638  -82.121861   -6.199635
  0.052264529    0.000000    0.000000    0.000000    0.000000  -98.457341   25.328527  -79.186773   29.392962
  0.052464930    0.000000    0.000000    0.000000    0.000000  -98.240843   30.879778  -85.827091   55.481544
  0.052665331    0.000000    0.000000    0.000000    0.000000  -99.065879   36.216557  -93.750303   79.396637
  0.052865731    0.000000    0.000000    0.000000    0.000000  -99.351604   36.106598  -77.230218  101.142441
