! Anritsu VNA Master:                     Model: MS2036C/10/77
! SN:                                  1601066
! /bd0/18may10/252.ns.m5.s2p
! Existing Calibration Information:
! TYPE:                         Current Settings,       Active Cal Settings
! TIME:             	   05/10/2018 05:42:46 PM,    05/10/2018 05:30:44 PM
! INTERNAL TEMP:    	                   59.0 C,                    57.8 C
! # POINTS:         	                      490,                       490
! START FREQ:       	               20.000 MHz,                20.000 MHz
! STOP FREQ:        	          117.995 991 MHz,           117.995 991 MHz
! SOURCE POWER:     	                     High,                      High
! IFBW:             	                    50 Hz,                     50 Hz
! AVG FACTOR:       	                       1 ,                        1 
! REF PLANE 1:      	                     0 mm,                      0 mm
! REF PLANE 2:      	                     0 mm,                      0 mm
! CAL TYPE:         	                 Full S22,                  Full S22
! CAL METHOD:       	                     SOLT,                      SOLT
! CAL LINE TYPE:    	                     Coax,                      Coax
! DUT PORT 1:       	                K-Conn(M),                 K-Conn(M)
! DUT PORT 2:       	                K-Conn(M),                 K-Conn(M)
! CAL STATUS:       	        OK: Accuracy High,                        --
# GHZ S DB R 50.0
! FREQ.GHZ       S11DB        S11A       S21DB        S21A       S12DB        S12A       S22DB        S22A
  0.020000000    0.000000    0.000000    0.000000    0.000000  -89.272991   33.350971   -0.644325 -125.436890
  0.020200401    0.000000    0.000000    0.000000    0.000000  -89.745037   30.388412   -0.648685 -126.891129
  0.020400802    0.000000    0.000000    0.000000    0.000000  -90.084906   31.466251   -0.651388 -128.354050
  0.020601202    0.000000    0.000000    0.000000    0.000000  -90.270337   34.481953   -0.653925 -129.829453
  0.020801603    0.000000    0.000000    0.000000    0.000000  -90.561682   35.498264   -0.658169 -131.333389
  0.021002004    0.000000    0.000000    0.000000    0.000000  -90.783442   34.307728   -0.659552 -132.839264
  0.021202405    0.000000    0.000000    0.000000    0.000000  -91.263733   34.862698   -0.663586 -134.349976
  0.021402806    0.000000    0.000000    0.000000    0.000000  -91.479198   36.412529   -0.666655 -135.851028
  0.021603206    0.000000    0.000000    0.000000    0.000000  -92.200479   36.653000   -0.668467 -137.359604
  0.021803607    0.000000    0.000000    0.000000    0.000000  -91.996856   37.970737   -0.673634 -138.844223
  0.022004008    0.000000    0.000000    0.000000    0.000000  -91.455184   40.154312   -0.679097 -140.368881
  0.022204409    0.000000    0.000000    0.000000    0.000000  -91.627275   43.752655   -0.684624 -141.878189
  0.022404810    0.000000    0.000000    0.000000    0.000000  -91.981143   40.510323   -0.690745 -143.433411
  0.022605210    0.000000    0.000000    0.000000    0.000000  -91.910495   41.889229   -0.692338 -144.995331
  0.022805611    0.000000    0.000000    0.000000    0.000000  -90.955729   38.831837   -0.695270 -146.563217
  0.023006012    0.000000    0.000000    0.000000    0.000000  -91.689338   43.770638   -0.700060 -148.110504
  0.023206413    0.000000    0.000000    0.000000    0.000000  -91.387372   43.213322   -0.705896 -149.661774
  0.023406814    0.000000    0.000000    0.000000    0.000000  -91.203051   41.495945   -0.709860 -151.221924
  0.023607214    0.000000    0.000000    0.000000    0.000000  -92.012646   38.724487   -0.717376 -152.789627
  0.023807615    0.000000    0.000000    0.000000    0.000000  -91.551618   38.287834   -0.724684 -154.371933
  0.024008016    0.000000    0.000000    0.000000    0.000000  -91.341351   34.353867   -0.732058 -155.973801
  0.024208417    0.000000    0.000000    0.000000    0.000000  -90.648712   33.145271   -0.738810 -157.608658
  0.024408818    0.000000    0.000000    0.000000    0.000000  -91.409295   33.994923   -0.744359 -159.244324
  0.024609218    0.000000    0.000000    0.000000    0.000000  -91.412457   31.504562   -0.750425 -160.873383
  0.024809619    0.000000    0.000000    0.000000    0.000000  -91.623056   30.768230   -0.757898 -162.522964
  0.025010020    0.000000    0.000000    0.000000    0.000000  -91.687148   29.053877   -0.767169 -164.180359
  0.025210421    0.000000    0.000000    0.000000    0.000000  -92.325357   25.638683   -0.777302 -165.851669
  0.025410822    0.000000    0.000000    0.000000    0.000000  -92.268632   25.110117   -0.787206 -167.517685
  0.025611222    0.000000    0.000000    0.000000    0.000000  -92.473179   21.513226   -0.798840 -169.202591
  0.025811623    0.000000    0.000000    0.000000    0.000000  -92.864636   25.166323   -0.809259 -170.911667
  0.026012024    0.000000    0.000000    0.000000    0.000000  -92.848311   25.026487   -0.819671 -172.628906
  0.026212425    0.000000    0.000000    0.000000    0.000000  -92.789554   25.069630   -0.830343 -174.347351
  0.026412826    0.000000    0.000000    0.000000    0.000000  -93.468798   23.383982   -0.843514 -176.083405
  0.026613226    0.000000    0.000000    0.000000    0.000000  -93.982582   24.543919   -0.858385 -177.822632
  0.026813627    0.000000    0.000000    0.000000    0.000000  -93.985354   25.522198   -0.874607 -179.576462
  0.027014028    0.000000    0.000000    0.000000    0.000000  -94.618926   29.513186   -0.890132  178.670502
  0.027214429    0.000000    0.000000    0.000000    0.000000  -95.457325   25.966719   -0.907659  176.908966
  0.027414830    0.000000    0.000000    0.000000    0.000000  -94.553954   30.104298   -0.924034  175.135162
  0.027615230    0.000000    0.000000    0.000000    0.000000  -95.421096   23.861530   -0.941710  173.349716
  0.027815631    0.000000    0.000000    0.000000    0.000000  -94.836902   27.636753   -0.960597  171.561676
  0.028016032    0.000000    0.000000    0.000000    0.000000  -94.437810   28.264791   -0.979852  169.744629
  0.028216433    0.000000    0.000000    0.000000    0.000000  -94.910035   32.833237   -1.001412  167.935455
  0.028416834    0.000000    0.000000    0.000000    0.000000  -94.641514   28.650055   -1.023636  166.110199
  0.028617234    0.000000    0.000000    0.000000    0.000000  -95.061484   35.064804   -1.045203  164.282013
  0.028817635    0.000000    0.000000    0.000000    0.000000  -94.253708   30.520191   -1.067951  162.437332
  0.029018036    0.000000    0.000000    0.000000    0.000000  -93.996509   30.281395   -1.093207  160.606766
  0.029218437    0.000000    0.000000    0.000000    0.000000  -94.742959   31.939238   -1.118493  158.750183
  0.029418838    0.000000    0.000000    0.000000    0.000000  -94.427533   29.268225   -1.146350  156.891724
  0.029619238    0.000000    0.000000    0.000000    0.000000  -93.866898   31.103817   -1.174670  155.004288
  0.029819639    0.000000    0.000000    0.000000    0.000000  -94.316542   27.507904   -1.203439  153.122589
  0.030020040    0.000000    0.000000    0.000000    0.000000  -93.936838   27.364241   -1.233709  151.230865
  0.030220441    0.000000    0.000000    0.000000    0.000000  -93.944040   27.014605   -1.262433  149.346970
  0.030420842    0.000000    0.000000    0.000000    0.000000  -94.572870   30.152376   -1.292039  147.466156
  0.030621242    0.000000    0.000000    0.000000    0.000000  -94.888216   26.066631   -1.325395  145.582687
  0.030821643    0.000000    0.000000    0.000000    0.000000  -94.369340   25.006413   -1.358475  143.695648
  0.031022044    0.000000    0.000000    0.000000    0.000000  -94.655718   23.804651   -1.393869  141.793381
  0.031222445    0.000000    0.000000    0.000000    0.000000  -94.055051   21.280386   -1.424811  139.885986
  0.031422846    0.000000    0.000000    0.000000    0.000000  -93.970705   19.801388   -1.459790  137.957092
  0.031623246    0.000000    0.000000    0.000000    0.000000  -94.438633   22.645844   -1.495956  136.009018
  0.031823647    0.000000    0.000000    0.000000    0.000000  -93.778704   18.509821   -1.527684  134.082932
  0.032024048    0.000000    0.000000    0.000000    0.000000  -95.467288   15.634416   -1.560754  132.143097
  0.032224449    0.000000    0.000000    0.000000    0.000000  -94.909178   19.375395   -1.598286  130.209625
  0.032424850    0.000000    0.000000    0.000000    0.000000  -95.658283   14.143099   -1.633872  128.240158
  0.032625250    0.000000    0.000000    0.000000    0.000000  -95.006865   12.551362   -1.666897  126.272087
  0.032825651    0.000000    0.000000    0.000000    0.000000  -95.378859   22.816807   -1.703073  124.276863
  0.033026052    0.000000    0.000000    0.000000    0.000000  -95.668923   18.815079   -1.737304  122.279938
  0.033226453    0.000000    0.000000    0.000000    0.000000  -95.767506   29.214426   -1.772948  120.265358
  0.033426854    0.000000    0.000000    0.000000    0.000000  -95.963124   20.354694   -1.808177  118.258362
  0.033627254    0.000000    0.000000    0.000000    0.000000  -96.135743   28.619320   -1.846923  116.263123
  0.033827655    0.000000    0.000000    0.000000    0.000000  -96.141032   18.753639   -1.886054  114.253777
  0.034028056    0.000000    0.000000    0.000000    0.000000  -95.131998   20.468534   -1.925768  112.221275
  0.034228457    0.000000    0.000000    0.000000    0.000000  -96.470510   33.553406   -1.966979  110.185005
  0.034428858    0.000000    0.000000    0.000000    0.000000  -95.598088   23.811922   -2.008575  108.124954
  0.034629258    0.000000    0.000000    0.000000    0.000000  -96.909802   27.744585   -2.054071  106.044113
  0.034829659    0.000000    0.000000    0.000000    0.000000  -96.688229   22.782347   -2.098218  103.992805
  0.035030060    0.000000    0.000000    0.000000    0.000000  -96.752645   29.598669   -2.145142  101.899361
  0.035230461    0.000000    0.000000    0.000000    0.000000  -95.581992   25.472582   -2.193442   99.831482
  0.035430862    0.000000    0.000000    0.000000    0.000000  -96.818899   25.399897   -2.240474   97.723053
  0.035631262    0.000000    0.000000    0.000000    0.000000  -96.820250   23.960896   -2.291754   95.648384
  0.035831663    0.000000    0.000000    0.000000    0.000000  -96.473392   26.459846   -2.342471   93.529640
  0.036032064    0.000000    0.000000    0.000000    0.000000  -96.810784   23.251965   -2.393943   91.412636
  0.036232465    0.000000    0.000000    0.000000    0.000000  -96.071763   29.388853   -2.444884   89.316017
  0.036432866    0.000000    0.000000    0.000000    0.000000  -96.557845   20.530798   -2.498052   87.187637
  0.036633266    0.000000    0.000000    0.000000    0.000000  -97.775829   19.139574   -2.549196   85.073341
  0.036833667    0.000000    0.000000    0.000000    0.000000  -96.622561   21.475466   -2.605321   82.937408
  0.037034068    0.000000    0.000000    0.000000    0.000000  -96.749027   26.448490   -2.659188   80.799187
  0.037234469    0.000000    0.000000    0.000000    0.000000  -96.580158   15.441112   -2.715292   78.675842
  0.037434870    0.000000    0.000000    0.000000    0.000000  -97.207475   22.302887   -2.768216   76.531052
  0.037635270    0.000000    0.000000    0.000000    0.000000  -97.773206   27.021002   -2.826663   74.394981
  0.037835671    0.000000    0.000000    0.000000    0.000000  -97.813857   19.562860   -2.886435   72.240845
  0.038036072    0.000000    0.000000    0.000000    0.000000  -97.108567   13.982093   -2.951637   70.087990
  0.038236473    0.000000    0.000000    0.000000    0.000000  -96.964018   20.572187   -3.018803   68.019386
  0.038436874    0.000000    0.000000    0.000000    0.000000  -97.966796   25.351049   -3.073503   65.926895
  0.038637274    0.000000    0.000000    0.000000    0.000000  -98.103590   16.571531   -3.128751   63.807804
  0.038837675    0.000000    0.000000    0.000000    0.000000  -97.839101   28.388441   -3.182305   61.691341
  0.039038076    0.000000    0.000000    0.000000    0.000000  -99.186421   26.151691   -3.234303   59.580326
  0.039238477    0.000000    0.000000    0.000000    0.000000  -96.922363   19.699110   -3.288043   57.482605
  0.039438878    0.000000    0.000000    0.000000    0.000000  -99.448099   30.356335   -3.342354   55.391090
  0.039639278    0.000000    0.000000    0.000000    0.000000  -96.972157   31.077511   -3.400764   53.285374
  0.039839679    0.000000    0.000000    0.000000    0.000000  -98.736882   27.371227   -3.457660   51.182175
  0.040040080    0.000000    0.000000    0.000000    0.000000  -98.267756   21.909834   -3.511390   49.069851
  0.040240481    0.000000    0.000000    0.000000    0.000000  -98.338811   20.638573   -3.563159   46.956657
  0.040440882    0.000000    0.000000    0.000000    0.000000  -98.201255   27.339594   -3.620777   44.905712
  0.040641283    0.000000    0.000000    0.000000    0.000000  -97.084286   27.240448   -3.675253   42.831364
  0.040841683    0.000000    0.000000    0.000000    0.000000  -99.140420   28.531992   -3.731519   40.773010
  0.041042084    0.000000    0.000000    0.000000    0.000000  -97.967918   34.355045   -3.786794   38.736244
  0.041242485    0.000000    0.000000    0.000000    0.000000  -98.619812   29.237789   -3.844184   36.673153
  0.041442886    0.000000    0.000000    0.000000    0.000000  -96.981538   29.560440   -3.901685   34.612480
  0.041643287    0.000000    0.000000    0.000000    0.000000  -97.204148   23.390501   -3.959215   32.552555
  0.041843687    0.000000    0.000000    0.000000    0.000000  -98.522899   29.403275   -4.013095   30.482838
  0.042044088    0.000000    0.000000    0.000000    0.000000  -97.459057   24.621016   -4.068276   28.449238
  0.042244489    0.000000    0.000000    0.000000    0.000000  -98.017074   24.391315   -4.123941   26.389606
  0.042444890    0.000000    0.000000    0.000000    0.000000  -97.984871   23.130714   -4.177857   24.357637
  0.042645291    0.000000    0.000000    0.000000    0.000000  -98.409422   25.561962   -4.235286   22.324787
  0.042845691    0.000000    0.000000    0.000000    0.000000  -98.113572   20.006109   -4.289933   20.289957
  0.043046092    0.000000    0.000000    0.000000    0.000000  -98.064968   20.479464   -4.345793   18.254160
  0.043246493    0.000000    0.000000    0.000000    0.000000  -99.647017   35.300228   -4.398441   16.220102
  0.043446894    0.000000    0.000000    0.000000    0.000000  -99.037969   23.146379   -4.451719   14.195186
  0.043647295    0.000000    0.000000    0.000000    0.000000  -98.346428   26.845497   -4.501795   12.180101
  0.043847695    0.000000    0.000000    0.000000    0.000000  -98.175001   29.677534   -4.552362   10.156475
  0.044048096    0.000000    0.000000    0.000000    0.000000  -98.151925   21.265852   -4.603990    8.155383
  0.044248497    0.000000    0.000000    0.000000    0.000000 -100.386978   37.609421   -4.652396    6.173458
  0.044448898    0.000000    0.000000    0.000000    0.000000  -99.345230   23.860306   -4.701570    4.209439
  0.044649299    0.000000    0.000000    0.000000    0.000000  -99.389667   29.644896   -4.748522    2.222645
  0.044849699    0.000000    0.000000    0.000000    0.000000  -98.003387   40.257473   -4.795038    0.256447
  0.045050100    0.000000    0.000000    0.000000    0.000000 -100.612147   34.097137   -4.840983   -1.693566
  0.045250501    0.000000    0.000000    0.000000    0.000000  -98.816846   31.798065   -4.886132   -3.643817
  0.045450902    0.000000    0.000000    0.000000    0.000000  -97.585965   32.199501   -4.926793   -5.577610
  0.045651303    0.000000    0.000000    0.000000    0.000000  -99.846897   35.462357   -4.970273   -7.522337
  0.045851703    0.000000    0.000000    0.000000    0.000000  -97.659481   27.716055   -5.008751   -9.428456
  0.046052104    0.000000    0.000000    0.000000    0.000000  -97.548668   33.217228   -5.046877  -11.331911
  0.046252505    0.000000    0.000000    0.000000    0.000000  -99.758639   30.023701   -5.086167  -13.217700
  0.046452906    0.000000    0.000000    0.000000    0.000000  -98.408881   33.676491   -5.123917  -15.082727
  0.046653307    0.000000    0.000000    0.000000    0.000000  -99.523373   32.328579   -5.160172  -16.950884
  0.046853707    0.000000    0.000000    0.000000    0.000000  -97.683893   28.930304   -5.193707  -18.820194
  0.047054108    0.000000    0.000000    0.000000    0.000000 -100.778348   28.697060   -5.228086  -20.681688
  0.047254509    0.000000    0.000000    0.000000    0.000000  -99.927018   24.717390   -5.260299  -22.545542
  0.047454910    0.000000    0.000000    0.000000    0.000000 -100.867565   31.103415   -5.288685  -24.377834
  0.047655311    0.000000    0.000000    0.000000    0.000000  -98.741694   30.825481   -5.318395  -26.229361
  0.047855711    0.000000    0.000000    0.000000    0.000000  -98.657309   27.002939   -5.347986  -28.004505
  0.048056112    0.000000    0.000000    0.000000    0.000000  -99.125282   32.352818   -5.380940  -29.799862
  0.048256513    0.000000    0.000000    0.000000    0.000000  -98.243576   31.760359   -5.406551  -31.591360
  0.048456914    0.000000    0.000000    0.000000    0.000000  -97.823560   28.407249   -5.435660  -33.372742
  0.048657315    0.000000    0.000000    0.000000    0.000000  -98.384234   26.904673   -5.460345  -35.148449
  0.048857715    0.000000    0.000000    0.000000    0.000000  -98.777133   33.754337   -5.486811  -36.918713
  0.049058116    0.000000    0.000000    0.000000    0.000000  -99.317940   28.376209   -5.507716  -38.694206
  0.049258517    0.000000    0.000000    0.000000    0.000000  -99.767400   30.122944   -5.531076  -40.427895
  0.049458918    0.000000    0.000000    0.000000    0.000000  -98.926163   42.988552   -5.557324  -42.142494
  0.049659319    0.000000    0.000000    0.000000    0.000000 -100.200208   27.495960   -5.577896  -43.861217
  0.049859719    0.000000    0.000000    0.000000    0.000000  -98.609507   39.073025   -5.602172  -45.574276
  0.050060120    0.000000    0.000000    0.000000    0.000000 -100.687259   42.221447   -5.626016  -47.257202
  0.050260521    0.000000    0.000000    0.000000    0.000000  -99.800409   37.260628   -5.645680  -48.947727
  0.050460922    0.000000    0.000000    0.000000    0.000000  -99.687188   32.866188   -5.664325  -50.645744
  0.050661323    0.000000    0.000000    0.000000    0.000000  -98.871008   24.541088   -5.682714  -52.312160
  0.050861723    0.000000    0.000000    0.000000    0.000000  -99.345203   25.544432   -5.701098  -53.979717
  0.051062124    0.000000    0.000000    0.000000    0.000000  -97.342041   35.957664   -5.718629  -55.627483
  0.051262525    0.000000    0.000000    0.000000    0.000000  -98.409147   36.721527   -5.741448  -57.260887
  0.051462926    0.000000    0.000000    0.000000    0.000000  -98.736709   31.905859   -5.759140  -58.874176
  0.051663327    0.000000    0.000000    0.000000    0.000000  -99.595593   32.731384   -5.776437  -60.494247
  0.051863727    0.000000    0.000000    0.000000    0.000000  -99.466229   32.420261   -5.793087  -62.114048
  0.052064128    0.000000    0.000000    0.000000    0.000000  -98.254939   33.804913   -5.807502  -63.726681
  0.052264529    0.000000    0.000000    0.000000    0.000000  -98.023973   34.950558   -5.822719  -65.314316
  0.052464930    0.000000    0.000000    0.000000    0.000000  -97.263340   34.724880   -5.834642  -66.920807
  0.052665331    0.000000    0.000000    0.000000    0.000000  -98.461423   21.917227   -5.851809  -68.505981
  0.052865731    0.000000    0.000000    0.000000    0.000000  -98.451020   31.805595   -5.867029  -70.067139
