! Anritsu VNA Master:                 Model: MS2034B/10/19/501
! SN:                                  1337062
! /bd0/ant252v3-a1-s11.s2p
! Existing Calibration Information:
! TYPE:                         Current Settings,       Active Cal Settings
! TIME:             	   01/14/2016 05:08:07 PM,    01/14/2016 04:54:38 PM
! INTERNAL TEMP:    	                   39.8 C,                    38.5 C
! # POINTS:         	                      168,                       500
! START FREQ:       	               10.000 MHz,                10.000 MHz
! STOP FREQ:        	              110.000 MHz,               110.000 MHz
! SOURCE POWER:     	                     High,                      High
! IFBW:             	                   100 Hz,                    100 Hz
! AVG FACTOR:       	                       4 ,                        4 
! REF PLANE 1:      	                     0 mm,                      0 mm
! REF PLANE 2:      	                     0 mm,                      0 mm
! CAL TYPE:         	                 Full S11,                  Full S11
! CAL METHOD:       	                     SOLT,                      SOLT
! CAL LINE TYPE:    	                     Coax,                      Coax
! DUT PORT 1:       	                K-Conn(M),                 K-Conn(M)
! DUT PORT 2:       	                N-Conn(M),                 N-Conn(M)
! CAL STATUS:       	        OK: Accuracy High,                        --
# GHZ S DB R 50.0
! FREQ.GHZ       S11DB        S11A       S21DB        S21A       S12DB        S12A       S22DB        S22A
  0.010000000   -0.570616  -46.528740 -105.161881  139.526199    0.000000    0.000000    0.000000    0.000000
  0.010598802   -0.531963  -49.390038 -104.380438  138.771057    0.000000    0.000000    0.000000    0.000000
  0.011197605   -0.538524  -52.350513 -102.828970  146.912079    0.000000    0.000000    0.000000    0.000000
  0.011796407   -0.547046  -55.294914 -103.258022  141.137054    0.000000    0.000000    0.000000    0.000000
  0.012395210   -0.538055  -58.483986 -101.803121  139.582901    0.000000    0.000000    0.000000    0.000000
  0.012994012   -0.548931  -61.454601 -102.235052  131.627945    0.000000    0.000000    0.000000    0.000000
  0.013592814   -0.545149  -64.632713 -103.169926  133.917450    0.000000    0.000000    0.000000    0.000000
  0.014191617   -0.547470  -67.861580 -104.062883  133.982178    0.000000    0.000000    0.000000    0.000000
  0.014790419   -0.516364  -70.957855 -106.063297  127.800041    0.000000    0.000000    0.000000    0.000000
  0.015389222   -0.510278  -73.991325 -105.600979  131.174881    0.000000    0.000000    0.000000    0.000000
  0.015988024   -0.526563  -77.133606 -106.104733  135.562347    0.000000    0.000000    0.000000    0.000000
  0.016586826   -0.532560  -80.401657 -107.564435  135.116135    0.000000    0.000000    0.000000    0.000000
  0.017185629   -0.538657  -83.695755 -106.657968  139.221313    0.000000    0.000000    0.000000    0.000000
  0.017784431   -0.536127  -87.150414 -107.779174  137.246155    0.000000    0.000000    0.000000    0.000000
  0.018383234   -0.524361  -90.595337 -105.261902  151.350418    0.000000    0.000000    0.000000    0.000000
  0.018982036   -0.507358  -94.077454 -105.767992  142.627548    0.000000    0.000000    0.000000    0.000000
  0.019580838   -0.491589  -97.568985 -104.234987  130.448654    0.000000    0.000000    0.000000    0.000000
  0.020179641   -0.482494 -101.063148 -104.769446  142.692108    0.000000    0.000000    0.000000    0.000000
  0.020778443   -0.482029 -104.622925 -103.484614  137.659531    0.000000    0.000000    0.000000    0.000000
  0.021377246   -0.503359 -108.263596 -103.330645  138.196701    0.000000    0.000000    0.000000    0.000000
  0.021976048   -0.501930 -112.127274 -105.292439  137.312225    0.000000    0.000000    0.000000    0.000000
  0.022574850   -0.500110 -115.940071 -104.831513  136.172363    0.000000    0.000000    0.000000    0.000000
  0.023173653   -0.523407 -119.706772 -106.333218  137.091599    0.000000    0.000000    0.000000    0.000000
  0.023772455   -0.547639 -123.625740 -105.365378  144.017334    0.000000    0.000000    0.000000    0.000000
  0.024371257   -0.564764 -127.592728 -105.574807  138.270966    0.000000    0.000000    0.000000    0.000000
  0.024970060   -0.578881 -131.557892 -107.533922  138.815109    0.000000    0.000000    0.000000    0.000000
  0.025568862   -0.635665 -135.634766 -106.695844  140.100494    0.000000    0.000000    0.000000    0.000000
  0.026167665   -0.678884 -139.997879 -105.942558  134.494797    0.000000    0.000000    0.000000    0.000000
  0.026766467   -0.706705 -144.442764 -104.784324  144.871429    0.000000    0.000000    0.000000    0.000000
  0.027365269   -0.743440 -148.854034 -105.040435  137.286346    0.000000    0.000000    0.000000    0.000000
  0.027964072   -0.787756 -153.426956 -105.762098  148.411011    0.000000    0.000000    0.000000    0.000000
  0.028562874   -0.853662 -158.108307 -106.270767  140.809402    0.000000    0.000000    0.000000    0.000000
  0.029161677   -0.914535 -162.782471 -105.216949  141.707581    0.000000    0.000000    0.000000    0.000000
  0.029760479   -0.998976 -167.604584 -105.438880  134.450974    0.000000    0.000000    0.000000    0.000000
  0.030359281   -1.090118 -172.515060 -105.786580  146.150940    0.000000    0.000000    0.000000    0.000000
  0.030958084   -1.177086 -177.523941 -105.872946  143.610703    0.000000    0.000000    0.000000    0.000000
  0.031556886   -1.277823  177.420273 -106.121178  144.029099    0.000000    0.000000    0.000000    0.000000
  0.032155689   -1.388277  172.278137 -106.974679  144.839996    0.000000    0.000000    0.000000    0.000000
  0.032754491   -1.512134  167.064194 -107.662777  146.986191    0.000000    0.000000    0.000000    0.000000
  0.033353293   -1.652784  161.710312 -106.806500  139.087112    0.000000    0.000000    0.000000    0.000000
  0.033952096   -1.781125  156.221268 -106.370400  141.492416    0.000000    0.000000    0.000000    0.000000
  0.034550898   -1.919263  150.799713 -105.895606  140.521942    0.000000    0.000000    0.000000    0.000000
  0.035149701   -2.019789  147.158615 -105.428519  139.866684    0.000000    0.000000    0.000000    0.000000
  0.035748503   -2.195553  141.561966 -106.505069  141.737686    0.000000    0.000000    0.000000    0.000000
  0.036347305   -2.360529  135.919495 -104.482314  138.252319    0.000000    0.000000    0.000000    0.000000
  0.036946108   -2.529161  130.308731 -103.941887  135.456070    0.000000    0.000000    0.000000    0.000000
  0.037544910   -2.726414  124.523407 -104.771047  136.372116    0.000000    0.000000    0.000000    0.000000
  0.038143713   -2.936505  118.734940 -104.823306  129.153076    0.000000    0.000000    0.000000    0.000000
  0.038742515   -3.084699  113.192253 -105.100792  136.281677    0.000000    0.000000    0.000000    0.000000
  0.039341317   -3.278676  107.503441 -104.919722  139.976715    0.000000    0.000000    0.000000    0.000000
  0.039940120   -3.469750  101.955437 -105.619038  138.694229    0.000000    0.000000    0.000000    0.000000
  0.040538922   -3.667822   96.257423 -105.940973  136.837341    0.000000    0.000000    0.000000    0.000000
  0.041137725   -3.859093   90.550316 -105.701420  142.968552    0.000000    0.000000    0.000000    0.000000
  0.041736527   -4.031621   84.855385 -106.091464  130.742691    0.000000    0.000000    0.000000    0.000000
  0.042335329   -4.185980   79.258652 -104.804734  135.864166    0.000000    0.000000    0.000000    0.000000
  0.042934132   -4.337677   73.728447 -104.092030  134.876450    0.000000    0.000000    0.000000    0.000000
  0.043532934   -4.465809   68.323074 -105.054364  145.082855    0.000000    0.000000    0.000000    0.000000
  0.044131737   -4.600690   63.103508 -104.621899  133.787979    0.000000    0.000000    0.000000    0.000000
  0.044730539   -4.743895   57.811737 -106.025999  140.278152    0.000000    0.000000    0.000000    0.000000
  0.045329341   -4.871027   52.560684 -104.418148  139.296112    0.000000    0.000000    0.000000    0.000000
  0.045928144   -4.987349   47.484821 -106.203026  138.651413    0.000000    0.000000    0.000000    0.000000
  0.046526946   -5.074508   42.435040 -106.017860  141.677277    0.000000    0.000000    0.000000    0.000000
  0.047125749   -5.171167   37.516685 -105.392193  148.903275    0.000000    0.000000    0.000000    0.000000
  0.047724551   -5.251193   32.612736 -107.025309  144.961624    0.000000    0.000000    0.000000    0.000000
  0.048323353   -5.313238   27.884596 -107.291099  147.414520    0.000000    0.000000    0.000000    0.000000
  0.048922156   -5.379389   23.255486 -105.823259  139.770523    0.000000    0.000000    0.000000    0.000000
  0.049520958   -5.439161   18.633955 -105.616401  142.506592    0.000000    0.000000    0.000000    0.000000
  0.050119760   -5.462297   14.087143 -106.851341  149.333832    0.000000    0.000000    0.000000    0.000000
  0.050718563   -5.502137    9.670422 -104.603083  143.862213    0.000000    0.000000    0.000000    0.000000
  0.051317365   -5.522026    5.439811 -106.351354  148.194183    0.000000    0.000000    0.000000    0.000000
  0.051916168   -5.533268    1.265463 -106.943655  144.626007    0.000000    0.000000    0.000000    0.000000
  0.052514970   -5.540733   -2.823900 -105.304626  145.098068    0.000000    0.000000    0.000000    0.000000
  0.053113772   -5.539604   -6.676016 -106.234421  139.661804    0.000000    0.000000    0.000000    0.000000
  0.053712575   -5.538073  -10.475961 -107.580659  137.040115    0.000000    0.000000    0.000000    0.000000
  0.054311377   -5.541359  -14.082216 -107.854197  138.335831    0.000000    0.000000    0.000000    0.000000
  0.054910180   -5.540795  -17.650137 -106.649873  140.867981    0.000000    0.000000    0.000000    0.000000
  0.055508982   -5.551540  -21.094061 -106.419035  135.056763    0.000000    0.000000    0.000000    0.000000
  0.056107784   -5.555299  -24.501431 -105.400486  135.581543    0.000000    0.000000    0.000000    0.000000
  0.056706587   -5.564578  -27.824415 -108.413203  137.624985    0.000000    0.000000    0.000000    0.000000
  0.057305389   -5.567814  -31.105604 -107.906693  142.017593    0.000000    0.000000    0.000000    0.000000
  0.057904192   -5.557261  -34.305988 -106.733958  152.694168    0.000000    0.000000    0.000000    0.000000
  0.058502994   -5.552286  -37.294262 -105.654279  151.666077    0.000000    0.000000    0.000000    0.000000
  0.059101796   -5.556663  -40.305710 -106.690813  157.095413    0.000000    0.000000    0.000000    0.000000
  0.059700599   -5.568057  -43.265533 -106.460651  145.206161    0.000000    0.000000    0.000000    0.000000
  0.060299401   -5.569057  -46.352829 -107.356731  154.906860    0.000000    0.000000    0.000000    0.000000
  0.060898204   -5.563563  -49.204536 -105.354319  143.851334    0.000000    0.000000    0.000000    0.000000
  0.061497006   -5.561113  -52.075344 -107.136478  153.112946    0.000000    0.000000    0.000000    0.000000
  0.062095808   -5.545050  -54.911694 -106.367112  154.127121    0.000000    0.000000    0.000000    0.000000
  0.062694611   -5.518051  -57.500233 -106.643914  154.050751    0.000000    0.000000    0.000000    0.000000
  0.063293413   -5.510399  -59.958897 -105.995958  148.164963    0.000000    0.000000    0.000000    0.000000
  0.063892216   -5.521445  -62.558372 -108.011522  145.091812    0.000000    0.000000    0.000000    0.000000
  0.064491018   -5.524304  -65.030159 -106.999948  145.827271    0.000000    0.000000    0.000000    0.000000
  0.065089820   -5.517065  -67.463699 -108.269447  152.262329    0.000000    0.000000    0.000000    0.000000
  0.065688623   -5.516937  -69.854645 -107.144808  156.164032    0.000000    0.000000    0.000000    0.000000
  0.066287425   -5.511280  -72.197647 -106.074463  136.239471    0.000000    0.000000    0.000000    0.000000
  0.066886228   -5.501400  -74.492363 -105.319568  148.196487    0.000000    0.000000    0.000000    0.000000
  0.067485030   -5.492705  -76.597420 -105.572674  144.400955    0.000000    0.000000    0.000000    0.000000
  0.068083832   -5.493264  -78.639671 -105.767991  140.327164    0.000000    0.000000    0.000000    0.000000
  0.068682635   -5.516798  -80.704620 -107.786749  151.755814    0.000000    0.000000    0.000000    0.000000
  0.069281437   -5.532776  -82.805618 -105.569631  147.658203    0.000000    0.000000    0.000000    0.000000
  0.069880240   -5.554041  -84.902390 -106.011059  146.635208    0.000000    0.000000    0.000000    0.000000
  0.070479042   -5.568826  -86.998764 -107.478637  163.343903    0.000000    0.000000    0.000000    0.000000
  0.071077844   -5.575238  -89.067085 -107.015808  142.076569    0.000000    0.000000    0.000000    0.000000
  0.071676647   -5.566290  -90.894333 -107.002097  142.673492    0.000000    0.000000    0.000000    0.000000
  0.072275449   -5.590562  -92.729546 -106.217622  149.384399    0.000000    0.000000    0.000000    0.000000
  0.072874251   -5.622870  -94.505402 -106.326926  145.612045    0.000000    0.000000    0.000000    0.000000
  0.073473054   -5.665201  -96.362900 -106.618194  141.955750    0.000000    0.000000    0.000000    0.000000
  0.074071856   -5.708488  -98.406219 -105.962240  148.001999    0.000000    0.000000    0.000000    0.000000
  0.074670659   -5.741209 -100.347412 -106.082836  144.972473    0.000000    0.000000    0.000000    0.000000
  0.075269461   -5.772587 -102.264847 -107.538015  153.079636    0.000000    0.000000    0.000000    0.000000
  0.075868263   -5.799965 -104.098595 -108.304123  152.750839    0.000000    0.000000    0.000000    0.000000
  0.076467066   -5.839071 -105.883720 -107.626160  148.743927    0.000000    0.000000    0.000000    0.000000
  0.077065868   -5.879152 -107.649200 -105.755584  141.448212    0.000000    0.000000    0.000000    0.000000
  0.077664671   -5.924657 -109.378342 -104.748870  136.277893    0.000000    0.000000    0.000000    0.000000
  0.078263473   -5.980427 -111.157982 -104.972609  144.426819    0.000000    0.000000    0.000000    0.000000
  0.078862275   -6.032936 -112.993599 -105.276984  148.676575    0.000000    0.000000    0.000000    0.000000
  0.079461078   -6.062340 -114.867920 -105.767969  139.734726    0.000000    0.000000    0.000000    0.000000
  0.080059880   -6.123987 -116.546646 -106.867003  146.145905    0.000000    0.000000    0.000000    0.000000
  0.080658683   -6.157092 -118.205742 -106.026819  147.875229    0.000000    0.000000    0.000000    0.000000
  0.081257485   -6.195857 -119.688972 -106.631412  149.070511    0.000000    0.000000    0.000000    0.000000
  0.081856287   -6.258706 -121.305855 -106.983273  149.817169    0.000000    0.000000    0.000000    0.000000
  0.082455090   -6.332094 -122.665611 -106.799322  142.876404    0.000000    0.000000    0.000000    0.000000
  0.083053892   -6.414630 -124.249557 -105.730720  142.238495    0.000000    0.000000    0.000000    0.000000
  0.083652695   -6.473383 -125.954224 -106.824884  135.614410    0.000000    0.000000    0.000000    0.000000
  0.084251497   -6.536345 -127.474167 -106.690504  143.517349    0.000000    0.000000    0.000000    0.000000
  0.084850299   -6.595075 -128.927704 -106.100229  149.087784    0.000000    0.000000    0.000000    0.000000
  0.085449102   -6.642013 -129.816971 -105.830697  144.054428    0.000000    0.000000    0.000000    0.000000
  0.086047904   -6.716338 -131.233643 -107.602472  152.621002    0.000000    0.000000    0.000000    0.000000
  0.086646707   -6.786261 -132.552444 -106.798496  153.048889    0.000000    0.000000    0.000000    0.000000
  0.087245509   -6.876626 -133.847031 -106.805839  142.641006    0.000000    0.000000    0.000000    0.000000
  0.087844311   -6.969414 -135.120300 -107.386950  145.042374    0.000000    0.000000    0.000000    0.000000
  0.088443114   -7.066238 -136.461472 -105.225335  143.093658    0.000000    0.000000    0.000000    0.000000
  0.089041916   -7.144797 -137.689896 -106.371540  135.849792    0.000000    0.000000    0.000000    0.000000
  0.089640719   -7.244241 -138.853027 -106.563269  143.161865    0.000000    0.000000    0.000000    0.000000
  0.090239521   -7.318773 -139.839188 -104.451716  130.839493    0.000000    0.000000    0.000000    0.000000
  0.090838323   -7.422931 -140.797897 -105.559265  136.749939    0.000000    0.000000    0.000000    0.000000
  0.091437126   -7.531160 -141.712463 -105.445245  135.738724    0.000000    0.000000    0.000000    0.000000
  0.092035928   -7.664420 -142.566269 -106.620026  141.351654    0.000000    0.000000    0.000000    0.000000
  0.092634731   -7.785373 -143.491180 -105.720290  142.712280    0.000000    0.000000    0.000000    0.000000
  0.093233533   -7.912626 -144.386566 -105.005472  137.495712    0.000000    0.000000    0.000000    0.000000
  0.093832335   -8.000657 -145.272522 -107.063054  146.760056    0.000000    0.000000    0.000000    0.000000
  0.094431138   -8.101912 -146.023712 -104.888655  133.207916    0.000000    0.000000    0.000000    0.000000
  0.095029940   -8.210584 -146.696564 -105.769319  138.620834    0.000000    0.000000    0.000000    0.000000
  0.095628743   -8.310826 -147.407562 -105.010093  135.631073    0.000000    0.000000    0.000000    0.000000
  0.096227545   -8.401636 -148.008499 -105.445268  133.611771    0.000000    0.000000    0.000000    0.000000
  0.096826347   -8.496679 -148.526382 -105.970770  142.743454    0.000000    0.000000    0.000000    0.000000
  0.097425150   -8.582772 -149.173416 -105.877268  144.499100    0.000000    0.000000    0.000000    0.000000
  0.098023952   -8.642767 -149.806046 -106.012958  140.839996    0.000000    0.000000    0.000000    0.000000
  0.098622754   -8.696600 -150.321442 -106.270022  137.336960    0.000000    0.000000    0.000000    0.000000
  0.099221557   -8.736912 -150.735428 -105.247207  132.947617    0.000000    0.000000    0.000000    0.000000
  0.099820359   -8.755323 -151.019821 -105.884353  144.236404    0.000000    0.000000    0.000000    0.000000
  0.100419162   -8.772917 -151.620026 -107.471670  145.348816    0.000000    0.000000    0.000000    0.000000
  0.101017964   -8.794729 -151.811630 -106.732549  142.680679    0.000000    0.000000    0.000000    0.000000
  0.101616766   -8.819819 -152.102829 -105.366302  136.682907    0.000000    0.000000    0.000000    0.000000
  0.102215569   -8.841437 -152.587540 -105.264698  136.377335    0.000000    0.000000    0.000000    0.000000
  0.102814371   -8.840436 -153.130066 -106.531285  132.857376    0.000000    0.000000    0.000000    0.000000
  0.103413174   -8.803390 -153.663116 -107.794780  162.409088    0.000000    0.000000    0.000000    0.000000
  0.104011976   -8.792074 -154.133636 -104.420630  135.053116    0.000000    0.000000    0.000000    0.000000
  0.104610778   -8.772197 -154.688995 -105.648894  144.181992    0.000000    0.000000    0.000000    0.000000
  0.105209581   -8.739871 -155.314713 -106.694249  147.906631    0.000000    0.000000    0.000000    0.000000
  0.105808383   -8.719305 -156.018402 -105.763825  132.025085    0.000000    0.000000    0.000000    0.000000
  0.106407186   -8.695457 -156.753448 -108.579007  155.711655    0.000000    0.000000    0.000000    0.000000
  0.107005988   -8.665147 -157.635651 -105.592898  132.843796    0.000000    0.000000    0.000000    0.000000
  0.107604790   -8.627414 -158.590256 -106.644301  154.517700    0.000000    0.000000    0.000000    0.000000
  0.108203593   -8.586422 -159.604828 -107.251415  144.787521    0.000000    0.000000    0.000000    0.000000
