! Anritsu VNA Master:                 Model: MS2034B/10/19/501
! SN:                                  1337062
! /bd0/ovro-jan-2016/vna-jan/vna-ant252-a2-s11-3.s2p
! Existing Calibration Information:
! TYPE:                         Current Settings,       Active Cal Settings
! TIME:             	   01/13/2016 06:17:48 PM,    01/13/2016 06:15:05 PM
! INTERNAL TEMP:    	                   41.8 C,                    42.3 C
! # POINTS:         	                      500,                       500
! START FREQ:       	               10.000 MHz,                10.000 MHz
! STOP FREQ:        	              110.000 MHz,               110.000 MHz
! SOURCE POWER:     	                     High,                      High
! IFBW:             	                   100 Hz,                    100 Hz
! AVG FACTOR:       	                       4 ,                        4 
! REF PLANE 1:      	                     0 mm,                      0 mm
! REF PLANE 2:      	                     0 mm,                      0 mm
! CAL TYPE:         	                 Full S11,                  Full S11
! CAL METHOD:       	                     SOLT,                      SOLT
! CAL LINE TYPE:    	                     Coax,                      Coax
! DUT PORT 1:       	                K-Conn(M),                 K-Conn(M)
! DUT PORT 2:       	                N-Conn(M),                 N-Conn(M)
! CAL STATUS:       	        OK: Accuracy High,                        --
# GHZ S DB R 50.0
! FREQ.GHZ       S11DB        S11A       S21DB        S21A       S12DB        S12A       S22DB        S22A
  0.010000000   -0.612369  -46.538109 -106.142297  141.098206    0.000000    0.000000    0.000000    0.000000
  0.010200401   -0.595652  -47.560825 -104.662847  148.119202    0.000000    0.000000    0.000000    0.000000
  0.010400802   -0.586115  -48.561050 -105.385548  153.775009    0.000000    0.000000    0.000000    0.000000
  0.010601202   -0.567042  -49.459240 -104.210791  141.000244    0.000000    0.000000    0.000000    0.000000
  0.010801603   -0.574084  -50.481636 -102.629602  142.874985    0.000000    0.000000    0.000000    0.000000
  0.011002004   -0.563676  -51.403542 -103.813377  148.312103    0.000000    0.000000    0.000000    0.000000
  0.011202405   -0.573890  -52.486385 -102.840473  141.546143    0.000000    0.000000    0.000000    0.000000
  0.011402806   -0.572318  -53.453465 -102.246794  150.374390    0.000000    0.000000    0.000000    0.000000
  0.011603206   -0.574983  -54.491104 -102.234206  140.979141    0.000000    0.000000    0.000000    0.000000
  0.011803607   -0.574629  -55.438648 -104.031193  144.250793    0.000000    0.000000    0.000000    0.000000
  0.012004008   -0.573196  -56.540405 -103.558690  143.523087    0.000000    0.000000    0.000000    0.000000
  0.012204409   -0.564832  -57.584534 -102.284629  142.310501    0.000000    0.000000    0.000000    0.000000
  0.012404810   -0.556144  -58.650208 -102.501782  134.889709    0.000000    0.000000    0.000000    0.000000
  0.012605210   -0.561000  -59.623199 -101.547653  144.121597    0.000000    0.000000    0.000000    0.000000
  0.012805611   -0.554568  -60.645947 -102.434815  134.911301    0.000000    0.000000    0.000000    0.000000
  0.013006012   -0.567055  -61.611763 -103.826295  137.672318    0.000000    0.000000    0.000000    0.000000
  0.013206413   -0.556790  -62.687927 -103.956288  134.298035    0.000000    0.000000    0.000000    0.000000
  0.013406814   -0.553114  -63.731136 -103.353069  140.782623    0.000000    0.000000    0.000000    0.000000
  0.013607214   -0.553127  -64.787674 -103.847452  141.071686    0.000000    0.000000    0.000000    0.000000
  0.013807615   -0.551090  -65.868904 -104.062175  124.139641    0.000000    0.000000    0.000000    0.000000
  0.014008016   -0.547958  -66.926445 -102.924208  124.440033    0.000000    0.000000    0.000000    0.000000
  0.014208417   -0.559238  -68.022583 -103.984417  135.292725    0.000000    0.000000    0.000000    0.000000
  0.014408818   -0.533373  -69.063011 -103.817450  137.404556    0.000000    0.000000    0.000000    0.000000
  0.014609218   -0.530053  -70.090485 -103.948367  124.873039    0.000000    0.000000    0.000000    0.000000
  0.014809619   -0.521668  -71.133293 -105.477092  139.350250    0.000000    0.000000    0.000000    0.000000
  0.015010020   -0.515914  -72.152397 -104.432037  124.435066    0.000000    0.000000    0.000000    0.000000
  0.015210421   -0.516118  -73.131058 -105.585111  134.098206    0.000000    0.000000    0.000000    0.000000
  0.015410822   -0.514061  -74.180817 -106.873612  137.905792    0.000000    0.000000    0.000000    0.000000
  0.015611222   -0.526783  -75.314560 -106.366762  133.472992    0.000000    0.000000    0.000000    0.000000
  0.015811623   -0.522317  -76.288467 -105.479310  130.899475    0.000000    0.000000    0.000000    0.000000
  0.016012024   -0.523709  -77.353111 -107.303060  138.188080    0.000000    0.000000    0.000000    0.000000
  0.016212425   -0.529507  -78.445999 -106.912126  128.683167    0.000000    0.000000    0.000000    0.000000
  0.016412826   -0.529448  -79.544968 -107.391885  131.252090    0.000000    0.000000    0.000000    0.000000
  0.016613226   -0.530419  -80.635101 -107.677519  139.503738    0.000000    0.000000    0.000000    0.000000
  0.016813627   -0.533869  -81.813873 -107.326597  140.912460    0.000000    0.000000    0.000000    0.000000
  0.017014028   -0.530585  -82.884850 -107.354620  148.114899    0.000000    0.000000    0.000000    0.000000
  0.017214429   -0.535174  -84.015846 -108.215414  147.943802    0.000000    0.000000    0.000000    0.000000
  0.017414830   -0.536786  -85.170853 -107.904218  142.636337    0.000000    0.000000    0.000000    0.000000
  0.017615230   -0.539667  -86.321243 -106.435045  148.106094    0.000000    0.000000    0.000000    0.000000
  0.017815631   -0.535265  -87.500206 -107.734009  139.779358    0.000000    0.000000    0.000000    0.000000
  0.018016032   -0.528329  -88.719910 -105.959843  150.754379    0.000000    0.000000    0.000000    0.000000
  0.018216433   -0.527676  -89.866379 -106.701542  149.082016    0.000000    0.000000    0.000000    0.000000
  0.018416834   -0.522347  -91.019653 -104.920058  146.048309    0.000000    0.000000    0.000000    0.000000
  0.018617234   -0.513005  -92.190018 -106.266389  147.815094    0.000000    0.000000    0.000000    0.000000
  0.018817635   -0.506153  -93.341980 -106.358075  146.086548    0.000000    0.000000    0.000000    0.000000
  0.019018036   -0.503637  -94.553535 -104.944356  146.250610    0.000000    0.000000    0.000000    0.000000
  0.019218437   -0.490820  -95.719734 -106.027812  145.813644    0.000000    0.000000    0.000000    0.000000
  0.019418838   -0.490364  -96.922997 -104.521885  141.516418    0.000000    0.000000    0.000000    0.000000
  0.019619238   -0.487490  -98.083534 -106.104662  147.354233    0.000000    0.000000    0.000000    0.000000
  0.019819639   -0.479766  -99.264992 -104.156993  145.346466    0.000000    0.000000    0.000000    0.000000
  0.020020040   -0.477818 -100.455414 -104.110490  151.872269    0.000000    0.000000    0.000000    0.000000
  0.020220441   -0.473954 -101.615326 -104.102186  143.592102    0.000000    0.000000    0.000000    0.000000
  0.020420842   -0.468504 -102.774757 -104.445705  146.619537    0.000000    0.000000    0.000000    0.000000
  0.020621242   -0.466818 -103.934448 -104.818043  144.309479    0.000000    0.000000    0.000000    0.000000
  0.020821643   -0.472441 -105.181877 -104.486472  146.723648    0.000000    0.000000    0.000000    0.000000
  0.021022044   -0.481518 -106.340012 -106.902486  143.917542    0.000000    0.000000    0.000000    0.000000
  0.021222445   -0.485354 -107.623756 -104.900866  139.477814    0.000000    0.000000    0.000000    0.000000
  0.021422846   -0.492227 -108.882721 -104.694097  134.875366    0.000000    0.000000    0.000000    0.000000
  0.021623246   -0.493882 -110.132599 -104.881372  144.498749    0.000000    0.000000    0.000000    0.000000
  0.021823647   -0.496078 -111.399384 -104.953294  147.063705    0.000000    0.000000    0.000000    0.000000
  0.022024048   -0.489790 -112.760643 -104.403083  145.660553    0.000000    0.000000    0.000000    0.000000
  0.022224449   -0.491825 -114.033012 -105.040509  142.533386    0.000000    0.000000    0.000000    0.000000
  0.022424850   -0.491600 -115.318977 -105.694046  139.372849    0.000000    0.000000    0.000000    0.000000
  0.022625251   -0.488849 -116.595871 -104.605621  137.090546    0.000000    0.000000    0.000000    0.000000
  0.022825651   -0.493078 -117.858467 -104.775081  137.103577    0.000000    0.000000    0.000000    0.000000
  0.023026052   -0.497279 -119.074867 -104.639734  139.473114    0.000000    0.000000    0.000000    0.000000
  0.023226453   -0.502605 -120.423897 -106.435555  128.327560    0.000000    0.000000    0.000000    0.000000
  0.023426854   -0.511013 -121.719734 -106.767586  139.207993    0.000000    0.000000    0.000000    0.000000
  0.023627255   -0.520330 -123.040970 -106.158902  140.502594    0.000000    0.000000    0.000000    0.000000
  0.023827655   -0.525676 -124.382446 -106.160175  143.276947    0.000000    0.000000    0.000000    0.000000
  0.024028056   -0.532816 -125.744278 -106.383302  142.342194    0.000000    0.000000    0.000000    0.000000
  0.024228457   -0.543739 -127.082062 -107.688663  143.905060    0.000000    0.000000    0.000000    0.000000
  0.024428858   -0.538795 -128.416809 -108.585596  129.941010    0.000000    0.000000    0.000000    0.000000
  0.024629259   -0.541995 -129.759216 -106.378280  137.830566    0.000000    0.000000    0.000000    0.000000
  0.024829659   -0.542659 -131.088531 -107.572451  143.230942    0.000000    0.000000    0.000000    0.000000
  0.025030060   -0.553379 -132.444138 -107.310772  136.630524    0.000000    0.000000    0.000000    0.000000
  0.025230461   -0.571872 -133.794846 -106.599289  139.780746    0.000000    0.000000    0.000000    0.000000
  0.025430862   -0.596222 -135.222397 -106.415449  135.904984    0.000000    0.000000    0.000000    0.000000
  0.025631263   -0.611852 -136.623611 -106.936796  142.558197    0.000000    0.000000    0.000000    0.000000
  0.025831663   -0.625684 -138.134674 -105.917410  142.264893    0.000000    0.000000    0.000000    0.000000
  0.026032064   -0.647732 -139.576477 -107.538407  150.268936    0.000000    0.000000    0.000000    0.000000
  0.026232465   -0.658175 -141.045364 -106.789786  143.629684    0.000000    0.000000    0.000000    0.000000
  0.026432866   -0.676025 -142.567596 -106.774582  144.694778    0.000000    0.000000    0.000000    0.000000
  0.026633267   -0.686715 -144.054321 -106.440277  139.940979    0.000000    0.000000    0.000000    0.000000
  0.026833667   -0.691333 -145.605911 -106.142651  140.189713    0.000000    0.000000    0.000000    0.000000
  0.027034068   -0.705298 -147.020020 -106.778515  136.297806    0.000000    0.000000    0.000000    0.000000
  0.027234469   -0.720710 -148.537170 -104.781919  133.440964    0.000000    0.000000    0.000000    0.000000
  0.027434870   -0.740243 -150.040451 -107.761892  140.117874    0.000000    0.000000    0.000000    0.000000
  0.027635271   -0.753387 -151.560883 -104.923733  145.871323    0.000000    0.000000    0.000000    0.000000
  0.027835671   -0.775307 -153.090515 -105.354586  142.492767    0.000000    0.000000    0.000000    0.000000
  0.028036072   -0.785709 -154.638290 -106.071955  138.695160    0.000000    0.000000    0.000000    0.000000
  0.028236473   -0.812262 -156.201416 -106.981569  135.774582    0.000000    0.000000    0.000000    0.000000
  0.028436874   -0.835132 -157.753036 -105.813639  138.367645    0.000000    0.000000    0.000000    0.000000
  0.028637275   -0.857215 -159.332611 -105.624827  143.241257    0.000000    0.000000    0.000000    0.000000
  0.028837675   -0.874741 -160.914398 -106.101002  146.730316    0.000000    0.000000    0.000000    0.000000
  0.029038076   -0.897958 -162.491562 -106.434738  150.506912    0.000000    0.000000    0.000000    0.000000
  0.029238477   -0.917076 -164.044479 -105.226578  144.702972    0.000000    0.000000    0.000000    0.000000
  0.029438878   -0.948864 -165.669586 -106.870643  146.698349    0.000000    0.000000    0.000000    0.000000
  0.029639279   -0.975807 -167.278687 -106.429315  134.492264    0.000000    0.000000    0.000000    0.000000
  0.029839679   -1.004691 -168.895065 -105.629776  148.864273    0.000000    0.000000    0.000000    0.000000
  0.030040080   -1.036640 -170.539322 -105.880517  136.365860    0.000000    0.000000    0.000000    0.000000
  0.030240481   -1.065064 -172.206070 -108.066539  127.595512    0.000000    0.000000    0.000000    0.000000
  0.030440882   -1.096500 -173.844925 -107.026489  128.396286    0.000000    0.000000    0.000000    0.000000
  0.030641283   -1.129794 -175.538208 -107.303520  145.648010    0.000000    0.000000    0.000000    0.000000
  0.030841683   -1.164039 -177.193451 -106.504909  151.440521    0.000000    0.000000    0.000000    0.000000
  0.031042084   -1.196418 -178.888931 -107.438440  141.495575    0.000000    0.000000    0.000000    0.000000
  0.031242485   -1.229979  179.386688 -107.132839  146.609940    0.000000    0.000000    0.000000    0.000000
  0.031442886   -1.268531  177.713898 -109.097674  152.348297    0.000000    0.000000    0.000000    0.000000
  0.031643287   -1.308386  176.015717 -105.751535  136.361206    0.000000    0.000000    0.000000    0.000000
  0.031843687   -1.346733  174.282181 -106.302775  147.677032    0.000000    0.000000    0.000000    0.000000
  0.032044088   -1.389756  172.560898 -107.377501  140.661392    0.000000    0.000000    0.000000    0.000000
  0.032244489   -1.427529  170.811172 -106.120446  146.024872    0.000000    0.000000    0.000000    0.000000
  0.032444890   -1.472408  169.089569 -107.437301  146.965927    0.000000    0.000000    0.000000    0.000000
  0.032645291   -1.518457  167.323700 -107.032011  136.268036    0.000000    0.000000    0.000000    0.000000
  0.032845691   -1.567270  165.565582 -106.291148  147.362930    0.000000    0.000000    0.000000    0.000000
  0.033046092   -1.615216  163.770721 -107.851217  138.422562    0.000000    0.000000    0.000000    0.000000
  0.033246493   -1.667539  161.978851 -106.642223  141.539322    0.000000    0.000000    0.000000    0.000000
  0.033446894   -1.716046  160.140228 -107.848580  146.270584    0.000000    0.000000    0.000000    0.000000
  0.033647295   -1.762025  158.324799 -105.416307  143.074997    0.000000    0.000000    0.000000    0.000000
  0.033847695   -1.809292  156.470734 -106.592668  130.966278    0.000000    0.000000    0.000000    0.000000
  0.034048096   -1.855353  154.635239 -107.625164  137.283539    0.000000    0.000000    0.000000    0.000000
  0.034248497   -1.895190  152.806229 -106.898367  142.724686    0.000000    0.000000    0.000000    0.000000
  0.034448898   -1.946333  151.000305 -106.665902  139.719193    0.000000    0.000000    0.000000    0.000000
  0.034649299   -2.000760  149.172913 -106.542569  143.073456    0.000000    0.000000    0.000000    0.000000
  0.034849699   -2.053429  147.355835 -105.006717  135.300598    0.000000    0.000000    0.000000    0.000000
  0.035050100   -2.107348  145.528107 -105.450913  139.270096    0.000000    0.000000    0.000000    0.000000
  0.035250501   -2.166745  143.694016 -105.047256  138.276230    0.000000    0.000000    0.000000    0.000000
  0.035450902   -2.225004  141.792267 -105.141682  140.451370    0.000000    0.000000    0.000000    0.000000
  0.035651303   -2.287264  139.934692 -104.913204  143.434296    0.000000    0.000000    0.000000    0.000000
  0.035851703   -2.348186  138.040649 -105.341300  142.280502    0.000000    0.000000    0.000000    0.000000
  0.036052104   -2.405735  136.268311 -105.659865  135.031876    0.000000    0.000000    0.000000    0.000000
  0.036252505   -2.464425  134.271622 -104.581940  135.318649    0.000000    0.000000    0.000000    0.000000
  0.036452906   -2.521368  132.406219 -104.821798  141.971909    0.000000    0.000000    0.000000    0.000000
  0.036653307   -2.582868  130.574509 -105.275377  143.049545    0.000000    0.000000    0.000000    0.000000
  0.036853707   -2.650927  128.751801 -105.029311  137.385010    0.000000    0.000000    0.000000    0.000000
  0.037054108   -2.721179  126.863350 -104.250532  137.862411    0.000000    0.000000    0.000000    0.000000
  0.037254509   -2.771932  124.872650 -104.789757  146.550949    0.000000    0.000000    0.000000    0.000000
  0.037454910   -2.853165  123.029755 -104.641361  145.223038    0.000000    0.000000    0.000000    0.000000
  0.037655311   -2.919310  121.093681 -105.040595  137.696701    0.000000    0.000000    0.000000    0.000000
  0.037855711   -2.955688  119.135941 -104.494470  142.612488    0.000000    0.000000    0.000000    0.000000
  0.038056112   -3.030245  117.242218 -106.646402  144.945328    0.000000    0.000000    0.000000    0.000000
  0.038256513   -3.070568  115.292854 -105.722832  136.512497    0.000000    0.000000    0.000000    0.000000
  0.038456914   -3.152144  113.364090 -104.800581  143.454254    0.000000    0.000000    0.000000    0.000000
  0.038657315   -3.198688  111.548050 -105.134500  138.475143    0.000000    0.000000    0.000000    0.000000
  0.038857715   -3.261872  109.683731 -105.147446  135.753845    0.000000    0.000000    0.000000    0.000000
  0.039058116   -3.339426  107.774742 -106.230309  140.453354    0.000000    0.000000    0.000000    0.000000
  0.039258517   -3.404938  105.884933 -105.744023  141.588425    0.000000    0.000000    0.000000    0.000000
  0.039458918   -3.473947  104.003990 -108.323641  134.698212    0.000000    0.000000    0.000000    0.000000
  0.039659319   -3.533943  102.217545 -106.638719  141.623459    0.000000    0.000000    0.000000    0.000000
  0.039859719   -3.608157  100.328712 -107.042125  134.734512    0.000000    0.000000    0.000000    0.000000
  0.040060120   -3.678128   98.298187 -105.905439  140.298172    0.000000    0.000000    0.000000    0.000000
  0.040260521   -3.746301   96.491554 -107.228770  139.511230    0.000000    0.000000    0.000000    0.000000
  0.040460922   -3.807235   94.507828 -106.002830  139.348679    0.000000    0.000000    0.000000    0.000000
  0.040661323   -3.877787   92.681953 -107.835748  138.733139    0.000000    0.000000    0.000000    0.000000
  0.040861723   -3.944099   90.782188 -106.884702  136.798248    0.000000    0.000000    0.000000    0.000000
  0.041062124   -4.010958   88.841476 -106.403888  142.898239    0.000000    0.000000    0.000000    0.000000
  0.041262525   -4.073478   86.924187 -106.134161  140.981781    0.000000    0.000000    0.000000    0.000000
  0.041462926   -4.133118   84.983444 -107.700491  143.383362    0.000000    0.000000    0.000000    0.000000
  0.041663327   -4.187028   83.053734 -107.874738  145.785217    0.000000    0.000000    0.000000    0.000000
  0.041863727   -4.237658   81.140686 -106.467955  140.030685    0.000000    0.000000    0.000000    0.000000
  0.042064128   -4.299025   79.273727 -106.264809  139.877808    0.000000    0.000000    0.000000    0.000000
  0.042264529   -4.347022   77.349106 -105.732208  140.514084    0.000000    0.000000    0.000000    0.000000
  0.042464930   -4.401834   75.505898 -104.476847  140.590805    0.000000    0.000000    0.000000    0.000000
  0.042665331   -4.459863   73.631340 -105.548982  140.343292    0.000000    0.000000    0.000000    0.000000
  0.042865731   -4.507665   71.738983 -105.630185  140.501617    0.000000    0.000000    0.000000    0.000000
