! Anritsu VNA Master:                 Model: MS2034B/10/19/501
! SN:                                  1337062
! /bd0/ovro-jan-2016/vna-jan/vna-blue-ms147-with-board-p1.s2p
! Existing Calibration Information:
! TYPE:                         Current Settings,       Active Cal Settings
! TIME:             	   01/13/2016 12:42:59 PM,    01/12/2016 05:57:47 PM
! INTERNAL TEMP:    	                   44.0 C,                    46.0 C
! # POINTS:         	                      500,                       500
! START FREQ:       	               10.000 MHz,                10.000 MHz
! STOP FREQ:        	              110.000 MHz,               110.000 MHz
! SOURCE POWER:     	                      Low,                       Low
! IFBW:             	                   100 Hz,                     1 kHz
! AVG FACTOR:       	                       1 ,                        3 
! REF PLANE 1:      	                     0 mm,                      0 mm
! REF PLANE 2:      	                     0 mm,                      0 mm
! CAL TYPE:         	             1P2P S11,S21,              1P2P S11,S21
! CAL METHOD:       	                     SOLT,                      SOLT
! CAL LINE TYPE:    	                     Coax,                      Coax
! DUT PORT 1:       	                K-Conn(M),                 K-Conn(M)
! DUT PORT 2:       	                N-Conn(M),                 N-Conn(M)
! CAL STATUS:       	        OK: Accuracy High,                        --
# GHZ S DB R 50.0
! FREQ.GHZ       S11DB        S11A       S21DB        S21A       S12DB        S12A       S22DB        S22A
  0.010000000  -24.093746   -5.161601   -0.041797  -16.511536    0.000000    0.000000    0.000000    0.000000
  0.010200401  -24.137117   -5.511371   -0.094105  -16.859951    0.000000    0.000000    0.000000    0.000000
  0.010400802  -24.015313   -9.823564   -0.110569  -16.911335    0.000000    0.000000    0.000000    0.000000
  0.010601202  -24.364306  -11.817466   -0.038027  -17.203959    0.000000    0.000000    0.000000    0.000000
  0.010801603  -24.325347  -12.780619   -0.070479  -17.905296    0.000000    0.000000    0.000000    0.000000
  0.011002004  -24.682451  -14.482977   -0.074265  -18.002541    0.000000    0.000000    0.000000    0.000000
  0.011202405  -24.735215  -17.389717    0.067650  -18.406166    0.000000    0.000000    0.000000    0.000000
  0.011402806  -24.756765  -17.872221    0.036806  -18.766363    0.000000    0.000000    0.000000    0.000000
  0.011603206  -24.763901  -20.397076   -0.022361  -18.639690    0.000000    0.000000    0.000000    0.000000
  0.011803607  -24.889466  -22.634569   -0.023499  -18.393328    0.000000    0.000000    0.000000    0.000000
  0.012004008  -25.041361  -24.114998   -0.034872  -18.863850    0.000000    0.000000    0.000000    0.000000
  0.012204409  -25.158968  -26.102041   -0.095325  -19.150927    0.000000    0.000000    0.000000    0.000000
  0.012404810  -25.393686  -28.032181   -0.149730  -19.918337    0.000000    0.000000    0.000000    0.000000
  0.012605210  -25.099467  -30.713499   -0.182931  -20.589617    0.000000    0.000000    0.000000    0.000000
  0.012805611  -25.369712  -30.446669   -0.140536  -21.132647    0.000000    0.000000    0.000000    0.000000
  0.013006012  -25.694253  -33.625237   -0.198301  -22.403929    0.000000    0.000000    0.000000    0.000000
  0.013206413  -25.741450  -34.853848   -0.094337  -23.077900    0.000000    0.000000    0.000000    0.000000
  0.013406814  -25.842190  -38.093082    0.002902  -24.122597    0.000000    0.000000    0.000000    0.000000
  0.013607214  -25.796957  -39.400890    0.025682  -24.352291    0.000000    0.000000    0.000000    0.000000
  0.013807615  -25.812538  -40.168686   -0.031801  -24.481943    0.000000    0.000000    0.000000    0.000000
  0.014008016  -26.012426  -43.559788    0.006117  -24.240568    0.000000    0.000000    0.000000    0.000000
  0.014208417  -26.080614  -44.043064   -0.029201  -23.203142    0.000000    0.000000    0.000000    0.000000
  0.014408818  -26.234187  -48.282516   -0.054983  -22.871929    0.000000    0.000000    0.000000    0.000000
  0.014609218  -26.445803  -48.638504   -0.109213  -22.919724    0.000000    0.000000    0.000000    0.000000
  0.014809619  -26.495256  -50.988380   -0.181088  -22.906588    0.000000    0.000000    0.000000    0.000000
  0.015010020  -26.669643  -51.235344   -0.161310  -23.476576    0.000000    0.000000    0.000000    0.000000
  0.015210421  -26.626845  -55.826714   -0.164991  -23.789394    0.000000    0.000000    0.000000    0.000000
  0.015410822  -26.746020  -56.926147   -0.092776  -25.123564    0.000000    0.000000    0.000000    0.000000
  0.015611222  -26.646922  -58.329002    0.001082  -25.742279    0.000000    0.000000    0.000000    0.000000
  0.015811623  -26.832872  -59.416355    0.057085  -26.840788    0.000000    0.000000    0.000000    0.000000
  0.016012024  -26.941775  -61.897884    0.133464  -27.612873    0.000000    0.000000    0.000000    0.000000
  0.016212425  -27.175694  -63.530300    0.097595  -27.924290    0.000000    0.000000    0.000000    0.000000
  0.016412826  -27.096265  -65.453819    0.161093  -28.268841    0.000000    0.000000    0.000000    0.000000
  0.016613226  -27.411113  -64.609825    0.070025  -27.962883    0.000000    0.000000    0.000000    0.000000
  0.016813627  -27.308213  -72.033501    0.032285  -27.801844    0.000000    0.000000    0.000000    0.000000
  0.017014028  -27.456564  -70.752487    0.006642  -28.205894    0.000000    0.000000    0.000000    0.000000
  0.017214429  -27.719304  -74.580933   -0.104590  -27.613693    0.000000    0.000000    0.000000    0.000000
  0.017414830  -27.860425  -74.329430   -0.221760  -27.907497    0.000000    0.000000    0.000000    0.000000
  0.017615230  -27.626093  -78.105408   -0.228167  -27.724834    0.000000    0.000000    0.000000    0.000000
  0.017815631  -27.898617  -77.010811   -0.276873  -28.456282    0.000000    0.000000    0.000000    0.000000
  0.018016032  -28.508157  -79.503296   -0.257014  -28.899284    0.000000    0.000000    0.000000    0.000000
  0.018216433  -28.398845  -81.677872   -0.192235  -29.238861    0.000000    0.000000    0.000000    0.000000
  0.018416834  -28.395924  -83.311386   -0.088143  -30.337170    0.000000    0.000000    0.000000    0.000000
  0.018617234  -28.580608  -84.299232    0.009218  -30.836750    0.000000    0.000000    0.000000    0.000000
  0.018817635  -28.494730  -86.522339    0.099130  -31.263395    0.000000    0.000000    0.000000    0.000000
  0.019018036  -28.385773  -91.710068    0.119975  -31.311321    0.000000    0.000000    0.000000    0.000000
  0.019218437  -28.378298  -93.110405    0.172886  -31.785358    0.000000    0.000000    0.000000    0.000000
  0.019418838  -28.600449  -93.760773    0.108842  -32.486866    0.000000    0.000000    0.000000    0.000000
  0.019619238  -28.982136  -95.817101    0.123154  -32.800369    0.000000    0.000000    0.000000    0.000000
  0.019819639  -28.664280  -97.401443    0.098583  -32.615299    0.000000    0.000000    0.000000    0.000000
  0.020020040  -28.645182  -99.682991    0.053333  -32.574848    0.000000    0.000000    0.000000    0.000000
  0.020220441  -28.607580 -101.065262    0.008272  -32.756809    0.000000    0.000000    0.000000    0.000000
  0.020420842  -29.316926 -102.944389   -0.058074  -32.919521    0.000000    0.000000    0.000000    0.000000
  0.020621242  -29.028570 -105.260696   -0.087723  -33.180016    0.000000    0.000000    0.000000    0.000000
  0.020821643  -28.340831 -106.123093   -0.051242  -33.560814    0.000000    0.000000    0.000000    0.000000
  0.021022044  -28.452491 -109.040611   -0.117436  -33.878521    0.000000    0.000000    0.000000    0.000000
  0.021222445  -28.906951 -108.774406   -0.145772  -34.353092    0.000000    0.000000    0.000000    0.000000
  0.021422846  -28.829388 -111.247658   -0.100107  -34.876358    0.000000    0.000000    0.000000    0.000000
  0.021623246  -28.897384 -112.858231   -0.049156  -35.168251    0.000000    0.000000    0.000000    0.000000
  0.021823647  -28.712201 -114.973572   -0.096007  -36.130787    0.000000    0.000000    0.000000    0.000000
  0.022024048  -28.927872 -116.710075   -0.071336  -36.607754    0.000000    0.000000    0.000000    0.000000
  0.022224449  -28.686280 -116.989120   -0.021416  -36.817402    0.000000    0.000000    0.000000    0.000000
  0.022424850  -28.944414 -121.454338   -0.114698  -36.719891    0.000000    0.000000    0.000000    0.000000
  0.022625251  -28.932000 -121.125389   -0.065630  -36.260265    0.000000    0.000000    0.000000    0.000000
  0.022825651  -28.864220 -123.243759   -0.113316  -36.310234    0.000000    0.000000    0.000000    0.000000
  0.023026052  -29.335722 -124.113319   -0.176243  -36.426643    0.000000    0.000000    0.000000    0.000000
  0.023226453  -29.501716 -128.162888   -0.172120  -36.256554    0.000000    0.000000    0.000000    0.000000
  0.023426854  -29.024226 -129.057037   -0.234717  -36.812786    0.000000    0.000000    0.000000    0.000000
  0.023627255  -29.043119 -131.526825   -0.213808  -36.826015    0.000000    0.000000    0.000000    0.000000
  0.023827655  -29.144350 -133.195419   -0.287095  -37.602345    0.000000    0.000000    0.000000    0.000000
  0.024028056  -29.123585 -132.488892   -0.327495  -38.429775    0.000000    0.000000    0.000000    0.000000
  0.024228457  -29.222077 -134.951157   -0.327890  -38.713657    0.000000    0.000000    0.000000    0.000000
  0.024428858  -29.417447 -136.719849   -0.241493  -39.299118    0.000000    0.000000    0.000000    0.000000
  0.024629259  -29.538636 -139.678299   -0.279098  -39.384663    0.000000    0.000000    0.000000    0.000000
  0.024829659  -29.737604 -139.542374   -0.103511  -38.125996    0.000000    0.000000    0.000000    0.000000
  0.025030060  -29.388072 -140.590668   -0.106161  -38.833282    0.000000    0.000000    0.000000    0.000000
  0.025230461  -29.672568 -141.239563   -0.163137  -39.089615    0.000000    0.000000    0.000000    0.000000
  0.025430862  -29.734284 -147.726440   -0.094942  -39.198624    0.000000    0.000000    0.000000    0.000000
  0.025631263  -29.597685 -146.781509   -0.131760  -39.826893    0.000000    0.000000    0.000000    0.000000
  0.025831663  -29.559729 -147.810974   -0.145544  -39.993496    0.000000    0.000000    0.000000    0.000000
  0.026032064  -29.955551 -148.307053   -0.080039  -40.747456    0.000000    0.000000    0.000000    0.000000
  0.026232465  -29.791788 -151.325653   -0.080060  -40.704388    0.000000    0.000000    0.000000    0.000000
  0.026432866  -30.163540 -150.013596   -0.095797  -41.388313    0.000000    0.000000    0.000000    0.000000
  0.026633267  -30.218976 -155.847229   -0.035001  -42.069187    0.000000    0.000000    0.000000    0.000000
  0.026833667  -30.110746 -156.885040   -0.071064  -42.798416    0.000000    0.000000    0.000000    0.000000
  0.027034068  -30.131579 -154.345169   -0.054852  -42.347435    0.000000    0.000000    0.000000    0.000000
  0.027234469  -29.921638 -158.444061   -0.115480  -42.991024    0.000000    0.000000    0.000000    0.000000
  0.027434870  -30.098620 -159.648224   -0.187060  -43.458878    0.000000    0.000000    0.000000    0.000000
  0.027635271  -30.011622 -161.641022   -0.158193  -43.950108    0.000000    0.000000    0.000000    0.000000
  0.027835671  -30.503970 -159.385880   -0.231595  -44.486912    0.000000    0.000000    0.000000    0.000000
  0.028036072  -30.436222 -167.941010   -0.265974  -45.058403    0.000000    0.000000    0.000000    0.000000
  0.028236473  -30.451143 -164.552719   -0.319974  -45.461376    0.000000    0.000000    0.000000    0.000000
  0.028436874  -30.314562 -168.785431   -0.293883  -46.052547    0.000000    0.000000    0.000000    0.000000
  0.028637275  -30.467527 -168.590744   -0.339406  -46.379513    0.000000    0.000000    0.000000    0.000000
  0.028837675  -30.824189 -167.723999   -0.328983  -47.113266    0.000000    0.000000    0.000000    0.000000
  0.029038076  -30.836346 -174.266327   -0.373633  -47.013531    0.000000    0.000000    0.000000    0.000000
  0.029238477  -30.811517 -171.081787   -0.332040  -47.154152    0.000000    0.000000    0.000000    0.000000
  0.029438878  -30.492698 -173.768631   -0.301478  -47.508240    0.000000    0.000000    0.000000    0.000000
  0.029639279  -31.272090 -174.504639   -0.204789  -47.124344    0.000000    0.000000    0.000000    0.000000
  0.029839679  -30.950020 -177.010696   -0.188873  -47.381962    0.000000    0.000000    0.000000    0.000000
  0.030040080  -30.854568 -176.669754   -0.247704  -47.560009    0.000000    0.000000    0.000000    0.000000
  0.030240481  -30.987447  178.126419   -0.268280  -47.999538    0.000000    0.000000    0.000000    0.000000
  0.030440882  -31.494612  175.426849   -0.252576  -48.052464    0.000000    0.000000    0.000000    0.000000
  0.030641283  -31.299316  179.884460   -0.308390  -48.263416    0.000000    0.000000    0.000000    0.000000
  0.030841683  -31.624312  178.177887   -0.332162  -49.090801    0.000000    0.000000    0.000000    0.000000
  0.031042084  -31.731383  176.351196   -0.408187  -49.944954    0.000000    0.000000    0.000000    0.000000
  0.031242485  -31.889404  176.937042   -0.493781  -50.661858    0.000000    0.000000    0.000000    0.000000
  0.031442886  -32.176599  174.344452   -0.450765  -51.673019    0.000000    0.000000    0.000000    0.000000
  0.031643287  -32.034310  170.287186   -0.480810  -52.042362    0.000000    0.000000    0.000000    0.000000
  0.031843687  -32.455696  169.174118   -0.509155  -52.640957    0.000000    0.000000    0.000000    0.000000
  0.032044088  -32.236205  171.137009   -0.458936  -52.588978    0.000000    0.000000    0.000000    0.000000
  0.032244489  -32.992014  166.955826   -0.389319  -52.770363    0.000000    0.000000    0.000000    0.000000
  0.032444890  -33.117072  166.396912   -0.378947  -52.744289    0.000000    0.000000    0.000000    0.000000
  0.032645291  -32.771305  167.446426   -0.309546  -52.275482    0.000000    0.000000    0.000000    0.000000
  0.032845691  -33.283119  160.303375   -0.320877  -52.391163    0.000000    0.000000    0.000000    0.000000
  0.033046092  -32.348433  161.767822   -0.353338  -52.345810    0.000000    0.000000    0.000000    0.000000
  0.033246493  -33.469445  159.802780   -0.372596  -52.440331    0.000000    0.000000    0.000000    0.000000
  0.033446894  -33.148758  159.072311   -0.306621  -53.123192    0.000000    0.000000    0.000000    0.000000
  0.033647295  -33.609835  156.009659   -0.328025  -53.975014    0.000000    0.000000    0.000000    0.000000
  0.033847695  -33.561302  157.970764   -0.276502  -54.769630    0.000000    0.000000    0.000000    0.000000
  0.034048096  -34.252133  156.113449   -0.231096  -55.689144    0.000000    0.000000    0.000000    0.000000
  0.034248497  -35.417560  156.718323   -0.216039  -56.100266    0.000000    0.000000    0.000000    0.000000
  0.034448898  -34.372442  153.792297   -0.144620  -56.180927    0.000000    0.000000    0.000000    0.000000
  0.034649299  -34.462426  151.124634   -0.133025  -56.005974    0.000000    0.000000    0.000000    0.000000
  0.034849699  -34.824650  150.482773   -0.192392  -55.289215    0.000000    0.000000    0.000000    0.000000
  0.035050100  -34.727741  150.898926   -0.133173  -55.256596    0.000000    0.000000    0.000000    0.000000
  0.035250501  -35.732754  149.651642   -0.157785  -55.317425    0.000000    0.000000    0.000000    0.000000
  0.035450902  -34.588106  147.043045   -0.227823  -55.417103    0.000000    0.000000    0.000000    0.000000
  0.035651303  -35.250713  142.525391   -0.306709  -56.420708    0.000000    0.000000    0.000000    0.000000
  0.035851703  -35.905239  145.462784   -0.345275  -56.982132    0.000000    0.000000    0.000000    0.000000
  0.036052104  -36.006190  142.621719   -0.325523  -58.061138    0.000000    0.000000    0.000000    0.000000
  0.036252505  -37.426945  143.118912   -0.306723  -58.653069    0.000000    0.000000    0.000000    0.000000
  0.036452906  -36.659890  140.483810   -0.359390  -59.454304    0.000000    0.000000    0.000000    0.000000
  0.036653307  -37.023672  143.235672   -0.384630  -59.603081    0.000000    0.000000    0.000000    0.000000
  0.036853707  -37.653550  137.451187   -0.370222  -59.535793    0.000000    0.000000    0.000000    0.000000
  0.037054108  -38.085209  132.460754   -0.393618  -59.763950    0.000000    0.000000    0.000000    0.000000
  0.037254509  -38.583236  135.618515   -0.442427  -59.473518    0.000000    0.000000    0.000000    0.000000
  0.037454910  -39.318649  130.682678   -0.459470  -59.892815    0.000000    0.000000    0.000000    0.000000
  0.037655311  -39.240581  134.517838   -0.471018  -60.549789    0.000000    0.000000    0.000000    0.000000
  0.037855711  -38.870584  130.740784   -0.458408  -61.050179    0.000000    0.000000    0.000000    0.000000
  0.038056112  -39.685198  124.406319   -0.411559  -62.108448    0.000000    0.000000    0.000000    0.000000
  0.038256513  -40.641669  127.263351   -0.273608  -62.278866    0.000000    0.000000    0.000000    0.000000
  0.038456914  -40.699267  128.191376   -0.276017  -62.500267    0.000000    0.000000    0.000000    0.000000
  0.038657315  -42.196815  120.363289   -0.287532  -62.676952    0.000000    0.000000    0.000000    0.000000
  0.038857715  -41.436877  122.210251   -0.308390  -62.495720    0.000000    0.000000    0.000000    0.000000
  0.039058116  -41.915559  115.291107   -0.337928  -62.071037    0.000000    0.000000    0.000000    0.000000
  0.039258517  -44.011553  107.748024   -0.366918  -62.038082    0.000000    0.000000    0.000000    0.000000
  0.039458918  -43.904204  106.970802   -0.512513  -62.398975    0.000000    0.000000    0.000000    0.000000
  0.039659319  -43.842565  113.446098   -0.529888  -62.932072    0.000000    0.000000    0.000000    0.000000
  0.039859719  -44.627794  111.162727   -0.587008  -63.974838    0.000000    0.000000    0.000000    0.000000
  0.040060120  -44.132649   98.173256   -0.495355  -64.602310    0.000000    0.000000    0.000000    0.000000
  0.040260521  -47.994273   94.672134   -0.474488  -65.625107    0.000000    0.000000    0.000000    0.000000
  0.040460922  -48.184436   93.189880   -0.455617  -66.092247    0.000000    0.000000    0.000000    0.000000
  0.040661323  -49.444671   90.196022   -0.357947  -67.361992    0.000000    0.000000    0.000000    0.000000
  0.040861723  -50.338183   57.774052   -0.406958  -67.597534    0.000000    0.000000    0.000000    0.000000
  0.041062124  -51.451016   59.168591   -0.324272  -67.312668    0.000000    0.000000    0.000000    0.000000
  0.041262525  -51.867153   62.101315   -0.274079  -67.262436    0.000000    0.000000    0.000000    0.000000
  0.041462926  -54.340290   26.833706   -0.403117  -66.981903    0.000000    0.000000    0.000000    0.000000
  0.041663327  -52.091582    5.293660   -0.363354  -66.697144    0.000000    0.000000    0.000000    0.000000
  0.041863727  -48.034352   -7.902541   -0.391285  -67.011391    0.000000    0.000000    0.000000    0.000000
  0.042064128  -53.593609   -4.606581   -0.458821  -67.337456    0.000000    0.000000    0.000000    0.000000
  0.042264529  -50.373928    3.912772   -0.459757  -67.575905    0.000000    0.000000    0.000000    0.000000
  0.042464930  -49.710936  -13.392782   -0.475065  -68.482834    0.000000    0.000000    0.000000    0.000000
  0.042665331  -49.267410  -16.384663   -0.458220  -69.199547    0.000000    0.000000    0.000000    0.000000
  0.042865731  -46.090085  -33.291553   -0.380739  -70.232918    0.000000    0.000000    0.000000    0.000000
