! Anritsu VNA Master:                 Model: MS2034B/10/19/501
! SN:                                  1337062
! /bd0/ovro-jan-2016/vna-jan/vna-ant256-z2-s11.s2p
! Existing Calibration Information:
! TYPE:                         Current Settings,       Active Cal Settings
! TIME:             	   01/13/2016 02:22:15 PM,    01/13/2016 02:09:05 PM
! INTERNAL TEMP:    	                   40.8 C,                    41.3 C
! # POINTS:         	                      500,                       500
! START FREQ:       	               10.000 MHz,                10.000 MHz
! STOP FREQ:        	              110.000 MHz,               110.000 MHz
! SOURCE POWER:     	                     High,                      High
! IFBW:             	                   100 Hz,                    100 Hz
! AVG FACTOR:       	                       4 ,                        4 
! REF PLANE 1:      	                     0 mm,                      0 mm
! REF PLANE 2:      	                     0 mm,                      0 mm
! CAL TYPE:         	                 Full S11,                  Full S11
! CAL METHOD:       	                     SOLT,                      SOLT
! CAL LINE TYPE:    	                     Coax,                      Coax
! DUT PORT 1:       	                K-Conn(M),                 K-Conn(M)
! DUT PORT 2:       	                N-Conn(M),                 N-Conn(M)
! CAL STATUS:       	        OK: Accuracy High,                        --
# GHZ S DB R 50.0
! FREQ.GHZ       S11DB        S11A       S21DB        S21A       S12DB        S12A       S22DB        S22A
  0.010000000   -0.580325  -46.396526 -104.595169  148.946167    0.000000    0.000000    0.000000    0.000000
  0.010200401   -0.561873  -47.424938 -103.943374  145.378250    0.000000    0.000000    0.000000    0.000000
  0.010400802   -0.545138  -48.372742 -104.650058  145.212021    0.000000    0.000000    0.000000    0.000000
  0.010601202   -0.528774  -49.277233 -104.234946  139.124908    0.000000    0.000000    0.000000    0.000000
  0.010801603   -0.528149  -50.274479 -104.754929  145.061157    0.000000    0.000000    0.000000    0.000000
  0.011002004   -0.524922  -51.248741 -102.907873  153.732880    0.000000    0.000000    0.000000    0.000000
  0.011202405   -0.523724  -52.196251 -102.909299  147.578201    0.000000    0.000000    0.000000    0.000000
  0.011402806   -0.521262  -53.203354 -101.985722  142.058167    0.000000    0.000000    0.000000    0.000000
  0.011603206   -0.524071  -54.231987 -103.473817  145.144028    0.000000    0.000000    0.000000    0.000000
  0.011803607   -0.524126  -55.166782 -102.339396  145.418533    0.000000    0.000000    0.000000    0.000000
  0.012004008   -0.514764  -56.299953 -103.786437  144.440903    0.000000    0.000000    0.000000    0.000000
  0.012204409   -0.515887  -57.327286 -102.896643  137.543533    0.000000    0.000000    0.000000    0.000000
  0.012404810   -0.507130  -58.393703 -102.077876  145.301376    0.000000    0.000000    0.000000    0.000000
  0.012605210   -0.507262  -59.358879 -103.824406  136.713089    0.000000    0.000000    0.000000    0.000000
  0.012805611   -0.506583  -60.370094 -101.898958  148.886383    0.000000    0.000000    0.000000    0.000000
  0.013006012   -0.518334  -61.355473 -103.127755  133.512512    0.000000    0.000000    0.000000    0.000000
  0.013206413   -0.504408  -62.453823 -103.067361  139.895493    0.000000    0.000000    0.000000    0.000000
  0.013406814   -0.506893  -63.502289 -103.316565  137.953476    0.000000    0.000000    0.000000    0.000000
  0.013607214   -0.509231  -64.578659 -103.323605  135.249664    0.000000    0.000000    0.000000    0.000000
  0.013807615   -0.508671  -65.687065 -102.883294  131.715775    0.000000    0.000000    0.000000    0.000000
  0.014008016   -0.505160  -66.783768 -104.207352  132.697845    0.000000    0.000000    0.000000    0.000000
  0.014208417   -0.516808  -67.903801 -103.760468  136.746521    0.000000    0.000000    0.000000    0.000000
  0.014408818   -0.497585  -68.970245 -105.409590  133.452850    0.000000    0.000000    0.000000    0.000000
  0.014609218   -0.491356  -70.014473 -104.813543  133.071930    0.000000    0.000000    0.000000    0.000000
  0.014809619   -0.488396  -71.083122 -105.636463  134.603928    0.000000    0.000000    0.000000    0.000000
  0.015010020   -0.484388  -72.128357 -105.387522  124.486496    0.000000    0.000000    0.000000    0.000000
  0.015210421   -0.483708  -73.175568 -106.586838  128.328827    0.000000    0.000000    0.000000    0.000000
  0.015410822   -0.486413  -74.248268 -105.634916  139.025024    0.000000    0.000000    0.000000    0.000000
  0.015611222   -0.497660  -75.407829 -107.067367  134.099060    0.000000    0.000000    0.000000    0.000000
  0.015811623   -0.496463  -76.387070 -106.832991  139.735992    0.000000    0.000000    0.000000    0.000000
  0.016012024   -0.499601  -77.515076 -108.025875  137.119064    0.000000    0.000000    0.000000    0.000000
  0.016212425   -0.498592  -78.632057 -107.465821  129.417877    0.000000    0.000000    0.000000    0.000000
  0.016412826   -0.503532  -79.759705 -106.895367  139.230225    0.000000    0.000000    0.000000    0.000000
  0.016613226   -0.502866  -80.906433 -106.800325  135.514664    0.000000    0.000000    0.000000    0.000000
  0.016813627   -0.506116  -82.051544 -107.654401  141.985962    0.000000    0.000000    0.000000    0.000000
  0.017014028   -0.508068  -83.138924 -106.635280  137.373306    0.000000    0.000000    0.000000    0.000000
  0.017214429   -0.508554  -84.320648 -107.130327  137.222992    0.000000    0.000000    0.000000    0.000000
  0.017414830   -0.511045  -85.460167 -107.195215  148.421753    0.000000    0.000000    0.000000    0.000000
  0.017615230   -0.508094  -86.634659 -106.923803  148.257202    0.000000    0.000000    0.000000    0.000000
  0.017815631   -0.502442  -87.819290 -106.747377  156.907776    0.000000    0.000000    0.000000    0.000000
  0.018016032   -0.490694  -89.028374 -106.905298  150.411591    0.000000    0.000000    0.000000    0.000000
  0.018216433   -0.491270  -90.172134 -106.154763  145.864700    0.000000    0.000000    0.000000    0.000000
  0.018416834   -0.483650  -91.321625 -105.051449  145.897720    0.000000    0.000000    0.000000    0.000000
  0.018617234   -0.474461  -92.484169 -106.915226  146.728226    0.000000    0.000000    0.000000    0.000000
  0.018817635   -0.466045  -93.639748 -104.869619  150.705872    0.000000    0.000000    0.000000    0.000000
  0.019018036   -0.460549  -94.802536 -104.651298  148.051712    0.000000    0.000000    0.000000    0.000000
  0.019218437   -0.443160  -95.986954 -105.939230  150.238297    0.000000    0.000000    0.000000    0.000000
  0.019418838   -0.444790  -97.132362 -104.285204  142.406296    0.000000    0.000000    0.000000    0.000000
  0.019619238   -0.438502  -98.309296 -105.788644  147.370499    0.000000    0.000000    0.000000    0.000000
  0.019819639   -0.428582  -99.473732 -102.689317  145.671448    0.000000    0.000000    0.000000    0.000000
  0.020020040   -0.429466 -100.640472 -104.714563  143.029083    0.000000    0.000000    0.000000    0.000000
  0.020220441   -0.417502 -101.788933 -105.066125  149.332718    0.000000    0.000000    0.000000    0.000000
  0.020420842   -0.415325 -102.940804 -104.045048  143.107620    0.000000    0.000000    0.000000    0.000000
  0.020621242   -0.411411 -104.093987 -104.559334  151.557007    0.000000    0.000000    0.000000    0.000000
  0.020821643   -0.418219 -105.321205 -105.347643  149.866852    0.000000    0.000000    0.000000    0.000000
  0.021022044   -0.425409 -106.469040 -105.331583  147.672256    0.000000    0.000000    0.000000    0.000000
  0.021222445   -0.430277 -107.766373 -104.568459  141.013519    0.000000    0.000000    0.000000    0.000000
  0.021422846   -0.430593 -109.019676 -104.833674  141.153763    0.000000    0.000000    0.000000    0.000000
  0.021623246   -0.441102 -110.286385 -104.572677  139.240067    0.000000    0.000000    0.000000    0.000000
  0.021823647   -0.438441 -111.547333 -105.066855  137.610657    0.000000    0.000000    0.000000    0.000000
  0.022024048   -0.438472 -112.917847 -104.958892  138.240234    0.000000    0.000000    0.000000    0.000000
  0.022224449   -0.438872 -114.208298 -105.229952  138.994904    0.000000    0.000000    0.000000    0.000000
  0.022424850   -0.437307 -115.501678 -105.567555  144.991852    0.000000    0.000000    0.000000    0.000000
  0.022625251   -0.436805 -116.812889 -105.233365  141.442154    0.000000    0.000000    0.000000    0.000000
  0.022825651   -0.438802 -118.110184 -104.888721  138.872192    0.000000    0.000000    0.000000    0.000000
  0.023026052   -0.446030 -119.361053 -105.621342  142.020813    0.000000    0.000000    0.000000    0.000000
  0.023226453   -0.451457 -120.723320 -107.368458  142.831558    0.000000    0.000000    0.000000    0.000000
  0.023426854   -0.456490 -122.048119 -106.766202  133.330444    0.000000    0.000000    0.000000    0.000000
  0.023627255   -0.467745 -123.440659 -107.399142  140.437805    0.000000    0.000000    0.000000    0.000000
  0.023827655   -0.473541 -124.806038 -106.590697  139.962540    0.000000    0.000000    0.000000    0.000000
  0.024028056   -0.481549 -126.214012 -107.167401  135.878738    0.000000    0.000000    0.000000    0.000000
  0.024228457   -0.487249 -127.595375 -107.235551  131.762787    0.000000    0.000000    0.000000    0.000000
  0.024428858   -0.483881 -128.962326 -107.008082  137.846176    0.000000    0.000000    0.000000    0.000000
  0.024629259   -0.489784 -130.326675 -106.746586  140.663406    0.000000    0.000000    0.000000    0.000000
  0.024829659   -0.495720 -131.764084 -106.628156  137.978333    0.000000    0.000000    0.000000    0.000000
  0.025030060   -0.504792 -133.146317 -107.877131  136.669357    0.000000    0.000000    0.000000    0.000000
  0.025230461   -0.519755 -134.531067 -106.801433  138.009995    0.000000    0.000000    0.000000    0.000000
  0.025430862   -0.542320 -135.975433 -107.261479  133.835449    0.000000    0.000000    0.000000    0.000000
  0.025631263   -0.553304 -137.425095 -107.878334  144.035828    0.000000    0.000000    0.000000    0.000000
  0.025831663   -0.563917 -138.937897 -106.836850  142.645142    0.000000    0.000000    0.000000    0.000000
  0.026032064   -0.581602 -140.412247 -107.039746  142.205475    0.000000    0.000000    0.000000    0.000000
  0.026232465   -0.595447 -141.868439 -107.454884  151.361496    0.000000    0.000000    0.000000    0.000000
  0.026432866   -0.599615 -143.435318 -107.397118  141.341660    0.000000    0.000000    0.000000    0.000000
  0.026633267   -0.601586 -144.927628 -106.010261  140.123840    0.000000    0.000000    0.000000    0.000000
  0.026833667   -0.605440 -146.487625 -105.960259  141.207733    0.000000    0.000000    0.000000    0.000000
  0.027034068   -0.621450 -147.878555 -105.834930  141.131622    0.000000    0.000000    0.000000    0.000000
  0.027234469   -0.630964 -149.384796 -105.956596  141.305603    0.000000    0.000000    0.000000    0.000000
  0.027434870   -0.641658 -150.881210 -105.724461  145.479996    0.000000    0.000000    0.000000    0.000000
  0.027635271   -0.657617 -152.387970 -105.975639  145.261292    0.000000    0.000000    0.000000    0.000000
  0.027835671   -0.674073 -153.900528 -107.169605  143.265961    0.000000    0.000000    0.000000    0.000000
  0.028036072   -0.680647 -155.452698 -105.139013  138.136322    0.000000    0.000000    0.000000    0.000000
  0.028236473   -0.705810 -156.982727 -106.465829  145.877380    0.000000    0.000000    0.000000    0.000000
  0.028436874   -0.725809 -158.525864 -106.562643  147.892090    0.000000    0.000000    0.000000    0.000000
  0.028637275   -0.744536 -160.090927 -105.481011  140.431305    0.000000    0.000000    0.000000    0.000000
  0.028837675   -0.760828 -161.652237 -105.117285  137.854340    0.000000    0.000000    0.000000    0.000000
  0.029038076   -0.783379 -163.234711 -104.729782  143.719742    0.000000    0.000000    0.000000    0.000000
  0.029238477   -0.803614 -164.790558 -106.105035  139.904877    0.000000    0.000000    0.000000    0.000000
  0.029438878   -0.831439 -166.380096 -104.986422  143.055756    0.000000    0.000000    0.000000    0.000000
  0.029639279   -0.861277 -167.976639 -105.294764  147.531021    0.000000    0.000000    0.000000    0.000000
  0.029839679   -0.888597 -169.606491 -107.828157  133.794342    0.000000    0.000000    0.000000    0.000000
  0.030040080   -0.920503 -171.226456 -105.953982  140.795410    0.000000    0.000000    0.000000    0.000000
  0.030240481   -0.949377 -172.907013 -106.500103  145.550339    0.000000    0.000000    0.000000    0.000000
  0.030440882   -0.980418 -174.528839 -106.841944  144.138504    0.000000    0.000000    0.000000    0.000000
  0.030641283   -1.011903 -176.260101 -104.280423  144.224716    0.000000    0.000000    0.000000    0.000000
  0.030841683   -1.048322 -177.967743 -106.052763  147.880203    0.000000    0.000000    0.000000    0.000000
  0.031042084   -1.079430 -179.616028 -107.435749  146.624435    0.000000    0.000000    0.000000    0.000000
  0.031242485   -1.117571  178.649094 -107.156386  146.220932    0.000000    0.000000    0.000000    0.000000
  0.031442886   -1.154398  176.937698 -106.514305  145.615875    0.000000    0.000000    0.000000    0.000000
  0.031643287   -1.194720  175.189957 -106.213059  143.181610    0.000000    0.000000    0.000000    0.000000
  0.031843687   -1.233075  173.418839 -106.631047  137.313446    0.000000    0.000000    0.000000    0.000000
  0.032044088   -1.273581  171.663834 -107.400852  139.710434    0.000000    0.000000    0.000000    0.000000
  0.032244489   -1.313044  169.902237 -106.034953  142.115768    0.000000    0.000000    0.000000    0.000000
  0.032444890   -1.353182  168.107300 -106.627467  142.194717    0.000000    0.000000    0.000000    0.000000
  0.032645291   -1.396336  166.332062 -107.675056  147.789597    0.000000    0.000000    0.000000    0.000000
  0.032845691   -1.442934  164.539459 -107.023980  147.484329    0.000000    0.000000    0.000000    0.000000
  0.033046092   -1.487844  162.698593 -106.591359  142.470154    0.000000    0.000000    0.000000    0.000000
  0.033246493   -1.536731  160.876740 -107.312361  139.715027    0.000000    0.000000    0.000000    0.000000
  0.033446894   -1.579782  159.023422 -106.969788  144.401703    0.000000    0.000000    0.000000    0.000000
  0.033647295   -1.625455  157.143646 -107.169404  147.030792    0.000000    0.000000    0.000000    0.000000
  0.033847695   -1.663089  155.300095 -105.441645  147.760178    0.000000    0.000000    0.000000    0.000000
  0.034048096   -1.704807  153.456894 -106.982077  145.525314    0.000000    0.000000    0.000000    0.000000
  0.034248497   -1.739109  151.608795 -106.290305  143.514908    0.000000    0.000000    0.000000    0.000000
  0.034448898   -1.785296  149.788101 -105.887605  144.464569    0.000000    0.000000    0.000000    0.000000
  0.034649299   -1.833230  147.971939 -106.085706  145.832230    0.000000    0.000000    0.000000    0.000000
  0.034849699   -1.882289  146.145981 -105.114841  140.586243    0.000000    0.000000    0.000000    0.000000
  0.035050100   -1.931410  144.313751 -105.675907  141.031647    0.000000    0.000000    0.000000    0.000000
  0.035250501   -1.983330  142.494492 -105.469418  133.768570    0.000000    0.000000    0.000000    0.000000
  0.035450902   -2.041745  140.665909 -104.693033  132.628082    0.000000    0.000000    0.000000    0.000000
  0.035651303   -2.099976  138.762833 -105.216973  146.489441    0.000000    0.000000    0.000000    0.000000
  0.035851703   -2.147649  136.903992 -105.385369  143.332108    0.000000    0.000000    0.000000    0.000000
  0.036052104   -2.205472  135.128220 -105.857496  140.807663    0.000000    0.000000    0.000000    0.000000
  0.036252505   -2.256347  133.156006 -105.569786  145.472397    0.000000    0.000000    0.000000    0.000000
  0.036452906   -2.311605  131.336975 -104.381115  139.902802    0.000000    0.000000    0.000000    0.000000
  0.036653307   -2.375909  129.603958 -104.480544  138.470749    0.000000    0.000000    0.000000    0.000000
  0.036853707   -2.433846  127.716133 -104.353349  142.848297    0.000000    0.000000    0.000000    0.000000
  0.037054108   -2.502911  125.836731 -105.795079  126.970566    0.000000    0.000000    0.000000    0.000000
  0.037254509   -2.550079  123.855362 -105.012751  135.095016    0.000000    0.000000    0.000000    0.000000
  0.037454910   -2.630609  122.005882 -105.746417  142.220734    0.000000    0.000000    0.000000    0.000000
  0.037655311   -2.692095  120.072647 -104.728769  140.665649    0.000000    0.000000    0.000000    0.000000
  0.037855711   -2.746839  118.143967 -105.079359  144.546768    0.000000    0.000000    0.000000    0.000000
  0.038056112   -2.806332  116.189888 -105.271849  143.532501    0.000000    0.000000    0.000000    0.000000
  0.038256513   -2.849379  114.283089 -105.586163  133.756210    0.000000    0.000000    0.000000    0.000000
  0.038456914   -2.930340  112.401871 -105.731347  140.794937    0.000000    0.000000    0.000000    0.000000
  0.038657315   -2.995494  110.536057 -105.783766  144.795349    0.000000    0.000000    0.000000    0.000000
  0.038857715   -3.061773  108.646652 -105.709879  131.681305    0.000000    0.000000    0.000000    0.000000
  0.039058116   -3.119213  106.771317 -106.233186  146.347092    0.000000    0.000000    0.000000    0.000000
  0.039258517   -3.184232  104.908585 -105.793513  140.388321    0.000000    0.000000    0.000000    0.000000
  0.039458918   -3.250374  103.024864 -105.975586  139.146820    0.000000    0.000000    0.000000    0.000000
  0.039659319   -3.314124  101.211952 -106.062499  135.028992    0.000000    0.000000    0.000000    0.000000
  0.039859719   -3.378247   99.310654 -105.870063  138.472031    0.000000    0.000000    0.000000    0.000000
  0.040060120   -3.443875   97.271172 -106.596673  142.508362    0.000000    0.000000    0.000000    0.000000
  0.040260521   -3.505442   95.448120 -106.284129  138.351746    0.000000    0.000000    0.000000    0.000000
  0.040460922   -3.568433   93.430161 -106.075015  132.854080    0.000000    0.000000    0.000000    0.000000
  0.040661323   -3.624706   91.609360 -105.880296  142.417419    0.000000    0.000000    0.000000    0.000000
  0.040861723   -3.683119   89.715050 -107.340457  141.058136    0.000000    0.000000    0.000000    0.000000
  0.041062124   -3.738371   87.753891 -106.072741  134.375168    0.000000    0.000000    0.000000    0.000000
  0.041262525   -3.795428   85.880264 -105.476459  137.315292    0.000000    0.000000    0.000000    0.000000
  0.041462926   -3.843108   83.961456 -106.210595  140.993362    0.000000    0.000000    0.000000    0.000000
  0.041663327   -3.885143   82.031006 -105.908020  138.072098    0.000000    0.000000    0.000000    0.000000
  0.041863727   -3.928833   80.164848 -105.416341  138.373032    0.000000    0.000000    0.000000    0.000000
  0.042064128   -3.974258   78.379028 -105.759429  137.510147    0.000000    0.000000    0.000000    0.000000
  0.042264529   -4.014425   76.555901 -105.501040  139.751709    0.000000    0.000000    0.000000    0.000000
  0.042464930   -4.048180   74.702049 -105.365836  139.599823    0.000000    0.000000    0.000000    0.000000
  0.042665331   -4.086823   72.907646 -106.035439  140.330536    0.000000    0.000000    0.000000    0.000000
  0.042865731   -4.123931   71.103767 -104.651714  139.093063    0.000000    0.000000    0.000000    0.000000
