! Anritsu VNA Master:                 Model: MS2034B/10/19/501
! SN:                                  1337062
! /bd0/ovro-jan-2016/vna-jan/vna-ant252-a2-s11.s2p
! Existing Calibration Information:
! TYPE:                         Current Settings,       Active Cal Settings
! TIME:             	   01/13/2016 06:04:54 PM,    01/13/2016 05:56:29 PM
! INTERNAL TEMP:    	                   41.0 C,                    43.3 C
! # POINTS:         	                      500,                       500
! START FREQ:       	               10.000 MHz,                10.000 MHz
! STOP FREQ:        	              110.000 MHz,               110.000 MHz
! SOURCE POWER:     	                     High,                      High
! IFBW:             	                   100 Hz,                    100 Hz
! AVG FACTOR:       	                       4 ,                        4 
! REF PLANE 1:      	                     0 mm,                      0 mm
! REF PLANE 2:      	                     0 mm,                      0 mm
! CAL TYPE:         	                 Full S11,                  Full S11
! CAL METHOD:       	                     SOLT,                      SOLT
! CAL LINE TYPE:    	                     Coax,                      Coax
! DUT PORT 1:       	                K-Conn(M),                 K-Conn(M)
! DUT PORT 2:       	                N-Conn(M),                 N-Conn(M)
! CAL STATUS:       	        OK: Accuracy High,                        --
# GHZ S DB R 50.0
! FREQ.GHZ       S11DB        S11A       S21DB        S21A       S12DB        S12A       S22DB        S22A
  0.010000000   -0.610104  -46.651146 -106.255706  145.757950    0.000000    0.000000    0.000000    0.000000
  0.010200401   -0.598458  -47.685005 -104.586984  138.275543    0.000000    0.000000    0.000000    0.000000
  0.010400802   -0.586013  -48.669323 -106.383793  156.598694    0.000000    0.000000    0.000000    0.000000
  0.010601202   -0.572382  -49.580711 -103.122432  147.903183    0.000000    0.000000    0.000000    0.000000
  0.010801603   -0.581853  -50.602299 -104.248001  152.693008    0.000000    0.000000    0.000000    0.000000
  0.011002004   -0.563933  -51.466862 -103.905268  145.011612    0.000000    0.000000    0.000000    0.000000
  0.011202405   -0.577952  -52.555645 -104.415903  143.439240    0.000000    0.000000    0.000000    0.000000
  0.011402806   -0.574354  -53.551567 -102.382655  151.746872    0.000000    0.000000    0.000000    0.000000
  0.011603206   -0.574655  -54.572166 -102.108017  143.271912    0.000000    0.000000    0.000000    0.000000
  0.011803607   -0.576945  -55.517899 -103.936004  147.423035    0.000000    0.000000    0.000000    0.000000
  0.012004008   -0.573138  -56.655899 -102.125895  140.087097    0.000000    0.000000    0.000000    0.000000
  0.012204409   -0.568300  -57.694794 -102.562370  140.880493    0.000000    0.000000    0.000000    0.000000
  0.012404810   -0.568528  -58.721786 -103.118914  141.919525    0.000000    0.000000    0.000000    0.000000
  0.012605210   -0.563346  -59.697075 -103.648664  140.786453    0.000000    0.000000    0.000000    0.000000
  0.012805611   -0.555469  -60.720020 -102.590210  137.332108    0.000000    0.000000    0.000000    0.000000
  0.013006012   -0.573391  -61.668598 -102.732646  139.462112    0.000000    0.000000    0.000000    0.000000
  0.013206413   -0.559184  -62.788727 -103.425338  131.432266    0.000000    0.000000    0.000000    0.000000
  0.013406814   -0.557064  -63.799057 -102.716020  135.771408    0.000000    0.000000    0.000000    0.000000
  0.013607214   -0.559905  -64.862114 -103.702716  137.059326    0.000000    0.000000    0.000000    0.000000
  0.013807615   -0.557385  -65.944122 -103.626120  130.811447    0.000000    0.000000    0.000000    0.000000
  0.014008016   -0.553701  -67.000557 -104.920079  138.098007    0.000000    0.000000    0.000000    0.000000
  0.014208417   -0.563415  -68.107361 -103.092399  131.975830    0.000000    0.000000    0.000000    0.000000
  0.014408818   -0.541030  -69.140091 -104.845071  124.716347    0.000000    0.000000    0.000000    0.000000
  0.014609218   -0.533132  -70.174469 -105.576331  139.220367    0.000000    0.000000    0.000000    0.000000
  0.014809619   -0.529867  -71.214035 -107.109185  131.100922    0.000000    0.000000    0.000000    0.000000
  0.015010020   -0.523791  -72.233398 -106.808039  138.997574    0.000000    0.000000    0.000000    0.000000
  0.015210421   -0.523768  -73.242966 -106.709915  140.152649    0.000000    0.000000    0.000000    0.000000
  0.015410822   -0.522808  -74.271194 -105.759238  138.839218    0.000000    0.000000    0.000000    0.000000
  0.015611222   -0.532705  -75.365715 -106.049297  133.369217    0.000000    0.000000    0.000000    0.000000
  0.015811623   -0.530332  -76.413322 -105.608991  127.475204    0.000000    0.000000    0.000000    0.000000
  0.016012024   -0.537159  -77.482201 -107.205436  127.787659    0.000000    0.000000    0.000000    0.000000
  0.016212425   -0.536024  -78.572784 -106.636615  136.516815    0.000000    0.000000    0.000000    0.000000
  0.016412826   -0.539890  -79.660378 -107.142451  133.192307    0.000000    0.000000    0.000000    0.000000
  0.016613226   -0.539551  -80.795853 -108.084540  137.801498    0.000000    0.000000    0.000000    0.000000
  0.016813627   -0.543553  -81.946945 -106.668904  138.863937    0.000000    0.000000    0.000000    0.000000
  0.017014028   -0.544755  -82.998390 -106.953998  144.831573    0.000000    0.000000    0.000000    0.000000
  0.017214429   -0.542796  -84.156891 -108.354144  136.177017    0.000000    0.000000    0.000000    0.000000
  0.017414830   -0.547649  -85.298492 -108.893114  148.949203    0.000000    0.000000    0.000000    0.000000
  0.017615230   -0.545695  -86.452644 -108.103911  147.103851    0.000000    0.000000    0.000000    0.000000
  0.017815631   -0.542568  -87.650696 -106.918145  146.309860    0.000000    0.000000    0.000000    0.000000
  0.018016032   -0.534389  -88.843384 -106.692594  145.809784    0.000000    0.000000    0.000000    0.000000
  0.018216433   -0.535614  -89.996124 -105.952295  146.613541    0.000000    0.000000    0.000000    0.000000
  0.018416834   -0.529558  -91.150398 -105.891387  146.404022    0.000000    0.000000    0.000000    0.000000
  0.018617234   -0.521631  -92.321281 -104.757423  156.525574    0.000000    0.000000    0.000000    0.000000
  0.018817635   -0.517023  -93.479118 -106.089061  151.590958    0.000000    0.000000    0.000000    0.000000
  0.019018036   -0.511385  -94.649246 -105.051720  140.799484    0.000000    0.000000    0.000000    0.000000
  0.019218437   -0.495596  -95.851585 -104.573321  135.273071    0.000000    0.000000    0.000000    0.000000
  0.019418838   -0.498151  -97.019646 -105.187998  143.164902    0.000000    0.000000    0.000000    0.000000
  0.019619238   -0.494832  -98.194511 -105.340202  142.848404    0.000000    0.000000    0.000000    0.000000
  0.019819639   -0.487752  -99.393471 -104.098107  139.365265    0.000000    0.000000    0.000000    0.000000
  0.020020040   -0.486518 -100.567444 -105.713985  148.920197    0.000000    0.000000    0.000000    0.000000
  0.020220441   -0.481058 -101.733429 -105.670945  133.745575    0.000000    0.000000    0.000000    0.000000
  0.020420842   -0.475752 -102.896339 -105.058493  138.169327    0.000000    0.000000    0.000000    0.000000
  0.020621242   -0.476355 -104.058235 -104.106298  140.010971    0.000000    0.000000    0.000000    0.000000
  0.020821643   -0.480996 -105.307663 -104.775317  146.929169    0.000000    0.000000    0.000000    0.000000
  0.021022044   -0.482590 -106.485992 -105.771610  149.550262    0.000000    0.000000    0.000000    0.000000
  0.021222445   -0.488380 -107.767136 -105.585531  140.463425    0.000000    0.000000    0.000000    0.000000
  0.021422846   -0.498890 -108.986237 -104.521063  137.457977    0.000000    0.000000    0.000000    0.000000
  0.021623246   -0.501316 -110.263062 -105.513917  145.125183    0.000000    0.000000    0.000000    0.000000
  0.021823647   -0.505036 -111.521149 -105.139210  135.168747    0.000000    0.000000    0.000000    0.000000
  0.022024048   -0.499005 -112.882164 -104.715248  141.398148    0.000000    0.000000    0.000000    0.000000
  0.022224449   -0.499006 -114.129791 -105.303844  142.871155    0.000000    0.000000    0.000000    0.000000
  0.022424850   -0.495072 -115.419296 -105.669022  142.007736    0.000000    0.000000    0.000000    0.000000
  0.022625251   -0.495507 -116.683167 -105.729846  137.229309    0.000000    0.000000    0.000000    0.000000
  0.022825651   -0.501217 -117.964485 -105.340699  136.927353    0.000000    0.000000    0.000000    0.000000
  0.023026052   -0.509528 -119.194412 -105.818058  134.653900    0.000000    0.000000    0.000000    0.000000
  0.023226453   -0.511731 -120.521133 -107.593645  138.970154    0.000000    0.000000    0.000000    0.000000
  0.023426854   -0.518181 -121.810577 -106.598371  136.176315    0.000000    0.000000    0.000000    0.000000
  0.023627255   -0.528883 -123.138458 -107.326762  135.172531    0.000000    0.000000    0.000000    0.000000
  0.023827655   -0.536923 -124.462532 -105.974791  144.063751    0.000000    0.000000    0.000000    0.000000
  0.024028056   -0.542103 -125.820129 -105.948185  141.255661    0.000000    0.000000    0.000000    0.000000
  0.024228457   -0.556274 -127.157806 -107.357349  140.581284    0.000000    0.000000    0.000000    0.000000
  0.024428858   -0.547859 -128.479996 -108.045536  141.554459    0.000000    0.000000    0.000000    0.000000
  0.024629259   -0.553300 -129.796692 -107.715086  129.823776    0.000000    0.000000    0.000000    0.000000
  0.024829659   -0.553489 -131.145142 -106.964402  145.514786    0.000000    0.000000    0.000000    0.000000
  0.025030060   -0.566986 -132.482376 -107.720341  147.495193    0.000000    0.000000    0.000000    0.000000
  0.025230461   -0.582361 -133.812927 -106.170319  141.883499    0.000000    0.000000    0.000000    0.000000
  0.025430862   -0.608731 -135.232834 -109.465634  149.982437    0.000000    0.000000    0.000000    0.000000
  0.025631263   -0.624364 -136.627640 -106.596156  136.664398    0.000000    0.000000    0.000000    0.000000
  0.025831663   -0.642053 -137.986969 -106.522587  144.235870    0.000000    0.000000    0.000000    0.000000
  0.026032064   -0.660604 -139.534943 -105.206016  141.341492    0.000000    0.000000    0.000000    0.000000
  0.026232465   -0.676370 -141.014877 -107.554938  148.286743    0.000000    0.000000    0.000000    0.000000
  0.026432866   -0.688517 -142.497711 -106.930317  132.116516    0.000000    0.000000    0.000000    0.000000
  0.026633267   -0.697335 -143.966324 -107.110184  146.799896    0.000000    0.000000    0.000000    0.000000
  0.026833667   -0.707534 -145.496689 -106.092976  149.821259    0.000000    0.000000    0.000000    0.000000
  0.027034068   -0.723625 -146.910370 -107.583536  146.836288    0.000000    0.000000    0.000000    0.000000
  0.027234469   -0.737054 -148.404282 -105.435985  138.812332    0.000000    0.000000    0.000000    0.000000
  0.027434870   -0.753173 -149.889069 -105.591730  141.528076    0.000000    0.000000    0.000000    0.000000
  0.027635271   -0.769647 -151.386261 -105.595467  135.821365    0.000000    0.000000    0.000000    0.000000
  0.027835671   -0.791739 -152.925323 -105.791185  140.669922    0.000000    0.000000    0.000000    0.000000
  0.028036072   -0.802680 -154.442307 -106.120999  145.613632    0.000000    0.000000    0.000000    0.000000
  0.028236473   -0.828918 -155.993332 -106.498729  142.741104    0.000000    0.000000    0.000000    0.000000
  0.028436874   -0.852746 -157.542160 -105.230985  147.948196    0.000000    0.000000    0.000000    0.000000
  0.028637275   -0.872653 -159.099518 -106.092618  137.887131    0.000000    0.000000    0.000000    0.000000
  0.028837675   -0.892233 -160.683502 -105.230097  146.328033    0.000000    0.000000    0.000000    0.000000
  0.029038076   -0.914057 -162.259384 -106.651723  144.971573    0.000000    0.000000    0.000000    0.000000
  0.029238477   -0.936618 -163.784256 -105.530675  141.362625    0.000000    0.000000    0.000000    0.000000
  0.029438878   -0.965464 -165.407410 -105.930159  135.605927    0.000000    0.000000    0.000000    0.000000
  0.029639279   -0.995228 -167.017868 -105.816168  144.328827    0.000000    0.000000    0.000000    0.000000
  0.029839679   -1.025562 -168.606415 -106.684522  150.133148    0.000000    0.000000    0.000000    0.000000
  0.030040080   -1.055051 -170.257172 -104.992362  146.537842    0.000000    0.000000    0.000000    0.000000
  0.030240481   -1.082377 -171.926865 -105.447875  144.485992    0.000000    0.000000    0.000000    0.000000
  0.030440882   -1.115114 -173.580811 -105.816232  142.409698    0.000000    0.000000    0.000000    0.000000
  0.030641283   -1.147702 -175.241989 -105.893603  137.784912    0.000000    0.000000    0.000000    0.000000
  0.030841683   -1.173502 -176.905716 -106.470586  152.930466    0.000000    0.000000    0.000000    0.000000
  0.031042084   -1.213786 -178.595245 -106.710818  139.302551    0.000000    0.000000    0.000000    0.000000
  0.031242485   -1.249600  179.721710 -106.980129  140.845016    0.000000    0.000000    0.000000    0.000000
  0.031442886   -1.284342  178.019424 -107.245793  138.799194    0.000000    0.000000    0.000000    0.000000
  0.031643287   -1.319495  176.310455 -106.351716  139.114578    0.000000    0.000000    0.000000    0.000000
  0.031843687   -1.363016  174.604050 -106.044159  137.865051    0.000000    0.000000    0.000000    0.000000
  0.032044088   -1.403737  172.866791 -107.922572  147.492416    0.000000    0.000000    0.000000    0.000000
  0.032244489   -1.446150  171.141998 -106.527780  137.627502    0.000000    0.000000    0.000000    0.000000
  0.032444890   -1.485612  169.409561 -107.052373  136.718658    0.000000    0.000000    0.000000    0.000000
  0.032645291   -1.533853  167.659454 -108.693920  144.152328    0.000000    0.000000    0.000000    0.000000
  0.032845691   -1.579923  165.904190 -106.803402  140.407959    0.000000    0.000000    0.000000    0.000000
  0.033046092   -1.629994  164.108322 -105.818427  140.423004    0.000000    0.000000    0.000000    0.000000
  0.033246493   -1.681054  162.322098 -108.008501  140.051697    0.000000    0.000000    0.000000    0.000000
  0.033446894   -1.729372  160.492996 -107.624188  142.671494    0.000000    0.000000    0.000000    0.000000
  0.033647295   -1.778166  158.644882 -106.535213  142.725388    0.000000    0.000000    0.000000    0.000000
  0.033847695   -1.822899  156.802460 -106.014632  138.956879    0.000000    0.000000    0.000000    0.000000
  0.034048096   -1.868574  154.976547 -107.455785  143.694626    0.000000    0.000000    0.000000    0.000000
  0.034248497   -1.908219  153.146591 -106.447888  143.741562    0.000000    0.000000    0.000000    0.000000
  0.034448898   -1.960178  151.330124 -108.566756  148.742935    0.000000    0.000000    0.000000    0.000000
  0.034649299   -2.015368  149.505905 -107.013968  144.350998    0.000000    0.000000    0.000000    0.000000
  0.034849699   -2.066930  147.681442 -106.188623  139.804260    0.000000    0.000000    0.000000    0.000000
  0.035050100   -2.121345  145.841522 -106.484256  141.798080    0.000000    0.000000    0.000000    0.000000
  0.035250501   -2.182052  144.018784 -104.808230  144.958771    0.000000    0.000000    0.000000    0.000000
  0.035450902   -2.243758  142.139008 -104.919001  138.349915    0.000000    0.000000    0.000000    0.000000
  0.035651303   -2.303339  140.245468 -105.434885  135.661942    0.000000    0.000000    0.000000    0.000000
  0.035851703   -2.365309  138.379379 -105.705910  131.901352    0.000000    0.000000    0.000000    0.000000
  0.036052104   -2.421411  136.555573 -105.798434  144.263779    0.000000    0.000000    0.000000    0.000000
  0.036252505   -2.482628  134.557327 -105.383198  143.317154    0.000000    0.000000    0.000000    0.000000
  0.036452906   -2.538556  132.683960 -104.938637  135.646576    0.000000    0.000000    0.000000    0.000000
  0.036653307   -2.604159  130.838974 -105.793983  127.948898    0.000000    0.000000    0.000000    0.000000
  0.036853707   -2.669556  129.010559 -104.208468  135.696320    0.000000    0.000000    0.000000    0.000000
  0.037054108   -2.739964  127.108727 -104.996569  142.716263    0.000000    0.000000    0.000000    0.000000
  0.037254509   -2.792270  125.097359 -105.647606  141.997604    0.000000    0.000000    0.000000    0.000000
  0.037454910   -2.871540  123.231277 -105.561780  142.545395    0.000000    0.000000    0.000000    0.000000
  0.037655311   -2.940562  121.292305 -105.528743  136.624130    0.000000    0.000000    0.000000    0.000000
  0.037855711   -2.979036  119.323196 -104.693604  137.305176    0.000000    0.000000    0.000000    0.000000
  0.038056112   -3.056116  117.401703 -104.741898  139.546509    0.000000    0.000000    0.000000    0.000000
  0.038256513   -3.095590  115.456779 -105.494700  147.651947    0.000000    0.000000    0.000000    0.000000
  0.038456914   -3.176821  113.491074 -106.357281  138.510574    0.000000    0.000000    0.000000    0.000000
  0.038657315   -3.221556  111.673805 -106.547285  133.211716    0.000000    0.000000    0.000000    0.000000
  0.038857715   -3.283273  109.824585 -106.904968  134.068298    0.000000    0.000000    0.000000    0.000000
  0.039058116   -3.361065  107.889610 -106.001097  134.951813    0.000000    0.000000    0.000000    0.000000
  0.039258517   -3.428038  105.984955 -107.305058  136.613846    0.000000    0.000000    0.000000    0.000000
  0.039458918   -3.499688  104.097305 -106.911694  138.268524    0.000000    0.000000    0.000000    0.000000
  0.039659319   -3.561677  102.302467 -106.347318  138.228928    0.000000    0.000000    0.000000    0.000000
  0.039859719   -3.630097  100.392456 -105.759785  138.249222    0.000000    0.000000    0.000000    0.000000
  0.040060120   -3.701516   98.486801 -106.592101  139.596344    0.000000    0.000000    0.000000    0.000000
  0.040260521   -3.770763   96.588348 -106.279491  140.971100    0.000000    0.000000    0.000000    0.000000
  0.040460922   -3.833551   94.561325 -105.864325  141.532364    0.000000    0.000000    0.000000    0.000000
  0.040661323   -3.901749   92.779900 -106.902221  133.630661    0.000000    0.000000    0.000000    0.000000
  0.040861723   -3.968476   90.829865 -106.084793  137.708649    0.000000    0.000000    0.000000    0.000000
  0.041062124   -4.034552   88.916336 -107.168564  139.518784    0.000000    0.000000    0.000000    0.000000
  0.041262525   -4.095032   86.999313 -107.227250  139.268494    0.000000    0.000000    0.000000    0.000000
  0.041462926   -4.155215   85.100739 -106.726764  135.955856    0.000000    0.000000    0.000000    0.000000
  0.041663327   -4.209711   83.152702 -107.579620  142.859711    0.000000    0.000000    0.000000    0.000000
  0.041863727   -4.262009   81.252098 -105.633989  138.035416    0.000000    0.000000    0.000000    0.000000
  0.042064128   -4.323799   79.418442 -106.161015  144.873276    0.000000    0.000000    0.000000    0.000000
  0.042264529   -4.373317   77.542328 -106.700212  142.933563    0.000000    0.000000    0.000000    0.000000
  0.042464930   -4.423814   75.656807 -105.812753  140.104675    0.000000    0.000000    0.000000    0.000000
  0.042665331   -4.481909   73.803688 -105.764338  139.762589    0.000000    0.000000    0.000000    0.000000
  0.042865731   -4.526074   71.919846 -105.473802  139.027756    0.000000    0.000000    0.000000    0.000000
