! Anritsu VNA Master:                 Model: MS2034B/10/19/501
! SN:                                  1337062
! /bd0/ovro-jan-2016/vna-jan/vna-ant252-a2-s11-2.s2p
! Existing Calibration Information:
! TYPE:                         Current Settings,       Active Cal Settings
! TIME:             	   01/13/2016 06:06:59 PM,    01/13/2016 05:56:29 PM
! INTERNAL TEMP:    	                   41.0 C,                    43.3 C
! # POINTS:         	                      500,                       500
! START FREQ:       	               10.000 MHz,                10.000 MHz
! STOP FREQ:        	              110.000 MHz,               110.000 MHz
! SOURCE POWER:     	                     High,                      High
! IFBW:             	                   100 Hz,                    100 Hz
! AVG FACTOR:       	                       4 ,                        4 
! REF PLANE 1:      	                     0 mm,                      0 mm
! REF PLANE 2:      	                     0 mm,                      0 mm
! CAL TYPE:         	                 Full S11,                  Full S11
! CAL METHOD:       	                     SOLT,                      SOLT
! CAL LINE TYPE:    	                     Coax,                      Coax
! DUT PORT 1:       	                K-Conn(M),                 K-Conn(M)
! DUT PORT 2:       	                N-Conn(M),                 N-Conn(M)
! CAL STATUS:       	        OK: Accuracy High,                        --
# GHZ S DB R 50.0
! FREQ.GHZ       S11DB        S11A       S21DB        S21A       S12DB        S12A       S22DB        S22A
  0.010000000   -0.612690  -46.575047 -106.429579  145.324234    0.000000    0.000000    0.000000    0.000000
  0.010200401   -0.599753  -47.613182 -104.591393  146.601913    0.000000    0.000000    0.000000    0.000000
  0.010400802   -0.586387  -48.587265 -104.648730  142.112320    0.000000    0.000000    0.000000    0.000000
  0.010601202   -0.573733  -49.497978 -104.167819  140.584946    0.000000    0.000000    0.000000    0.000000
  0.010801603   -0.583921  -50.534668 -103.788724  150.859467    0.000000    0.000000    0.000000    0.000000
  0.011002004   -0.564631  -51.399765 -103.869053  147.958160    0.000000    0.000000    0.000000    0.000000
  0.011202405   -0.577792  -52.483917 -103.510046  147.300705    0.000000    0.000000    0.000000    0.000000
  0.011402806   -0.575129  -53.470879 -103.649960  144.903336    0.000000    0.000000    0.000000    0.000000
  0.011603206   -0.575994  -54.500259 -102.994873  147.946548    0.000000    0.000000    0.000000    0.000000
  0.011803607   -0.577915  -55.447659 -103.857874  137.995438    0.000000    0.000000    0.000000    0.000000
  0.012004008   -0.573046  -56.579781 -103.991719  146.984818    0.000000    0.000000    0.000000    0.000000
  0.012204409   -0.568355  -57.627441 -103.250014  139.800415    0.000000    0.000000    0.000000    0.000000
  0.012404810   -0.569218  -58.651352 -103.041343  145.139252    0.000000    0.000000    0.000000    0.000000
  0.012605210   -0.564024  -59.633541 -103.046800  136.041595    0.000000    0.000000    0.000000    0.000000
  0.012805611   -0.555333  -60.658035 -102.793672  140.264526    0.000000    0.000000    0.000000    0.000000
  0.013006012   -0.573968  -61.604012 -103.420421  137.681473    0.000000    0.000000    0.000000    0.000000
  0.013206413   -0.559788  -62.716908 -102.972148  139.744812    0.000000    0.000000    0.000000    0.000000
  0.013406814   -0.557015  -63.735664 -103.039593  134.144180    0.000000    0.000000    0.000000    0.000000
  0.013607214   -0.559929  -64.802956 -104.167457  135.649384    0.000000    0.000000    0.000000    0.000000
  0.013807615   -0.557873  -65.880379 -103.417175  140.763626    0.000000    0.000000    0.000000    0.000000
  0.014008016   -0.554424  -66.945107 -104.727494  132.748352    0.000000    0.000000    0.000000    0.000000
  0.014208417   -0.563955  -68.044830 -105.357263  139.147476    0.000000    0.000000    0.000000    0.000000
  0.014408818   -0.541150  -69.084373 -104.498961  132.934784    0.000000    0.000000    0.000000    0.000000
  0.014609218   -0.535403  -70.117821 -105.769741  137.190018    0.000000    0.000000    0.000000    0.000000
  0.014809619   -0.529645  -71.158371 -105.521731  138.779755    0.000000    0.000000    0.000000    0.000000
  0.015010020   -0.524032  -72.166862 -105.628537  136.020721    0.000000    0.000000    0.000000    0.000000
  0.015210421   -0.523696  -73.184059 -106.269413  128.554321    0.000000    0.000000    0.000000    0.000000
  0.015410822   -0.522556  -74.214890 -106.199225  127.615967    0.000000    0.000000    0.000000    0.000000
  0.015611222   -0.532778  -75.306213 -106.648284  134.475723    0.000000    0.000000    0.000000    0.000000
  0.015811623   -0.530138  -76.349586 -107.969006  139.162170    0.000000    0.000000    0.000000    0.000000
  0.016012024   -0.536210  -77.429085 -106.146854  130.930725    0.000000    0.000000    0.000000    0.000000
  0.016212425   -0.535859  -78.514305 -106.986911  141.401474    0.000000    0.000000    0.000000    0.000000
  0.016412826   -0.540229  -79.600777 -107.016248  131.090286    0.000000    0.000000    0.000000    0.000000
  0.016613226   -0.540097  -80.739365 -108.547139  148.276398    0.000000    0.000000    0.000000    0.000000
  0.016813627   -0.543742  -81.889778 -108.295406  142.716370    0.000000    0.000000    0.000000    0.000000
  0.017014028   -0.544316  -82.939491 -106.606397  141.524063    0.000000    0.000000    0.000000    0.000000
  0.017214429   -0.543726  -84.097923 -107.735998  137.222458    0.000000    0.000000    0.000000    0.000000
  0.017414830   -0.547701  -85.241982 -107.906886  141.423462    0.000000    0.000000    0.000000    0.000000
  0.017615230   -0.547201  -86.395416 -106.787863  141.704117    0.000000    0.000000    0.000000    0.000000
  0.017815631   -0.543759  -87.569916 -106.557745  146.404099    0.000000    0.000000    0.000000    0.000000
  0.018016032   -0.536022  -88.783752 -106.016356  146.257416    0.000000    0.000000    0.000000    0.000000
  0.018216433   -0.535313  -89.939278 -106.900969  151.119507    0.000000    0.000000    0.000000    0.000000
  0.018416834   -0.529628  -91.095749 -105.700336  150.259308    0.000000    0.000000    0.000000    0.000000
  0.018617234   -0.522671  -92.264114 -106.895059  151.862869    0.000000    0.000000    0.000000    0.000000
  0.018817635   -0.515808  -93.426086 -104.821821  145.464386    0.000000    0.000000    0.000000    0.000000
  0.019018036   -0.510987  -94.609360 -104.078225  139.685577    0.000000    0.000000    0.000000    0.000000
  0.019218437   -0.496625  -95.804176 -104.275810  145.658340    0.000000    0.000000    0.000000    0.000000
  0.019418838   -0.496759  -96.974388 -104.677638  151.275513    0.000000    0.000000    0.000000    0.000000
  0.019619238   -0.494416  -98.148773 -104.806628  142.153214    0.000000    0.000000    0.000000    0.000000
  0.019819639   -0.488391  -99.347115 -105.565647  141.737625    0.000000    0.000000    0.000000    0.000000
  0.020020040   -0.486926 -100.524498 -105.570566  144.818222    0.000000    0.000000    0.000000    0.000000
  0.020220441   -0.481467 -101.691193 -104.144280  140.674683    0.000000    0.000000    0.000000    0.000000
  0.020420842   -0.475986 -102.856468 -105.676617  152.917786    0.000000    0.000000    0.000000    0.000000
  0.020621242   -0.476267 -104.018906 -103.642936  136.964233    0.000000    0.000000    0.000000    0.000000
  0.020821643   -0.480507 -105.269180 -105.311882  150.008148    0.000000    0.000000    0.000000    0.000000
  0.021022044   -0.482129 -106.450546 -105.408933  145.908844    0.000000    0.000000    0.000000    0.000000
  0.021222445   -0.487692 -107.726227 -106.607922  152.068466    0.000000    0.000000    0.000000    0.000000
  0.021422846   -0.498323 -108.950813 -105.201752  131.658051    0.000000    0.000000    0.000000    0.000000
  0.021623246   -0.500785 -110.223274 -105.581836  143.671371    0.000000    0.000000    0.000000    0.000000
  0.021823647   -0.503701 -111.492493 -104.975740  134.659531    0.000000    0.000000    0.000000    0.000000
  0.022024048   -0.497500 -112.828857 -104.042690  141.379608    0.000000    0.000000    0.000000    0.000000
  0.022224449   -0.497812 -114.090965 -105.198480  137.703613    0.000000    0.000000    0.000000    0.000000
  0.022424850   -0.495051 -115.381691 -105.682948  139.054489    0.000000    0.000000    0.000000    0.000000
  0.022625251   -0.495393 -116.631683 -105.619877  142.543335    0.000000    0.000000    0.000000    0.000000
  0.022825651   -0.500356 -117.919502 -107.619841  141.625427    0.000000    0.000000    0.000000    0.000000
  0.023026052   -0.506802 -119.142365 -106.699974  137.340469    0.000000    0.000000    0.000000    0.000000
  0.023226453   -0.509892 -120.468925 -106.633488  141.492538    0.000000    0.000000    0.000000    0.000000
  0.023426854   -0.514069 -121.747932 -106.060457  138.719315    0.000000    0.000000    0.000000    0.000000
  0.023627255   -0.529976 -123.063057 -106.069935  137.179977    0.000000    0.000000    0.000000    0.000000
  0.023827655   -0.535632 -124.398315 -106.653082  130.569916    0.000000    0.000000    0.000000    0.000000
  0.024028056   -0.540368 -125.743698 -108.094450  138.705948    0.000000    0.000000    0.000000    0.000000
  0.024228457   -0.553746 -127.082680 -108.897703  132.450607    0.000000    0.000000    0.000000    0.000000
  0.024428858   -0.546381 -128.397156 -108.623856  136.791046    0.000000    0.000000    0.000000    0.000000
  0.024629259   -0.551427 -129.715500 -107.847898  134.004944    0.000000    0.000000    0.000000    0.000000
  0.024829659   -0.552686 -131.051529 -107.238536  149.261124    0.000000    0.000000    0.000000    0.000000
  0.025030060   -0.566447 -132.386490 -106.364780  153.437561    0.000000    0.000000    0.000000    0.000000
  0.025230461   -0.581800 -133.709885 -108.201416  145.654770    0.000000    0.000000    0.000000    0.000000
  0.025430862   -0.608295 -135.124008 -107.517686  131.483063    0.000000    0.000000    0.000000    0.000000
  0.025631263   -0.623826 -136.515625 -107.758565  150.236359    0.000000    0.000000    0.000000    0.000000
  0.025831663   -0.642797 -137.892197 -108.218931  142.367981    0.000000    0.000000    0.000000    0.000000
  0.026032064   -0.661115 -139.420807 -106.783629  137.921616    0.000000    0.000000    0.000000    0.000000
  0.026232465   -0.676067 -140.890488 -107.191289  142.428177    0.000000    0.000000    0.000000    0.000000
  0.026432866   -0.688654 -142.378326 -107.426508  145.925430    0.000000    0.000000    0.000000    0.000000
  0.026633267   -0.697367 -143.846466 -106.856868  144.271591    0.000000    0.000000    0.000000    0.000000
  0.026833667   -0.709629 -145.365021 -107.404038  148.666840    0.000000    0.000000    0.000000    0.000000
  0.027034068   -0.724782 -146.775055 -105.555105  142.323486    0.000000    0.000000    0.000000    0.000000
  0.027234469   -0.736291 -148.281219 -105.925487  139.592545    0.000000    0.000000    0.000000    0.000000
  0.027434870   -0.753796 -149.751083 -105.349147  134.959122    0.000000    0.000000    0.000000    0.000000
  0.027635271   -0.770289 -151.259491 -105.159831  146.673660    0.000000    0.000000    0.000000    0.000000
  0.027835671   -0.792133 -152.792526 -106.050701  145.810913    0.000000    0.000000    0.000000    0.000000
  0.028036072   -0.803267 -154.314651 -106.502803  151.195267    0.000000    0.000000    0.000000    0.000000
  0.028236473   -0.830259 -155.858871 -105.905733  144.702515    0.000000    0.000000    0.000000    0.000000
  0.028436874   -0.853427 -157.414536 -105.648545  145.201263    0.000000    0.000000    0.000000    0.000000
  0.028637275   -0.873217 -158.970749 -105.990665  142.919357    0.000000    0.000000    0.000000    0.000000
  0.028837675   -0.893049 -160.555466 -107.564213  145.559647    0.000000    0.000000    0.000000    0.000000
  0.029038076   -0.915224 -162.128662 -105.208017  145.014511    0.000000    0.000000    0.000000    0.000000
  0.029238477   -0.937503 -163.653564 -107.157696  146.276428    0.000000    0.000000    0.000000    0.000000
  0.029438878   -0.965696 -165.276627 -105.785699  146.328720    0.000000    0.000000    0.000000    0.000000
  0.029639279   -0.994498 -166.879028 -104.780216  139.884888    0.000000    0.000000    0.000000    0.000000
  0.029839679   -1.024776 -168.474136 -107.166133  135.277267    0.000000    0.000000    0.000000    0.000000
  0.030040080   -1.055250 -170.118210 -106.161797  134.970276    0.000000    0.000000    0.000000    0.000000
  0.030240481   -1.081603 -171.782196 -106.119083  135.471970    0.000000    0.000000    0.000000    0.000000
  0.030440882   -1.115121 -173.432007 -105.692737  147.367661    0.000000    0.000000    0.000000    0.000000
  0.030641283   -1.146642 -175.087952 -106.379239  138.114227    0.000000    0.000000    0.000000    0.000000
  0.030841683   -1.173290 -176.753571 -107.548346  144.068405    0.000000    0.000000    0.000000    0.000000
  0.031042084   -1.211187 -178.449417 -105.794628  146.965393    0.000000    0.000000    0.000000    0.000000
  0.031242485   -1.249624  179.854553 -107.145901  150.132095    0.000000    0.000000    0.000000    0.000000
  0.031442886   -1.282811  178.181839 -107.997665  141.847397    0.000000    0.000000    0.000000    0.000000
  0.031643287   -1.320076  176.476257 -106.285438  141.026108    0.000000    0.000000    0.000000    0.000000
  0.031843687   -1.362677  174.766617 -107.138333  136.826935    0.000000    0.000000    0.000000    0.000000
  0.032044088   -1.402538  173.037140 -107.057678  145.387726    0.000000    0.000000    0.000000    0.000000
  0.032244489   -1.445943  171.311966 -108.347336  140.004150    0.000000    0.000000    0.000000    0.000000
  0.032444890   -1.484891  169.584198 -105.497865  146.628494    0.000000    0.000000    0.000000    0.000000
  0.032645291   -1.533243  167.838699 -105.524801  138.049820    0.000000    0.000000    0.000000    0.000000
  0.032845691   -1.580043  166.091690 -106.688713  141.005753    0.000000    0.000000    0.000000    0.000000
  0.033046092   -1.629242  164.296219 -106.299976  142.708725    0.000000    0.000000    0.000000    0.000000
  0.033246493   -1.681175  162.502747 -106.136565  145.147842    0.000000    0.000000    0.000000    0.000000
  0.033446894   -1.729707  160.681870 -107.549722  145.493378    0.000000    0.000000    0.000000    0.000000
  0.033647295   -1.778816  158.847153 -106.086085  139.787735    0.000000    0.000000    0.000000    0.000000
  0.033847695   -1.824230  156.994736 -106.272471  134.038544    0.000000    0.000000    0.000000    0.000000
  0.034048096   -1.870376  155.158203 -107.398642  142.621231    0.000000    0.000000    0.000000    0.000000
  0.034248497   -1.910593  153.329834 -107.271718  145.634827    0.000000    0.000000    0.000000    0.000000
  0.034448898   -1.963343  151.512878 -107.825673  143.207428    0.000000    0.000000    0.000000    0.000000
  0.034649299   -2.018154  149.684158 -106.454553  153.249313    0.000000    0.000000    0.000000    0.000000
  0.034849699   -2.070151  147.855652 -105.865623  142.383331    0.000000    0.000000    0.000000    0.000000
  0.035050100   -2.124762  146.014847 -106.473297  144.841568    0.000000    0.000000    0.000000    0.000000
  0.035250501   -2.185976  144.183578 -105.789479  141.103638    0.000000    0.000000    0.000000    0.000000
  0.035450902   -2.246797  142.290192 -106.277455  146.808609    0.000000    0.000000    0.000000    0.000000
  0.035651303   -2.306239  140.391006 -105.023850  139.465057    0.000000    0.000000    0.000000    0.000000
  0.035851703   -2.370104  138.527512 -105.738151  139.215805    0.000000    0.000000    0.000000    0.000000
  0.036052104   -2.425338  136.694489 -106.014647  146.837677    0.000000    0.000000    0.000000    0.000000
  0.036252505   -2.486258  134.688004 -104.187159  143.744125    0.000000    0.000000    0.000000    0.000000
  0.036452906   -2.542677  132.808701 -105.497360  137.858154    0.000000    0.000000    0.000000    0.000000
  0.036653307   -2.607470  130.953873 -106.085506  132.951309    0.000000    0.000000    0.000000    0.000000
  0.036853707   -2.673306  129.113129 -104.865319  135.486282    0.000000    0.000000    0.000000    0.000000
  0.037054108   -2.743132  127.205482 -105.657305  138.865540    0.000000    0.000000    0.000000    0.000000
  0.037254509   -2.796971  125.194878 -105.015294  141.823227    0.000000    0.000000    0.000000    0.000000
  0.037454910   -2.875790  123.324486 -105.074975  138.962296    0.000000    0.000000    0.000000    0.000000
  0.037655311   -2.942289  121.375290 -106.538386  143.679565    0.000000    0.000000    0.000000    0.000000
  0.037855711   -2.980967  119.407265 -104.285640  143.181381    0.000000    0.000000    0.000000    0.000000
  0.038056112   -3.056837  117.497337 -104.599425  142.628052    0.000000    0.000000    0.000000    0.000000
  0.038256513   -3.096356  115.523193 -104.294220  142.279739    0.000000    0.000000    0.000000    0.000000
  0.038456914   -3.174836  113.572029 -106.018394  141.411301    0.000000    0.000000    0.000000    0.000000
  0.038657315   -3.221537  111.753113 -105.171501  135.972504    0.000000    0.000000    0.000000    0.000000
  0.038857715   -3.283453  109.877197 -105.163684  143.095566    0.000000    0.000000    0.000000    0.000000
  0.039058116   -3.358426  107.960411 -106.140188  139.250153    0.000000    0.000000    0.000000    0.000000
  0.039258517   -3.426835  106.068909 -105.448826  143.244141    0.000000    0.000000    0.000000    0.000000
  0.039458918   -3.497479  104.185654 -106.251707  138.403931    0.000000    0.000000    0.000000    0.000000
  0.039659319   -3.558834  102.396965 -106.830034  135.706940    0.000000    0.000000    0.000000    0.000000
  0.039859719   -3.627890  100.487808 -107.386676  143.185684    0.000000    0.000000    0.000000    0.000000
  0.040060120   -3.697984   98.592888 -106.874551  138.882462    0.000000    0.000000    0.000000    0.000000
  0.040260521   -3.767201   96.702156 -108.098909  138.455063    0.000000    0.000000    0.000000    0.000000
  0.040460922   -3.829710   94.682449 -106.738247  140.808411    0.000000    0.000000    0.000000    0.000000
  0.040661323   -3.898212   92.905899 -105.861172  138.060806    0.000000    0.000000    0.000000    0.000000
  0.040861723   -3.964057   90.964012 -106.891110  144.083603    0.000000    0.000000    0.000000    0.000000
  0.041062124   -4.030479   89.062553 -106.006207  142.521698    0.000000    0.000000    0.000000    0.000000
  0.041262525   -4.091254   87.150116 -106.069914  137.831696    0.000000    0.000000    0.000000    0.000000
  0.041462926   -4.153688   85.263000 -105.990597  138.334717    0.000000    0.000000    0.000000    0.000000
  0.041663327   -4.206574   83.304977 -107.069739  141.937744    0.000000    0.000000    0.000000    0.000000
  0.041863727   -4.260421   81.409363 -107.381146  142.237762    0.000000    0.000000    0.000000    0.000000
  0.042064128   -4.321436   79.573738 -105.940959  139.503311    0.000000    0.000000    0.000000    0.000000
  0.042264529   -4.367158   77.649658 -106.824698  143.426697    0.000000    0.000000    0.000000    0.000000
  0.042464930   -4.422418   75.829231 -106.904402  138.244919    0.000000    0.000000    0.000000    0.000000
  0.042665331   -4.480942   73.950310 -106.312131  134.433365    0.000000    0.000000    0.000000    0.000000
  0.042865731   -4.521241   72.068535 -105.431566  135.149307    0.000000    0.000000    0.000000    0.000000
