! Anritsu VNA Master:                     Model: MS2036C/10/77
! SN:                                  1601066
! /card0/usr/cable.55003a.s2p
! Existing Calibration Information:
! TYPE:                         Current Settings,       Active Cal Settings
! TIME:             	   05/23/2018 09:21:50 AM,    05/23/2018 09:10:45 AM
! INTERNAL TEMP:    	                   48.5 C,                    48.3 C
! # POINTS:         	                      500,                       500
! START FREQ:       	               20.000 MHz,                20.000 MHz
! STOP FREQ:        	              120.000 MHz,               120.000 MHz
! SOURCE POWER:     	                     High,                      High
! IFBW:             	                    50 Hz,                     50 Hz
! AVG FACTOR:       	                       1 ,                        1 
! REF PLANE 1:      	                     0 mm,                      0 mm
! REF PLANE 2:      	                     0 mm,                      0 mm
! CAL TYPE:         	                 Full S22,                  Full S22
! CAL METHOD:       	                     SOLT,                      SOLT
! CAL LINE TYPE:    	                     Coax,                      Coax
! DUT PORT 1:       	                K-Conn(M),                 K-Conn(M)
! DUT PORT 2:       	                K-Conn(M),                 K-Conn(M)
! CAL STATUS:       	        OK: Accuracy High,                        --
# GHZ S DB R 50.0
! FREQ.GHZ       S11DB        S11A       S21DB        S21A       S12DB        S12A       S22DB        S22A
  0.020000000   -1.203436  166.709106 -110.207284 -140.050568  -89.933508   41.241451  -47.595806  157.961090
  0.020200401   -1.202536  166.483231 -108.170975 -123.998848  -89.921665   41.360584  -48.641834  155.324112
  0.020400802   -1.205557  166.247650 -113.003997 -120.950531  -89.670187   41.420338  -49.305755  152.839432
  0.020601202   -1.202939  166.194351 -108.297655 -130.856873  -90.011396   41.377758  -50.425924  151.143677
  0.020801603   -1.206429  165.960052 -108.108888 -102.085464  -90.489536   40.968815  -51.542913  149.193985
  0.021002004   -1.205603  165.901230 -117.635164 -135.574799  -89.987319   39.396809  -52.944295  148.846054
  0.021202405   -1.209283  165.680054 -112.351769 -144.816116  -90.534635   42.473637  -54.912906  140.911911
  0.021402806   -1.203955  165.452393 -111.297494 -101.049385  -90.284392   42.665867  -56.442530  142.867523
  0.021603206   -1.205996  165.401611 -112.173108 -109.790375  -90.525843   40.014423  -59.448112  135.703506
  0.021803607   -1.210478  165.180237 -112.076307 -131.143723  -90.997761   40.565910  -63.150947  127.820900
  0.022004008   -1.211061  165.124542 -111.090187 -170.254547  -91.116065   38.391716  -71.352950  100.182625
  0.022204409   -1.220038  164.900558 -110.114894  -78.080757  -90.841685   33.762707  -72.165026   29.313911
  0.022404810   -1.226861  164.671677 -110.625113 -144.340744  -90.741682   36.797749  -66.694127  -33.889679
  0.022605210   -1.226152  164.606812 -109.593148 -111.443016  -90.942661   37.265247  -60.484684  -34.588726
  0.022805611   -1.233007  164.382660 -114.930928  -95.009567  -91.371721   38.623093  -57.288920  -38.283726
  0.023006012   -1.228059  164.337769 -115.881829 -129.929993  -91.297062   37.925575  -55.613749  -44.133183
  0.023206413   -1.234663  164.117722 -110.897658 -138.732727  -91.563287   34.594265  -53.816616  -45.465221
  0.023406814   -1.241912  163.903183 -110.964619 -143.254822  -91.561729   35.756432  -52.509066  -50.584438
  0.023607214   -1.244290  163.844620 -107.788972 -155.452209  -91.544174   37.757977  -51.075876  -52.564857
  0.023807615   -1.251542  163.622223 -110.668440  -95.791748  -91.448294   33.527451  -49.988152  -54.840004
  0.024008016   -1.254783  163.583511 -106.503537 -118.668404  -91.894443   36.917538  -48.875448  -56.505161
  0.024208417   -1.261933  163.370148 -110.147569 -153.303833  -91.686794   35.097572  -48.234894  -58.587109
  0.024408818   -1.261151  163.154465 -110.477395  -88.073257  -91.894717   33.282997  -47.385906  -59.745754
  0.024609218   -1.263753  163.119293 -109.998150 -115.822647  -92.330636   37.231815  -46.675482  -61.060787
  0.024809619   -1.269536  162.906067 -119.765361 -130.109909  -92.712267   32.549389  -46.036556  -64.116470
  0.025010020   -1.272293  162.867081 -113.313769 -108.495697  -92.577828   32.295509  -45.376851  -65.683777
  0.025210421   -1.266254  162.669495 -113.472880 -121.856682  -93.164878   32.286045  -44.827139  -68.112755
  0.025410822   -1.273301  162.461380 -112.668553  -54.353069  -91.837889   33.299370  -44.526685  -70.646935
  0.025611222   -1.276797  162.421860 -110.630598 -128.852875  -92.113528   33.517456  -44.026320  -71.739944
  0.025811623   -1.283417  162.209335 -111.282282 -124.605202  -92.413475   32.550674  -43.521422  -74.062195
  0.026012024   -1.285527  162.173599 -109.963900 -136.834488  -92.677836   33.796429  -43.109135  -76.394051
  0.026212425   -1.292754  161.965591 -110.763229 -128.942490  -93.137021   29.974752  -42.759139  -78.896027
  0.026412826   -1.298736  161.764450 -111.496792 -108.798248  -92.510332   32.575943  -42.345700  -79.588287
  0.026613226   -1.357267  161.722931 -115.441597 -125.305786  -93.731488   33.222500  -42.079543  -81.772888
  0.026813627   -1.361137  161.527710 -109.893679  -93.801582  -92.878014   30.513861  -41.860930  -83.308365
  0.027014028   -1.361507  161.507324 -111.212905  -93.943031  -93.315377   30.994982  -41.542751  -85.535927
  0.027214429   -1.365979  161.319519 -110.854315  -93.286407  -93.472246   32.192574  -41.284618  -87.251991
  0.027414830   -1.359381  161.129852 -107.845914  -97.241829  -93.854004   33.119682  -40.981921  -88.960938
  0.027615230   -1.359719  161.106155 -107.343052 -108.688507  -94.159579   27.867697  -40.802979  -91.425316
  0.027815631   -1.366058  160.916382 -111.085670  -88.913544  -93.397706   36.724152  -40.608976  -93.147530
  0.028016032   -1.368001  160.894577 -110.187184 -131.430450  -94.108373   35.465073  -40.314136  -95.167465
  0.028216433   -1.373723  160.699829 -109.403387 -115.932144  -93.584843   31.744305  -40.200362  -97.040100
  0.028416834   -1.378854  160.506500 -111.463656 -140.562103  -93.660862   30.983459  -39.930433  -98.539886
  0.028617234   -1.380286  160.481277 -110.690756 -100.360085  -94.080937   35.702541  -39.826792 -100.518219
  0.028817635   -1.385343  160.287094 -108.237883 -104.414642  -94.163857   25.378710  -39.641341 -102.523651
  0.029018036   -1.384664  160.272629 -116.636101 -119.030609  -94.103317   27.335440  -39.457440 -104.762367
  0.029218437   -1.388088  160.088104 -118.688394 -111.282143  -94.336216   23.470879  -39.278686 -105.959259
  0.029418838   -1.391936  159.907990 -110.410440  -92.959953  -94.368334   24.858641  -39.250484 -108.069504
  0.029619238   -1.384026  159.899597 -110.687009  -66.475891  -94.343193   27.276901  -39.186689 -109.881073
  0.029819639   -1.387981  159.717789 -108.916392 -115.679543  -93.753173   27.874462  -38.994260 -111.135834
  0.030020040   -1.387917  159.698792 -112.236412 -105.749489  -94.902002   21.421219  -38.971254 -113.321861
  0.030220441   -1.392364  159.498566 -113.190915  -93.299866  -94.710388   28.090315  -38.830387 -115.467117
  0.030420842   -1.397843  159.285583 -111.378080  -99.286591  -94.567435   26.259583  -38.794098 -117.239349
  0.030621242   -1.398155  159.231537 -110.208633  -88.452789  -94.462310   27.540171  -38.684671 -119.177277
  0.030821643   -1.404340  159.011124 -110.982069 -121.969109  -94.613227   25.044157  -38.650623 -120.930519
  0.031022044   -1.405105  158.953629 -109.348502 -113.157997  -94.477180   26.286863  -38.618572 -122.778358
  0.031222445   -1.308629  158.992249 -109.139143 -124.149361  -95.864702   19.876072  -38.626804 -124.430298
  0.031422846   -1.313433  158.789230 -110.945527 -101.331390  -94.997494   25.178783  -38.560571 -126.274925
  0.031623246   -1.314744  158.758835 -109.986319 -115.440453  -94.864766   27.152666  -38.589353 -127.950478
  0.031823647   -1.319452  158.557648 -110.661151 -118.716339  -95.289964   17.660217  -38.540433 -129.314484
  0.032024048   -1.319849  158.528748 -108.968609  -88.562668  -95.257809   21.002310  -38.536334 -131.328888
  0.032224449   -1.324339  158.324051 -109.778608 -117.926086  -94.916111   25.917490  -38.561385 -133.342545
  0.032424850   -1.319921  158.117493 -112.754040  -93.059074  -95.237935   28.278772  -38.648543 -134.820511
  0.032625251   -1.319710  158.089020 -108.603832 -115.157509  -95.387059   22.003752  -38.623209 -136.966904
  0.032825651   -1.324815  157.879868 -108.376009  -95.640602  -94.902814   22.016474  -38.592025 -138.675186
  0.033026052   -1.325296  157.841629 -112.399090 -109.956772  -95.050117   25.665434  -38.699330 -140.712311
  0.033226453   -1.329906  157.622208 -113.277922  -75.901245  -95.053351   25.689894  -38.754503 -142.723892
  0.033426854   -1.334941  157.411484 -116.187028 -125.171738  -96.064768   26.484360  -38.803084 -144.568253
  0.033627255   -1.334220  157.367203 -108.960282 -112.002144  -96.233467   18.427422  -38.911740 -145.788818
  0.033827655   -1.337376  157.149811 -112.181188 -115.502052  -96.026899   17.036480  -38.973887 -147.824554
  0.034028056   -1.337803  157.104370 -118.044844 -141.164322  -96.061134   24.161263  -39.097018 -149.272293
  0.034228457   -1.340541  156.886749 -109.601848 -103.800255  -95.632895   16.376268  -39.297871 -151.233337
  0.034428858   -1.344160  156.668320 -117.490682 -132.523468  -94.531967   23.951733  -39.284731 -153.746429
  0.034629259   -1.343886  156.630569 -103.479248  -78.054543  -96.637796   21.390724  -39.476389 -155.360733
  0.034829659   -1.338251  156.420593 -115.238524  -96.875076  -96.576850   30.792118  -39.649970 -156.664764
  0.035030060   -1.336417  156.368546 -135.568409   -1.712533  -96.530679   25.091578  -39.824355 -158.813339
  0.035230461   -1.338044  156.159332 -108.513889 -142.626495  -95.796602   20.714598  -39.947062 -160.415863
  0.035430862   -1.340726  155.951950 -105.967538 -112.482841  -96.713955   24.106018  -40.101361 -162.599716
  0.035631263   -1.337488  155.916901 -114.990605  -89.154579  -97.280138   17.579985  -40.309325 -164.284164
  0.035831663   -1.339063  155.712280 -109.988919 -118.581482  -97.026006   28.515430  -40.527740 -165.957184
  0.036032064   -1.335672  155.676407 -109.291776 -123.177284  -97.002663   14.411514  -40.794923 -167.739243
  0.036232465   -1.336565  155.475723 -107.907053 -114.152084  -96.811142   26.384605  -41.081892 -169.927551
  0.036432866   -1.336966  155.274918 -109.403309 -127.749306  -97.761058   29.595486  -41.319364 -171.317719
  0.036633267   -1.341086  155.237442 -111.215389 -116.746048  -96.763481   24.015369  -41.688617 -172.959579
  0.036833667   -1.341666  155.031982 -105.979663 -102.685219  -97.106252   22.755903  -41.838686 -175.259430
  0.037034068   -1.337333  154.992783 -106.626318 -116.610168  -97.303076   28.275112  -42.208319 -176.763397
  0.037234469   -1.336691  154.786270 -108.020613 -158.578110  -95.994098   28.190920  -42.506092 -178.701660
  0.037434870   -1.337378  154.567566 -109.499587 -125.434128  -96.778993   30.584730  -42.885946 -179.985764
  0.037635271   -1.333650  154.531906 -107.718423 -120.260300  -97.105360   28.459997  -43.404115  178.014511
  0.037835671   -1.335039  154.323990 -108.919437 -123.069092  -97.465887   21.076122  -43.975469  176.765762
  0.038036072   -1.331178  154.287231 -110.969009 -131.039612  -96.290067   16.040609  -44.182019  174.478577
  0.038236473   -1.331624  154.083206 -110.017060 -144.778946  -98.001567   19.627962  -44.962830  172.655212
  0.038436874   -1.331033  153.881409 -109.218827 -155.997131  -96.452654   28.193954  -45.607862  170.121628
  0.038637275   -1.326787  153.865845 -107.756923 -113.759972  -98.624567   23.558615  -45.956856  169.255814
  0.038837675   -1.326813  153.673035 -107.727407 -121.824936  -96.919338   25.320225  -46.921337  167.186859
  0.039038076   -1.323809  153.658844 -106.924131 -130.033096  -98.276730   29.455515  -47.644395  165.904678
  0.039238477   -1.324103  153.476730 -108.147332 -149.410309  -97.903325   28.047533  -48.553225  162.811920
  0.039438878   -1.325169  153.291458 -109.022215  -83.182899  -97.890151   25.670588  -49.332107  162.610077
  0.039639279   -1.314109  153.269775 -111.190485 -167.944656  -97.532132   20.023083  -50.740819  162.203583
  0.039839679   -1.315973  153.078140 -109.275374 -123.949646  -98.493433   28.344757  -52.067600  158.218567
  0.040040080   -1.313002  153.057526 -110.897562 -125.557045  -97.204554   25.632942  -53.854464  159.306152
  0.040240481   -1.314703  152.863831 -108.550432 -106.160843  -98.235677   34.529770  -55.849043  157.504562
  0.040440882   -1.315391  152.663788 -108.729917 -138.187164  -97.792960   33.582371  -58.247349  158.228104
  0.040641283   -1.313161  152.632141 -111.717538 -128.069550  -98.181113   18.419666  -63.066797  159.494385
  0.040841683   -1.315335  152.425217 -113.059571 -104.313416  -98.232211   31.418825  -68.301927  156.407288
  0.041042084   -1.312578  152.390121 -107.001415 -136.442245  -98.744978   37.797779  -73.330817  -57.433846
  0.041242485   -1.313121  152.186127 -110.789733 -136.249298  -98.733318   33.248798  -63.362005  -43.835827
  0.041442886   -1.314378  151.979431 -108.564041  -85.185135  -98.057507   32.914642  -59.540941  -40.225948
  0.041643287   -1.312609  151.946304 -108.676206 -101.465065  -98.518062   25.456898  -56.023936  -36.897999
  0.041843687   -1.314410  151.741806 -109.783534  -85.335815  -98.146264   30.924463  -54.113503  -39.495239
  0.042044088   -1.304857  151.717606 -108.144457 -102.396019  -97.823916   29.817467  -51.823254  -43.882263
  0.042244489   -1.307190  151.515366 -113.352109 -164.572388  -97.965594   30.029783  -50.523397  -44.281502
  0.042444890   -1.308383  151.319870 -107.092348 -138.178162  -99.344806   36.342579  -49.210998  -46.475788
  0.042645291   -1.306045  151.290726 -105.512343 -125.129349  -97.595028   21.723085  -48.195771  -46.971691
  0.042845691   -1.308438  151.083115 -109.985645 -121.827530  -98.776318   29.846960  -47.256245  -49.609810
  0.043046092   -1.306900  151.048370 -115.657270 -124.619507 -100.953694   31.147158  -46.062451  -51.017887
  0.043246493   -1.310048  150.851318 -106.969883 -141.860046  -98.564779   28.784258  -45.416725  -51.807903
  0.043446894   -1.312778  150.653122 -114.554736 -110.072533  -97.731875   25.552292  -44.708332  -54.265362
  0.043647295   -1.309950  150.618210 -110.196458 -139.763321  -97.290085   25.723101  -44.044302  -55.950871
  0.043847695   -1.311924  150.418808 -112.804496 -121.462868  -99.586414   28.278013  -43.366134  -57.402378
  0.044048096   -1.308985  150.380081 -111.367465 -109.080399  -98.767784   32.565468  -42.803618  -59.604897
  0.044248497   -1.311529  150.173645 -115.703891 -125.091911  -98.908642   28.052528  -42.207196  -60.899311
  0.044448898   -1.301197  149.968369 -112.040691 -140.551025  -98.639565   26.806616  -41.701821  -63.437443
  0.044649299   -1.299595  149.926208 -110.884086 -144.825836 -100.351916   31.640886  -41.293476  -64.771317
  0.044849699   -1.301268  149.708221 -110.580765 -131.989517  -98.814676   33.353703  -40.870681  -66.544136
  0.045050100   -1.297715  149.669586 -108.700708 -121.496742  -99.144236   24.489861  -40.292869  -68.329567
  0.045250501   -1.298516  149.450333 -108.992407 -101.362823  -98.834913   26.676905  -39.979782  -69.717865
  0.045450902   -1.301445  149.237823 -109.776660 -101.349899  -98.999047   33.609463  -39.636753  -72.063324
  0.045651303   -1.299660  149.205963 -110.656906 -123.094940  -98.096457   26.600204  -39.252922  -73.557678
  0.045851703   -1.302167  148.996185 -108.174616 -125.749504  -99.260141   29.827160  -38.871843  -75.470673
  0.046052104   -1.300042  148.967575 -119.981225 -120.540710  -99.736719   26.112598  -38.569883  -77.230736
  0.046252505   -1.302726  148.763107 -110.636975  -80.029480  -99.001501   34.826965  -38.197048  -78.638481
  0.046452906   -1.305164  148.559998 -112.278912  -89.044090  -98.996634   23.004410  -37.964374  -80.983658
  0.046653307   -1.304077  148.524033 -110.062718  -80.933365  -98.450625   32.026482  -37.740984  -82.274567
  0.046853707   -1.305976  148.324310 -111.017711 -108.834435  -98.010260   27.597755  -37.430512  -84.288811
  0.047054108   -1.318917  148.288284 -108.461046 -116.963806  -98.391479   37.812016  -37.121058  -85.718704
  0.047254509   -1.321306  148.082901 -109.058325 -116.964622  -98.118772   28.711000  -36.866056  -87.496803
  0.047454910   -1.323619  147.878525 -106.577461  -92.488945  -99.235491   36.788727  -36.667955  -89.912773
  0.047655311   -1.322225  147.839310 -118.441310 -144.744064  -98.710667   27.602837  -36.450874  -91.239464
  0.047855711   -1.324927  147.636780 -110.510334 -138.338989  -98.888861   26.347475  -36.233467  -92.682404
  0.048056112   -1.323389  147.601974 -111.286246 -100.490982  -98.328862   29.293243  -35.980360  -94.791290
  0.048256513   -1.326303  147.402359 -111.416748 -127.348907  -98.608066   31.710312  -35.844863  -96.358406
  0.048456914   -1.329170  147.199722 -106.796519 -129.866928  -98.258248   37.332199  -35.670315  -98.439522
  0.048657315   -1.327690  147.172272 -110.921918 -106.026863  -99.240345   31.637072  -35.480875  -99.868462
  0.048857715   -1.330988  146.970993 -107.732876 -127.928650  -99.097984   29.185907  -35.319852 -101.830276
  0.049058116   -1.328615  146.941422 -109.192979 -116.599236  -98.915004   38.892021  -35.134001 -103.756058
  0.049258517   -1.332919  146.747147 -111.188225  -90.982269  -99.732236   29.057131  -34.994923 -105.119026
  0.049458918   -1.335626  146.545593 -108.415756 -136.058563  -99.687359   33.726490  -34.888716 -106.954811
  0.049659319   -1.333567  146.523102 -108.779201 -105.907646  -98.543253   35.584999  -34.767090 -108.994446
  0.049859719   -1.336669  146.326920 -115.445509 -142.328934  -98.489175   36.943623  -34.586740 -110.653847
  0.050060120   -1.335160  146.301743 -107.618081 -124.264297  -98.981021   38.083809  -34.544597 -112.089996
  0.050260521   -1.338715  146.102859 -111.272682 -120.542892  -99.593576   28.053593  -34.400100 -114.265114
  0.050460922   -1.329007  145.905289 -109.670983  -85.728989 -100.341929   28.196096  -34.305825 -115.818687
  0.050661323   -1.326925  145.879990 -113.792132 -123.276299  -99.594547   32.278980  -34.232390 -117.575638
  0.050861723   -1.329818  145.682831 -115.904328 -173.619263  -99.145769   27.117010  -34.117214 -119.422501
  0.051062124   -1.328216  145.655045 -108.484612 -140.521866  -99.366583   37.736240  -34.039145 -121.276863
  0.051262525   -1.331918  145.458298 -107.770344  -76.336967  -97.650611   32.786655  -33.958073 -122.983444
  0.051462926   -1.334071  145.251251 -115.167777 -130.821899  -99.692731   34.122181  -33.922081 -124.814056
  0.051663327   -1.332186  145.223129 -111.057412 -142.940811  -99.038074   32.131363  -33.847552 -126.507317
  0.051863727   -1.335513  145.020859 -112.618666 -160.469666 -100.228081   36.099621  -33.751383 -128.457382
  0.052064128   -1.333358  144.989716 -111.354245 -116.120621 -100.104192   31.565691  -33.699688 -130.002579
  0.052264529   -1.336531  144.792358 -114.774613 -151.465469 -101.071964   35.816189  -33.691285 -131.823990
  0.052464930   -1.339993  144.592972 -112.398831 -112.264862  -98.444532   32.538696  -33.624301 -133.327042
  0.052665331   -1.338227  144.564590 -112.821002  -89.311478  -97.948132   40.765659  -33.622657 -135.229996
  0.052865731   -1.341562  144.372925 -110.249977 -103.130806  -99.038105   38.631229  -33.525090 -137.183304
