! Anritsu VNA Master:                     Model: MS2036C/10/77
! SN:                                  1601066
! /card0/usr/bot.s11.47pf.s2p
! Existing Calibration Information:
! TYPE:                         Current Settings,       Active Cal Settings
! TIME:             	   05/23/2018 11:53:43 AM,    05/23/2018 11:36:58 AM
! INTERNAL TEMP:    	                   48.5 C,                    48.8 C
! # POINTS:         	                      500,                       500
! START FREQ:       	               20.000 MHz,                20.000 MHz
! STOP FREQ:        	              120.000 MHz,               120.000 MHz
! SOURCE POWER:     	                     High,                      High
! IFBW:             	                    50 Hz,                     50 Hz
! AVG FACTOR:       	                       1 ,                        1 
! REF PLANE 1:      	                     0 mm,                      0 mm
! REF PLANE 2:      	                     0 mm,                      0 mm
! CAL TYPE:         	                 Full S11,                  Full S11
! CAL METHOD:       	                     SOLT,                      SOLT
! CAL LINE TYPE:    	                     Coax,                      Coax
! DUT PORT 1:       	                K-Conn(M),                 K-Conn(M)
! DUT PORT 2:       	                K-Conn(M),                 K-Conn(M)
! CAL STATUS:       	        OK: Accuracy High,                        --
# GHZ S DB R 50.0
! FREQ.GHZ       S11DB        S11A       S21DB        S21A       S12DB        S12A       S22DB        S22A
  0.020000000   -0.030470  -55.155735  -95.302352  -63.637226    0.000000    0.000000    0.000000    0.000000
  0.020200401   -0.029618  -55.698868  -96.083432  -58.617184    0.000000    0.000000    0.000000    0.000000
  0.020400802   -0.030261  -56.228912  -95.765308  -61.944271    0.000000    0.000000    0.000000    0.000000
  0.020601202   -0.032058  -56.763294  -95.045612  -62.431923    0.000000    0.000000    0.000000    0.000000
  0.020801603   -0.033044  -57.312302  -95.656472  -68.509262    0.000000    0.000000    0.000000    0.000000
  0.021002004   -0.032521  -57.851967  -95.431807  -66.044846    0.000000    0.000000    0.000000    0.000000
  0.021202405   -0.032709  -58.387871  -95.947587  -62.935390    0.000000    0.000000    0.000000    0.000000
  0.021402806   -0.033267  -58.921616  -96.818795  -64.683075    0.000000    0.000000    0.000000    0.000000
  0.021603206   -0.035054  -59.454933  -96.318525  -70.297485    0.000000    0.000000    0.000000    0.000000
  0.021803607   -0.036293  -59.988453  -95.470699  -59.532551    0.000000    0.000000    0.000000    0.000000
  0.022004008   -0.037040  -60.525593  -97.561755  -67.799866    0.000000    0.000000    0.000000    0.000000
  0.022204409   -0.037322  -61.069187  -98.274824  -78.803200    0.000000    0.000000    0.000000    0.000000
  0.022404810   -0.037182  -61.610764  -97.158839  -71.833710    0.000000    0.000000    0.000000    0.000000
  0.022605210   -0.037764  -62.141518  -97.487281  -60.661682    0.000000    0.000000    0.000000    0.000000
  0.022805611   -0.035874  -62.673462  -97.476192  -73.050896    0.000000    0.000000    0.000000    0.000000
  0.023006012   -0.036092  -63.206181  -96.963928  -68.898186    0.000000    0.000000    0.000000    0.000000
  0.023206413   -0.037904  -63.743828  -96.390036  -73.489594    0.000000    0.000000    0.000000    0.000000
  0.023406814   -0.038479  -64.269226  -97.398137  -70.757187    0.000000    0.000000    0.000000    0.000000
  0.023607214   -0.038832  -64.811638  -98.124196  -75.962257    0.000000    0.000000    0.000000    0.000000
  0.023807615   -0.037232  -65.346840  -96.780360  -72.438156    0.000000    0.000000    0.000000    0.000000
  0.024008016   -0.036513  -65.887054  -96.785935  -75.889702    0.000000    0.000000    0.000000    0.000000
  0.024208417   -0.037834  -66.422165  -97.298788  -72.346016    0.000000    0.000000    0.000000    0.000000
  0.024408818   -0.038244  -66.955009  -99.155393  -79.483299    0.000000    0.000000    0.000000    0.000000
  0.024609218   -0.039017  -67.476593  -97.160058  -71.098663    0.000000    0.000000    0.000000    0.000000
  0.024809619   -0.039800  -68.020737  -96.640445  -75.109886    0.000000    0.000000    0.000000    0.000000
  0.025010020   -0.038482  -68.560295  -96.904592  -76.407661    0.000000    0.000000    0.000000    0.000000
  0.025210421   -0.039305  -69.093124  -97.280987  -76.979057    0.000000    0.000000    0.000000    0.000000
  0.025410822   -0.039969  -69.630257  -97.654004  -77.039230    0.000000    0.000000    0.000000    0.000000
  0.025611222   -0.038569  -70.160431  -97.805339  -85.703636    0.000000    0.000000    0.000000    0.000000
  0.025811623   -0.039641  -70.699409  -97.003191  -77.991669    0.000000    0.000000    0.000000    0.000000
  0.026012024   -0.041380  -71.238251  -97.229586  -80.692818    0.000000    0.000000    0.000000    0.000000
  0.026212425   -0.040196  -71.770721  -98.560739  -78.574013    0.000000    0.000000    0.000000    0.000000
  0.026412826   -0.041969  -72.311089  -97.528165  -79.105988    0.000000    0.000000    0.000000    0.000000
  0.026613226   -0.042932  -72.839897  -98.424757  -76.252754    0.000000    0.000000    0.000000    0.000000
  0.026813627   -0.046146  -73.380081  -98.168451  -80.412750    0.000000    0.000000    0.000000    0.000000
  0.027014028   -0.044481  -73.911934  -98.770065  -82.731857    0.000000    0.000000    0.000000    0.000000
  0.027214429   -0.046478  -74.458702  -98.457881  -85.720757    0.000000    0.000000    0.000000    0.000000
  0.027414830   -0.047318  -74.989082  -98.449997  -72.504974    0.000000    0.000000    0.000000    0.000000
  0.027615230   -0.048865  -75.526863  -98.179447  -86.783005    0.000000    0.000000    0.000000    0.000000
  0.027815631   -0.050736  -76.059563  -98.101559  -77.815247    0.000000    0.000000    0.000000    0.000000
  0.028016032   -0.051971  -76.608025  -97.425150  -75.821785    0.000000    0.000000    0.000000    0.000000
  0.028216433   -0.054335  -77.133469  -96.889423  -91.060364    0.000000    0.000000    0.000000    0.000000
  0.028416834   -0.056320  -77.664909  -98.196784  -85.883957    0.000000    0.000000    0.000000    0.000000
  0.028617234   -0.057241  -78.196693  -97.850931  -82.506508    0.000000    0.000000    0.000000    0.000000
  0.028817635   -0.059612  -78.732529  -97.723864  -90.956902    0.000000    0.000000    0.000000    0.000000
  0.029018036   -0.061884  -79.268372  -97.188987  -88.031578    0.000000    0.000000    0.000000    0.000000
  0.029218437   -0.063712  -79.797104  -97.871958  -92.291069    0.000000    0.000000    0.000000    0.000000
  0.029418838   -0.065946  -80.320557  -98.975838  -91.680687    0.000000    0.000000    0.000000    0.000000
  0.029619238   -0.067278  -80.853317  -98.059249  -94.507439    0.000000    0.000000    0.000000    0.000000
  0.029819639   -0.069425  -81.375755  -98.231650  -88.880341    0.000000    0.000000    0.000000    0.000000
  0.030020040   -0.072365  -81.913254  -97.063898  -89.598656    0.000000    0.000000    0.000000    0.000000
  0.030220441   -0.074300  -82.429901  -97.802087  -90.017845    0.000000    0.000000    0.000000    0.000000
  0.030420842   -0.075964  -82.954819  -98.353973  -92.402397    0.000000    0.000000    0.000000    0.000000
  0.030621242   -0.078510  -83.485367  -98.304160  -91.237717    0.000000    0.000000    0.000000    0.000000
  0.030821643   -0.080008  -83.993317  -97.600184  -98.797478    0.000000    0.000000    0.000000    0.000000
  0.031022044   -0.082070  -84.512505  -98.071006  -93.896072    0.000000    0.000000    0.000000    0.000000
  0.031222445   -0.081327  -85.034752  -98.639601 -104.626656    0.000000    0.000000    0.000000    0.000000
  0.031422846   -0.082787  -85.539566  -98.790753  -86.030952    0.000000    0.000000    0.000000    0.000000
  0.031623246   -0.085291  -86.050613  -99.173508  -98.302795    0.000000    0.000000    0.000000    0.000000
  0.031823647   -0.085626  -86.563652  -99.040546 -105.441498    0.000000    0.000000    0.000000    0.000000
  0.032024048   -0.089945  -87.060600 -100.780373 -103.417610    0.000000    0.000000    0.000000    0.000000
  0.032224449   -0.089361  -87.563728  -98.642530 -106.406998    0.000000    0.000000    0.000000    0.000000
  0.032424850   -0.091465  -88.080948  -99.073182 -106.577316    0.000000    0.000000    0.000000    0.000000
  0.032625251   -0.094523  -88.566124  -98.581874 -110.720222    0.000000    0.000000    0.000000    0.000000
  0.032825651   -0.094474  -89.066780  -99.304946 -115.891029    0.000000    0.000000    0.000000    0.000000
  0.033026052   -0.095951  -89.561699  -99.758937 -111.090988    0.000000    0.000000    0.000000    0.000000
  0.033226453   -0.097473  -90.067841  -98.445734 -110.250107    0.000000    0.000000    0.000000    0.000000
  0.033426854   -0.098188  -90.566498  -99.519773 -111.090134    0.000000    0.000000    0.000000    0.000000
  0.033627255   -0.100510  -91.062820  -98.495259 -112.901085    0.000000    0.000000    0.000000    0.000000
  0.033827655   -0.099681  -91.564087  -99.181169 -109.689545    0.000000    0.000000    0.000000    0.000000
  0.034028056   -0.101222  -92.058830  -99.929439 -118.825989    0.000000    0.000000    0.000000    0.000000
  0.034228457   -0.101370  -92.545403  -97.790256 -117.334442    0.000000    0.000000    0.000000    0.000000
  0.034428858   -0.102865  -93.056885  -98.893135 -119.999527    0.000000    0.000000    0.000000    0.000000
  0.034629259   -0.104818  -93.540703  -99.339325 -128.419083    0.000000    0.000000    0.000000    0.000000
  0.034829659   -0.104432  -94.029839  -99.798574 -122.752449    0.000000    0.000000    0.000000    0.000000
  0.035030060   -0.103830  -94.551605  -98.521385 -131.748581    0.000000    0.000000    0.000000    0.000000
  0.035230461   -0.106670  -95.039398  -98.866886 -123.632568    0.000000    0.000000    0.000000    0.000000
  0.035430862   -0.106515  -95.534492  -99.901712 -129.319626    0.000000    0.000000    0.000000    0.000000
  0.035631263   -0.107305  -96.035522  -99.381039 -122.323738    0.000000    0.000000    0.000000    0.000000
  0.035831663   -0.106920  -96.510376  -99.075288 -138.390381    0.000000    0.000000    0.000000    0.000000
  0.036032064   -0.107913  -97.018135  -97.578031 -121.642853    0.000000    0.000000    0.000000    0.000000
  0.036232465   -0.108550  -97.510933  -99.981083 -138.971771    0.000000    0.000000    0.000000    0.000000
  0.036432866   -0.109398  -98.011642  -99.842534 -127.497993    0.000000    0.000000    0.000000    0.000000
  0.036633267   -0.109810  -98.498856  -98.936629 -133.167068    0.000000    0.000000    0.000000    0.000000
  0.036833667   -0.109463  -98.999329  -98.666223 -133.777679    0.000000    0.000000    0.000000    0.000000
  0.037034068   -0.111483  -99.489655 -100.015106 -130.866501    0.000000    0.000000    0.000000    0.000000
  0.037234469   -0.112085  -99.983337  -99.068002 -144.440826    0.000000    0.000000    0.000000    0.000000
  0.037434870   -0.111682 -100.474899  -98.156394 -142.291153    0.000000    0.000000    0.000000    0.000000
  0.037635271   -0.114460 -100.966339  -99.681660 -143.670456    0.000000    0.000000    0.000000    0.000000
  0.037835671   -0.113153 -101.472542  -98.332513 -143.266052    0.000000    0.000000    0.000000    0.000000
  0.038036072   -0.114998 -101.955414  -99.363331 -148.339798    0.000000    0.000000    0.000000    0.000000
  0.038236473   -0.112867 -102.433525  -99.557371 -140.394470    0.000000    0.000000    0.000000    0.000000
  0.038436874   -0.114813 -102.937202  -99.619036 -149.887497    0.000000    0.000000    0.000000    0.000000
  0.038637275   -0.114459 -103.420822 -100.094171 -160.053116    0.000000    0.000000    0.000000    0.000000
  0.038837675   -0.115385 -103.914902  -98.987135 -154.084076    0.000000    0.000000    0.000000    0.000000
  0.039038076   -0.115070 -104.402336 -100.193799 -150.594086    0.000000    0.000000    0.000000    0.000000
  0.039238477   -0.114711 -104.883827 -100.033924 -165.526260    0.000000    0.000000    0.000000    0.000000
  0.039438878   -0.116667 -105.376442  -99.759424 -161.061386    0.000000    0.000000    0.000000    0.000000
  0.039639279   -0.116008 -105.857704  -99.436470 -160.141800    0.000000    0.000000    0.000000    0.000000
  0.039839679   -0.118119 -106.352127 -101.521529 -179.819168    0.000000    0.000000    0.000000    0.000000
  0.040040080   -0.117519 -106.829575 -100.514195 -162.281052    0.000000    0.000000    0.000000    0.000000
  0.040240481   -0.117378 -107.324249  -99.991592 -170.932587    0.000000    0.000000    0.000000    0.000000
  0.040440882   -0.119174 -107.812157 -101.447607 -167.603424    0.000000    0.000000    0.000000    0.000000
  0.040641283   -0.117544 -108.285141 -100.504613 -169.062943    0.000000    0.000000    0.000000    0.000000
  0.040841683   -0.119429 -108.774605 -100.077841 -163.762070    0.000000    0.000000    0.000000    0.000000
  0.041042084   -0.119590 -109.264557 -100.410950 -169.404449    0.000000    0.000000    0.000000    0.000000
  0.041242485   -0.121124 -109.739250 -100.359999 -176.980652    0.000000    0.000000    0.000000    0.000000
  0.041442886   -0.120666 -110.220093 -100.377099  178.174698    0.000000    0.000000    0.000000    0.000000
  0.041643287   -0.121247 -110.711624  -99.487664  167.824844    0.000000    0.000000    0.000000    0.000000
  0.041843687   -0.121802 -111.183304 -100.910300 -172.466125    0.000000    0.000000    0.000000    0.000000
  0.042044088   -0.122615 -111.670677 -100.658876 -166.834778    0.000000    0.000000    0.000000    0.000000
  0.042244489   -0.123272 -112.139366 -100.381275 -178.425049    0.000000    0.000000    0.000000    0.000000
  0.042444890   -0.122249 -112.633331  -99.837630  175.318405    0.000000    0.000000    0.000000    0.000000
  0.042645291   -0.124329 -113.102516 -100.488003  175.782715    0.000000    0.000000    0.000000    0.000000
  0.042845691   -0.122950 -113.583138  -99.497266  173.880814    0.000000    0.000000    0.000000    0.000000
  0.043046092   -0.124925 -114.067421  -99.950290  171.154968    0.000000    0.000000    0.000000    0.000000
  0.043246493   -0.125268 -114.534592  -99.630079  172.461685    0.000000    0.000000    0.000000    0.000000
  0.043446894   -0.126778 -115.021523  -99.661160  178.035217    0.000000    0.000000    0.000000    0.000000
  0.043647295   -0.125795 -115.489822 -104.483195  150.660278    0.000000    0.000000    0.000000    0.000000
  0.043847695   -0.126674 -115.974823  -99.798099  172.612045    0.000000    0.000000    0.000000    0.000000
  0.044048096   -0.126798 -116.436188 -100.892651  167.579056    0.000000    0.000000    0.000000    0.000000
  0.044248497   -0.127674 -116.920929  -99.842778  162.618210    0.000000    0.000000    0.000000    0.000000
  0.044448898   -0.128952 -117.384216 -102.792409  155.903275    0.000000    0.000000    0.000000    0.000000
  0.044649299   -0.130626 -117.849777 -101.977438  173.021851    0.000000    0.000000    0.000000    0.000000
  0.044849699   -0.131658 -118.322441 -101.609681  160.342651    0.000000    0.000000    0.000000    0.000000
  0.045050100   -0.131146 -118.800102  -99.032739  156.148041    0.000000    0.000000    0.000000    0.000000
  0.045250501   -0.131009 -119.271889 -100.877550  165.000824    0.000000    0.000000    0.000000    0.000000
  0.045450902   -0.131775 -119.755348 -101.439711  152.146225    0.000000    0.000000    0.000000    0.000000
  0.045651303   -0.132360 -120.223976 -101.449393  147.229965    0.000000    0.000000    0.000000    0.000000
  0.045851703   -0.134924 -120.686287 -102.128337  154.967789    0.000000    0.000000    0.000000    0.000000
  0.046052104   -0.136309 -121.155098 -101.961190  154.823410    0.000000    0.000000    0.000000    0.000000
  0.046252505   -0.137391 -121.625366 -101.577279  154.443695    0.000000    0.000000    0.000000    0.000000
  0.046452906   -0.137515 -122.102074 -100.354136  135.632721    0.000000    0.000000    0.000000    0.000000
  0.046653307   -0.138966 -122.571144 -100.520334  150.793045    0.000000    0.000000    0.000000    0.000000
  0.046853707   -0.140336 -123.041580 -101.826306  144.502579    0.000000    0.000000    0.000000    0.000000
  0.047054108   -0.135397 -123.507896 -101.659479  157.867813    0.000000    0.000000    0.000000    0.000000
  0.047254509   -0.137438 -123.983330  -99.870787  150.893173    0.000000    0.000000    0.000000    0.000000
  0.047454910   -0.138339 -124.442551 -102.102002  140.276154    0.000000    0.000000    0.000000    0.000000
  0.047655311   -0.137432 -124.916306 -103.800046  136.473907    0.000000    0.000000    0.000000    0.000000
  0.047855711   -0.139182 -125.382454 -103.104048  131.412216    0.000000    0.000000    0.000000    0.000000
  0.048056112   -0.140768 -125.849777 -101.351754  134.620880    0.000000    0.000000    0.000000    0.000000
  0.048256513   -0.143006 -126.323204 -102.136025  131.906464    0.000000    0.000000    0.000000    0.000000
  0.048456914   -0.142032 -126.790970 -102.188001  126.387230    0.000000    0.000000    0.000000    0.000000
  0.048657315   -0.144896 -127.253120 -102.913816  139.429321    0.000000    0.000000    0.000000    0.000000
  0.048857715   -0.145833 -127.714104 -103.684296  134.896347    0.000000    0.000000    0.000000    0.000000
  0.049058116   -0.146103 -128.184708 -101.814440  132.183319    0.000000    0.000000    0.000000    0.000000
  0.049258517   -0.146668 -128.645996 -101.935689  121.924217    0.000000    0.000000    0.000000    0.000000
  0.049458918   -0.148513 -129.115158 -101.070915  111.630280    0.000000    0.000000    0.000000    0.000000
  0.049659319   -0.150434 -129.572220 -102.516661  123.482903    0.000000    0.000000    0.000000    0.000000
  0.049859719   -0.150286 -130.050949 -101.085248  127.183640    0.000000    0.000000    0.000000    0.000000
  0.050060120   -0.151092 -130.507095 -103.906910  119.036659    0.000000    0.000000    0.000000    0.000000
  0.050260521   -0.152228 -130.974106 -103.571393  136.669769    0.000000    0.000000    0.000000    0.000000
  0.050460922   -0.151793 -131.431305 -102.574634  118.731308    0.000000    0.000000    0.000000    0.000000
  0.050661323   -0.153132 -131.887711 -103.447128  100.814590    0.000000    0.000000    0.000000    0.000000
  0.050861723   -0.153823 -132.347275 -103.680713  102.353668    0.000000    0.000000    0.000000    0.000000
  0.051062124   -0.154806 -132.811050 -103.198364  110.303795    0.000000    0.000000    0.000000    0.000000
  0.051262525   -0.155435 -133.264618 -102.010010   97.961441    0.000000    0.000000    0.000000    0.000000
  0.051462926   -0.155733 -133.735291 -103.309607  103.090431    0.000000    0.000000    0.000000    0.000000
  0.051663327   -0.156723 -134.186279 -103.294129  110.873543    0.000000    0.000000    0.000000    0.000000
  0.051863727   -0.158114 -134.638123 -102.657349  103.108208    0.000000    0.000000    0.000000    0.000000
  0.052064128   -0.158090 -135.086105 -102.559684  117.941971    0.000000    0.000000    0.000000    0.000000
  0.052264529   -0.156357 -135.539886 -102.224208   90.397781    0.000000    0.000000    0.000000    0.000000
  0.052464930   -0.157437 -135.991852 -103.611087   99.009903    0.000000    0.000000    0.000000    0.000000
  0.052665331   -0.158663 -136.442093 -101.493820   93.238861    0.000000    0.000000    0.000000    0.000000
  0.052865731   -0.159434 -136.889145 -103.069335   95.478508    0.000000    0.000000    0.000000    0.000000
