! Anritsu VNA Master:                     Model: MS2036C/10/77
! SN:                                  1601066
! /card0/usr/bot.s11.49p99.s2p
! Existing Calibration Information:
! TYPE:                         Current Settings,       Active Cal Settings
! TIME:             	   05/23/2018 11:47:05 AM,    05/23/2018 11:36:58 AM
! INTERNAL TEMP:    	                   48.5 C,                    48.8 C
! # POINTS:         	                      500,                       500
! START FREQ:       	               20.000 MHz,                20.000 MHz
! STOP FREQ:        	              120.000 MHz,               120.000 MHz
! SOURCE POWER:     	                     High,                      High
! IFBW:             	                    50 Hz,                     50 Hz
! AVG FACTOR:       	                       1 ,                        1 
! REF PLANE 1:      	                     0 mm,                      0 mm
! REF PLANE 2:      	                     0 mm,                      0 mm
! CAL TYPE:         	                 Full S11,                  Full S11
! CAL METHOD:       	                     SOLT,                      SOLT
! CAL LINE TYPE:    	                     Coax,                      Coax
! DUT PORT 1:       	                K-Conn(M),                 K-Conn(M)
! DUT PORT 2:       	                K-Conn(M),                 K-Conn(M)
! CAL STATUS:       	        OK: Accuracy High,                        --
# GHZ S DB R 50.0
! FREQ.GHZ       S11DB        S11A       S21DB        S21A       S12DB        S12A       S22DB        S22A
  0.020000000  -39.278960   50.614948  -91.738567  -65.193184    0.000000    0.000000    0.000000    0.000000
  0.020200401  -39.276008   50.705215  -92.161917  -74.012978    0.000000    0.000000    0.000000    0.000000
  0.020400802  -39.134671   50.550083  -91.540872  -68.647842    0.000000    0.000000    0.000000    0.000000
  0.020601202  -39.034618   49.922916  -92.248700  -67.340721    0.000000    0.000000    0.000000    0.000000
  0.020801603  -39.015662   50.308060  -91.821860  -69.630157    0.000000    0.000000    0.000000    0.000000
  0.021002004  -38.918769   50.871552  -92.409214  -72.217384    0.000000    0.000000    0.000000    0.000000
  0.021202405  -38.921118   50.172211  -92.353399  -72.431000    0.000000    0.000000    0.000000    0.000000
  0.021402806  -38.907620   49.903316  -92.856019  -75.837646    0.000000    0.000000    0.000000    0.000000
  0.021603206  -38.775609   50.496407  -92.331801  -74.711594    0.000000    0.000000    0.000000    0.000000
  0.021803607  -38.672446   50.189548  -92.866116  -78.428810    0.000000    0.000000    0.000000    0.000000
  0.022004008  -38.698461   50.212025  -92.941594  -82.501213    0.000000    0.000000    0.000000    0.000000
  0.022204409  -38.588590   49.661842  -93.178669  -81.778282    0.000000    0.000000    0.000000    0.000000
  0.022404810  -38.605939   50.058987  -93.586685  -82.563248    0.000000    0.000000    0.000000    0.000000
  0.022605210  -38.485813   49.974194  -93.150292  -83.817421    0.000000    0.000000    0.000000    0.000000
  0.022805611  -38.454736   49.397015  -93.859379  -83.036575    0.000000    0.000000    0.000000    0.000000
  0.023006012  -38.449765   49.270267  -93.749175  -88.284775    0.000000    0.000000    0.000000    0.000000
  0.023206413  -38.361522   49.307667  -93.210673  -89.876709    0.000000    0.000000    0.000000    0.000000
  0.023406814  -38.261265   49.237083  -93.296555  -88.495018    0.000000    0.000000    0.000000    0.000000
  0.023607214  -38.195834   49.219154  -94.025512  -92.785477    0.000000    0.000000    0.000000    0.000000
  0.023807615  -38.187709   49.061893  -93.294655  -91.488075    0.000000    0.000000    0.000000    0.000000
  0.024008016  -38.121742   49.073151  -94.345980  -95.651009    0.000000    0.000000    0.000000    0.000000
  0.024208417  -38.083656   49.406502  -94.687216  -98.743462    0.000000    0.000000    0.000000    0.000000
  0.024408818  -38.027330   49.545437  -94.449514  -99.286133    0.000000    0.000000    0.000000    0.000000
  0.024609218  -37.948394   49.162746  -94.204575  -97.710007    0.000000    0.000000    0.000000    0.000000
  0.024809619  -37.922026   49.066257  -95.342840  -99.420906    0.000000    0.000000    0.000000    0.000000
  0.025010020  -37.808103   49.000629  -95.393448 -105.091583    0.000000    0.000000    0.000000    0.000000
  0.025210421  -37.771004   49.471943  -95.330203 -100.503403    0.000000    0.000000    0.000000    0.000000
  0.025410822  -37.727768   48.546288  -95.699381 -109.148399    0.000000    0.000000    0.000000    0.000000
  0.025611222  -37.663185   48.297905  -95.536099 -100.176544    0.000000    0.000000    0.000000    0.000000
  0.025811623  -37.637983   48.670200  -95.693405 -107.864975    0.000000    0.000000    0.000000    0.000000
  0.026012024  -37.588699   48.891396  -95.744337 -104.310371    0.000000    0.000000    0.000000    0.000000
  0.026212425  -37.608203   48.489300  -96.314266 -104.792946    0.000000    0.000000    0.000000    0.000000
  0.026412826  -37.498206   48.375042  -95.849915 -109.376701    0.000000    0.000000    0.000000    0.000000
  0.026613226  -37.458126   48.298103  -96.684492 -109.946457    0.000000    0.000000    0.000000    0.000000
  0.026813627  -37.369107   48.422573  -96.476496 -102.085136    0.000000    0.000000    0.000000    0.000000
  0.027014028  -37.378975   48.223106  -97.311444 -116.668579    0.000000    0.000000    0.000000    0.000000
  0.027214429  -37.300989   48.299763  -97.321361 -104.773674    0.000000    0.000000    0.000000    0.000000
  0.027414830  -37.252158   47.938641  -97.214626 -108.580887    0.000000    0.000000    0.000000    0.000000
  0.027615230  -37.193399   48.178490  -97.019452 -115.998169    0.000000    0.000000    0.000000    0.000000
  0.027815631  -37.160138   47.631207  -96.815959 -116.392929    0.000000    0.000000    0.000000    0.000000
  0.028016032  -37.128637   48.166489  -96.564463 -112.537300    0.000000    0.000000    0.000000    0.000000
  0.028216433  -37.059048   47.588570  -96.896998 -117.177277    0.000000    0.000000    0.000000    0.000000
  0.028416834  -36.986972   47.785229  -96.992293 -124.685776    0.000000    0.000000    0.000000    0.000000
  0.028617234  -36.931490   47.389992  -98.579397 -124.272339    0.000000    0.000000    0.000000    0.000000
  0.028817635  -36.927146   47.746849  -98.715669 -119.358322    0.000000    0.000000    0.000000    0.000000
  0.029018036  -36.843592   47.538639  -98.285099 -122.184586    0.000000    0.000000    0.000000    0.000000
  0.029218437  -36.808620   47.659817  -98.015580 -116.576180    0.000000    0.000000    0.000000    0.000000
  0.029418838  -36.731160   47.357590  -99.357010 -128.727081    0.000000    0.000000    0.000000    0.000000
  0.029619238  -36.730275   47.277596  -99.195979 -118.974846    0.000000    0.000000    0.000000    0.000000
  0.029819639  -36.708263   47.109272  -97.923589 -121.564270    0.000000    0.000000    0.000000    0.000000
  0.030020040  -36.678209   47.061081  -98.876573 -120.486473    0.000000    0.000000    0.000000    0.000000
  0.030220441  -36.584928   47.024387  -99.999722 -130.367599    0.000000    0.000000    0.000000    0.000000
  0.030420842  -36.550354   47.086926  -99.218379 -128.360565    0.000000    0.000000    0.000000    0.000000
  0.030621242  -36.536976   46.866581  -98.726885 -128.897095    0.000000    0.000000    0.000000    0.000000
  0.030821643  -36.479620   46.817806 -101.119037 -133.125381    0.000000    0.000000    0.000000    0.000000
  0.031022044  -36.440529   46.836548  -99.890739 -130.145401    0.000000    0.000000    0.000000    0.000000
  0.031222445  -36.386439   46.690647  -98.603388 -142.992859    0.000000    0.000000    0.000000    0.000000
  0.031422846  -36.323696   46.535671  -99.163025 -128.915573    0.000000    0.000000    0.000000    0.000000
  0.031623246  -36.318674   46.225758  -99.402355 -138.044525    0.000000    0.000000    0.000000    0.000000
  0.031823647  -36.246503   46.412380  -99.242199 -137.383423    0.000000    0.000000    0.000000    0.000000
  0.032024048  -36.227073   46.310272 -100.149144 -139.598328    0.000000    0.000000    0.000000    0.000000
  0.032224449  -36.141315   46.086372 -101.892761 -145.359360    0.000000    0.000000    0.000000    0.000000
  0.032424850  -36.180455   46.237206 -100.982762 -136.198013    0.000000    0.000000    0.000000    0.000000
  0.032625251  -36.099407   46.400295  -98.744134 -146.284576    0.000000    0.000000    0.000000    0.000000
  0.032825651  -36.027157   46.000633  -99.577294 -150.902054    0.000000    0.000000    0.000000    0.000000
  0.033026052  -36.043135   45.930534  -99.972891 -148.113678    0.000000    0.000000    0.000000    0.000000
  0.033226453  -36.014622   45.445034 -101.792555 -140.011795    0.000000    0.000000    0.000000    0.000000
  0.033426854  -35.956821   45.609966 -104.043216 -145.821671    0.000000    0.000000    0.000000    0.000000
  0.033627255  -35.926651   45.578701 -102.136465 -154.731094    0.000000    0.000000    0.000000    0.000000
  0.033827655  -35.916696   45.653488 -101.344982 -165.413071    0.000000    0.000000    0.000000    0.000000
  0.034028056  -35.858344   45.540462 -101.222635 -148.336548    0.000000    0.000000    0.000000    0.000000
  0.034228457  -35.809684   45.379135 -101.552816 -158.155121    0.000000    0.000000    0.000000    0.000000
  0.034428858  -35.804788   45.185211 -102.605625 -160.775391    0.000000    0.000000    0.000000    0.000000
  0.034629259  -35.746139   45.079197 -100.579235 -159.511948    0.000000    0.000000    0.000000    0.000000
  0.034829659  -35.687000   44.836021 -102.134639 -160.950577    0.000000    0.000000    0.000000    0.000000
  0.035030060  -35.733993   45.073383 -101.597474 -161.513962    0.000000    0.000000    0.000000    0.000000
  0.035230461  -35.607959   44.956505 -103.404891 -160.956512    0.000000    0.000000    0.000000    0.000000
  0.035430862  -35.630758   45.105099 -101.783744 -164.503036    0.000000    0.000000    0.000000    0.000000
  0.035631263  -35.580198   44.858246 -102.432866 -170.440231    0.000000    0.000000    0.000000    0.000000
  0.035831663  -35.495086   44.218277 -102.198194 -169.753525    0.000000    0.000000    0.000000    0.000000
  0.036032064  -35.524928   44.806145 -102.955739  179.819839    0.000000    0.000000    0.000000    0.000000
  0.036232465  -35.504303   44.469051 -102.048936 -166.175522    0.000000    0.000000    0.000000    0.000000
  0.036432866  -35.450601   44.299541 -103.822318 -157.003952    0.000000    0.000000    0.000000    0.000000
  0.036633267  -35.384247   44.052425 -102.495825 -171.295837    0.000000    0.000000    0.000000    0.000000
  0.036833667  -35.414899   44.236454 -102.798353 -177.807739    0.000000    0.000000    0.000000    0.000000
  0.037034068  -35.335111   43.973228 -104.671735 -164.307419    0.000000    0.000000    0.000000    0.000000
  0.037234469  -35.292012   43.787418 -102.806193 -174.764145    0.000000    0.000000    0.000000    0.000000
  0.037434870  -35.298255   43.761784 -103.609599 -160.770401    0.000000    0.000000    0.000000    0.000000
  0.037635271  -35.220917   44.181099 -102.570368 -170.759613    0.000000    0.000000    0.000000    0.000000
  0.037835671  -35.180525   43.932011 -102.950103 -179.367783    0.000000    0.000000    0.000000    0.000000
  0.038036072  -35.156992   43.857872 -105.212778  174.058212    0.000000    0.000000    0.000000    0.000000
  0.038236473  -35.173896   43.132980 -103.997419 -177.229263    0.000000    0.000000    0.000000    0.000000
  0.038436874  -35.098841   43.554554 -102.247661 -169.343094    0.000000    0.000000    0.000000    0.000000
  0.038637275  -35.095199   43.716675 -102.761196 -174.962601    0.000000    0.000000    0.000000    0.000000
  0.038837675  -35.064313   43.342392 -106.345042 -174.614624    0.000000    0.000000    0.000000    0.000000
  0.039038076  -35.004726   43.208229 -102.555658 -171.528641    0.000000    0.000000    0.000000    0.000000
  0.039238477  -34.985945   42.864342 -103.884616 -173.493027    0.000000    0.000000    0.000000    0.000000
  0.039438878  -34.984411   43.059738 -106.055841  173.382706    0.000000    0.000000    0.000000    0.000000
  0.039639279  -34.903272   42.930119 -103.105945  165.510880    0.000000    0.000000    0.000000    0.000000
  0.039839679  -34.850589   42.856144 -103.256970  158.415421    0.000000    0.000000    0.000000    0.000000
  0.040040080  -34.795695   42.797726 -103.375841  174.124954    0.000000    0.000000    0.000000    0.000000
  0.040240481  -34.807981   42.842777 -106.243419  164.714630    0.000000    0.000000    0.000000    0.000000
  0.040440882  -34.801533   42.613499 -103.714287  172.633331    0.000000    0.000000    0.000000    0.000000
  0.040641283  -34.779129   42.322182 -106.142268  151.499176    0.000000    0.000000    0.000000    0.000000
  0.040841683  -34.710152   42.455433 -102.809573  169.643661    0.000000    0.000000    0.000000    0.000000
  0.041042084  -34.674518   42.251663 -105.033092  170.093384    0.000000    0.000000    0.000000    0.000000
  0.041242485  -34.645815   42.237087 -104.528619  173.252075    0.000000    0.000000    0.000000    0.000000
  0.041442886  -34.622957   42.207882 -104.262305  164.887177    0.000000    0.000000    0.000000    0.000000
  0.041643287  -34.594088   42.297039 -105.955612  159.149734    0.000000    0.000000    0.000000    0.000000
  0.041843687  -34.571104   42.002827 -106.829845  162.768661    0.000000    0.000000    0.000000    0.000000
  0.042044088  -34.552418   42.238716 -103.517915  167.467438    0.000000    0.000000    0.000000    0.000000
  0.042244489  -34.464416   41.662094 -106.733233  170.636490    0.000000    0.000000    0.000000    0.000000
  0.042444890  -34.501844   41.864643 -105.678859  165.068024    0.000000    0.000000    0.000000    0.000000
  0.042645291  -34.465109   41.745296 -105.324606 -175.152634    0.000000    0.000000    0.000000    0.000000
  0.042845691  -34.456644   41.574825 -105.603729  161.350250    0.000000    0.000000    0.000000    0.000000
  0.043046092  -34.416374   41.607544 -105.886687  147.336456    0.000000    0.000000    0.000000    0.000000
  0.043246493  -34.358048   41.568382 -104.268664  169.022369    0.000000    0.000000    0.000000    0.000000
  0.043446894  -34.313033   41.602165 -105.660458  154.729294    0.000000    0.000000    0.000000    0.000000
  0.043647295  -34.292052   41.035900 -106.637764  151.606583    0.000000    0.000000    0.000000    0.000000
  0.043847695  -34.277511   41.212532 -106.434969 -179.488464    0.000000    0.000000    0.000000    0.000000
  0.044048096  -34.218764   40.716446 -104.031835  135.828751    0.000000    0.000000    0.000000    0.000000
  0.044248497  -34.223918   41.147537 -106.118055  155.865768    0.000000    0.000000    0.000000    0.000000
  0.044448898  -34.222370   40.904324 -103.598841  147.355927    0.000000    0.000000    0.000000    0.000000
  0.044649299  -34.148853   40.652245 -105.422410  135.615005    0.000000    0.000000    0.000000    0.000000
  0.044849699  -34.115341   40.817787 -106.736502  126.694000    0.000000    0.000000    0.000000    0.000000
  0.045050100  -34.127741   40.792999 -105.485546  146.225861    0.000000    0.000000    0.000000    0.000000
  0.045250501  -34.078216   40.491894 -103.449566  131.783081    0.000000    0.000000    0.000000    0.000000
  0.045450902  -34.096026   40.834091 -104.364860  131.472107    0.000000    0.000000    0.000000    0.000000
  0.045651303  -34.071286   40.641495 -104.686509  141.757614    0.000000    0.000000    0.000000    0.000000
  0.045851703  -33.992423   40.417034 -107.439102  142.724609    0.000000    0.000000    0.000000    0.000000
  0.046052104  -33.988470   40.398983 -106.288292  140.797226    0.000000    0.000000    0.000000    0.000000
  0.046252505  -33.968804   40.107117 -108.249140  130.037216    0.000000    0.000000    0.000000    0.000000
  0.046452906  -33.959419   40.034111 -106.660013  103.419998    0.000000    0.000000    0.000000    0.000000
  0.046653307  -33.980426   39.969589 -105.922711  124.063133    0.000000    0.000000    0.000000    0.000000
  0.046853707  -33.908652   39.799278 -105.923630  120.925591    0.000000    0.000000    0.000000    0.000000
  0.047054108  -33.883224   39.516125 -104.621211  144.971771    0.000000    0.000000    0.000000    0.000000
  0.047254509  -33.882459   39.784607 -107.482994  148.152908    0.000000    0.000000    0.000000    0.000000
  0.047454910  -33.803506   39.666069 -108.098511  128.745621    0.000000    0.000000    0.000000    0.000000
  0.047655311  -33.785166   39.338448 -102.785820  124.349861    0.000000    0.000000    0.000000    0.000000
  0.047855711  -33.760439   39.335342 -105.155942  107.269730    0.000000    0.000000    0.000000    0.000000
  0.048056112  -33.724691   39.304714 -105.637528  126.564331    0.000000    0.000000    0.000000    0.000000
  0.048256513  -33.687672   39.424671 -108.118485  132.678879    0.000000    0.000000    0.000000    0.000000
  0.048456914  -33.704563   39.071350 -105.273251  111.926216    0.000000    0.000000    0.000000    0.000000
  0.048657315  -33.698815   38.913567 -109.051676  107.405907    0.000000    0.000000    0.000000    0.000000
  0.048857715  -33.648587   38.890354 -107.950167  130.226639    0.000000    0.000000    0.000000    0.000000
  0.049058116  -33.624440   38.942974 -106.510600  117.704742    0.000000    0.000000    0.000000    0.000000
  0.049258517  -33.629237   38.596508 -104.261059   99.664024    0.000000    0.000000    0.000000    0.000000
  0.049458918  -33.596914   38.431740 -106.802509  118.388107    0.000000    0.000000    0.000000    0.000000
  0.049659319  -33.542892   38.673679 -105.206669  116.803680    0.000000    0.000000    0.000000    0.000000
  0.049859719  -33.565073   38.454712 -105.746221  118.605141    0.000000    0.000000    0.000000    0.000000
  0.050060120  -33.509227   38.145401 -107.179470  111.408386    0.000000    0.000000    0.000000    0.000000
  0.050260521  -33.502310   38.395500 -107.532041   95.366875    0.000000    0.000000    0.000000    0.000000
  0.050460922  -33.494717   37.985714 -110.519452   97.136276    0.000000    0.000000    0.000000    0.000000
  0.050661323  -33.456218   38.058586 -108.848159   89.682121    0.000000    0.000000    0.000000    0.000000
  0.050861723  -33.435367   37.809963 -108.717008  118.581650    0.000000    0.000000    0.000000    0.000000
  0.051062124  -33.415979   37.651539 -107.933215   87.828751    0.000000    0.000000    0.000000    0.000000
  0.051262525  -33.414518   37.219837 -105.216107  109.453728    0.000000    0.000000    0.000000    0.000000
  0.051462926  -33.379577   37.531265 -110.116437  102.210686    0.000000    0.000000    0.000000    0.000000
  0.051663327  -33.342843   37.396996 -106.609428   96.794823    0.000000    0.000000    0.000000    0.000000
  0.051863727  -33.304905   37.199017 -109.282664   95.774124    0.000000    0.000000    0.000000    0.000000
  0.052064128  -33.302362   36.904083 -109.052166   94.793976    0.000000    0.000000    0.000000    0.000000
  0.052264529  -33.302179   36.851826 -107.192383   90.438187    0.000000    0.000000    0.000000    0.000000
  0.052464930  -33.266351   36.770409 -108.484148   97.050301    0.000000    0.000000    0.000000    0.000000
  0.052665331  -33.273375   36.786915 -108.333915   87.522751    0.000000    0.000000    0.000000    0.000000
  0.052865731  -33.226198   36.817253 -109.905489  101.504150    0.000000    0.000000    0.000000    0.000000
