! Anritsu VNA Master:                     Model: MS2036C/10/77
! SN:                                  1601066
! /card0/usr/uu.s11.47pf.s2p
! Existing Calibration Information:
! TYPE:                         Current Settings,       Active Cal Settings
! TIME:             	   05/23/2018 11:58:09 AM,    05/23/2018 11:36:58 AM
! INTERNAL TEMP:    	                   48.5 C,                    48.8 C
! # POINTS:         	                      500,                       500
! START FREQ:       	               20.000 MHz,                20.000 MHz
! STOP FREQ:        	              120.000 MHz,               120.000 MHz
! SOURCE POWER:     	                     High,                      High
! IFBW:             	                    50 Hz,                     50 Hz
! AVG FACTOR:       	                       1 ,                        1 
! REF PLANE 1:      	                     0 mm,                      0 mm
! REF PLANE 2:      	                     0 mm,                      0 mm
! CAL TYPE:         	                 Full S11,                  Full S11
! CAL METHOD:       	                     SOLT,                      SOLT
! CAL LINE TYPE:    	                     Coax,                      Coax
! DUT PORT 1:       	                K-Conn(M),                 K-Conn(M)
! DUT PORT 2:       	                K-Conn(M),                 K-Conn(M)
! CAL STATUS:       	        OK: Accuracy High,                        --
# GHZ S DB R 50.0
! FREQ.GHZ       S11DB        S11A       S21DB        S21A       S12DB        S12A       S22DB        S22A
  0.020000000   -0.021451  -55.050652  -95.264764  -60.965469    0.000000    0.000000    0.000000    0.000000
  0.020200401   -0.021382  -55.585583  -95.028856  -64.697792    0.000000    0.000000    0.000000    0.000000
  0.020400802   -0.022980  -56.114498  -95.651496  -68.200523    0.000000    0.000000    0.000000    0.000000
  0.020601202   -0.024890  -56.646484  -95.777493  -56.712345    0.000000    0.000000    0.000000    0.000000
  0.020801603   -0.025226  -57.193321  -96.437156  -68.298347    0.000000    0.000000    0.000000    0.000000
  0.021002004   -0.027487  -57.737869  -95.324084  -59.695518    0.000000    0.000000    0.000000    0.000000
  0.021202405   -0.027583  -58.270645  -96.292344  -68.439201    0.000000    0.000000    0.000000    0.000000
  0.021402806   -0.028217  -58.802006  -96.520402  -67.837578    0.000000    0.000000    0.000000    0.000000
  0.021603206   -0.031190  -59.339645  -96.312934  -65.980949    0.000000    0.000000    0.000000    0.000000
  0.021803607   -0.031774  -59.865795  -95.949468  -62.089508    0.000000    0.000000    0.000000    0.000000
  0.022004008   -0.032531  -60.401680  -96.492191  -69.056351    0.000000    0.000000    0.000000    0.000000
  0.022204409   -0.033209  -60.943932  -97.193965  -68.835625    0.000000    0.000000    0.000000    0.000000
  0.022404810   -0.033272  -61.483471  -96.525118  -63.842373    0.000000    0.000000    0.000000    0.000000
  0.022605210   -0.034157  -62.003521  -98.068599  -74.307953    0.000000    0.000000    0.000000    0.000000
  0.022805611   -0.030896  -62.547447  -97.008197  -73.330544    0.000000    0.000000    0.000000    0.000000
  0.023006012   -0.031349  -63.078701  -98.760497  -74.589645    0.000000    0.000000    0.000000    0.000000
  0.023206413   -0.033235  -63.616825  -97.531429  -70.625381    0.000000    0.000000    0.000000    0.000000
  0.023406814   -0.033632  -64.139877  -98.319343  -65.132515    0.000000    0.000000    0.000000    0.000000
  0.023607214   -0.035063  -64.672775  -97.725789  -60.498558    0.000000    0.000000    0.000000    0.000000
  0.023807615   -0.033168  -65.212379  -97.210236  -71.215393    0.000000    0.000000    0.000000    0.000000
  0.024008016   -0.031975  -65.750862  -97.330538  -72.310631    0.000000    0.000000    0.000000    0.000000
  0.024208417   -0.033643  -66.283722  -97.713647  -75.986916    0.000000    0.000000    0.000000    0.000000
  0.024408818   -0.035636  -66.811951  -98.003973  -72.791664    0.000000    0.000000    0.000000    0.000000
  0.024609218   -0.035300  -67.331108  -98.176363  -76.269905    0.000000    0.000000    0.000000    0.000000
  0.024809619   -0.036249  -67.879219  -98.886575  -74.443008    0.000000    0.000000    0.000000    0.000000
  0.025010020   -0.036510  -68.410545  -97.741203  -69.471832    0.000000    0.000000    0.000000    0.000000
  0.025210421   -0.036376  -68.945343  -97.045529  -81.746788    0.000000    0.000000    0.000000    0.000000
  0.025410822   -0.036707  -69.481911  -98.401520  -71.665001    0.000000    0.000000    0.000000    0.000000
  0.025611222   -0.036078  -70.015213  -97.632032  -77.242355    0.000000    0.000000    0.000000    0.000000
  0.025811623   -0.036682  -70.547127  -97.548407  -74.412888    0.000000    0.000000    0.000000    0.000000
  0.026012024   -0.037806  -71.086960  -97.766968  -78.765839    0.000000    0.000000    0.000000    0.000000
  0.026212425   -0.036810  -71.626205  -97.845433  -79.655838    0.000000    0.000000    0.000000    0.000000
  0.026412826   -0.039953  -72.159576  -96.977567  -78.781433    0.000000    0.000000    0.000000    0.000000
  0.026613226   -0.039842  -72.686005  -97.899461  -72.658264    0.000000    0.000000    0.000000    0.000000
  0.026813627   -0.042448  -73.228607  -97.501192  -82.602257    0.000000    0.000000    0.000000    0.000000
  0.027014028   -0.041022  -73.760651  -97.779021  -79.018898    0.000000    0.000000    0.000000    0.000000
  0.027214429   -0.043679  -74.300247  -97.865927  -73.093170    0.000000    0.000000    0.000000    0.000000
  0.027414830   -0.045103  -74.837494  -99.157211  -83.681717    0.000000    0.000000    0.000000    0.000000
  0.027615230   -0.045569  -75.371567  -99.027902  -74.398048    0.000000    0.000000    0.000000    0.000000
  0.027815631   -0.047340  -75.905571  -97.347574  -86.501236    0.000000    0.000000    0.000000    0.000000
  0.028016032   -0.048958  -76.454269  -98.733282  -86.101891    0.000000    0.000000    0.000000    0.000000
  0.028216433   -0.050900  -76.978806  -97.959199  -79.909897    0.000000    0.000000    0.000000    0.000000
  0.028416834   -0.052890  -77.508186  -98.727763  -84.900726    0.000000    0.000000    0.000000    0.000000
  0.028617234   -0.054510  -78.037422  -97.730232  -88.579948    0.000000    0.000000    0.000000    0.000000
  0.028817635   -0.056629  -78.573517  -98.630904  -89.352509    0.000000    0.000000    0.000000    0.000000
  0.029018036   -0.058626  -79.107254  -97.766038  -88.581131    0.000000    0.000000    0.000000    0.000000
  0.029218437   -0.060644  -79.634209  -97.839999  -87.499718    0.000000    0.000000    0.000000    0.000000
  0.029418838   -0.063097  -80.164307  -97.750515  -86.637947    0.000000    0.000000    0.000000    0.000000
  0.029619238   -0.064877  -80.687843  -97.343960  -88.654472    0.000000    0.000000    0.000000    0.000000
  0.029819639   -0.066514  -81.214828  -97.710852  -93.864647    0.000000    0.000000    0.000000    0.000000
  0.030020040   -0.069776  -81.744720  -98.953140  -91.971970    0.000000    0.000000    0.000000    0.000000
  0.030220441   -0.072154  -82.264656  -97.161690  -90.987640    0.000000    0.000000    0.000000    0.000000
  0.030420842   -0.072820  -82.785324  -97.807437  -88.669647    0.000000    0.000000    0.000000    0.000000
  0.030621242   -0.075297  -83.313309  -96.879626  -93.895859    0.000000    0.000000    0.000000    0.000000
  0.030821643   -0.076507  -83.825363  -98.270074  -96.202286    0.000000    0.000000    0.000000    0.000000
  0.031022044   -0.078474  -84.337334  -98.021281  -92.509857    0.000000    0.000000    0.000000    0.000000
  0.031222445   -0.078032  -84.865044  -98.692853  -92.184425    0.000000    0.000000    0.000000    0.000000
  0.031422846   -0.079233  -85.375175  -97.646158  -95.104240    0.000000    0.000000    0.000000    0.000000
  0.031623246   -0.081562  -85.875397  -99.314467 -103.794846    0.000000    0.000000    0.000000    0.000000
  0.031823647   -0.083479  -86.390976  -99.291295 -103.772102    0.000000    0.000000    0.000000    0.000000
  0.032024048   -0.086490  -86.888206  -99.779650  -98.396194    0.000000    0.000000    0.000000    0.000000
  0.032224449   -0.086598  -87.390656  -99.279371 -102.898155    0.000000    0.000000    0.000000    0.000000
  0.032424850   -0.087713  -87.897514  -99.542898 -101.311745    0.000000    0.000000    0.000000    0.000000
  0.032625251   -0.090185  -88.393990  -98.951341 -111.558167    0.000000    0.000000    0.000000    0.000000
  0.032825651   -0.090075  -88.888290  -98.541854 -106.483215    0.000000    0.000000    0.000000    0.000000
  0.033026052   -0.092953  -89.382256  -99.147489 -115.989944    0.000000    0.000000    0.000000    0.000000
  0.033226453   -0.093697  -89.893074  -98.952355 -110.290771    0.000000    0.000000    0.000000    0.000000
  0.033426854   -0.094236  -90.385162  -97.910964 -111.780327    0.000000    0.000000    0.000000    0.000000
  0.033627255   -0.097341  -90.876663  -98.167086 -116.880096    0.000000    0.000000    0.000000    0.000000
  0.033827655   -0.096025  -91.379501  -98.697080 -117.009361    0.000000    0.000000    0.000000    0.000000
  0.034028056   -0.097263  -91.887711  -98.680556 -113.697372    0.000000    0.000000    0.000000    0.000000
  0.034228457   -0.097914  -92.364090  -99.551237 -123.093681    0.000000    0.000000    0.000000    0.000000
  0.034428858   -0.098971  -92.877090  -98.384384 -120.068909    0.000000    0.000000    0.000000    0.000000
  0.034629259   -0.099856  -93.356186  -99.029608 -124.646202    0.000000    0.000000    0.000000    0.000000
  0.034829659   -0.101113  -93.848137  -98.360323 -123.573967    0.000000    0.000000    0.000000    0.000000
  0.035030060   -0.100574  -94.365448  -99.740790 -128.619049    0.000000    0.000000    0.000000    0.000000
  0.035230461   -0.103071  -94.852959  -99.878903 -131.109192    0.000000    0.000000    0.000000    0.000000
  0.035430862   -0.102859  -95.348648  -99.435318 -123.791756    0.000000    0.000000    0.000000    0.000000
  0.035631263   -0.104269  -95.847481  -98.614710 -123.245544    0.000000    0.000000    0.000000    0.000000
  0.035831663   -0.103553  -96.325500  -98.718672 -135.028625    0.000000    0.000000    0.000000    0.000000
  0.036032064   -0.104490  -96.827797  -99.321231 -129.921967    0.000000    0.000000    0.000000    0.000000
  0.036232465   -0.105327  -97.324196  -99.800814 -129.862030    0.000000    0.000000    0.000000    0.000000
  0.036432866   -0.105777  -97.822075  -99.371970 -130.548340    0.000000    0.000000    0.000000    0.000000
  0.036633267   -0.105210  -98.308899  -99.378921 -134.838608    0.000000    0.000000    0.000000    0.000000
  0.036833667   -0.105996  -98.812897  -98.746690 -140.883484    0.000000    0.000000    0.000000    0.000000
  0.037034068   -0.107727  -99.295593  -98.854693 -133.275909    0.000000    0.000000    0.000000    0.000000
  0.037234469   -0.107781  -99.792084  -98.364575 -138.770065    0.000000    0.000000    0.000000    0.000000
  0.037434870   -0.107678 -100.285126 -100.026234 -138.832306    0.000000    0.000000    0.000000    0.000000
  0.037635271   -0.109300 -100.775185  -99.098471 -144.741440    0.000000    0.000000    0.000000    0.000000
  0.037835671   -0.109397 -101.276703  -98.781256 -146.950943    0.000000    0.000000    0.000000    0.000000
  0.038036072   -0.110496 -101.762413  -99.292241 -149.651779    0.000000    0.000000    0.000000    0.000000
  0.038236473   -0.108871 -102.245262  -99.364771 -140.997009    0.000000    0.000000    0.000000    0.000000
  0.038436874   -0.110212 -102.741508 -100.802547 -143.811203    0.000000    0.000000    0.000000    0.000000
  0.038637275   -0.110676 -103.223923 -100.190157 -146.675674    0.000000    0.000000    0.000000    0.000000
  0.038837675   -0.109869 -103.715752  -99.434666 -145.482407    0.000000    0.000000    0.000000    0.000000
  0.039038076   -0.110882 -104.204803  -99.644111 -160.233582    0.000000    0.000000    0.000000    0.000000
  0.039238477   -0.110129 -104.688370  -98.682001 -152.838348    0.000000    0.000000    0.000000    0.000000
  0.039438878   -0.112173 -105.179207 -101.848206 -156.701691    0.000000    0.000000    0.000000    0.000000
  0.039639279   -0.110776 -105.656830 -100.478905 -152.469940    0.000000    0.000000    0.000000    0.000000
  0.039839679   -0.113758 -106.146210  -99.905743 -165.664154    0.000000    0.000000    0.000000    0.000000
  0.040040080   -0.112696 -106.626785  -99.531013 -162.219208    0.000000    0.000000    0.000000    0.000000
  0.040240481   -0.113600 -107.122673 -100.912732 -164.042206    0.000000    0.000000    0.000000    0.000000
  0.040440882   -0.112917 -107.608498  -99.567566 -164.214966    0.000000    0.000000    0.000000    0.000000
  0.040641283   -0.112864 -108.088913 -100.389248 -159.273285    0.000000    0.000000    0.000000    0.000000
  0.040841683   -0.115191 -108.571434  -99.520613 -159.034302    0.000000    0.000000    0.000000    0.000000
  0.041042084   -0.114561 -109.055862 -100.520472 -175.423065    0.000000    0.000000    0.000000    0.000000
  0.041242485   -0.116472 -109.533478  -99.922760  178.156479    0.000000    0.000000    0.000000    0.000000
  0.041442886   -0.116215 -110.016037  -99.630665  178.941101    0.000000    0.000000    0.000000    0.000000
  0.041643287   -0.117062 -110.508293 -101.313212 -166.987411    0.000000    0.000000    0.000000    0.000000
  0.041843687   -0.116586 -110.976364  -99.287194 -172.117676    0.000000    0.000000    0.000000    0.000000
  0.042044088   -0.117491 -111.462234 -100.807938 -178.800339    0.000000    0.000000    0.000000    0.000000
  0.042244489   -0.118177 -111.929710 -101.278929  166.259857    0.000000    0.000000    0.000000    0.000000
  0.042444890   -0.117472 -112.422287 -102.030440 -179.215057    0.000000    0.000000    0.000000    0.000000
  0.042645291   -0.119059 -112.891449 -100.503178 -174.493759    0.000000    0.000000    0.000000    0.000000
  0.042845691   -0.117484 -113.370560 -100.169393  178.504852    0.000000    0.000000    0.000000    0.000000
  0.043046092   -0.121836 -113.851807 -100.095899  176.019440    0.000000    0.000000    0.000000    0.000000
  0.043246493   -0.122219 -114.323685 -100.522275  169.177032    0.000000    0.000000    0.000000    0.000000
  0.043446894   -0.123976 -114.806160  -99.985709  167.821274    0.000000    0.000000    0.000000    0.000000
  0.043647295   -0.122840 -115.271248 -101.839809  167.989227    0.000000    0.000000    0.000000    0.000000
  0.043847695   -0.123432 -115.756187 -101.007942  151.992111    0.000000    0.000000    0.000000    0.000000
  0.044048096   -0.122603 -116.219902 -101.523393  162.611923    0.000000    0.000000    0.000000    0.000000
  0.044248497   -0.124639 -116.703156 -101.616030  165.702209    0.000000    0.000000    0.000000    0.000000
  0.044448898   -0.126048 -117.162521  -99.182933  158.770691    0.000000    0.000000    0.000000    0.000000
  0.044649299   -0.126499 -117.629684 -102.586209  160.367462    0.000000    0.000000    0.000000    0.000000
  0.044849699   -0.128850 -118.108093 -101.099927  161.361664    0.000000    0.000000    0.000000    0.000000
  0.045050100   -0.127622 -118.580215 -102.493562  167.137756    0.000000    0.000000    0.000000    0.000000
  0.045250501   -0.127674 -119.053886 -101.170072  153.070160    0.000000    0.000000    0.000000    0.000000
  0.045450902   -0.129387 -119.534912 -100.529748  150.669556    0.000000    0.000000    0.000000    0.000000
  0.045651303   -0.129135 -120.001190 -101.599745  156.384415    0.000000    0.000000    0.000000    0.000000
  0.045851703   -0.131697 -120.461517 -100.377113  157.192535    0.000000    0.000000    0.000000    0.000000
  0.046052104   -0.133334 -120.931107 -100.042599  150.967987    0.000000    0.000000    0.000000    0.000000
  0.046252505   -0.133421 -121.398308 -101.100978  146.899399    0.000000    0.000000    0.000000    0.000000
  0.046452906   -0.134078 -121.878220 -102.234119  144.190918    0.000000    0.000000    0.000000    0.000000
  0.046653307   -0.135590 -122.348923 -100.247374  150.266953    0.000000    0.000000    0.000000    0.000000
  0.046853707   -0.135276 -122.819328 -101.102780  138.451675    0.000000    0.000000    0.000000    0.000000
  0.047054108   -0.132097 -123.284248 -101.726126  148.201172    0.000000    0.000000    0.000000    0.000000
  0.047254509   -0.133279 -123.762199 -102.464562  146.213120    0.000000    0.000000    0.000000    0.000000
  0.047454910   -0.134302 -124.212578 -101.737185  144.455811    0.000000    0.000000    0.000000    0.000000
  0.047655311   -0.133302 -124.686302 -100.913811  135.044739    0.000000    0.000000    0.000000    0.000000
  0.047855711   -0.135284 -125.152451 -101.239565  131.782608    0.000000    0.000000    0.000000    0.000000
  0.048056112   -0.137214 -125.627480 -101.193405  134.613174    0.000000    0.000000    0.000000    0.000000
  0.048256513   -0.139196 -126.098381 -101.281696  143.211411    0.000000    0.000000    0.000000    0.000000
  0.048456914   -0.138827 -126.562286 -104.329766  134.001785    0.000000    0.000000    0.000000    0.000000
  0.048657315   -0.140562 -127.025864 -101.941811  129.076370    0.000000    0.000000    0.000000    0.000000
  0.048857715   -0.141686 -127.484978 -102.037342  127.955490    0.000000    0.000000    0.000000    0.000000
  0.049058116   -0.142178 -127.954277 -102.290970  137.704346    0.000000    0.000000    0.000000    0.000000
  0.049258517   -0.143104 -128.420303 -101.084934  126.629097    0.000000    0.000000    0.000000    0.000000
  0.049458918   -0.143484 -128.881149 -103.176170  127.271515    0.000000    0.000000    0.000000    0.000000
  0.049659319   -0.145648 -129.339111 -101.571347  135.967911    0.000000    0.000000    0.000000    0.000000
  0.049859719   -0.145061 -129.822662 -102.616640  132.000519    0.000000    0.000000    0.000000    0.000000
  0.050060120   -0.147270 -130.279922 -102.160520  120.327293    0.000000    0.000000    0.000000    0.000000
  0.050260521   -0.147408 -130.738297 -103.336080  108.563545    0.000000    0.000000    0.000000    0.000000
  0.050460922   -0.147174 -131.203049 -102.006305  118.230873    0.000000    0.000000    0.000000    0.000000
  0.050661323   -0.148798 -131.652527 -102.929712  121.826149    0.000000    0.000000    0.000000    0.000000
  0.050861723   -0.149963 -132.109436 -101.701116  105.499809    0.000000    0.000000    0.000000    0.000000
  0.051062124   -0.151381 -132.581757 -106.070600  120.082939    0.000000    0.000000    0.000000    0.000000
  0.051262525   -0.150657 -133.032516 -103.067510   95.325073    0.000000    0.000000    0.000000    0.000000
  0.051462926   -0.151789 -133.498245 -101.293506  112.580383    0.000000    0.000000    0.000000    0.000000
  0.051663327   -0.153081 -133.958359 -102.560392  114.154037    0.000000    0.000000    0.000000    0.000000
  0.051863727   -0.153586 -134.401428 -102.706649  112.837723    0.000000    0.000000    0.000000    0.000000
  0.052064128   -0.153332 -134.855316 -105.582207  104.617432    0.000000    0.000000    0.000000    0.000000
  0.052264529   -0.152086 -135.306534 -103.477728  105.310753    0.000000    0.000000    0.000000    0.000000
  0.052464930   -0.153104 -135.755981 -103.109697   97.427170    0.000000    0.000000    0.000000    0.000000
  0.052665331   -0.154258 -136.211182 -101.923719   83.591133    0.000000    0.000000    0.000000    0.000000
  0.052865731   -0.154558 -136.657730 -104.499151  104.968269    0.000000    0.000000    0.000000    0.000000
