! Anritsu VNA Master:                     Model: MS2036C/10/77
! SN:                                  1601066
! /bd0/18may09/b255.ew.m2.s2p
! Existing Calibration Information:
! TYPE:                         Current Settings,       Active Cal Settings
! TIME:             	   05/09/2018 08:11:30 PM,    05/09/2018 08:05:48 PM
! INTERNAL TEMP:    	                   54.3 C,                    54.5 C
! # POINTS:         	                      494,                       494
! START FREQ:       	               20.000 MHz,                20.000 MHz
! STOP FREQ:        	          118.797 594 MHz,           118.797 594 MHz
! SOURCE POWER:     	                     High,                      High
! IFBW:             	                    50 Hz,                     50 Hz
! AVG FACTOR:       	                       1 ,                        1 
! REF PLANE 1:      	                     0 mm,                      0 mm
! REF PLANE 2:      	                     0 mm,                      0 mm
! CAL TYPE:         	                 Full S22,                  Full S22
! CAL METHOD:       	                     SOLT,                      SOLT
! CAL LINE TYPE:    	                     Coax,                      Coax
! DUT PORT 1:       	                K-Conn(M),                 K-Conn(M)
! DUT PORT 2:       	                K-Conn(M),                 K-Conn(M)
! CAL STATUS:       	        OK: Accuracy High,                        --
# GHZ S DB R 50.0
! FREQ.GHZ       S11DB        S11A       S21DB        S21A       S12DB        S12A       S22DB        S22A
  0.020000000    0.000000    0.000000    0.000000    0.000000  -89.347391   33.933861   -0.911737 -125.542374
  0.020200401    0.000000    0.000000    0.000000    0.000000  -89.748878   34.564659   -0.919641 -126.989349
  0.020400802    0.000000    0.000000    0.000000    0.000000  -90.158035   31.407757   -0.927597 -128.443497
  0.020601202    0.000000    0.000000    0.000000    0.000000  -90.502326   35.157246   -0.936345 -129.897202
  0.020801603    0.000000    0.000000    0.000000    0.000000  -91.047256   36.787811   -0.947510 -131.399368
  0.021002004    0.000000    0.000000    0.000000    0.000000  -91.524456   32.407181   -0.953874 -132.919434
  0.021202405    0.000000    0.000000    0.000000    0.000000  -91.566368   36.970234   -0.962398 -134.426620
  0.021402806    0.000000    0.000000    0.000000    0.000000  -91.246964   39.615623   -0.972059 -135.915115
  0.021603206    0.000000    0.000000    0.000000    0.000000  -91.648621   37.629120   -0.979357 -137.423660
  0.021803607    0.000000    0.000000    0.000000    0.000000  -91.898104   40.477173   -0.990635 -138.918610
  0.022004008    0.000000    0.000000    0.000000    0.000000  -91.691594   39.756783   -1.001823 -140.414978
  0.022204409    0.000000    0.000000    0.000000    0.000000  -91.840969   39.275444   -1.012158 -141.928436
  0.022404810    0.000000    0.000000    0.000000    0.000000  -91.993534   40.378273   -1.020969 -143.503616
  0.022605210    0.000000    0.000000    0.000000    0.000000  -91.471832   45.584042   -1.030470 -145.052612
  0.022805611    0.000000    0.000000    0.000000    0.000000  -91.929236   40.608856   -1.043610 -146.608154
  0.023006012    0.000000    0.000000    0.000000    0.000000  -92.149130   38.548405   -1.054218 -148.157410
  0.023206413    0.000000    0.000000    0.000000    0.000000  -92.169524   44.680107   -1.061335 -149.714447
  0.023406814    0.000000    0.000000    0.000000    0.000000  -90.887473   44.328087   -1.071618 -151.278946
  0.023607214    0.000000    0.000000    0.000000    0.000000  -91.070331   40.270432   -1.082943 -152.856033
  0.023807615    0.000000    0.000000    0.000000    0.000000  -91.021143   37.110531   -1.095546 -154.435654
  0.024008016    0.000000    0.000000    0.000000    0.000000  -90.954635   39.415405   -1.108840 -156.043335
  0.024208417    0.000000    0.000000    0.000000    0.000000  -90.913836   35.066277   -1.120822 -157.675766
  0.024408818    0.000000    0.000000    0.000000    0.000000  -91.487580   31.268661   -1.131709 -159.316315
  0.024609218    0.000000    0.000000    0.000000    0.000000  -90.975526   35.254318   -1.141823 -160.947372
  0.024809619    0.000000    0.000000    0.000000    0.000000  -92.049842   35.014141   -1.155322 -162.585648
  0.025010020    0.000000    0.000000    0.000000    0.000000  -91.957669   30.136150   -1.171232 -164.241226
  0.025210421    0.000000    0.000000    0.000000    0.000000  -92.356077   25.362644   -1.185102 -165.893707
  0.025410822    0.000000    0.000000    0.000000    0.000000  -91.854831   25.365360   -1.201288 -167.565170
  0.025611222    0.000000    0.000000    0.000000    0.000000  -92.920765   26.658619   -1.216772 -169.244049
  0.025811623    0.000000    0.000000    0.000000    0.000000  -92.778697   28.197748   -1.233750 -170.946335
  0.026012024    0.000000    0.000000    0.000000    0.000000  -92.844576   26.931787   -1.248492 -172.652603
  0.026212425    0.000000    0.000000    0.000000    0.000000  -93.156213   22.414953   -1.263331 -174.364319
  0.026412826    0.000000    0.000000    0.000000    0.000000  -93.747815   23.645069   -1.282192 -176.086441
  0.026613226    0.000000    0.000000    0.000000    0.000000  -93.653324   31.074677   -1.300657 -177.822617
  0.026813627    0.000000    0.000000    0.000000    0.000000  -94.793657   23.561800   -1.320532 -179.564117
  0.027014028    0.000000    0.000000    0.000000    0.000000  -94.315630   26.754930   -1.342437  178.700104
  0.027214429    0.000000    0.000000    0.000000    0.000000  -94.433456   29.158798   -1.363153  176.936737
  0.027414830    0.000000    0.000000    0.000000    0.000000  -93.698147   27.922596   -1.383910  175.187515
  0.027615230    0.000000    0.000000    0.000000    0.000000  -94.871158   28.250616   -1.405548  173.403839
  0.027815631    0.000000    0.000000    0.000000    0.000000  -93.919889   31.199436   -1.428759  171.626419
  0.028016032    0.000000    0.000000    0.000000    0.000000  -94.877168   28.462004   -1.452059  169.817749
  0.028216433    0.000000    0.000000    0.000000    0.000000  -94.533167   35.401730   -1.478498  168.016495
  0.028416834    0.000000    0.000000    0.000000    0.000000  -94.347704   32.272560   -1.504619  166.192505
  0.028617234    0.000000    0.000000    0.000000    0.000000  -94.000617   31.946754   -1.529698  164.384720
  0.028817635    0.000000    0.000000    0.000000    0.000000  -94.592016   33.126991   -1.557309  162.567444
  0.029018036    0.000000    0.000000    0.000000    0.000000  -94.294045   37.062920   -1.584634  160.739899
  0.029218437    0.000000    0.000000    0.000000    0.000000  -93.865104   32.300320   -1.614122  158.898224
  0.029418838    0.000000    0.000000    0.000000    0.000000  -94.115322   28.748068   -1.644410  157.037796
  0.029619238    0.000000    0.000000    0.000000    0.000000  -94.360443   31.892431   -1.676163  155.171768
  0.029819639    0.000000    0.000000    0.000000    0.000000  -93.939613   27.660538   -1.706826  153.299545
  0.030020040    0.000000    0.000000    0.000000    0.000000  -94.318284   26.033596   -1.738574  151.415054
  0.030220441    0.000000    0.000000    0.000000    0.000000  -93.833906   26.660097   -1.769611  149.517563
  0.030420842    0.000000    0.000000    0.000000    0.000000  -94.429554   26.813381   -1.801426  147.635300
  0.030621242    0.000000    0.000000    0.000000    0.000000  -94.225244   25.411793   -1.836294  145.742844
  0.030821643    0.000000    0.000000    0.000000    0.000000  -95.036163   21.019802   -1.872297  143.859970
  0.031022044    0.000000    0.000000    0.000000    0.000000  -94.266456   24.979702   -1.908583  141.933975
  0.031222445    0.000000    0.000000    0.000000    0.000000  -94.817491   20.742250   -1.938163  140.033859
  0.031422846    0.000000    0.000000    0.000000    0.000000  -94.127557   22.333321   -1.975633  138.066986
  0.031623246    0.000000    0.000000    0.000000    0.000000  -94.705394   23.822104   -2.012083  136.117035
  0.031823647    0.000000    0.000000    0.000000    0.000000  -95.532660   18.794050   -2.050535  134.160202
  0.032024048    0.000000    0.000000    0.000000    0.000000  -95.790822   17.952374   -2.090629  132.199585
  0.032224449    0.000000    0.000000    0.000000    0.000000  -96.593891   26.103041   -2.129830  130.242020
  0.032424850    0.000000    0.000000    0.000000    0.000000  -95.547758   17.171129   -2.170507  128.268692
  0.032625250    0.000000    0.000000    0.000000    0.000000  -96.073010   17.916782   -2.211205  126.263779
  0.032825651    0.000000    0.000000    0.000000    0.000000  -96.173696   21.311720   -2.253596  124.249977
  0.033026052    0.000000    0.000000    0.000000    0.000000  -96.359578   16.609993   -2.294214  122.250603
  0.033226453    0.000000    0.000000    0.000000    0.000000  -96.875684   21.231665   -2.333890  120.219604
  0.033426854    0.000000    0.000000    0.000000    0.000000  -96.383966   21.862663   -2.377274  118.215851
  0.033627254    0.000000    0.000000    0.000000    0.000000  -95.883579   17.526762   -2.420917  116.201363
  0.033827655    0.000000    0.000000    0.000000    0.000000  -95.856742   24.650055   -2.464331  114.172569
  0.034028056    0.000000    0.000000    0.000000    0.000000  -97.010708   23.419998   -2.509426  112.175690
  0.034228457    0.000000    0.000000    0.000000    0.000000  -95.948381   21.563837   -2.554389  110.124252
  0.034428858    0.000000    0.000000    0.000000    0.000000  -95.897323   23.241121   -2.600647  108.079475
  0.034629258    0.000000    0.000000    0.000000    0.000000  -96.065899   19.839197   -2.648021  106.018982
  0.034829659    0.000000    0.000000    0.000000    0.000000  -97.164494   27.762161   -2.695353  103.953766
  0.035030060    0.000000    0.000000    0.000000    0.000000  -96.597084   31.277748   -2.742575  101.876030
  0.035230461    0.000000    0.000000    0.000000    0.000000  -96.167619   23.436403   -2.792566   99.822342
  0.035430862    0.000000    0.000000    0.000000    0.000000  -95.963192   28.415108   -2.840879   97.766754
  0.035631262    0.000000    0.000000    0.000000    0.000000  -95.759449   28.123661   -2.889423   95.703033
  0.035831663    0.000000    0.000000    0.000000    0.000000  -95.361838   24.429470   -2.937837   93.624969
  0.036032064    0.000000    0.000000    0.000000    0.000000  -96.607352   26.010530   -2.986307   91.544884
  0.036232465    0.000000    0.000000    0.000000    0.000000  -95.439240   25.308081   -3.034527   89.469032
  0.036432866    0.000000    0.000000    0.000000    0.000000  -96.018286   24.910725   -3.083024   87.369011
  0.036633266    0.000000    0.000000    0.000000    0.000000  -96.966470   25.694218   -3.127632   85.278664
  0.036833667    0.000000    0.000000    0.000000    0.000000  -96.611590   25.393581   -3.171515   83.193130
  0.037034068    0.000000    0.000000    0.000000    0.000000  -96.214083   17.409784   -3.216922   81.075905
  0.037234469    0.000000    0.000000    0.000000    0.000000  -96.562027   14.666868   -3.255252   78.957336
  0.037434870    0.000000    0.000000    0.000000    0.000000  -96.324945   18.422096   -3.291778   76.789917
  0.037635270    0.000000    0.000000    0.000000    0.000000  -96.582321   12.172468   -3.322846   74.582909
  0.037835671    0.000000    0.000000    0.000000    0.000000  -96.325114   25.935642   -3.364542   72.280899
  0.038036072    0.000000    0.000000    0.000000    0.000000  -98.406494   20.660919   -3.417671   69.906349
  0.038236473    0.000000    0.000000    0.000000    0.000000  -97.860822   15.443609   -3.488953   67.580658
  0.038436874    0.000000    0.000000    0.000000    0.000000  -98.290255   23.245859   -3.569973   65.304764
  0.038637274    0.000000    0.000000    0.000000    0.000000  -97.683738   22.492594   -3.650324   63.136848
  0.038837675    0.000000    0.000000    0.000000    0.000000  -98.312663   29.374468   -3.721519   61.008091
  0.039038076    0.000000    0.000000    0.000000    0.000000  -97.948943   16.217073   -3.787311   58.935749
  0.039238477    0.000000    0.000000    0.000000    0.000000  -97.870018   25.295071   -3.850298   56.836704
  0.039438878    0.000000    0.000000    0.000000    0.000000  -98.218445   23.395264   -3.909717   54.761421
  0.039639278    0.000000    0.000000    0.000000    0.000000  -98.839380   21.453445   -3.967706   52.676807
  0.039839679    0.000000    0.000000    0.000000    0.000000  -98.158731   26.025845   -4.026155   50.565430
  0.040040080    0.000000    0.000000    0.000000    0.000000  -97.613096   25.747265   -4.080533   48.462120
  0.040240481    0.000000    0.000000    0.000000    0.000000  -97.816834   23.527328   -4.132381   46.358505
  0.040440882    0.000000    0.000000    0.000000    0.000000  -98.000147   31.356173   -4.183598   44.263294
  0.040641283    0.000000    0.000000    0.000000    0.000000  -97.141085   34.910793   -4.236541   42.169682
  0.040841683    0.000000    0.000000    0.000000    0.000000  -97.976346   31.051287   -4.289348   40.090809
  0.041042084    0.000000    0.000000    0.000000    0.000000  -98.252945   27.930223   -4.341462   38.022739
  0.041242485    0.000000    0.000000    0.000000    0.000000  -97.876651   23.372797   -4.390273   35.904903
  0.041442886    0.000000    0.000000    0.000000    0.000000  -98.040984   19.230961   -4.439672   33.817154
  0.041643287    0.000000    0.000000    0.000000    0.000000  -97.960819   22.369860   -4.488174   31.714336
  0.041843687    0.000000    0.000000    0.000000    0.000000  -97.458855   29.933823   -4.536011   29.612200
  0.042044088    0.000000    0.000000    0.000000    0.000000  -98.321501   31.107807   -4.585073   27.538506
  0.042244489    0.000000    0.000000    0.000000    0.000000  -98.119610   28.039589   -4.632989   25.457291
  0.042444890    0.000000    0.000000    0.000000    0.000000  -97.941254   31.786488   -4.680430   23.396521
  0.042645291    0.000000    0.000000    0.000000    0.000000  -98.767319   23.574074   -4.725757   21.338190
  0.042845691    0.000000    0.000000    0.000000    0.000000  -97.296057   27.543564   -4.774295   19.268251
  0.043046092    0.000000    0.000000    0.000000    0.000000  -98.199970   22.222620   -4.818535   17.214361
  0.043246493    0.000000    0.000000    0.000000    0.000000  -98.519722   26.753260   -4.862691   15.167254
  0.043446894    0.000000    0.000000    0.000000    0.000000  -98.549153   22.696421   -4.902951   13.128817
  0.043647295    0.000000    0.000000    0.000000    0.000000  -98.512780   30.215569   -4.944785   11.070239
  0.043847695    0.000000    0.000000    0.000000    0.000000  -98.942673   25.601547   -4.983867    9.055430
  0.044048096    0.000000    0.000000    0.000000    0.000000  -99.400796   22.752014   -5.025950    7.040689
  0.044248497    0.000000    0.000000    0.000000    0.000000  -99.908995   30.693855   -5.061877    5.036201
  0.044448898    0.000000    0.000000    0.000000    0.000000 -100.735946   26.289728   -5.102878    3.051753
  0.044649299    0.000000    0.000000    0.000000    0.000000  -99.828184   29.666769   -5.136752    1.050539
  0.044849699    0.000000    0.000000    0.000000    0.000000  -99.490344   26.893866   -5.172491   -0.926447
  0.045050100    0.000000    0.000000    0.000000    0.000000  -99.468786   24.523115   -5.206429   -2.910403
  0.045250501    0.000000    0.000000    0.000000    0.000000  -99.987380   26.967476   -5.237627   -4.871331
  0.045450902    0.000000    0.000000    0.000000    0.000000  -99.479612   36.696274   -5.273338   -6.807291
  0.045651303    0.000000    0.000000    0.000000    0.000000 -100.181826   32.928780   -5.304368   -8.750573
  0.045851703    0.000000    0.000000    0.000000    0.000000  -98.029585   32.709896   -5.335969  -10.686136
  0.046052104    0.000000    0.000000    0.000000    0.000000  -99.061704   25.592850   -5.364642  -12.613206
  0.046252505    0.000000    0.000000    0.000000    0.000000  -99.719074   38.206390   -5.391896  -14.497190
  0.046452906    0.000000    0.000000    0.000000    0.000000  -98.613753   22.293152   -5.421399  -16.402424
  0.046653307    0.000000    0.000000    0.000000    0.000000  -98.547071   37.804081   -5.450647  -18.296322
  0.046853707    0.000000    0.000000    0.000000    0.000000  -98.815698   36.272175   -5.475860  -20.185022
  0.047054108    0.000000    0.000000    0.000000    0.000000  -98.320345   23.813784   -5.501989  -22.062386
  0.047254509    0.000000    0.000000    0.000000    0.000000  -98.156920   31.928625   -5.527199  -23.958643
  0.047454910    0.000000    0.000000    0.000000    0.000000  -99.044910   27.806343   -5.549737  -25.816986
  0.047655311    0.000000    0.000000    0.000000    0.000000  -99.347658   36.534157   -5.574383  -27.665693
  0.047855711    0.000000    0.000000    0.000000    0.000000  -97.492764   29.155130   -5.596793  -29.487333
  0.048056112    0.000000    0.000000    0.000000    0.000000  -98.214659   29.908194   -5.622069  -31.307474
  0.048256513    0.000000    0.000000    0.000000    0.000000  -98.268744   30.765232   -5.642443  -33.116062
  0.048456914    0.000000    0.000000    0.000000    0.000000  -98.871145   35.873512   -5.664197  -34.922356
  0.048657315    0.000000    0.000000    0.000000    0.000000  -98.519934   28.452549   -5.683455  -36.736565
  0.048857715    0.000000    0.000000    0.000000    0.000000  -99.069793   22.642681   -5.702772  -38.524765
  0.049058116    0.000000    0.000000    0.000000    0.000000  -99.386833   16.705996   -5.717444  -40.313599
  0.049258517    0.000000    0.000000    0.000000    0.000000  -98.678224   28.369081   -5.735316  -42.078182
  0.049458918    0.000000    0.000000    0.000000    0.000000 -100.170899   34.405334   -5.755172  -43.824608
  0.049659319    0.000000    0.000000    0.000000    0.000000  -99.553308   32.386734   -5.769555  -45.563568
  0.049859719    0.000000    0.000000    0.000000    0.000000 -100.288392   32.487720   -5.785199  -47.282711
  0.050060120    0.000000    0.000000    0.000000    0.000000 -101.632156   34.497963   -5.799944  -48.999336
  0.050260521    0.000000    0.000000    0.000000    0.000000  -99.842745   32.558674   -5.811880  -50.719021
  0.050460922    0.000000    0.000000    0.000000    0.000000 -100.372415   32.064358   -5.824291  -52.410465
  0.050661323    0.000000    0.000000    0.000000    0.000000  -98.412426   34.715378   -5.835263  -54.106140
  0.050861723    0.000000    0.000000    0.000000    0.000000  -98.661558   23.086727   -5.843560  -55.760323
  0.051062124    0.000000    0.000000    0.000000    0.000000 -100.029322   34.208195   -5.857559  -57.431194
  0.051262525    0.000000    0.000000    0.000000    0.000000 -100.311587   26.930218   -5.868671  -59.065407
  0.051462926    0.000000    0.000000    0.000000    0.000000  -99.995585   35.433327   -5.878351  -60.688171
  0.051663327    0.000000    0.000000    0.000000    0.000000  -98.895021   37.295639   -5.882765  -62.321869
  0.051863727    0.000000    0.000000    0.000000    0.000000  -99.513992   31.199631   -5.892210  -63.915867
  0.052064128    0.000000    0.000000    0.000000    0.000000  -97.674949   26.641827   -5.900120  -65.530396
  0.052264529    0.000000    0.000000    0.000000    0.000000  -97.565072   29.677555   -5.899542  -67.117989
  0.052464930    0.000000    0.000000    0.000000    0.000000  -98.170117   25.064137   -5.906201  -68.691086
  0.052665331    0.000000    0.000000    0.000000    0.000000  -99.652544   32.540245   -5.916089  -70.254524
  0.052865731    0.000000    0.000000    0.000000    0.000000  -98.017399   29.134937   -5.922491  -71.799454
