! Anritsu VNA Master:                     Model: MS2036C/10/77
! SN:                                  1601066
! /bd0/18may09/b255.ew.m1.s2p
! Existing Calibration Information:
! TYPE:                         Current Settings,       Active Cal Settings
! TIME:             	   05/09/2018 08:09:27 PM,    05/09/2018 08:05:48 PM
! INTERNAL TEMP:    	                   54.3 C,                    54.5 C
! # POINTS:         	                      494,                       494
! START FREQ:       	               20.000 MHz,                20.000 MHz
! STOP FREQ:        	          118.797 594 MHz,           118.797 594 MHz
! SOURCE POWER:     	                     High,                      High
! IFBW:             	                    50 Hz,                     50 Hz
! AVG FACTOR:       	                       1 ,                        1 
! REF PLANE 1:      	                     0 mm,                      0 mm
! REF PLANE 2:      	                     0 mm,                      0 mm
! CAL TYPE:         	                 Full S22,                  Full S22
! CAL METHOD:       	                     SOLT,                      SOLT
! CAL LINE TYPE:    	                     Coax,                      Coax
! DUT PORT 1:       	                K-Conn(M),                 K-Conn(M)
! DUT PORT 2:       	                K-Conn(M),                 K-Conn(M)
! CAL STATUS:       	        OK: Accuracy High,                        --
# GHZ S DB R 50.0
! FREQ.GHZ       S11DB        S11A       S21DB        S21A       S12DB        S12A       S22DB        S22A
  0.020000000    0.000000    0.000000    0.000000    0.000000  -89.755114   33.500069   -0.902753 -125.561638
  0.020200401    0.000000    0.000000    0.000000    0.000000  -90.106872   32.427326   -0.911198 -126.998718
  0.020400802    0.000000    0.000000    0.000000    0.000000  -90.008549   36.909580   -0.919502 -128.454391
  0.020601202    0.000000    0.000000    0.000000    0.000000  -90.651222   33.974758   -0.928907 -129.921356
  0.020801603    0.000000    0.000000    0.000000    0.000000  -90.612581   31.974117   -0.940281 -131.411057
  0.021002004    0.000000    0.000000    0.000000    0.000000  -91.007098   31.690422   -0.947765 -132.929520
  0.021202405    0.000000    0.000000    0.000000    0.000000  -91.215265   38.210411   -0.956040 -134.426727
  0.021402806    0.000000    0.000000    0.000000    0.000000  -91.596993   37.928040   -0.966179 -135.924042
  0.021603206    0.000000    0.000000    0.000000    0.000000  -91.457198   40.380943   -0.974144 -137.437500
  0.021803607    0.000000    0.000000    0.000000    0.000000  -91.898050   42.793568   -0.985223 -138.926895
  0.022004008    0.000000    0.000000    0.000000    0.000000  -92.292058   39.214867   -0.996153 -140.415131
  0.022204409    0.000000    0.000000    0.000000    0.000000  -91.308819   41.196232   -1.007442 -141.940277
  0.022404810    0.000000    0.000000    0.000000    0.000000  -91.888059   42.783836   -1.018981 -143.486542
  0.022605210    0.000000    0.000000    0.000000    0.000000  -91.112508   42.822689   -1.026161 -145.056198
  0.022805611    0.000000    0.000000    0.000000    0.000000  -91.677845   42.502426   -1.036831 -146.612717
  0.023006012    0.000000    0.000000    0.000000    0.000000  -91.686962   43.345791   -1.047163 -148.166412
  0.023206413    0.000000    0.000000    0.000000    0.000000  -91.688167   41.755047   -1.056777 -149.711990
  0.023406814    0.000000    0.000000    0.000000    0.000000  -91.231042   37.887932   -1.067118 -151.269272
  0.023607214    0.000000    0.000000    0.000000    0.000000  -91.494194   43.340397   -1.078941 -152.834732
  0.023807615    0.000000    0.000000    0.000000    0.000000  -91.488150   38.394791   -1.092187 -154.414215
  0.024008016    0.000000    0.000000    0.000000    0.000000  -91.083563   38.648170   -1.104739 -156.022537
  0.024208417    0.000000    0.000000    0.000000    0.000000  -91.294602   35.852005   -1.116291 -157.651184
  0.024408818    0.000000    0.000000    0.000000    0.000000  -91.646169   34.198086   -1.126132 -159.285217
  0.024609218    0.000000    0.000000    0.000000    0.000000  -91.604435   32.429470   -1.138230 -160.912018
  0.024809619    0.000000    0.000000    0.000000    0.000000  -91.945162   29.870327   -1.151143 -162.547882
  0.025010020    0.000000    0.000000    0.000000    0.000000  -91.407386   29.663197   -1.165992 -164.200363
  0.025210421    0.000000    0.000000    0.000000    0.000000  -91.896953   25.256983   -1.181214 -165.842148
  0.025410822    0.000000    0.000000    0.000000    0.000000  -92.001973   24.518160   -1.197335 -167.508743
  0.025611222    0.000000    0.000000    0.000000    0.000000  -92.091103   26.488567   -1.213046 -169.196671
  0.025811623    0.000000    0.000000    0.000000    0.000000  -92.688562   26.061619   -1.230692 -170.889175
  0.026012024    0.000000    0.000000    0.000000    0.000000  -92.438248   28.226419   -1.244658 -172.586594
  0.026212425    0.000000    0.000000    0.000000    0.000000  -93.339883   24.461746   -1.262055 -174.308304
  0.026412826    0.000000    0.000000    0.000000    0.000000  -93.010381   24.981615   -1.280154 -176.020935
  0.026613226    0.000000    0.000000    0.000000    0.000000  -93.022732   28.424303   -1.298029 -177.756439
  0.026813627    0.000000    0.000000    0.000000    0.000000  -95.362605   26.659460   -1.319120 -179.501373
  0.027014028    0.000000    0.000000    0.000000    0.000000  -94.287394   27.013828   -1.340416  178.768951
  0.027214429    0.000000    0.000000    0.000000    0.000000  -95.291945   28.842953   -1.361844  177.006882
  0.027414830    0.000000    0.000000    0.000000    0.000000  -94.379906   32.616585   -1.382298  175.248169
  0.027615230    0.000000    0.000000    0.000000    0.000000  -94.221042   27.173399   -1.404817  173.472748
  0.027815631    0.000000    0.000000    0.000000    0.000000  -94.756398   28.411383   -1.427663  171.689713
  0.028016032    0.000000    0.000000    0.000000    0.000000  -95.349613   35.294437   -1.451319  169.887680
  0.028216433    0.000000    0.000000    0.000000    0.000000  -94.919177   30.137110   -1.477792  168.083084
  0.028416834    0.000000    0.000000    0.000000    0.000000  -94.243938   32.850357   -1.503812  166.268372
  0.028617234    0.000000    0.000000    0.000000    0.000000  -94.928481   35.879288   -1.529660  164.454788
  0.028817635    0.000000    0.000000    0.000000    0.000000  -94.782279   32.452274   -1.555950  162.634186
  0.029018036    0.000000    0.000000    0.000000    0.000000  -94.961831   34.843460   -1.584856  160.811127
  0.029218437    0.000000    0.000000    0.000000    0.000000  -93.935703   33.023052   -1.614271  158.968521
  0.029418838    0.000000    0.000000    0.000000    0.000000  -93.932453   32.199375   -1.643553  157.107773
  0.029619238    0.000000    0.000000    0.000000    0.000000  -94.241803   31.887985   -1.674999  155.241135
  0.029819639    0.000000    0.000000    0.000000    0.000000  -94.469582   28.275606   -1.705525  153.364487
  0.030020040    0.000000    0.000000    0.000000    0.000000  -93.216892   26.482296   -1.737354  151.487228
  0.030220441    0.000000    0.000000    0.000000    0.000000  -93.893640   26.582432   -1.768618  149.597916
  0.030420842    0.000000    0.000000    0.000000    0.000000  -94.284712   24.993574   -1.800883  147.710312
  0.030621242    0.000000    0.000000    0.000000    0.000000  -94.188920   22.333849   -1.835773  145.826935
  0.030821643    0.000000    0.000000    0.000000    0.000000  -94.322737   25.955698   -1.871543  143.941437
  0.031022044    0.000000    0.000000    0.000000    0.000000  -94.397101   23.384794   -1.906760  142.018585
  0.031222445    0.000000    0.000000    0.000000    0.000000  -94.733243   22.302835   -1.935927  140.122025
  0.031422846    0.000000    0.000000    0.000000    0.000000  -94.705461   20.468521   -1.973872  138.157028
  0.031623246    0.000000    0.000000    0.000000    0.000000  -94.958355   20.165947   -2.010432  136.208206
  0.031823647    0.000000    0.000000    0.000000    0.000000  -94.842098   23.672901   -2.048257  134.253067
  0.032024048    0.000000    0.000000    0.000000    0.000000  -94.687009   18.936810   -2.088921  132.292526
  0.032224449    0.000000    0.000000    0.000000    0.000000  -94.949928   17.171041   -2.129389  130.344864
  0.032424850    0.000000    0.000000    0.000000    0.000000  -95.312079   21.851831   -2.169167  128.336975
  0.032625250    0.000000    0.000000    0.000000    0.000000  -95.173362   19.662273   -2.210895  126.350319
  0.032825651    0.000000    0.000000    0.000000    0.000000  -96.223343   25.882223   -2.252947  124.331276
  0.033026052    0.000000    0.000000    0.000000    0.000000  -96.079413   23.930363   -2.293212  122.330627
  0.033226453    0.000000    0.000000    0.000000    0.000000  -96.339992   23.131392   -2.333581  120.296432
  0.033426854    0.000000    0.000000    0.000000    0.000000  -96.627047   24.258698   -2.375450  118.294739
  0.033627254    0.000000    0.000000    0.000000    0.000000  -96.527479   21.106312   -2.420742  116.264862
  0.033827655    0.000000    0.000000    0.000000    0.000000  -96.422005   33.888828   -2.463635  114.243256
  0.034028056    0.000000    0.000000    0.000000    0.000000  -96.127187   24.418245   -2.508759  112.246765
  0.034228457    0.000000    0.000000    0.000000    0.000000  -96.122092   24.708811   -2.553782  110.190933
  0.034428858    0.000000    0.000000    0.000000    0.000000  -97.215554   24.920658   -2.601296  108.140488
  0.034629258    0.000000    0.000000    0.000000    0.000000  -96.510266   23.179409   -2.646708  106.072449
  0.034829659    0.000000    0.000000    0.000000    0.000000  -97.139772   23.572618   -2.695013  104.009010
  0.035030060    0.000000    0.000000    0.000000    0.000000  -96.155265   29.391598   -2.743724  101.941383
  0.035230461    0.000000    0.000000    0.000000    0.000000  -96.570304   30.312174   -2.791675   99.872810
  0.035430862    0.000000    0.000000    0.000000    0.000000  -95.609887   28.688065   -2.841001   97.818924
  0.035631262    0.000000    0.000000    0.000000    0.000000  -96.451934   32.279964   -2.887724   95.761086
  0.035831663    0.000000    0.000000    0.000000    0.000000  -96.348797   20.622458   -2.935964   93.667206
  0.036032064    0.000000    0.000000    0.000000    0.000000  -96.378478   15.296951   -2.985601   91.593933
  0.036232465    0.000000    0.000000    0.000000    0.000000  -95.844171   35.698452   -3.033435   89.509232
  0.036432866    0.000000    0.000000    0.000000    0.000000  -96.671641   19.563824   -3.082313   87.409691
  0.036633266    0.000000    0.000000    0.000000    0.000000  -96.632990   23.557371   -3.125742   85.331581
  0.036833667    0.000000    0.000000    0.000000    0.000000  -96.568941   28.528475   -3.171672   83.234001
  0.037034068    0.000000    0.000000    0.000000    0.000000  -96.896686   16.058811   -3.215295   81.123779
  0.037234469    0.000000    0.000000    0.000000    0.000000  -96.535589   16.434111   -3.253563   79.013496
  0.037434870    0.000000    0.000000    0.000000    0.000000  -98.509476   21.919794   -3.289962   76.852890
  0.037635270    0.000000    0.000000    0.000000    0.000000  -98.191360   16.981331   -3.321980   74.638405
  0.037835671    0.000000    0.000000    0.000000    0.000000  -96.355720   24.967304   -3.364466   72.336517
  0.038036072    0.000000    0.000000    0.000000    0.000000  -97.004661   21.778954   -3.416104   69.962204
  0.038236473    0.000000    0.000000    0.000000    0.000000  -98.104474   28.249691   -3.488951   67.633446
  0.038436874    0.000000    0.000000    0.000000    0.000000  -98.193971   27.127720   -3.568864   65.369362
  0.038637274    0.000000    0.000000    0.000000    0.000000  -99.481039   23.888573   -3.650365   63.204643
  0.038837675    0.000000    0.000000    0.000000    0.000000  -98.122849   16.876186   -3.721782   61.080803
  0.039038076    0.000000    0.000000    0.000000    0.000000  -98.371060   26.553028   -3.787616   58.989456
  0.039238477    0.000000    0.000000    0.000000    0.000000  -97.500773   20.741743   -3.849705   56.904697
  0.039438878    0.000000    0.000000    0.000000    0.000000  -97.373466   25.217142   -3.910714   54.813435
  0.039639278    0.000000    0.000000    0.000000    0.000000  -97.592022   32.297237   -3.968025   52.731834
  0.039839679    0.000000    0.000000    0.000000    0.000000  -99.518402   23.502388   -4.025873   50.614101
  0.040040080    0.000000    0.000000    0.000000    0.000000  -97.706676   31.458591   -4.079781   48.514732
  0.040240481    0.000000    0.000000    0.000000    0.000000  -97.845539   24.611591   -4.132782   46.410744
  0.040440882    0.000000    0.000000    0.000000    0.000000  -98.505776   25.920500   -4.182570   44.308891
  0.040641283    0.000000    0.000000    0.000000    0.000000  -97.071028   27.766468   -4.234996   42.206905
  0.040841683    0.000000    0.000000    0.000000    0.000000  -97.493972   29.104671   -4.288693   40.129890
  0.041042084    0.000000    0.000000    0.000000    0.000000  -97.147626   27.878321   -4.340557   38.064240
  0.041242485    0.000000    0.000000    0.000000    0.000000  -97.175360   23.319925   -4.392090   35.957813
  0.041442886    0.000000    0.000000    0.000000    0.000000  -97.509763   34.400040   -4.444313   33.863453
  0.041643287    0.000000    0.000000    0.000000    0.000000  -97.606507   26.759064   -4.491167   31.772079
  0.041843687    0.000000    0.000000    0.000000    0.000000  -98.314600   30.949024   -4.537913   29.655787
  0.042044088    0.000000    0.000000    0.000000    0.000000  -98.969061   33.625164   -4.586565   27.589121
  0.042244489    0.000000    0.000000    0.000000    0.000000  -97.305924   19.389647   -4.636700   25.499474
  0.042444890    0.000000    0.000000    0.000000    0.000000  -98.340688   28.516870   -4.683189   23.437050
  0.042645291    0.000000    0.000000    0.000000    0.000000  -99.002692   28.833755   -4.728353   21.386555
  0.042845691    0.000000    0.000000    0.000000    0.000000  -97.755877   31.175600   -4.776177   19.325932
  0.043046092    0.000000    0.000000    0.000000    0.000000  -99.374795   19.562799   -4.820012   17.265133
  0.043246493    0.000000    0.000000    0.000000    0.000000  -97.900452   20.703663   -4.865647   15.227850
  0.043446894    0.000000    0.000000    0.000000    0.000000 -100.197792   18.757030   -4.905739   13.179890
  0.043647295    0.000000    0.000000    0.000000    0.000000  -99.381325   15.462218   -4.948067   11.139709
  0.043847695    0.000000    0.000000    0.000000    0.000000  -99.283636   27.415775   -4.986951    9.105386
  0.044048096    0.000000    0.000000    0.000000    0.000000  -99.916071   38.374390   -5.025984    7.101133
  0.044248497    0.000000    0.000000    0.000000    0.000000  -98.539652   26.738533   -5.064733    5.097973
  0.044448898    0.000000    0.000000    0.000000    0.000000  -99.766379   38.662441   -5.105573    3.099498
  0.044649299    0.000000    0.000000    0.000000    0.000000  -99.477140   35.979301   -5.138845    1.114640
  0.044849699    0.000000    0.000000    0.000000    0.000000  -98.784677   28.753572   -5.175898   -0.865669
  0.045050100    0.000000    0.000000    0.000000    0.000000  -98.933193   36.106739   -5.208802   -2.833662
  0.045250501    0.000000    0.000000    0.000000    0.000000  -98.344930   31.278055   -5.242567   -4.799244
  0.045450902    0.000000    0.000000    0.000000    0.000000  -98.146673   23.998631   -5.274770   -6.746509
  0.045651303    0.000000    0.000000    0.000000    0.000000  -98.776136   29.841339   -5.308424   -8.690287
  0.045851703    0.000000    0.000000    0.000000    0.000000  -99.710155   29.432098   -5.338645  -10.631883
  0.046052104    0.000000    0.000000    0.000000    0.000000  -98.140847   29.493294   -5.368659  -12.556942
  0.046252505    0.000000    0.000000    0.000000    0.000000  -99.957819   36.090923   -5.395224  -14.442406
  0.046452906    0.000000    0.000000    0.000000    0.000000  -98.573603   28.305056   -5.425072  -16.346548
  0.046653307    0.000000    0.000000    0.000000    0.000000  -98.882620   28.175735   -5.452285  -18.249931
  0.046853707    0.000000    0.000000    0.000000    0.000000  -99.060937   27.681292   -5.478917  -20.133831
  0.047054108    0.000000    0.000000    0.000000    0.000000  -97.903804   29.612730   -5.505921  -22.022213
  0.047254509    0.000000    0.000000    0.000000    0.000000  -97.145602   34.186905   -5.531100  -23.895306
  0.047454910    0.000000    0.000000    0.000000    0.000000  -99.665087   39.869263   -5.553039  -25.771925
  0.047655311    0.000000    0.000000    0.000000    0.000000  -99.501546   31.438091   -5.576612  -27.597939
  0.047855711    0.000000    0.000000    0.000000    0.000000  -99.569462   28.151066   -5.599448  -29.419258
  0.048056112    0.000000    0.000000    0.000000    0.000000  -99.634431   25.899628   -5.624828  -31.246931
  0.048256513    0.000000    0.000000    0.000000    0.000000  -98.003069   28.119287   -5.645673  -33.052807
  0.048456914    0.000000    0.000000    0.000000    0.000000  -99.141490   29.795502   -5.669174  -34.866245
  0.048657315    0.000000    0.000000    0.000000    0.000000  -98.850877   27.559378   -5.687401  -36.665482
  0.048857715    0.000000    0.000000    0.000000    0.000000  -99.741707   27.403740   -5.706719  -38.453850
  0.049058116    0.000000    0.000000    0.000000    0.000000  -98.845444   23.775427   -5.721657  -40.242111
  0.049258517    0.000000    0.000000    0.000000    0.000000  -98.309582   30.970266   -5.739032  -41.999325
  0.049458918    0.000000    0.000000    0.000000    0.000000  -99.245938   28.984915   -5.756036  -43.752007
  0.049659319    0.000000    0.000000    0.000000    0.000000 -100.176055   26.785612   -5.773437  -45.492859
  0.049859719    0.000000    0.000000    0.000000    0.000000  -99.886772   24.123344   -5.790307  -47.206585
  0.050060120    0.000000    0.000000    0.000000    0.000000  -99.429583   31.247515   -5.804627  -48.925041
  0.050260521    0.000000    0.000000    0.000000    0.000000  -98.497984   29.439251   -5.818072  -50.643326
  0.050460922    0.000000    0.000000    0.000000    0.000000  -98.580814   43.915627   -5.829586  -52.339397
  0.050661323    0.000000    0.000000    0.000000    0.000000 -100.693040   34.759647   -5.840246  -54.034096
  0.050861723    0.000000    0.000000    0.000000    0.000000  -99.568819   39.941673   -5.850688  -55.687500
  0.051062124    0.000000    0.000000    0.000000    0.000000  -98.428352   32.878468   -5.862770  -57.362598
  0.051262525    0.000000    0.000000    0.000000    0.000000 -100.315185   27.458515   -5.874420  -59.007973
  0.051462926    0.000000    0.000000    0.000000    0.000000  -98.994082   38.891979   -5.882199  -60.618282
  0.051663327    0.000000    0.000000    0.000000    0.000000  -99.096251   30.761761   -5.891398  -62.261627
  0.051863727    0.000000    0.000000    0.000000    0.000000  -98.367182   33.732086   -5.901540  -63.857140
  0.052064128    0.000000    0.000000    0.000000    0.000000  -99.940190   34.056114   -5.906216  -65.478775
  0.052264529    0.000000    0.000000    0.000000    0.000000  -98.388488   29.201464   -5.908869  -67.078247
  0.052464930    0.000000    0.000000    0.000000    0.000000  -98.145506   28.062958   -5.914088  -68.651337
  0.052665331    0.000000    0.000000    0.000000    0.000000  -98.714945   30.378813   -5.922360  -70.214264
  0.052865731    0.000000    0.000000    0.000000    0.000000  -98.271071   22.402611   -5.930781  -71.767258
