! Anritsu VNA Master:                     Model: MS2036C/10/77
! SN:                                  1601066
! /bd0/18may10/256.ew.m3.s2p
! Existing Calibration Information:
! TYPE:                         Current Settings,       Active Cal Settings
! TIME:             	   05/10/2018 10:15:13 AM,    05/10/2018 10:05:08 AM
! INTERNAL TEMP:    	                   46.5 C,                    45.0 C
! # POINTS:         	                      494,                       494
! START FREQ:       	               20.000 MHz,                20.000 MHz
! STOP FREQ:        	          118.797 594 MHz,           118.797 594 MHz
! SOURCE POWER:     	                     High,                      High
! IFBW:             	                    50 Hz,                     50 Hz
! AVG FACTOR:       	                       1 ,                        1 
! REF PLANE 1:      	                     0 mm,                      0 mm
! REF PLANE 2:      	                     0 mm,                      0 mm
! CAL TYPE:         	                 Full S22,                  Full S22
! CAL METHOD:       	                     SOLT,                      SOLT
! CAL LINE TYPE:    	                     Coax,                      Coax
! DUT PORT 1:       	                K-Conn(M),                 K-Conn(M)
! DUT PORT 2:       	                K-Conn(M),                 K-Conn(M)
! CAL STATUS:       	        OK: Accuracy High,                        --
# GHZ S DB R 50.0
! FREQ.GHZ       S11DB        S11A       S21DB        S21A       S12DB        S12A       S22DB        S22A
  0.020000000    0.000000    0.000000    0.000000    0.000000  -89.421820   35.592476   -0.610667 -126.993896
  0.020200401    0.000000    0.000000    0.000000    0.000000  -89.861433   36.940407   -0.614305 -128.448761
  0.020400802    0.000000    0.000000    0.000000    0.000000  -90.425774   34.296791   -0.619184 -129.909561
  0.020601202    0.000000    0.000000    0.000000    0.000000  -90.441191   35.464462   -0.624727 -131.400681
  0.020801603    0.000000    0.000000    0.000000    0.000000  -90.947327   39.161793   -0.628541 -132.923080
  0.021002004    0.000000    0.000000    0.000000    0.000000  -91.266891   38.816666   -0.630169 -134.453842
  0.021202405    0.000000    0.000000    0.000000    0.000000  -91.045204   38.671043   -0.637478 -135.988052
  0.021402806    0.000000    0.000000    0.000000    0.000000  -91.567259   42.753819   -0.640700 -137.522491
  0.021603206    0.000000    0.000000    0.000000    0.000000  -91.079302   40.556744   -0.644586 -139.040955
  0.021803607    0.000000    0.000000    0.000000    0.000000  -91.688212   42.716232   -0.648419 -140.568207
  0.022004008    0.000000    0.000000    0.000000    0.000000  -91.277900   43.495705   -0.657191 -142.113159
  0.022204409    0.000000    0.000000    0.000000    0.000000  -92.130237   44.181667   -0.662971 -143.682571
  0.022404810    0.000000    0.000000    0.000000    0.000000  -91.419563   42.346710   -0.670685 -145.286118
  0.022605210    0.000000    0.000000    0.000000    0.000000  -91.534590   43.485901   -0.679240 -146.870316
  0.022805611    0.000000    0.000000    0.000000    0.000000  -91.267432   45.164108   -0.685698 -148.464340
  0.023006012    0.000000    0.000000    0.000000    0.000000  -91.347839   45.438999   -0.687894 -150.065735
  0.023206413    0.000000    0.000000    0.000000    0.000000  -91.294204   45.641663   -0.693433 -151.671661
  0.023406814    0.000000    0.000000    0.000000    0.000000  -91.238594   38.023743   -0.701378 -153.264343
  0.023607214    0.000000    0.000000    0.000000    0.000000  -91.569524   39.938644   -0.709186 -154.876022
  0.023807615    0.000000    0.000000    0.000000    0.000000  -90.485487   40.904549   -0.721831 -156.512711
  0.024008016    0.000000    0.000000    0.000000    0.000000  -90.929188   40.590839   -0.731992 -158.148132
  0.024208417    0.000000    0.000000    0.000000    0.000000  -91.141686   37.346161   -0.739590 -159.811676
  0.024408818    0.000000    0.000000    0.000000    0.000000  -90.797509   39.237545   -0.745668 -161.477890
  0.024609218    0.000000    0.000000    0.000000    0.000000  -91.087271   34.654606   -0.755707 -163.137100
  0.024809619    0.000000    0.000000    0.000000    0.000000  -91.363325   33.418858   -0.765259 -164.808670
  0.025010020    0.000000    0.000000    0.000000    0.000000  -91.414681   29.821289   -0.777213 -166.486465
  0.025210421    0.000000    0.000000    0.000000    0.000000  -92.197162   29.900211   -0.788839 -168.170731
  0.025410822    0.000000    0.000000    0.000000    0.000000  -92.490496   26.346914   -0.801865 -169.863617
  0.025611222    0.000000    0.000000    0.000000    0.000000  -92.585752   27.578114   -0.815122 -171.573883
  0.025811623    0.000000    0.000000    0.000000    0.000000  -92.111508   26.687288   -0.826958 -173.288910
  0.026012024    0.000000    0.000000    0.000000    0.000000  -92.822150   25.044668   -0.839776 -175.024460
  0.026212425    0.000000    0.000000    0.000000    0.000000  -92.700191   29.622948   -0.852579 -176.764786
  0.026412826    0.000000    0.000000    0.000000    0.000000  -93.235618   28.832441   -0.870425 -178.511597
  0.026613226    0.000000    0.000000    0.000000    0.000000  -94.037663   25.866169   -0.887062  179.729141
  0.026813627    0.000000    0.000000    0.000000    0.000000  -94.024479   26.097252   -0.902193  177.964951
  0.027014028    0.000000    0.000000    0.000000    0.000000  -94.374085   26.990147   -0.919731  176.194458
  0.027214429    0.000000    0.000000    0.000000    0.000000  -94.311616   27.166838   -0.938518  174.412994
  0.027414830    0.000000    0.000000    0.000000    0.000000  -93.988458   34.427242   -0.955400  172.639999
  0.027615230    0.000000    0.000000    0.000000    0.000000  -94.254407   35.598484   -0.976027  170.828644
  0.027815631    0.000000    0.000000    0.000000    0.000000  -94.841383   32.142349   -0.996397  169.020828
  0.028016032    0.000000    0.000000    0.000000    0.000000  -94.341892   34.300205   -1.018019  167.190491
  0.028216433    0.000000    0.000000    0.000000    0.000000  -94.424195   36.580364   -1.039657  165.356537
  0.028416834    0.000000    0.000000    0.000000    0.000000  -94.100979   34.724625   -1.063323  163.522430
  0.028617234    0.000000    0.000000    0.000000    0.000000  -94.390129   33.050205   -1.086096  161.679474
  0.028817635    0.000000    0.000000    0.000000    0.000000  -93.634992   37.941757   -1.110507  159.833847
  0.029018036    0.000000    0.000000    0.000000    0.000000  -94.815042   40.217857   -1.135825  157.984314
  0.029218437    0.000000    0.000000    0.000000    0.000000  -93.979393   32.146072   -1.162344  156.126114
  0.029418838    0.000000    0.000000    0.000000    0.000000  -94.031383   31.872831   -1.191248  154.256317
  0.029619238    0.000000    0.000000    0.000000    0.000000  -93.932362   34.421078   -1.217970  152.366745
  0.029819639    0.000000    0.000000    0.000000    0.000000  -94.051820   30.802595   -1.247661  150.483887
  0.030020040    0.000000    0.000000    0.000000    0.000000  -94.870966   27.766293   -1.277235  148.597778
  0.030220441    0.000000    0.000000    0.000000    0.000000  -93.849379   29.572971   -1.305771  146.712143
  0.030420842    0.000000    0.000000    0.000000    0.000000  -94.192037   22.404207   -1.334868  144.826675
  0.030621242    0.000000    0.000000    0.000000    0.000000  -94.370356   28.055714   -1.367075  142.943130
  0.030821643    0.000000    0.000000    0.000000    0.000000  -93.807971   24.906496   -1.402044  141.035126
  0.031022044    0.000000    0.000000    0.000000    0.000000  -93.948958   25.259445   -1.434526  139.117706
  0.031222445    0.000000    0.000000    0.000000    0.000000  -94.086089   18.639633   -1.463946  137.192749
  0.031422846    0.000000    0.000000    0.000000    0.000000  -95.239683   19.917028   -1.498700  135.229111
  0.031623246    0.000000    0.000000    0.000000    0.000000  -94.186678   14.728485   -1.534359  133.259506
  0.031823647    0.000000    0.000000    0.000000    0.000000  -94.624934   19.603191   -1.568171  131.305862
  0.032024048    0.000000    0.000000    0.000000    0.000000  -94.617946   20.195427   -1.606692  129.345749
  0.032224449    0.000000    0.000000    0.000000    0.000000  -95.583627   19.587255   -1.642192  127.349640
  0.032424850    0.000000    0.000000    0.000000    0.000000  -95.773271   22.601490   -1.681753  125.381554
  0.032625250    0.000000    0.000000    0.000000    0.000000  -95.749779   23.951462   -1.719034  123.362289
  0.032825651    0.000000    0.000000    0.000000    0.000000  -95.041852   24.058855   -1.761811  121.329102
  0.033026052    0.000000    0.000000    0.000000    0.000000  -96.930057   22.656740   -1.801094  119.289665
  0.033226453    0.000000    0.000000    0.000000    0.000000  -96.227822   23.314619   -1.843000  117.246246
  0.033426854    0.000000    0.000000    0.000000    0.000000  -96.442601   20.755308   -1.884208  115.201553
  0.033627254    0.000000    0.000000    0.000000    0.000000  -95.982565   27.163860   -1.928546  113.164200
  0.033827655    0.000000    0.000000    0.000000    0.000000  -97.588566   17.018669   -1.975146  111.116959
  0.034028056    0.000000    0.000000    0.000000    0.000000  -95.972532   30.400848   -2.015319  109.049126
  0.034228457    0.000000    0.000000    0.000000    0.000000  -97.191770   22.319191   -2.063681  106.979126
  0.034428858    0.000000    0.000000    0.000000    0.000000  -96.528632   27.234196   -2.109549  104.899475
  0.034629258    0.000000    0.000000    0.000000    0.000000  -97.156624   31.169090   -2.155061  102.801468
  0.034829659    0.000000    0.000000    0.000000    0.000000  -97.325061   25.061613   -2.203928  100.732765
  0.035030060    0.000000    0.000000    0.000000    0.000000  -95.550331   33.594559   -2.254540   98.649521
  0.035230461    0.000000    0.000000    0.000000    0.000000  -96.680115   28.145781   -2.301359   96.551559
  0.035430862    0.000000    0.000000    0.000000    0.000000  -95.895653   30.649897   -2.354365   94.475800
  0.035631262    0.000000    0.000000    0.000000    0.000000  -96.383891   26.310738   -2.401491   92.391083
  0.035831663    0.000000    0.000000    0.000000    0.000000  -96.387743   25.222643   -2.453155   90.303444
  0.036032064    0.000000    0.000000    0.000000    0.000000  -97.405922   22.017469   -2.503047   88.209122
  0.036232465    0.000000    0.000000    0.000000    0.000000  -96.927154   24.966240   -2.553606   86.144890
  0.036432866    0.000000    0.000000    0.000000    0.000000  -96.637972   18.678776   -2.606423   84.045113
  0.036633266    0.000000    0.000000    0.000000    0.000000  -95.367204   14.591021   -2.658264   81.954247
  0.036833667    0.000000    0.000000    0.000000    0.000000  -97.336066   20.420488   -2.712623   79.860184
  0.037034068    0.000000    0.000000    0.000000    0.000000  -96.527265   16.921368   -2.767505   77.751556
  0.037234469    0.000000    0.000000    0.000000    0.000000  -97.506581   23.438793   -2.820878   75.666489
  0.037434870    0.000000    0.000000    0.000000    0.000000  -97.053050   26.351549   -2.876900   73.565018
  0.037635270    0.000000    0.000000    0.000000    0.000000  -97.115747   18.397446   -2.929846   71.459793
  0.037835671    0.000000    0.000000    0.000000    0.000000  -97.006598   14.029903   -2.985593   69.337517
  0.038036072    0.000000    0.000000    0.000000    0.000000  -96.823178   27.555387   -3.045040   67.216866
  0.038236473    0.000000    0.000000    0.000000    0.000000  -97.701299   25.458410   -3.102500   65.092842
  0.038436874    0.000000    0.000000    0.000000    0.000000  -97.931392   20.870905   -3.163105   62.979137
  0.038637274    0.000000    0.000000    0.000000    0.000000  -97.845079   18.150709   -3.219880   60.846851
  0.038837675    0.000000    0.000000    0.000000    0.000000  -97.486717   30.604609   -3.278271   58.737167
  0.039038076    0.000000    0.000000    0.000000    0.000000  -98.752494   21.156267   -3.331884   56.650120
  0.039238477    0.000000    0.000000    0.000000    0.000000  -96.996710   22.752829   -3.391528   54.540291
  0.039438878    0.000000    0.000000    0.000000    0.000000  -98.229252   31.359287   -3.447765   52.431023
  0.039639278    0.000000    0.000000    0.000000    0.000000  -97.487700   29.990559   -3.507651   50.300968
  0.039839679    0.000000    0.000000    0.000000    0.000000  -97.819992   28.006813   -3.564912   48.178001
  0.040040080    0.000000    0.000000    0.000000    0.000000  -98.044857   26.772669   -3.623063   46.041473
  0.040240481    0.000000    0.000000    0.000000    0.000000  -97.290429   31.686626   -3.676888   43.924709
  0.040440882    0.000000    0.000000    0.000000    0.000000  -97.910005   32.831738   -3.733621   41.806629
  0.040641283    0.000000    0.000000    0.000000    0.000000  -98.414563   29.003223   -3.788173   39.718998
  0.040841683    0.000000    0.000000    0.000000    0.000000  -97.977503   27.138638   -3.845886   37.632866
  0.041042084    0.000000    0.000000    0.000000    0.000000  -97.493683   37.081425   -3.900295   35.550304
  0.041242485    0.000000    0.000000    0.000000    0.000000  -97.554551   31.456562   -3.958156   33.456615
  0.041442886    0.000000    0.000000    0.000000    0.000000  -97.329306   25.125978   -4.012912   31.375757
  0.041643287    0.000000    0.000000    0.000000    0.000000  -98.683690   32.792343   -4.066373   29.292137
  0.041843687    0.000000    0.000000    0.000000    0.000000  -96.515029   31.443804   -4.120866   27.213476
  0.042044088    0.000000    0.000000    0.000000    0.000000  -97.551326   31.826466   -4.172423   25.163847
  0.042244489    0.000000    0.000000    0.000000    0.000000  -97.774342   23.031544   -4.223174   23.122128
  0.042444890    0.000000    0.000000    0.000000    0.000000  -98.596025   40.612839   -4.275412   21.104080
  0.042645291    0.000000    0.000000    0.000000    0.000000  -98.157199   29.563066   -4.327795   19.084719
  0.042845691    0.000000    0.000000    0.000000    0.000000  -97.457037   27.264175   -4.377288   17.055483
  0.043046092    0.000000    0.000000    0.000000    0.000000  -97.608879   24.882963   -4.427903   15.068084
  0.043246493    0.000000    0.000000    0.000000    0.000000  -99.344844   15.214349   -4.474170   13.051001
  0.043446894    0.000000    0.000000    0.000000    0.000000  -98.744042   26.664345   -4.522104   11.057001
  0.043647295    0.000000    0.000000    0.000000    0.000000  -99.064272   25.923477   -4.567436    9.066390
  0.043847695    0.000000    0.000000    0.000000    0.000000  -99.296012   26.072767   -4.614091    7.094611
  0.044048096    0.000000    0.000000    0.000000    0.000000  -98.902702   22.569445   -4.658029    5.119964
  0.044248497    0.000000    0.000000    0.000000    0.000000  -98.952433   39.451859   -4.705241    3.166218
  0.044448898    0.000000    0.000000    0.000000    0.000000 -100.183990   36.511620   -4.749014    1.203321
  0.044649299    0.000000    0.000000    0.000000    0.000000  -99.522908   37.839195   -4.792516   -0.746646
  0.044849699    0.000000    0.000000    0.000000    0.000000 -100.351398   25.650349   -4.832035   -2.698025
  0.045050100    0.000000    0.000000    0.000000    0.000000  -98.602015   34.198746   -4.870216   -4.642598
  0.045250501    0.000000    0.000000    0.000000    0.000000 -100.486253   31.206192   -4.914524   -6.587590
  0.045450902    0.000000    0.000000    0.000000    0.000000 -100.020562   39.479519   -4.955519   -8.529428
  0.045651303    0.000000    0.000000    0.000000    0.000000  -98.220596   31.560890   -4.995865  -10.463714
  0.045851703    0.000000    0.000000    0.000000    0.000000 -100.814614   34.578972   -5.032123  -12.387038
  0.046052104    0.000000    0.000000    0.000000    0.000000  -98.702291   30.904749   -5.073042  -14.279789
  0.046252505    0.000000    0.000000    0.000000    0.000000  -98.162712   31.044357   -5.112484  -16.156517
  0.046452906    0.000000    0.000000    0.000000    0.000000  -98.958406   31.783182   -5.152768  -18.012821
  0.046653307    0.000000    0.000000    0.000000    0.000000 -100.131773   30.600603   -5.189091  -19.868822
  0.046853707    0.000000    0.000000    0.000000    0.000000  -98.490443   37.129997   -5.217943  -21.706112
  0.047054108    0.000000    0.000000    0.000000    0.000000  -99.099854   22.609241   -5.247678  -23.556786
  0.047254509    0.000000    0.000000    0.000000    0.000000  -98.860301   34.806580   -5.272180  -25.405275
  0.047454910    0.000000    0.000000    0.000000    0.000000  -98.438441   24.297565   -5.294031  -27.253422
  0.047655311    0.000000    0.000000    0.000000    0.000000  -98.222367   27.010118   -5.314999  -29.096975
  0.047855711    0.000000    0.000000    0.000000    0.000000  -99.237857   34.567905   -5.335810  -30.923746
  0.048056112    0.000000    0.000000    0.000000    0.000000 -101.050053   26.151548   -5.362439  -32.765720
  0.048256513    0.000000    0.000000    0.000000    0.000000  -99.621463   32.689770   -5.383815  -34.585911
  0.048456914    0.000000    0.000000    0.000000    0.000000  -98.113996   28.471935   -5.407646  -36.404720
  0.048657315    0.000000    0.000000    0.000000    0.000000  -99.645749   24.575222   -5.427794  -38.226967
  0.048857715    0.000000    0.000000    0.000000    0.000000 -100.422935   42.071541   -5.448797  -40.021782
  0.049058116    0.000000    0.000000    0.000000    0.000000 -100.088574   26.244038   -5.466726  -41.815739
  0.049258517    0.000000    0.000000    0.000000    0.000000  -99.104180   33.417049   -5.488356  -43.570183
  0.049458918    0.000000    0.000000    0.000000    0.000000 -100.666990   39.091797   -5.507363  -45.321407
  0.049659319    0.000000    0.000000    0.000000    0.000000  -98.755627   35.725777   -5.530627  -47.042473
  0.049859719    0.000000    0.000000    0.000000    0.000000 -100.653385   42.408974   -5.552249  -48.754066
  0.050060120    0.000000    0.000000    0.000000    0.000000  -99.558763   38.855282   -5.571433  -50.466755
  0.050260521    0.000000    0.000000    0.000000    0.000000 -100.245438   28.059736   -5.590386  -52.165409
  0.050460922    0.000000    0.000000    0.000000    0.000000  -99.378949   38.245190   -5.608672  -53.856991
  0.050661323    0.000000    0.000000    0.000000    0.000000 -100.700367   35.641998   -5.625158  -55.525970
  0.050861723    0.000000    0.000000    0.000000    0.000000 -100.043299   30.145140   -5.643105  -57.197803
  0.051062124    0.000000    0.000000    0.000000    0.000000  -99.386515   35.487396   -5.662021  -58.832150
  0.051262525    0.000000    0.000000    0.000000    0.000000  -99.722449   38.200970   -5.681968  -60.461533
  0.051462926    0.000000    0.000000    0.000000    0.000000  -98.587301   37.805199   -5.696741  -62.105263
  0.051663327    0.000000    0.000000    0.000000    0.000000  -97.923688   40.049744   -5.714670  -63.721893
  0.051863727    0.000000    0.000000    0.000000    0.000000  -99.047184   37.110950   -5.733070  -65.320450
  0.052064128    0.000000    0.000000    0.000000    0.000000  -98.579175   32.711990   -5.745435  -66.921303
  0.052264529    0.000000    0.000000    0.000000    0.000000  -98.490014   34.284531   -5.756552  -68.509064
  0.052464930    0.000000    0.000000    0.000000    0.000000  -99.313485   42.448723   -5.771579  -70.101974
  0.052665331    0.000000    0.000000    0.000000    0.000000  -99.206999   30.824627   -5.788904  -71.657394
  0.052865731    0.000000    0.000000    0.000000    0.000000 -100.060870   25.181067   -5.800927  -73.223274
