! Anritsu VNA Master:                     Model: MS2036C/10/77
! SN:                                  1601066
! /bd0/18may09/252.ns.m6.s2p
! Existing Calibration Information:
! TYPE:                         Current Settings,       Active Cal Settings
! TIME:             	   05/09/2018 09:05:32 AM,    05/09/2018 09:02:47 AM
! INTERNAL TEMP:    	                   40.8 C,                    40.3 C
! # POINTS:         	                      500,                       500
! START FREQ:       	               20.000 MHz,                20.000 MHz
! STOP FREQ:        	              120.000 MHz,               120.000 MHz
! SOURCE POWER:     	                     High,                      High
! IFBW:             	                    50 Hz,                     50 Hz
! AVG FACTOR:       	                       1 ,                        1 
! REF PLANE 1:      	                     0 mm,                      0 mm
! REF PLANE 2:      	                     0 mm,                      0 mm
! CAL TYPE:         	                 Full S11,                  Full S11
! CAL METHOD:       	                     SOLT,                      SOLT
! CAL LINE TYPE:    	                     Coax,                      Coax
! DUT PORT 1:       	                K-Conn(F),                 K-Conn(F)
! DUT PORT 2:       	                K-Conn(F),                 K-Conn(F)
! CAL STATUS:       	        OK: Accuracy High,                        --
# GHZ S DB R 50.0
! FREQ.GHZ       S11DB        S11A       S21DB        S21A       S12DB        S12A       S22DB        S22A
  0.020000000   -0.592552 -124.010597  -91.128436   31.886608    0.000000    0.000000    0.000000    0.000000
  0.020200401   -0.592287 -125.433800  -91.446265   29.553757    0.000000    0.000000    0.000000    0.000000
  0.020400802   -0.594069 -126.859306  -92.031921   25.642939    0.000000    0.000000    0.000000    0.000000
  0.020601202   -0.596119 -128.296951  -91.231864   30.387672    0.000000    0.000000    0.000000    0.000000
  0.020801603   -0.601456 -129.753891  -92.706007   32.031425    0.000000    0.000000    0.000000    0.000000
  0.021002004   -0.608099 -131.245590  -92.123945   33.385761    0.000000    0.000000    0.000000    0.000000
  0.021202405   -0.615680 -132.750244  -92.748843   34.012177    0.000000    0.000000    0.000000    0.000000
  0.021402806   -0.621375 -134.229431  -92.552576   31.183455    0.000000    0.000000    0.000000    0.000000
  0.021603206   -0.624464 -135.722946  -93.364676   35.565258    0.000000    0.000000    0.000000    0.000000
  0.021803607   -0.630027 -137.207672  -93.654284   31.560118    0.000000    0.000000    0.000000    0.000000
  0.022004008   -0.634705 -138.704697  -94.167313   34.065342    0.000000    0.000000    0.000000    0.000000
  0.022204409   -0.640178 -140.224091  -93.292708   36.066395    0.000000    0.000000    0.000000    0.000000
  0.022404810   -0.644619 -141.745102  -93.058975   35.471359    0.000000    0.000000    0.000000    0.000000
  0.022605210   -0.648936 -143.296829  -92.680109   39.050259    0.000000    0.000000    0.000000    0.000000
  0.022805611   -0.653871 -144.844208  -93.319637   39.026676    0.000000    0.000000    0.000000    0.000000
  0.023006012   -0.656859 -146.359421  -92.895258   37.702000    0.000000    0.000000    0.000000    0.000000
  0.023206413   -0.657788 -147.894775  -92.861325   35.714561    0.000000    0.000000    0.000000    0.000000
  0.023406814   -0.659061 -149.426407  -92.633982   32.964802    0.000000    0.000000    0.000000    0.000000
  0.023607214   -0.665492 -150.972549  -92.283551   36.803768    0.000000    0.000000    0.000000    0.000000
  0.023807615   -0.672101 -152.535217  -92.583037   34.360958    0.000000    0.000000    0.000000    0.000000
  0.024008016   -0.682315 -154.111526  -93.126373   32.094486    0.000000    0.000000    0.000000    0.000000
  0.024208417   -0.690422 -155.699203  -92.567313   27.087206    0.000000    0.000000    0.000000    0.000000
  0.024408818   -0.697968 -157.297043  -93.666020   20.967318    0.000000    0.000000    0.000000    0.000000
  0.024609218   -0.705329 -158.898209  -92.727199   27.424025    0.000000    0.000000    0.000000    0.000000
  0.024809619   -0.713230 -160.499542  -92.984070   26.144325    0.000000    0.000000    0.000000    0.000000
  0.025010020   -0.724168 -162.116516  -93.225755   22.022539    0.000000    0.000000    0.000000    0.000000
  0.025210421   -0.734523 -163.739029  -93.775574   21.951950    0.000000    0.000000    0.000000    0.000000
  0.025410822   -0.746676 -165.376938  -93.495295   20.521593    0.000000    0.000000    0.000000    0.000000
  0.025611222   -0.760633 -167.044907  -93.749041   18.655987    0.000000    0.000000    0.000000    0.000000
  0.025811623   -0.771926 -168.727676  -95.130884   16.217735    0.000000    0.000000    0.000000    0.000000
  0.026012024   -0.779861 -170.410370  -94.577374   15.892962    0.000000    0.000000    0.000000    0.000000
  0.026212425   -0.789744 -172.107040  -94.681206   13.117952    0.000000    0.000000    0.000000    0.000000
  0.026412826   -0.801955 -173.808456  -94.822965   16.953913    0.000000    0.000000    0.000000    0.000000
  0.026613226   -0.814762 -175.505188  -95.005274   18.903271    0.000000    0.000000    0.000000    0.000000
  0.026813627   -0.830178 -177.236908  -95.736589   19.669186    0.000000    0.000000    0.000000    0.000000
  0.027014028   -0.844760 -178.968033  -95.510438   20.439474    0.000000    0.000000    0.000000    0.000000
  0.027214429   -0.860090  179.286774  -95.401734   22.821396    0.000000    0.000000    0.000000    0.000000
  0.027414830   -0.875744  177.530975  -96.361525   24.485130    0.000000    0.000000    0.000000    0.000000
  0.027615230   -0.891271  175.762070  -95.926442   23.123474    0.000000    0.000000    0.000000    0.000000
  0.027815631   -0.911357  173.987411  -95.591106   30.907537    0.000000    0.000000    0.000000    0.000000
  0.028016032   -0.933623  172.196884  -95.844863   17.683239    0.000000    0.000000    0.000000    0.000000
  0.028216433   -0.955779  170.400681  -95.827779   21.596731    0.000000    0.000000    0.000000    0.000000
  0.028416834   -0.975643  168.599991  -96.151191   26.787109    0.000000    0.000000    0.000000    0.000000
  0.028617234   -0.996541  166.801178  -96.634805   28.592575    0.000000    0.000000    0.000000    0.000000
  0.028817635   -1.017122  165.015701  -95.727306   20.098213    0.000000    0.000000    0.000000    0.000000
  0.029018036   -1.038280  163.226852  -95.460447   23.029573    0.000000    0.000000    0.000000    0.000000
  0.029218437   -1.059954  161.435944  -95.472752   15.033511    0.000000    0.000000    0.000000    0.000000
  0.029418838   -1.086095  159.636307  -96.449897   18.151749    0.000000    0.000000    0.000000    0.000000
  0.029619238   -1.113502  157.832565  -96.290756   26.302582    0.000000    0.000000    0.000000    0.000000
  0.029819639   -1.143618  155.999771  -96.154123   22.192003    0.000000    0.000000    0.000000    0.000000
  0.030020040   -1.176004  154.141266  -96.292159   15.667687    0.000000    0.000000    0.000000    0.000000
  0.030220441   -1.205246  152.270554  -97.240604   14.966177    0.000000    0.000000    0.000000    0.000000
  0.030420842   -1.236379  150.407318  -95.782996   13.380080    0.000000    0.000000    0.000000    0.000000
  0.030621242   -1.269325  148.544449  -97.275282   14.592175    0.000000    0.000000    0.000000    0.000000
  0.030821643   -1.302232  146.695999  -96.843456   10.228298    0.000000    0.000000    0.000000    0.000000
  0.031022044   -1.338756  144.820938  -96.545905   11.878097    0.000000    0.000000    0.000000    0.000000
  0.031222445   -1.372919  142.954132  -96.444538   12.137288    0.000000    0.000000    0.000000    0.000000
  0.031422846   -1.407956  141.014572  -95.812641   11.342890    0.000000    0.000000    0.000000    0.000000
  0.031623246   -1.443234  139.087463  -97.283671   20.365816    0.000000    0.000000    0.000000    0.000000
  0.031823647   -1.475440  137.147064  -97.375038    7.889474    0.000000    0.000000    0.000000    0.000000
  0.032024048   -1.505863  135.202072  -98.074974   14.606017    0.000000    0.000000    0.000000    0.000000
  0.032224449   -1.537869  133.278214  -96.997040   16.991232    0.000000    0.000000    0.000000    0.000000
  0.032424850   -1.567661  131.342102  -97.585691    5.621434    0.000000    0.000000    0.000000    0.000000
  0.032625251   -1.601728  129.415619  -97.632140    9.066076    0.000000    0.000000    0.000000    0.000000
  0.032825651   -1.637947  127.476685  -97.323980   16.603748    0.000000    0.000000    0.000000    0.000000
  0.033026052   -1.678125  125.518730  -97.708700   17.566902    0.000000    0.000000    0.000000    0.000000
  0.033226453   -1.723395  123.567696  -98.307129   14.039285    0.000000    0.000000    0.000000    0.000000
  0.033426854   -1.769924  121.568077  -97.804125   14.846690    0.000000    0.000000    0.000000    0.000000
  0.033627255   -1.819028  119.549118  -97.911904   17.206678    0.000000    0.000000    0.000000    0.000000
  0.033827655   -1.869293  117.510086  -99.364421    5.502294    0.000000    0.000000    0.000000    0.000000
  0.034028056   -1.915299  115.402847  -99.476578   16.832140    0.000000    0.000000    0.000000    0.000000
  0.034228457   -1.959683  113.283684  -98.215548   10.395642    0.000000    0.000000    0.000000    0.000000
  0.034428858   -2.002747  111.147247  -98.421417    9.426178    0.000000    0.000000    0.000000    0.000000
  0.034629259   -2.045474  109.041451  -98.254489   16.673882    0.000000    0.000000    0.000000    0.000000
  0.034829659   -2.084923  106.936142  -97.976549   12.881557    0.000000    0.000000    0.000000    0.000000
  0.035030060   -2.125993  104.826515  -97.502726   12.189021    0.000000    0.000000    0.000000    0.000000
  0.035230461   -2.164811  102.728050  -99.738890   16.077740    0.000000    0.000000    0.000000    0.000000
  0.035430862   -2.203864  100.644615  -97.611842    8.582199    0.000000    0.000000    0.000000    0.000000
  0.035631263   -2.245166   98.568977  -98.459388   12.607730    0.000000    0.000000    0.000000    0.000000
  0.035831663   -2.289845   96.504402  -99.342846    8.946857    0.000000    0.000000    0.000000    0.000000
  0.036032064   -2.331774   94.447746  -98.406585   10.340883    0.000000    0.000000    0.000000    0.000000
  0.036232465   -2.378542   92.361633  -99.404067   13.932159    0.000000    0.000000    0.000000    0.000000
  0.036432866   -2.429924   90.345177  -98.267588    9.750167    0.000000    0.000000    0.000000    0.000000
  0.036633267   -2.487424   88.309738  -99.646376   -4.577699    0.000000    0.000000    0.000000    0.000000
  0.036833667   -2.545958   86.242012  -99.008594    7.146877    0.000000    0.000000    0.000000    0.000000
  0.037034068   -2.607247   84.143501  -99.817357    5.428385    0.000000    0.000000    0.000000    0.000000
  0.037234469   -2.669026   82.026810  -98.883075   12.102196    0.000000    0.000000    0.000000    0.000000
  0.037434870   -2.733420   79.888565 -100.822820   12.028645    0.000000    0.000000    0.000000    0.000000
  0.037635271   -2.797006   77.734962  -99.863876    6.785505    0.000000    0.000000    0.000000    0.000000
  0.037835671   -2.864154   75.562248  -99.866579    7.548111    0.000000    0.000000    0.000000    0.000000
  0.038036072   -2.933850   73.408722  -99.619733   15.211152    0.000000    0.000000    0.000000    0.000000
  0.038236473   -2.994672   71.306816  -98.928825   12.007292    0.000000    0.000000    0.000000    0.000000
  0.038436874   -3.041803   69.164894 -101.038944    7.668911    0.000000    0.000000    0.000000    0.000000
  0.038637275   -3.087789   67.038696 -100.181571   22.164030    0.000000    0.000000    0.000000    0.000000
  0.038837675   -3.136939   64.914230  -99.658824    9.677633    0.000000    0.000000    0.000000    0.000000
  0.039038076   -3.181317   62.803295  -99.625524   17.312126    0.000000    0.000000    0.000000    0.000000
  0.039238477   -3.231759   60.730328 -100.264892   16.816334    0.000000    0.000000    0.000000    0.000000
  0.039438878   -3.289338   58.675671  -99.134331   11.140793    0.000000    0.000000    0.000000    0.000000
  0.039639279   -3.345649   56.611580 -100.331136   19.744457    0.000000    0.000000    0.000000    0.000000
  0.039839679   -3.412498   54.538132  -99.527552    8.292236    0.000000    0.000000    0.000000    0.000000
  0.040040080   -3.475414   52.437721 -100.769347   11.259350    0.000000    0.000000    0.000000    0.000000
  0.040240481   -3.542249   50.328552  -98.778327   -1.709113    0.000000    0.000000    0.000000    0.000000
  0.040440882   -3.604954   48.207512  -98.889093   -1.039208    0.000000    0.000000    0.000000    0.000000
  0.040641283   -3.667838   46.108730 -101.166884    4.101962    0.000000    0.000000    0.000000    0.000000
  0.040841683   -3.728996   43.991127  -99.193810   10.164083    0.000000    0.000000    0.000000    0.000000
  0.041042084   -3.792255   41.881229 -101.041782   -3.126355    0.000000    0.000000    0.000000    0.000000
  0.041242485   -3.852602   39.769653 -100.808509    5.101276    0.000000    0.000000    0.000000    0.000000
  0.041442886   -3.909506   37.646133  -98.877980   11.532367    0.000000    0.000000    0.000000    0.000000
  0.041643287   -3.966873   35.537685  -99.386390    9.606598    0.000000    0.000000    0.000000    0.000000
  0.041843687   -4.020114   33.437023 -100.747811   -3.885784    0.000000    0.000000    0.000000    0.000000
  0.042044088   -4.075128   31.366766 -101.122799    5.740210    0.000000    0.000000    0.000000    0.000000
  0.042244489   -4.126428   29.308186  -99.180088   12.800929    0.000000    0.000000    0.000000    0.000000
  0.042444890   -4.177956   27.267914 -101.053760    8.121137    0.000000    0.000000    0.000000    0.000000
  0.042645291   -4.230306   25.201654 -101.094332    2.870168    0.000000    0.000000    0.000000    0.000000
  0.042845691   -4.285343   23.178087 -102.844608   -8.416498    0.000000    0.000000    0.000000    0.000000
  0.043046092   -4.337581   21.139168 -101.674802   19.444532    0.000000    0.000000    0.000000    0.000000
  0.043246493   -4.389128   19.122087 -101.035080   -3.215694    0.000000    0.000000    0.000000    0.000000
  0.043446894   -4.440427   17.088297 -100.956679    0.036213    0.000000    0.000000    0.000000    0.000000
  0.043647295   -4.494129   15.078735 -101.380470   -0.876960    0.000000    0.000000    0.000000    0.000000
  0.043847695   -4.546329   13.071564 -104.149267    3.945535    0.000000    0.000000    0.000000    0.000000
  0.044048096   -4.598168   11.063992 -101.319061    7.439806    0.000000    0.000000    0.000000    0.000000
  0.044248497   -4.650413    9.060593 -102.887641   13.464640    0.000000    0.000000    0.000000    0.000000
  0.044448898   -4.699343    7.066700 -103.147242   11.631222    0.000000    0.000000    0.000000    0.000000
  0.044649299   -4.746664    5.065565 -101.943726   20.953026    0.000000    0.000000    0.000000    0.000000
  0.044849699   -4.791451    3.082771 -101.244076   21.654821    0.000000    0.000000    0.000000    0.000000
  0.045050100   -4.835009    1.108225 -101.570906   -2.281568    0.000000    0.000000    0.000000    0.000000
  0.045250501   -4.876204   -0.841578 -100.700770   12.775086    0.000000    0.000000    0.000000    0.000000
  0.045450902   -4.917494   -2.765926 -100.728147   19.192585    0.000000    0.000000    0.000000    0.000000
  0.045651303   -4.959804   -4.685099  -99.575925    8.893743    0.000000    0.000000    0.000000    0.000000
  0.045851703   -5.001662   -6.585490 -101.824123   -0.206558    0.000000    0.000000    0.000000    0.000000
  0.046052104   -5.041306   -8.495756 -101.213125   -5.411843    0.000000    0.000000    0.000000    0.000000
  0.046252505   -5.079459  -10.386415 -101.456832   10.384797    0.000000    0.000000    0.000000    0.000000
  0.046452906   -5.114655  -12.266098 -101.479356    7.662122    0.000000    0.000000    0.000000    0.000000
  0.046653307   -5.146027  -14.162198 -100.310004    1.838653    0.000000    0.000000    0.000000    0.000000
  0.046853707   -5.179944  -16.005936 -100.448857    6.381974    0.000000    0.000000    0.000000    0.000000
  0.047054108   -5.209666  -17.881775 -100.627307    6.887140    0.000000    0.000000    0.000000    0.000000
  0.047254509   -5.236538  -19.721020 -103.650980    7.213712    0.000000    0.000000    0.000000    0.000000
  0.047454910   -5.266549  -21.540073 -103.681535   -1.439346    0.000000    0.000000    0.000000    0.000000
  0.047655311   -5.290333  -23.336426 -101.892905    7.824298    0.000000    0.000000    0.000000    0.000000
  0.047855711   -5.319326  -25.111753 -100.708250    1.734974    0.000000    0.000000    0.000000    0.000000
  0.048056112   -5.347315  -26.882988 -102.034484    4.672913    0.000000    0.000000    0.000000    0.000000
  0.048256513   -5.375689  -28.650267 -102.153045   15.613052    0.000000    0.000000    0.000000    0.000000
  0.048456914   -5.403622  -30.421543 -100.924040   -3.663590    0.000000    0.000000    0.000000    0.000000
  0.048657315   -5.429137  -32.175442 -103.143246   -0.044687    0.000000    0.000000    0.000000    0.000000
  0.048857715   -5.454892  -33.934811 -103.569125    4.699539    0.000000    0.000000    0.000000    0.000000
  0.049058116   -5.475699  -35.699883 -106.353700   13.982702    0.000000    0.000000    0.000000    0.000000
  0.049258517   -5.498957  -37.419548 -105.223229   16.572498    0.000000    0.000000    0.000000    0.000000
  0.049458918   -5.518853  -39.151024 -104.547187   26.324186    0.000000    0.000000    0.000000    0.000000
  0.049659319   -5.544908  -40.879875 -103.331162   -8.991640    0.000000    0.000000    0.000000    0.000000
  0.049859719   -5.567120  -42.594269 -102.977847    9.947753    0.000000    0.000000    0.000000    0.000000
  0.050060120   -5.587889  -44.339321 -101.595520   -5.479620    0.000000    0.000000    0.000000    0.000000
  0.050260521   -5.601111  -46.059666 -101.153393   25.532274    0.000000    0.000000    0.000000    0.000000
  0.050460922   -5.616582  -47.776020 -104.352343   -4.616622    0.000000    0.000000    0.000000    0.000000
  0.050661323   -5.630326  -49.481304 -101.883775    7.709933    0.000000    0.000000    0.000000    0.000000
  0.050861723   -5.643089  -51.167194 -103.908070   13.894593    0.000000    0.000000    0.000000    0.000000
  0.051062124   -5.653269  -52.838348 -102.546499   10.229518    0.000000    0.000000    0.000000    0.000000
  0.051262525   -5.669431  -54.456577 -102.932845   20.312250    0.000000    0.000000    0.000000    0.000000
  0.051462926   -5.678057  -56.054081 -103.224273  -11.833610    0.000000    0.000000    0.000000    0.000000
  0.051663327   -5.689150  -57.656475 -100.389357    6.320803    0.000000    0.000000    0.000000    0.000000
  0.051863727   -5.704406  -59.285904 -101.830148    3.705303    0.000000    0.000000    0.000000    0.000000
  0.052064128   -5.720553  -60.884602 -101.753629    1.131985    0.000000    0.000000    0.000000    0.000000
  0.052264529   -5.730893  -62.486217 -103.014658   -2.421526    0.000000    0.000000    0.000000    0.000000
  0.052464930   -5.743262  -64.086288 -101.097058   10.414801    0.000000    0.000000    0.000000    0.000000
  0.052665331   -5.757531  -65.679054 -103.798296    3.716161    0.000000    0.000000    0.000000    0.000000
  0.052865731   -5.769588  -67.269531 -102.991270   -4.247823    0.000000    0.000000    0.000000    0.000000
