! Anritsu VNA Master:                     Model: MS2036C/10/77
! SN:                                  1601066
! /bd0/18may09/252.ns.m9.s2p
! Existing Calibration Information:
! TYPE:                         Current Settings,       Active Cal Settings
! TIME:             	   05/09/2018 09:11:34 AM,    05/09/2018 09:02:47 AM
! INTERNAL TEMP:    	                   41.5 C,                    40.3 C
! # POINTS:         	                      500,                       500
! START FREQ:       	               20.000 MHz,                20.000 MHz
! STOP FREQ:        	              120.000 MHz,               120.000 MHz
! SOURCE POWER:     	                     High,                      High
! IFBW:             	                    50 Hz,                     50 Hz
! AVG FACTOR:       	                       1 ,                        1 
! REF PLANE 1:      	                     0 mm,                      0 mm
! REF PLANE 2:      	                     0 mm,                      0 mm
! CAL TYPE:         	                 Full S11,                  Full S11
! CAL METHOD:       	                     SOLT,                      SOLT
! CAL LINE TYPE:    	                     Coax,                      Coax
! DUT PORT 1:       	                K-Conn(F),                 K-Conn(F)
! DUT PORT 2:       	                K-Conn(F),                 K-Conn(F)
! CAL STATUS:       	        OK: Accuracy High,                        --
# GHZ S DB R 50.0
! FREQ.GHZ       S11DB        S11A       S21DB        S21A       S12DB        S12A       S22DB        S22A
  0.020000000   -0.588253 -123.691994  -90.404017   30.967432    0.000000    0.000000    0.000000    0.000000
  0.020200401   -0.589772 -125.114433  -91.062506   32.766785    0.000000    0.000000    0.000000    0.000000
  0.020400802   -0.589283 -126.535156  -91.720121   33.005749    0.000000    0.000000    0.000000    0.000000
  0.020601202   -0.592364 -127.971817  -91.645472   30.094685    0.000000    0.000000    0.000000    0.000000
  0.020801603   -0.598987 -129.421753  -91.740257   32.242485    0.000000    0.000000    0.000000    0.000000
  0.021002004   -0.605366 -130.912094  -91.956814   29.650909    0.000000    0.000000    0.000000    0.000000
  0.021202405   -0.611836 -132.424179  -92.801651   35.655918    0.000000    0.000000    0.000000    0.000000
  0.021402806   -0.619160 -133.891098  -92.833080   29.413237    0.000000    0.000000    0.000000    0.000000
  0.021603206   -0.620326 -135.380447  -93.151684   32.369461    0.000000    0.000000    0.000000    0.000000
  0.021803607   -0.626735 -136.866028  -92.508710   32.462696    0.000000    0.000000    0.000000    0.000000
  0.022004008   -0.632470 -138.359955  -92.770957   35.962170    0.000000    0.000000    0.000000    0.000000
  0.022204409   -0.636094 -139.873505  -92.223581   40.998207    0.000000    0.000000    0.000000    0.000000
  0.022404810   -0.640479 -141.386444  -93.076862   41.658005    0.000000    0.000000    0.000000    0.000000
  0.022605210   -0.644395 -142.940338  -92.622962   38.372231    0.000000    0.000000    0.000000    0.000000
  0.022805611   -0.650676 -144.474808  -92.588807   37.654110    0.000000    0.000000    0.000000    0.000000
  0.023006012   -0.652927 -145.996719  -92.833612   37.318073    0.000000    0.000000    0.000000    0.000000
  0.023206413   -0.653601 -147.510422  -93.479246   33.973076    0.000000    0.000000    0.000000    0.000000
  0.023406814   -0.654121 -149.038406  -92.466745   33.806221    0.000000    0.000000    0.000000    0.000000
  0.023607214   -0.660529 -150.578262  -93.071411   36.380383    0.000000    0.000000    0.000000    0.000000
  0.023807615   -0.667895 -152.126694  -92.789253   39.361095    0.000000    0.000000    0.000000    0.000000
  0.024008016   -0.677762 -153.697495  -92.277869   27.133604    0.000000    0.000000    0.000000    0.000000
  0.024208417   -0.686124 -155.276016  -92.906955   29.610277    0.000000    0.000000    0.000000    0.000000
  0.024408818   -0.693123 -156.861725  -93.163780   30.790930    0.000000    0.000000    0.000000    0.000000
  0.024609218   -0.702186 -158.451294  -93.430692   25.591459    0.000000    0.000000    0.000000    0.000000
  0.024809619   -0.709508 -160.055481  -93.479633   22.392550    0.000000    0.000000    0.000000    0.000000
  0.025010020   -0.719495 -161.652267  -92.952071   24.130449    0.000000    0.000000    0.000000    0.000000
  0.025210421   -0.730670 -163.271179  -94.001672   15.670556    0.000000    0.000000    0.000000    0.000000
  0.025410822   -0.743377 -164.907104  -93.962076   21.496901    0.000000    0.000000    0.000000    0.000000
  0.025611222   -0.757891 -166.575043  -93.967686   21.843699    0.000000    0.000000    0.000000    0.000000
  0.025811623   -0.768259 -168.254639  -94.495769   21.066469    0.000000    0.000000    0.000000    0.000000
  0.026012024   -0.775567 -169.938736  -93.764272   17.232800    0.000000    0.000000    0.000000    0.000000
  0.026212425   -0.786846 -171.635071  -94.456531   17.570431    0.000000    0.000000    0.000000    0.000000
  0.026412826   -0.798522 -173.331573  -94.103272   18.956205    0.000000    0.000000    0.000000    0.000000
  0.026613226   -0.811963 -175.036270  -95.353292   18.764498    0.000000    0.000000    0.000000    0.000000
  0.026813627   -0.827628 -176.766266  -96.675196   10.386700    0.000000    0.000000    0.000000    0.000000
  0.027014028   -0.842146 -178.501678  -97.197326   22.401279    0.000000    0.000000    0.000000    0.000000
  0.027214429   -0.856698  179.759323  -96.191041   19.985247    0.000000    0.000000    0.000000    0.000000
  0.027414830   -0.872179  177.989975  -95.711095   18.120899    0.000000    0.000000    0.000000    0.000000
  0.027615230   -0.888395  176.225266  -95.682061   22.830194    0.000000    0.000000    0.000000    0.000000
  0.027815631   -0.908358  174.450836  -96.404950   10.782783    0.000000    0.000000    0.000000    0.000000
  0.028016032   -0.930077  172.654404  -96.851014   22.566797    0.000000    0.000000    0.000000    0.000000
  0.028216433   -0.951490  170.860046  -95.833450   22.445066    0.000000    0.000000    0.000000    0.000000
  0.028416834   -0.971222  169.061417  -95.832556   21.318859    0.000000    0.000000    0.000000    0.000000
  0.028617234   -0.991934  167.273224  -95.595412   29.512903    0.000000    0.000000    0.000000    0.000000
  0.028817635   -1.012051  165.485306  -96.146696   23.725918    0.000000    0.000000    0.000000    0.000000
  0.029018036   -1.032466  163.705521  -96.108155   22.908812    0.000000    0.000000    0.000000    0.000000
  0.029218437   -1.053535  161.921524  -95.461996   23.037680    0.000000    0.000000    0.000000    0.000000
  0.029418838   -1.080453  160.106262  -95.579232   21.625113    0.000000    0.000000    0.000000    0.000000
  0.029619238   -1.108971  158.301376  -95.713025   21.409761    0.000000    0.000000    0.000000    0.000000
  0.029819639   -1.137620  156.482346  -95.839886   16.269655    0.000000    0.000000    0.000000    0.000000
  0.030020040   -1.169310  154.641296  -96.043225   12.218898    0.000000    0.000000    0.000000    0.000000
  0.030220441   -1.198619  152.782242  -96.532722   13.558160    0.000000    0.000000    0.000000    0.000000
  0.030420842   -1.228328  150.930984  -96.910491   12.205289    0.000000    0.000000    0.000000    0.000000
  0.030621242   -1.262805  149.084274  -96.481918   16.245119    0.000000    0.000000    0.000000    0.000000
  0.030821643   -1.296186  147.245041  -96.259925   13.577694    0.000000    0.000000    0.000000    0.000000
  0.031022044   -1.331528  145.386658  -96.555420   15.512698    0.000000    0.000000    0.000000    0.000000
  0.031222445   -1.367263  143.532288  -96.933757   15.632711    0.000000    0.000000    0.000000    0.000000
  0.031422846   -1.401999  141.612259  -96.707756   13.915094    0.000000    0.000000    0.000000    0.000000
  0.031623246   -1.437159  139.697815  -98.129113    7.598032    0.000000    0.000000    0.000000    0.000000
  0.031823647   -1.469816  137.768570  -97.767666   12.116173    0.000000    0.000000    0.000000    0.000000
  0.032024048   -1.499879  135.836990  -96.853856   17.560841    0.000000    0.000000    0.000000    0.000000
  0.032224449   -1.532664  133.913559  -97.458450   10.014593    0.000000    0.000000    0.000000    0.000000
  0.032424850   -1.564609  131.994751  -96.199340   16.328356    0.000000    0.000000    0.000000    0.000000
  0.032625251   -1.598073  130.068344  -97.245391   11.074100    0.000000    0.000000    0.000000    0.000000
  0.032825651   -1.635374  128.125305  -97.818734    8.582294    0.000000    0.000000    0.000000    0.000000
  0.033026052   -1.674407  126.154114  -97.838864   13.319447    0.000000    0.000000    0.000000    0.000000
  0.033226453   -1.719041  124.204063  -98.406832    6.502871    0.000000    0.000000    0.000000    0.000000
  0.033426854   -1.766619  122.205154  -99.031073    7.545809    0.000000    0.000000    0.000000    0.000000
  0.033627255   -1.816606  120.195663 -100.022044   23.199789    0.000000    0.000000    0.000000    0.000000
  0.033827655   -1.866091  118.145279  -97.910157   16.611101    0.000000    0.000000    0.000000    0.000000
  0.034028056   -1.912892  116.047096  -98.383796    4.137607    0.000000    0.000000    0.000000    0.000000
  0.034228457   -1.958476  113.933250  -97.837990   12.832886    0.000000    0.000000    0.000000    0.000000
  0.034428858   -2.001548  111.800980  -99.241494   13.014903    0.000000    0.000000    0.000000    0.000000
  0.034629259   -2.044555  109.681572  -98.557035   18.214651    0.000000    0.000000    0.000000    0.000000
  0.034829659   -2.084590  107.579117  -97.759688    9.258934    0.000000    0.000000    0.000000    0.000000
  0.035030060   -2.126706  105.459984  -99.519443   13.290186    0.000000    0.000000    0.000000    0.000000
  0.035230461   -2.163280  103.358543  -99.469979    9.695192    0.000000    0.000000    0.000000    0.000000
  0.035430862   -2.202707  101.279274  -98.501415   11.737725    0.000000    0.000000    0.000000    0.000000
  0.035631263   -2.246529   99.209679  -97.258742   11.975622    0.000000    0.000000    0.000000    0.000000
  0.035831663   -2.290292   97.122818  -99.049960   -0.138848    0.000000    0.000000    0.000000    0.000000
  0.036032064   -2.333240   95.071426  -98.626088    6.192097    0.000000    0.000000    0.000000    0.000000
  0.036232465   -2.378472   92.993942  -98.293383    9.107141    0.000000    0.000000    0.000000    0.000000
  0.036432866   -2.429158   90.961166  -99.748701   18.474060    0.000000    0.000000    0.000000    0.000000
  0.036633267   -2.487326   88.929153  -98.987188    3.614116    0.000000    0.000000    0.000000    0.000000
  0.036833667   -2.547014   86.853722  -99.227308    5.984219    0.000000    0.000000    0.000000    0.000000
  0.037034068   -2.606841   84.751503  -99.887054    2.505339    0.000000    0.000000    0.000000    0.000000
  0.037234469   -2.671138   82.632248  -98.407220   -1.628987    0.000000    0.000000    0.000000    0.000000
  0.037434870   -2.734644   80.489449  -99.083215    9.240102    0.000000    0.000000    0.000000    0.000000
  0.037635271   -2.798693   78.317162  -99.995232    7.175467    0.000000    0.000000    0.000000    0.000000
  0.037835671   -2.867277   76.146149  -99.099860    1.444965    0.000000    0.000000    0.000000    0.000000
  0.038036072   -2.935837   73.988983 -101.692857    8.823182    0.000000    0.000000    0.000000    0.000000
  0.038236473   -2.995402   71.883873 -100.953774   12.471878    0.000000    0.000000    0.000000    0.000000
  0.038436874   -3.041019   69.740524  -99.786008   19.600317    0.000000    0.000000    0.000000    0.000000
  0.038637275   -3.086419   67.619392 -101.702400   14.696183    0.000000    0.000000    0.000000    0.000000
  0.038837675   -3.133923   65.475479 -100.713332    3.797424    0.000000    0.000000    0.000000    0.000000
  0.039038076   -3.178686   63.378902 -100.870326   18.004381    0.000000    0.000000    0.000000    0.000000
  0.039238477   -3.227719   61.312210 -100.233073    3.720070    0.000000    0.000000    0.000000    0.000000
  0.039438878   -3.282039   59.257896  -99.914185   17.204628    0.000000    0.000000    0.000000    0.000000
  0.039639279   -3.338673   57.209877  -98.043846    9.263721    0.000000    0.000000    0.000000    0.000000
  0.039839679   -3.404731   55.151203 -100.193203   12.173621    0.000000    0.000000    0.000000    0.000000
  0.040040080   -3.465361   53.069004  -98.688938    4.716925    0.000000    0.000000    0.000000    0.000000
  0.040240481   -3.529067   50.978886  -99.344216   14.483614    0.000000    0.000000    0.000000    0.000000
  0.040440882   -3.593626   48.877613 -100.151070    7.128654    0.000000    0.000000    0.000000    0.000000
  0.040641283   -3.655863   46.804947  -99.012731    4.785226    0.000000    0.000000    0.000000    0.000000
  0.040841683   -3.716002   44.708538  -99.389325    2.882098    0.000000    0.000000    0.000000    0.000000
  0.041042084   -3.779561   42.623650 -101.606669    8.375589    0.000000    0.000000    0.000000    0.000000
  0.041242485   -3.838702   40.537682 -101.464880    1.209169    0.000000    0.000000    0.000000    0.000000
  0.041442886   -3.895803   38.441391 -100.577963    1.130349    0.000000    0.000000    0.000000    0.000000
  0.041643287   -3.952714   36.362991 -100.688643    5.039175    0.000000    0.000000    0.000000    0.000000
  0.041843687   -4.011312   34.279076  -99.604903   -3.460015    0.000000    0.000000    0.000000    0.000000
  0.042044088   -4.065170   32.224869 -101.343170   -3.586751    0.000000    0.000000    0.000000    0.000000
  0.042244489   -4.117392   30.187176 -101.851941   16.812803    0.000000    0.000000    0.000000    0.000000
  0.042444890   -4.172469   28.163595 -100.738350    2.511219    0.000000    0.000000    0.000000    0.000000
  0.042645291   -4.225279   26.109762 -102.306579   -4.125154    0.000000    0.000000    0.000000    0.000000
  0.042845691   -4.280543   24.088942  -99.473922   -0.339758    0.000000    0.000000    0.000000    0.000000
  0.043046092   -4.335020   22.058565 -102.419241    8.579088    0.000000    0.000000    0.000000    0.000000
  0.043246493   -4.391384   20.039326 -101.381784    7.229601    0.000000    0.000000    0.000000    0.000000
  0.043446894   -4.443349   18.007517 -100.317006   -7.552551    0.000000    0.000000    0.000000    0.000000
  0.043647295   -4.498196   15.979808 -100.879663   -4.126428    0.000000    0.000000    0.000000    0.000000
  0.043847695   -4.553292   13.952799 -102.783289   -2.096979    0.000000    0.000000    0.000000    0.000000
  0.044048096   -4.606587   11.944787 -101.400170   14.765166    0.000000    0.000000    0.000000    0.000000
  0.044248497   -4.658329    9.934131 -101.961837   11.526026    0.000000    0.000000    0.000000    0.000000
  0.044448898   -4.710972    7.909212 -102.322592    0.859482    0.000000    0.000000    0.000000    0.000000
  0.044649299   -4.757254    5.899636 -102.153762   18.297085    0.000000    0.000000    0.000000    0.000000
  0.044849699   -4.803350    3.899988 -104.290278   28.696814    0.000000    0.000000    0.000000    0.000000
  0.045050100   -4.844224    1.902371  -99.808146    0.687790    0.000000    0.000000    0.000000    0.000000
  0.045250501   -4.883853   -0.066856 -101.714640   22.240822    0.000000    0.000000    0.000000    0.000000
  0.045450902   -4.923462   -1.990862 -101.643505   10.040168    0.000000    0.000000    0.000000    0.000000
  0.045651303   -4.964325   -3.923940 -100.387496    9.202591    0.000000    0.000000    0.000000    0.000000
  0.045851703   -5.002294   -5.822011 -100.672158   -4.055354    0.000000    0.000000    0.000000    0.000000
  0.046052104   -5.038377   -7.731273 -101.529221   11.291052    0.000000    0.000000    0.000000    0.000000
  0.046252505   -5.072773   -9.621704  -99.494461   -1.572828    0.000000    0.000000    0.000000    0.000000
  0.046452906   -5.106653  -11.479409 -101.503849   10.436391    0.000000    0.000000    0.000000    0.000000
  0.046653307   -5.136637  -13.363359 -100.082854   14.197162    0.000000    0.000000    0.000000    0.000000
  0.046853707   -5.168779  -15.186380 -100.946108  -12.202900    0.000000    0.000000    0.000000    0.000000
  0.047054108   -5.196795  -17.020870 -101.979932   12.377463    0.000000    0.000000    0.000000    0.000000
  0.047254509   -5.223090  -18.835119 -101.676857    0.431269    0.000000    0.000000    0.000000    0.000000
  0.047454910   -5.252565  -20.624231 -102.140603    7.972239    0.000000    0.000000    0.000000    0.000000
  0.047655311   -5.278469  -22.391306 -102.876195   -5.285005    0.000000    0.000000    0.000000    0.000000
  0.047855711   -5.306747  -24.126202 -101.647646   -6.773391    0.000000    0.000000    0.000000    0.000000
  0.048056112   -5.337126  -25.867905 -100.077140   -3.322648    0.000000    0.000000    0.000000    0.000000
  0.048256513   -5.364881  -27.599678 -103.438474  -20.169123    0.000000    0.000000    0.000000    0.000000
  0.048456914   -5.394767  -29.350105 -104.889483   -2.155968    0.000000    0.000000    0.000000    0.000000
  0.048657315   -5.424437  -31.066584 -103.627316   12.002707    0.000000    0.000000    0.000000    0.000000
  0.048857715   -5.451900  -32.797768 -103.050516   20.056009    0.000000    0.000000    0.000000    0.000000
  0.049058116   -5.478658  -34.557762 -101.945666    4.734741    0.000000    0.000000    0.000000    0.000000
  0.049258517   -5.504298  -36.254581 -101.881344   -3.072974    0.000000    0.000000    0.000000    0.000000
  0.049458918   -5.529490  -37.987461 -103.312006   14.958589    0.000000    0.000000    0.000000    0.000000
  0.049659319   -5.559923  -39.704597 -101.295242    9.095775    0.000000    0.000000    0.000000    0.000000
  0.049859719   -5.586237  -41.445824 -104.658809   22.424294    0.000000    0.000000    0.000000    0.000000
  0.050060120   -5.609950  -43.184387 -103.576790    3.249759    0.000000    0.000000    0.000000    0.000000
  0.050260521   -5.629666  -44.949104 -103.714980    5.449741    0.000000    0.000000    0.000000    0.000000
  0.050460922   -5.647172  -46.681927 -103.537955   13.720989    0.000000    0.000000    0.000000    0.000000
  0.050661323   -5.664540  -48.415443 -102.695426   20.040524    0.000000    0.000000    0.000000    0.000000
  0.050861723   -5.681144  -50.143269 -102.941956    5.950857    0.000000    0.000000    0.000000    0.000000
  0.051062124   -5.694138  -51.847164 -105.946703   22.883062    0.000000    0.000000    0.000000    0.000000
  0.051262525   -5.711748  -53.500687 -105.504499   -8.568563    0.000000    0.000000    0.000000    0.000000
  0.051462926   -5.716130  -55.164948 -103.862373    1.552930    0.000000    0.000000    0.000000    0.000000
  0.051663327   -5.726360  -56.802650 -101.972337    8.667268    0.000000    0.000000    0.000000    0.000000
  0.051863727   -5.740581  -58.461830 -105.668358    7.900658    0.000000    0.000000    0.000000    0.000000
  0.052064128   -5.755375  -60.103580 -101.014381    9.684983    0.000000    0.000000    0.000000    0.000000
  0.052264529   -5.765469  -61.732731 -103.230792   -4.627037    0.000000    0.000000    0.000000    0.000000
  0.052464930   -5.772731  -63.361938 -103.335013   -0.912139    0.000000    0.000000    0.000000    0.000000
  0.052665331   -5.782696  -64.989403 -101.065209   -2.343687    0.000000    0.000000    0.000000    0.000000
  0.052865731   -5.791644  -66.576141 -101.010221    7.184171    0.000000    0.000000    0.000000    0.000000
