! Anritsu VNA Master:                     Model: MS2036C/10/77
! SN:                                  1601066
! /bd0/18may09/252.ns.m10.s2p
! Existing Calibration Information:
! TYPE:                         Current Settings,       Active Cal Settings
! TIME:             	   05/09/2018 09:13:27 AM,    05/09/2018 09:02:47 AM
! INTERNAL TEMP:    	                   41.8 C,                    40.3 C
! # POINTS:         	                      500,                       500
! START FREQ:       	               20.000 MHz,                20.000 MHz
! STOP FREQ:        	              120.000 MHz,               120.000 MHz
! SOURCE POWER:     	                     High,                      High
! IFBW:             	                    50 Hz,                     50 Hz
! AVG FACTOR:       	                       1 ,                        1 
! REF PLANE 1:      	                     0 mm,                      0 mm
! REF PLANE 2:      	                     0 mm,                      0 mm
! CAL TYPE:         	                 Full S11,                  Full S11
! CAL METHOD:       	                     SOLT,                      SOLT
! CAL LINE TYPE:    	                     Coax,                      Coax
! DUT PORT 1:       	                K-Conn(F),                 K-Conn(F)
! DUT PORT 2:       	                K-Conn(F),                 K-Conn(F)
! CAL STATUS:       	        OK: Accuracy High,                        --
# GHZ S DB R 50.0
! FREQ.GHZ       S11DB        S11A       S21DB        S21A       S12DB        S12A       S22DB        S22A
  0.020000000   -0.591737 -123.575073  -91.006936   34.698833    0.000000    0.000000    0.000000    0.000000
  0.020200401   -0.591664 -124.999062  -91.406722   32.483788    0.000000    0.000000    0.000000    0.000000
  0.020400802   -0.593269 -126.412498  -91.639104   31.194134    0.000000    0.000000    0.000000    0.000000
  0.020601202   -0.596050 -127.846428  -91.412551   26.371136    0.000000    0.000000    0.000000    0.000000
  0.020801603   -0.600376 -129.302948  -92.379742   26.236609    0.000000    0.000000    0.000000    0.000000
  0.021002004   -0.606599 -130.785263  -92.828595   27.812243    0.000000    0.000000    0.000000    0.000000
  0.021202405   -0.613205 -132.294449  -93.274651   32.237476    0.000000    0.000000    0.000000    0.000000
  0.021402806   -0.620221 -133.766953  -92.826503   30.689997    0.000000    0.000000    0.000000    0.000000
  0.021603206   -0.621669 -135.258148  -92.123724   31.071566    0.000000    0.000000    0.000000    0.000000
  0.021803607   -0.627735 -136.739548  -92.867300   35.717144    0.000000    0.000000    0.000000    0.000000
  0.022004008   -0.633233 -138.231735  -93.092338   29.887941    0.000000    0.000000    0.000000    0.000000
  0.022204409   -0.637046 -139.745285  -93.666261   37.738728    0.000000    0.000000    0.000000    0.000000
  0.022404810   -0.642287 -141.260971  -93.691268   37.540241    0.000000    0.000000    0.000000    0.000000
  0.022605210   -0.645393 -142.797729  -92.783705   35.913746    0.000000    0.000000    0.000000    0.000000
  0.022805611   -0.652241 -144.331985  -93.088944   36.804375    0.000000    0.000000    0.000000    0.000000
  0.023006012   -0.653371 -145.860336  -92.979705   32.993996    0.000000    0.000000    0.000000    0.000000
  0.023206413   -0.652971 -147.377853  -93.463269   37.236656    0.000000    0.000000    0.000000    0.000000
  0.023406814   -0.653401 -148.893890  -92.960533   37.728554    0.000000    0.000000    0.000000    0.000000
  0.023607214   -0.660640 -150.434509  -92.658975   33.344589    0.000000    0.000000    0.000000    0.000000
  0.023807615   -0.668664 -151.969406  -92.882161   35.895168    0.000000    0.000000    0.000000    0.000000
  0.024008016   -0.677920 -153.537033  -93.129911   30.602293    0.000000    0.000000    0.000000    0.000000
  0.024208417   -0.685619 -155.116425  -93.139542   31.919233    0.000000    0.000000    0.000000    0.000000
  0.024408818   -0.693871 -156.698822  -92.881994   27.043350    0.000000    0.000000    0.000000    0.000000
  0.024609218   -0.701260 -158.297348  -93.162766   25.543842    0.000000    0.000000    0.000000    0.000000
  0.024809619   -0.709189 -159.892868  -93.182675   24.107094    0.000000    0.000000    0.000000    0.000000
  0.025010020   -0.719390 -161.493073  -93.176967   24.272549    0.000000    0.000000    0.000000    0.000000
  0.025210421   -0.731388 -163.100922  -94.078378   17.917383    0.000000    0.000000    0.000000    0.000000
  0.025410822   -0.743348 -164.736679  -94.383344   23.014023    0.000000    0.000000    0.000000    0.000000
  0.025611222   -0.757188 -166.403198  -93.728296   25.369661    0.000000    0.000000    0.000000    0.000000
  0.025811623   -0.768763 -168.092133  -94.371567   20.773329    0.000000    0.000000    0.000000    0.000000
  0.026012024   -0.776239 -169.782349  -94.233203   20.433956    0.000000    0.000000    0.000000    0.000000
  0.026212425   -0.787146 -171.474152  -95.778413   18.317881    0.000000    0.000000    0.000000    0.000000
  0.026412826   -0.798971 -173.175873  -95.948936   21.232395    0.000000    0.000000    0.000000    0.000000
  0.026613226   -0.812945 -174.881317  -95.465170   19.549736    0.000000    0.000000    0.000000    0.000000
  0.026813627   -0.827287 -176.612808  -95.379564   23.419676    0.000000    0.000000    0.000000    0.000000
  0.027014028   -0.842177 -178.346222  -95.973842   18.565201    0.000000    0.000000    0.000000    0.000000
  0.027214429   -0.856735  179.910370  -94.808793   24.921614    0.000000    0.000000    0.000000    0.000000
  0.027414830   -0.872301  178.145294  -96.302193   19.561821    0.000000    0.000000    0.000000    0.000000
  0.027615230   -0.887505  176.371338  -95.884662   22.508732    0.000000    0.000000    0.000000    0.000000
  0.027815631   -0.907656  174.597214  -95.990621   22.550173    0.000000    0.000000    0.000000    0.000000
  0.028016032   -0.928517  172.808578  -96.104946   24.927202    0.000000    0.000000    0.000000    0.000000
  0.028216433   -0.950582  171.006653  -95.791345   28.642086    0.000000    0.000000    0.000000    0.000000
  0.028416834   -0.970594  169.211166  -96.290713   25.690821    0.000000    0.000000    0.000000    0.000000
  0.028617234   -0.990980  167.420227  -96.216216   20.462677    0.000000    0.000000    0.000000    0.000000
  0.028817635   -1.010478  165.644104  -95.331366   26.502510    0.000000    0.000000    0.000000    0.000000
  0.029018036   -1.030998  163.862625  -96.688544   21.001259    0.000000    0.000000    0.000000    0.000000
  0.029218437   -1.052112  162.096359  -95.406293   17.863585    0.000000    0.000000    0.000000    0.000000
  0.029418838   -1.076654  160.310379  -95.577240   17.025301    0.000000    0.000000    0.000000    0.000000
  0.029619238   -1.104541  158.521866  -96.877394   18.978695    0.000000    0.000000    0.000000    0.000000
  0.029819639   -1.134068  156.710159  -95.745580   19.304890    0.000000    0.000000    0.000000    0.000000
  0.030020040   -1.164543  154.861465  -95.938034   19.511005    0.000000    0.000000    0.000000    0.000000
  0.030220441   -1.195023  153.016373  -95.749218   16.397213    0.000000    0.000000    0.000000    0.000000
  0.030420842   -1.224587  151.177032  -96.638189   14.121135    0.000000    0.000000    0.000000    0.000000
  0.030621242   -1.257172  149.341431  -96.336695   10.662202    0.000000    0.000000    0.000000    0.000000
  0.030821643   -1.292130  147.502594  -96.140057   19.165869    0.000000    0.000000    0.000000    0.000000
  0.031022044   -1.327924  145.653763  -97.182511   10.950775    0.000000    0.000000    0.000000    0.000000
  0.031222445   -1.363900  143.798050  -96.949569   10.404843    0.000000    0.000000    0.000000    0.000000
  0.031422846   -1.398185  141.897125  -96.433521   16.970161    0.000000    0.000000    0.000000    0.000000
  0.031623246   -1.435530  139.978867  -96.720484   14.728666    0.000000    0.000000    0.000000    0.000000
  0.031823647   -1.466379  138.050156  -96.814602   10.427522    0.000000    0.000000    0.000000    0.000000
  0.032024048   -1.498432  136.117218  -97.514252   17.183352    0.000000    0.000000    0.000000    0.000000
  0.032224449   -1.531206  134.205475  -98.911750   10.507317    0.000000    0.000000    0.000000    0.000000
  0.032424850   -1.562817  132.270798  -98.225890   16.858881    0.000000    0.000000    0.000000    0.000000
  0.032625251   -1.596152  130.360001  -98.311123    2.913056    0.000000    0.000000    0.000000    0.000000
  0.032825651   -1.632967  128.421524  -97.701593   19.516315    0.000000    0.000000    0.000000    0.000000
  0.033026052   -1.672993  126.470993  -97.480715   17.245712    0.000000    0.000000    0.000000    0.000000
  0.033226453   -1.717848  124.511070  -98.013184   16.117224    0.000000    0.000000    0.000000    0.000000
  0.033426854   -1.764818  122.522552  -97.110204    8.643035    0.000000    0.000000    0.000000    0.000000
  0.033627255   -1.814607  120.506355  -98.800137   14.356742    0.000000    0.000000    0.000000    0.000000
  0.033827655   -1.866458  118.459587  -96.917199   19.855602    0.000000    0.000000    0.000000    0.000000
  0.034028056   -1.911298  116.351341  -98.920409   14.292240    0.000000    0.000000    0.000000    0.000000
  0.034228457   -1.957902  114.229561  -98.251506   14.940620    0.000000    0.000000    0.000000    0.000000
  0.034428858   -1.999436  112.105293  -99.706495   14.542275    0.000000    0.000000    0.000000    0.000000
  0.034629259   -2.043863  109.990143  -97.544795   16.367111    0.000000    0.000000    0.000000    0.000000
  0.034829659   -2.084092  107.881187  -98.443163    2.114831    0.000000    0.000000    0.000000    0.000000
  0.035030060   -2.124992  105.763664  -99.099299    7.358001    0.000000    0.000000    0.000000    0.000000
  0.035230461   -2.161775  103.668777  -97.479605   17.208525    0.000000    0.000000    0.000000    0.000000
  0.035430862   -2.203631  101.585907  -98.115629    7.295653    0.000000    0.000000    0.000000    0.000000
  0.035631263   -2.244368   99.522720  -98.223418   16.127609    0.000000    0.000000    0.000000    0.000000
  0.035831663   -2.288820   97.442345  -98.395076   13.204803    0.000000    0.000000    0.000000    0.000000
  0.036032064   -2.331589   95.394104  -97.664340    6.951104    0.000000    0.000000    0.000000    0.000000
  0.036232465   -2.378267   93.307838  -98.513473    3.489514    0.000000    0.000000    0.000000    0.000000
  0.036432866   -2.429043   91.285538  -97.720996    9.540386    0.000000    0.000000    0.000000    0.000000
  0.036633267   -2.486436   89.245346  -99.281231    7.753740    0.000000    0.000000    0.000000    0.000000
  0.036833667   -2.545636   87.171867 -100.060960    6.371936    0.000000    0.000000    0.000000    0.000000
  0.037034068   -2.608105   85.069244  -99.039869    4.324779    0.000000    0.000000    0.000000    0.000000
  0.037234469   -2.671096   82.947952 -100.177288    6.959875    0.000000    0.000000    0.000000    0.000000
  0.037434870   -2.734912   80.803009  -98.098161   14.931090    0.000000    0.000000    0.000000    0.000000
  0.037635271   -2.798666   78.624123  -99.925903   11.814857    0.000000    0.000000    0.000000    0.000000
  0.037835671   -2.867375   76.446915 -101.385404   17.893513    0.000000    0.000000    0.000000    0.000000
  0.038036072   -2.936466   74.282791 -100.861812    7.974487    0.000000    0.000000    0.000000    0.000000
  0.038236473   -2.995783   72.166077  -99.739197    9.075903    0.000000    0.000000    0.000000    0.000000
  0.038436874   -3.042996   70.023895  -98.401768    3.890310    0.000000    0.000000    0.000000    0.000000
  0.038637275   -3.087272   67.890533  -99.880473    8.380624    0.000000    0.000000    0.000000    0.000000
  0.038837675   -3.134490   65.758667  -99.356580    8.790375    0.000000    0.000000    0.000000    0.000000
  0.039038076   -3.179649   63.650627  -98.335591    3.849601    0.000000    0.000000    0.000000    0.000000
  0.039238477   -3.226708   61.572456  -99.420272   15.727302    0.000000    0.000000    0.000000    0.000000
  0.039438878   -3.282156   59.527672  -99.156952   14.294439    0.000000    0.000000    0.000000    0.000000
  0.039639279   -3.337915   57.483734  -99.452000   20.346390    0.000000    0.000000    0.000000    0.000000
  0.039839679   -3.400919   55.427681 -100.059867   10.542084    0.000000    0.000000    0.000000    0.000000
  0.040040080   -3.462127   53.356670 -100.427936    6.898219    0.000000    0.000000    0.000000    0.000000
  0.040240481   -3.525692   51.264069  -99.694068   14.316626    0.000000    0.000000    0.000000    0.000000
  0.040440882   -3.587003   49.178856  -99.008599   15.601305    0.000000    0.000000    0.000000    0.000000
  0.040641283   -3.649327   47.114285  -98.616379    5.017796    0.000000    0.000000    0.000000    0.000000
  0.040841683   -3.709907   45.035210  -99.025058    9.226985    0.000000    0.000000    0.000000    0.000000
  0.041042084   -3.771440   42.951965 -100.835588    1.404145    0.000000    0.000000    0.000000    0.000000
  0.041242485   -3.830875   40.892563  -99.608094    0.144451    0.000000    0.000000    0.000000    0.000000
  0.041442886   -3.890018   38.810444 -100.749780   11.411029    0.000000    0.000000    0.000000    0.000000
  0.041643287   -3.944953   36.742184  -99.551899    4.470531    0.000000    0.000000    0.000000    0.000000
  0.041843687   -4.001472   34.674458 -103.721008   12.063169    0.000000    0.000000    0.000000    0.000000
  0.042044088   -4.058019   32.630146  -99.577359    5.683822    0.000000    0.000000    0.000000    0.000000
  0.042244489   -4.111192   30.601709  -99.918183    7.743059    0.000000    0.000000    0.000000    0.000000
  0.042444890   -4.167800   28.589853 -100.811241    4.067565    0.000000    0.000000    0.000000    0.000000
  0.042645291   -4.222351   26.547136 -100.911637   -3.527841    0.000000    0.000000    0.000000    0.000000
  0.042845691   -4.280933   24.536358 -101.527910   -0.353111    0.000000    0.000000    0.000000    0.000000
  0.043046092   -4.336830   22.511066 -100.731616    8.551538    0.000000    0.000000    0.000000    0.000000
  0.043246493   -4.392419   20.473015 -100.693913   13.172995    0.000000    0.000000    0.000000    0.000000
  0.043446894   -4.446601   18.435402 -101.999513   -1.655987    0.000000    0.000000    0.000000    0.000000
  0.043647295   -4.500410   16.404795 -101.965583   17.503130    0.000000    0.000000    0.000000    0.000000
  0.043847695   -4.558762   14.355677 -103.009730   13.907844    0.000000    0.000000    0.000000    0.000000
  0.044048096   -4.612214   12.345049 -102.384790   24.571001    0.000000    0.000000    0.000000    0.000000
  0.044248497   -4.664679   10.318288 -103.441324   14.664865    0.000000    0.000000    0.000000    0.000000
  0.044448898   -4.717845    8.286309 -101.559661    9.324047    0.000000    0.000000    0.000000    0.000000
  0.044649299   -4.763158    6.249268 -101.379499    9.384928    0.000000    0.000000    0.000000    0.000000
  0.044849699   -4.810128    4.221374 -101.574305   14.020952    0.000000    0.000000    0.000000    0.000000
  0.045050100   -4.847518    2.230021 -100.527875   15.043433    0.000000    0.000000    0.000000    0.000000
  0.045250501   -4.887523    0.231727 -103.070655   17.836561    0.000000    0.000000    0.000000    0.000000
  0.045450902   -4.925494   -1.700397 -101.510347    0.437356    0.000000    0.000000    0.000000    0.000000
  0.045651303   -4.962746   -3.640095 -100.480060   12.909995    0.000000    0.000000    0.000000    0.000000
  0.045851703   -4.997443   -5.549950 -100.734320    4.926117    0.000000    0.000000    0.000000    0.000000
  0.046052104   -5.032478   -7.450961 -100.747576   13.988732    0.000000    0.000000    0.000000    0.000000
  0.046252505   -5.064265   -9.341814 -102.243536   10.956973    0.000000    0.000000    0.000000    0.000000
  0.046452906   -5.097285  -11.197642 -101.884393   20.351143    0.000000    0.000000    0.000000    0.000000
  0.046653307   -5.125141  -13.060922 -102.584380    5.914720    0.000000    0.000000    0.000000    0.000000
  0.046853707   -5.156310  -14.871391 -102.203532    8.661604    0.000000    0.000000    0.000000    0.000000
  0.047054108   -5.180839  -16.697819 -101.867227   -2.808318    0.000000    0.000000    0.000000    0.000000
  0.047254509   -5.207346  -18.487844 -101.208603    4.435081    0.000000    0.000000    0.000000    0.000000
  0.047454910   -5.235876  -20.247381 -100.684179   -0.508023    0.000000    0.000000    0.000000    0.000000
  0.047655311   -5.261963  -21.982754 -102.706698   -5.345566    0.000000    0.000000    0.000000    0.000000
  0.047855711   -5.290999  -23.701765 -100.609985  -14.591263    0.000000    0.000000    0.000000    0.000000
  0.048056112   -5.319699  -25.404064 -103.017866    2.200816    0.000000    0.000000    0.000000    0.000000
  0.048256513   -5.350894  -27.121437 -100.735504  -15.181679    0.000000    0.000000    0.000000    0.000000
  0.048456914   -5.380866  -28.840269 -103.441348  -10.873286    0.000000    0.000000    0.000000    0.000000
  0.048657315   -5.411852  -30.542345 -105.948878    3.917165    0.000000    0.000000    0.000000    0.000000
  0.048857715   -5.442672  -32.260830 -102.333209   -9.696663    0.000000    0.000000    0.000000    0.000000
  0.049058116   -5.470451  -34.010578 -105.332587    9.301376    0.000000    0.000000    0.000000    0.000000
  0.049258517   -5.500091  -35.689274 -103.282407    2.632701    0.000000    0.000000    0.000000    0.000000
  0.049458918   -5.529852  -37.424667 -102.243882    3.864732    0.000000    0.000000    0.000000    0.000000
  0.049659319   -5.563362  -39.146603 -103.722372   12.087127    0.000000    0.000000    0.000000    0.000000
  0.049859719   -5.590842  -40.889996 -103.890090   17.360378    0.000000    0.000000    0.000000    0.000000
  0.050060120   -5.618966  -42.644051 -104.276758    3.624010    0.000000    0.000000    0.000000    0.000000
  0.050260521   -5.640615  -44.415421 -105.479801   12.284262    0.000000    0.000000    0.000000    0.000000
  0.050460922   -5.659402  -46.168648 -101.220582   12.732389    0.000000    0.000000    0.000000    0.000000
  0.050661323   -5.678668  -47.944614 -103.519971   10.583704    0.000000    0.000000    0.000000    0.000000
  0.050861723   -5.695327  -49.678452 -101.281202   11.690311    0.000000    0.000000    0.000000    0.000000
  0.051062124   -5.711378  -51.421085 -101.909154   18.728821    0.000000    0.000000    0.000000    0.000000
  0.051262525   -5.726452  -53.106487 -101.583189    3.379438    0.000000    0.000000    0.000000    0.000000
  0.051462926   -5.734983  -54.795803 -102.974064   -4.116561    0.000000    0.000000    0.000000    0.000000
  0.051663327   -5.744601  -56.463966 -101.383295   10.963902    0.000000    0.000000    0.000000    0.000000
  0.051863727   -5.757399  -58.140728 -103.249352    9.964604    0.000000    0.000000    0.000000    0.000000
  0.052064128   -5.769494  -59.813797  -99.216752    8.865836    0.000000    0.000000    0.000000    0.000000
  0.052264529   -5.774448  -61.465172 -101.800286  -11.949385    0.000000    0.000000    0.000000    0.000000
  0.052464930   -5.782880  -63.093136 -103.129631    6.315403    0.000000    0.000000    0.000000    0.000000
  0.052665331   -5.790067  -64.738518 -101.456790    5.341779    0.000000    0.000000    0.000000    0.000000
  0.052865731   -5.795263  -66.343880 -103.621981   -2.303629    0.000000    0.000000    0.000000    0.000000
