! Anritsu VNA Master:                     Model: MS2036C/10/77
! SN:                                  1601066
! /bd0/18may09/b252.ns.m3.s2p
! Existing Calibration Information:
! TYPE:                         Current Settings,       Active Cal Settings
! TIME:             	   05/09/2018 09:49:35 PM,    05/09/2018 09:39:16 PM
! INTERNAL TEMP:    	                   49.3 C,                    49.8 C
! # POINTS:         	                      494,                       494
! START FREQ:       	               20.000 MHz,                20.000 MHz
! STOP FREQ:        	          118.797 594 MHz,           118.797 594 MHz
! SOURCE POWER:     	                     High,                      High
! IFBW:             	                    50 Hz,                     50 Hz
! AVG FACTOR:       	                       1 ,                        1 
! REF PLANE 1:      	                     0 mm,                      0 mm
! REF PLANE 2:      	                     0 mm,                      0 mm
! CAL TYPE:         	                 Full S22,                  Full S22
! CAL METHOD:       	                     SOLT,                      SOLT
! CAL LINE TYPE:    	                     Coax,                      Coax
! DUT PORT 1:       	                K-Conn(M),                 K-Conn(M)
! DUT PORT 2:       	                K-Conn(M),                 K-Conn(M)
! CAL STATUS:       	        OK: Accuracy High,                        --
# GHZ S DB R 50.0
! FREQ.GHZ       S11DB        S11A       S21DB        S21A       S12DB        S12A       S22DB        S22A
  0.020000000    0.000000    0.000000    0.000000    0.000000  -89.635291   33.580162   -0.614513 -125.384232
  0.020200401    0.000000    0.000000    0.000000    0.000000  -89.965658   32.866413   -0.617742 -126.831528
  0.020400802    0.000000    0.000000    0.000000    0.000000  -90.432507   37.319405   -0.621454 -128.276276
  0.020601202    0.000000    0.000000    0.000000    0.000000  -90.560618   35.040913   -0.625160 -129.749176
  0.020801603    0.000000    0.000000    0.000000    0.000000  -90.871927   33.392052   -0.629253 -131.251358
  0.021002004    0.000000    0.000000    0.000000    0.000000  -91.431768   36.259007   -0.631859 -132.754410
  0.021202405    0.000000    0.000000    0.000000    0.000000  -91.609740   36.887562   -0.635339 -134.251907
  0.021402806    0.000000    0.000000    0.000000    0.000000  -92.045820   40.975536   -0.637493 -135.758514
  0.021603206    0.000000    0.000000    0.000000    0.000000  -91.544482   39.899628   -0.640723 -137.254166
  0.021803607    0.000000    0.000000    0.000000    0.000000  -91.999176   35.753708   -0.644797 -138.736771
  0.022004008    0.000000    0.000000    0.000000    0.000000  -91.982836   39.160465   -0.651209 -140.247772
  0.022204409    0.000000    0.000000    0.000000    0.000000  -91.651250   40.578053   -0.658307 -141.769958
  0.022404810    0.000000    0.000000    0.000000    0.000000  -91.970276   40.789349   -0.661772 -143.322357
  0.022605210    0.000000    0.000000    0.000000    0.000000  -91.863641   42.034615   -0.668893 -144.880463
  0.022805611    0.000000    0.000000    0.000000    0.000000  -91.268144   42.222805   -0.671416 -146.435211
  0.023006012    0.000000    0.000000    0.000000    0.000000  -91.741189   45.544193   -0.676538 -147.992386
  0.023206413    0.000000    0.000000    0.000000    0.000000  -91.115933   43.873951   -0.681942 -149.550613
  0.023406814    0.000000    0.000000    0.000000    0.000000  -91.928832   42.969185   -0.685630 -151.099625
  0.023607214    0.000000    0.000000    0.000000    0.000000  -91.129349   42.054161   -0.694221 -152.673569
  0.023807615    0.000000    0.000000    0.000000    0.000000  -91.285662   40.489933   -0.705076 -154.264740
  0.024008016    0.000000    0.000000    0.000000    0.000000  -91.062939   36.303982   -0.712713 -155.879898
  0.024208417    0.000000    0.000000    0.000000    0.000000  -91.063630   38.064346   -0.718145 -157.520477
  0.024408818    0.000000    0.000000    0.000000    0.000000  -91.564050   36.163067   -0.723428 -159.157364
  0.024609218    0.000000    0.000000    0.000000    0.000000  -91.435165   35.046108   -0.730774 -160.799927
  0.024809619    0.000000    0.000000    0.000000    0.000000  -91.317677   28.037928   -0.740454 -162.436508
  0.025010020    0.000000    0.000000    0.000000    0.000000  -91.248729   27.670023   -0.748653 -164.088379
  0.025210421    0.000000    0.000000    0.000000    0.000000  -91.378984   30.298685   -0.759650 -165.746445
  0.025410822    0.000000    0.000000    0.000000    0.000000  -92.211009   24.467339   -0.771406 -167.415085
  0.025611222    0.000000    0.000000    0.000000    0.000000  -92.412315   26.635649   -0.781675 -169.115784
  0.025811623    0.000000    0.000000    0.000000    0.000000  -92.675915   25.185738   -0.793282 -170.813553
  0.026012024    0.000000    0.000000    0.000000    0.000000  -92.018781   22.003677   -0.803248 -172.521484
  0.026212425    0.000000    0.000000    0.000000    0.000000  -93.343195   21.698128   -0.813680 -174.234344
  0.026412826    0.000000    0.000000    0.000000    0.000000  -93.140245   25.779688   -0.828266 -175.962830
  0.026613226    0.000000    0.000000    0.000000    0.000000  -93.561927   25.462055   -0.842650 -177.694534
  0.026813627    0.000000    0.000000    0.000000    0.000000  -94.220807   31.399405   -0.857299 -179.439377
  0.027014028    0.000000    0.000000    0.000000    0.000000  -94.046208   26.139591   -0.874452  178.816711
  0.027214429    0.000000    0.000000    0.000000    0.000000  -94.179334   31.507639   -0.889932  177.077744
  0.027414830    0.000000    0.000000    0.000000    0.000000  -93.894325   27.194510   -0.907883  175.305161
  0.027615230    0.000000    0.000000    0.000000    0.000000  -94.171137   25.968702   -0.925711  173.526505
  0.027815631    0.000000    0.000000    0.000000    0.000000  -95.060660   25.444828   -0.943751  171.745026
  0.028016032    0.000000    0.000000    0.000000    0.000000  -94.364187   29.004879   -0.964921  169.940536
  0.028216433    0.000000    0.000000    0.000000    0.000000  -94.341982   30.881771   -0.986393  168.135727
  0.028416834    0.000000    0.000000    0.000000    0.000000  -94.261671   35.816170   -1.010777  166.325470
  0.028617234    0.000000    0.000000    0.000000    0.000000  -94.687995   34.594090   -1.032734  164.502640
  0.028817635    0.000000    0.000000    0.000000    0.000000  -94.379177   30.789616   -1.056823  162.691971
  0.029018036    0.000000    0.000000    0.000000    0.000000  -94.961218   33.200550   -1.082689  160.866486
  0.029218437    0.000000    0.000000    0.000000    0.000000  -94.153972   30.457907   -1.111068  159.014618
  0.029418838    0.000000    0.000000    0.000000    0.000000  -93.924342   35.396175   -1.140026  157.167923
  0.029619238    0.000000    0.000000    0.000000    0.000000  -93.839042   30.141024   -1.169673  155.298553
  0.029819639    0.000000    0.000000    0.000000    0.000000  -93.999005   29.263386   -1.200570  153.424881
  0.030020040    0.000000    0.000000    0.000000    0.000000  -93.979308   29.583652   -1.231630  151.540512
  0.030220441    0.000000    0.000000    0.000000    0.000000  -94.208535   26.952524   -1.263121  149.672012
  0.030420842    0.000000    0.000000    0.000000    0.000000  -94.239734   28.321686   -1.295061  147.793961
  0.030621242    0.000000    0.000000    0.000000    0.000000  -94.726498   27.649134   -1.328630  145.932098
  0.030821643    0.000000    0.000000    0.000000    0.000000  -94.230888   21.298727   -1.365906  144.048141
  0.031022044    0.000000    0.000000    0.000000    0.000000  -93.942939   28.665037   -1.399570  142.147614
  0.031222445    0.000000    0.000000    0.000000    0.000000  -94.623488   18.144981   -1.427014  140.288101
  0.031422846    0.000000    0.000000    0.000000    0.000000  -94.439665   16.887945   -1.461868  138.357849
  0.031623246    0.000000    0.000000    0.000000    0.000000  -94.511675   20.133484   -1.496556  136.444595
  0.031823647    0.000000    0.000000    0.000000    0.000000  -94.722970   18.146330   -1.528420  134.515610
  0.032024048    0.000000    0.000000    0.000000    0.000000  -95.421748   19.412842   -1.565398  132.596329
  0.032224449    0.000000    0.000000    0.000000    0.000000  -95.099547   22.342289   -1.600194  130.680405
  0.032424850    0.000000    0.000000    0.000000    0.000000  -96.414563   17.167952   -1.633998  128.724319
  0.032625250    0.000000    0.000000    0.000000    0.000000  -96.537142   14.795935   -1.668034  126.754074
  0.032825651    0.000000    0.000000    0.000000    0.000000  -95.862232   20.787571   -1.702445  124.750618
  0.033026052    0.000000    0.000000    0.000000    0.000000  -95.740330   21.652891   -1.737765  122.771843
  0.033226453    0.000000    0.000000    0.000000    0.000000  -96.269922   18.630392   -1.773453  120.744370
  0.033426854    0.000000    0.000000    0.000000    0.000000  -97.099766   25.661114   -1.807946  118.753319
  0.033627254    0.000000    0.000000    0.000000    0.000000  -96.758770   23.761034   -1.848487  116.750145
  0.033827655    0.000000    0.000000    0.000000    0.000000  -96.661099   21.580936   -1.886801  114.739365
  0.034028056    0.000000    0.000000    0.000000    0.000000  -96.292941   27.426661   -1.925510  112.718437
  0.034228457    0.000000    0.000000    0.000000    0.000000  -96.720925   22.127056   -1.968179  110.655174
  0.034428858    0.000000    0.000000    0.000000    0.000000  -96.770581   27.680874   -2.011285  108.604919
  0.034629258    0.000000    0.000000    0.000000    0.000000  -95.442204   24.466082   -2.052960  106.536484
  0.034829659    0.000000    0.000000    0.000000    0.000000  -96.050655   26.072018   -2.099623  104.458572
  0.035030060    0.000000    0.000000    0.000000    0.000000  -95.691134   19.821192   -2.146896  102.396027
  0.035230461    0.000000    0.000000    0.000000    0.000000  -96.300736   28.801432   -2.194131  100.324402
  0.035430862    0.000000    0.000000    0.000000    0.000000  -96.555954   32.880287   -2.242974   98.235313
  0.035631262    0.000000    0.000000    0.000000    0.000000  -95.870862   21.205574   -2.292875   96.150154
  0.035831663    0.000000    0.000000    0.000000    0.000000  -96.361280   28.348486   -2.341773   94.063644
  0.036032064    0.000000    0.000000    0.000000    0.000000  -95.601497   23.856695   -2.394265   91.969910
  0.036232465    0.000000    0.000000    0.000000    0.000000  -96.053084   28.835491   -2.443862   89.851097
  0.036432866    0.000000    0.000000    0.000000    0.000000  -95.571731   29.210770   -2.495903   87.746902
  0.036633266    0.000000    0.000000    0.000000    0.000000  -95.859487   21.484615   -2.551803   85.635086
  0.036833667    0.000000    0.000000    0.000000    0.000000  -96.685048   17.622610   -2.603528   83.504227
  0.037034068    0.000000    0.000000    0.000000    0.000000  -96.571553   21.067392   -2.660049   81.401367
  0.037234469    0.000000    0.000000    0.000000    0.000000  -97.308662   20.139709   -2.715118   79.263130
  0.037434870    0.000000    0.000000    0.000000    0.000000  -97.512581   14.986449   -2.771575   77.144279
  0.037635270    0.000000    0.000000    0.000000    0.000000  -97.335960   25.586447   -2.824079   75.022316
  0.037835671    0.000000    0.000000    0.000000    0.000000  -97.980797   23.865788   -2.887675   72.840645
  0.038036072    0.000000    0.000000    0.000000    0.000000  -96.005058   17.217463   -2.951357   70.679733
  0.038236473    0.000000    0.000000    0.000000    0.000000  -97.963774   23.716772   -3.019615   68.580597
  0.038436874    0.000000    0.000000    0.000000    0.000000  -98.061009   15.639624   -3.080889   66.511314
  0.038637274    0.000000    0.000000    0.000000    0.000000  -96.736072   29.032364   -3.139484   64.410515
  0.038837675    0.000000    0.000000    0.000000    0.000000  -97.241083   28.157343   -3.193664   62.290260
  0.039038076    0.000000    0.000000    0.000000    0.000000  -97.046150   32.573471   -3.248646   60.191437
  0.039238477    0.000000    0.000000    0.000000    0.000000  -97.844927   27.703224   -3.304818   58.089905
  0.039438878    0.000000    0.000000    0.000000    0.000000  -99.057514   29.010910   -3.362929   55.983185
  0.039639278    0.000000    0.000000    0.000000    0.000000  -96.704622   32.675552   -3.420574   53.872787
  0.039839679    0.000000    0.000000    0.000000    0.000000  -98.730532   29.632059   -3.479268   51.756477
  0.040040080    0.000000    0.000000    0.000000    0.000000  -97.725842   29.394081   -3.537221   49.626423
  0.040240481    0.000000    0.000000    0.000000    0.000000  -96.425915   27.690617   -3.594306   47.516068
  0.040440882    0.000000    0.000000    0.000000    0.000000  -98.117269   31.375782   -3.650595   45.418682
  0.040641283    0.000000    0.000000    0.000000    0.000000  -97.907157   30.509184   -3.708459   43.321373
  0.040841683    0.000000    0.000000    0.000000    0.000000  -96.636354   31.211424   -3.766590   41.242939
  0.041042084    0.000000    0.000000    0.000000    0.000000  -98.230091   17.610065   -3.823547   39.163883
  0.041242485    0.000000    0.000000    0.000000    0.000000  -97.380190   30.066349   -3.884210   37.063587
  0.041442886    0.000000    0.000000    0.000000    0.000000  -98.692507   27.665705   -3.941126   34.967785
  0.041643287    0.000000    0.000000    0.000000    0.000000  -99.368980   22.765501   -3.996527   32.866924
  0.041843687    0.000000    0.000000    0.000000    0.000000  -98.333585   23.622044   -4.053213   30.797665
  0.042044088    0.000000    0.000000    0.000000    0.000000  -97.885306   21.807455   -4.108449   28.694769
  0.042244489    0.000000    0.000000    0.000000    0.000000  -97.316756   27.517975   -4.164924   26.647499
  0.042444890    0.000000    0.000000    0.000000    0.000000  -97.675304   25.553728   -4.220693   24.573893
  0.042645291    0.000000    0.000000    0.000000    0.000000  -98.915278   35.499573   -4.277177   22.525536
  0.042845691    0.000000    0.000000    0.000000    0.000000  -99.028095   28.119722   -4.332259   20.474318
  0.043046092    0.000000    0.000000    0.000000    0.000000  -98.313821   27.448343   -4.386275   18.426003
  0.043246493    0.000000    0.000000    0.000000    0.000000  -99.000537   25.245518   -4.440135   16.360048
  0.043446894    0.000000    0.000000    0.000000    0.000000  -98.315397   25.219837   -4.490200   14.330536
  0.043647295    0.000000    0.000000    0.000000    0.000000  -99.937157   29.045212   -4.541131   12.284405
  0.043847695    0.000000    0.000000    0.000000    0.000000  -98.870228   25.038183   -4.594392   10.267136
  0.044048096    0.000000    0.000000    0.000000    0.000000  -98.509083   25.566444   -4.642085    8.252883
  0.044248497    0.000000    0.000000    0.000000    0.000000  -99.115463   33.194057   -4.694539    6.269285
  0.044448898    0.000000    0.000000    0.000000    0.000000  -98.338567   30.714571   -4.743951    4.283981
  0.044649299    0.000000    0.000000    0.000000    0.000000  -98.344687   28.614948   -4.791234    2.297307
  0.044849699    0.000000    0.000000    0.000000    0.000000  -99.280908   30.294355   -4.837910    0.335247
  0.045050100    0.000000    0.000000    0.000000    0.000000  -99.794351   37.232639   -4.886412   -1.647267
  0.045250501    0.000000    0.000000    0.000000    0.000000  -99.643083   35.234047   -4.933087   -3.583794
  0.045450902    0.000000    0.000000    0.000000    0.000000  -98.930470   27.242308   -4.975814   -5.517147
  0.045651303    0.000000    0.000000    0.000000    0.000000  -97.826187   31.007898   -5.020256   -7.456656
  0.045851703    0.000000    0.000000    0.000000    0.000000  -97.902254   28.287624   -5.062321   -9.375441
  0.046052104    0.000000    0.000000    0.000000    0.000000  -99.949701   33.602428   -5.100911  -11.278780
  0.046252505    0.000000    0.000000    0.000000    0.000000  -98.835670   22.738213   -5.141877  -13.163445
  0.046452906    0.000000    0.000000    0.000000    0.000000 -100.092465   32.171284   -5.182185  -15.043988
  0.046653307    0.000000    0.000000    0.000000    0.000000  -99.209682   33.687107   -5.220264  -16.952381
  0.046853707    0.000000    0.000000    0.000000    0.000000  -99.524806   32.573704   -5.254259  -18.820469
  0.047054108    0.000000    0.000000    0.000000    0.000000  -98.858817   29.362284   -5.289126  -20.705641
  0.047254509    0.000000    0.000000    0.000000    0.000000  -99.159570   35.457855   -5.324075  -22.563379
  0.047454910    0.000000    0.000000    0.000000    0.000000  -99.671757   27.894291   -5.354213  -24.412844
  0.047655311    0.000000    0.000000    0.000000    0.000000 -100.056027   38.167553   -5.386914  -26.241184
  0.047855711    0.000000    0.000000    0.000000    0.000000  -99.039487   31.692850   -5.417732  -28.050262
  0.048056112    0.000000    0.000000    0.000000    0.000000  -99.489979   32.690041   -5.449010  -29.856628
  0.048256513    0.000000    0.000000    0.000000    0.000000  -97.992331   21.391922   -5.477665  -31.674450
  0.048456914    0.000000    0.000000    0.000000    0.000000  -98.727588   31.640404   -5.503456  -33.465149
  0.048657315    0.000000    0.000000    0.000000    0.000000  -99.821971   29.512861   -5.528761  -35.259212
  0.048857715    0.000000    0.000000    0.000000    0.000000  -98.964961   24.690668   -5.554092  -37.057167
  0.049058116    0.000000    0.000000    0.000000    0.000000  -99.797418   29.814114   -5.578392  -38.843273
  0.049258517    0.000000    0.000000    0.000000    0.000000  -98.736453   28.478840   -5.600409  -40.576260
  0.049458918    0.000000    0.000000    0.000000    0.000000  -99.182599   33.468452   -5.621332  -42.302570
  0.049659319    0.000000    0.000000    0.000000    0.000000  -98.243632   39.242184   -5.646102  -44.011135
  0.049859719    0.000000    0.000000    0.000000    0.000000 -100.022442   34.112049   -5.671393  -45.746620
  0.050060120    0.000000    0.000000    0.000000    0.000000  -99.817702   37.011295   -5.689653  -47.451954
  0.050260521    0.000000    0.000000    0.000000    0.000000  -99.345208   31.005112   -5.709546  -49.141884
  0.050460922    0.000000    0.000000    0.000000    0.000000  -99.867696   27.338285   -5.724838  -50.857647
  0.050661323    0.000000    0.000000    0.000000    0.000000 -101.270230   29.839174   -5.742819  -52.526485
  0.050861723    0.000000    0.000000    0.000000    0.000000  -99.840101   26.829519   -5.757787  -54.188450
  0.051062124    0.000000    0.000000    0.000000    0.000000  -99.789743   31.344622   -5.777438  -55.843052
  0.051262525    0.000000    0.000000    0.000000    0.000000  -99.555814   30.292770   -5.796656  -57.495541
  0.051462926    0.000000    0.000000    0.000000    0.000000  -98.426410   37.670277   -5.811010  -59.124222
  0.051663327    0.000000    0.000000    0.000000    0.000000  -98.126611   30.723984   -5.824227  -60.759369
  0.051863727    0.000000    0.000000    0.000000    0.000000 -100.178994   31.675335   -5.841403  -62.393639
  0.052064128    0.000000    0.000000    0.000000    0.000000  -99.287838   36.501324   -5.852606  -64.014763
  0.052264529    0.000000    0.000000    0.000000    0.000000  -98.988439   32.823475   -5.861242  -65.624802
  0.052464930    0.000000    0.000000    0.000000    0.000000  -98.791761   28.313948   -5.872104  -67.212929
  0.052665331    0.000000    0.000000    0.000000    0.000000  -97.894850   23.908405   -5.886544  -68.801758
  0.052865731    0.000000    0.000000    0.000000    0.000000  -98.878502   31.779818   -5.900047  -70.363037
