! Anritsu VNA Master:                     Model: MS2036C/10/77
! SN:                                  1601066
! /card0/usr/256.ew.n.me.s2p
! Existing Calibration Information:
! TYPE:                         Current Settings,       Active Cal Settings
! TIME:             	   12/19/2017 03:04:41 PM,    12/19/2017 02:53:44 PM
! INTERNAL TEMP:    	                   46.8 C,                    46.3 C
! # POINTS:         	                      501,                       501
! START FREQ:       	               10.000 MHz,                10.000 MHz
! STOP FREQ:        	              110.000 MHz,               110.000 MHz
! SOURCE POWER:     	                     High,                      High
! IFBW:             	                   100 Hz,                    100 Hz
! AVG FACTOR:       	                       1 ,                        1 
! REF PLANE 1:      	                     0 mm,                      0 mm
! REF PLANE 2:      	                     0 mm,                      0 mm
! CAL TYPE:         	                 Full S11,                  Full S11
! CAL METHOD:       	                     SOLT,                      SOLT
! CAL LINE TYPE:    	                     Coax,                      Coax
! DUT PORT 1:       	                N-Conn(F),                 N-Conn(F)
! DUT PORT 2:       	                K-Conn(F),                 K-Conn(F)
! CAL STATUS:       	        OK: Accuracy High,                        --
# GHZ S DB R 50.0
! FREQ.GHZ       S11DB        S11A       S21DB        S21A       S12DB        S12A       S22DB        S22A
  0.010000000   -0.601547  -59.687820  -84.638071   84.064201    0.000000    0.000000    0.000000    0.000000
  0.010200000   -0.586261  -60.917332  -84.882597   85.935158    0.000000    0.000000    0.000000    0.000000
  0.010400000   -0.587792  -62.161495  -84.211237   82.584137    0.000000    0.000000    0.000000    0.000000
  0.010600000   -0.589426  -63.434563  -84.582058   84.174530    0.000000    0.000000    0.000000    0.000000
  0.010800000   -0.587695  -64.766640  -84.181156   83.404900    0.000000    0.000000    0.000000    0.000000
  0.011000000   -0.589107  -66.050529  -84.171262   83.477318    0.000000    0.000000    0.000000    0.000000
  0.011200000   -0.588259  -67.357384  -84.040330   80.131065    0.000000    0.000000    0.000000    0.000000
  0.011400000   -0.591823  -68.602150  -84.202912   78.326363    0.000000    0.000000    0.000000    0.000000
  0.011600000   -0.596459  -69.871613  -83.652021   74.965942    0.000000    0.000000    0.000000    0.000000
  0.011800000   -0.595013  -71.135597  -83.605800   76.962547    0.000000    0.000000    0.000000    0.000000
  0.012000000   -0.590787  -72.449501  -84.006370   71.119133    0.000000    0.000000    0.000000    0.000000
  0.012200000   -0.588911  -73.751488  -84.046506   66.903488    0.000000    0.000000    0.000000    0.000000
  0.012400000   -0.587257  -75.048653  -84.303058   65.228020    0.000000    0.000000    0.000000    0.000000
  0.012600000   -0.584467  -76.349693  -84.164713   63.447491    0.000000    0.000000    0.000000    0.000000
  0.012800000   -0.583362  -77.642532  -84.249739   60.033134    0.000000    0.000000    0.000000    0.000000
  0.013000000   -0.580837  -78.952545  -84.544875   57.680470    0.000000    0.000000    0.000000    0.000000
  0.013200000   -0.580831  -80.261765  -85.096669   54.925747    0.000000    0.000000    0.000000    0.000000
  0.013400000   -0.578163  -81.562469  -85.357646   52.959251    0.000000    0.000000    0.000000    0.000000
  0.013600000   -0.576553  -82.849426  -85.676576   51.264835    0.000000    0.000000    0.000000    0.000000
  0.013800000   -0.573419  -84.146667  -86.034969   51.122787    0.000000    0.000000    0.000000    0.000000
  0.014000000   -0.571542  -85.488640  -86.319737   48.419048    0.000000    0.000000    0.000000    0.000000
  0.014200000   -0.575734  -86.801193  -86.498051   46.209206    0.000000    0.000000    0.000000    0.000000
  0.014400000   -0.574183  -88.170006  -87.448819   44.351952    0.000000    0.000000    0.000000    0.000000
  0.014600000   -0.581109  -89.488281  -87.835890   44.677841    0.000000    0.000000    0.000000    0.000000
  0.014800000   -0.582980  -90.841209  -87.860231   48.135529    0.000000    0.000000    0.000000    0.000000
  0.015000000   -0.585118  -92.199341  -88.447734   45.372562    0.000000    0.000000    0.000000    0.000000
  0.015200000   -0.583831  -93.564896  -88.740403   48.929073    0.000000    0.000000    0.000000    0.000000
  0.015400000   -0.582023  -94.915825  -89.399681   47.253479    0.000000    0.000000    0.000000    0.000000
  0.015600000   -0.573169  -96.205124  -89.309565   51.745930    0.000000    0.000000    0.000000    0.000000
  0.015800000   -0.579766  -97.601189  -89.584268   45.516369    0.000000    0.000000    0.000000    0.000000
  0.016000000   -0.576922  -98.966187  -89.339736   53.395794    0.000000    0.000000    0.000000    0.000000
  0.016200000   -0.577487 -100.319168  -89.477975   52.126961    0.000000    0.000000    0.000000    0.000000
  0.016400000   -0.574839 -101.739189  -89.954120   56.536770    0.000000    0.000000    0.000000    0.000000
  0.016600000   -0.576455 -103.131714  -89.786222   54.062801    0.000000    0.000000    0.000000    0.000000
  0.016800000   -0.571017 -104.524132  -90.326497   52.052944    0.000000    0.000000    0.000000    0.000000
  0.017000000   -0.571858 -105.937706  -89.085670   57.218025    0.000000    0.000000    0.000000    0.000000
  0.017200000   -0.568807 -107.336021  -89.179334   51.877731    0.000000    0.000000    0.000000    0.000000
  0.017400000   -0.573217 -108.714890  -88.576906   48.448666    0.000000    0.000000    0.000000    0.000000
  0.017600000   -0.578489 -110.085907  -89.377850   52.733475    0.000000    0.000000    0.000000    0.000000
  0.017800000   -0.585128 -111.481621  -88.926147   51.539387    0.000000    0.000000    0.000000    0.000000
  0.018000000   -0.586933 -112.908432  -89.334456   51.931274    0.000000    0.000000    0.000000    0.000000
  0.018200000   -0.587043 -114.331093  -89.363659   44.831284    0.000000    0.000000    0.000000    0.000000
  0.018400000   -0.589508 -115.760078  -88.771730   40.829906    0.000000    0.000000    0.000000    0.000000
  0.018600000   -0.591495 -117.172592  -89.701870   44.554089    0.000000    0.000000    0.000000    0.000000
  0.018800000   -0.590848 -118.606552  -89.168164   47.363232    0.000000    0.000000    0.000000    0.000000
  0.019000000   -0.590630 -120.047470  -89.682264   40.471909    0.000000    0.000000    0.000000    0.000000
  0.019200000   -0.594643 -121.486839  -90.444978   37.807011    0.000000    0.000000    0.000000    0.000000
  0.019400000   -0.597427 -122.948555  -89.899532   37.377766    0.000000    0.000000    0.000000    0.000000
  0.019600000   -0.600110 -124.424767  -89.878820   36.237911    0.000000    0.000000    0.000000    0.000000
  0.019800000   -0.598936 -125.913757  -90.138434   35.521965    0.000000    0.000000    0.000000    0.000000
  0.020000000   -0.599555 -127.375107  -90.716575   30.562286    0.000000    0.000000    0.000000    0.000000
  0.020200000   -0.596010 -128.847549  -91.558817   31.177809    0.000000    0.000000    0.000000    0.000000
  0.020400000   -0.598690 -130.325409  -91.500399   28.399338    0.000000    0.000000    0.000000    0.000000
  0.020600000   -0.601186 -131.781357  -91.252464   32.277077    0.000000    0.000000    0.000000    0.000000
  0.020800000   -0.604783 -133.303238  -92.281286   27.690331    0.000000    0.000000    0.000000    0.000000
  0.021000000   -0.614067 -134.824799  -92.387537   30.016838    0.000000    0.000000    0.000000    0.000000
  0.021200000   -0.618443 -136.357193  -92.336846   36.048733    0.000000    0.000000    0.000000    0.000000
  0.021400000   -0.626757 -137.916702  -92.926524   32.625793    0.000000    0.000000    0.000000    0.000000
  0.021600000   -0.630885 -139.435791  -93.022512   41.650524    0.000000    0.000000    0.000000    0.000000
  0.021800000   -0.636351 -140.994522  -92.772633   38.276741    0.000000    0.000000    0.000000    0.000000
  0.022000000   -0.643138 -142.509995  -93.757976   36.559349    0.000000    0.000000    0.000000    0.000000
  0.022200000   -0.648314 -144.090469  -93.746099   36.206970    0.000000    0.000000    0.000000    0.000000
  0.022400000   -0.654658 -145.683167  -93.559390   33.088734    0.000000    0.000000    0.000000    0.000000
  0.022600000   -0.659901 -147.267715  -93.004048   33.641136    0.000000    0.000000    0.000000    0.000000
  0.022800000   -0.662544 -148.863693  -92.811718   38.615105    0.000000    0.000000    0.000000    0.000000
  0.023000000   -0.665817 -150.483109  -92.633690   34.795696    0.000000    0.000000    0.000000    0.000000
  0.023200000   -0.669608 -152.078064  -92.699913   40.479759    0.000000    0.000000    0.000000    0.000000
  0.023400000   -0.676199 -153.727386  -92.085173   36.773060    0.000000    0.000000    0.000000    0.000000
  0.023600000   -0.680651 -155.268005  -92.945644   32.419971    0.000000    0.000000    0.000000    0.000000
  0.023800000   -0.691018 -156.883713  -93.193149   28.307419    0.000000    0.000000    0.000000    0.000000
  0.024000000   -0.698798 -158.525528  -91.720673   32.549679    0.000000    0.000000    0.000000    0.000000
  0.024200000   -0.709978 -160.171921  -92.274923   36.625565    0.000000    0.000000    0.000000    0.000000
  0.024400000   -0.722103 -161.832367  -93.305660   25.654509    0.000000    0.000000    0.000000    0.000000
  0.024600000   -0.730646 -163.489639  -93.002201   26.099642    0.000000    0.000000    0.000000    0.000000
  0.024800000   -0.739864 -165.163071  -93.504581   23.593988    0.000000    0.000000    0.000000    0.000000
  0.025000000   -0.753859 -166.816483  -93.634982   23.896582    0.000000    0.000000    0.000000    0.000000
  0.025200000   -0.763467 -168.500076  -94.109260   26.917820    0.000000    0.000000    0.000000    0.000000
  0.025400000   -0.778048 -170.191956  -93.530477   24.541094    0.000000    0.000000    0.000000    0.000000
  0.025600000   -0.792807 -171.904312  -94.588825    9.842822    0.000000    0.000000    0.000000    0.000000
  0.025800000   -0.806553 -173.616653  -93.426568   14.823011    0.000000    0.000000    0.000000    0.000000
  0.026000000   -0.818536 -175.352142  -94.905840   21.463991    0.000000    0.000000    0.000000    0.000000
  0.026200000   -0.828282 -177.070297  -94.476575   23.647491    0.000000    0.000000    0.000000    0.000000
  0.026400000   -0.842001 -178.820129  -95.340977   21.378922    0.000000    0.000000    0.000000    0.000000
  0.026600000   -0.857002  179.439880  -96.309716   22.913349    0.000000    0.000000    0.000000    0.000000
  0.026800000   -0.873341  177.664017  -95.561385   15.377858    0.000000    0.000000    0.000000    0.000000
  0.027000000   -0.891224  175.891281  -96.203030   13.275832    0.000000    0.000000    0.000000    0.000000
  0.027200000   -0.908432  174.117233  -95.606979   22.345728    0.000000    0.000000    0.000000    0.000000
  0.027400000   -0.923800  172.313278  -96.537578   26.921152    0.000000    0.000000    0.000000    0.000000
  0.027600000   -0.939664  170.507202  -96.701713   14.964554    0.000000    0.000000    0.000000    0.000000
  0.027800000   -0.958420  168.683502  -95.476692   27.341732    0.000000    0.000000    0.000000    0.000000
  0.028000000   -0.979033  166.847214  -95.843266   26.961914    0.000000    0.000000    0.000000    0.000000
  0.028200000   -1.003407  165.019714  -97.883585   25.091116    0.000000    0.000000    0.000000    0.000000
  0.028400000   -1.024737  163.183853  -95.924639   32.267349    0.000000    0.000000    0.000000    0.000000
  0.028600000   -1.043329  161.335648  -95.249248   25.566561    0.000000    0.000000    0.000000    0.000000
  0.028800000   -1.063369  159.496735  -95.719429   26.281067    0.000000    0.000000    0.000000    0.000000
  0.029000000   -1.081291  157.671341  -96.930420   20.890108    0.000000    0.000000    0.000000    0.000000
  0.029200000   -1.103306  155.836441  -97.756806   23.702490    0.000000    0.000000    0.000000    0.000000
  0.029400000   -1.126154  154.001251  -97.445424   28.064600    0.000000    0.000000    0.000000    0.000000
  0.029600000   -1.153030  152.160004  -95.151540   20.832279    0.000000    0.000000    0.000000    0.000000
  0.029800000   -1.183918  150.283386  -95.900856   15.376991    0.000000    0.000000    0.000000    0.000000
  0.030000000   -1.214352  148.380829  -96.036505    9.054437    0.000000    0.000000    0.000000    0.000000
  0.030200000   -1.245191  146.445847  -95.548752   18.067738    0.000000    0.000000    0.000000    0.000000
  0.030400000   -1.273287  144.506241  -95.800014   18.251026    0.000000    0.000000    0.000000    0.000000
  0.030600000   -1.307527  142.572311  -97.153869    9.912153    0.000000    0.000000    0.000000    0.000000
  0.030800000   -1.340202  140.664032  -97.565182   19.595060    0.000000    0.000000    0.000000    0.000000
  0.031000000   -1.375115  138.723694  -96.305514   11.338940    0.000000    0.000000    0.000000    0.000000
  0.031200000   -1.405345  136.789246  -96.403767   19.239305    0.000000    0.000000    0.000000    0.000000
  0.031400000   -1.444484  134.815598  -96.306586    4.079768    0.000000    0.000000    0.000000    0.000000
  0.031600000   -1.485163  132.798523  -97.613244   -3.763324    0.000000    0.000000    0.000000    0.000000
  0.031800000   -1.519879  130.780258  -97.050376   20.538797    0.000000    0.000000    0.000000    0.000000
  0.032000000   -1.559031  128.769882  -97.566818   13.902038    0.000000    0.000000    0.000000    0.000000
  0.032200000   -1.590499  126.769798  -96.131539   13.548618    0.000000    0.000000    0.000000    0.000000
  0.032400000   -1.623560  124.779060  -98.524726   -0.362528    0.000000    0.000000    0.000000    0.000000
  0.032600000   -1.659251  122.782173  -97.891005    3.583506    0.000000    0.000000    0.000000    0.000000
  0.032800000   -1.698157  120.792549  -95.373984    2.676344    0.000000    0.000000    0.000000    0.000000
  0.033000000   -1.743151  118.810760  -98.164956    5.101164    0.000000    0.000000    0.000000    0.000000
  0.033200000   -1.789477  116.823486  -99.359378    6.022835    0.000000    0.000000    0.000000    0.000000
  0.033400000   -1.838979  114.818100  -97.137401   16.005680    0.000000    0.000000    0.000000    0.000000
  0.033600000   -1.891179  112.778816  -98.292550   15.029716    0.000000    0.000000    0.000000    0.000000
  0.033800000   -1.942248  110.727646  -97.346946   19.221014    0.000000    0.000000    0.000000    0.000000
  0.034000000   -1.994107  108.620811  -97.955992   18.324087    0.000000    0.000000    0.000000    0.000000
  0.034200000   -2.047079  106.503487  -98.627918   18.045572    0.000000    0.000000    0.000000    0.000000
  0.034400000   -2.093043  104.350204  -98.053723    0.979417    0.000000    0.000000    0.000000    0.000000
  0.034600000   -2.139037  102.200401  -96.789903   13.956618    0.000000    0.000000    0.000000    0.000000
  0.034800000   -2.188612  100.078697  -98.984143    3.250777    0.000000    0.000000    0.000000    0.000000
  0.035000000   -2.230722   97.955025  -99.255967    6.889226    0.000000    0.000000    0.000000    0.000000
  0.035200000   -2.273517   95.821625  -98.214622    8.455313    0.000000    0.000000    0.000000    0.000000
  0.035400000   -2.314563   93.716476  -98.895690    8.051598    0.000000    0.000000    0.000000    0.000000
  0.035600000   -2.356527   91.627937  -98.937771    4.891510    0.000000    0.000000    0.000000    0.000000
  0.035800000   -2.400487   89.553734  -98.235976    3.185921    0.000000    0.000000    0.000000    0.000000
  0.036000000   -2.447782   87.470634  -97.182455   -2.441391    0.000000    0.000000    0.000000    0.000000
  0.036200000   -2.493448   85.409760  -98.639151   15.467942    0.000000    0.000000    0.000000    0.000000
  0.036400000   -2.540047   83.362785  -97.578887    1.660562    0.000000    0.000000    0.000000    0.000000
  0.036600000   -2.595109   81.303391  -98.222310   13.847149    0.000000    0.000000    0.000000    0.000000
  0.036800000   -2.648727   79.269905 -100.035752    7.572076    0.000000    0.000000    0.000000    0.000000
  0.037000000   -2.706288   77.210167  -98.990603   13.748600    0.000000    0.000000    0.000000    0.000000
  0.037200000   -2.767460   75.089844  -98.624407    6.657728    0.000000    0.000000    0.000000    0.000000
  0.037400000   -2.829235   72.992188 -101.947597   -0.683845    0.000000    0.000000    0.000000    0.000000
  0.037600000   -2.888416   70.880692  -97.874268   -0.332054    0.000000    0.000000    0.000000    0.000000
  0.037800000   -2.950148   68.734055  -99.363269   -1.375655    0.000000    0.000000    0.000000    0.000000
  0.038000000   -3.011529   66.554802 -101.468068   11.034902    0.000000    0.000000    0.000000    0.000000
  0.038200000   -3.067961   64.392334  -99.672423   10.558951    0.000000    0.000000    0.000000    0.000000
  0.038400000   -3.119821   62.222908 -100.174930   -5.357730    0.000000    0.000000    0.000000    0.000000
  0.038600000   -3.173345   60.063538  -98.263249   15.272453    0.000000    0.000000    0.000000    0.000000
  0.038800000   -3.218890   57.935001  -98.688910    2.834190    0.000000    0.000000    0.000000    0.000000
  0.039000000   -3.264244   55.836922 -102.238856    1.438087    0.000000    0.000000    0.000000    0.000000
  0.039200000   -3.311892   53.775928 -101.857496   17.441065    0.000000    0.000000    0.000000    0.000000
  0.039400000   -3.362398   51.738155 -102.576516    7.093412    0.000000    0.000000    0.000000    0.000000
  0.039600000   -3.417242   49.694809  -98.539980    5.437882    0.000000    0.000000    0.000000    0.000000
  0.039800000   -3.471346   47.625225  -99.544145   -1.463640    0.000000    0.000000    0.000000    0.000000
  0.040000000   -3.534046   45.557030  -98.345231   14.029534    0.000000    0.000000    0.000000    0.000000
  0.040200000   -3.594720   43.478027 -102.099090    5.205524    0.000000    0.000000    0.000000    0.000000
  0.040400000   -3.656265   41.399151  -98.747639    1.809343    0.000000    0.000000    0.000000    0.000000
  0.040600000   -3.717697   39.298470  -99.734588   16.258648    0.000000    0.000000    0.000000    0.000000
  0.040800000   -3.769443   37.217022 -102.867442    5.432647    0.000000    0.000000    0.000000    0.000000
  0.041000000   -3.828067   35.112640 -101.436425   -3.706846    0.000000    0.000000    0.000000    0.000000
  0.041200000   -3.884401   33.024673  -99.462835    7.640984    0.000000    0.000000    0.000000    0.000000
  0.041400000   -3.939215   30.950441 -101.446444   -0.807400    0.000000    0.000000    0.000000    0.000000
  0.041600000   -3.992782   28.856785  -98.236772   14.594975    0.000000    0.000000    0.000000    0.000000
  0.041800000   -4.044330   26.772369 -102.855955    8.211257    0.000000    0.000000    0.000000    0.000000
  0.042000000   -4.093178   24.697674 -100.475136   -0.722057    0.000000    0.000000    0.000000    0.000000
  0.042200000   -4.141571   22.676012 -101.452391   -2.276265    0.000000    0.000000    0.000000    0.000000
  0.042400000   -4.190248   20.628212 -101.971645   -4.768579    0.000000    0.000000    0.000000    0.000000
  0.042600000   -4.238514   18.611658 -101.158183    0.422691    0.000000    0.000000    0.000000    0.000000
  0.042800000   -4.285938   16.608349 -100.935290  -12.217181    0.000000    0.000000    0.000000    0.000000
