! Anritsu VNA Master:                     Model: MS2036C/10/77
! SN:                                  1601066
! /card0/usr/256.ew.n.r50.12.s2p
! Existing Calibration Information:
! TYPE:                         Current Settings,       Active Cal Settings
! TIME:             	   12/19/2017 03:01:30 PM,    12/19/2017 02:53:44 PM
! INTERNAL TEMP:    	                   46.5 C,                    46.3 C
! # POINTS:         	                      501,                       501
! START FREQ:       	               10.000 MHz,                10.000 MHz
! STOP FREQ:        	              110.000 MHz,               110.000 MHz
! SOURCE POWER:     	                     High,                      High
! IFBW:             	                   100 Hz,                    100 Hz
! AVG FACTOR:       	                       1 ,                        1 
! REF PLANE 1:      	                     0 mm,                      0 mm
! REF PLANE 2:      	                     0 mm,                      0 mm
! CAL TYPE:         	                 Full S11,                  Full S11
! CAL METHOD:       	                     SOLT,                      SOLT
! CAL LINE TYPE:    	                     Coax,                      Coax
! DUT PORT 1:       	                N-Conn(F),                 N-Conn(F)
! DUT PORT 2:       	                K-Conn(F),                 K-Conn(F)
! CAL STATUS:       	        OK: Accuracy High,                        --
# GHZ S DB R 50.0
! FREQ.GHZ       S11DB        S11A       S21DB        S21A       S12DB        S12A       S22DB        S22A
  0.010000000  -44.502301   63.275059  -83.072246   74.812286    0.000000    0.000000    0.000000    0.000000
  0.010200000  -44.665530   62.732769  -83.497389   76.854462    0.000000    0.000000    0.000000    0.000000
  0.010400000  -44.613553   62.119507  -83.692416   74.364067    0.000000    0.000000    0.000000    0.000000
  0.010600000  -44.236572   60.490688  -83.949313   72.750771    0.000000    0.000000    0.000000    0.000000
  0.010800000  -44.939616   61.734612  -84.515638   70.715088    0.000000    0.000000    0.000000    0.000000
  0.011000000  -44.204332   61.145641  -84.267923   71.965546    0.000000    0.000000    0.000000    0.000000
  0.011200000  -44.624500   61.196720  -84.348293   68.915062    0.000000    0.000000    0.000000    0.000000
  0.011400000  -44.043333   62.203262  -84.414260   71.004776    0.000000    0.000000    0.000000    0.000000
  0.011600000  -43.964171   61.002647  -84.909632   68.369919    0.000000    0.000000    0.000000    0.000000
  0.011800000  -43.666883   60.371334  -84.706647   68.086975    0.000000    0.000000    0.000000    0.000000
  0.012000000  -44.170306   60.820572  -84.979710   66.733620    0.000000    0.000000    0.000000    0.000000
  0.012200000  -43.769523   59.605770  -85.167013   62.707794    0.000000    0.000000    0.000000    0.000000
  0.012400000  -43.744317   59.161999  -85.916484   62.620232    0.000000    0.000000    0.000000    0.000000
  0.012600000  -43.769180   58.624012  -85.749025   65.661491    0.000000    0.000000    0.000000    0.000000
  0.012800000  -43.476938   58.761177  -86.104933   62.364708    0.000000    0.000000    0.000000    0.000000
  0.013000000  -43.558329   57.851387  -86.064696   62.609818    0.000000    0.000000    0.000000    0.000000
  0.013200000  -43.075121   58.867065  -86.263987   60.953590    0.000000    0.000000    0.000000    0.000000
  0.013400000  -43.369638   58.292107  -86.730743   59.935169    0.000000    0.000000    0.000000    0.000000
  0.013600000  -42.898256   57.479691  -86.408291   61.221992    0.000000    0.000000    0.000000    0.000000
  0.013800000  -43.028993   58.343777  -87.042736   60.161606    0.000000    0.000000    0.000000    0.000000
  0.014000000  -43.024754   58.556713  -87.022368   60.077396    0.000000    0.000000    0.000000    0.000000
  0.014200000  -42.609841   57.891701  -86.993555   58.532131    0.000000    0.000000    0.000000    0.000000
  0.014400000  -42.909900   58.606998  -86.933120   55.965908    0.000000    0.000000    0.000000    0.000000
  0.014600000  -42.661087   57.627113  -86.889636   54.760983    0.000000    0.000000    0.000000    0.000000
  0.014800000  -42.503939   57.383293  -87.748568   54.458065    0.000000    0.000000    0.000000    0.000000
  0.015000000  -42.327499   57.797539  -86.946068   51.854710    0.000000    0.000000    0.000000    0.000000
  0.015200000  -42.242786   57.529530  -87.813100   51.508453    0.000000    0.000000    0.000000    0.000000
  0.015400000  -42.266490   56.679478  -87.700212   52.725552    0.000000    0.000000    0.000000    0.000000
  0.015600000  -42.165821   56.716862  -87.042876   47.062778    0.000000    0.000000    0.000000    0.000000
  0.015800000  -41.886338   57.812618  -88.041387   51.455914    0.000000    0.000000    0.000000    0.000000
  0.016000000  -41.985620   56.993725  -88.460535   48.801510    0.000000    0.000000    0.000000    0.000000
  0.016200000  -41.921751   55.764565  -88.027524   51.053356    0.000000    0.000000    0.000000    0.000000
  0.016400000  -41.965890   56.099819  -88.555595   47.410263    0.000000    0.000000    0.000000    0.000000
  0.016600000  -41.578082   56.765423  -89.016228   48.180069    0.000000    0.000000    0.000000    0.000000
  0.016800000  -41.774462   56.031395  -88.934433   44.978695    0.000000    0.000000    0.000000    0.000000
  0.017000000  -41.563015   56.726654  -89.161726   45.668453    0.000000    0.000000    0.000000    0.000000
  0.017200000  -41.723777   55.895111  -89.438268   48.073837    0.000000    0.000000    0.000000    0.000000
  0.017400000  -41.472749   55.659641  -89.790895   41.269787    0.000000    0.000000    0.000000    0.000000
  0.017600000  -41.393010   55.139702  -89.137352   44.706390    0.000000    0.000000    0.000000    0.000000
  0.017800000  -41.239158   54.969429  -89.260918   40.825375    0.000000    0.000000    0.000000    0.000000
  0.018000000  -41.312792   56.246197  -90.268132   42.747330    0.000000    0.000000    0.000000    0.000000
  0.018200000  -41.245924   55.114956  -89.818139   42.417355    0.000000    0.000000    0.000000    0.000000
  0.018400000  -41.101789   55.306866  -90.899469   45.486401    0.000000    0.000000    0.000000    0.000000
  0.018600000  -41.107549   55.594959  -90.788014   40.912582    0.000000    0.000000    0.000000    0.000000
  0.018800000  -41.101429   53.958939  -90.366760   44.532913    0.000000    0.000000    0.000000    0.000000
  0.019000000  -41.161990   54.637314  -90.707885   41.383011    0.000000    0.000000    0.000000    0.000000
  0.019200000  -40.761784   53.846870  -91.638618   38.443638    0.000000    0.000000    0.000000    0.000000
  0.019400000  -40.841091   53.909790  -90.180739   41.484993    0.000000    0.000000    0.000000    0.000000
  0.019600000  -40.672459   53.951015  -90.748515   42.970356    0.000000    0.000000    0.000000    0.000000
  0.019800000  -40.665512   54.312740  -90.687943   37.594147    0.000000    0.000000    0.000000    0.000000
  0.020000000  -40.391830   52.794056  -90.028495   39.396702    0.000000    0.000000    0.000000    0.000000
  0.020200000  -40.509110   53.223663  -90.666282   38.617466    0.000000    0.000000    0.000000    0.000000
  0.020400000  -40.598313   53.467445  -91.355741   32.280327    0.000000    0.000000    0.000000    0.000000
  0.020600000  -40.368316   52.443935  -91.227560   43.371536    0.000000    0.000000    0.000000    0.000000
  0.020800000  -40.305193   53.164070  -91.825343   37.700085    0.000000    0.000000    0.000000    0.000000
  0.021000000  -40.238186   52.850475  -92.387502   30.757971    0.000000    0.000000    0.000000    0.000000
  0.021200000  -40.196976   52.872993  -91.357737   37.199821    0.000000    0.000000    0.000000    0.000000
  0.021400000  -40.064539   52.665844  -92.539208   30.845045    0.000000    0.000000    0.000000    0.000000
  0.021600000  -39.866658   52.768353  -91.255093   31.664614    0.000000    0.000000    0.000000    0.000000
  0.021800000  -39.739939   52.576061  -92.300538   27.350107    0.000000    0.000000    0.000000    0.000000
  0.022000000  -39.881698   51.882286  -92.891069   33.975437    0.000000    0.000000    0.000000    0.000000
  0.022200000  -39.751738   52.346298  -92.239812   33.410095    0.000000    0.000000    0.000000    0.000000
  0.022400000  -39.650313   51.909027  -92.261504   30.288839    0.000000    0.000000    0.000000    0.000000
  0.022600000  -39.629034   52.010616  -92.743098   32.508179    0.000000    0.000000    0.000000    0.000000
  0.022800000  -39.665875   51.028976  -92.774709   32.275223    0.000000    0.000000    0.000000    0.000000
  0.023000000  -39.553411   51.712181  -93.150135   32.469093    0.000000    0.000000    0.000000    0.000000
  0.023200000  -39.432395   52.236664  -92.599143   26.207005    0.000000    0.000000    0.000000    0.000000
  0.023400000  -39.336184   52.435860  -93.249385   27.570438    0.000000    0.000000    0.000000    0.000000
  0.023600000  -39.305871   51.897369  -94.425505   24.564020    0.000000    0.000000    0.000000    0.000000
  0.023800000  -39.242179   51.525909  -94.177046   29.824482    0.000000    0.000000    0.000000    0.000000
  0.024000000  -39.217057   52.096745  -93.727037   21.252153    0.000000    0.000000    0.000000    0.000000
  0.024200000  -39.113846   52.323410  -93.267505   26.696047    0.000000    0.000000    0.000000    0.000000
  0.024400000  -39.101984   52.665344  -93.766303   23.616411    0.000000    0.000000    0.000000    0.000000
  0.024600000  -39.011009   52.111874  -92.907683   24.094852    0.000000    0.000000    0.000000    0.000000
  0.024800000  -39.067755   52.435177  -94.506367   32.936974    0.000000    0.000000    0.000000    0.000000
  0.025000000  -38.955358   52.213024  -94.181827   25.224590    0.000000    0.000000    0.000000    0.000000
  0.025200000  -39.057709   52.624523  -93.866224   23.460613    0.000000    0.000000    0.000000    0.000000
  0.025400000  -38.925006   51.681786  -94.861780   26.143202    0.000000    0.000000    0.000000    0.000000
  0.025600000  -38.909751   51.400490  -94.039418   30.151041    0.000000    0.000000    0.000000    0.000000
  0.025800000  -38.868372   51.240810  -93.023562   23.494215    0.000000    0.000000    0.000000    0.000000
  0.026000000  -38.797715   51.737541  -94.911061   22.482914    0.000000    0.000000    0.000000    0.000000
  0.026200000  -38.703031   51.248756  -95.504733   22.299980    0.000000    0.000000    0.000000    0.000000
  0.026400000  -38.695973   51.495907  -94.598874   22.888124    0.000000    0.000000    0.000000    0.000000
  0.026600000  -38.751546   51.617256  -95.543705   16.269108    0.000000    0.000000    0.000000    0.000000
  0.026800000  -38.636346   51.006142  -95.389267   26.486086    0.000000    0.000000    0.000000    0.000000
  0.027000000  -38.466900   50.351948  -96.437011   29.094885    0.000000    0.000000    0.000000    0.000000
  0.027200000  -38.520799   50.801723  -95.766648   26.114664    0.000000    0.000000    0.000000    0.000000
  0.027400000  -38.509167   50.117935  -94.148433   21.038754    0.000000    0.000000    0.000000    0.000000
  0.027600000  -38.460751   49.708965  -96.194260   11.606503    0.000000    0.000000    0.000000    0.000000
  0.027800000  -38.369443   50.040230  -95.269707   25.799139    0.000000    0.000000    0.000000    0.000000
  0.028000000  -38.320187   50.504868  -97.094588   15.540099    0.000000    0.000000    0.000000    0.000000
  0.028200000  -38.204565   49.897369  -95.422016   18.181591    0.000000    0.000000    0.000000    0.000000
  0.028400000  -38.219917   49.429901  -96.982731   22.959072    0.000000    0.000000    0.000000    0.000000
  0.028600000  -38.174849   50.120693  -97.212561   17.113436    0.000000    0.000000    0.000000    0.000000
  0.028800000  -38.157782   49.480961  -96.836056   22.789503    0.000000    0.000000    0.000000    0.000000
  0.029000000  -38.071989   49.333305  -95.971880   20.582075    0.000000    0.000000    0.000000    0.000000
  0.029200000  -38.131606   48.957649  -95.839890   15.136544    0.000000    0.000000    0.000000    0.000000
  0.029400000  -37.976665   48.301479  -96.688814   20.858561    0.000000    0.000000    0.000000    0.000000
  0.029600000  -37.940698   49.427135  -97.191923   11.562452    0.000000    0.000000    0.000000    0.000000
  0.029800000  -38.011148   48.860130  -97.639909   11.565628    0.000000    0.000000    0.000000    0.000000
  0.030000000  -38.025303   48.715542  -96.979905   23.396486    0.000000    0.000000    0.000000    0.000000
  0.030200000  -37.932347   48.779648  -97.991690   18.175034    0.000000    0.000000    0.000000    0.000000
  0.030400000  -37.827128   48.483025  -96.206411   21.495251    0.000000    0.000000    0.000000    0.000000
  0.030600000  -37.810494   48.215134  -96.795773   14.320158    0.000000    0.000000    0.000000    0.000000
  0.030800000  -37.766409   48.426941  -98.147815   14.789192    0.000000    0.000000    0.000000    0.000000
  0.031000000  -37.691223   48.443295  -98.202505   17.071962    0.000000    0.000000    0.000000    0.000000
  0.031200000  -37.678030   48.502773  -99.275657   22.743721    0.000000    0.000000    0.000000    0.000000
  0.031400000  -37.662565   48.581669  -96.659397    8.660056    0.000000    0.000000    0.000000    0.000000
  0.031600000  -37.636321   47.889904  -97.312355   14.655376    0.000000    0.000000    0.000000    0.000000
  0.031800000  -37.593741   47.411655  -99.007919   18.592716    0.000000    0.000000    0.000000    0.000000
  0.032000000  -37.583130   47.329010  -95.888453   23.182768    0.000000    0.000000    0.000000    0.000000
  0.032200000  -37.433447   47.058659  -98.035506   26.973299    0.000000    0.000000    0.000000    0.000000
  0.032400000  -37.537621   47.214626  -97.075051   20.871992    0.000000    0.000000    0.000000    0.000000
  0.032600000  -37.367160   47.320923  -97.728770    9.618038    0.000000    0.000000    0.000000    0.000000
  0.032800000  -37.386359   47.016319  -97.655191   11.572212    0.000000    0.000000    0.000000    0.000000
  0.033000000  -37.348579   46.722256  -96.657772    4.272491    0.000000    0.000000    0.000000    0.000000
  0.033200000  -37.335356   47.250648 -100.268660   14.267489    0.000000    0.000000    0.000000    0.000000
  0.033400000  -37.333987   46.770412  -97.254179   13.754872    0.000000    0.000000    0.000000    0.000000
  0.033600000  -37.293986   46.464279  -96.391424    8.570035    0.000000    0.000000    0.000000    0.000000
  0.033800000  -37.328698   47.281986  -97.778411   10.910783    0.000000    0.000000    0.000000    0.000000
  0.034000000  -37.228668   46.165504  -99.052813   25.542738    0.000000    0.000000    0.000000    0.000000
  0.034200000  -37.153838   45.632572  -98.949168   11.656063    0.000000    0.000000    0.000000    0.000000
  0.034400000  -37.132918   45.477497  -98.877322    8.866314    0.000000    0.000000    0.000000    0.000000
  0.034600000  -37.040784   44.998386  -97.797889   18.908276    0.000000    0.000000    0.000000    0.000000
  0.034800000  -37.081190   45.060825 -100.242391    2.716164    0.000000    0.000000    0.000000    0.000000
  0.035000000  -37.034993   45.367546  -98.129738    7.986986    0.000000    0.000000    0.000000    0.000000
  0.035200000  -36.890800   44.902565  -99.119522    6.426780    0.000000    0.000000    0.000000    0.000000
  0.035400000  -36.944041   45.189510  -98.609429   14.162770    0.000000    0.000000    0.000000    0.000000
  0.035600000  -36.973380   44.705906  -99.381491   20.304594    0.000000    0.000000    0.000000    0.000000
  0.035800000  -36.836408   44.138676  -98.115156   16.225782    0.000000    0.000000    0.000000    0.000000
  0.036000000  -36.867972   44.203064  -98.664009    6.047842    0.000000    0.000000    0.000000    0.000000
  0.036200000  -36.790149   44.433323  -98.955520    6.005312    0.000000    0.000000    0.000000    0.000000
  0.036400000  -36.699981   44.394291  -98.227641   17.350279    0.000000    0.000000    0.000000    0.000000
  0.036600000  -36.684445   43.578754  -98.186319   21.091330    0.000000    0.000000    0.000000    0.000000
  0.036800000  -36.731807   44.085854  -99.244854    8.959826    0.000000    0.000000    0.000000    0.000000
  0.037000000  -36.777559   43.710812  -98.105867   12.816245    0.000000    0.000000    0.000000    0.000000
  0.037200000  -36.483448   43.220058 -100.648937   15.838496    0.000000    0.000000    0.000000    0.000000
  0.037400000  -36.593049   43.142685  -97.450073   15.483933    0.000000    0.000000    0.000000    0.000000
  0.037600000  -36.555339   42.663170  -99.120447   19.299820    0.000000    0.000000    0.000000    0.000000
  0.037800000  -36.501385   42.710171  -97.914876    9.966088    0.000000    0.000000    0.000000    0.000000
  0.038000000  -36.586986   41.873249 -100.483615    7.922383    0.000000    0.000000    0.000000    0.000000
  0.038200000  -36.412452   41.207172 -100.282284    3.180798    0.000000    0.000000    0.000000    0.000000
  0.038400000  -36.433529   41.959190  -99.749736   22.004921    0.000000    0.000000    0.000000    0.000000
  0.038600000  -36.302254   41.190575 -100.252493   -1.726875    0.000000    0.000000    0.000000    0.000000
  0.038800000  -36.224396   41.699005  -99.079513   11.109465    0.000000    0.000000    0.000000    0.000000
  0.039000000  -36.269127   41.564671 -100.362110    4.458535    0.000000    0.000000    0.000000    0.000000
  0.039200000  -36.199664   41.484364 -100.091153   10.900507    0.000000    0.000000    0.000000    0.000000
  0.039400000  -36.189632   41.835716  -99.415745    9.648177    0.000000    0.000000    0.000000    0.000000
  0.039600000  -36.063274   41.056160 -100.377943   -0.634783    0.000000    0.000000    0.000000    0.000000
  0.039800000  -35.991376   41.312923 -101.504378   15.706568    0.000000    0.000000    0.000000    0.000000
  0.040000000  -35.866243   41.026920 -100.087619   10.145059    0.000000    0.000000    0.000000    0.000000
  0.040200000  -35.878085   41.635017  -99.670257    8.123674    0.000000    0.000000    0.000000    0.000000
  0.040400000  -35.920289   41.372715 -100.865239    8.003734    0.000000    0.000000    0.000000    0.000000
  0.040600000  -35.871479   41.026291  -97.714264    5.187372    0.000000    0.000000    0.000000    0.000000
  0.040800000  -35.740485   41.189556 -101.008737    7.199607    0.000000    0.000000    0.000000    0.000000
  0.041000000  -35.757109   40.457695 -100.916076   14.973288    0.000000    0.000000    0.000000    0.000000
  0.041200000  -35.682234   40.713043 -101.446322   13.476519    0.000000    0.000000    0.000000    0.000000
  0.041400000  -35.704606   40.504459 -101.442535   24.390173    0.000000    0.000000    0.000000    0.000000
  0.041600000  -35.697627   40.737854 -102.536745  -13.471490    0.000000    0.000000    0.000000    0.000000
  0.041800000  -35.565307   40.591000  -98.768124    3.388650    0.000000    0.000000    0.000000    0.000000
  0.042000000  -35.557568   39.953110 -102.271690    9.014417    0.000000    0.000000    0.000000    0.000000
  0.042200000  -35.545903   40.937786 -100.957811   -9.575249    0.000000    0.000000    0.000000    0.000000
  0.042400000  -35.468448   40.481056 -101.070232   -7.903462    0.000000    0.000000    0.000000    0.000000
  0.042600000  -35.418721   40.502827 -102.250013    6.184262    0.000000    0.000000    0.000000    0.000000
  0.042800000  -35.375168   40.660408  -99.359253  -13.024974    0.000000    0.000000    0.000000    0.000000
