! Anritsu VNA Master:                     Model: MS2036C/10/77
! SN:                                  1601066
! /card0/usr/256.ew.n.r50.21.s2p
! Existing Calibration Information:
! TYPE:                         Current Settings,       Active Cal Settings
! TIME:             	   12/19/2017 03:08:02 PM,    12/19/2017 02:53:44 PM
! INTERNAL TEMP:    	                   46.8 C,                    46.3 C
! # POINTS:         	                      501,                       501
! START FREQ:       	               10.000 MHz,                10.000 MHz
! STOP FREQ:        	              110.000 MHz,               110.000 MHz
! SOURCE POWER:     	                     High,                      High
! IFBW:             	                   100 Hz,                    100 Hz
! AVG FACTOR:       	                       1 ,                        1 
! REF PLANE 1:      	                     0 mm,                      0 mm
! REF PLANE 2:      	                     0 mm,                      0 mm
! CAL TYPE:         	                 Full S11,                  Full S11
! CAL METHOD:       	                     SOLT,                      SOLT
! CAL LINE TYPE:    	                     Coax,                      Coax
! DUT PORT 1:       	                N-Conn(F),                 N-Conn(F)
! DUT PORT 2:       	                K-Conn(F),                 K-Conn(F)
! CAL STATUS:       	        OK: Accuracy High,                        --
# GHZ S DB R 50.0
! FREQ.GHZ       S11DB        S11A       S21DB        S21A       S12DB        S12A       S22DB        S22A
  0.010000000  -44.861711   63.912430  -83.185147   77.556725    0.000000    0.000000    0.000000    0.000000
  0.010200000  -45.167021   63.688988  -83.251779   74.845100    0.000000    0.000000    0.000000    0.000000
  0.010400000  -44.832324   63.947422  -84.104496   71.411453    0.000000    0.000000    0.000000    0.000000
  0.010600000  -44.552723   60.600471  -84.088859   72.205544    0.000000    0.000000    0.000000    0.000000
  0.010800000  -45.140615   62.647293  -83.902406   70.993706    0.000000    0.000000    0.000000    0.000000
  0.011000000  -44.514537   61.988304  -83.990227   70.045555    0.000000    0.000000    0.000000    0.000000
  0.011200000  -44.807508   62.524944  -84.086180   70.196594    0.000000    0.000000    0.000000    0.000000
  0.011400000  -44.625529   61.663807  -84.792124   66.608574    0.000000    0.000000    0.000000    0.000000
  0.011600000  -44.271080   61.878502  -84.672494   69.273613    0.000000    0.000000    0.000000    0.000000
  0.011800000  -43.897764   61.275246  -85.082102   70.757896    0.000000    0.000000    0.000000    0.000000
  0.012000000  -44.365579   59.758793  -85.081861   67.702919    0.000000    0.000000    0.000000    0.000000
  0.012200000  -44.244356   59.719860  -85.300284   66.080864    0.000000    0.000000    0.000000    0.000000
  0.012400000  -43.991114   60.332714  -85.596847   64.643494    0.000000    0.000000    0.000000    0.000000
  0.012600000  -44.022251   59.191376  -85.240049   63.453407    0.000000    0.000000    0.000000    0.000000
  0.012800000  -43.938534   59.476898  -85.824692   61.596668    0.000000    0.000000    0.000000    0.000000
  0.013000000  -43.619705   58.486656  -86.589728   62.952011    0.000000    0.000000    0.000000    0.000000
  0.013200000  -43.459267   59.550056  -85.928904   57.210739    0.000000    0.000000    0.000000    0.000000
  0.013400000  -43.700271   57.324650  -86.757834   58.317993    0.000000    0.000000    0.000000    0.000000
  0.013600000  -43.281704   57.164761  -86.500749   60.974586    0.000000    0.000000    0.000000    0.000000
  0.013800000  -43.341820   57.936962  -86.374610   58.368687    0.000000    0.000000    0.000000    0.000000
  0.014000000  -43.227264   57.566124  -87.072670   55.820419    0.000000    0.000000    0.000000    0.000000
  0.014200000  -42.870512   57.391506  -87.409386   54.461586    0.000000    0.000000    0.000000    0.000000
  0.014400000  -43.105642   56.587769  -87.289738   54.157112    0.000000    0.000000    0.000000    0.000000
  0.014600000  -42.690514   56.590984  -87.083801   56.557137    0.000000    0.000000    0.000000    0.000000
  0.014800000  -42.652367   56.639957  -87.435384   52.367188    0.000000    0.000000    0.000000    0.000000
  0.015000000  -42.511969   56.120815  -87.405650   50.491722    0.000000    0.000000    0.000000    0.000000
  0.015200000  -42.507474   55.096905  -87.643964   51.942589    0.000000    0.000000    0.000000    0.000000
  0.015400000  -42.390656   55.596485  -87.607083   54.040619    0.000000    0.000000    0.000000    0.000000
  0.015600000  -42.257330   55.309715  -87.899469   52.135910    0.000000    0.000000    0.000000    0.000000
  0.015800000  -42.018023   56.969517  -88.254653   51.505913    0.000000    0.000000    0.000000    0.000000
  0.016000000  -42.120268   56.400524  -88.037049   51.108639    0.000000    0.000000    0.000000    0.000000
  0.016200000  -41.884703   54.528797  -88.569418   48.818283    0.000000    0.000000    0.000000    0.000000
  0.016400000  -41.923671   54.983089  -88.768609   49.145069    0.000000    0.000000    0.000000    0.000000
  0.016600000  -41.663406   55.316471  -88.911724   50.692284    0.000000    0.000000    0.000000    0.000000
  0.016800000  -41.924405   54.559685  -89.295361   44.333355    0.000000    0.000000    0.000000    0.000000
  0.017000000  -41.619880   55.528996  -88.836664   45.031490    0.000000    0.000000    0.000000    0.000000
  0.017200000  -41.585613   55.790325  -89.185499   45.209736    0.000000    0.000000    0.000000    0.000000
  0.017400000  -41.548884   55.681019  -89.159979   42.484863    0.000000    0.000000    0.000000    0.000000
  0.017600000  -41.470569   55.052708  -88.922777   43.806042    0.000000    0.000000    0.000000    0.000000
  0.017800000  -41.284307   54.850395  -89.700340   43.860722    0.000000    0.000000    0.000000    0.000000
  0.018000000  -41.263971   56.161621  -90.844207   43.016666    0.000000    0.000000    0.000000    0.000000
  0.018200000  -41.419027   55.218330  -90.078536   42.915661    0.000000    0.000000    0.000000    0.000000
  0.018400000  -41.232541   55.666851  -90.493785   43.080467    0.000000    0.000000    0.000000    0.000000
  0.018600000  -41.073964   55.510048  -90.157656   40.953953    0.000000    0.000000    0.000000    0.000000
  0.018800000  -41.041031   55.122555  -90.671073   40.782776    0.000000    0.000000    0.000000    0.000000
  0.019000000  -41.070896   54.694336  -90.111051   42.157356    0.000000    0.000000    0.000000    0.000000
  0.019200000  -40.903052   54.710724  -90.876887   37.619736    0.000000    0.000000    0.000000    0.000000
  0.019400000  -40.832861   53.417301  -90.921340   40.322598    0.000000    0.000000    0.000000    0.000000
  0.019600000  -40.719373   53.948879  -90.652785   40.250664    0.000000    0.000000    0.000000    0.000000
  0.019800000  -40.767462   54.661366  -91.537855   36.634712    0.000000    0.000000    0.000000    0.000000
  0.020000000  -40.682596   53.957428  -91.890267   37.598282    0.000000    0.000000    0.000000    0.000000
  0.020200000  -40.668500   54.014458  -91.507514   39.219139    0.000000    0.000000    0.000000    0.000000
  0.020400000  -40.648431   55.040558  -91.236878   34.386433    0.000000    0.000000    0.000000    0.000000
  0.020600000  -40.547219   53.770111  -92.290815   40.948330    0.000000    0.000000    0.000000    0.000000
  0.020800000  -40.488655   53.283440  -91.349786   35.399086    0.000000    0.000000    0.000000    0.000000
  0.021000000  -40.526568   54.183342  -91.961085   41.521221    0.000000    0.000000    0.000000    0.000000
  0.021200000  -40.433852   52.630943  -92.722112   37.958073    0.000000    0.000000    0.000000    0.000000
  0.021400000  -40.262614   53.127502  -92.206547   32.566486    0.000000    0.000000    0.000000    0.000000
  0.021600000  -40.117418   52.729969  -92.724119   34.017727    0.000000    0.000000    0.000000    0.000000
  0.021800000  -40.056877   52.612675  -91.433234   33.532951    0.000000    0.000000    0.000000    0.000000
  0.022000000  -40.119685   51.252598  -92.814378   35.368916    0.000000    0.000000    0.000000    0.000000
  0.022200000  -40.011669   52.420784  -92.209304   41.579983    0.000000    0.000000    0.000000    0.000000
  0.022400000  -39.897969   51.831734  -91.893270   28.885351    0.000000    0.000000    0.000000    0.000000
  0.022600000  -39.827666   51.996124  -92.134421   35.014885    0.000000    0.000000    0.000000    0.000000
  0.022800000  -39.787071   51.006073  -92.557166   33.645279    0.000000    0.000000    0.000000    0.000000
  0.023000000  -39.778937   50.818336  -92.141984   26.531456    0.000000    0.000000    0.000000    0.000000
  0.023200000  -39.562842   50.959988  -93.188534   32.278660    0.000000    0.000000    0.000000    0.000000
  0.023400000  -39.659452   51.393364  -92.269075   26.063889    0.000000    0.000000    0.000000    0.000000
  0.023600000  -39.446019   50.830101  -93.183107   35.943565    0.000000    0.000000    0.000000    0.000000
  0.023800000  -39.443329   50.513062  -93.493690   25.370718    0.000000    0.000000    0.000000    0.000000
  0.024000000  -39.406048   51.660851  -92.778798   28.075878    0.000000    0.000000    0.000000    0.000000
  0.024200000  -39.220556   51.790165  -93.273535   29.681229    0.000000    0.000000    0.000000    0.000000
  0.024400000  -39.265601   51.328442  -92.982340   28.399790    0.000000    0.000000    0.000000    0.000000
  0.024600000  -39.125155   51.471714  -93.753719   26.367292    0.000000    0.000000    0.000000    0.000000
  0.024800000  -39.120057   51.554752  -94.042736   23.215746    0.000000    0.000000    0.000000    0.000000
  0.025000000  -39.059052   50.443535  -94.627904   24.245113    0.000000    0.000000    0.000000    0.000000
  0.025200000  -39.018274   51.429741  -94.327760   31.763887    0.000000    0.000000    0.000000    0.000000
  0.025400000  -38.990654   50.575512  -94.248106   24.199265    0.000000    0.000000    0.000000    0.000000
  0.025600000  -38.872033   51.277416  -93.833935   22.012394    0.000000    0.000000    0.000000    0.000000
  0.025800000  -38.815908   51.165031  -93.755474   21.983278    0.000000    0.000000    0.000000    0.000000
  0.026000000  -38.822469   51.046391  -95.449023   24.192070    0.000000    0.000000    0.000000    0.000000
  0.026200000  -38.731195   50.830910  -94.980325   15.725766    0.000000    0.000000    0.000000    0.000000
  0.026400000  -38.771901   51.139698  -94.817243   17.782909    0.000000    0.000000    0.000000    0.000000
  0.026600000  -38.782907   51.163666  -95.103052   18.426361    0.000000    0.000000    0.000000    0.000000
  0.026800000  -38.675366   50.805103  -95.175095   18.074614    0.000000    0.000000    0.000000    0.000000
  0.027000000  -38.474697   50.357689  -94.909658   14.008820    0.000000    0.000000    0.000000    0.000000
  0.027200000  -38.543657   50.136253  -96.219624   28.414787    0.000000    0.000000    0.000000    0.000000
  0.027400000  -38.489188   50.585625  -96.374203   27.086687    0.000000    0.000000    0.000000    0.000000
  0.027600000  -38.425534   50.463596  -95.597386   24.591759    0.000000    0.000000    0.000000    0.000000
  0.027800000  -38.436292   50.586319  -96.810512   21.863720    0.000000    0.000000    0.000000    0.000000
  0.028000000  -38.471583   50.794033  -96.253534   26.807220    0.000000    0.000000    0.000000    0.000000
  0.028200000  -38.341049   50.408970  -95.684231   20.671234    0.000000    0.000000    0.000000    0.000000
  0.028400000  -38.365385   50.177517  -96.264079   13.966681    0.000000    0.000000    0.000000    0.000000
  0.028600000  -38.350150   49.912582  -95.749265   21.649054    0.000000    0.000000    0.000000    0.000000
  0.028800000  -38.320700   50.353516  -95.292448   22.576595    0.000000    0.000000    0.000000    0.000000
  0.029000000  -38.240965   49.613823  -96.483710   20.396414    0.000000    0.000000    0.000000    0.000000
  0.029200000  -38.295921   49.351624  -95.584553   17.431511    0.000000    0.000000    0.000000    0.000000
  0.029400000  -38.166745   49.227856  -96.505207   18.813259    0.000000    0.000000    0.000000    0.000000
  0.029600000  -38.201560   49.407017  -96.112610   13.115191    0.000000    0.000000    0.000000    0.000000
  0.029800000  -38.203285   49.180733  -96.475940   18.282309    0.000000    0.000000    0.000000    0.000000
  0.030000000  -38.216158   49.294598  -95.649904   17.152397    0.000000    0.000000    0.000000    0.000000
  0.030200000  -38.218222   49.163692  -96.051622    7.955218    0.000000    0.000000    0.000000    0.000000
  0.030400000  -38.024713   48.748959  -97.524207   14.746202    0.000000    0.000000    0.000000    0.000000
  0.030600000  -38.055577   47.702080  -96.174372   29.191010    0.000000    0.000000    0.000000    0.000000
  0.030800000  -38.041873   47.835312  -98.214958   14.991640    0.000000    0.000000    0.000000    0.000000
  0.031000000  -37.977271   47.236126  -96.929931   17.680082    0.000000    0.000000    0.000000    0.000000
  0.031200000  -37.927533   48.423306  -97.026256    9.102393    0.000000    0.000000    0.000000    0.000000
  0.031400000  -37.895459   48.269577  -97.147502   14.287163    0.000000    0.000000    0.000000    0.000000
  0.031600000  -37.889847   46.722488  -99.133894   16.821386    0.000000    0.000000    0.000000    0.000000
  0.031800000  -37.925402   46.660255  -97.302457   22.951588    0.000000    0.000000    0.000000    0.000000
  0.032000000  -37.799548   46.484829  -97.517063   18.216816    0.000000    0.000000    0.000000    0.000000
  0.032200000  -37.736507   46.484024  -97.440162   18.834890    0.000000    0.000000    0.000000    0.000000
  0.032400000  -37.757430   46.760170  -97.798782   17.888851    0.000000    0.000000    0.000000    0.000000
  0.032600000  -37.579984   45.958675  -98.764257    8.224745    0.000000    0.000000    0.000000    0.000000
  0.032800000  -37.645638   46.559219  -96.099040    5.702406    0.000000    0.000000    0.000000    0.000000
  0.033000000  -37.613554   45.427124  -98.205425    9.180927    0.000000    0.000000    0.000000    0.000000
  0.033200000  -37.504684   46.509823  -97.327602   11.169129    0.000000    0.000000    0.000000    0.000000
  0.033400000  -37.498218   45.229149  -98.173315   26.271992    0.000000    0.000000    0.000000    0.000000
  0.033600000  -37.403881   45.283585  -96.389184   16.365101    0.000000    0.000000    0.000000    0.000000
  0.033800000  -37.488774   44.972721  -99.145956   16.326639    0.000000    0.000000    0.000000    0.000000
  0.034000000  -37.316644   45.136063  -99.168259    5.632056    0.000000    0.000000    0.000000    0.000000
  0.034200000  -37.303231   44.678936  -97.330310   10.653608    0.000000    0.000000    0.000000    0.000000
  0.034400000  -37.210078   44.068871  -98.545988    6.905569    0.000000    0.000000    0.000000    0.000000
  0.034600000  -37.102631   43.898228  -97.034983   24.572378    0.000000    0.000000    0.000000    0.000000
  0.034800000  -37.170744   43.434071  -98.152107   33.044624    0.000000    0.000000    0.000000    0.000000
  0.035000000  -37.190155   43.738163  -97.263405    1.797830    0.000000    0.000000    0.000000    0.000000
  0.035200000  -37.102451   43.201286  -98.185204   13.610274    0.000000    0.000000    0.000000    0.000000
  0.035400000  -37.005998   43.641991  -97.386168    7.478460    0.000000    0.000000    0.000000    0.000000
  0.035600000  -36.967167   43.507572  -98.249774   -6.923117    0.000000    0.000000    0.000000    0.000000
  0.035800000  -36.908751   43.208794  -99.368382   13.214684    0.000000    0.000000    0.000000    0.000000
  0.036000000  -36.910812   42.397720  -99.871874   -2.810112    0.000000    0.000000    0.000000    0.000000
  0.036200000  -36.822059   42.569187  -95.601414   13.566351    0.000000    0.000000    0.000000    0.000000
  0.036400000  -36.764228   42.662071 -100.068381    4.604674    0.000000    0.000000    0.000000    0.000000
  0.036600000  -36.794430   42.073368  -98.416255   13.504109    0.000000    0.000000    0.000000    0.000000
  0.036800000  -36.721731   42.741707  -99.391880   -3.131416    0.000000    0.000000    0.000000    0.000000
  0.037000000  -36.763422   42.548313  -99.155530   -3.280921    0.000000    0.000000    0.000000    0.000000
  0.037200000  -36.567530   41.795338  -99.059860   11.745612    0.000000    0.000000    0.000000    0.000000
  0.037400000  -36.609022   41.246361  -99.198965    1.244879    0.000000    0.000000    0.000000    0.000000
  0.037600000  -36.514378   41.574665 -101.441733    0.728201    0.000000    0.000000    0.000000    0.000000
  0.037800000  -36.429665   41.721676 -100.512719   -1.777471    0.000000    0.000000    0.000000    0.000000
  0.038000000  -36.505895   41.298004  -98.328535    2.790292    0.000000    0.000000    0.000000    0.000000
  0.038200000  -36.380633   40.304203  -99.775188   12.150776    0.000000    0.000000    0.000000    0.000000
  0.038400000  -36.318818   40.698719 -100.090640    3.972715    0.000000    0.000000    0.000000    0.000000
  0.038600000  -36.263886   39.998131 -100.379992   -1.236709    0.000000    0.000000    0.000000    0.000000
  0.038800000  -36.225990   40.179615  -98.104756    8.911146    0.000000    0.000000    0.000000    0.000000
  0.039000000  -36.167592   39.870670  -98.390990   13.003452    0.000000    0.000000    0.000000    0.000000
  0.039200000  -36.095705   40.011631  -98.493940   18.804485    0.000000    0.000000    0.000000    0.000000
  0.039400000  -36.020072   40.320599 -101.126147    3.485240    0.000000    0.000000    0.000000    0.000000
  0.039600000  -36.051014   40.200912  -98.387923    2.555463    0.000000    0.000000    0.000000    0.000000
  0.039800000  -35.897294   40.787262  -99.755128    8.292074    0.000000    0.000000    0.000000    0.000000
  0.040000000  -35.797860   39.841751 -100.128265   -7.503468    0.000000    0.000000    0.000000    0.000000
  0.040200000  -35.716709   40.821499 -101.155124    7.615108    0.000000    0.000000    0.000000    0.000000
  0.040400000  -35.771272   40.836063 -100.697434   19.157297    0.000000    0.000000    0.000000    0.000000
  0.040600000  -35.750856   40.452999 -100.775317   11.315424    0.000000    0.000000    0.000000    0.000000
  0.040800000  -35.656755   40.650711  -98.268795    0.877626    0.000000    0.000000    0.000000    0.000000
  0.041000000  -35.533594   40.374531  -99.331130    2.501307    0.000000    0.000000    0.000000    0.000000
  0.041200000  -35.638091   40.117157 -100.172566   30.456982    0.000000    0.000000    0.000000    0.000000
  0.041400000  -35.537004   40.158707 -100.144933   12.250379    0.000000    0.000000    0.000000    0.000000
  0.041600000  -35.568111   40.562012 -103.065283   -4.883618    0.000000    0.000000    0.000000    0.000000
  0.041800000  -35.398374   40.261871 -103.629924   19.246099    0.000000    0.000000    0.000000    0.000000
  0.042000000  -35.457784   40.212166 -101.206492    4.707508    0.000000    0.000000    0.000000    0.000000
  0.042200000  -35.478803   40.369381 -102.185920    2.905442    0.000000    0.000000    0.000000    0.000000
  0.042400000  -35.329209   40.334435  -98.817616   -1.090175    0.000000    0.000000    0.000000    0.000000
  0.042600000  -35.352958   40.343060  -99.857739   17.011272    0.000000    0.000000    0.000000    0.000000
  0.042800000  -35.365301   40.362885  -99.080998    9.867400    0.000000    0.000000    0.000000    0.000000
