! Anritsu VNA Master:                     Model: MS2036C/10/77
! SN:                                  1601066
! /card0/usr/256.ew.n.r200.12.s2p
! Existing Calibration Information:
! TYPE:                         Current Settings,       Active Cal Settings
! TIME:             	   12/19/2017 03:02:42 PM,    12/19/2017 02:53:44 PM
! INTERNAL TEMP:    	                   46.8 C,                    46.3 C
! # POINTS:         	                      501,                       501
! START FREQ:       	               10.000 MHz,                10.000 MHz
! STOP FREQ:        	              110.000 MHz,               110.000 MHz
! SOURCE POWER:     	                     High,                      High
! IFBW:             	                   100 Hz,                    100 Hz
! AVG FACTOR:       	                       1 ,                        1 
! REF PLANE 1:      	                     0 mm,                      0 mm
! REF PLANE 2:      	                     0 mm,                      0 mm
! CAL TYPE:         	                 Full S11,                  Full S11
! CAL METHOD:       	                     SOLT,                      SOLT
! CAL LINE TYPE:    	                     Coax,                      Coax
! DUT PORT 1:       	                N-Conn(F),                 N-Conn(F)
! DUT PORT 2:       	                K-Conn(F),                 K-Conn(F)
! CAL STATUS:       	        OK: Accuracy High,                        --
# GHZ S DB R 50.0
! FREQ.GHZ       S11DB        S11A       S21DB        S21A       S12DB        S12A       S22DB        S22A
  0.010000000   -4.554446  -11.369956  -84.356752   74.498901    0.000000    0.000000    0.000000    0.000000
  0.010200000   -4.543090  -11.583344  -84.390248   75.760643    0.000000    0.000000    0.000000    0.000000
  0.010400000   -4.540280  -11.842257  -85.073128   75.439774    0.000000    0.000000    0.000000    0.000000
  0.010600000   -4.542237  -12.026546  -84.681001   75.711021    0.000000    0.000000    0.000000    0.000000
  0.010800000   -4.548651  -12.270165  -84.707873   76.459190    0.000000    0.000000    0.000000    0.000000
  0.011000000   -4.551237  -12.502318  -85.230499   75.478790    0.000000    0.000000    0.000000    0.000000
  0.011200000   -4.553437  -12.754484  -85.207125   76.084404    0.000000    0.000000    0.000000    0.000000
  0.011400000   -4.551959  -12.995169  -85.227692   78.085770    0.000000    0.000000    0.000000    0.000000
  0.011600000   -4.552162  -13.211373  -84.793750   73.665695    0.000000    0.000000    0.000000    0.000000
  0.011800000   -4.550150  -13.443293  -84.669280   72.562515    0.000000    0.000000    0.000000    0.000000
  0.012000000   -4.548914  -13.699274  -85.142729   73.878639    0.000000    0.000000    0.000000    0.000000
  0.012200000   -4.548659  -13.938132  -85.342218   71.150742    0.000000    0.000000    0.000000    0.000000
  0.012400000   -4.549910  -14.172848  -84.888305   69.369247    0.000000    0.000000    0.000000    0.000000
  0.012600000   -4.549644  -14.423783  -85.277293   67.014107    0.000000    0.000000    0.000000    0.000000
  0.012800000   -4.551875  -14.649590  -85.449483   65.819427    0.000000    0.000000    0.000000    0.000000
  0.013000000   -4.551061  -14.876122  -85.368998   65.907860    0.000000    0.000000    0.000000    0.000000
  0.013200000   -4.550868  -15.101244  -85.283891   64.435776    0.000000    0.000000    0.000000    0.000000
  0.013400000   -4.552773  -15.354578  -85.331789   64.000381    0.000000    0.000000    0.000000    0.000000
  0.013600000   -4.547292  -15.571630  -85.494293   59.724472    0.000000    0.000000    0.000000    0.000000
  0.013800000   -4.548006  -15.792451  -85.463372   57.408001    0.000000    0.000000    0.000000    0.000000
  0.014000000   -4.549135  -16.035870  -86.339151   54.933502    0.000000    0.000000    0.000000    0.000000
  0.014200000   -4.548603  -16.260132  -86.565748   54.593819    0.000000    0.000000    0.000000    0.000000
  0.014400000   -4.549921  -16.528086  -86.635295   54.120461    0.000000    0.000000    0.000000    0.000000
  0.014600000   -4.550328  -16.732744  -86.797607   49.098301    0.000000    0.000000    0.000000    0.000000
  0.014800000   -4.550248  -16.973074  -87.246477   48.034855    0.000000    0.000000    0.000000    0.000000
  0.015000000   -4.549882  -17.207754  -87.234276   48.782299    0.000000    0.000000    0.000000    0.000000
  0.015200000   -4.553083  -17.432558  -87.705106   49.038780    0.000000    0.000000    0.000000    0.000000
  0.015400000   -4.552920  -17.686493  -88.124238   47.342915    0.000000    0.000000    0.000000    0.000000
  0.015600000   -4.548065  -17.848232  -88.040501   43.749474    0.000000    0.000000    0.000000    0.000000
  0.015800000   -4.554907  -18.142466  -87.837888   47.368858    0.000000    0.000000    0.000000    0.000000
  0.016000000   -4.555612  -18.389061  -88.775707   41.874325    0.000000    0.000000    0.000000    0.000000
  0.016200000   -4.556010  -18.599712  -88.808246   44.731827    0.000000    0.000000    0.000000    0.000000
  0.016400000   -4.559973  -18.853762  -89.227741   45.068222    0.000000    0.000000    0.000000    0.000000
  0.016600000   -4.560583  -19.080158  -89.456676   45.799984    0.000000    0.000000    0.000000    0.000000
  0.016800000   -4.560134  -19.313997  -89.645193   47.169556    0.000000    0.000000    0.000000    0.000000
  0.017000000   -4.560733  -19.549982  -89.493890   45.715904    0.000000    0.000000    0.000000    0.000000
  0.017200000   -4.557820  -19.789333  -90.252720   45.411263    0.000000    0.000000    0.000000    0.000000
  0.017400000   -4.554607  -20.009718  -90.308812   44.987923    0.000000    0.000000    0.000000    0.000000
  0.017600000   -4.555097  -20.266594  -90.356566   45.384842    0.000000    0.000000    0.000000    0.000000
  0.017800000   -4.554602  -20.485012  -89.657917   47.071426    0.000000    0.000000    0.000000    0.000000
  0.018000000   -4.558457  -20.714258  -90.195355   46.924030    0.000000    0.000000    0.000000    0.000000
  0.018200000   -4.559350  -20.945797  -90.620731   44.185745    0.000000    0.000000    0.000000    0.000000
  0.018400000   -4.562608  -21.176517  -90.028799   45.894054    0.000000    0.000000    0.000000    0.000000
  0.018600000   -4.563753  -21.411148  -90.187539   44.057381    0.000000    0.000000    0.000000    0.000000
  0.018800000   -4.564007  -21.646914  -90.590638   48.262356    0.000000    0.000000    0.000000    0.000000
  0.019000000   -4.561437  -21.878832  -90.089583   45.167110    0.000000    0.000000    0.000000    0.000000
  0.019200000   -4.560207  -22.089384  -90.546851   44.591351    0.000000    0.000000    0.000000    0.000000
  0.019400000   -4.564005  -22.325323  -90.559791   42.400238    0.000000    0.000000    0.000000    0.000000
  0.019600000   -4.563555  -22.540995  -90.601375   44.247837    0.000000    0.000000    0.000000    0.000000
  0.019800000   -4.564044  -22.765984  -90.537465   43.517624    0.000000    0.000000    0.000000    0.000000
  0.020000000   -4.562768  -22.987803  -90.877386   41.826347    0.000000    0.000000    0.000000    0.000000
  0.020200000   -4.561064  -23.239698  -90.656907   37.207935    0.000000    0.000000    0.000000    0.000000
  0.020400000   -4.561287  -23.478168  -91.339088   31.143425    0.000000    0.000000    0.000000    0.000000
  0.020600000   -4.557218  -23.698408  -90.538988   34.566082    0.000000    0.000000    0.000000    0.000000
  0.020800000   -4.556220  -23.934368  -91.160257   38.997829    0.000000    0.000000    0.000000    0.000000
  0.021000000   -4.559324  -24.160336  -91.859609   43.079639    0.000000    0.000000    0.000000    0.000000
  0.021200000   -4.560874  -24.404770  -90.769714   33.891579    0.000000    0.000000    0.000000    0.000000
  0.021400000   -4.560946  -24.659893  -92.045523   29.463486    0.000000    0.000000    0.000000    0.000000
  0.021600000   -4.560784  -24.857166  -90.890125   28.707705    0.000000    0.000000    0.000000    0.000000
  0.021800000   -4.562690  -25.091293  -92.263308   25.948765    0.000000    0.000000    0.000000    0.000000
  0.022000000   -4.565383  -25.323385  -93.096560   30.523565    0.000000    0.000000    0.000000    0.000000
  0.022200000   -4.567590  -25.569145  -92.906095   23.392973    0.000000    0.000000    0.000000    0.000000
  0.022400000   -4.567625  -25.798157  -92.648234   26.419086    0.000000    0.000000    0.000000    0.000000
  0.022600000   -4.566015  -25.990721  -93.142427   27.844170    0.000000    0.000000    0.000000    0.000000
  0.022800000   -4.568166  -26.226746  -93.348684   28.036520    0.000000    0.000000    0.000000    0.000000
  0.023000000   -4.568028  -26.464729  -93.114686   26.790211    0.000000    0.000000    0.000000    0.000000
  0.023200000   -4.570135  -26.711843  -94.025495   26.952454    0.000000    0.000000    0.000000    0.000000
  0.023400000   -4.573219  -27.007629  -93.833951   29.507196    0.000000    0.000000    0.000000    0.000000
  0.023600000   -4.572606  -27.182287  -94.635459   31.373945    0.000000    0.000000    0.000000    0.000000
  0.023800000   -4.573743  -27.401951  -94.943088   30.383747    0.000000    0.000000    0.000000    0.000000
  0.024000000   -4.568425  -27.674147  -94.485250   23.328463    0.000000    0.000000    0.000000    0.000000
  0.024200000   -4.561218  -27.901146  -93.839746   23.615538    0.000000    0.000000    0.000000    0.000000
  0.024400000   -4.563142  -28.148033  -94.187761   30.483917    0.000000    0.000000    0.000000    0.000000
  0.024600000   -4.561772  -28.393322  -94.976716   26.094927    0.000000    0.000000    0.000000    0.000000
  0.024800000   -4.563212  -28.624277  -93.733022   25.241856    0.000000    0.000000    0.000000    0.000000
  0.025000000   -4.565982  -28.858994  -94.723574   31.363678    0.000000    0.000000    0.000000    0.000000
  0.025200000   -4.566896  -29.076260  -94.127219   24.575972    0.000000    0.000000    0.000000    0.000000
  0.025400000   -4.564824  -29.300652  -93.666567   30.331053    0.000000    0.000000    0.000000    0.000000
  0.025600000   -4.564951  -29.505245  -93.868868   33.750317    0.000000    0.000000    0.000000    0.000000
  0.025800000   -4.569606  -29.701187  -94.034853   30.895426    0.000000    0.000000    0.000000    0.000000
  0.026000000   -4.570857  -29.897896  -94.322729   21.209978    0.000000    0.000000    0.000000    0.000000
  0.026200000   -4.573924  -30.122169  -94.010763   20.693066    0.000000    0.000000    0.000000    0.000000
  0.026400000   -4.577320  -30.355022  -94.470516   23.641981    0.000000    0.000000    0.000000    0.000000
  0.026600000   -4.579238  -30.577770  -94.166349   21.614862    0.000000    0.000000    0.000000    0.000000
  0.026800000   -4.579351  -30.823868  -96.262461   14.889091    0.000000    0.000000    0.000000    0.000000
  0.027000000   -4.575933  -31.067562  -95.543720   29.301603    0.000000    0.000000    0.000000    0.000000
  0.027200000   -4.579220  -31.310991  -95.054732   19.685703    0.000000    0.000000    0.000000    0.000000
  0.027400000   -4.578036  -31.558079  -94.419868   17.279974    0.000000    0.000000    0.000000    0.000000
  0.027600000   -4.581886  -31.808416  -95.870400   26.548422    0.000000    0.000000    0.000000    0.000000
  0.027800000   -4.582645  -32.062347  -95.386029   13.010695    0.000000    0.000000    0.000000    0.000000
  0.028000000   -4.588378  -32.311001  -95.661429   16.504988    0.000000    0.000000    0.000000    0.000000
  0.028200000   -4.587277  -32.582493  -95.919140   12.327854    0.000000    0.000000    0.000000    0.000000
  0.028400000   -4.585028  -32.849503  -96.658536   16.683407    0.000000    0.000000    0.000000    0.000000
  0.028600000   -4.580364  -33.063683  -94.963166    9.839029    0.000000    0.000000    0.000000    0.000000
  0.028800000   -4.577620  -33.284016  -96.235264   16.624958    0.000000    0.000000    0.000000    0.000000
  0.029000000   -4.576444  -33.485199  -96.003767   21.709534    0.000000    0.000000    0.000000    0.000000
  0.029200000   -4.574962  -33.687782  -95.781544   11.297038    0.000000    0.000000    0.000000    0.000000
  0.029400000   -4.576181  -33.868607  -96.203462   17.706068    0.000000    0.000000    0.000000    0.000000
  0.029600000   -4.579665  -34.091503  -97.481903   13.236781    0.000000    0.000000    0.000000    0.000000
  0.029800000   -4.582053  -34.294464  -98.033498   19.308502    0.000000    0.000000    0.000000    0.000000
  0.030000000   -4.588075  -34.525242  -96.241014   24.211950    0.000000    0.000000    0.000000    0.000000
  0.030200000   -4.595679  -34.792862  -95.843336   21.098335    0.000000    0.000000    0.000000    0.000000
  0.030400000   -4.600452  -35.042625  -97.016861   17.272650    0.000000    0.000000    0.000000    0.000000
  0.030600000   -4.600432  -35.310867  -99.211317   22.982479    0.000000    0.000000    0.000000    0.000000
  0.030800000   -4.600104  -35.586205  -98.190777   18.035818    0.000000    0.000000    0.000000    0.000000
  0.031000000   -4.598190  -35.847584  -97.312870   17.811834    0.000000    0.000000    0.000000    0.000000
  0.031200000   -4.595418  -36.088734  -97.164842   28.006197    0.000000    0.000000    0.000000    0.000000
  0.031400000   -4.594524  -36.343678  -95.190397   27.191233    0.000000    0.000000    0.000000    0.000000
  0.031600000   -4.592704  -36.605904  -98.559090    5.489781    0.000000    0.000000    0.000000    0.000000
  0.031800000   -4.584838  -36.849812  -99.263947   27.098745    0.000000    0.000000    0.000000    0.000000
  0.032000000   -4.578672  -37.094349  -96.515664   18.257771    0.000000    0.000000    0.000000    0.000000
  0.032200000   -4.572510  -37.304691  -98.049616   27.834173    0.000000    0.000000    0.000000    0.000000
  0.032400000   -4.566104  -37.520168  -96.489256   17.084587    0.000000    0.000000    0.000000    0.000000
  0.032600000   -4.561896  -37.729031  -96.777788   17.634947    0.000000    0.000000    0.000000    0.000000
  0.032800000   -4.558391  -37.942120  -96.762600   11.309197    0.000000    0.000000    0.000000    0.000000
  0.033000000   -4.553867  -38.129700  -97.332818   17.387272    0.000000    0.000000    0.000000    0.000000
  0.033200000   -4.555278  -38.331230  -98.459246    8.595442    0.000000    0.000000    0.000000    0.000000
  0.033400000   -4.553931  -38.540184  -96.669278   17.507038    0.000000    0.000000    0.000000    0.000000
  0.033600000   -4.557753  -38.739803  -96.672505   12.603108    0.000000    0.000000    0.000000    0.000000
  0.033800000   -4.562300  -38.979527  -98.989401   10.496407    0.000000    0.000000    0.000000    0.000000
  0.034000000   -4.564513  -39.196365  -98.205459   15.415993    0.000000    0.000000    0.000000    0.000000
  0.034200000   -4.565280  -39.431862  -97.846819    5.530391    0.000000    0.000000    0.000000    0.000000
  0.034400000   -4.568630  -39.670738  -99.468672   11.309034    0.000000    0.000000    0.000000    0.000000
  0.034600000   -4.574017  -39.890881  -98.964078   15.661287    0.000000    0.000000    0.000000    0.000000
  0.034800000   -4.576773  -40.141148  -99.311613   -2.839208    0.000000    0.000000    0.000000    0.000000
  0.035000000   -4.583243  -40.406590  -98.424747   11.244743    0.000000    0.000000    0.000000    0.000000
  0.035200000   -4.584943  -40.645924  -98.749717   19.961590    0.000000    0.000000    0.000000    0.000000
  0.035400000   -4.589454  -40.903297  -98.223928   14.543790    0.000000    0.000000    0.000000    0.000000
  0.035600000   -4.588079  -41.126072  -99.563084    9.107881    0.000000    0.000000    0.000000    0.000000
  0.035800000   -4.590181  -41.384232  -97.690216   10.545520    0.000000    0.000000    0.000000    0.000000
  0.036000000   -4.585959  -41.617638 -100.224125   15.422287    0.000000    0.000000    0.000000    0.000000
  0.036200000   -4.586444  -41.854698  -98.918743    7.337396    0.000000    0.000000    0.000000    0.000000
  0.036400000   -4.583767  -42.102757  -97.481268   16.425421    0.000000    0.000000    0.000000    0.000000
  0.036600000   -4.579618  -42.340416  -99.638917   20.461115    0.000000    0.000000    0.000000    0.000000
  0.036800000   -4.574995  -42.575729  -99.397153    3.587600    0.000000    0.000000    0.000000    0.000000
  0.037000000   -4.571679  -42.770618  -97.832842   16.270130    0.000000    0.000000    0.000000    0.000000
  0.037200000   -4.570059  -42.926308  -97.935414    8.844474    0.000000    0.000000    0.000000    0.000000
  0.037400000   -4.571367  -43.135487  -99.616857    3.276389    0.000000    0.000000    0.000000    0.000000
  0.037600000   -4.576789  -43.350502  -98.355867   15.584953    0.000000    0.000000    0.000000    0.000000
  0.037800000   -4.585207  -43.574482  -98.793895   26.155327    0.000000    0.000000    0.000000    0.000000
  0.038000000   -4.591565  -43.830029  -98.491375   15.446683    0.000000    0.000000    0.000000    0.000000
  0.038200000   -4.598774  -44.067669  -97.564266    2.756239    0.000000    0.000000    0.000000    0.000000
  0.038400000   -4.606521  -44.348621  -98.358076   11.915732    0.000000    0.000000    0.000000    0.000000
  0.038600000   -4.608073  -44.573849  -98.381598   -5.905645    0.000000    0.000000    0.000000    0.000000
  0.038800000   -4.610233  -44.842323 -101.837737   11.970157    0.000000    0.000000    0.000000    0.000000
  0.039000000   -4.608884  -45.104137  -99.423656   16.361525    0.000000    0.000000    0.000000    0.000000
  0.039200000   -4.609517  -45.385033  -99.556543    2.620621    0.000000    0.000000    0.000000    0.000000
  0.039400000   -4.606408  -45.644348 -100.589005    2.715617    0.000000    0.000000    0.000000    0.000000
  0.039600000   -4.600337  -45.867188  -99.346958   -7.264041    0.000000    0.000000    0.000000    0.000000
  0.039800000   -4.593648  -46.115101  -99.818305   -0.873645    0.000000    0.000000    0.000000    0.000000
  0.040000000   -4.590177  -46.322182 -100.682680   -0.668285    0.000000    0.000000    0.000000    0.000000
  0.040200000   -4.582750  -46.536945 -100.725150    9.333642    0.000000    0.000000    0.000000    0.000000
  0.040400000   -4.583706  -46.748302  -99.091779    5.197639    0.000000    0.000000    0.000000    0.000000
  0.040600000   -4.578962  -46.945328  -98.716667    4.908985    0.000000    0.000000    0.000000    0.000000
  0.040800000   -4.581073  -47.127506  -99.808540    4.336989    0.000000    0.000000    0.000000    0.000000
  0.041000000   -4.584597  -47.330101 -102.777971    3.725342    0.000000    0.000000    0.000000    0.000000
  0.041200000   -4.589973  -47.568447 -101.565451   10.038675    0.000000    0.000000    0.000000    0.000000
  0.041400000   -4.593312  -47.784790 -102.477154   21.280254    0.000000    0.000000    0.000000    0.000000
  0.041600000   -4.599249  -48.040882 -103.226661   15.032490    0.000000    0.000000    0.000000    0.000000
  0.041800000   -4.601734  -48.268642 -101.332773   21.842007    0.000000    0.000000    0.000000    0.000000
  0.042000000   -4.603982  -48.497108  -99.470550    8.672147    0.000000    0.000000    0.000000    0.000000
  0.042200000   -4.608641  -48.769371 -102.692302    7.500804    0.000000    0.000000    0.000000    0.000000
  0.042400000   -4.611355  -48.963131 -101.705036   18.257460    0.000000    0.000000    0.000000    0.000000
  0.042600000   -4.610470  -49.188560 -100.418149   10.328088    0.000000    0.000000    0.000000    0.000000
  0.042800000   -4.611928  -49.435715 -104.189372   -0.777861    0.000000    0.000000    0.000000    0.000000
