! Anritsu VNA Master:                     Model: MS2036C/10/77
! SN:                                  1601066
! /card0/usr/256.ew.n.r200.22.s2p
! Existing Calibration Information:
! TYPE:                         Current Settings,       Active Cal Settings
! TIME:             	   12/19/2017 03:12:48 PM,    12/19/2017 02:53:44 PM
! INTERNAL TEMP:    	                   46.8 C,                    46.3 C
! # POINTS:         	                      501,                       501
! START FREQ:       	               10.000 MHz,                10.000 MHz
! STOP FREQ:        	              110.000 MHz,               110.000 MHz
! SOURCE POWER:     	                     High,                      High
! IFBW:             	                   100 Hz,                    100 Hz
! AVG FACTOR:       	                       1 ,                        1 
! REF PLANE 1:      	                     0 mm,                      0 mm
! REF PLANE 2:      	                     0 mm,                      0 mm
! CAL TYPE:         	                 Full S11,                  Full S11
! CAL METHOD:       	                     SOLT,                      SOLT
! CAL LINE TYPE:    	                     Coax,                      Coax
! DUT PORT 1:       	                N-Conn(F),                 N-Conn(F)
! DUT PORT 2:       	                K-Conn(F),                 K-Conn(F)
! CAL STATUS:       	        OK: Accuracy High,                        --
# GHZ S DB R 50.0
! FREQ.GHZ       S11DB        S11A       S21DB        S21A       S12DB        S12A       S22DB        S22A
  0.010000000   -4.557130  -11.403641  -84.476719   78.536774    0.000000    0.000000    0.000000    0.000000
  0.010200000   -4.550178  -11.590760  -84.599677   77.712578    0.000000    0.000000    0.000000    0.000000
  0.010400000   -4.545104  -11.855354  -85.060650   75.310989    0.000000    0.000000    0.000000    0.000000
  0.010600000   -4.546190  -12.044264  -84.994722   75.969711    0.000000    0.000000    0.000000    0.000000
  0.010800000   -4.545896  -12.315400  -84.660509   76.442207    0.000000    0.000000    0.000000    0.000000
  0.011000000   -4.545862  -12.533485  -85.248865   73.120438    0.000000    0.000000    0.000000    0.000000
  0.011200000   -4.549036  -12.786695  -84.783797   74.186310    0.000000    0.000000    0.000000    0.000000
  0.011400000   -4.550519  -13.028126  -85.571109   76.487808    0.000000    0.000000    0.000000    0.000000
  0.011600000   -4.549999  -13.256424  -85.068963   73.908470    0.000000    0.000000    0.000000    0.000000
  0.011800000   -4.546518  -13.466504  -85.195788   76.734482    0.000000    0.000000    0.000000    0.000000
  0.012000000   -4.543890  -13.733490  -85.085480   74.848610    0.000000    0.000000    0.000000    0.000000
  0.012200000   -4.545191  -13.978484  -85.018330   70.808914    0.000000    0.000000    0.000000    0.000000
  0.012400000   -4.548699  -14.220618  -85.000840   69.693634    0.000000    0.000000    0.000000    0.000000
  0.012600000   -4.547344  -14.453236  -85.182572   68.201759    0.000000    0.000000    0.000000    0.000000
  0.012800000   -4.546134  -14.675079  -85.098437   68.871918    0.000000    0.000000    0.000000    0.000000
  0.013000000   -4.547698  -14.911764  -84.824724   65.896042    0.000000    0.000000    0.000000    0.000000
  0.013200000   -4.546912  -15.139585  -85.395463   65.666275    0.000000    0.000000    0.000000    0.000000
  0.013400000   -4.549350  -15.381984  -85.257544   59.323265    0.000000    0.000000    0.000000    0.000000
  0.013600000   -4.545111  -15.609179  -85.600707   59.035381    0.000000    0.000000    0.000000    0.000000
  0.013800000   -4.544031  -15.817287  -85.798875   58.060875    0.000000    0.000000    0.000000    0.000000
  0.014000000   -4.545010  -16.062561  -85.927245   57.508976    0.000000    0.000000    0.000000    0.000000
  0.014200000   -4.545765  -16.289425  -86.191568   54.374039    0.000000    0.000000    0.000000    0.000000
  0.014400000   -4.547119  -16.545807  -86.653116   53.183567    0.000000    0.000000    0.000000    0.000000
  0.014600000   -4.546646  -16.757053  -86.933897   50.878128    0.000000    0.000000    0.000000    0.000000
  0.014800000   -4.546024  -16.998747  -87.105748   46.442505    0.000000    0.000000    0.000000    0.000000
  0.015000000   -4.546681  -17.230476  -87.409626   47.083473    0.000000    0.000000    0.000000    0.000000
  0.015200000   -4.548339  -17.448893  -87.682223   47.185760    0.000000    0.000000    0.000000    0.000000
  0.015400000   -4.549244  -17.709938  -88.241640   47.144741    0.000000    0.000000    0.000000    0.000000
  0.015600000   -4.549140  -17.927668  -88.089294   45.876976    0.000000    0.000000    0.000000    0.000000
  0.015800000   -4.550610  -18.166782  -88.249527   45.088604    0.000000    0.000000    0.000000    0.000000
  0.016000000   -4.552588  -18.403948  -88.350362   47.283642    0.000000    0.000000    0.000000    0.000000
  0.016200000   -4.554583  -18.622492  -88.975184   48.345478    0.000000    0.000000    0.000000    0.000000
  0.016400000   -4.553670  -18.869740  -88.950590   42.777866    0.000000    0.000000    0.000000    0.000000
  0.016600000   -4.557085  -19.092363  -89.395079   44.811069    0.000000    0.000000    0.000000    0.000000
  0.016800000   -4.558810  -19.334232  -89.673678   45.306019    0.000000    0.000000    0.000000    0.000000
  0.017000000   -4.557841  -19.573009  -89.935854   45.148666    0.000000    0.000000    0.000000    0.000000
  0.017200000   -4.553217  -19.811943  -89.921920   42.921669    0.000000    0.000000    0.000000    0.000000
  0.017400000   -4.553226  -20.036686  -90.320964   42.379768    0.000000    0.000000    0.000000    0.000000
  0.017600000   -4.551638  -20.279211  -89.862355   45.379951    0.000000    0.000000    0.000000    0.000000
  0.017800000   -4.554067  -20.503017  -90.610470   40.755642    0.000000    0.000000    0.000000    0.000000
  0.018000000   -4.553607  -20.723063  -90.317175   47.708347    0.000000    0.000000    0.000000    0.000000
  0.018200000   -4.554213  -20.975531  -90.192275   45.098236    0.000000    0.000000    0.000000    0.000000
  0.018400000   -4.558842  -21.208961  -91.163173   43.535961    0.000000    0.000000    0.000000    0.000000
  0.018600000   -4.560737  -21.433733  -90.416740   48.888626    0.000000    0.000000    0.000000    0.000000
  0.018800000   -4.561807  -21.670860  -90.951562   42.397266    0.000000    0.000000    0.000000    0.000000
  0.019000000   -4.559894  -21.907000  -90.361627   44.705757    0.000000    0.000000    0.000000    0.000000
  0.019200000   -4.558514  -22.112238  -89.895138   44.207077    0.000000    0.000000    0.000000    0.000000
  0.019400000   -4.560977  -22.330109  -90.817457   44.722984    0.000000    0.000000    0.000000    0.000000
  0.019600000   -4.561103  -22.565536  -89.789464   44.020191    0.000000    0.000000    0.000000    0.000000
  0.019800000   -4.561422  -22.794659  -90.167983   39.202381    0.000000    0.000000    0.000000    0.000000
  0.020000000   -4.559795  -23.016415  -90.930634   40.174057    0.000000    0.000000    0.000000    0.000000
  0.020200000   -4.558637  -23.259068  -90.012899   37.155289    0.000000    0.000000    0.000000    0.000000
  0.020400000   -4.561016  -23.491756  -90.759438   36.181667    0.000000    0.000000    0.000000    0.000000
  0.020600000   -4.555954  -23.712091  -91.550905   35.692009    0.000000    0.000000    0.000000    0.000000
  0.020800000   -4.555529  -23.956808  -90.830539   34.295109    0.000000    0.000000    0.000000    0.000000
  0.021000000   -4.559346  -24.191717  -91.774492   37.465279    0.000000    0.000000    0.000000    0.000000
  0.021200000   -4.559884  -24.436481  -91.347046   33.023487    0.000000    0.000000    0.000000    0.000000
  0.021400000   -4.561412  -24.686359  -92.106047   27.039545    0.000000    0.000000    0.000000    0.000000
  0.021600000   -4.558697  -24.892849  -92.010860   26.544725    0.000000    0.000000    0.000000    0.000000
  0.021800000   -4.561528  -25.130924  -92.167451   27.903582    0.000000    0.000000    0.000000    0.000000
  0.022000000   -4.564195  -25.353985  -93.443844   31.534201    0.000000    0.000000    0.000000    0.000000
  0.022200000   -4.565397  -25.605850  -92.070135   23.075136    0.000000    0.000000    0.000000    0.000000
  0.022400000   -4.564333  -25.828352  -92.982788   30.259268    0.000000    0.000000    0.000000    0.000000
  0.022600000   -4.565326  -26.036495  -93.067077   23.106094    0.000000    0.000000    0.000000    0.000000
  0.022800000   -4.566747  -26.266768  -94.016205   26.951683    0.000000    0.000000    0.000000    0.000000
  0.023000000   -4.564752  -26.515469  -93.520970   25.695246    0.000000    0.000000    0.000000    0.000000
  0.023200000   -4.567285  -26.752850  -92.682505   34.237144    0.000000    0.000000    0.000000    0.000000
  0.023400000   -4.569211  -26.999922  -92.987004   27.937513    0.000000    0.000000    0.000000    0.000000
  0.023600000   -4.570291  -27.225578  -93.418489   33.036140    0.000000    0.000000    0.000000    0.000000
  0.023800000   -4.567977  -27.459021  -93.301739   17.394707    0.000000    0.000000    0.000000    0.000000
  0.024000000   -4.565419  -27.716724  -94.605816   32.275650    0.000000    0.000000    0.000000    0.000000
  0.024200000   -4.559137  -27.957237  -95.009665   22.023958    0.000000    0.000000    0.000000    0.000000
  0.024400000   -4.559882  -28.206848  -93.674560   25.039936    0.000000    0.000000    0.000000    0.000000
  0.024600000   -4.562232  -28.449381  -94.344473   30.085371    0.000000    0.000000    0.000000    0.000000
  0.024800000   -4.560644  -28.674084  -94.902571   25.617720    0.000000    0.000000    0.000000    0.000000
  0.025000000   -4.561859  -28.903086  -94.686917   22.786175    0.000000    0.000000    0.000000    0.000000
  0.025200000   -4.562624  -29.127676  -95.652715   24.037931    0.000000    0.000000    0.000000    0.000000
  0.025400000   -4.562702  -29.348913  -94.418418   28.906849    0.000000    0.000000    0.000000    0.000000
  0.025600000   -4.562827  -29.548866  -94.323545   29.626301    0.000000    0.000000    0.000000    0.000000
  0.025800000   -4.565233  -29.754261  -94.105346   26.055048    0.000000    0.000000    0.000000    0.000000
  0.026000000   -4.567081  -29.947206  -94.587970   32.072296    0.000000    0.000000    0.000000    0.000000
  0.026200000   -4.569070  -30.158195  -94.942525   27.916798    0.000000    0.000000    0.000000    0.000000
  0.026400000   -4.573190  -30.391911  -95.748064   23.096628    0.000000    0.000000    0.000000    0.000000
  0.026600000   -4.573658  -30.623419  -94.736847   25.029850    0.000000    0.000000    0.000000    0.000000
  0.026800000   -4.574265  -30.876059  -94.440719   19.550226    0.000000    0.000000    0.000000    0.000000
  0.027000000   -4.572742  -31.094973  -94.386205   18.975288    0.000000    0.000000    0.000000    0.000000
  0.027200000   -4.573726  -31.346638  -95.589287   18.586504    0.000000    0.000000    0.000000    0.000000
  0.027400000   -4.575835  -31.600981  -95.770326    7.896347    0.000000    0.000000    0.000000    0.000000
  0.027600000   -4.575578  -31.839022  -95.551545   17.106451    0.000000    0.000000    0.000000    0.000000
  0.027800000   -4.580400  -32.100964  -95.430178   17.264988    0.000000    0.000000    0.000000    0.000000
  0.028000000   -4.584945  -32.351860  -95.323585   12.436357    0.000000    0.000000    0.000000    0.000000
  0.028200000   -4.584014  -32.605515  -95.149022   17.111683    0.000000    0.000000    0.000000    0.000000
  0.028400000   -4.581459  -32.873600  -96.502396   15.994075    0.000000    0.000000    0.000000    0.000000
  0.028600000   -4.579556  -33.107250  -96.564079   14.979078    0.000000    0.000000    0.000000    0.000000
  0.028800000   -4.576313  -33.314465  -96.164048   18.550039    0.000000    0.000000    0.000000    0.000000
  0.029000000   -4.576541  -33.524143  -96.883915   13.578466    0.000000    0.000000    0.000000    0.000000
  0.029200000   -4.573472  -33.716679  -96.479047   18.320103    0.000000    0.000000    0.000000    0.000000
  0.029400000   -4.573142  -33.905056  -96.316667   12.925765    0.000000    0.000000    0.000000    0.000000
  0.029600000   -4.576524  -34.126942  -97.176721   14.074316    0.000000    0.000000    0.000000    0.000000
  0.029800000   -4.578961  -34.337433  -98.665532    8.280587    0.000000    0.000000    0.000000    0.000000
  0.030000000   -4.586877  -34.579025  -95.663750   20.885988    0.000000    0.000000    0.000000    0.000000
  0.030200000   -4.593053  -34.826290  -96.419869   10.212137    0.000000    0.000000    0.000000    0.000000
  0.030400000   -4.597062  -35.076855  -97.520714   12.646527    0.000000    0.000000    0.000000    0.000000
  0.030600000   -4.599638  -35.354259  -97.846213    9.464675    0.000000    0.000000    0.000000    0.000000
  0.030800000   -4.597766  -35.630802  -97.249788   21.486677    0.000000    0.000000    0.000000    0.000000
  0.031000000   -4.596267  -35.904797  -96.238333   17.280972    0.000000    0.000000    0.000000    0.000000
  0.031200000   -4.593098  -36.145336  -96.511362   12.085657    0.000000    0.000000    0.000000    0.000000
  0.031400000   -4.590352  -36.394650  -97.476737   22.707058    0.000000    0.000000    0.000000    0.000000
  0.031600000   -4.587307  -36.668446  -98.059917    5.961208    0.000000    0.000000    0.000000    0.000000
  0.031800000   -4.582277  -36.914234  -98.735076   18.349600    0.000000    0.000000    0.000000    0.000000
  0.032000000   -4.575673  -37.164211  -97.746605    7.562103    0.000000    0.000000    0.000000    0.000000
  0.032200000   -4.569095  -37.357265  -97.944891   12.331045    0.000000    0.000000    0.000000    0.000000
  0.032400000   -4.561323  -37.588688  -96.612419   20.233622    0.000000    0.000000    0.000000    0.000000
  0.032600000   -4.556674  -37.791531  -97.834220    6.661920    0.000000    0.000000    0.000000    0.000000
  0.032800000   -4.549913  -38.007008  -96.614270   10.547412    0.000000    0.000000    0.000000    0.000000
  0.033000000   -4.551043  -38.202568  -98.387577   20.941101    0.000000    0.000000    0.000000    0.000000
  0.033200000   -4.550871  -38.396965  -97.964119   10.940690    0.000000    0.000000    0.000000    0.000000
  0.033400000   -4.551768  -38.613476  -97.806322    8.397640    0.000000    0.000000    0.000000    0.000000
  0.033600000   -4.554780  -38.809361  -97.147201   13.015742    0.000000    0.000000    0.000000    0.000000
  0.033800000   -4.556348  -39.038460  -98.464793   18.643597    0.000000    0.000000    0.000000    0.000000
  0.034000000   -4.556992  -39.261272  -97.370104   -9.778053    0.000000    0.000000    0.000000    0.000000
  0.034200000   -4.559926  -39.489246  -98.658891   13.689119    0.000000    0.000000    0.000000    0.000000
  0.034400000   -4.563703  -39.721729  -99.551862   11.759050    0.000000    0.000000    0.000000    0.000000
  0.034600000   -4.566323  -39.946404  -98.216176   -1.550728    0.000000    0.000000    0.000000    0.000000
  0.034800000   -4.570541  -40.187443  -97.882474    8.526925    0.000000    0.000000    0.000000    0.000000
  0.035000000   -4.575388  -40.450191  -97.966348   16.315161    0.000000    0.000000    0.000000    0.000000
  0.035200000   -4.577796  -40.678009  -97.985258    8.276474    0.000000    0.000000    0.000000    0.000000
  0.035400000   -4.583724  -40.934303 -100.714106   -0.128734    0.000000    0.000000    0.000000    0.000000
  0.035600000   -4.580736  -41.158039  -99.286236    4.193081    0.000000    0.000000    0.000000    0.000000
  0.035800000   -4.583018  -41.435173  -98.314534    8.606694    0.000000    0.000000    0.000000    0.000000
  0.036000000   -4.581884  -41.643780  -98.340530   17.623533    0.000000    0.000000    0.000000    0.000000
  0.036200000   -4.578532  -41.896328  -98.487680    9.026438    0.000000    0.000000    0.000000    0.000000
  0.036400000   -4.577980  -42.136436  -99.277665    1.341361    0.000000    0.000000    0.000000    0.000000
  0.036600000   -4.570438  -42.373566  -98.209662   15.288600    0.000000    0.000000    0.000000    0.000000
  0.036800000   -4.570113  -42.599876  -98.849602   21.982258    0.000000    0.000000    0.000000    0.000000
  0.037000000   -4.565124  -42.793079  -98.584187   18.130314    0.000000    0.000000    0.000000    0.000000
  0.037200000   -4.563905  -42.947731  -98.229261   10.094702    0.000000    0.000000    0.000000    0.000000
  0.037400000   -4.565457  -43.153687  -98.493975   14.502703    0.000000    0.000000    0.000000    0.000000
  0.037600000   -4.571668  -43.361977  -99.712045   10.757881    0.000000    0.000000    0.000000    0.000000
  0.037800000   -4.580053  -43.588375  -98.674909   17.461956    0.000000    0.000000    0.000000    0.000000
  0.038000000   -4.585146  -43.843395  -98.885090   18.852043    0.000000    0.000000    0.000000    0.000000
  0.038200000   -4.593363  -44.089432  -99.546819    5.743764    0.000000    0.000000    0.000000    0.000000
  0.038400000   -4.599043  -44.357025  -99.679645    5.733616    0.000000    0.000000    0.000000    0.000000
  0.038600000   -4.603124  -44.591022 -100.691731    5.348890    0.000000    0.000000    0.000000    0.000000
  0.038800000   -4.605363  -44.856529  -98.248654    9.693427    0.000000    0.000000    0.000000    0.000000
  0.039000000   -4.605967  -45.119869 -101.642029    6.392040    0.000000    0.000000    0.000000    0.000000
  0.039200000   -4.604172  -45.405033  -99.503125   14.089106    0.000000    0.000000    0.000000    0.000000
  0.039400000   -4.599900  -45.654186 -102.180502   20.870506    0.000000    0.000000    0.000000    0.000000
  0.039600000   -4.596729  -45.889187  -99.589542    4.911861    0.000000    0.000000    0.000000    0.000000
  0.039800000   -4.590588  -46.106873  -99.371101   11.356809    0.000000    0.000000    0.000000    0.000000
  0.040000000   -4.583661  -46.326553 -100.738129    3.784891    0.000000    0.000000    0.000000    0.000000
  0.040200000   -4.582031  -46.544643  -98.953138    2.434602    0.000000    0.000000    0.000000    0.000000
  0.040400000   -4.579279  -46.762039 -100.666253    3.659914    0.000000    0.000000    0.000000    0.000000
  0.040600000   -4.574839  -46.947495  -98.569708    9.183495    0.000000    0.000000    0.000000    0.000000
  0.040800000   -4.576052  -47.131630 -102.134231   13.195186    0.000000    0.000000    0.000000    0.000000
  0.041000000   -4.579475  -47.336281 -101.135386   14.278879    0.000000    0.000000    0.000000    0.000000
  0.041200000   -4.585511  -47.556126 -100.422422   10.585909    0.000000    0.000000    0.000000    0.000000
  0.041400000   -4.588183  -47.780045  -99.257997   -0.607588    0.000000    0.000000    0.000000    0.000000
  0.041600000   -4.595375  -48.064247 -100.016716    9.380395    0.000000    0.000000    0.000000    0.000000
  0.041800000   -4.599032  -48.276585 -100.679117    2.392461    0.000000    0.000000    0.000000    0.000000
  0.042000000   -4.601147  -48.524441 -102.446623   -0.392173    0.000000    0.000000    0.000000    0.000000
  0.042200000   -4.608279  -48.777290 -101.271280    5.639600    0.000000    0.000000    0.000000    0.000000
  0.042400000   -4.607544  -48.977135 -104.491433   20.910595    0.000000    0.000000    0.000000    0.000000
  0.042600000   -4.608522  -49.224216 -100.398396    1.289678    0.000000    0.000000    0.000000    0.000000
  0.042800000   -4.609063  -49.462784 -103.914782   18.473394    0.000000    0.000000    0.000000    0.000000
