! Anritsu VNA Master:                     Model: MS2036C/10/77
! SN:                                  1601066
! /card0/usr/256.ew.n.r50.22.s2p
! Existing Calibration Information:
! TYPE:                         Current Settings,       Active Cal Settings
! TIME:             	   12/19/2017 03:11:41 PM,    12/19/2017 02:53:44 PM
! INTERNAL TEMP:    	                   46.8 C,                    46.3 C
! # POINTS:         	                      501,                       501
! START FREQ:       	               10.000 MHz,                10.000 MHz
! STOP FREQ:        	              110.000 MHz,               110.000 MHz
! SOURCE POWER:     	                     High,                      High
! IFBW:             	                   100 Hz,                    100 Hz
! AVG FACTOR:       	                       1 ,                        1 
! REF PLANE 1:      	                     0 mm,                      0 mm
! REF PLANE 2:      	                     0 mm,                      0 mm
! CAL TYPE:         	                 Full S11,                  Full S11
! CAL METHOD:       	                     SOLT,                      SOLT
! CAL LINE TYPE:    	                     Coax,                      Coax
! DUT PORT 1:       	                N-Conn(F),                 N-Conn(F)
! DUT PORT 2:       	                K-Conn(F),                 K-Conn(F)
! CAL STATUS:       	        OK: Accuracy High,                        --
# GHZ S DB R 50.0
! FREQ.GHZ       S11DB        S11A       S21DB        S21A       S12DB        S12A       S22DB        S22A
  0.010000000  -45.158563   64.481583  -83.176099   79.001122    0.000000    0.000000    0.000000    0.000000
  0.010200000  -44.948412   63.075840  -83.667528   75.594162    0.000000    0.000000    0.000000    0.000000
  0.010400000  -45.349104   62.449169  -83.358549   73.379402    0.000000    0.000000    0.000000    0.000000
  0.010600000  -44.707181   61.891731  -83.805103   75.074028    0.000000    0.000000    0.000000    0.000000
  0.010800000  -44.948313   61.637470  -84.047041   73.641136    0.000000    0.000000    0.000000    0.000000
  0.011000000  -44.698126   62.764099  -84.353853   73.638527    0.000000    0.000000    0.000000    0.000000
  0.011200000  -44.804124   61.822884  -84.254678   71.467819    0.000000    0.000000    0.000000    0.000000
  0.011400000  -44.399960   61.813629  -84.524217   67.664688    0.000000    0.000000    0.000000    0.000000
  0.011600000  -44.392143   61.910072  -84.803082   67.088539    0.000000    0.000000    0.000000    0.000000
  0.011800000  -44.023080   61.009518  -85.242376   67.293755    0.000000    0.000000    0.000000    0.000000
  0.012000000  -44.239541   60.330494  -84.811547   66.065742    0.000000    0.000000    0.000000    0.000000
  0.012200000  -44.350476   60.013477  -85.503056   68.229309    0.000000    0.000000    0.000000    0.000000
  0.012400000  -44.010345   59.316853  -85.505543   63.889759    0.000000    0.000000    0.000000    0.000000
  0.012600000  -44.058256   57.562519  -85.824757   64.305099    0.000000    0.000000    0.000000    0.000000
  0.012800000  -43.679058   59.060947  -86.002460   60.445793    0.000000    0.000000    0.000000    0.000000
  0.013000000  -43.649675   58.201935  -85.640877   61.497849    0.000000    0.000000    0.000000    0.000000
  0.013200000  -43.446765   58.664898  -86.250999   61.143909    0.000000    0.000000    0.000000    0.000000
  0.013400000  -43.486594   57.177044  -86.287853   60.300018    0.000000    0.000000    0.000000    0.000000
  0.013600000  -43.350719   56.681545  -86.443285   58.153431    0.000000    0.000000    0.000000    0.000000
  0.013800000  -43.208055   56.916924  -86.814018   57.746517    0.000000    0.000000    0.000000    0.000000
  0.014000000  -43.237311   57.201794  -86.965899   54.039764    0.000000    0.000000    0.000000    0.000000
  0.014200000  -43.003502   56.868076  -87.525682   57.738880    0.000000    0.000000    0.000000    0.000000
  0.014400000  -43.137799   57.301476  -87.296646   54.747128    0.000000    0.000000    0.000000    0.000000
  0.014600000  -42.618632   57.079884  -87.731823   55.602043    0.000000    0.000000    0.000000    0.000000
  0.014800000  -42.556876   56.334015  -87.300590   53.883923    0.000000    0.000000    0.000000    0.000000
  0.015000000  -42.433529   56.139992  -87.493084   55.374844    0.000000    0.000000    0.000000    0.000000
  0.015200000  -42.463630   55.328751  -87.955703   55.680901    0.000000    0.000000    0.000000    0.000000
  0.015400000  -42.405561   55.583149  -88.142028   55.740582    0.000000    0.000000    0.000000    0.000000
  0.015600000  -42.155539   56.089191  -88.461073   49.374985    0.000000    0.000000    0.000000    0.000000
  0.015800000  -42.086497   56.825775  -88.026032   52.177620    0.000000    0.000000    0.000000    0.000000
  0.016000000  -42.192887   56.461830  -88.225644   50.387089    0.000000    0.000000    0.000000    0.000000
  0.016200000  -41.915318   55.141197  -88.065111   49.402687    0.000000    0.000000    0.000000    0.000000
  0.016400000  -42.013584   55.871681  -88.803424   49.951572    0.000000    0.000000    0.000000    0.000000
  0.016600000  -41.742395   55.389961  -88.987425   44.589981    0.000000    0.000000    0.000000    0.000000
  0.016800000  -41.813918   55.470795  -89.264706   47.559452    0.000000    0.000000    0.000000    0.000000
  0.017000000  -41.537187   56.005123  -88.989804   45.060562    0.000000    0.000000    0.000000    0.000000
  0.017200000  -41.698919   56.147572  -89.661882   43.880917    0.000000    0.000000    0.000000    0.000000
  0.017400000  -41.601234   55.453697  -89.109160   44.690346    0.000000    0.000000    0.000000    0.000000
  0.017600000  -41.624393   55.388695  -89.907080   43.280704    0.000000    0.000000    0.000000    0.000000
  0.017800000  -41.352164   54.758205  -89.510641   44.652447    0.000000    0.000000    0.000000    0.000000
  0.018000000  -41.324308   55.013409  -90.012583   42.892021    0.000000    0.000000    0.000000    0.000000
  0.018200000  -41.470008   55.415955  -90.034901   43.329720    0.000000    0.000000    0.000000    0.000000
  0.018400000  -41.187410   54.591106  -89.989109   40.016460    0.000000    0.000000    0.000000    0.000000
  0.018600000  -41.173622   55.384258  -90.292944   45.553909    0.000000    0.000000    0.000000    0.000000
  0.018800000  -41.132269   54.881741  -90.770056   48.738960    0.000000    0.000000    0.000000    0.000000
  0.019000000  -41.038358   54.046822  -90.646493   42.187740    0.000000    0.000000    0.000000    0.000000
  0.019200000  -40.882055   52.776863  -90.706517   38.823715    0.000000    0.000000    0.000000    0.000000
  0.019400000  -40.783993   54.251228  -90.502321   39.233326    0.000000    0.000000    0.000000    0.000000
  0.019600000  -40.778821   53.221500  -90.924182   37.768864    0.000000    0.000000    0.000000    0.000000
  0.019800000  -40.817872   53.951553  -91.466653   41.167423    0.000000    0.000000    0.000000    0.000000
  0.020000000  -40.666577   53.080982  -90.961356   38.494621    0.000000    0.000000    0.000000    0.000000
  0.020200000  -40.744817   53.577877  -90.962297   35.605160    0.000000    0.000000    0.000000    0.000000
  0.020400000  -40.626913   53.883148  -91.699998   37.566765    0.000000    0.000000    0.000000    0.000000
  0.020600000  -40.363066   53.138107  -91.330837   37.719357    0.000000    0.000000    0.000000    0.000000
  0.020800000  -40.461677   53.221004  -91.826565   35.205891    0.000000    0.000000    0.000000    0.000000
  0.021000000  -40.380490   52.948509  -92.181732   36.572735    0.000000    0.000000    0.000000    0.000000
  0.021200000  -40.347175   52.614620  -91.997837   33.840092    0.000000    0.000000    0.000000    0.000000
  0.021400000  -40.272636   53.594032  -91.619148   37.970394    0.000000    0.000000    0.000000    0.000000
  0.021600000  -39.988010   52.756554  -92.045707   29.822979    0.000000    0.000000    0.000000    0.000000
  0.021800000  -39.966354   52.258541  -92.842554   36.801033    0.000000    0.000000    0.000000    0.000000
  0.022000000  -39.995458   51.924274  -92.413454   33.989494    0.000000    0.000000    0.000000    0.000000
  0.022200000  -39.972082   52.650608  -92.802687   34.150394    0.000000    0.000000    0.000000    0.000000
  0.022400000  -39.881014   52.215157  -91.931306   31.601233    0.000000    0.000000    0.000000    0.000000
  0.022600000  -39.832394   51.818970  -92.508175   31.638412    0.000000    0.000000    0.000000    0.000000
  0.022800000  -39.774957   51.220169  -91.996458   27.494522    0.000000    0.000000    0.000000    0.000000
  0.023000000  -39.789098   51.527569  -93.477880   28.020061    0.000000    0.000000    0.000000    0.000000
  0.023200000  -39.695792   51.082233  -92.860645   36.152084    0.000000    0.000000    0.000000    0.000000
  0.023400000  -39.593782   51.764427  -93.184625   32.153305    0.000000    0.000000    0.000000    0.000000
  0.023600000  -39.553957   51.468105  -92.496176   25.968309    0.000000    0.000000    0.000000    0.000000
  0.023800000  -39.351290   51.080769  -93.068733   34.242126    0.000000    0.000000    0.000000    0.000000
  0.024000000  -39.421522   51.602715  -94.125945   19.815434    0.000000    0.000000    0.000000    0.000000
  0.024200000  -39.348901   51.122452  -93.991865   19.637856    0.000000    0.000000    0.000000    0.000000
  0.024400000  -39.246854   51.202103  -93.570882   24.056803    0.000000    0.000000    0.000000    0.000000
  0.024600000  -39.171052   52.135296  -93.170298   24.195341    0.000000    0.000000    0.000000    0.000000
  0.024800000  -39.139018   51.727242  -93.913890   32.751694    0.000000    0.000000    0.000000    0.000000
  0.025000000  -39.188213   50.548473  -93.283787   28.334694    0.000000    0.000000    0.000000    0.000000
  0.025200000  -39.104583   51.746132  -94.260277   27.785870    0.000000    0.000000    0.000000    0.000000
  0.025400000  -39.093188   50.797935  -94.923138   24.339186    0.000000    0.000000    0.000000    0.000000
  0.025600000  -39.071163   50.137894  -94.817994   21.776186    0.000000    0.000000    0.000000    0.000000
  0.025800000  -38.952324   50.254311  -95.166838   19.045172    0.000000    0.000000    0.000000    0.000000
  0.026000000  -38.858415   50.717606  -95.576135   20.121693    0.000000    0.000000    0.000000    0.000000
  0.026200000  -38.740821   50.380444  -94.765407   24.982954    0.000000    0.000000    0.000000    0.000000
  0.026400000  -38.853631   50.695145  -94.306643   24.970806    0.000000    0.000000    0.000000    0.000000
  0.026600000  -38.769340   50.567249  -94.401180   23.246407    0.000000    0.000000    0.000000    0.000000
  0.026800000  -38.657058   50.093803  -95.531036   21.958635    0.000000    0.000000    0.000000    0.000000
  0.027000000  -38.553801   50.052734  -94.522048   13.803665    0.000000    0.000000    0.000000    0.000000
  0.027200000  -38.560267   49.843369  -95.407146   19.547321    0.000000    0.000000    0.000000    0.000000
  0.027400000  -38.523057   49.183270  -96.507875   16.094372    0.000000    0.000000    0.000000    0.000000
  0.027600000  -38.540822   49.710781  -95.187021   22.295185    0.000000    0.000000    0.000000    0.000000
  0.027800000  -38.417723   50.288918  -95.775652   19.481724    0.000000    0.000000    0.000000    0.000000
  0.028000000  -38.531635   50.305405  -96.179152   27.687906    0.000000    0.000000    0.000000    0.000000
  0.028200000  -38.311853   49.472481  -95.952427   11.967746    0.000000    0.000000    0.000000    0.000000
  0.028400000  -38.370787   50.008511  -94.384894   26.633593    0.000000    0.000000    0.000000    0.000000
  0.028600000  -38.298526   49.594444  -95.386404   23.337379    0.000000    0.000000    0.000000    0.000000
  0.028800000  -38.262512   49.630096  -96.077224   15.663378    0.000000    0.000000    0.000000    0.000000
  0.029000000  -38.235076   49.237930  -96.832798   16.800352    0.000000    0.000000    0.000000    0.000000
  0.029200000  -38.183597   49.227478  -96.053305   16.074556    0.000000    0.000000    0.000000    0.000000
  0.029400000  -38.113631   48.576618  -97.436377   23.419626    0.000000    0.000000    0.000000    0.000000
  0.029600000  -38.147625   49.143711  -97.027730    9.722956    0.000000    0.000000    0.000000    0.000000
  0.029800000  -38.145552   48.751507  -97.053260   17.951181    0.000000    0.000000    0.000000    0.000000
  0.030000000  -38.137173   48.982735  -96.206746   14.795615    0.000000    0.000000    0.000000    0.000000
  0.030200000  -38.113345   49.018974  -97.830090   17.959681    0.000000    0.000000    0.000000    0.000000
  0.030400000  -38.010719   48.927311  -98.470141   11.195549    0.000000    0.000000    0.000000    0.000000
  0.030600000  -38.013657   47.788223  -96.308495   16.882368    0.000000    0.000000    0.000000    0.000000
  0.030800000  -38.027746   48.616009  -95.697690   11.380665    0.000000    0.000000    0.000000    0.000000
  0.031000000  -37.962113   48.253578  -98.396577   10.349474    0.000000    0.000000    0.000000    0.000000
  0.031200000  -37.884968   48.916359  -96.887000   20.998381    0.000000    0.000000    0.000000    0.000000
  0.031400000  -37.942165   47.952240  -97.180746   12.573319    0.000000    0.000000    0.000000    0.000000
  0.031600000  -37.960777   47.719551  -97.510702   23.754747    0.000000    0.000000    0.000000    0.000000
  0.031800000  -37.842400   46.479435  -98.016502    7.385962    0.000000    0.000000    0.000000    0.000000
  0.032000000  -37.944498   46.475693  -97.909666    3.028552    0.000000    0.000000    0.000000    0.000000
  0.032200000  -37.773960   46.345688  -97.946703   16.217674    0.000000    0.000000    0.000000    0.000000
  0.032400000  -37.769457   46.556690  -96.793092   12.787701    0.000000    0.000000    0.000000    0.000000
  0.032600000  -37.700249   45.500401  -97.632125    7.081934    0.000000    0.000000    0.000000    0.000000
  0.032800000  -37.615666   45.631859  -97.142321   14.112845    0.000000    0.000000    0.000000    0.000000
  0.033000000  -37.683078   46.115612 -101.026955   25.152588    0.000000    0.000000    0.000000    0.000000
  0.033200000  -37.563496   45.943878  -98.536287    7.053550    0.000000    0.000000    0.000000    0.000000
  0.033400000  -37.576955   45.653259  -99.718883   12.718659    0.000000    0.000000    0.000000    0.000000
  0.033600000  -37.427560   44.787437  -98.159683   13.164675    0.000000    0.000000    0.000000    0.000000
  0.033800000  -37.426803   45.699493  -99.242097    7.242833    0.000000    0.000000    0.000000    0.000000
  0.034000000  -37.427015   44.081535  -96.323610    4.336487    0.000000    0.000000    0.000000    0.000000
  0.034200000  -37.321301   43.998283  -97.864504   10.986905    0.000000    0.000000    0.000000    0.000000
  0.034400000  -37.258466   44.387070  -98.177567   12.183290    0.000000    0.000000    0.000000    0.000000
  0.034600000  -37.095104   43.467869  -99.404596    5.523421    0.000000    0.000000    0.000000    0.000000
  0.034800000  -37.144118   43.148254  -97.476477    5.889456    0.000000    0.000000    0.000000    0.000000
  0.035000000  -37.072444   43.106300  -98.479887   17.219917    0.000000    0.000000    0.000000    0.000000
  0.035200000  -37.007997   42.753803  -99.381755   20.828539    0.000000    0.000000    0.000000    0.000000
  0.035400000  -37.000870   43.128391  -97.783022   16.578878    0.000000    0.000000    0.000000    0.000000
  0.035600000  -36.977049   42.803162  -98.665722    8.336635    0.000000    0.000000    0.000000    0.000000
  0.035800000  -36.879622   42.984833  -99.032876   13.007065    0.000000    0.000000    0.000000    0.000000
  0.036000000  -36.905111   42.488197  -97.494038   17.456429    0.000000    0.000000    0.000000    0.000000
  0.036200000  -36.789601   42.682911  -97.924417   -1.452686    0.000000    0.000000    0.000000    0.000000
  0.036400000  -36.679397   42.444431 -100.071483   -1.493689    0.000000    0.000000    0.000000    0.000000
  0.036600000  -36.722856   42.209419  -99.702190   13.487518    0.000000    0.000000    0.000000    0.000000
  0.036800000  -36.675130   42.746445  -99.132910   14.446878    0.000000    0.000000    0.000000    0.000000
  0.037000000  -36.664968   42.514835 -100.125510    4.779262    0.000000    0.000000    0.000000    0.000000
  0.037200000  -36.561882   41.976719  -99.695852    2.788932    0.000000    0.000000    0.000000    0.000000
  0.037400000  -36.515567   41.811535 -100.944539   20.773577    0.000000    0.000000    0.000000    0.000000
  0.037600000  -36.412242   41.496788  -98.709055   20.432636    0.000000    0.000000    0.000000    0.000000
  0.037800000  -36.488904   41.548271  -98.192162   11.622838    0.000000    0.000000    0.000000    0.000000
  0.038000000  -36.438928   40.117599  -97.801935    8.297600    0.000000    0.000000    0.000000    0.000000
  0.038200000  -36.378750   40.769646  -99.439357    4.692268    0.000000    0.000000    0.000000    0.000000
  0.038400000  -36.363449   40.724373  -99.401604   19.245600    0.000000    0.000000    0.000000    0.000000
  0.038600000  -36.229845   40.179420 -101.384158   15.008842    0.000000    0.000000    0.000000    0.000000
  0.038800000  -36.131714   40.787090 -100.632495    5.916934    0.000000    0.000000    0.000000    0.000000
  0.039000000  -36.185785   40.132294  -99.661571    9.686090    0.000000    0.000000    0.000000    0.000000
  0.039200000  -36.150969   40.412491 -100.513195   15.898449    0.000000    0.000000    0.000000    0.000000
  0.039400000  -36.103576   40.647167 -102.362181   25.441181    0.000000    0.000000    0.000000    0.000000
  0.039600000  -35.972957   40.326023  -99.054458   10.669183    0.000000    0.000000    0.000000    0.000000
  0.039800000  -36.020579   40.496666 -100.573136  -12.235902    0.000000    0.000000    0.000000    0.000000
  0.040000000  -35.792908   40.248318  -99.324742   16.330111    0.000000    0.000000    0.000000    0.000000
  0.040200000  -35.844216   40.469498  -99.552360    0.217171    0.000000    0.000000    0.000000    0.000000
  0.040400000  -35.821246   40.610092 -100.892750   17.417191    0.000000    0.000000    0.000000    0.000000
  0.040600000  -35.803964   40.221184 -100.281683   12.531581    0.000000    0.000000    0.000000    0.000000
  0.040800000  -35.709658   40.669704  -99.534635   20.746538    0.000000    0.000000    0.000000    0.000000
  0.041000000  -35.580225   39.881695  -98.676004   12.285584    0.000000    0.000000    0.000000    0.000000
  0.041200000  -35.559106   40.224373  -99.908233    2.588401    0.000000    0.000000    0.000000    0.000000
  0.041400000  -35.588857   39.651104 -101.313881    6.799980    0.000000    0.000000    0.000000    0.000000
  0.041600000  -35.571448   40.722820  -98.908749   16.924402    0.000000    0.000000    0.000000    0.000000
  0.041800000  -35.490157   39.718975  -98.730796    3.742438    0.000000    0.000000    0.000000    0.000000
  0.042000000  -35.418203   40.150017 -103.388428  -13.317215    0.000000    0.000000    0.000000    0.000000
  0.042200000  -35.520078   40.614429 -100.737097    1.322136    0.000000    0.000000    0.000000    0.000000
  0.042400000  -35.420237   40.172398 -101.058125   11.378587    0.000000    0.000000    0.000000    0.000000
  0.042600000  -35.433428   39.991734  -99.844220   15.984342    0.000000    0.000000    0.000000    0.000000
  0.042800000  -35.357242   40.164246  -99.171196    7.260235    0.000000    0.000000    0.000000    0.000000
