! Anritsu VNA Master:                     Model: MS2036C/10/77
! SN:                                  1601066
! /card0/usr/256.ew.n.r20.21.s2p
! Existing Calibration Information:
! TYPE:                         Current Settings,       Active Cal Settings
! TIME:             	   12/19/2017 03:06:55 PM,    12/19/2017 02:53:44 PM
! INTERNAL TEMP:    	                   46.8 C,                    46.3 C
! # POINTS:         	                      501,                       501
! START FREQ:       	               10.000 MHz,                10.000 MHz
! STOP FREQ:        	              110.000 MHz,               110.000 MHz
! SOURCE POWER:     	                     High,                      High
! IFBW:             	                   100 Hz,                    100 Hz
! AVG FACTOR:       	                       1 ,                        1 
! REF PLANE 1:      	                     0 mm,                      0 mm
! REF PLANE 2:      	                     0 mm,                      0 mm
! CAL TYPE:         	                 Full S11,                  Full S11
! CAL METHOD:       	                     SOLT,                      SOLT
! CAL LINE TYPE:    	                     Coax,                      Coax
! DUT PORT 1:       	                N-Conn(F),                 N-Conn(F)
! DUT PORT 2:       	                K-Conn(F),                 K-Conn(F)
! CAL STATUS:       	        OK: Accuracy High,                        --
# GHZ S DB R 50.0
! FREQ.GHZ       S11DB        S11A       S21DB        S21A       S12DB        S12A       S22DB        S22A
  0.010000000   -7.221793  167.127441  -82.168502   76.760315    0.000000    0.000000    0.000000    0.000000
  0.010200000   -7.206896  166.922928  -82.470291   76.479179    0.000000    0.000000    0.000000    0.000000
  0.010400000   -7.206640  166.738693  -83.102343   72.868660    0.000000    0.000000    0.000000    0.000000
  0.010600000   -7.214614  166.404968  -83.146187   73.394363    0.000000    0.000000    0.000000    0.000000
  0.010800000   -7.212317  166.177551  -82.816373   70.859406    0.000000    0.000000    0.000000    0.000000
  0.011000000   -7.215405  165.885269  -83.603222   68.142838    0.000000    0.000000    0.000000    0.000000
  0.011200000   -7.214547  165.692612  -83.585510   66.165451    0.000000    0.000000    0.000000    0.000000
  0.011400000   -7.214070  165.406952  -84.221481   66.105530    0.000000    0.000000    0.000000    0.000000
  0.011600000   -7.219606  165.152603  -84.546635   61.386101    0.000000    0.000000    0.000000    0.000000
  0.011800000   -7.221397  164.917114  -84.973045   63.223679    0.000000    0.000000    0.000000    0.000000
  0.012000000   -7.222494  164.642944  -85.079115   59.365059    0.000000    0.000000    0.000000    0.000000
  0.012200000   -7.225607  164.390182  -84.929582   57.293209    0.000000    0.000000    0.000000    0.000000
  0.012400000   -7.227445  164.132751  -85.866839   56.332195    0.000000    0.000000    0.000000    0.000000
  0.012600000   -7.228890  163.861237  -86.020730   58.276409    0.000000    0.000000    0.000000    0.000000
  0.012800000   -7.228990  163.609589  -86.201073   59.888233    0.000000    0.000000    0.000000    0.000000
  0.013000000   -7.233117  163.367264  -86.706767   57.189159    0.000000    0.000000    0.000000    0.000000
  0.013200000   -7.234274  163.093445  -86.751031   54.399364    0.000000    0.000000    0.000000    0.000000
  0.013400000   -7.240144  162.853012  -87.024878   59.703674    0.000000    0.000000    0.000000    0.000000
  0.013600000   -7.240788  162.581680  -87.334962   58.744122    0.000000    0.000000    0.000000    0.000000
  0.013800000   -7.230568  162.361252  -87.607868   60.230377    0.000000    0.000000    0.000000    0.000000
  0.014000000   -7.234082  162.102432  -87.865673   58.622959    0.000000    0.000000    0.000000    0.000000
  0.014200000   -7.234169  161.801788  -88.150499   57.135075    0.000000    0.000000    0.000000    0.000000
  0.014400000   -7.238672  161.582321  -87.994876   57.498310    0.000000    0.000000    0.000000    0.000000
  0.014600000   -7.238126  161.321671  -87.575537   61.325790    0.000000    0.000000    0.000000    0.000000
  0.014800000   -7.239049  161.054535  -87.731362   59.754318    0.000000    0.000000    0.000000    0.000000
  0.015000000   -7.244976  160.801544  -87.987121   56.373783    0.000000    0.000000    0.000000    0.000000
  0.015200000   -7.246501  160.546326  -88.169178   54.678398    0.000000    0.000000    0.000000    0.000000
  0.015400000   -7.252053  160.269730  -88.909529   58.038830    0.000000    0.000000    0.000000    0.000000
  0.015600000   -7.250590  160.042297  -87.506168   54.431927    0.000000    0.000000    0.000000    0.000000
  0.015800000   -7.247830  159.746048  -87.687367   51.282558    0.000000    0.000000    0.000000    0.000000
  0.016000000   -7.249148  159.494995  -87.970517   51.917976    0.000000    0.000000    0.000000    0.000000
  0.016200000   -7.254097  159.257126  -88.305326   53.732147    0.000000    0.000000    0.000000    0.000000
  0.016400000   -7.256575  159.015518  -88.131149   50.673328    0.000000    0.000000    0.000000    0.000000
  0.016600000   -7.251603  158.745148  -88.562389   48.524811    0.000000    0.000000    0.000000    0.000000
  0.016800000   -7.254323  158.525284  -88.793946   44.806313    0.000000    0.000000    0.000000    0.000000
  0.017000000   -7.256514  158.244049  -88.991759   48.569248    0.000000    0.000000    0.000000    0.000000
  0.017200000   -7.254962  157.993484  -88.330637   45.424454    0.000000    0.000000    0.000000    0.000000
  0.017400000   -7.253507  157.741302  -89.018986   47.499355    0.000000    0.000000    0.000000    0.000000
  0.017600000   -7.256010  157.492798  -88.799436   45.055229    0.000000    0.000000    0.000000    0.000000
  0.017800000   -7.259801  157.190842  -89.274631   42.741241    0.000000    0.000000    0.000000    0.000000
  0.018000000   -7.253731  156.990891  -89.207063   42.235065    0.000000    0.000000    0.000000    0.000000
  0.018200000   -7.258611  156.733047  -90.166978   37.147690    0.000000    0.000000    0.000000    0.000000
  0.018400000   -7.258796  156.473618  -89.657254   40.415398    0.000000    0.000000    0.000000    0.000000
  0.018600000   -7.257807  156.210754  -89.837232   37.898972    0.000000    0.000000    0.000000    0.000000
  0.018800000   -7.265182  155.991974  -91.054001   33.171444    0.000000    0.000000    0.000000    0.000000
  0.019000000   -7.263250  155.737167  -91.124508   36.496952    0.000000    0.000000    0.000000    0.000000
  0.019200000   -7.265554  155.488525  -90.454354   37.789536    0.000000    0.000000    0.000000    0.000000
  0.019400000   -7.267671  155.242920  -90.855733   41.197849    0.000000    0.000000    0.000000    0.000000
  0.019600000   -7.268177  154.994186  -91.481946   37.172508    0.000000    0.000000    0.000000    0.000000
  0.019800000   -7.272717  154.751709  -91.234117   31.670658    0.000000    0.000000    0.000000    0.000000
  0.020000000   -7.271652  154.480637  -90.808537   36.308701    0.000000    0.000000    0.000000    0.000000
  0.020200000   -7.271751  154.251343  -91.355805   37.792343    0.000000    0.000000    0.000000    0.000000
  0.020400000   -7.268662  154.002548  -92.119342   38.128395    0.000000    0.000000    0.000000    0.000000
  0.020600000   -7.266377  153.747086  -91.907093   29.363359    0.000000    0.000000    0.000000    0.000000
  0.020800000   -7.262989  153.477997  -91.714345   40.463085    0.000000    0.000000    0.000000    0.000000
  0.021000000   -7.264011  153.229919  -92.516568   39.498600    0.000000    0.000000    0.000000    0.000000
  0.021200000   -7.263639  152.985947  -93.075471   35.681431    0.000000    0.000000    0.000000    0.000000
  0.021400000   -7.262878  152.713943  -91.793691   41.080132    0.000000    0.000000    0.000000    0.000000
  0.021600000   -7.266686  152.450485  -92.356848   40.963356    0.000000    0.000000    0.000000    0.000000
  0.021800000   -7.270138  152.218979  -92.587627   34.681183    0.000000    0.000000    0.000000    0.000000
  0.022000000   -7.274241  151.978180  -92.167527   30.861902    0.000000    0.000000    0.000000    0.000000
  0.022200000   -7.274768  151.742432  -92.747297   29.712074    0.000000    0.000000    0.000000    0.000000
  0.022400000   -7.274844  151.486343  -92.308131   32.392834    0.000000    0.000000    0.000000    0.000000
  0.022600000   -7.278763  151.261169  -93.480326   29.085289    0.000000    0.000000    0.000000    0.000000
  0.022800000   -7.278829  150.998047  -92.591719   29.360811    0.000000    0.000000    0.000000    0.000000
  0.023000000   -7.281097  150.753006  -92.808436   38.231018    0.000000    0.000000    0.000000    0.000000
  0.023200000   -7.279544  150.484497  -92.472728   25.087799    0.000000    0.000000    0.000000    0.000000
  0.023400000   -7.280522  150.138489  -92.897659   27.526575    0.000000    0.000000    0.000000    0.000000
  0.023600000   -7.278253  149.982178  -92.959947   33.713383    0.000000    0.000000    0.000000    0.000000
  0.023800000   -7.282042  149.700592  -92.871130   21.388266    0.000000    0.000000    0.000000    0.000000
  0.024000000   -7.278076  149.454330  -92.618811   21.208279    0.000000    0.000000    0.000000    0.000000
  0.024200000   -7.276902  149.180206  -93.752322   26.160786    0.000000    0.000000    0.000000    0.000000
  0.024400000   -7.276480  148.904236  -92.857679   24.275846    0.000000    0.000000    0.000000    0.000000
  0.024600000   -7.277266  148.630066  -92.408103   33.936596    0.000000    0.000000    0.000000    0.000000
  0.024800000   -7.276904  148.358322  -93.459715   26.949240    0.000000    0.000000    0.000000    0.000000
  0.025000000   -7.280042  148.140839  -95.670850   26.347935    0.000000    0.000000    0.000000    0.000000
  0.025200000   -7.272816  147.906937  -94.629127   17.539860    0.000000    0.000000    0.000000    0.000000
  0.025400000   -7.275686  147.651199  -93.878354   20.394213    0.000000    0.000000    0.000000    0.000000
  0.025600000   -7.280694  147.415436  -94.634982   20.854759    0.000000    0.000000    0.000000    0.000000
  0.025800000   -7.279956  147.208435  -94.996293   17.533089    0.000000    0.000000    0.000000    0.000000
  0.026000000   -7.281011  146.946671  -95.602929   24.479223    0.000000    0.000000    0.000000    0.000000
  0.026200000   -7.279467  146.707382  -95.453186   19.660297    0.000000    0.000000    0.000000    0.000000
  0.026400000   -7.283173  146.472534  -96.254964   24.955921    0.000000    0.000000    0.000000    0.000000
  0.026600000   -7.286997  146.216721  -94.209966   20.807854    0.000000    0.000000    0.000000    0.000000
  0.026800000   -7.292840  145.935394  -96.070310   27.732220    0.000000    0.000000    0.000000    0.000000
  0.027000000   -7.290381  145.663498  -94.853631   20.164572    0.000000    0.000000    0.000000    0.000000
  0.027200000   -7.287009  145.410828  -96.218933   21.712290    0.000000    0.000000    0.000000    0.000000
  0.027400000   -7.287092  145.121674  -96.567589   26.214310    0.000000    0.000000    0.000000    0.000000
  0.027600000   -7.282161  144.864975  -95.901299   23.041546    0.000000    0.000000    0.000000    0.000000
  0.027800000   -7.278562  144.567917  -95.767597   20.264742    0.000000    0.000000    0.000000    0.000000
  0.028000000   -7.273140  144.307510  -95.355440   20.939167    0.000000    0.000000    0.000000    0.000000
  0.028200000   -7.277228  144.044250  -95.473013   18.915173    0.000000    0.000000    0.000000    0.000000
  0.028400000   -7.277114  143.815582  -96.054175   19.518187    0.000000    0.000000    0.000000    0.000000
  0.028600000   -7.272936  143.589752  -96.115878   21.135218    0.000000    0.000000    0.000000    0.000000
  0.028800000   -7.266541  143.374039  -95.591632   28.108582    0.000000    0.000000    0.000000    0.000000
  0.029000000   -7.267416  143.167206  -95.432832   22.525925    0.000000    0.000000    0.000000    0.000000
  0.029200000   -7.265749  142.981079  -95.200166   24.343008    0.000000    0.000000    0.000000    0.000000
  0.029400000   -7.266952  142.790131  -95.988051   14.953427    0.000000    0.000000    0.000000    0.000000
  0.029600000   -7.263459  142.589722  -96.324584   11.812023    0.000000    0.000000    0.000000    0.000000
  0.029800000   -7.267238  142.357285  -95.586208   19.575388    0.000000    0.000000    0.000000    0.000000
  0.030000000   -7.270928  142.133957  -95.792081   13.924048    0.000000    0.000000    0.000000    0.000000
  0.030200000   -7.273833  141.888412  -96.900120   23.286257    0.000000    0.000000    0.000000    0.000000
  0.030400000   -7.276191  141.609604  -96.580612   21.934904    0.000000    0.000000    0.000000    0.000000
  0.030600000   -7.279030  141.350098  -96.667719   13.565234    0.000000    0.000000    0.000000    0.000000
  0.030800000   -7.279833  141.096756  -96.639599   13.514751    0.000000    0.000000    0.000000    0.000000
  0.031000000   -7.282871  140.830093  -97.254340   11.727529    0.000000    0.000000    0.000000    0.000000
  0.031200000   -7.273555  140.637756  -97.338814   16.744083    0.000000    0.000000    0.000000    0.000000
  0.031400000   -7.278595  140.355850  -96.065819    9.736965    0.000000    0.000000    0.000000    0.000000
  0.031600000   -7.283335  140.067734  -97.622814    9.826391    0.000000    0.000000    0.000000    0.000000
  0.031800000   -7.285335  139.830704  -96.597902    5.387513    0.000000    0.000000    0.000000    0.000000
  0.032000000   -7.287701  139.567505  -97.947384   16.103027    0.000000    0.000000    0.000000    0.000000
  0.032200000   -7.285641  139.285217  -97.324207    8.829361    0.000000    0.000000    0.000000    0.000000
  0.032400000   -7.281181  139.054581  -96.592954   21.908716    0.000000    0.000000    0.000000    0.000000
  0.032600000   -7.274880  138.798630  -98.934239   23.903217    0.000000    0.000000    0.000000    0.000000
  0.032800000   -7.269877  138.542633  -98.479887   24.487028    0.000000    0.000000    0.000000    0.000000
  0.033000000   -7.270357  138.327454  -97.955217   24.683319    0.000000    0.000000    0.000000    0.000000
  0.033200000   -7.269426  138.099762  -97.432854    2.050093    0.000000    0.000000    0.000000    0.000000
  0.033400000   -7.270081  137.904846  -98.175311    7.020689    0.000000    0.000000    0.000000    0.000000
  0.033600000   -7.272958  137.682877  -97.279931   21.764652    0.000000    0.000000    0.000000    0.000000
  0.033800000   -7.273724  137.462158  -98.132604   11.142540    0.000000    0.000000    0.000000    0.000000
  0.034000000   -7.279767  137.178986  -99.649052    4.760417    0.000000    0.000000    0.000000    0.000000
  0.034200000   -7.283785  136.906647  -96.918383    7.193428    0.000000    0.000000    0.000000    0.000000
  0.034400000   -7.285699  136.618042  -98.320001    8.519371    0.000000    0.000000    0.000000    0.000000
  0.034600000   -7.291564  136.336243  -99.124063   20.125311    0.000000    0.000000    0.000000    0.000000
  0.034800000   -7.298754  136.056137 -100.150090    7.333921    0.000000    0.000000    0.000000    0.000000
  0.035000000   -7.300984  135.789795  -98.179070   16.306170    0.000000    0.000000    0.000000    0.000000
  0.035200000   -7.300544  135.507599  -99.289003   14.519117    0.000000    0.000000    0.000000    0.000000
  0.035400000   -7.296738  135.240067  -97.447041   11.145990    0.000000    0.000000    0.000000    0.000000
  0.035600000   -7.293115  134.974274  -98.697611    5.049173    0.000000    0.000000    0.000000    0.000000
  0.035800000   -7.287205  134.693161  -97.816242   11.533296    0.000000    0.000000    0.000000    0.000000
  0.036000000   -7.285383  134.405090  -98.039169    8.596910    0.000000    0.000000    0.000000    0.000000
  0.036200000   -7.278197  134.184814  -99.818467   10.665293    0.000000    0.000000    0.000000    0.000000
  0.036400000   -7.275086  133.928558  -99.663611    6.043837    0.000000    0.000000    0.000000    0.000000
  0.036600000   -7.266567  133.700241  -97.441300    2.302486    0.000000    0.000000    0.000000    0.000000
  0.036800000   -7.265819  133.509048  -96.775994   -0.563614    0.000000    0.000000    0.000000    0.000000
  0.037000000   -7.260319  133.310562  -99.574728   11.710747    0.000000    0.000000    0.000000    0.000000
  0.037200000   -7.267473  133.052750 -100.428525   12.604001    0.000000    0.000000    0.000000    0.000000
  0.037400000   -7.269044  132.830536  -99.580014    3.084702    0.000000    0.000000    0.000000    0.000000
  0.037600000   -7.271484  132.613785  -99.236306    5.053668    0.000000    0.000000    0.000000    0.000000
  0.037800000   -7.275771  132.351227  -99.321325   12.465349    0.000000    0.000000    0.000000    0.000000
  0.038000000   -7.282859  132.100830  -98.354812   -0.171886    0.000000    0.000000    0.000000    0.000000
  0.038200000   -7.287789  131.813858 -101.010209   15.943866    0.000000    0.000000    0.000000    0.000000
  0.038400000   -7.286475  131.552460  -98.462089    4.370420    0.000000    0.000000    0.000000    0.000000
  0.038600000   -7.292280  131.290359 -102.663313   -2.478222    0.000000    0.000000    0.000000    0.000000
  0.038800000   -7.291499  131.017883  -97.622141    8.180856    0.000000    0.000000    0.000000    0.000000
  0.039000000   -7.293658  130.736679  -98.047143   -0.565860    0.000000    0.000000    0.000000    0.000000
  0.039200000   -7.292962  130.502380 -100.129715   17.255424    0.000000    0.000000    0.000000    0.000000
  0.039400000   -7.292047  130.250839 -103.247704   22.303719    0.000000    0.000000    0.000000    0.000000
  0.039600000   -7.291641  129.986801 -102.194604    6.372714    0.000000    0.000000    0.000000    0.000000
  0.039800000   -7.281544  129.700378  -99.577917   11.805141    0.000000    0.000000    0.000000    0.000000
  0.040000000   -7.281753  129.404907 -100.235471    6.717052    0.000000    0.000000    0.000000    0.000000
  0.040200000   -7.272341  129.162689  -99.898269   11.415426    0.000000    0.000000    0.000000    0.000000
  0.040400000   -7.265267  128.936905 -101.376202   14.890348    0.000000    0.000000    0.000000    0.000000
  0.040600000   -7.264418  128.733612  -99.080496   13.001431    0.000000    0.000000    0.000000    0.000000
  0.040800000   -7.259903  128.522476 -100.313988    5.172997    0.000000    0.000000    0.000000    0.000000
  0.041000000   -7.263136  128.282990 -101.328707   12.694139    0.000000    0.000000    0.000000    0.000000
  0.041200000   -7.267623  128.086197  -99.373780   -4.216416    0.000000    0.000000    0.000000    0.000000
  0.041400000   -7.272134  127.870895 -102.069781   11.146540    0.000000    0.000000    0.000000    0.000000
  0.041600000   -7.278509  127.630173 -101.630517   10.406839    0.000000    0.000000    0.000000    0.000000
  0.041800000   -7.284884  127.339325 -101.500457   18.487751    0.000000    0.000000    0.000000    0.000000
  0.042000000   -7.290981  127.075859  -99.296111    2.934911    0.000000    0.000000    0.000000    0.000000
  0.042200000   -7.291997  126.843018 -101.102308   22.809002    0.000000    0.000000    0.000000    0.000000
  0.042400000   -7.294095  126.559624 -101.548218   11.003559    0.000000    0.000000    0.000000    0.000000
  0.042600000   -7.293115  126.277847 -102.845857   14.088098    0.000000    0.000000    0.000000    0.000000
  0.042800000   -7.288890  126.026863 -101.762772   -3.654345    0.000000    0.000000    0.000000    0.000000
