! Anritsu VNA Master:                     Model: MS2036C/10/77
! SN:                                  1601066
! /card0/usr/255.ns.sma.r200.11.s2p
! Existing Calibration Information:
! TYPE:                         Current Settings,       Active Cal Settings
! TIME:             	   12/19/2017 07:06:22 PM,    12/19/2017 06:59:48 PM
! INTERNAL TEMP:    	                   39.8 C,                    39.3 C
! # POINTS:         	                      501,                       501
! START FREQ:       	               10.000 MHz,                10.000 MHz
! STOP FREQ:        	              110.000 MHz,               110.000 MHz
! SOURCE POWER:     	                     High,                      High
! IFBW:             	                   100 Hz,                    100 Hz
! AVG FACTOR:       	                       1 ,                        1 
! REF PLANE 1:      	                     0 mm,                      0 mm
! REF PLANE 2:      	                     0 mm,                      0 mm
! CAL TYPE:         	                 Full S11,                  Full S11
! CAL METHOD:       	                     SOLT,                      SOLT
! CAL LINE TYPE:    	                     Coax,                      Coax
! DUT PORT 1:       	                N-Conn(F),                 N-Conn(F)
! DUT PORT 2:       	                K-Conn(F),                 K-Conn(F)
! CAL STATUS:       	        OK: Accuracy High,                        --
# GHZ S DB R 50.0
! FREQ.GHZ       S11DB        S11A       S21DB        S21A       S12DB        S12A       S22DB        S22A
  0.010000000   -4.555500  -10.866722  -84.150990   76.421471    0.000000    0.000000    0.000000    0.000000
  0.010200000   -4.546459  -11.049026  -85.062692   74.350891    0.000000    0.000000    0.000000    0.000000
  0.010400000   -4.544941  -11.249881  -84.881120   75.864937    0.000000    0.000000    0.000000    0.000000
  0.010600000   -4.545039  -11.459279  -84.757409   75.324814    0.000000    0.000000    0.000000    0.000000
  0.010800000   -4.548470  -11.671896  -85.188180   79.735985    0.000000    0.000000    0.000000    0.000000
  0.011000000   -4.545973  -11.914959  -84.960562   78.168488    0.000000    0.000000    0.000000    0.000000
  0.011200000   -4.548273  -12.107140  -84.792404   79.098610    0.000000    0.000000    0.000000    0.000000
  0.011400000   -4.549966  -12.359689  -85.501267   76.644203    0.000000    0.000000    0.000000    0.000000
  0.011600000   -4.546398  -12.582124  -84.622134   74.591316    0.000000    0.000000    0.000000    0.000000
  0.011800000   -4.546487  -12.798746  -84.881047   73.319832    0.000000    0.000000    0.000000    0.000000
  0.012000000   -4.546539  -13.030888  -84.688336   70.354172    0.000000    0.000000    0.000000    0.000000
  0.012200000   -4.549833  -13.246725  -84.739650   72.974396    0.000000    0.000000    0.000000    0.000000
  0.012400000   -4.550474  -13.478822  -85.181961   69.214966    0.000000    0.000000    0.000000    0.000000
  0.012600000   -4.552866  -13.694872  -85.228945   68.407028    0.000000    0.000000    0.000000    0.000000
  0.012800000   -4.552999  -13.901069  -85.330839   68.658745    0.000000    0.000000    0.000000    0.000000
  0.013000000   -4.554020  -14.124696  -84.969169   66.980103    0.000000    0.000000    0.000000    0.000000
  0.013200000   -4.553234  -14.350943  -85.479551   64.587448    0.000000    0.000000    0.000000    0.000000
  0.013400000   -4.554397  -14.561917  -85.339840   61.619938    0.000000    0.000000    0.000000    0.000000
  0.013600000   -4.552690  -14.779568  -85.359450   59.459530    0.000000    0.000000    0.000000    0.000000
  0.013800000   -4.551351  -15.013429  -85.786553   56.928562    0.000000    0.000000    0.000000    0.000000
  0.014000000   -4.552269  -15.233578  -86.293195   60.928238    0.000000    0.000000    0.000000    0.000000
  0.014200000   -4.552567  -15.464421  -85.499318   54.118172    0.000000    0.000000    0.000000    0.000000
  0.014400000   -4.553023  -15.681456  -86.793779   53.706081    0.000000    0.000000    0.000000    0.000000
  0.014600000   -4.553544  -15.907521  -86.528379   53.209900    0.000000    0.000000    0.000000    0.000000
  0.014800000   -4.556701  -16.114307  -86.672722   49.523552    0.000000    0.000000    0.000000    0.000000
  0.015000000   -4.556415  -16.338718  -87.715567   49.220211    0.000000    0.000000    0.000000    0.000000
  0.015200000   -4.557572  -16.570951  -87.129313   46.001301    0.000000    0.000000    0.000000    0.000000
  0.015400000   -4.560067  -16.797693  -87.762631   48.713215    0.000000    0.000000    0.000000    0.000000
  0.015600000   -4.560819  -16.968443  -88.399366   45.790775    0.000000    0.000000    0.000000    0.000000
  0.015800000   -4.560100  -17.263935  -88.076168   45.005028    0.000000    0.000000    0.000000    0.000000
  0.016000000   -4.556720  -17.469526  -88.692421   43.333027    0.000000    0.000000    0.000000    0.000000
  0.016200000   -4.563228  -17.668934  -88.975424   44.140198    0.000000    0.000000    0.000000    0.000000
  0.016400000   -4.563168  -17.889099  -88.938269   49.137058    0.000000    0.000000    0.000000    0.000000
  0.016600000   -4.563318  -18.106823  -89.010907   44.947182    0.000000    0.000000    0.000000    0.000000
  0.016800000   -4.564316  -18.317799  -89.904632   47.874416    0.000000    0.000000    0.000000    0.000000
  0.017000000   -4.560127  -18.565123  -90.532589   50.777699    0.000000    0.000000    0.000000    0.000000
  0.017200000   -4.558717  -18.782286  -89.838222   48.825485    0.000000    0.000000    0.000000    0.000000
  0.017400000   -4.558159  -18.986332  -90.779024   49.781342    0.000000    0.000000    0.000000    0.000000
  0.017600000   -4.557004  -19.226351  -90.902213   49.344284    0.000000    0.000000    0.000000    0.000000
  0.017800000   -4.559921  -19.425201  -90.502281   52.673744    0.000000    0.000000    0.000000    0.000000
  0.018000000   -4.561612  -19.624428  -90.643449   48.316406    0.000000    0.000000    0.000000    0.000000
  0.018200000   -4.562978  -19.837212  -90.354911   49.719299    0.000000    0.000000    0.000000    0.000000
  0.018400000   -4.566368  -20.077717  -89.702962   49.968407    0.000000    0.000000    0.000000    0.000000
  0.018600000   -4.567323  -20.284204  -89.930312   42.923347    0.000000    0.000000    0.000000    0.000000
  0.018800000   -4.567024  -20.513683  -90.359092   44.435310    0.000000    0.000000    0.000000    0.000000
  0.019000000   -4.566215  -20.737247  -90.146189   43.470322    0.000000    0.000000    0.000000    0.000000
  0.019200000   -4.566862  -20.940483  -89.938684   48.051956    0.000000    0.000000    0.000000    0.000000
  0.019400000   -4.568733  -21.150274  -90.083527   46.008636    0.000000    0.000000    0.000000    0.000000
  0.019600000   -4.567921  -21.369665  -90.767979   40.948536    0.000000    0.000000    0.000000    0.000000
  0.019800000   -4.569422  -21.569628  -90.780960   38.775562    0.000000    0.000000    0.000000    0.000000
  0.020000000   -4.569070  -21.814966  -90.755937   41.373283    0.000000    0.000000    0.000000    0.000000
  0.020200000   -4.569518  -22.018282  -90.458319   35.791931    0.000000    0.000000    0.000000    0.000000
  0.020400000   -4.570048  -22.237005  -90.815144   37.488239    0.000000    0.000000    0.000000    0.000000
  0.020600000   -4.566377  -22.457550  -90.436459   35.110374    0.000000    0.000000    0.000000    0.000000
  0.020800000   -4.567082  -22.688532  -91.434944   34.414948    0.000000    0.000000    0.000000    0.000000
  0.021000000   -4.569438  -22.914230  -91.166631   30.942894    0.000000    0.000000    0.000000    0.000000
  0.021200000   -4.573754  -23.158823  -91.194533   35.950829    0.000000    0.000000    0.000000    0.000000
  0.021400000   -4.571944  -23.375422  -91.882203   19.034143    0.000000    0.000000    0.000000    0.000000
  0.021600000   -4.570765  -23.616852  -91.633252   24.330542    0.000000    0.000000    0.000000    0.000000
  0.021800000   -4.572004  -23.832312  -91.576283   32.903343    0.000000    0.000000    0.000000    0.000000
  0.022000000   -4.577927  -24.045830  -92.204510   32.384895    0.000000    0.000000    0.000000    0.000000
  0.022200000   -4.574659  -24.268642  -92.275540   28.828886    0.000000    0.000000    0.000000    0.000000
  0.022400000   -4.574618  -24.483147  -92.161456   27.235472    0.000000    0.000000    0.000000    0.000000
  0.022600000   -4.574016  -24.691183  -91.239639   31.265781    0.000000    0.000000    0.000000    0.000000
  0.022800000   -4.578507  -24.920816  -93.850435   28.944370    0.000000    0.000000    0.000000    0.000000
  0.023000000   -4.581657  -25.143841  -92.648968   27.049263    0.000000    0.000000    0.000000    0.000000
  0.023200000   -4.583357  -25.370422  -93.414728   29.594444    0.000000    0.000000    0.000000    0.000000
  0.023400000   -4.583688  -25.591145  -92.926782   29.465862    0.000000    0.000000    0.000000    0.000000
  0.023600000   -4.582879  -25.833685  -93.371564   34.986443    0.000000    0.000000    0.000000    0.000000
  0.023800000   -4.578990  -26.070305  -93.797923   31.649170    0.000000    0.000000    0.000000    0.000000
  0.024000000   -4.575194  -26.291037  -93.237075   36.722561    0.000000    0.000000    0.000000    0.000000
  0.024200000   -4.572587  -26.514820  -94.674784   33.340332    0.000000    0.000000    0.000000    0.000000
  0.024400000   -4.573502  -26.744959  -93.980836   23.808292    0.000000    0.000000    0.000000    0.000000
  0.024600000   -4.573434  -26.975143  -93.930525   25.265196    0.000000    0.000000    0.000000    0.000000
  0.024800000   -4.574413  -27.199207  -93.388988   33.668762    0.000000    0.000000    0.000000    0.000000
  0.025000000   -4.574891  -27.411997  -95.430508   32.299847    0.000000    0.000000    0.000000    0.000000
  0.025200000   -4.575745  -27.618965  -93.251458   25.254593    0.000000    0.000000    0.000000    0.000000
  0.025400000   -4.573512  -27.806185  -93.802556   27.828341    0.000000    0.000000    0.000000    0.000000
  0.025600000   -4.576263  -27.995840  -94.127036   25.489639    0.000000    0.000000    0.000000    0.000000
  0.025800000   -4.578145  -28.201923  -93.919676   29.568207    0.000000    0.000000    0.000000    0.000000
  0.026000000   -4.582892  -28.394426  -94.027592   27.032553    0.000000    0.000000    0.000000    0.000000
  0.026200000   -4.586068  -28.610273  -93.629964   21.727365    0.000000    0.000000    0.000000    0.000000
  0.026400000   -4.587074  -28.841137  -93.771883   16.377043    0.000000    0.000000    0.000000    0.000000
  0.026600000   -4.586872  -29.046902  -95.016255   21.909277    0.000000    0.000000    0.000000    0.000000
  0.026800000   -4.587252  -29.285631  -94.788868   22.652386    0.000000    0.000000    0.000000    0.000000
  0.027000000   -4.589187  -29.506287  -94.291230   29.336584    0.000000    0.000000    0.000000    0.000000
  0.027200000   -4.589582  -29.766613  -94.586420   24.853094    0.000000    0.000000    0.000000    0.000000
  0.027400000   -4.589404  -30.000202  -95.375424   26.688845    0.000000    0.000000    0.000000    0.000000
  0.027600000   -4.591247  -30.225674  -95.722038   14.819348    0.000000    0.000000    0.000000    0.000000
  0.027800000   -4.594594  -30.465263  -95.255991   17.097216    0.000000    0.000000    0.000000    0.000000
  0.028000000   -4.595254  -30.717386  -95.923809   20.423599    0.000000    0.000000    0.000000    0.000000
  0.028200000   -4.595045  -30.968925  -95.940627   18.939749    0.000000    0.000000    0.000000    0.000000
  0.028400000   -4.591441  -31.195946  -96.272104   13.159015    0.000000    0.000000    0.000000    0.000000
  0.028600000   -4.587674  -31.396597  -96.848492   18.165855    0.000000    0.000000    0.000000    0.000000
  0.028800000   -4.582803  -31.599628  -96.086121   15.405918    0.000000    0.000000    0.000000    0.000000
  0.029000000   -4.583027  -31.784859  -96.657177   18.088879    0.000000    0.000000    0.000000    0.000000
  0.029200000   -4.583084  -31.965206  -96.466295   25.012838    0.000000    0.000000    0.000000    0.000000
  0.029400000   -4.587587  -32.152756  -96.861581   22.423496    0.000000    0.000000    0.000000    0.000000
  0.029600000   -4.589946  -32.360798  -97.158212   17.027405    0.000000    0.000000    0.000000    0.000000
  0.029800000   -4.593441  -32.560722  -95.572144   23.337185    0.000000    0.000000    0.000000    0.000000
  0.030000000   -4.602206  -32.790226  -97.115388   22.150774    0.000000    0.000000    0.000000    0.000000
  0.030200000   -4.605843  -33.012821  -97.421338   17.343870    0.000000    0.000000    0.000000    0.000000
  0.030400000   -4.607675  -33.267025  -96.858760   14.648150    0.000000    0.000000    0.000000    0.000000
  0.030600000   -4.608358  -33.531425  -97.703577   23.338438    0.000000    0.000000    0.000000    0.000000
  0.030800000   -4.606619  -33.784107  -97.192483   10.790663    0.000000    0.000000    0.000000    0.000000
  0.031000000   -4.606533  -34.044456  -97.353106   15.845390    0.000000    0.000000    0.000000    0.000000
  0.031200000   -4.596315  -34.237324  -96.128157   14.496646    0.000000    0.000000    0.000000    0.000000
  0.031400000   -4.598671  -34.508884  -97.106658   19.162127    0.000000    0.000000    0.000000    0.000000
  0.031600000   -4.591575  -34.727325  -98.161445   18.879549    0.000000    0.000000    0.000000    0.000000
  0.031800000   -4.590241  -34.947392  -96.815149   17.462753    0.000000    0.000000    0.000000    0.000000
  0.032000000   -4.587104  -35.138691  -97.541044   14.468830    0.000000    0.000000    0.000000    0.000000
  0.032200000   -4.583200  -35.348015  -97.365724   11.161665    0.000000    0.000000    0.000000    0.000000
  0.032400000   -4.573621  -35.531548  -96.638089   11.674891    0.000000    0.000000    0.000000    0.000000
  0.032600000   -4.567562  -35.718002  -95.904226   11.992751    0.000000    0.000000    0.000000    0.000000
  0.032800000   -4.566861  -35.907963  -98.065108   16.308132    0.000000    0.000000    0.000000    0.000000
  0.033000000   -4.564982  -36.085476  -99.309273   26.128695    0.000000    0.000000    0.000000    0.000000
  0.033200000   -4.567870  -36.295658  -97.545088   15.133520    0.000000    0.000000    0.000000    0.000000
  0.033400000   -4.570124  -36.502598  -95.937102   13.531121    0.000000    0.000000    0.000000    0.000000
  0.033600000   -4.570772  -36.697224  -96.210600   10.769786    0.000000    0.000000    0.000000    0.000000
  0.033800000   -4.577833  -36.912369  -96.981580    9.444157    0.000000    0.000000    0.000000    0.000000
  0.034000000   -4.579591  -37.145687  -97.792041   18.299744    0.000000    0.000000    0.000000    0.000000
  0.034200000   -4.578305  -37.376320  -96.628377    4.018161    0.000000    0.000000    0.000000    0.000000
  0.034400000   -4.586757  -37.591011  -97.498282   10.242514    0.000000    0.000000    0.000000    0.000000
  0.034600000   -4.592014  -37.822468  -97.519668    5.784680    0.000000    0.000000    0.000000    0.000000
  0.034800000   -4.595944  -38.065483  -99.069629    0.003810    0.000000    0.000000    0.000000    0.000000
  0.035000000   -4.600541  -38.325397  -98.722866    6.568999    0.000000    0.000000    0.000000    0.000000
  0.035200000   -4.601929  -38.530552  -98.425107    3.560726    0.000000    0.000000    0.000000    0.000000
  0.035400000   -4.605102  -38.763279  -98.619946   16.778412    0.000000    0.000000    0.000000    0.000000
  0.035600000   -4.607005  -39.017101  -99.756593   15.815499    0.000000    0.000000    0.000000    0.000000
  0.035800000   -4.604326  -39.227245  -99.810846   22.002665    0.000000    0.000000    0.000000    0.000000
  0.036000000   -4.604652  -39.470596  -99.806405   15.693922    0.000000    0.000000    0.000000    0.000000
  0.036200000   -4.597950  -39.715527  -98.271881   12.377406    0.000000    0.000000    0.000000    0.000000
  0.036400000   -4.592939  -39.952518 -101.022363   -5.433481    0.000000    0.000000    0.000000    0.000000
  0.036600000   -4.592984  -40.154472 -100.720962    2.001672    0.000000    0.000000    0.000000    0.000000
  0.036800000   -4.589411  -40.346443 -100.436172    1.867090    0.000000    0.000000    0.000000    0.000000
  0.037000000   -4.586455  -40.517353  -99.852258    4.757757    0.000000    0.000000    0.000000    0.000000
  0.037200000   -4.588048  -40.700035  -97.808065   13.983964    0.000000    0.000000    0.000000    0.000000
  0.037400000   -4.594597  -40.895905  -99.931079   11.411020    0.000000    0.000000    0.000000    0.000000
  0.037600000   -4.599858  -41.118393 -100.072028   -1.427346    0.000000    0.000000    0.000000    0.000000
  0.037800000   -4.607229  -41.353245  -98.766576    4.264052    0.000000    0.000000    0.000000    0.000000
  0.038000000   -4.613185  -41.567730  -97.640271   11.906218    0.000000    0.000000    0.000000    0.000000
  0.038200000   -4.620902  -41.830093 -100.606978   10.924440    0.000000    0.000000    0.000000    0.000000
  0.038400000   -4.625015  -42.060143  -98.127124   15.319777    0.000000    0.000000    0.000000    0.000000
  0.038600000   -4.628572  -42.343613 -100.576346   17.977798    0.000000    0.000000    0.000000    0.000000
  0.038800000   -4.629707  -42.571320 -100.259131   14.621637    0.000000    0.000000    0.000000    0.000000
  0.039000000   -4.624856  -42.839851 -101.812423    3.192762    0.000000    0.000000    0.000000    0.000000
  0.039200000   -4.621131  -43.086536 -100.713638   23.694855    0.000000    0.000000    0.000000    0.000000
  0.039400000   -4.619313  -43.306049 -100.837677   14.915354    0.000000    0.000000    0.000000    0.000000
  0.039600000   -4.611395  -43.553913 -100.485751   -7.305335    0.000000    0.000000    0.000000    0.000000
  0.039800000   -4.605535  -43.752605  -98.016270    7.807868    0.000000    0.000000    0.000000    0.000000
  0.040000000   -4.601555  -43.965786 -100.067241    6.290003    0.000000    0.000000    0.000000    0.000000
  0.040200000   -4.598270  -44.178558  -99.381174   -0.385095    0.000000    0.000000    0.000000    0.000000
  0.040400000   -4.597482  -44.359066  -98.967199    9.560708    0.000000    0.000000    0.000000    0.000000
  0.040600000   -4.594824  -44.529591 -101.308798    0.091487    0.000000    0.000000    0.000000    0.000000
  0.040800000   -4.597633  -44.724171 -100.739282    3.662234    0.000000    0.000000    0.000000    0.000000
  0.041000000   -4.600713  -44.953072 -101.199780   15.420636    0.000000    0.000000    0.000000    0.000000
  0.041200000   -4.606045  -45.161800 -101.011929   -3.600529    0.000000    0.000000    0.000000    0.000000
  0.041400000   -4.610116  -45.370182 -100.974479    0.571757    0.000000    0.000000    0.000000    0.000000
  0.041600000   -4.612267  -45.605709  -98.755926    7.110236    0.000000    0.000000    0.000000    0.000000
  0.041800000   -4.617740  -45.846455 -101.780563    2.239958    0.000000    0.000000    0.000000    0.000000
  0.042000000   -4.622846  -46.067730 -103.355173   12.317307    0.000000    0.000000    0.000000    0.000000
  0.042200000   -4.623792  -46.294052 -100.068260   -6.273780    0.000000    0.000000    0.000000    0.000000
  0.042400000   -4.626359  -46.497047 -102.338202    3.139920    0.000000    0.000000    0.000000    0.000000
  0.042600000   -4.622692  -46.712479 -101.658916    1.665683    0.000000    0.000000    0.000000    0.000000
  0.042800000   -4.626661  -46.935329 -101.939914    6.361614    0.000000    0.000000    0.000000    0.000000
