! Anritsu VNA Master:                     Model: MS2036C/10/77
! SN:                                  1601066
! /card0/usr/255.ns.sma.r20.22.s2p
! Existing Calibration Information:
! TYPE:                         Current Settings,       Active Cal Settings
! TIME:             	   12/19/2017 07:15:52 PM,    12/19/2017 06:59:48 PM
! INTERNAL TEMP:    	                   40.0 C,                    39.3 C
! # POINTS:         	                      501,                       501
! START FREQ:       	               10.000 MHz,                10.000 MHz
! STOP FREQ:        	              110.000 MHz,               110.000 MHz
! SOURCE POWER:     	                     High,                      High
! IFBW:             	                   100 Hz,                    100 Hz
! AVG FACTOR:       	                       1 ,                        1 
! REF PLANE 1:      	                     0 mm,                      0 mm
! REF PLANE 2:      	                     0 mm,                      0 mm
! CAL TYPE:         	                 Full S11,                  Full S11
! CAL METHOD:       	                     SOLT,                      SOLT
! CAL LINE TYPE:    	                     Coax,                      Coax
! DUT PORT 1:       	                N-Conn(F),                 N-Conn(F)
! DUT PORT 2:       	                K-Conn(F),                 K-Conn(F)
! CAL STATUS:       	        OK: Accuracy High,                        --
# GHZ S DB R 50.0
! FREQ.GHZ       S11DB        S11A       S21DB        S21A       S12DB        S12A       S22DB        S22A
  0.010000000   -7.236137  167.632034  -82.542798   79.696465    0.000000    0.000000    0.000000    0.000000
  0.010200000   -7.225761  167.416580  -82.820692   76.498764    0.000000    0.000000    0.000000    0.000000
  0.010400000   -7.221506  167.264618  -82.770056   72.594383    0.000000    0.000000    0.000000    0.000000
  0.010600000   -7.229629  166.952332  -83.307583   73.709496    0.000000    0.000000    0.000000    0.000000
  0.010800000   -7.233563  166.699600  -83.436884   70.997337    0.000000    0.000000    0.000000    0.000000
  0.011000000   -7.232231  166.443237  -83.384271   70.973610    0.000000    0.000000    0.000000    0.000000
  0.011200000   -7.234314  166.187805  -83.373603   67.231628    0.000000    0.000000    0.000000    0.000000
  0.011400000   -7.232472  165.955963  -84.356784   65.208496    0.000000    0.000000    0.000000    0.000000
  0.011600000   -7.235295  165.727570  -84.643569   67.428658    0.000000    0.000000    0.000000    0.000000
  0.011800000   -7.235421  165.505859  -84.743973   62.728519    0.000000    0.000000    0.000000    0.000000
  0.012000000   -7.235045  165.217880  -84.930896   62.105045    0.000000    0.000000    0.000000    0.000000
  0.012200000   -7.236967  164.954086  -85.352754   61.221081    0.000000    0.000000    0.000000    0.000000
  0.012400000   -7.240270  164.695496  -85.725333   60.372581    0.000000    0.000000    0.000000    0.000000
  0.012600000   -7.239565  164.445206  -86.092282   59.548336    0.000000    0.000000    0.000000    0.000000
  0.012800000   -7.243063  164.223694  -86.100746   59.091007    0.000000    0.000000    0.000000    0.000000
  0.013000000   -7.247898  163.991684  -86.065362   65.132607    0.000000    0.000000    0.000000    0.000000
  0.013200000   -7.250581  163.759155  -86.798137   60.721256    0.000000    0.000000    0.000000    0.000000
  0.013400000   -7.247785  163.505234  -87.107643   60.284370    0.000000    0.000000    0.000000    0.000000
  0.013600000   -7.244489  163.271286  -86.698145   60.160648    0.000000    0.000000    0.000000    0.000000
  0.013800000   -7.241292  163.026016  -87.862988   56.869335    0.000000    0.000000    0.000000    0.000000
  0.014000000   -7.244906  162.786682  -86.680478   61.183769    0.000000    0.000000    0.000000    0.000000
  0.014200000   -7.248728  162.555145  -88.086335   56.381004    0.000000    0.000000    0.000000    0.000000
  0.014400000   -7.251699  162.324356  -87.545532   60.622265    0.000000    0.000000    0.000000    0.000000
  0.014600000   -7.249031  162.068344  -88.173847   60.660599    0.000000    0.000000    0.000000    0.000000
  0.014800000   -7.252978  161.828232  -88.043811   58.827839    0.000000    0.000000    0.000000    0.000000
  0.015000000   -7.257750  161.567093  -88.169692   56.353443    0.000000    0.000000    0.000000    0.000000
  0.015200000   -7.257615  161.332687  -88.029545   54.611141    0.000000    0.000000    0.000000    0.000000
  0.015400000   -7.258078  161.084885  -87.990345   54.024303    0.000000    0.000000    0.000000    0.000000
  0.015600000   -7.264185  160.881683  -88.099499   57.891754    0.000000    0.000000    0.000000    0.000000
  0.015800000   -7.267338  160.595627  -87.994993   54.654327    0.000000    0.000000    0.000000    0.000000
  0.016000000   -7.272224  160.338226  -88.436145   57.181725    0.000000    0.000000    0.000000    0.000000
  0.016200000   -7.268726  160.102402  -88.062701   51.607719    0.000000    0.000000    0.000000    0.000000
  0.016400000   -7.271456  159.856155  -88.013359   55.470409    0.000000    0.000000    0.000000    0.000000
  0.016600000   -7.270173  159.618469  -88.175857   48.251789    0.000000    0.000000    0.000000    0.000000
  0.016800000   -7.268486  159.378693  -88.794840   49.934242    0.000000    0.000000    0.000000    0.000000
  0.017000000   -7.274589  159.106262  -88.556805   49.571152    0.000000    0.000000    0.000000    0.000000
  0.017200000   -7.269661  158.855606  -88.328418   45.337257    0.000000    0.000000    0.000000    0.000000
  0.017400000   -7.276502  158.621887  -89.155997   43.036201    0.000000    0.000000    0.000000    0.000000
  0.017600000   -7.275979  158.346695  -89.266338   45.745083    0.000000    0.000000    0.000000    0.000000
  0.017800000   -7.273032  158.098557  -89.614568   46.300312    0.000000    0.000000    0.000000    0.000000
  0.018000000   -7.273491  157.837143  -89.554246   40.866737    0.000000    0.000000    0.000000    0.000000
  0.018200000   -7.274137  157.591339  -90.233705   44.221497    0.000000    0.000000    0.000000    0.000000
  0.018400000   -7.275302  157.352081  -89.313987   40.623924    0.000000    0.000000    0.000000    0.000000
  0.018600000   -7.275965  157.119217  -90.207835   34.390316    0.000000    0.000000    0.000000    0.000000
  0.018800000   -7.279735  156.874130  -90.587927   41.265369    0.000000    0.000000    0.000000    0.000000
  0.019000000   -7.272052  156.635361  -90.067459   37.023022    0.000000    0.000000    0.000000    0.000000
  0.019200000   -7.277309  156.395248  -91.680644   40.646294    0.000000    0.000000    0.000000    0.000000
  0.019400000   -7.274866  156.178452  -91.437964   37.531086    0.000000    0.000000    0.000000    0.000000
  0.019600000   -7.274623  155.932465  -91.279508   41.989662    0.000000    0.000000    0.000000    0.000000
  0.019800000   -7.274748  155.695831  -90.717918   51.311119    0.000000    0.000000    0.000000    0.000000
  0.020000000   -7.277707  155.460831  -91.153921   39.737373    0.000000    0.000000    0.000000    0.000000
  0.020200000   -7.274431  155.200897  -91.950058   37.461788    0.000000    0.000000    0.000000    0.000000
  0.020400000   -7.270162  154.974075  -91.315927   36.594265    0.000000    0.000000    0.000000    0.000000
  0.020600000   -7.268831  154.728394  -92.521400   38.367897    0.000000    0.000000    0.000000    0.000000
  0.020800000   -7.265838  154.509949  -92.030453   38.839695    0.000000    0.000000    0.000000    0.000000
  0.021000000   -7.266768  154.253235  -91.704765   36.438423    0.000000    0.000000    0.000000    0.000000
  0.021200000   -7.268550  154.045731  -93.062255   39.287792    0.000000    0.000000    0.000000    0.000000
  0.021400000   -7.267784  153.797668  -92.171905   38.768269    0.000000    0.000000    0.000000    0.000000
  0.021600000   -7.273426  153.591934  -92.376310   39.507633    0.000000    0.000000    0.000000    0.000000
  0.021800000   -7.275506  153.360336  -91.134631   38.211693    0.000000    0.000000    0.000000    0.000000
  0.022000000   -7.271836  153.107758  -91.344972   39.557945    0.000000    0.000000    0.000000    0.000000
  0.022200000   -7.276182  152.885284  -92.123956   36.678780    0.000000    0.000000    0.000000    0.000000
  0.022400000   -7.277396  152.669556  -93.425248   34.386253    0.000000    0.000000    0.000000    0.000000
  0.022600000   -7.281090  152.429123  -92.467680   33.033375    0.000000    0.000000    0.000000    0.000000
  0.022800000   -7.280075  152.201645  -92.740562   31.138163    0.000000    0.000000    0.000000    0.000000
  0.023000000   -7.283232  151.964188  -92.514398   33.017208    0.000000    0.000000    0.000000    0.000000
  0.023200000   -7.283394  151.724915  -92.059917   29.179640    0.000000    0.000000    0.000000    0.000000
  0.023400000   -7.288664  151.444305  -92.761490   29.495428    0.000000    0.000000    0.000000    0.000000
  0.023600000   -7.284974  151.248520  -92.423276   26.809246    0.000000    0.000000    0.000000    0.000000
  0.023800000   -7.287620  150.996063  -93.885981   24.671797    0.000000    0.000000    0.000000    0.000000
  0.024000000   -7.284178  150.736145  -93.433912   27.286335    0.000000    0.000000    0.000000    0.000000
  0.024200000   -7.284127  150.510483  -93.317805   29.458445    0.000000    0.000000    0.000000    0.000000
  0.024400000   -7.286326  150.233551  -93.501459   23.921488    0.000000    0.000000    0.000000    0.000000
  0.024600000   -7.287759  149.968582  -93.002162   28.108944    0.000000    0.000000    0.000000    0.000000
  0.024800000   -7.286210  149.737946  -92.851758   27.482121    0.000000    0.000000    0.000000    0.000000
  0.025000000   -7.283774  149.489380  -93.402280   20.095388    0.000000    0.000000    0.000000    0.000000
  0.025200000   -7.282542  149.278152  -94.358919   25.694260    0.000000    0.000000    0.000000    0.000000
  0.025400000   -7.286412  149.061798  -94.232812   14.251674    0.000000    0.000000    0.000000    0.000000
  0.025600000   -7.290052  148.817154  -93.487699   17.710054    0.000000    0.000000    0.000000    0.000000
  0.025800000   -7.294344  148.618515  -94.726797   21.901161    0.000000    0.000000    0.000000    0.000000
  0.026000000   -7.289439  148.370255  -94.511052   19.679663    0.000000    0.000000    0.000000    0.000000
  0.026200000   -7.293028  148.126465  -94.531138   28.217165    0.000000    0.000000    0.000000    0.000000
  0.026400000   -7.298633  147.885071  -95.049647   19.484064    0.000000    0.000000    0.000000    0.000000
  0.026600000   -7.303451  147.633759  -94.850767   28.626822    0.000000    0.000000    0.000000    0.000000
  0.026800000   -7.303790  147.389984  -95.988639   13.066222    0.000000    0.000000    0.000000    0.000000
  0.027000000   -7.300741  147.122482  -94.561662   18.987429    0.000000    0.000000    0.000000    0.000000
  0.027200000   -7.301224  146.868958  -96.093484   25.858200    0.000000    0.000000    0.000000    0.000000
  0.027400000   -7.292849  146.597717  -94.907619   27.901796    0.000000    0.000000    0.000000    0.000000
  0.027600000   -7.291976  146.332077  -95.630409   22.048454    0.000000    0.000000    0.000000    0.000000
  0.027800000   -7.293893  146.080475  -94.955812   15.842284    0.000000    0.000000    0.000000    0.000000
  0.028000000   -7.292362  145.842026  -94.367584   22.426165    0.000000    0.000000    0.000000    0.000000
  0.028200000   -7.293838  145.588745  -96.044021   30.769306    0.000000    0.000000    0.000000    0.000000
  0.028400000   -7.291568  145.361694  -96.219460   20.549364    0.000000    0.000000    0.000000    0.000000
  0.028600000   -7.286278  145.163361  -95.632993   20.279718    0.000000    0.000000    0.000000    0.000000
  0.028800000   -7.287172  144.947067  -94.578828   20.362982    0.000000    0.000000    0.000000    0.000000
  0.029000000   -7.289157  144.768707  -95.425829   23.012997    0.000000    0.000000    0.000000    0.000000
  0.029200000   -7.285818  144.566391  -96.135055   25.482996    0.000000    0.000000    0.000000    0.000000
  0.029400000   -7.288686  144.366333  -95.414315   24.837725    0.000000    0.000000    0.000000    0.000000
  0.029600000   -7.289231  144.140717  -96.242037   18.272331    0.000000    0.000000    0.000000    0.000000
  0.029800000   -7.293035  143.932724  -95.941586   13.364227    0.000000    0.000000    0.000000    0.000000
  0.030000000   -7.299008  143.681580  -96.562278   18.184822    0.000000    0.000000    0.000000    0.000000
  0.030200000   -7.298501  143.420303  -96.988339    9.592089    0.000000    0.000000    0.000000    0.000000
  0.030400000   -7.302475  143.173538  -97.480236   13.004427    0.000000    0.000000    0.000000    0.000000
  0.030600000   -7.307903  142.887497  -96.407589   16.002455    0.000000    0.000000    0.000000    0.000000
  0.030800000   -7.305311  142.631622  -96.774808    8.862713    0.000000    0.000000    0.000000    0.000000
  0.031000000   -7.303245  142.390778  -97.778784    9.218761    0.000000    0.000000    0.000000    0.000000
  0.031200000   -7.301635  142.167786  -96.235611   13.322367    0.000000    0.000000    0.000000    0.000000
  0.031400000   -7.305096  141.888962  -98.470862    6.169225    0.000000    0.000000    0.000000    0.000000
  0.031600000   -7.306592  141.623520  -96.836382    9.631184    0.000000    0.000000    0.000000    0.000000
  0.031800000   -7.303229  141.339447  -98.339089    4.799436    0.000000    0.000000    0.000000    0.000000
  0.032000000   -7.302091  141.104233  -96.723383   12.552516    0.000000    0.000000    0.000000    0.000000
  0.032200000   -7.293270  140.870682  -97.150562   11.746569    0.000000    0.000000    0.000000    0.000000
  0.032400000   -7.289433  140.614380  -97.104318    5.298876    0.000000    0.000000    0.000000    0.000000
  0.032600000   -7.286403  140.404572  -98.076166    7.980023    0.000000    0.000000    0.000000    0.000000
  0.032800000   -7.281175  140.199112  -96.187295   15.298500    0.000000    0.000000    0.000000    0.000000
  0.033000000   -7.282900  139.999954  -96.175482   18.665678    0.000000    0.000000    0.000000    0.000000
  0.033200000   -7.279142  139.796509  -97.976020    5.899412    0.000000    0.000000    0.000000    0.000000
  0.033400000   -7.284459  139.612518  -98.505192   11.067801    0.000000    0.000000    0.000000    0.000000
  0.033600000   -7.286139  139.407669  -97.986808   23.590446    0.000000    0.000000    0.000000    0.000000
  0.033800000   -7.288864  139.154999  -97.646383   23.437687    0.000000    0.000000    0.000000    0.000000
  0.034000000   -7.291076  138.881790 -100.668523   -1.995965    0.000000    0.000000    0.000000    0.000000
  0.034200000   -7.296324  138.617416  -97.965377    7.606999    0.000000    0.000000    0.000000    0.000000
  0.034400000   -7.295217  138.361069  -97.039850   19.533140    0.000000    0.000000    0.000000    0.000000
  0.034600000   -7.297872  138.074692  -97.517932    8.463151    0.000000    0.000000    0.000000    0.000000
  0.034800000   -7.304505  137.800888  -98.963202   10.855091    0.000000    0.000000    0.000000    0.000000
  0.035000000   -7.303971  137.577759  -99.022387   18.621876    0.000000    0.000000    0.000000    0.000000
  0.035200000   -7.302745  137.306763 -100.098327   22.375189    0.000000    0.000000    0.000000    0.000000
  0.035400000   -7.297167  137.082581  -98.073273   10.875261    0.000000    0.000000    0.000000    0.000000
  0.035600000   -7.294243  136.819107  -98.634663   22.703913    0.000000    0.000000    0.000000    0.000000
  0.035800000   -7.289949  136.536560 -102.038699    6.105114    0.000000    0.000000    0.000000    0.000000
  0.036000000   -7.280818  136.303864  -99.697602   19.155489    0.000000    0.000000    0.000000    0.000000
  0.036200000   -7.276494  136.095581  -98.798854   11.116426    0.000000    0.000000    0.000000    0.000000
  0.036400000   -7.271994  135.866348  -99.103856   -6.009412    0.000000    0.000000    0.000000    0.000000
  0.036600000   -7.264778  135.661392  -98.500501   14.870705    0.000000    0.000000    0.000000    0.000000
  0.036800000   -7.264669  135.480255 -100.049695   12.347656    0.000000    0.000000    0.000000    0.000000
  0.037000000   -7.265554  135.254837  -98.433608   10.470360    0.000000    0.000000    0.000000    0.000000
  0.037200000   -7.269590  135.070908  -99.280692    5.365061    0.000000    0.000000    0.000000    0.000000
  0.037400000   -7.276966  134.833694 -100.584579   -6.088577    0.000000    0.000000    0.000000    0.000000
  0.037600000   -7.281539  134.565750  -99.303750    4.348526    0.000000    0.000000    0.000000    0.000000
  0.037800000   -7.282348  134.364532 -100.911771    1.853726    0.000000    0.000000    0.000000    0.000000
  0.038000000   -7.285443  134.103806 -100.851890   -6.189529    0.000000    0.000000    0.000000    0.000000
  0.038200000   -7.290131  133.850647 -100.565360    6.110554    0.000000    0.000000    0.000000    0.000000
  0.038400000   -7.290873  133.598557 -100.283902   16.535179    0.000000    0.000000    0.000000    0.000000
  0.038600000   -7.297779  133.349747 -100.136989   16.795494    0.000000    0.000000    0.000000    0.000000
  0.038800000   -7.299417  133.084290  -99.322298    6.827904    0.000000    0.000000    0.000000    0.000000
  0.039000000   -7.296900  132.856903  -99.161840   27.405464    0.000000    0.000000    0.000000    0.000000
  0.039200000   -7.292730  132.608200 -101.928027   12.743263    0.000000    0.000000    0.000000    0.000000
  0.039400000   -7.295047  132.353607 -100.756362    3.432432    0.000000    0.000000    0.000000    0.000000
  0.039600000   -7.288880  132.095627 -101.109287    2.866709    0.000000    0.000000    0.000000    0.000000
  0.039800000   -7.285588  131.822922 -103.431190   28.977184    0.000000    0.000000    0.000000    0.000000
  0.040000000   -7.279051  131.607849 -100.941524   24.811375    0.000000    0.000000    0.000000    0.000000
  0.040200000   -7.274551  131.387985 -100.234926    1.828489    0.000000    0.000000    0.000000    0.000000
  0.040400000   -7.265341  131.176010 -101.029754   17.081408    0.000000    0.000000    0.000000    0.000000
  0.040600000   -7.270320  130.970200 -100.437840   18.147175    0.000000    0.000000    0.000000    0.000000
  0.040800000   -7.271156  130.786301 -100.709175   15.554189    0.000000    0.000000    0.000000    0.000000
  0.041000000   -7.276617  130.589264  -98.847109   16.124462    0.000000    0.000000    0.000000    0.000000
  0.041200000   -7.282251  130.385178 -101.243598   -7.495907    0.000000    0.000000    0.000000    0.000000
  0.041400000   -7.290656  130.136108  -99.492252   -2.561261    0.000000    0.000000    0.000000    0.000000
  0.041600000   -7.298409  129.871033 -100.071816   17.409294    0.000000    0.000000    0.000000    0.000000
  0.041800000   -7.302065  129.631683  -99.753886   -9.470124    0.000000    0.000000    0.000000    0.000000
  0.042000000   -7.304257  129.365433 -100.726214   15.259244    0.000000    0.000000    0.000000    0.000000
  0.042200000   -7.305169  129.116135  -99.333698   14.514376    0.000000    0.000000    0.000000    0.000000
  0.042400000   -7.307804  128.835022  -99.226544   11.106249    0.000000    0.000000    0.000000    0.000000
  0.042600000   -7.303333  128.589691 -103.571525    5.299988    0.000000    0.000000    0.000000    0.000000
  0.042800000   -7.301581  128.307144 -100.716236    5.968426    0.000000    0.000000    0.000000    0.000000
