! Anritsu VNA Master:                     Model: MS2036C/10/77
! SN:                                  1601066
! /card0/usr/255.ns.sma.me.s2p
! Existing Calibration Information:
! TYPE:                         Current Settings,       Active Cal Settings
! TIME:             	   12/19/2017 07:08:58 PM,    12/19/2017 06:59:48 PM
! INTERNAL TEMP:    	                   39.8 C,                    39.3 C
! # POINTS:         	                      501,                       501
! START FREQ:       	               10.000 MHz,                10.000 MHz
! STOP FREQ:        	              110.000 MHz,               110.000 MHz
! SOURCE POWER:     	                     High,                      High
! IFBW:             	                   100 Hz,                    100 Hz
! AVG FACTOR:       	                       1 ,                        1 
! REF PLANE 1:      	                     0 mm,                      0 mm
! REF PLANE 2:      	                     0 mm,                      0 mm
! CAL TYPE:         	                 Full S11,                  Full S11
! CAL METHOD:       	                     SOLT,                      SOLT
! CAL LINE TYPE:    	                     Coax,                      Coax
! DUT PORT 1:       	                N-Conn(F),                 N-Conn(F)
! DUT PORT 2:       	                K-Conn(F),                 K-Conn(F)
! CAL STATUS:       	        OK: Accuracy High,                        --
# GHZ S DB R 50.0
! FREQ.GHZ       S11DB        S11A       S21DB        S21A       S12DB        S12A       S22DB        S22A
  0.010000000   -0.571083  -58.911400  -84.844979   85.702202    0.000000    0.000000    0.000000    0.000000
  0.010200000   -0.558074  -60.099422  -84.546093   89.372375    0.000000    0.000000    0.000000    0.000000
  0.010400000   -0.564164  -61.305893  -84.882998   84.346367    0.000000    0.000000    0.000000    0.000000
  0.010600000   -0.563445  -62.591923  -84.526022   86.472336    0.000000    0.000000    0.000000    0.000000
  0.010800000   -0.572840  -63.866802  -84.125134   83.026642    0.000000    0.000000    0.000000    0.000000
  0.011000000   -0.570096  -65.128769  -84.101024   84.001030    0.000000    0.000000    0.000000    0.000000
  0.011200000   -0.572043  -66.356255  -84.345261   79.261963    0.000000    0.000000    0.000000    0.000000
  0.011400000   -0.573902  -67.641159  -84.099071   78.226547    0.000000    0.000000    0.000000    0.000000
  0.011600000   -0.575249  -68.889191  -83.790062   77.727165    0.000000    0.000000    0.000000    0.000000
  0.011800000   -0.579485  -70.139977  -83.416155   74.778023    0.000000    0.000000    0.000000    0.000000
  0.012000000   -0.583689  -71.399719  -83.552016   70.947746    0.000000    0.000000    0.000000    0.000000
  0.012200000   -0.584328  -72.680267  -83.525131   69.813210    0.000000    0.000000    0.000000    0.000000
  0.012400000   -0.585714  -73.956841  -83.862485   66.826843    0.000000    0.000000    0.000000    0.000000
  0.012600000   -0.584661  -75.227905  -84.299603   63.402119    0.000000    0.000000    0.000000    0.000000
  0.012800000   -0.586718  -76.485519  -84.636500   61.700130    0.000000    0.000000    0.000000    0.000000
  0.013000000   -0.590762  -77.751846  -84.958104   59.870556    0.000000    0.000000    0.000000    0.000000
  0.013200000   -0.585826  -79.045708  -84.788768   56.714806    0.000000    0.000000    0.000000    0.000000
  0.013400000   -0.587827  -80.311623  -85.295052   52.881191    0.000000    0.000000    0.000000    0.000000
  0.013600000   -0.585995  -81.592659  -85.582515   51.758858    0.000000    0.000000    0.000000    0.000000
  0.013800000   -0.589043  -82.879677  -86.428713   51.305439    0.000000    0.000000    0.000000    0.000000
  0.014000000   -0.591785  -84.156334  -85.905345   48.829754    0.000000    0.000000    0.000000    0.000000
  0.014200000   -0.592960  -85.445007  -87.224090   52.571804    0.000000    0.000000    0.000000    0.000000
  0.014400000   -0.597891  -86.735344  -87.049551   49.317646    0.000000    0.000000    0.000000    0.000000
  0.014600000   -0.601355  -88.054817  -88.083253   46.178799    0.000000    0.000000    0.000000    0.000000
  0.014800000   -0.608275  -89.368126  -87.755660   48.551704    0.000000    0.000000    0.000000    0.000000
  0.015000000   -0.612512  -90.686630  -88.822766   46.873848    0.000000    0.000000    0.000000    0.000000
  0.015200000   -0.611045  -91.995567  -89.221698   47.698887    0.000000    0.000000    0.000000    0.000000
  0.015400000   -0.611461  -93.324631  -89.269460   46.692310    0.000000    0.000000    0.000000    0.000000
  0.015600000   -0.609646  -94.538765  -90.368498   49.748833    0.000000    0.000000    0.000000    0.000000
  0.015800000   -0.610650  -95.920967  -89.552550   47.662804    0.000000    0.000000    0.000000    0.000000
  0.016000000   -0.607632  -97.207428  -89.525659   55.066685    0.000000    0.000000    0.000000    0.000000
  0.016200000   -0.609812  -98.539894  -89.592487   53.676105    0.000000    0.000000    0.000000    0.000000
  0.016400000   -0.609364  -99.898521  -89.518389   52.156704    0.000000    0.000000    0.000000    0.000000
  0.016600000   -0.608001 -101.263016  -89.590339   57.538647    0.000000    0.000000    0.000000    0.000000
  0.016800000   -0.603698 -102.597710  -89.894081   59.833851    0.000000    0.000000    0.000000    0.000000
  0.017000000   -0.602413 -103.962410  -89.063971   57.363178    0.000000    0.000000    0.000000    0.000000
  0.017200000   -0.604911 -105.318504  -89.088582   50.765480    0.000000    0.000000    0.000000    0.000000
  0.017400000   -0.606729 -106.643196  -89.392225   53.773510    0.000000    0.000000    0.000000    0.000000
  0.017600000   -0.612502 -107.971321  -88.989809   56.973091    0.000000    0.000000    0.000000    0.000000
  0.017800000   -0.616845 -109.354599  -89.052179   52.963196    0.000000    0.000000    0.000000    0.000000
  0.018000000   -0.620454 -110.710068  -88.884417   47.700588    0.000000    0.000000    0.000000    0.000000
  0.018200000   -0.622420 -112.107986  -89.011821   44.595806    0.000000    0.000000    0.000000    0.000000
  0.018400000   -0.620022 -113.491783  -88.794036   47.679085    0.000000    0.000000    0.000000    0.000000
  0.018600000   -0.620079 -114.876923  -89.123571   39.710255    0.000000    0.000000    0.000000    0.000000
  0.018800000   -0.621494 -116.276512  -89.576304   40.441490    0.000000    0.000000    0.000000    0.000000
  0.019000000   -0.619043 -117.686745  -89.354990   37.767445    0.000000    0.000000    0.000000    0.000000
  0.019200000   -0.621106 -119.087036  -89.204259   37.319847    0.000000    0.000000    0.000000    0.000000
  0.019400000   -0.621259 -120.530830  -90.075571   36.201134    0.000000    0.000000    0.000000    0.000000
  0.019600000   -0.621703 -121.966240  -90.305223   29.433598    0.000000    0.000000    0.000000    0.000000
  0.019800000   -0.618447 -123.426643  -90.483288   34.196163    0.000000    0.000000    0.000000    0.000000
  0.020000000   -0.616231 -124.848068  -90.822803   33.997562    0.000000    0.000000    0.000000    0.000000
  0.020200000   -0.613496 -126.284676  -91.320184   36.968063    0.000000    0.000000    0.000000    0.000000
  0.020400000   -0.614594 -127.724236  -91.943237   30.680128    0.000000    0.000000    0.000000    0.000000
  0.020600000   -0.617120 -129.140594  -91.538769   32.252342    0.000000    0.000000    0.000000    0.000000
  0.020800000   -0.620134 -130.629456  -92.307846   36.561771    0.000000    0.000000    0.000000    0.000000
  0.021000000   -0.624411 -132.114395  -92.601803   39.024075    0.000000    0.000000    0.000000    0.000000
  0.021200000   -0.631560 -133.633347  -93.341656   34.818558    0.000000    0.000000    0.000000    0.000000
  0.021400000   -0.635251 -135.128571  -93.503078   40.580112    0.000000    0.000000    0.000000    0.000000
  0.021600000   -0.635380 -136.623642  -93.231852   37.844711    0.000000    0.000000    0.000000    0.000000
  0.021800000   -0.639751 -138.118546  -93.223153   36.339245    0.000000    0.000000    0.000000    0.000000
  0.022000000   -0.643576 -139.648178  -93.268800   33.369686    0.000000    0.000000    0.000000    0.000000
  0.022200000   -0.647518 -141.156052  -94.060984   45.390156    0.000000    0.000000    0.000000    0.000000
  0.022400000   -0.653948 -142.699036  -92.504801   43.124439    0.000000    0.000000    0.000000    0.000000
  0.022600000   -0.654217 -144.252335  -92.607062   37.186283    0.000000    0.000000    0.000000    0.000000
  0.022800000   -0.656477 -145.820251  -92.880526   31.553623    0.000000    0.000000    0.000000    0.000000
  0.023000000   -0.661932 -147.364746  -91.496706   40.233070    0.000000    0.000000    0.000000    0.000000
  0.023200000   -0.661424 -148.914871  -93.348072   40.502762    0.000000    0.000000    0.000000    0.000000
  0.023400000   -0.664922 -150.505707  -92.808968   40.144886    0.000000    0.000000    0.000000    0.000000
  0.023600000   -0.669494 -152.039948  -91.667161   33.604828    0.000000    0.000000    0.000000    0.000000
  0.023800000   -0.675088 -153.619156  -92.393477   28.462420    0.000000    0.000000    0.000000    0.000000
  0.024000000   -0.683997 -155.209030  -92.577092   31.681122    0.000000    0.000000    0.000000    0.000000
  0.024200000   -0.691754 -156.827988  -92.408145   28.652418    0.000000    0.000000    0.000000    0.000000
  0.024400000   -0.701202 -158.450241  -92.108972   27.848724    0.000000    0.000000    0.000000    0.000000
  0.024600000   -0.708135 -160.061356  -93.472620   33.441826    0.000000    0.000000    0.000000    0.000000
  0.024800000   -0.715815 -161.680511  -92.057074   23.752300    0.000000    0.000000    0.000000    0.000000
  0.025000000   -0.725720 -163.311295  -93.495106   22.632002    0.000000    0.000000    0.000000    0.000000
  0.025200000   -0.735163 -164.949417  -93.877376   22.775173    0.000000    0.000000    0.000000    0.000000
  0.025400000   -0.749397 -166.620270  -93.608121   20.066628    0.000000    0.000000    0.000000    0.000000
  0.025600000   -0.761356 -168.297562  -94.122295   17.120293    0.000000    0.000000    0.000000    0.000000
  0.025800000   -0.772933 -169.982849  -93.942622   21.959322    0.000000    0.000000    0.000000    0.000000
  0.026000000   -0.781615 -171.684189  -95.206355   12.153358    0.000000    0.000000    0.000000    0.000000
  0.026200000   -0.789253 -173.389435  -94.430292   30.387733    0.000000    0.000000    0.000000    0.000000
  0.026400000   -0.802965 -175.098846  -95.137265   22.273674    0.000000    0.000000    0.000000    0.000000
  0.026600000   -0.816602 -176.810196  -94.762023   22.572878    0.000000    0.000000    0.000000    0.000000
  0.026800000   -0.831376 -178.536713  -96.282814   25.148479    0.000000    0.000000    0.000000    0.000000
  0.027000000   -0.847455  179.720917  -94.404529   23.685759    0.000000    0.000000    0.000000    0.000000
  0.027200000   -0.862012  177.967239  -96.022574   25.947462    0.000000    0.000000    0.000000    0.000000
  0.027400000   -0.875910  176.205307  -95.203790   19.474152    0.000000    0.000000    0.000000    0.000000
  0.027600000   -0.893500  174.418869  -95.951150   25.478205    0.000000    0.000000    0.000000    0.000000
  0.027800000   -0.913793  172.636383  -97.379578   24.014557    0.000000    0.000000    0.000000    0.000000
  0.028000000   -0.933923  170.845016  -95.490858   24.972189    0.000000    0.000000    0.000000    0.000000
  0.028200000   -0.958030  169.049164  -95.350010   17.122593    0.000000    0.000000    0.000000    0.000000
  0.028400000   -0.978658  167.235123  -96.337245   23.911427    0.000000    0.000000    0.000000    0.000000
  0.028600000   -0.997155  165.434647  -95.810971   32.388844    0.000000    0.000000    0.000000    0.000000
  0.028800000   -1.017293  163.634949  -95.995329   31.039911    0.000000    0.000000    0.000000    0.000000
  0.029000000   -1.038451  161.843307  -95.382156   24.652517    0.000000    0.000000    0.000000    0.000000
  0.029200000   -1.061910  160.052750  -95.789807   19.020800    0.000000    0.000000    0.000000    0.000000
  0.029400000   -1.085592  158.238068  -95.372491   25.252171    0.000000    0.000000    0.000000    0.000000
  0.029600000   -1.113942  156.422546  -96.162450   17.034937    0.000000    0.000000    0.000000    0.000000
  0.029800000   -1.143457  154.579651  -95.558566   21.108698    0.000000    0.000000    0.000000    0.000000
  0.030000000   -1.176406  152.703812  -96.950350   22.414009    0.000000    0.000000    0.000000    0.000000
  0.030200000   -1.203649  150.800415  -96.067317   14.190398    0.000000    0.000000    0.000000    0.000000
  0.030400000   -1.235398  148.921448  -96.682039   19.826765    0.000000    0.000000    0.000000    0.000000
  0.030600000   -1.266808  147.013290  -96.813415   15.236378    0.000000    0.000000    0.000000    0.000000
  0.030800000   -1.301730  145.142029  -97.343572   19.345947    0.000000    0.000000    0.000000    0.000000
  0.031000000   -1.334290  143.252411  -96.754715    8.973908    0.000000    0.000000    0.000000    0.000000
  0.031200000   -1.372062  141.364655  -96.878666   15.239180    0.000000    0.000000    0.000000    0.000000
  0.031400000   -1.406828  139.399597  -97.916381   18.168638    0.000000    0.000000    0.000000    0.000000
  0.031600000   -1.443006  137.439911  -95.739440   21.849390    0.000000    0.000000    0.000000    0.000000
  0.031800000   -1.474365  135.460175  -96.075612    7.993678    0.000000    0.000000    0.000000    0.000000
  0.032000000   -1.505749  133.509857  -97.371238   15.027774    0.000000    0.000000    0.000000    0.000000
  0.032200000   -1.538144  131.576370  -96.291426   13.719817    0.000000    0.000000    0.000000    0.000000
  0.032400000   -1.571516  129.618210  -97.903892   10.101599    0.000000    0.000000    0.000000    0.000000
  0.032600000   -1.606736  127.690178  -98.751886   18.974197    0.000000    0.000000    0.000000    0.000000
  0.032800000   -1.644468  125.751869  -97.515382    9.058460    0.000000    0.000000    0.000000    0.000000
  0.033000000   -1.689655  123.805267  -97.362853   10.844619    0.000000    0.000000    0.000000    0.000000
  0.033200000   -1.736933  121.879318  -98.693201   10.249344    0.000000    0.000000    0.000000    0.000000
  0.033400000   -1.785449  119.898094  -98.257657    8.152021    0.000000    0.000000    0.000000    0.000000
  0.033600000   -1.836635  117.886566  -96.881654    1.163593    0.000000    0.000000    0.000000    0.000000
  0.033800000   -1.885082  115.849213  -96.555516   11.092146    0.000000    0.000000    0.000000    0.000000
  0.034000000   -1.930689  113.756874  -98.680393   16.547865    0.000000    0.000000    0.000000    0.000000
  0.034200000   -1.978995  111.668678 -100.706158   14.798655    0.000000    0.000000    0.000000    0.000000
  0.034400000   -2.023464  109.582977  -99.038334    7.413362    0.000000    0.000000    0.000000    0.000000
  0.034600000   -2.064596  107.466446  -98.133854   21.390516    0.000000    0.000000    0.000000    0.000000
  0.034800000   -2.107166  105.344017  -98.565069    6.218981    0.000000    0.000000    0.000000    0.000000
  0.035000000   -2.147694  103.306404  -98.498506    6.165939    0.000000    0.000000    0.000000    0.000000
  0.035200000   -2.186409  101.197746  -98.401556   16.529909    0.000000    0.000000    0.000000    0.000000
  0.035400000   -2.226309   99.142036  -97.965649   12.943488    0.000000    0.000000    0.000000    0.000000
  0.035600000   -2.271596   97.082802  -97.850826    9.157440    0.000000    0.000000    0.000000    0.000000
  0.035800000   -2.312036   95.006760  -99.570849   11.468966    0.000000    0.000000    0.000000    0.000000
  0.036000000   -2.355897   92.984421  -99.230957    9.526412    0.000000    0.000000    0.000000    0.000000
  0.036200000   -2.407151   90.946068  -99.451722    7.207988    0.000000    0.000000    0.000000    0.000000
  0.036400000   -2.457598   88.915627 -100.358930   19.077963    0.000000    0.000000    0.000000    0.000000
  0.036600000   -2.512219   86.896805  -99.678871   -1.766728    0.000000    0.000000    0.000000    0.000000
  0.036800000   -2.571309   84.850418  -99.118054   10.052341    0.000000    0.000000    0.000000    0.000000
  0.037000000   -2.632990   82.781013  -98.360739    1.866836    0.000000    0.000000    0.000000    0.000000
  0.037200000   -2.699170   80.690224  -99.412555   -5.292524    0.000000    0.000000    0.000000    0.000000
  0.037400000   -2.764761   78.572693  -99.359558   17.705101    0.000000    0.000000    0.000000    0.000000
  0.037600000   -2.827945   76.428101  -98.826851    9.811050    0.000000    0.000000    0.000000    0.000000
  0.037800000   -2.891638   74.325600 -100.084778    9.079148    0.000000    0.000000    0.000000    0.000000
  0.038000000   -2.950206   72.154434  -98.435451    1.531256    0.000000    0.000000    0.000000    0.000000
  0.038200000   -3.011319   70.006851  -99.776311   17.319201    0.000000    0.000000    0.000000    0.000000
  0.038400000   -3.069302   67.856819 -100.392087    7.508455    0.000000    0.000000    0.000000    0.000000
  0.038600000   -3.125798   65.748001 -100.175827   -0.547040    0.000000    0.000000    0.000000    0.000000
  0.038800000   -3.177014   63.643845 -100.245113   -2.284663    0.000000    0.000000    0.000000    0.000000
  0.039000000   -3.226465   61.575958 -100.307580    5.124650    0.000000    0.000000    0.000000    0.000000
  0.039200000   -3.280464   59.543159 -100.106004   17.807417    0.000000    0.000000    0.000000    0.000000
  0.039400000   -3.338794   57.527924  -99.960513   19.222763    0.000000    0.000000    0.000000    0.000000
  0.039600000   -3.399720   55.501846  -99.276045   19.329725    0.000000    0.000000    0.000000    0.000000
  0.039800000   -3.463571   53.458996  -99.084835    4.895339    0.000000    0.000000    0.000000    0.000000
  0.040000000   -3.534566   51.412563  -97.826053    4.391752    0.000000    0.000000    0.000000    0.000000
  0.040200000   -3.598499   49.341114  -99.711551   11.070475    0.000000    0.000000    0.000000    0.000000
  0.040400000   -3.663940   47.236904 -101.093155   15.058064    0.000000    0.000000    0.000000    0.000000
  0.040600000   -3.730098   45.145035  -99.191368    9.580617    0.000000    0.000000    0.000000    0.000000
  0.040800000   -3.792127   43.063507  -99.578320    2.846667    0.000000    0.000000    0.000000    0.000000
  0.041000000   -3.857396   41.002193  -99.128372    6.908812    0.000000    0.000000    0.000000    0.000000
  0.041200000   -3.917320   38.917286 -101.817457    1.564778    0.000000    0.000000    0.000000    0.000000
  0.041400000   -3.978386   36.825111 -100.583482    1.585086    0.000000    0.000000    0.000000    0.000000
  0.041600000   -4.032909   34.736511 -101.779120   -1.693326    0.000000    0.000000    0.000000    0.000000
  0.041800000   -4.088169   32.659565 -102.883396  -12.366027    0.000000    0.000000    0.000000    0.000000
  0.042000000   -4.143631   30.621349  -99.958897   -2.685323    0.000000    0.000000    0.000000    0.000000
  0.042200000   -4.194215   28.554884  -99.402867   21.875231    0.000000    0.000000    0.000000    0.000000
  0.042400000   -4.245169   26.544331 -100.275021   17.098763    0.000000    0.000000    0.000000    0.000000
  0.042600000   -4.300032   24.543709 -101.845921   -3.430182    0.000000    0.000000    0.000000    0.000000
  0.042800000   -4.352981   22.514620 -102.501057    1.636890    0.000000    0.000000    0.000000    0.000000
