! Anritsu VNA Master:                     Model: MS2036C/10/77
! SN:                                  1601066
! /card0/usr/255.ns.sma.r200.22.s2p
! Existing Calibration Information:
! TYPE:                         Current Settings,       Active Cal Settings
! TIME:             	   12/19/2017 07:18:24 PM,    12/19/2017 06:59:48 PM
! INTERNAL TEMP:    	                   40.0 C,                    39.3 C
! # POINTS:         	                      501,                       501
! START FREQ:       	               10.000 MHz,                10.000 MHz
! STOP FREQ:        	              110.000 MHz,               110.000 MHz
! SOURCE POWER:     	                     High,                      High
! IFBW:             	                   100 Hz,                    100 Hz
! AVG FACTOR:       	                       1 ,                        1 
! REF PLANE 1:      	                     0 mm,                      0 mm
! REF PLANE 2:      	                     0 mm,                      0 mm
! CAL TYPE:         	                 Full S11,                  Full S11
! CAL METHOD:       	                     SOLT,                      SOLT
! CAL LINE TYPE:    	                     Coax,                      Coax
! DUT PORT 1:       	                N-Conn(F),                 N-Conn(F)
! DUT PORT 2:       	                K-Conn(F),                 K-Conn(F)
! CAL STATUS:       	        OK: Accuracy High,                        --
# GHZ S DB R 50.0
! FREQ.GHZ       S11DB        S11A       S21DB        S21A       S12DB        S12A       S22DB        S22A
  0.010000000   -4.556009  -10.939928  -84.759875   73.954544    0.000000    0.000000    0.000000    0.000000
  0.010200000   -4.545554  -11.115747  -84.586576   75.338554    0.000000    0.000000    0.000000    0.000000
  0.010400000   -4.547575  -11.342101  -84.174801   72.582893    0.000000    0.000000    0.000000    0.000000
  0.010600000   -4.545030  -11.545405  -84.611912   76.536713    0.000000    0.000000    0.000000    0.000000
  0.010800000   -4.547361  -11.759573  -84.910955   77.240402    0.000000    0.000000    0.000000    0.000000
  0.011000000   -4.547130  -11.993775  -85.095035   78.589851    0.000000    0.000000    0.000000    0.000000
  0.011200000   -4.548731  -12.201986  -84.993006   73.325493    0.000000    0.000000    0.000000    0.000000
  0.011400000   -4.549449  -12.439169  -84.826344   75.724808    0.000000    0.000000    0.000000    0.000000
  0.011600000   -4.547221  -12.671145  -84.832837   74.170158    0.000000    0.000000    0.000000    0.000000
  0.011800000   -4.549178  -12.880566  -84.900695   77.047119    0.000000    0.000000    0.000000    0.000000
  0.012000000   -4.549099  -13.091599  -85.155260   75.273781    0.000000    0.000000    0.000000    0.000000
  0.012200000   -4.551520  -13.322518  -85.107690   72.389824    0.000000    0.000000    0.000000    0.000000
  0.012400000   -4.550096  -13.564095  -85.550248   71.162842    0.000000    0.000000    0.000000    0.000000
  0.012600000   -4.554840  -13.779758  -85.252155   72.100868    0.000000    0.000000    0.000000    0.000000
  0.012800000   -4.554473  -13.991640  -85.149309   67.827232    0.000000    0.000000    0.000000    0.000000
  0.013000000   -4.557071  -14.229625  -85.185491   68.417427    0.000000    0.000000    0.000000    0.000000
  0.013200000   -4.555170  -14.457649  -85.544119   64.476883    0.000000    0.000000    0.000000    0.000000
  0.013400000   -4.556643  -14.680033  -85.688974   62.024887    0.000000    0.000000    0.000000    0.000000
  0.013600000   -4.554865  -14.897012  -85.398878   58.569489    0.000000    0.000000    0.000000    0.000000
  0.013800000   -4.552776  -15.127398  -85.633592   59.419552    0.000000    0.000000    0.000000    0.000000
  0.014000000   -4.553515  -15.341870  -85.679287   55.653484    0.000000    0.000000    0.000000    0.000000
  0.014200000   -4.556901  -15.592920  -86.019488   53.341976    0.000000    0.000000    0.000000    0.000000
  0.014400000   -4.555214  -15.823810  -86.511737   52.611835    0.000000    0.000000    0.000000    0.000000
  0.014600000   -4.555225  -16.052660  -87.317289   53.152985    0.000000    0.000000    0.000000    0.000000
  0.014800000   -4.557603  -16.266056  -86.774289   49.462688    0.000000    0.000000    0.000000    0.000000
  0.015000000   -4.557309  -16.488323  -86.617325   48.728561    0.000000    0.000000    0.000000    0.000000
  0.015200000   -4.557324  -16.716391  -87.972233   47.630718    0.000000    0.000000    0.000000    0.000000
  0.015400000   -4.558152  -16.946777  -87.782141   49.151138    0.000000    0.000000    0.000000    0.000000
  0.015600000   -4.557982  -17.125597  -88.722614   49.971539    0.000000    0.000000    0.000000    0.000000
  0.015800000   -4.558414  -17.390627  -88.509108   44.122543    0.000000    0.000000    0.000000    0.000000
  0.016000000   -4.556718  -17.614117  -88.401637   44.175655    0.000000    0.000000    0.000000    0.000000
  0.016200000   -4.559733  -17.806187  -89.189130   43.040840    0.000000    0.000000    0.000000    0.000000
  0.016400000   -4.560973  -18.022091  -89.956501   46.195698    0.000000    0.000000    0.000000    0.000000
  0.016600000   -4.561199  -18.240402  -89.615810   44.813446    0.000000    0.000000    0.000000    0.000000
  0.016800000   -4.559949  -18.449619  -89.496585   48.694695    0.000000    0.000000    0.000000    0.000000
  0.017000000   -4.557521  -18.686766  -89.893860   47.910641    0.000000    0.000000    0.000000    0.000000
  0.017200000   -4.559355  -18.894131  -90.422832   48.451149    0.000000    0.000000    0.000000    0.000000
  0.017400000   -4.553519  -19.093134  -90.129129   50.784077    0.000000    0.000000    0.000000    0.000000
  0.017600000   -4.553438  -19.329084  -90.658836   48.413536    0.000000    0.000000    0.000000    0.000000
  0.017800000   -4.556475  -19.544016  -90.790323   49.067123    0.000000    0.000000    0.000000    0.000000
  0.018000000   -4.557973  -19.731255  -89.943630   46.215698    0.000000    0.000000    0.000000    0.000000
  0.018200000   -4.560379  -19.943508  -89.609716   51.477970    0.000000    0.000000    0.000000    0.000000
  0.018400000   -4.562807  -20.184294  -90.658334   46.613621    0.000000    0.000000    0.000000    0.000000
  0.018600000   -4.566366  -20.387718  -89.986385   51.889420    0.000000    0.000000    0.000000    0.000000
  0.018800000   -4.566104  -20.620626  -90.960618   45.420715    0.000000    0.000000    0.000000    0.000000
  0.019000000   -4.568481  -20.828457  -89.467275   44.652008    0.000000    0.000000    0.000000    0.000000
  0.019200000   -4.568957  -21.027605  -89.478487   45.297646    0.000000    0.000000    0.000000    0.000000
  0.019400000   -4.572224  -21.256357  -89.590980   42.790131    0.000000    0.000000    0.000000    0.000000
  0.019600000   -4.571013  -21.481724  -90.804092   45.092339    0.000000    0.000000    0.000000    0.000000
  0.019800000   -4.574047  -21.695555  -90.484519   44.987267    0.000000    0.000000    0.000000    0.000000
  0.020000000   -4.572283  -21.924101  -89.329121   41.485985    0.000000    0.000000    0.000000    0.000000
  0.020200000   -4.570535  -22.139248  -90.953771   38.308598    0.000000    0.000000    0.000000    0.000000
  0.020400000   -4.573541  -22.375298  -90.553532   37.940662    0.000000    0.000000    0.000000    0.000000
  0.020600000   -4.569548  -22.585546  -91.611767   36.610111    0.000000    0.000000    0.000000    0.000000
  0.020800000   -4.572280  -22.830885  -90.623444   30.310526    0.000000    0.000000    0.000000    0.000000
  0.021000000   -4.573616  -23.075214  -91.284621   27.594732    0.000000    0.000000    0.000000    0.000000
  0.021200000   -4.576474  -23.313292  -90.617344   35.052082    0.000000    0.000000    0.000000    0.000000
  0.021400000   -4.576157  -23.539974  -91.940568   38.195477    0.000000    0.000000    0.000000    0.000000
  0.021600000   -4.573560  -23.794643  -91.173622   32.475983    0.000000    0.000000    0.000000    0.000000
  0.021800000   -4.577421  -23.998011  -91.757521   34.454369    0.000000    0.000000    0.000000    0.000000
  0.022000000   -4.581061  -24.219536  -91.600354   24.753778    0.000000    0.000000    0.000000    0.000000
  0.022200000   -4.579525  -24.449039  -92.072149   27.615822    0.000000    0.000000    0.000000    0.000000
  0.022400000   -4.579136  -24.654160  -92.444495   28.630232    0.000000    0.000000    0.000000    0.000000
  0.022600000   -4.576943  -24.892588  -93.060349   20.423248    0.000000    0.000000    0.000000    0.000000
  0.022800000   -4.580398  -25.122679  -92.837956   29.179893    0.000000    0.000000    0.000000    0.000000
  0.023000000   -4.584689  -25.338047  -93.229621   25.327873    0.000000    0.000000    0.000000    0.000000
  0.023200000   -4.585222  -25.560776  -92.826195   27.375076    0.000000    0.000000    0.000000    0.000000
  0.023400000   -4.583441  -25.828468  -92.411740   30.355621    0.000000    0.000000    0.000000    0.000000
  0.023600000   -4.584698  -26.031752  -93.601657   28.810516    0.000000    0.000000    0.000000    0.000000
  0.023800000   -4.579697  -26.267279  -94.617865   29.147963    0.000000    0.000000    0.000000    0.000000
  0.024000000   -4.575319  -26.489117  -95.045527   28.416567    0.000000    0.000000    0.000000    0.000000
  0.024200000   -4.573836  -26.717720  -94.380414   34.577534    0.000000    0.000000    0.000000    0.000000
  0.024400000   -4.574532  -26.962614  -93.619261   34.696022    0.000000    0.000000    0.000000    0.000000
  0.024600000   -4.576007  -27.178320  -94.573407   28.544455    0.000000    0.000000    0.000000    0.000000
  0.024800000   -4.575434  -27.386314  -93.827147   22.420679    0.000000    0.000000    0.000000    0.000000
  0.025000000   -4.573458  -27.615997  -94.442069   32.385914    0.000000    0.000000    0.000000    0.000000
  0.025200000   -4.573868  -27.831884  -94.200254   27.539604    0.000000    0.000000    0.000000    0.000000
  0.025400000   -4.576094  -28.017778  -94.119477   35.098110    0.000000    0.000000    0.000000    0.000000
  0.025600000   -4.578276  -28.205030  -94.606863   27.008909    0.000000    0.000000    0.000000    0.000000
  0.025800000   -4.580315  -28.409740  -94.060777   27.351128    0.000000    0.000000    0.000000    0.000000
  0.026000000   -4.583808  -28.601700  -94.740667   25.909742    0.000000    0.000000    0.000000    0.000000
  0.026200000   -4.585295  -28.829016  -93.631361   25.703276    0.000000    0.000000    0.000000    0.000000
  0.026400000   -4.588005  -29.070065  -95.496326   19.438549    0.000000    0.000000    0.000000    0.000000
  0.026600000   -4.587453  -29.274342  -94.781358   19.063364    0.000000    0.000000    0.000000    0.000000
  0.026800000   -4.590107  -29.507599  -95.090538   16.699337    0.000000    0.000000    0.000000    0.000000
  0.027000000   -4.591978  -29.747210  -94.841550   21.056421    0.000000    0.000000    0.000000    0.000000
  0.027200000   -4.589672  -29.994038  -95.487319   27.634977    0.000000    0.000000    0.000000    0.000000
  0.027400000   -4.591163  -30.247068  -94.281800   24.796040    0.000000    0.000000    0.000000    0.000000
  0.027600000   -4.592960  -30.474379  -94.247330   18.554419    0.000000    0.000000    0.000000    0.000000
  0.027800000   -4.594761  -30.706293  -94.539270   16.856964    0.000000    0.000000    0.000000    0.000000
  0.028000000   -4.596487  -30.966124  -95.471621   23.090767    0.000000    0.000000    0.000000    0.000000
  0.028200000   -4.595091  -31.206102  -95.852804   14.274743    0.000000    0.000000    0.000000    0.000000
  0.028400000   -4.591573  -31.441921  -95.818749   17.276394    0.000000    0.000000    0.000000    0.000000
  0.028600000   -4.586196  -31.642382  -95.589374   20.543446    0.000000    0.000000    0.000000    0.000000
  0.028800000   -4.582629  -31.842314  -95.446768   12.939876    0.000000    0.000000    0.000000    0.000000
  0.029000000   -4.580531  -32.034485  -96.527523   22.681818    0.000000    0.000000    0.000000    0.000000
  0.029200000   -4.583886  -32.221638  -96.380221   11.209788    0.000000    0.000000    0.000000    0.000000
  0.029400000   -4.584089  -32.388531  -97.896009   16.342680    0.000000    0.000000    0.000000    0.000000
  0.029600000   -4.588109  -32.594650  -97.947213   19.589157    0.000000    0.000000    0.000000    0.000000
  0.029800000   -4.592140  -32.797199  -97.112185   16.000566    0.000000    0.000000    0.000000    0.000000
  0.030000000   -4.598875  -33.018005  -96.619368   13.860653    0.000000    0.000000    0.000000    0.000000
  0.030200000   -4.603142  -33.247993  -96.213312   16.339010    0.000000    0.000000    0.000000    0.000000
  0.030400000   -4.604970  -33.508907  -96.448785   24.701925    0.000000    0.000000    0.000000    0.000000
  0.030600000   -4.604987  -33.756409  -96.668889   22.261349    0.000000    0.000000    0.000000    0.000000
  0.030800000   -4.604755  -34.019032  -97.310809   21.650116    0.000000    0.000000    0.000000    0.000000
  0.031000000   -4.604219  -34.276241  -97.571002   20.789177    0.000000    0.000000    0.000000    0.000000
  0.031200000   -4.597296  -34.472439  -96.712072   24.468445    0.000000    0.000000    0.000000    0.000000
  0.031400000   -4.596887  -34.740616  -97.940457   17.002741    0.000000    0.000000    0.000000    0.000000
  0.031600000   -4.592811  -34.937889  -97.220130   26.005610    0.000000    0.000000    0.000000    0.000000
  0.031800000   -4.593187  -35.142807  -95.660156   15.336664    0.000000    0.000000    0.000000    0.000000
  0.032000000   -4.587777  -35.361694  -96.782884   17.170670    0.000000    0.000000    0.000000    0.000000
  0.032200000   -4.583009  -35.573421  -98.889632   11.136098    0.000000    0.000000    0.000000    0.000000
  0.032400000   -4.573020  -35.748329  -97.627223   11.440799    0.000000    0.000000    0.000000    0.000000
  0.032600000   -4.568283  -35.939293  -96.813733   24.474737    0.000000    0.000000    0.000000    0.000000
  0.032800000   -4.568478  -36.116207  -98.339506   10.050119    0.000000    0.000000    0.000000    0.000000
  0.033000000   -4.567202  -36.309021  -97.253278    3.848133    0.000000    0.000000    0.000000    0.000000
  0.033200000   -4.571180  -36.515842  -97.372524   11.536078    0.000000    0.000000    0.000000    0.000000
  0.033400000   -4.574484  -36.735935  -98.899383   13.456408    0.000000    0.000000    0.000000    0.000000
  0.033600000   -4.576635  -36.938717  -97.344431   19.475910    0.000000    0.000000    0.000000    0.000000
  0.033800000   -4.580804  -37.149433  -97.785360    8.109142    0.000000    0.000000    0.000000    0.000000
  0.034000000   -4.583328  -37.388931  -98.111984   13.600364    0.000000    0.000000    0.000000    0.000000
  0.034200000   -4.584166  -37.613529  -98.411743   25.846975    0.000000    0.000000    0.000000    0.000000
  0.034400000   -4.591395  -37.840099  -97.911003    3.988778    0.000000    0.000000    0.000000    0.000000
  0.034600000   -4.596239  -38.079727  -98.524630    6.605293    0.000000    0.000000    0.000000    0.000000
  0.034800000   -4.598923  -38.317089  -97.745291    4.168407    0.000000    0.000000    0.000000    0.000000
  0.035000000   -4.604341  -38.587425  -98.581613    8.318583    0.000000    0.000000    0.000000    0.000000
  0.035200000   -4.608406  -38.810154  -98.198138  -10.344823    0.000000    0.000000    0.000000    0.000000
  0.035400000   -4.609709  -39.044594  -99.971509   17.295700    0.000000    0.000000    0.000000    0.000000
  0.035600000   -4.608234  -39.308319  -98.230547   18.898989    0.000000    0.000000    0.000000    0.000000
  0.035800000   -4.607993  -39.509075  -97.579955   22.092463    0.000000    0.000000    0.000000    0.000000
  0.036000000   -4.606603  -39.769577  -98.904396    9.696387    0.000000    0.000000    0.000000    0.000000
  0.036200000   -4.601638  -40.003685  -98.695496   16.409039    0.000000    0.000000    0.000000    0.000000
  0.036400000   -4.593755  -40.252079  -97.929321    3.413114    0.000000    0.000000    0.000000    0.000000
  0.036600000   -4.594370  -40.446011  -97.606997   16.604252    0.000000    0.000000    0.000000    0.000000
  0.036800000   -4.590837  -40.629864  -98.232474   15.890585    0.000000    0.000000    0.000000    0.000000
  0.037000000   -4.587982  -40.815750 -101.498830    9.195560    0.000000    0.000000    0.000000    0.000000
  0.037200000   -4.589849  -40.979794  -99.861026   21.131910    0.000000    0.000000    0.000000    0.000000
  0.037400000   -4.592601  -41.187645 -100.213093    6.493691    0.000000    0.000000    0.000000    0.000000
  0.037600000   -4.600808  -41.404270 -101.637083    8.388329    0.000000    0.000000    0.000000    0.000000
  0.037800000   -4.607634  -41.632011  -99.171815    4.714487    0.000000    0.000000    0.000000    0.000000
  0.038000000   -4.611665  -41.868172  -99.366751   18.318554    0.000000    0.000000    0.000000    0.000000
  0.038200000   -4.621061  -42.120461 -100.503479   29.062742    0.000000    0.000000    0.000000    0.000000
  0.038400000   -4.625513  -42.349525  -98.200401    5.820287    0.000000    0.000000    0.000000    0.000000
  0.038600000   -4.627854  -42.622681  -97.369822   13.699136    0.000000    0.000000    0.000000    0.000000
  0.038800000   -4.630106  -42.864796 -100.685753   -3.342344    0.000000    0.000000    0.000000    0.000000
  0.039000000   -4.626612  -43.115158  -97.814844    9.157120    0.000000    0.000000    0.000000    0.000000
  0.039200000   -4.624119  -43.366272  -99.928099    6.409349    0.000000    0.000000    0.000000    0.000000
  0.039400000   -4.618787  -43.596275  -98.778929    4.083892    0.000000    0.000000    0.000000    0.000000
  0.039600000   -4.615737  -43.826420 -100.665444    6.230594    0.000000    0.000000    0.000000    0.000000
  0.039800000   -4.607994  -44.057175  -99.513318   20.076345    0.000000    0.000000    0.000000    0.000000
  0.040000000   -4.601542  -44.247345 -101.358418    6.607369    0.000000    0.000000    0.000000    0.000000
  0.040200000   -4.601368  -44.455814  -99.846657   22.300995    0.000000    0.000000    0.000000    0.000000
  0.040400000   -4.600085  -44.639603 -100.388339  -10.658512    0.000000    0.000000    0.000000    0.000000
  0.040600000   -4.599169  -44.814796 -100.666377   11.385530    0.000000    0.000000    0.000000    0.000000
  0.040800000   -4.600715  -45.027111  -99.722951    6.462678    0.000000    0.000000    0.000000    0.000000
  0.041000000   -4.604564  -45.239151  -98.479634    6.103214    0.000000    0.000000    0.000000    0.000000
  0.041200000   -4.609045  -45.434742 -100.517314   -1.825017    0.000000    0.000000    0.000000    0.000000
  0.041400000   -4.614619  -45.672871 -101.526975    5.380010    0.000000    0.000000    0.000000    0.000000
  0.041600000   -4.616989  -45.899742 -101.283027   15.345558    0.000000    0.000000    0.000000    0.000000
  0.041800000   -4.621741  -46.148521 -101.019206   10.065543    0.000000    0.000000    0.000000    0.000000
  0.042000000   -4.625300  -46.370613  -99.648791   11.214807    0.000000    0.000000    0.000000    0.000000
  0.042200000   -4.626065  -46.611801 -100.810985    1.133084    0.000000    0.000000    0.000000    0.000000
  0.042400000   -4.627524  -46.827030 -101.885750   -2.612386    0.000000    0.000000    0.000000    0.000000
  0.042600000   -4.625933  -47.047375 -102.550036   10.255049    0.000000    0.000000    0.000000    0.000000
  0.042800000   -4.628788  -47.234703 -102.867278    5.258547    0.000000    0.000000    0.000000    0.000000
