! Anritsu VNA Master:                     Model: MS2036C/10/77
! SN:                                  1601066
! /card0/usr/255.ns.sma.r50.22.s2p
! Existing Calibration Information:
! TYPE:                         Current Settings,       Active Cal Settings
! TIME:             	   12/19/2017 07:17:10 PM,    12/19/2017 06:59:48 PM
! INTERNAL TEMP:    	                   40.0 C,                    39.3 C
! # POINTS:         	                      501,                       501
! START FREQ:       	               10.000 MHz,                10.000 MHz
! STOP FREQ:        	              110.000 MHz,               110.000 MHz
! SOURCE POWER:     	                     High,                      High
! IFBW:             	                   100 Hz,                    100 Hz
! AVG FACTOR:       	                       1 ,                        1 
! REF PLANE 1:      	                     0 mm,                      0 mm
! REF PLANE 2:      	                     0 mm,                      0 mm
! CAL TYPE:         	                 Full S11,                  Full S11
! CAL METHOD:       	                     SOLT,                      SOLT
! CAL LINE TYPE:    	                     Coax,                      Coax
! DUT PORT 1:       	                N-Conn(F),                 N-Conn(F)
! DUT PORT 2:       	                K-Conn(F),                 K-Conn(F)
! CAL STATUS:       	        OK: Accuracy High,                        --
# GHZ S DB R 50.0
! FREQ.GHZ       S11DB        S11A       S21DB        S21A       S12DB        S12A       S22DB        S22A
  0.010000000  -44.769808   59.865952  -83.355905   80.202347    0.000000    0.000000    0.000000    0.000000
  0.010200000  -44.733517   60.810184  -83.325874   76.317612    0.000000    0.000000    0.000000    0.000000
  0.010400000  -44.519980   62.189705  -84.063988   79.152115    0.000000    0.000000    0.000000    0.000000
  0.010600000  -44.419153   59.788074  -83.587623   73.828445    0.000000    0.000000    0.000000    0.000000
  0.010800000  -43.862516   58.544228  -83.801551   75.614571    0.000000    0.000000    0.000000    0.000000
  0.011000000  -44.074286   59.374378  -84.079692   71.514709    0.000000    0.000000    0.000000    0.000000
  0.011200000  -43.655228   59.594952  -84.211142   70.614929    0.000000    0.000000    0.000000    0.000000
  0.011400000  -43.856291   61.188278  -84.806893   72.351662    0.000000    0.000000    0.000000    0.000000
  0.011600000  -43.784334   60.528015  -84.788931   70.940231    0.000000    0.000000    0.000000    0.000000
  0.011800000  -43.754664   59.402428  -84.834080   67.707695    0.000000    0.000000    0.000000    0.000000
  0.012000000  -43.307246   60.142185  -84.711694   63.007389    0.000000    0.000000    0.000000    0.000000
  0.012200000  -43.318248   61.103336  -85.103293   63.903255    0.000000    0.000000    0.000000    0.000000
  0.012400000  -43.279354   60.802864  -85.719340   64.378708    0.000000    0.000000    0.000000    0.000000
  0.012600000  -43.027352   61.885597  -85.655104   64.332100    0.000000    0.000000    0.000000    0.000000
  0.012800000  -43.002774   61.429287  -85.310081   64.552048    0.000000    0.000000    0.000000    0.000000
  0.013000000  -43.000732   60.012249  -85.506785   60.184910    0.000000    0.000000    0.000000    0.000000
  0.013200000  -43.117595   59.071644  -85.826997   59.077160    0.000000    0.000000    0.000000    0.000000
  0.013400000  -42.974484   59.381714  -86.352435   59.865761    0.000000    0.000000    0.000000    0.000000
  0.013600000  -42.925026   60.481400  -86.737952   60.303856    0.000000    0.000000    0.000000    0.000000
  0.013800000  -42.836676   60.278938  -86.989677   58.246330    0.000000    0.000000    0.000000    0.000000
  0.014000000  -42.656577   59.983616  -86.571777   62.354813    0.000000    0.000000    0.000000    0.000000
  0.014200000  -42.715178   58.684296  -87.012279   55.874012    0.000000    0.000000    0.000000    0.000000
  0.014400000  -42.711930   58.001556  -87.077471   60.754753    0.000000    0.000000    0.000000    0.000000
  0.014600000  -42.636264   57.524590  -87.369601   57.121113    0.000000    0.000000    0.000000    0.000000
  0.014800000  -42.401337   57.996975  -87.496294   54.855362    0.000000    0.000000    0.000000    0.000000
  0.015000000  -42.321731   56.671268  -87.298642   50.794407    0.000000    0.000000    0.000000    0.000000
  0.015200000  -42.216600   56.751450  -87.336224   53.035866    0.000000    0.000000    0.000000    0.000000
  0.015400000  -42.076142   57.441597  -88.159123   50.995090    0.000000    0.000000    0.000000    0.000000
  0.015600000  -42.007302   55.298931  -87.461999   51.805866    0.000000    0.000000    0.000000    0.000000
  0.015800000  -41.865980   55.903000  -87.889196   52.713501    0.000000    0.000000    0.000000    0.000000
  0.016000000  -41.835093   53.571953  -88.630167   52.920757    0.000000    0.000000    0.000000    0.000000
  0.016200000  -41.666488   54.975513  -87.813935   48.336838    0.000000    0.000000    0.000000    0.000000
  0.016400000  -41.567990   53.706741  -88.708136   49.372452    0.000000    0.000000    0.000000    0.000000
  0.016600000  -41.392730   55.276615  -88.956420   49.984016    0.000000    0.000000    0.000000    0.000000
  0.016800000  -41.242095   54.977962  -88.353790   46.458263    0.000000    0.000000    0.000000    0.000000
  0.017000000  -41.046321   54.393501  -89.535631   52.000889    0.000000    0.000000    0.000000    0.000000
  0.017200000  -40.983983   53.856152  -88.655554   45.281166    0.000000    0.000000    0.000000    0.000000
  0.017400000  -40.871162   54.112545  -89.839184   48.775490    0.000000    0.000000    0.000000    0.000000
  0.017600000  -40.672934   53.701996  -88.625976   48.190830    0.000000    0.000000    0.000000    0.000000
  0.017800000  -40.674193   55.180370  -90.563533   41.001965    0.000000    0.000000    0.000000    0.000000
  0.018000000  -40.286537   55.719875  -89.606393   41.353199    0.000000    0.000000    0.000000    0.000000
  0.018200000  -40.340883   56.498028  -89.871228   49.065426    0.000000    0.000000    0.000000    0.000000
  0.018400000  -40.413933   55.099731  -90.374806   44.330482    0.000000    0.000000    0.000000    0.000000
  0.018600000  -40.285773   55.095531  -89.919204   43.460396    0.000000    0.000000    0.000000    0.000000
  0.018800000  -40.105510   56.380642  -90.360634   42.608521    0.000000    0.000000    0.000000    0.000000
  0.019000000  -40.215847   56.666298  -90.236525   45.439857    0.000000    0.000000    0.000000    0.000000
  0.019200000  -40.094887   56.462570  -90.335194   42.510502    0.000000    0.000000    0.000000    0.000000
  0.019400000  -40.063212   57.431652  -90.487200   42.505985    0.000000    0.000000    0.000000    0.000000
  0.019600000  -40.092799   56.780849  -91.077651   39.286953    0.000000    0.000000    0.000000    0.000000
  0.019800000  -40.001350   57.863327  -90.417853   41.336945    0.000000    0.000000    0.000000    0.000000
  0.020000000  -39.945086   57.101994  -91.584465   38.322357    0.000000    0.000000    0.000000    0.000000
  0.020200000  -39.864027   57.768250  -91.185005   41.785942    0.000000    0.000000    0.000000    0.000000
  0.020400000  -39.894361   58.002975  -91.565552   37.539700    0.000000    0.000000    0.000000    0.000000
  0.020600000  -39.814202   57.228523  -90.918116   38.265881    0.000000    0.000000    0.000000    0.000000
  0.020800000  -39.875385   57.975868  -91.804536   32.769558    0.000000    0.000000    0.000000    0.000000
  0.021000000  -39.843670   57.759682  -90.510043   33.059196    0.000000    0.000000    0.000000    0.000000
  0.021200000  -39.809002   58.767712  -92.303066   39.249470    0.000000    0.000000    0.000000    0.000000
  0.021400000  -39.669807   57.255665  -92.242461   30.967899    0.000000    0.000000    0.000000    0.000000
  0.021600000  -39.859258   56.486755  -92.362812   32.867565    0.000000    0.000000    0.000000    0.000000
  0.021800000  -39.739425   56.699459  -92.193043   40.166718    0.000000    0.000000    0.000000    0.000000
  0.022000000  -39.767327   57.972721  -92.719530   36.079639    0.000000    0.000000    0.000000    0.000000
  0.022200000  -39.773505   56.302952  -93.302415   37.736740    0.000000    0.000000    0.000000    0.000000
  0.022400000  -39.622044   56.690170  -92.501648   28.613161    0.000000    0.000000    0.000000    0.000000
  0.022600000  -39.578858   55.775703  -92.748660   36.605900    0.000000    0.000000    0.000000    0.000000
  0.022800000  -39.673887   55.481270  -92.653053   36.383236    0.000000    0.000000    0.000000    0.000000
  0.023000000  -39.689483   55.333023  -92.783124   25.719152    0.000000    0.000000    0.000000    0.000000
  0.023200000  -39.487576   54.361900  -92.853630   30.910456    0.000000    0.000000    0.000000    0.000000
  0.023400000  -39.589661   53.869774  -93.576093   29.466251    0.000000    0.000000    0.000000    0.000000
  0.023600000  -39.374154   54.432301  -94.213058   35.112709    0.000000    0.000000    0.000000    0.000000
  0.023800000  -39.421702   53.564426  -92.931187   32.063869    0.000000    0.000000    0.000000    0.000000
  0.024000000  -39.256279   54.543972  -94.148281   25.933611    0.000000    0.000000    0.000000    0.000000
  0.024200000  -39.119155   53.453495  -93.629873   33.479195    0.000000    0.000000    0.000000    0.000000
  0.024400000  -39.230332   53.433147  -92.832190   25.242489    0.000000    0.000000    0.000000    0.000000
  0.024600000  -39.199153   53.158054  -93.552706   26.299509    0.000000    0.000000    0.000000    0.000000
  0.024800000  -39.077402   52.644211  -94.536992   22.754801    0.000000    0.000000    0.000000    0.000000
  0.025000000  -38.964646   52.735241  -93.678498   17.523935    0.000000    0.000000    0.000000    0.000000
  0.025200000  -38.959502   53.001987  -93.512114   22.255268    0.000000    0.000000    0.000000    0.000000
  0.025400000  -39.087206   51.889545  -94.445599   22.899372    0.000000    0.000000    0.000000    0.000000
  0.025600000  -38.795385   52.244579  -93.938166   26.489515    0.000000    0.000000    0.000000    0.000000
  0.025800000  -38.843164   51.689457  -94.456602   30.955296    0.000000    0.000000    0.000000    0.000000
  0.026000000  -38.653889   52.283554  -96.290803   28.931150    0.000000    0.000000    0.000000    0.000000
  0.026200000  -38.667340   51.973988  -94.464344   21.561857    0.000000    0.000000    0.000000    0.000000
  0.026400000  -38.633633   51.983952  -95.118464   21.395460    0.000000    0.000000    0.000000    0.000000
  0.026600000  -38.656610   51.010658  -94.280175   28.209164    0.000000    0.000000    0.000000    0.000000
  0.026800000  -38.566114   51.449261  -93.666852   28.684294    0.000000    0.000000    0.000000    0.000000
  0.027000000  -38.508624   51.232685  -94.931476   16.812717    0.000000    0.000000    0.000000    0.000000
  0.027200000  -38.561021   50.795273  -95.446152   13.514540    0.000000    0.000000    0.000000    0.000000
  0.027400000  -38.487866   50.950008  -95.351024   20.505964    0.000000    0.000000    0.000000    0.000000
  0.027600000  -38.431001   51.199909  -95.440422   23.397839    0.000000    0.000000    0.000000    0.000000
  0.027800000  -38.344747   50.641518  -95.043446   24.159016    0.000000    0.000000    0.000000    0.000000
  0.028000000  -38.401393   50.516342  -96.283045   21.194683    0.000000    0.000000    0.000000    0.000000
  0.028200000  -38.297153   50.060265  -96.347445   18.374718    0.000000    0.000000    0.000000    0.000000
  0.028400000  -38.213835   49.936939  -96.961549   19.049057    0.000000    0.000000    0.000000    0.000000
  0.028600000  -38.273599   49.704205  -95.340301   21.827044    0.000000    0.000000    0.000000    0.000000
  0.028800000  -38.131775   49.229118  -95.877815   18.724918    0.000000    0.000000    0.000000    0.000000
  0.029000000  -38.182911   48.608955  -98.216534   16.322081    0.000000    0.000000    0.000000    0.000000
  0.029200000  -38.010250   48.611019  -96.492134   24.178814    0.000000    0.000000    0.000000    0.000000
  0.029400000  -37.929020   48.187035  -96.465315   16.576462    0.000000    0.000000    0.000000    0.000000
  0.029600000  -37.894382   48.307285  -95.607566   12.909664    0.000000    0.000000    0.000000    0.000000
  0.029800000  -37.793505   48.178566  -96.044168   17.894781    0.000000    0.000000    0.000000    0.000000
  0.030000000  -37.760508   47.731487  -95.478756   19.907501    0.000000    0.000000    0.000000    0.000000
  0.030200000  -37.603976   47.891438  -96.151832   15.394547    0.000000    0.000000    0.000000    0.000000
  0.030400000  -37.593720   46.910332  -97.402074   14.338500    0.000000    0.000000    0.000000    0.000000
  0.030600000  -37.366604   47.119091  -95.762492   21.519257    0.000000    0.000000    0.000000    0.000000
  0.030800000  -37.355995   47.228519  -98.328944   16.410524    0.000000    0.000000    0.000000    0.000000
  0.031000000  -37.322493   47.954712  -96.426720   18.537926    0.000000    0.000000    0.000000    0.000000
  0.031200000  -37.187168   47.900249  -97.128086   21.187994    0.000000    0.000000    0.000000    0.000000
  0.031400000  -37.184546   47.314598  -95.826682   22.088190    0.000000    0.000000    0.000000    0.000000
  0.031600000  -37.204768   46.924839  -96.449865   16.971327    0.000000    0.000000    0.000000    0.000000
  0.031800000  -36.991968   47.519478  -98.736815   16.930571    0.000000    0.000000    0.000000    0.000000
  0.032000000  -37.015183   47.835289  -97.290293   26.188868    0.000000    0.000000    0.000000    0.000000
  0.032200000  -37.056870   48.124043  -98.325232   22.733442    0.000000    0.000000    0.000000    0.000000
  0.032400000  -36.968714   47.855968  -98.477412    5.490508    0.000000    0.000000    0.000000    0.000000
  0.032600000  -36.870316   47.971916  -97.607799   16.031921    0.000000    0.000000    0.000000    0.000000
  0.032800000  -36.812190   48.396946  -96.948996    6.624512    0.000000    0.000000    0.000000    0.000000
  0.033000000  -36.842168   47.838402  -99.094310   11.528460    0.000000    0.000000    0.000000    0.000000
  0.033200000  -36.846254   48.103962  -99.089003    6.450143    0.000000    0.000000    0.000000    0.000000
  0.033400000  -36.845517   48.465004  -98.220187   -0.665155    0.000000    0.000000    0.000000    0.000000
  0.033600000  -36.820180   48.315166  -96.711777   -0.656913    0.000000    0.000000    0.000000    0.000000
  0.033800000  -36.763664   47.944340  -98.151506    9.625408    0.000000    0.000000    0.000000    0.000000
  0.034000000  -36.670041   48.665302  -98.604711   27.923052    0.000000    0.000000    0.000000    0.000000
  0.034200000  -36.772877   47.569477  -97.148252    7.691314    0.000000    0.000000    0.000000    0.000000
  0.034400000  -36.823298   48.120499  -97.596678   16.983265    0.000000    0.000000    0.000000    0.000000
  0.034600000  -36.655162   48.062191  -97.901145   11.247322    0.000000    0.000000    0.000000    0.000000
  0.034800000  -36.726920   47.692692 -100.192393    5.094870    0.000000    0.000000    0.000000    0.000000
  0.035000000  -36.776394   47.642376  -99.572106   11.496640    0.000000    0.000000    0.000000    0.000000
  0.035200000  -36.663572   46.948936  -98.724398    9.514014    0.000000    0.000000    0.000000    0.000000
  0.035400000  -36.602617   47.327385  -98.456200    5.338074    0.000000    0.000000    0.000000    0.000000
  0.035600000  -36.700364   46.338482  -98.686363   11.939018    0.000000    0.000000    0.000000    0.000000
  0.035800000  -36.632914   46.601238  -98.411174   17.198492    0.000000    0.000000    0.000000    0.000000
  0.036000000  -36.546998   47.253941  -98.603024   12.596214    0.000000    0.000000    0.000000    0.000000
  0.036200000  -36.512452   46.521946  -98.719412   18.509418    0.000000    0.000000    0.000000    0.000000
  0.036400000  -36.589699   46.478619  -97.969909    9.800059    0.000000    0.000000    0.000000    0.000000
  0.036600000  -36.532984   46.604668  -97.158127   23.493023    0.000000    0.000000    0.000000    0.000000
  0.036800000  -36.371601   46.533222  -97.821140   21.230310    0.000000    0.000000    0.000000    0.000000
  0.037000000  -36.429495   45.439411  -97.805772   12.254453    0.000000    0.000000    0.000000    0.000000
  0.037200000  -36.385151   45.060928  -98.404515    8.238175    0.000000    0.000000    0.000000    0.000000
  0.037400000  -36.324591   44.735172  -98.360047   -3.648082    0.000000    0.000000    0.000000    0.000000
  0.037600000  -36.291295   44.554043  -98.995538   -9.884781    0.000000    0.000000    0.000000    0.000000
  0.037800000  -36.318672   44.787857  -99.742565   -7.966823    0.000000    0.000000    0.000000    0.000000
  0.038000000  -36.139247   43.853603  -98.613672   16.034996    0.000000    0.000000    0.000000    0.000000
  0.038200000  -36.196388   43.718147  -97.230103    6.790038    0.000000    0.000000    0.000000    0.000000
  0.038400000  -36.025323   43.953938  -99.931420   11.945797    0.000000    0.000000    0.000000    0.000000
  0.038600000  -36.110264   44.167110 -100.014137    7.298325    0.000000    0.000000    0.000000    0.000000
  0.038800000  -36.056207   43.927307  -99.642185    3.140802    0.000000    0.000000    0.000000    0.000000
  0.039000000  -36.016267   43.736782  -99.653882    4.735901    0.000000    0.000000    0.000000    0.000000
  0.039200000  -35.967372   43.662357 -100.410780   11.514789    0.000000    0.000000    0.000000    0.000000
  0.039400000  -35.861317   43.193871  -98.550946   14.008935    0.000000    0.000000    0.000000    0.000000
  0.039600000  -35.827552   44.219849  -99.236403    6.134518    0.000000    0.000000    0.000000    0.000000
  0.039800000  -35.840324   43.500023  -99.989447    8.382321    0.000000    0.000000    0.000000    0.000000
  0.040000000  -35.836385   43.429432  -99.370090    8.747066    0.000000    0.000000    0.000000    0.000000
  0.040200000  -35.773702   43.497787 -102.855332   14.814327    0.000000    0.000000    0.000000    0.000000
  0.040400000  -35.756216   43.456295 -100.171783   11.496140    0.000000    0.000000    0.000000    0.000000
  0.040600000  -35.750920   42.891094 -101.300968   16.275846    0.000000    0.000000    0.000000    0.000000
  0.040800000  -35.640837   42.254349  -99.267107   18.025045    0.000000    0.000000    0.000000    0.000000
  0.041000000  -35.708325   42.508320  -99.696601   22.469891    0.000000    0.000000    0.000000    0.000000
  0.041200000  -35.574872   42.579472  -97.914497    5.267593    0.000000    0.000000    0.000000    0.000000
  0.041400000  -35.631193   42.289284 -101.516299  -11.728819    0.000000    0.000000    0.000000    0.000000
  0.041600000  -35.539637   41.768612 -101.413991   -2.277407    0.000000    0.000000    0.000000    0.000000
  0.041800000  -35.502554   41.933010 -101.099952   21.104006    0.000000    0.000000    0.000000    0.000000
  0.042000000  -35.537765   41.891895 -100.395913    1.064832    0.000000    0.000000    0.000000    0.000000
  0.042200000  -35.494344   41.673107 -101.626516    2.429656    0.000000    0.000000    0.000000    0.000000
  0.042400000  -35.401086   41.306133  -99.765599   10.494081    0.000000    0.000000    0.000000    0.000000
  0.042600000  -35.389904   41.673058 -103.118561    3.908326    0.000000    0.000000    0.000000    0.000000
  0.042800000  -35.228027   41.279022 -100.824248   13.529276    0.000000    0.000000    0.000000    0.000000
