! Anritsu VNA Master:                     Model: MS2036C/10/77
! SN:                                  1601066
! /card0/usr/255.ns.sma.r20.11.s2p
! Existing Calibration Information:
! TYPE:                         Current Settings,       Active Cal Settings
! TIME:             	   12/19/2017 07:04:12 PM,    12/19/2017 06:59:48 PM
! INTERNAL TEMP:    	                   39.8 C,                    39.3 C
! # POINTS:         	                      501,                       501
! START FREQ:       	               10.000 MHz,                10.000 MHz
! STOP FREQ:        	              110.000 MHz,               110.000 MHz
! SOURCE POWER:     	                     High,                      High
! IFBW:             	                   100 Hz,                    100 Hz
! AVG FACTOR:       	                       1 ,                        1 
! REF PLANE 1:      	                     0 mm,                      0 mm
! REF PLANE 2:      	                     0 mm,                      0 mm
! CAL TYPE:         	                 Full S11,                  Full S11
! CAL METHOD:       	                     SOLT,                      SOLT
! CAL LINE TYPE:    	                     Coax,                      Coax
! DUT PORT 1:       	                N-Conn(F),                 N-Conn(F)
! DUT PORT 2:       	                K-Conn(F),                 K-Conn(F)
! CAL STATUS:       	        OK: Accuracy High,                        --
# GHZ S DB R 50.0
! FREQ.GHZ       S11DB        S11A       S21DB        S21A       S12DB        S12A       S22DB        S22A
  0.010000000   -7.230258  167.706985  -82.382712   78.075233    0.000000    0.000000    0.000000    0.000000
  0.010200000   -7.218132  167.503662  -82.398825   74.188980    0.000000    0.000000    0.000000    0.000000
  0.010400000   -7.214845  167.296936  -83.140630   74.653145    0.000000    0.000000    0.000000    0.000000
  0.010600000   -7.220963  167.026535  -83.388007   71.794212    0.000000    0.000000    0.000000    0.000000
  0.010800000   -7.224463  166.760101  -83.699680   69.805061    0.000000    0.000000    0.000000    0.000000
  0.011000000   -7.224414  166.531876  -83.174539   69.627914    0.000000    0.000000    0.000000    0.000000
  0.011200000   -7.228590  166.297272  -83.690204   66.469711    0.000000    0.000000    0.000000    0.000000
  0.011400000   -7.224082  166.045914  -83.889952   66.918060    0.000000    0.000000    0.000000    0.000000
  0.011600000   -7.229328  165.812988  -84.620848   65.373680    0.000000    0.000000    0.000000    0.000000
  0.011800000   -7.232320  165.594406  -84.936176   64.500633    0.000000    0.000000    0.000000    0.000000
  0.012000000   -7.230663  165.300140  -84.834921   60.633064    0.000000    0.000000    0.000000    0.000000
  0.012200000   -7.231966  165.041260  -85.302385   59.185760    0.000000    0.000000    0.000000    0.000000
  0.012400000   -7.234100  164.812332  -85.751773   62.161114    0.000000    0.000000    0.000000    0.000000
  0.012600000   -7.235607  164.541916  -85.877825   61.162815    0.000000    0.000000    0.000000    0.000000
  0.012800000   -7.233726  164.304047  -86.109112   61.354149    0.000000    0.000000    0.000000    0.000000
  0.013000000   -7.240926  164.059189  -86.645374   59.638474    0.000000    0.000000    0.000000    0.000000
  0.013200000   -7.244503  163.847748  -86.630675   62.045410    0.000000    0.000000    0.000000    0.000000
  0.013400000   -7.243468  163.602646  -87.134154   61.851215    0.000000    0.000000    0.000000    0.000000
  0.013600000   -7.240760  163.367477  -86.536122   60.561581    0.000000    0.000000    0.000000    0.000000
  0.013800000   -7.234325  163.133148  -87.032122   56.819942    0.000000    0.000000    0.000000    0.000000
  0.014000000   -7.240734  162.883530  -87.930245   58.478664    0.000000    0.000000    0.000000    0.000000
  0.014200000   -7.240569  162.618073  -86.919265   59.672279    0.000000    0.000000    0.000000    0.000000
  0.014400000   -7.242791  162.379044  -87.322603   56.772934    0.000000    0.000000    0.000000    0.000000
  0.014600000   -7.240587  162.159927  -88.017470   60.434280    0.000000    0.000000    0.000000    0.000000
  0.014800000   -7.246820  161.920990  -88.060302   61.513702    0.000000    0.000000    0.000000    0.000000
  0.015000000   -7.249542  161.644531  -88.492720   57.833256    0.000000    0.000000    0.000000    0.000000
  0.015200000   -7.249468  161.409348  -88.144581   57.642296    0.000000    0.000000    0.000000    0.000000
  0.015400000   -7.249616  161.170685  -87.975685   53.550877    0.000000    0.000000    0.000000    0.000000
  0.015600000   -7.253163  160.926163  -88.069682   54.894260    0.000000    0.000000    0.000000    0.000000
  0.015800000   -7.255140  160.673660  -88.132586   54.630196    0.000000    0.000000    0.000000    0.000000
  0.016000000   -7.259454  160.426117  -87.954592   52.047215    0.000000    0.000000    0.000000    0.000000
  0.016200000   -7.257890  160.190201  -88.169179   52.261654    0.000000    0.000000    0.000000    0.000000
  0.016400000   -7.257448  159.972717  -87.944025   52.012318    0.000000    0.000000    0.000000    0.000000
  0.016600000   -7.257918  159.736404  -88.508508   46.919521    0.000000    0.000000    0.000000    0.000000
  0.016800000   -7.259239  159.481094  -88.133567   52.258663    0.000000    0.000000    0.000000    0.000000
  0.017000000   -7.260004  159.217911  -88.505817   45.662441    0.000000    0.000000    0.000000    0.000000
  0.017200000   -7.257153  158.998901  -88.419110   48.239628    0.000000    0.000000    0.000000    0.000000
  0.017400000   -7.260776  158.769531  -89.043572   49.186340    0.000000    0.000000    0.000000    0.000000
  0.017600000   -7.263425  158.503220  -88.693827   45.404106    0.000000    0.000000    0.000000    0.000000
  0.017800000   -7.258916  158.272018  -89.774635   42.325668    0.000000    0.000000    0.000000    0.000000
  0.018000000   -7.261927  158.026077  -88.969359   41.765606    0.000000    0.000000    0.000000    0.000000
  0.018200000   -7.260635  157.768326  -89.715274   43.945072    0.000000    0.000000    0.000000    0.000000
  0.018400000   -7.265550  157.544296  -89.748856   41.817142    0.000000    0.000000    0.000000    0.000000
  0.018600000   -7.266008  157.294952  -90.103318   37.785751    0.000000    0.000000    0.000000    0.000000
  0.018800000   -7.268550  157.038879  -90.361260   39.911423    0.000000    0.000000    0.000000    0.000000
  0.019000000   -7.266794  156.819946  -90.070965   32.887119    0.000000    0.000000    0.000000    0.000000
  0.019200000   -7.271130  156.598618  -90.191952   42.711433    0.000000    0.000000    0.000000    0.000000
  0.019400000   -7.266701  156.370667  -91.112519   33.591705    0.000000    0.000000    0.000000    0.000000
  0.019600000   -7.270307  156.120255  -90.591801   45.418449    0.000000    0.000000    0.000000    0.000000
  0.019800000   -7.268759  155.896851  -91.657263   40.715244    0.000000    0.000000    0.000000    0.000000
  0.020000000   -7.275883  155.651321  -91.799950   37.175991    0.000000    0.000000    0.000000    0.000000
  0.020200000   -7.269032  155.405060  -91.457294   40.375565    0.000000    0.000000    0.000000    0.000000
  0.020400000   -7.268035  155.153198  -91.125704   34.474892    0.000000    0.000000    0.000000    0.000000
  0.020600000   -7.264535  154.914032  -92.425108   39.518288    0.000000    0.000000    0.000000    0.000000
  0.020800000   -7.263682  154.669540  -91.906768   37.396786    0.000000    0.000000    0.000000    0.000000
  0.021000000   -7.262967  154.438980  -91.546063   40.970749    0.000000    0.000000    0.000000    0.000000
  0.021200000   -7.263705  154.209259  -92.190088   29.624727    0.000000    0.000000    0.000000    0.000000
  0.021400000   -7.266986  153.945816  -92.718775   36.284145    0.000000    0.000000    0.000000    0.000000
  0.021600000   -7.268919  153.753876  -92.097440   38.959141    0.000000    0.000000    0.000000    0.000000
  0.021800000   -7.271801  153.539764  -93.370414   34.675610    0.000000    0.000000    0.000000    0.000000
  0.022000000   -7.270705  153.255219  -91.997758   36.100105    0.000000    0.000000    0.000000    0.000000
  0.022200000   -7.276212  153.038315  -93.017260   41.464169    0.000000    0.000000    0.000000    0.000000
  0.022400000   -7.274579  152.801727  -93.256169   32.956638    0.000000    0.000000    0.000000    0.000000
  0.022600000   -7.276322  152.587036  -92.441823   32.394749    0.000000    0.000000    0.000000    0.000000
  0.022800000   -7.275557  152.354187  -92.771937   38.178230    0.000000    0.000000    0.000000    0.000000
  0.023000000   -7.278323  152.106323  -92.516682   35.775780    0.000000    0.000000    0.000000    0.000000
  0.023200000   -7.281345  151.874710  -92.039801   34.458202    0.000000    0.000000    0.000000    0.000000
  0.023400000   -7.282931  151.592270  -92.221317   32.512447    0.000000    0.000000    0.000000    0.000000
  0.023600000   -7.276179  151.405563  -92.635374   34.977547    0.000000    0.000000    0.000000    0.000000
  0.023800000   -7.280764  151.161423  -92.289987   27.467403    0.000000    0.000000    0.000000    0.000000
  0.024000000   -7.277362  150.892822  -92.294790   29.345388    0.000000    0.000000    0.000000    0.000000
  0.024200000   -7.274784  150.660645  -93.144771   22.962736    0.000000    0.000000    0.000000    0.000000
  0.024400000   -7.280549  150.402466  -92.840021   30.512592    0.000000    0.000000    0.000000    0.000000
  0.024600000   -7.280205  150.141220  -92.785194   29.821470    0.000000    0.000000    0.000000    0.000000
  0.024800000   -7.276314  149.889496  -94.522013   25.413494    0.000000    0.000000    0.000000    0.000000
  0.025000000   -7.277615  149.677155  -93.523531   25.257929    0.000000    0.000000    0.000000    0.000000
  0.025200000   -7.276032  149.459381  -93.098786   29.261978    0.000000    0.000000    0.000000    0.000000
  0.025400000   -7.279632  149.247177  -94.372941   24.597078    0.000000    0.000000    0.000000    0.000000
  0.025600000   -7.279542  149.001984  -94.537175   24.770958    0.000000    0.000000    0.000000    0.000000
  0.025800000   -7.286001  148.794281  -94.497242   22.955509    0.000000    0.000000    0.000000    0.000000
  0.026000000   -7.284923  148.530289  -94.036721   19.671394    0.000000    0.000000    0.000000    0.000000
  0.026200000   -7.283332  148.316284  -94.450168   27.792671    0.000000    0.000000    0.000000    0.000000
  0.026400000   -7.291524  148.080139  -94.963991   24.777672    0.000000    0.000000    0.000000    0.000000
  0.026600000   -7.295824  147.836365  -94.939771   22.391699    0.000000    0.000000    0.000000    0.000000
  0.026800000   -7.299065  147.575531  -95.573354   22.880905    0.000000    0.000000    0.000000    0.000000
  0.027000000   -7.295319  147.322174  -95.108638   14.538776    0.000000    0.000000    0.000000    0.000000
  0.027200000   -7.292441  147.049622  -95.984399   23.263138    0.000000    0.000000    0.000000    0.000000
  0.027400000   -7.287353  146.792755  -95.162748   29.959146    0.000000    0.000000    0.000000    0.000000
  0.027600000   -7.284756  146.525528  -96.300612   35.014679    0.000000    0.000000    0.000000    0.000000
  0.027800000   -7.283780  146.279678  -96.341432   16.675293    0.000000    0.000000    0.000000    0.000000
  0.028000000   -7.284746  146.027420  -95.329647   19.903435    0.000000    0.000000    0.000000    0.000000
  0.028200000   -7.282869  145.776047  -95.592979   22.272495    0.000000    0.000000    0.000000    0.000000
  0.028400000   -7.281619  145.555588  -97.311048   17.543535    0.000000    0.000000    0.000000    0.000000
  0.028600000   -7.276338  145.344772  -96.149948   28.209009    0.000000    0.000000    0.000000    0.000000
  0.028800000   -7.276479  145.149124  -95.203022   21.471907    0.000000    0.000000    0.000000    0.000000
  0.029000000   -7.277834  144.947861  -95.461075   22.865557    0.000000    0.000000    0.000000    0.000000
  0.029200000   -7.274746  144.764801  -95.613604   16.591606    0.000000    0.000000    0.000000    0.000000
  0.029400000   -7.275712  144.553818  -96.114655   17.860413    0.000000    0.000000    0.000000    0.000000
  0.029600000   -7.274027  144.348129  -97.419938   27.255711    0.000000    0.000000    0.000000    0.000000
  0.029800000   -7.279188  144.143631  -96.141780   27.083794    0.000000    0.000000    0.000000    0.000000
  0.030000000   -7.284087  143.913391  -96.786842   20.043726    0.000000    0.000000    0.000000    0.000000
  0.030200000   -7.286019  143.655991  -96.398641   21.855986    0.000000    0.000000    0.000000    0.000000
  0.030400000   -7.287623  143.416229  -96.031491    8.720972    0.000000    0.000000    0.000000    0.000000
  0.030600000   -7.289569  143.135162  -97.469125   18.841454    0.000000    0.000000    0.000000    0.000000
  0.030800000   -7.291732  142.887802  -96.757466   16.246653    0.000000    0.000000    0.000000    0.000000
  0.031000000   -7.288264  142.638306  -96.682842   19.090998    0.000000    0.000000    0.000000    0.000000
  0.031200000   -7.287421  142.425735  -97.271405   18.441036    0.000000    0.000000    0.000000    0.000000
  0.031400000   -7.292388  142.154816  -97.029902   11.763135    0.000000    0.000000    0.000000    0.000000
  0.031600000   -7.293499  141.904572  -97.645006   13.654185    0.000000    0.000000    0.000000    0.000000
  0.031800000   -7.292741  141.625763  -96.725276   19.357500    0.000000    0.000000    0.000000    0.000000
  0.032000000   -7.287493  141.404053  -96.369466    9.422125    0.000000    0.000000    0.000000    0.000000
  0.032200000   -7.282633  141.155563  -97.049734    9.828336    0.000000    0.000000    0.000000    0.000000
  0.032400000   -7.282742  140.930725  -98.964200   13.053363    0.000000    0.000000    0.000000    0.000000
  0.032600000   -7.276647  140.718445  -96.522858    6.473046    0.000000    0.000000    0.000000    0.000000
  0.032800000   -7.275290  140.490372  -98.886367    9.769002    0.000000    0.000000    0.000000    0.000000
  0.033000000   -7.275889  140.272751  -97.812523    9.556897    0.000000    0.000000    0.000000    0.000000
  0.033200000   -7.271960  140.105820  -98.191413   14.607367    0.000000    0.000000    0.000000    0.000000
  0.033400000   -7.279078  139.910034  -97.871224    6.522068    0.000000    0.000000    0.000000    0.000000
  0.033600000   -7.283211  139.688385  -98.948446    3.895664    0.000000    0.000000    0.000000    0.000000
  0.033800000   -7.285943  139.440201  -97.706466   24.282534    0.000000    0.000000    0.000000    0.000000
  0.034000000   -7.286604  139.145462  -97.633168   11.528166    0.000000    0.000000    0.000000    0.000000
  0.034200000   -7.289936  138.876205  -99.172157   10.820724    0.000000    0.000000    0.000000    0.000000
  0.034400000   -7.291178  138.636887  -97.886957   12.417614    0.000000    0.000000    0.000000    0.000000
  0.034600000   -7.294921  138.355865  -97.902609   29.015432    0.000000    0.000000    0.000000    0.000000
  0.034800000   -7.299769  138.070953  -97.420787    9.075924    0.000000    0.000000    0.000000    0.000000
  0.035000000   -7.297811  137.846085  -97.564707   14.187864    0.000000    0.000000    0.000000    0.000000
  0.035200000   -7.295800  137.570358  -97.249755   11.657310    0.000000    0.000000    0.000000    0.000000
  0.035400000   -7.289394  137.335968  -99.123822   10.767972    0.000000    0.000000    0.000000    0.000000
  0.035600000   -7.290893  137.071793 -100.150021   11.243361    0.000000    0.000000    0.000000    0.000000
  0.035800000   -7.281841  136.798615  -98.157418   10.383060    0.000000    0.000000    0.000000    0.000000
  0.036000000   -7.271476  136.565323 -100.176695   15.565852    0.000000    0.000000    0.000000    0.000000
  0.036200000   -7.269512  136.357849  -98.626246   11.278900    0.000000    0.000000    0.000000    0.000000
  0.036400000   -7.261187  136.144241  -97.425023   14.545555    0.000000    0.000000    0.000000    0.000000
  0.036600000   -7.257562  135.908356  -97.688222    6.842739    0.000000    0.000000    0.000000    0.000000
  0.036800000   -7.254696  135.741974  -98.455492   14.845915    0.000000    0.000000    0.000000    0.000000
  0.037000000   -7.257365  135.537216  -97.275478    5.591441    0.000000    0.000000    0.000000    0.000000
  0.037200000   -7.259905  135.337463  -97.253964   10.814661    0.000000    0.000000    0.000000    0.000000
  0.037400000   -7.265396  135.114182  -98.697830   17.335238    0.000000    0.000000    0.000000    0.000000
  0.037600000   -7.267338  134.846130  -99.447128   12.289435    0.000000    0.000000    0.000000    0.000000
  0.037800000   -7.268008  134.641922  -98.902123    6.552984    0.000000    0.000000    0.000000    0.000000
  0.038000000   -7.274960  134.396149  -97.853570    5.626701    0.000000    0.000000    0.000000    0.000000
  0.038200000   -7.281286  134.168427  -99.730921   12.832857    0.000000    0.000000    0.000000    0.000000
  0.038400000   -7.284871  133.878891 -100.936664   10.910666    0.000000    0.000000    0.000000    0.000000
  0.038600000   -7.287242  133.672104  -99.602410   17.320963    0.000000    0.000000    0.000000    0.000000
  0.038800000   -7.286221  133.414581 -103.096244   29.827385    0.000000    0.000000    0.000000    0.000000
  0.039000000   -7.284801  133.169556 -101.879842    3.468307    0.000000    0.000000    0.000000    0.000000
  0.039200000   -7.285227  132.914474 -100.095089    3.973099    0.000000    0.000000    0.000000    0.000000
  0.039400000   -7.285144  132.671371  -99.826574   14.576387    0.000000    0.000000    0.000000    0.000000
  0.039600000   -7.278154  132.418274  -99.095800   10.850928    0.000000    0.000000    0.000000    0.000000
  0.039800000   -7.276130  132.135712 -100.086213   24.464935    0.000000    0.000000    0.000000    0.000000
  0.040000000   -7.268617  131.928162 -101.009706   22.042860    0.000000    0.000000    0.000000    0.000000
  0.040200000   -7.264236  131.706558 -101.150213   14.737776    0.000000    0.000000    0.000000    0.000000
  0.040400000   -7.256895  131.504303 -101.072929   23.334890    0.000000    0.000000    0.000000    0.000000
  0.040600000   -7.259803  131.307327  -99.764300    1.094561    0.000000    0.000000    0.000000    0.000000
  0.040800000   -7.261906  131.105484 -100.281975   19.224073    0.000000    0.000000    0.000000    0.000000
  0.041000000   -7.268839  130.927551 -101.910787   13.163400    0.000000    0.000000    0.000000    0.000000
  0.041200000   -7.274429  130.694321 -101.670332    9.395843    0.000000    0.000000    0.000000    0.000000
  0.041400000   -7.279840  130.461258 -100.425843    9.676371    0.000000    0.000000    0.000000    0.000000
  0.041600000   -7.287880  130.199966 -102.607008   16.571920    0.000000    0.000000    0.000000    0.000000
  0.041800000   -7.291804  129.953094  -98.614084   19.474068    0.000000    0.000000    0.000000    0.000000
  0.042000000   -7.293346  129.684006 -100.267572   17.456778    0.000000    0.000000    0.000000    0.000000
  0.042200000   -7.298800  129.448776 -100.805767    3.517108    0.000000    0.000000    0.000000    0.000000
  0.042400000   -7.297325  129.167511  -98.012939    2.705793    0.000000    0.000000    0.000000    0.000000
  0.042600000   -7.291726  128.924667 -100.699087   16.482645    0.000000    0.000000    0.000000    0.000000
  0.042800000   -7.287888  128.643677 -100.170157    1.588077    0.000000    0.000000    0.000000    0.000000
