! Anritsu VNA Master:                     Model: MS2036C/10/77
! SN:                                  1601066
! /bd0/18may10/256.ns.m8.s2p
! Existing Calibration Information:
! TYPE:                         Current Settings,       Active Cal Settings
! TIME:             	   05/10/2018 11:17:02 AM,    05/10/2018 11:07:23 AM
! INTERNAL TEMP:    	                   52.5 C,                    51.3 C
! # POINTS:         	                      494,                       494
! START FREQ:       	               20.000 MHz,                20.000 MHz
! STOP FREQ:        	          118.797 594 MHz,           118.797 594 MHz
! SOURCE POWER:     	                     High,                      High
! IFBW:             	                    50 Hz,                     50 Hz
! AVG FACTOR:       	                       1 ,                        1 
! REF PLANE 1:      	                     0 mm,                      0 mm
! REF PLANE 2:      	                     0 mm,                      0 mm
! CAL TYPE:         	                 Full S22,                  Full S22
! CAL METHOD:       	                     SOLT,                      SOLT
! CAL LINE TYPE:    	                     Coax,                      Coax
! DUT PORT 1:       	                K-Conn(M),                 K-Conn(M)
! DUT PORT 2:       	                K-Conn(M),                 K-Conn(M)
! CAL STATUS:       	        OK: Accuracy High,                        --
# GHZ S DB R 50.0
! FREQ.GHZ       S11DB        S11A       S21DB        S21A       S12DB        S12A       S22DB        S22A
  0.020000000    0.000000    0.000000    0.000000    0.000000  -89.774191   33.847092   -0.614110 -126.820427
  0.020200401    0.000000    0.000000    0.000000    0.000000  -89.862173   35.656216   -0.615648 -128.288849
  0.020400802    0.000000    0.000000    0.000000    0.000000  -90.088349   34.979618   -0.621494 -129.778641
  0.020601202    0.000000    0.000000    0.000000    0.000000  -90.466484   32.669350   -0.626370 -131.280228
  0.020801603    0.000000    0.000000    0.000000    0.000000  -90.956266   35.893158   -0.629490 -132.822906
  0.021002004    0.000000    0.000000    0.000000    0.000000  -91.439828   37.225109   -0.633144 -134.378876
  0.021202405    0.000000    0.000000    0.000000    0.000000  -92.054784   36.164543   -0.637757 -135.930176
  0.021402806    0.000000    0.000000    0.000000    0.000000  -91.531197   38.641747   -0.638709 -137.471375
  0.021603206    0.000000    0.000000    0.000000    0.000000  -92.425334   36.981430   -0.645098 -139.014069
  0.021803607    0.000000    0.000000    0.000000    0.000000  -91.973186   42.841969   -0.650279 -140.559784
  0.022004008    0.000000    0.000000    0.000000    0.000000  -91.795842   41.600590   -0.655548 -142.115326
  0.022204409    0.000000    0.000000    0.000000    0.000000  -91.334064   43.451721   -0.661859 -143.699844
  0.022404810    0.000000    0.000000    0.000000    0.000000  -91.723958   47.511501   -0.668799 -145.302719
  0.022605210    0.000000    0.000000    0.000000    0.000000  -91.431041   40.347721   -0.674457 -146.905167
  0.022805611    0.000000    0.000000    0.000000    0.000000  -90.871708   41.096718   -0.682886 -148.516861
  0.023006012    0.000000    0.000000    0.000000    0.000000  -91.365140   44.601803   -0.686953 -150.114517
  0.023206413    0.000000    0.000000    0.000000    0.000000  -91.700535   44.568207   -0.691131 -151.738617
  0.023406814    0.000000    0.000000    0.000000    0.000000  -91.488537   44.933094   -0.697309 -153.340881
  0.023607214    0.000000    0.000000    0.000000    0.000000  -91.867085   40.960510   -0.707048 -154.963043
  0.023807615    0.000000    0.000000    0.000000    0.000000  -91.097258   39.178879   -0.719379 -156.586014
  0.024008016    0.000000    0.000000    0.000000    0.000000  -91.307937   35.543827   -0.728965 -158.238159
  0.024208417    0.000000    0.000000    0.000000    0.000000  -91.172919   31.180599   -0.736075 -159.910583
  0.024408818    0.000000    0.000000    0.000000    0.000000  -91.837875   31.322025   -0.743965 -161.579239
  0.024609218    0.000000    0.000000    0.000000    0.000000  -91.389539   27.968655   -0.752745 -163.259201
  0.024809619    0.000000    0.000000    0.000000    0.000000  -91.795843   28.999767   -0.765217 -164.929886
  0.025010020    0.000000    0.000000    0.000000    0.000000  -91.832824   30.586933   -0.776804 -166.612030
  0.025210421    0.000000    0.000000    0.000000    0.000000  -91.761233   29.166407   -0.789232 -168.296387
  0.025410822    0.000000    0.000000    0.000000    0.000000  -92.094186   24.439756   -0.801832 -170.002914
  0.025611222    0.000000    0.000000    0.000000    0.000000  -92.236683   23.825788   -0.815727 -171.717133
  0.025811623    0.000000    0.000000    0.000000    0.000000  -92.476263   24.930674   -0.830393 -173.448334
  0.026012024    0.000000    0.000000    0.000000    0.000000  -93.031368   22.976654   -0.843479 -175.180862
  0.026212425    0.000000    0.000000    0.000000    0.000000  -93.198730   25.994297   -0.857318 -176.941711
  0.026412826    0.000000    0.000000    0.000000    0.000000  -93.644171   28.363710   -0.873734 -178.708939
  0.026613226    0.000000    0.000000    0.000000    0.000000  -93.724552   23.622589   -0.891547  179.532990
  0.026813627    0.000000    0.000000    0.000000    0.000000  -93.855014   26.223015   -0.908362  177.743195
  0.027014028    0.000000    0.000000    0.000000    0.000000  -94.570990   20.715244   -0.927419  175.957840
  0.027214429    0.000000    0.000000    0.000000    0.000000  -94.928065   23.108335   -0.946106  174.154526
  0.027414830    0.000000    0.000000    0.000000    0.000000  -95.285443   31.275911   -0.965311  172.349380
  0.027615230    0.000000    0.000000    0.000000    0.000000  -94.922265   28.661619   -0.985731  170.528351
  0.027815631    0.000000    0.000000    0.000000    0.000000  -94.846929   30.000992   -1.006537  168.687775
  0.028016032    0.000000    0.000000    0.000000    0.000000  -94.538391   31.891451   -1.028855  166.845444
  0.028216433    0.000000    0.000000    0.000000    0.000000  -95.492396   31.816360   -1.050356  164.981079
  0.028416834    0.000000    0.000000    0.000000    0.000000  -95.129934   34.912819   -1.074200  163.114212
  0.028617234    0.000000    0.000000    0.000000    0.000000  -94.373672   36.121201   -1.098110  161.256210
  0.028817635    0.000000    0.000000    0.000000    0.000000  -93.816378   33.120586   -1.121116  159.388565
  0.029018036    0.000000    0.000000    0.000000    0.000000  -94.102556   34.215115   -1.147102  157.512833
  0.029218437    0.000000    0.000000    0.000000    0.000000  -93.632106   31.546608   -1.174003  155.630203
  0.029418838    0.000000    0.000000    0.000000    0.000000  -94.751541   28.748447   -1.202008  153.722656
  0.029619238    0.000000    0.000000    0.000000    0.000000  -93.837363   31.291460   -1.230802  151.823334
  0.029819639    0.000000    0.000000    0.000000    0.000000  -93.255957   27.200903   -1.258430  149.906677
  0.030020040    0.000000    0.000000    0.000000    0.000000  -95.049902   27.485748   -1.287605  147.992996
  0.030220441    0.000000    0.000000    0.000000    0.000000  -93.783029   28.763809   -1.316693  146.075821
  0.030420842    0.000000    0.000000    0.000000    0.000000  -94.005036   28.319090   -1.346948  144.169067
  0.030621242    0.000000    0.000000    0.000000    0.000000  -94.259161   24.669905   -1.381288  142.258087
  0.030821643    0.000000    0.000000    0.000000    0.000000  -94.202018   22.785763   -1.414387  140.337128
  0.031022044    0.000000    0.000000    0.000000    0.000000  -94.715068   23.802542   -1.449281  138.392105
  0.031222445    0.000000    0.000000    0.000000    0.000000  -94.841262   16.675791   -1.480765  136.455048
  0.031422846    0.000000    0.000000    0.000000    0.000000  -94.298840   21.472637   -1.516345  134.493027
  0.031623246    0.000000    0.000000    0.000000    0.000000  -94.377814   21.911016   -1.553113  132.524628
  0.031823647    0.000000    0.000000    0.000000    0.000000  -95.554971   28.794725   -1.591321  130.555649
  0.032024048    0.000000    0.000000    0.000000    0.000000  -94.999702   21.143730   -1.629956  128.576675
  0.032224449    0.000000    0.000000    0.000000    0.000000  -96.135757   19.887615   -1.668394  126.586967
  0.032424850    0.000000    0.000000    0.000000    0.000000  -94.828412   14.878174   -1.707963  124.605972
  0.032625250    0.000000    0.000000    0.000000    0.000000  -96.997102   20.210440   -1.750129  122.591934
  0.032825651    0.000000    0.000000    0.000000    0.000000  -95.673001   19.578321   -1.790683  120.545898
  0.033026052    0.000000    0.000000    0.000000    0.000000  -95.221474   18.412132   -1.830483  118.501900
  0.033226453    0.000000    0.000000    0.000000    0.000000  -96.089731   25.154985   -1.871308  116.480637
  0.033426854    0.000000    0.000000    0.000000    0.000000  -96.067096   25.184536   -1.915455  114.440636
  0.033627254    0.000000    0.000000    0.000000    0.000000  -96.190436   25.149183   -1.957394  112.403236
  0.033827655    0.000000    0.000000    0.000000    0.000000  -96.333445   24.849682   -2.004531  110.363182
  0.034028056    0.000000    0.000000    0.000000    0.000000  -96.053829   31.613626   -2.047864  108.315018
  0.034228457    0.000000    0.000000    0.000000    0.000000  -95.789201   27.983061   -2.094812  106.231697
  0.034428858    0.000000    0.000000    0.000000    0.000000  -96.019608   22.897043   -2.143837  104.151413
  0.034629258    0.000000    0.000000    0.000000    0.000000  -96.222858   21.057323   -2.189490  102.057495
  0.034829659    0.000000    0.000000    0.000000    0.000000  -97.563052   26.100723   -2.237868   99.963074
  0.035030060    0.000000    0.000000    0.000000    0.000000  -95.856083   29.066505   -2.289376   97.876678
  0.035230461    0.000000    0.000000    0.000000    0.000000  -96.585018   29.546520   -2.341139   95.786514
  0.035430862    0.000000    0.000000    0.000000    0.000000  -96.195178   27.990026   -2.394100   93.706696
  0.035631262    0.000000    0.000000    0.000000    0.000000  -96.426783   33.484955   -2.447266   91.609947
  0.035831663    0.000000    0.000000    0.000000    0.000000  -97.003666   25.043516   -2.496439   89.525711
  0.036032064    0.000000    0.000000    0.000000    0.000000  -95.465854   25.504913   -2.552563   87.417671
  0.036232465    0.000000    0.000000    0.000000    0.000000  -95.868168   26.285906   -2.605892   85.353607
  0.036432866    0.000000    0.000000    0.000000    0.000000  -97.589427   22.401529   -2.659275   83.269859
  0.036633266    0.000000    0.000000    0.000000    0.000000  -96.380497   23.347666   -2.713416   81.182465
  0.036833667    0.000000    0.000000    0.000000    0.000000  -95.869429   20.612581   -2.771331   79.097069
  0.037034068    0.000000    0.000000    0.000000    0.000000  -96.638801   22.270851   -2.827154   77.007240
  0.037234469    0.000000    0.000000    0.000000    0.000000  -96.776250   17.911386   -2.884164   74.922829
  0.037434870    0.000000    0.000000    0.000000    0.000000  -96.470761   22.666231   -2.943062   72.808678
  0.037635270    0.000000    0.000000    0.000000    0.000000  -97.168159   26.684786   -3.009374   70.702393
  0.037835671    0.000000    0.000000    0.000000    0.000000  -96.918917   22.929176   -3.087552   68.645416
  0.038036072    0.000000    0.000000    0.000000    0.000000  -98.253964   23.848091   -3.153490   66.667694
  0.038236473    0.000000    0.000000    0.000000    0.000000  -98.623720   26.259935   -3.207926   64.666687
  0.038436874    0.000000    0.000000    0.000000    0.000000  -97.539866   17.574221   -3.261794   62.643906
  0.038637274    0.000000    0.000000    0.000000    0.000000  -97.425878   31.530014   -3.317153   60.608421
  0.038837675    0.000000    0.000000    0.000000    0.000000  -98.130728   29.705318   -3.370715   58.555595
  0.039038076    0.000000    0.000000    0.000000    0.000000  -97.383660   22.560408   -3.420708   56.538258
  0.039238477    0.000000    0.000000    0.000000    0.000000  -98.358411   31.963434   -3.476975   54.466961
  0.039438878    0.000000    0.000000    0.000000    0.000000  -98.971421   24.837570   -3.528844   52.445351
  0.039639278    0.000000    0.000000    0.000000    0.000000  -98.309586   18.860157   -3.581801   50.398670
  0.039839679    0.000000    0.000000    0.000000    0.000000  -98.965912   30.325497   -3.635358   48.343353
  0.040040080    0.000000    0.000000    0.000000    0.000000  -97.402192   25.970312   -3.686116   46.279556
  0.040240481    0.000000    0.000000    0.000000    0.000000  -97.855260   31.893347   -3.737484   44.232079
  0.040440882    0.000000    0.000000    0.000000    0.000000  -97.981041   35.077106   -3.785726   42.195026
  0.040641283    0.000000    0.000000    0.000000    0.000000  -98.391224   37.305283   -3.837638   40.168205
  0.040841683    0.000000    0.000000    0.000000    0.000000  -97.660725   33.717220   -3.886990   38.139324
  0.041042084    0.000000    0.000000    0.000000    0.000000  -98.455465   26.674572   -3.936541   36.121788
  0.041242485    0.000000    0.000000    0.000000    0.000000  -97.441283   33.722595   -3.988372   34.079720
  0.041442886    0.000000    0.000000    0.000000    0.000000  -97.801625   26.772186   -4.036028   32.030495
  0.041643287    0.000000    0.000000    0.000000    0.000000  -98.655861   30.651136   -4.081855   29.992634
  0.041843687    0.000000    0.000000    0.000000    0.000000  -97.777269   21.710920   -4.127619   27.949276
  0.042044088    0.000000    0.000000    0.000000    0.000000  -97.829481   21.962675   -4.172683   25.914196
  0.042244489    0.000000    0.000000    0.000000    0.000000  -97.720442   27.454700   -4.219232   23.893707
  0.042444890    0.000000    0.000000    0.000000    0.000000  -98.577313   34.962486   -4.264668   21.888350
  0.042645291    0.000000    0.000000    0.000000    0.000000  -98.671345   27.296116   -4.310338   19.872768
  0.042845691    0.000000    0.000000    0.000000    0.000000  -98.015446   28.445436   -4.352114   17.868351
  0.043046092    0.000000    0.000000    0.000000    0.000000  -99.514775   24.966040   -4.396401   15.880417
  0.043246493    0.000000    0.000000    0.000000    0.000000  -99.375035   17.693565   -4.440843   13.844041
  0.043446894    0.000000    0.000000    0.000000    0.000000  -98.552538   28.391809   -4.479988   11.868877
  0.043647295    0.000000    0.000000    0.000000    0.000000  -98.567920   36.142117   -4.518500    9.871844
  0.043847695    0.000000    0.000000    0.000000    0.000000  -98.730017   33.496086   -4.564995    7.888321
  0.044048096    0.000000    0.000000    0.000000    0.000000  -99.472483   23.907288   -4.603688    5.918669
  0.044248497    0.000000    0.000000    0.000000    0.000000 -100.306138   26.825674   -4.644232    3.951432
  0.044448898    0.000000    0.000000    0.000000    0.000000  -99.799635   35.607616   -4.680689    1.987183
  0.044649299    0.000000    0.000000    0.000000    0.000000  -98.171754   24.055538   -4.721306    0.036202
  0.044849699    0.000000    0.000000    0.000000    0.000000  -98.746429   30.262383   -4.761335   -1.904361
  0.045050100    0.000000    0.000000    0.000000    0.000000  -99.331351   30.540129   -4.798583   -3.832130
  0.045250501    0.000000    0.000000    0.000000    0.000000  -99.458644   29.254684   -4.838308   -5.774958
  0.045450902    0.000000    0.000000    0.000000    0.000000  -99.186493   37.313499   -4.874915   -7.675295
  0.045651303    0.000000    0.000000    0.000000    0.000000  -99.052466   31.519920   -4.911215   -9.613278
  0.045851703    0.000000    0.000000    0.000000    0.000000  -98.461947   28.842335   -4.945427  -11.515866
  0.046052104    0.000000    0.000000    0.000000    0.000000  -99.790003   27.934954   -4.979687  -13.403493
  0.046252505    0.000000    0.000000    0.000000    0.000000  -99.718324   27.848166   -5.015422  -15.292009
  0.046452906    0.000000    0.000000    0.000000    0.000000  -98.884969   34.898987   -5.051373  -17.149878
  0.046653307    0.000000    0.000000    0.000000    0.000000  -98.397131   31.893295   -5.087752  -19.036785
  0.046853707    0.000000    0.000000    0.000000    0.000000  -98.432799   34.081928   -5.122936  -20.884272
  0.047054108    0.000000    0.000000    0.000000    0.000000  -98.250450   28.641996   -5.159949  -22.750376
  0.047254509    0.000000    0.000000    0.000000    0.000000  -97.718123   25.882900   -5.194873  -24.588610
  0.047454910    0.000000    0.000000    0.000000    0.000000  -98.658485   29.040752   -5.230747  -26.425140
  0.047655311    0.000000    0.000000    0.000000    0.000000  -98.961440   20.559364   -5.264032  -28.210894
  0.047855711    0.000000    0.000000    0.000000    0.000000  -98.091401   34.075703   -5.296896  -30.001429
  0.048056112    0.000000    0.000000    0.000000    0.000000  -98.964145   23.807325   -5.331802  -31.772892
  0.048256513    0.000000    0.000000    0.000000    0.000000  -97.784450   31.473778   -5.362699  -33.551441
  0.048456914    0.000000    0.000000    0.000000    0.000000  -98.429030   30.968719   -5.393765  -35.316887
  0.048657315    0.000000    0.000000    0.000000    0.000000  -98.718669   25.813498   -5.421472  -37.081089
  0.048857715    0.000000    0.000000    0.000000    0.000000  -97.834724   37.245419   -5.452266  -38.845272
  0.049058116    0.000000    0.000000    0.000000    0.000000  -99.134526   29.030226   -5.477522  -40.594173
  0.049258517    0.000000    0.000000    0.000000    0.000000  -99.310945   28.484350   -5.504129  -42.327438
  0.049458918    0.000000    0.000000    0.000000    0.000000  -99.320676   29.849310   -5.531757  -44.048885
  0.049659319    0.000000    0.000000    0.000000    0.000000  -98.487325   30.111126   -5.560104  -45.743107
  0.049859719    0.000000    0.000000    0.000000    0.000000 -101.098003   40.320255   -5.585824  -47.440231
  0.050060120    0.000000    0.000000    0.000000    0.000000 -100.173374   36.178795   -5.610329  -49.129707
  0.050260521    0.000000    0.000000    0.000000    0.000000  -99.627438   43.332813   -5.633455  -50.808987
  0.050460922    0.000000    0.000000    0.000000    0.000000  -99.064574   32.209270   -5.655200  -52.501060
  0.050661323    0.000000    0.000000    0.000000    0.000000  -99.397440   35.956673   -5.674058  -54.166027
  0.050861723    0.000000    0.000000    0.000000    0.000000  -97.944868   37.346130   -5.691276  -55.821865
  0.051062124    0.000000    0.000000    0.000000    0.000000  -99.045408   30.804071   -5.715806  -57.451221
  0.051262525    0.000000    0.000000    0.000000    0.000000 -100.238136   46.269051   -5.733198  -59.068718
  0.051462926    0.000000    0.000000    0.000000    0.000000  -99.717651   40.167542   -5.754078  -60.668110
  0.051663327    0.000000    0.000000    0.000000    0.000000  -98.669908   27.526913   -5.768939  -62.291401
  0.051863727    0.000000    0.000000    0.000000    0.000000  -98.511913   31.173796   -5.789957  -63.874008
  0.052064128    0.000000    0.000000    0.000000    0.000000  -98.627819   37.204571   -5.797675  -65.448082
  0.052264529    0.000000    0.000000    0.000000    0.000000  -99.847868   33.303528   -5.811720  -67.048203
  0.052464930    0.000000    0.000000    0.000000    0.000000  -99.126784   37.193726   -5.826940  -68.558319
  0.052665331    0.000000    0.000000    0.000000    0.000000  -98.757206   28.471952   -5.840686  -70.121819
  0.052865731    0.000000    0.000000    0.000000    0.000000  -99.536943   38.090580   -5.855934  -71.617783
