! Anritsu VNA Master:                     Model: MS2036C/10/77
! SN:                                  1601066
! /bd0/18may10/256.ns.m1.s2p
! Existing Calibration Information:
! TYPE:                         Current Settings,       Active Cal Settings
! TIME:             	   05/10/2018 10:54:31 AM,    05/10/2018 10:50:07 AM
! INTERNAL TEMP:    	                   49.8 C,                    49.0 C
! # POINTS:         	                      494,                       494
! START FREQ:       	               20.000 MHz,                20.000 MHz
! STOP FREQ:        	          118.797 594 MHz,           118.797 594 MHz
! SOURCE POWER:     	                     High,                      High
! IFBW:             	                    50 Hz,                     50 Hz
! AVG FACTOR:       	                       1 ,                        1 
! REF PLANE 1:      	                     0 mm,                      0 mm
! REF PLANE 2:      	                     0 mm,                      0 mm
! CAL TYPE:         	                 Full S22,                  Full S22
! CAL METHOD:       	                     SOLT,                      SOLT
! CAL LINE TYPE:    	                     Coax,                      Coax
! DUT PORT 1:       	                K-Conn(M),                 K-Conn(M)
! DUT PORT 2:       	                K-Conn(M),                 K-Conn(M)
! CAL STATUS:       	        OK: Accuracy High,                        --
# GHZ S DB R 50.0
! FREQ.GHZ       S11DB        S11A       S21DB        S21A       S12DB        S12A       S22DB        S22A
  0.020000000    0.000000    0.000000    0.000000    0.000000  -89.733229   37.672615   -0.599940 -126.778595
  0.020200401    0.000000    0.000000    0.000000    0.000000  -89.844334   34.778751   -0.604520 -128.235031
  0.020400802    0.000000    0.000000    0.000000    0.000000  -90.237975   36.300358   -0.608010 -129.713715
  0.020601202    0.000000    0.000000    0.000000    0.000000  -90.971851   37.131016   -0.614669 -131.228333
  0.020801603    0.000000    0.000000    0.000000    0.000000  -91.194820   37.076180   -0.617443 -132.761490
  0.021002004    0.000000    0.000000    0.000000    0.000000  -90.894673   35.764149   -0.622576 -134.308670
  0.021202405    0.000000    0.000000    0.000000    0.000000  -90.499564   37.111858   -0.625343 -135.858170
  0.021402806    0.000000    0.000000    0.000000    0.000000  -91.444974   36.183136   -0.629465 -137.404602
  0.021603206    0.000000    0.000000    0.000000    0.000000  -91.670669   40.898571   -0.634191 -138.963226
  0.021803607    0.000000    0.000000    0.000000    0.000000  -91.809748   44.727486   -0.637755 -140.507111
  0.022004008    0.000000    0.000000    0.000000    0.000000  -91.144942   41.713638   -0.644530 -142.089813
  0.022204409    0.000000    0.000000    0.000000    0.000000  -92.190235   44.772491   -0.652251 -143.678101
  0.022404810    0.000000    0.000000    0.000000    0.000000  -91.708531   47.331577   -0.656501 -145.297424
  0.022605210    0.000000    0.000000    0.000000    0.000000  -91.911775   46.844551   -0.663271 -146.919998
  0.022805611    0.000000    0.000000    0.000000    0.000000  -91.845957   40.110970   -0.673092 -148.540649
  0.023006012    0.000000    0.000000    0.000000    0.000000  -91.489788   42.382706   -0.677619 -150.161362
  0.023206413    0.000000    0.000000    0.000000    0.000000  -91.236677   45.785751   -0.682334 -151.785614
  0.023406814    0.000000    0.000000    0.000000    0.000000  -91.278398   41.378223   -0.687883 -153.409195
  0.023607214    0.000000    0.000000    0.000000    0.000000  -91.188148   37.315681   -0.696491 -155.039169
  0.023807615    0.000000    0.000000    0.000000    0.000000  -90.951745   41.123432   -0.708622 -156.675217
  0.024008016    0.000000    0.000000    0.000000    0.000000  -91.420865   38.857265   -0.718997 -158.329575
  0.024208417    0.000000    0.000000    0.000000    0.000000  -90.973148   35.892277   -0.727267 -160.003571
  0.024408818    0.000000    0.000000    0.000000    0.000000  -91.437253   34.701088   -0.733996 -161.668198
  0.024609218    0.000000    0.000000    0.000000    0.000000  -91.262941   31.158281   -0.743973 -163.341248
  0.024809619    0.000000    0.000000    0.000000    0.000000  -91.241383   32.620476   -0.754170 -165.001389
  0.025010020    0.000000    0.000000    0.000000    0.000000  -91.802979   29.074335   -0.766399 -166.675064
  0.025210421    0.000000    0.000000    0.000000    0.000000  -91.800822   26.201557   -0.778484 -168.334091
  0.025410822    0.000000    0.000000    0.000000    0.000000  -92.025040   29.346849   -0.791380 -170.023087
  0.025611222    0.000000    0.000000    0.000000    0.000000  -92.226617   27.704216   -0.804700 -171.710876
  0.025811623    0.000000    0.000000    0.000000    0.000000  -92.369294   26.097670   -0.819699 -173.419556
  0.026012024    0.000000    0.000000    0.000000    0.000000  -93.033424   26.111204   -0.831906 -175.129608
  0.026212425    0.000000    0.000000    0.000000    0.000000  -93.374425   28.753105   -0.846125 -176.853546
  0.026412826    0.000000    0.000000    0.000000    0.000000  -93.482992   26.048399   -0.863360 -178.592224
  0.026613226    0.000000    0.000000    0.000000    0.000000  -93.388095   27.489952   -0.879597  179.664871
  0.026813627    0.000000    0.000000    0.000000    0.000000  -94.918173   31.585649   -0.897316  177.906677
  0.027014028    0.000000    0.000000    0.000000    0.000000  -94.039168   27.151659   -0.915233  176.143036
  0.027214429    0.000000    0.000000    0.000000    0.000000  -93.717905   25.537611   -0.934604  174.361069
  0.027414830    0.000000    0.000000    0.000000    0.000000  -94.547959   29.228514   -0.954742  172.576141
  0.027615230    0.000000    0.000000    0.000000    0.000000  -94.616277   28.926729   -0.974866  170.760529
  0.027815631    0.000000    0.000000    0.000000    0.000000  -94.784987   24.402178   -0.997261  168.944901
  0.028016032    0.000000    0.000000    0.000000    0.000000  -94.552224   30.798813   -1.020351  167.095200
  0.028216433    0.000000    0.000000    0.000000    0.000000  -94.274398   36.914413   -1.043608  165.232681
  0.028416834    0.000000    0.000000    0.000000    0.000000  -94.383106   33.161934   -1.067833  163.370605
  0.028617234    0.000000    0.000000    0.000000    0.000000  -94.103809   36.731449   -1.092389  161.499390
  0.028817635    0.000000    0.000000    0.000000    0.000000  -94.206690   33.653446   -1.117797  159.617966
  0.029018036    0.000000    0.000000    0.000000    0.000000  -93.847563   29.790586   -1.143928  157.731216
  0.029218437    0.000000    0.000000    0.000000    0.000000  -94.251626   34.939857   -1.172804  155.845840
  0.029418838    0.000000    0.000000    0.000000    0.000000  -93.808450   31.143637   -1.200440  153.918137
  0.029619238    0.000000    0.000000    0.000000    0.000000  -94.226443   33.252228   -1.229695  151.990219
  0.029819639    0.000000    0.000000    0.000000    0.000000  -93.677780   28.640631   -1.259851  150.060043
  0.030020040    0.000000    0.000000    0.000000    0.000000  -93.761299   28.767418   -1.287943  148.115906
  0.030220441    0.000000    0.000000    0.000000    0.000000  -94.129466   33.848274   -1.318611  146.182495
  0.030420842    0.000000    0.000000    0.000000    0.000000  -93.960469   29.637840   -1.349786  144.262558
  0.030621242    0.000000    0.000000    0.000000    0.000000  -94.113313   27.347832   -1.382093  142.339661
  0.030821643    0.000000    0.000000    0.000000    0.000000  -94.126189   25.851686   -1.417961  140.411911
  0.031022044    0.000000    0.000000    0.000000    0.000000  -94.567821   21.273781   -1.450293  138.452881
  0.031222445    0.000000    0.000000    0.000000    0.000000  -93.413462   20.533571   -1.481434  136.527206
  0.031422846    0.000000    0.000000    0.000000    0.000000  -95.055924   21.694162   -1.515353  134.560272
  0.031623246    0.000000    0.000000    0.000000    0.000000  -95.035235   20.788269   -1.553389  132.587875
  0.031823647    0.000000    0.000000    0.000000    0.000000  -95.159669   17.965834   -1.587877  130.626785
  0.032024048    0.000000    0.000000    0.000000    0.000000  -95.371400   14.422327   -1.625753  128.683304
  0.032224449    0.000000    0.000000    0.000000    0.000000  -96.316675   20.086670   -1.664247  126.712234
  0.032424850    0.000000    0.000000    0.000000    0.000000  -95.696838   20.873026   -1.705066  124.739021
  0.032625250    0.000000    0.000000    0.000000    0.000000  -97.885882   27.913345   -1.743017  122.754097
  0.032825651    0.000000    0.000000    0.000000    0.000000  -97.489612   20.056366   -1.783004  120.748070
  0.033026052    0.000000    0.000000    0.000000    0.000000  -97.049269   21.462801   -1.822263  118.712082
  0.033226453    0.000000    0.000000    0.000000    0.000000  -96.446058   22.913382   -1.862708  116.706757
  0.033426854    0.000000    0.000000    0.000000    0.000000  -95.950533   25.311611   -1.905597  114.682892
  0.033627254    0.000000    0.000000    0.000000    0.000000  -97.306276   25.461235   -1.949851  112.673805
  0.033827655    0.000000    0.000000    0.000000    0.000000  -96.177374   25.201424   -1.994028  110.643982
  0.034028056    0.000000    0.000000    0.000000    0.000000  -96.876560   28.135788   -2.038894  108.586510
  0.034228457    0.000000    0.000000    0.000000    0.000000  -97.046074   28.639393   -2.086966  106.527443
  0.034428858    0.000000    0.000000    0.000000    0.000000  -95.992521   21.460810   -2.135006  104.455544
  0.034629258    0.000000    0.000000    0.000000    0.000000  -96.376962   25.820530   -2.184864  102.361946
  0.034829659    0.000000    0.000000    0.000000    0.000000  -96.969221   27.591236   -2.233835  100.274994
  0.035030060    0.000000    0.000000    0.000000    0.000000  -95.579034   31.048223   -2.284800   98.187675
  0.035230461    0.000000    0.000000    0.000000    0.000000  -96.029409   34.105240   -2.337772   96.082855
  0.035430862    0.000000    0.000000    0.000000    0.000000  -96.484983   31.429560   -2.387731   93.966782
  0.035631262    0.000000    0.000000    0.000000    0.000000  -97.125453   29.437340   -2.442943   91.868805
  0.035831663    0.000000    0.000000    0.000000    0.000000  -96.065262   22.770664   -2.498891   89.753723
  0.036032064    0.000000    0.000000    0.000000    0.000000  -96.330495   22.552229   -2.551170   87.652878
  0.036232465    0.000000    0.000000    0.000000    0.000000  -96.935937   15.543724   -2.603263   85.525322
  0.036432866    0.000000    0.000000    0.000000    0.000000  -96.451035   21.981506   -2.659747   83.441193
  0.036633266    0.000000    0.000000    0.000000    0.000000  -95.433482   29.172298   -2.714877   81.330101
  0.036833667    0.000000    0.000000    0.000000    0.000000  -96.911266   33.301613   -2.771640   79.230553
  0.037034068    0.000000    0.000000    0.000000    0.000000  -96.632431   26.568913   -2.828411   77.132011
  0.037234469    0.000000    0.000000    0.000000    0.000000  -97.195940   18.674814   -2.884100   75.017952
  0.037434870    0.000000    0.000000    0.000000    0.000000  -97.527450   22.065294   -2.941309   72.901848
  0.037635270    0.000000    0.000000    0.000000    0.000000  -97.048531   17.360430   -3.005339   70.784622
  0.037835671    0.000000    0.000000    0.000000    0.000000  -96.911372   11.893418   -3.080629   68.710701
  0.038036072    0.000000    0.000000    0.000000    0.000000  -96.859190   20.650871   -3.151323   66.731339
  0.038236473    0.000000    0.000000    0.000000    0.000000  -97.154935   29.849047   -3.208280   64.758003
  0.038436874    0.000000    0.000000    0.000000    0.000000  -98.355244   22.396404   -3.257276   62.732124
  0.038637274    0.000000    0.000000    0.000000    0.000000  -99.034910   26.409685   -3.312660   60.698353
  0.038837675    0.000000    0.000000    0.000000    0.000000  -97.751879   21.411604   -3.368127   58.656830
  0.039038076    0.000000    0.000000    0.000000    0.000000  -98.492451   21.345022   -3.416841   56.643192
  0.039238477    0.000000    0.000000    0.000000    0.000000  -97.532113   27.616777   -3.470920   54.604759
  0.039438878    0.000000    0.000000    0.000000    0.000000  -97.772125   31.485905   -3.523392   52.588657
  0.039639278    0.000000    0.000000    0.000000    0.000000  -97.346279   38.847824   -3.579616   50.536999
  0.039839679    0.000000    0.000000    0.000000    0.000000  -98.730435   24.680412   -3.629225   48.471901
  0.040040080    0.000000    0.000000    0.000000    0.000000  -97.494342   25.467186   -3.682513   46.423119
  0.040240481    0.000000    0.000000    0.000000    0.000000  -97.106098   31.347542   -3.734760   44.361622
  0.040440882    0.000000    0.000000    0.000000    0.000000  -98.126781   35.638100   -3.785586   42.331982
  0.040641283    0.000000    0.000000    0.000000    0.000000  -97.837959   29.103512   -3.835931   40.279366
  0.040841683    0.000000    0.000000    0.000000    0.000000  -97.025810   35.779739   -3.885272   38.255177
  0.041042084    0.000000    0.000000    0.000000    0.000000  -97.465843   25.004341   -3.937619   36.215321
  0.041242485    0.000000    0.000000    0.000000    0.000000  -97.584456   24.131348   -3.987872   34.169289
  0.041442886    0.000000    0.000000    0.000000    0.000000  -98.629251   35.301979   -4.039832   32.100563
  0.041643287    0.000000    0.000000    0.000000    0.000000  -97.138057   26.019791   -4.086633   30.048969
  0.041843687    0.000000    0.000000    0.000000    0.000000  -98.241797   20.825792   -4.134438   27.979944
  0.042044088    0.000000    0.000000    0.000000    0.000000  -99.021929   31.462133   -4.180460   25.927586
  0.042244489    0.000000    0.000000    0.000000    0.000000  -98.766746   22.425133   -4.224979   23.894608
  0.042444890    0.000000    0.000000    0.000000    0.000000  -97.961515   31.048496   -4.267129   21.856726
  0.042645291    0.000000    0.000000    0.000000    0.000000  -97.953254   27.742779   -4.315971   19.813616
  0.042845691    0.000000    0.000000    0.000000    0.000000  -99.757024   31.110371   -4.358426   17.807217
  0.043046092    0.000000    0.000000    0.000000    0.000000 -100.002879   24.696049   -4.401201   15.768731
  0.043246493    0.000000    0.000000    0.000000    0.000000  -99.536595   16.705956   -4.442584   13.743955
  0.043446894    0.000000    0.000000    0.000000    0.000000  -98.753755   19.750502   -4.482694   11.746902
  0.043647295    0.000000    0.000000    0.000000    0.000000 -101.110370   23.941479   -4.522960    9.739550
  0.043847695    0.000000    0.000000    0.000000    0.000000  -99.160173   34.562237   -4.563425    7.756592
  0.044048096    0.000000    0.000000    0.000000    0.000000  -98.050681   28.437433   -4.602203    5.790925
  0.044248497    0.000000    0.000000    0.000000    0.000000  -99.920697   27.361147   -4.642631    3.816758
  0.044448898    0.000000    0.000000    0.000000    0.000000  -99.336255   34.950233   -4.679249    1.869406
  0.044649299    0.000000    0.000000    0.000000    0.000000  -99.915129   37.980293   -4.715762   -0.096099
  0.044849699    0.000000    0.000000    0.000000    0.000000 -100.350026   23.778328   -4.753023   -2.028472
  0.045050100    0.000000    0.000000    0.000000    0.000000  -98.319771   40.169849   -4.794592   -3.956574
  0.045250501    0.000000    0.000000    0.000000    0.000000  -98.880749   35.361435   -4.831258   -5.869386
  0.045450902    0.000000    0.000000    0.000000    0.000000  -97.732314   27.330427   -4.867063   -7.772614
  0.045651303    0.000000    0.000000    0.000000    0.000000  -97.856960   29.321924   -4.905915   -9.693820
  0.045851703    0.000000    0.000000    0.000000    0.000000  -99.320843   36.326363   -4.939833  -11.598306
  0.046052104    0.000000    0.000000    0.000000    0.000000  -98.647445   23.378242   -4.974061  -13.473508
  0.046252505    0.000000    0.000000    0.000000    0.000000  -98.966517   34.160599   -5.008856  -15.360119
  0.046452906    0.000000    0.000000    0.000000    0.000000  -98.534709   35.041355   -5.048787  -17.219259
  0.046653307    0.000000    0.000000    0.000000    0.000000  -98.231199   35.840706   -5.086927  -19.113634
  0.046853707    0.000000    0.000000    0.000000    0.000000 -100.322823   34.372719   -5.122111  -20.964169
  0.047054108    0.000000    0.000000    0.000000    0.000000  -98.434206   29.899307   -5.158514  -22.845457
  0.047254509    0.000000    0.000000    0.000000    0.000000  -98.882503   33.230320   -5.195707  -24.692823
  0.047454910    0.000000    0.000000    0.000000    0.000000  -99.000533   32.175961   -5.230092  -26.551340
  0.047655311    0.000000    0.000000    0.000000    0.000000  -98.961444   35.503803   -5.264255  -28.371283
  0.047855711    0.000000    0.000000    0.000000    0.000000  -99.030109   33.228355   -5.299986  -30.154957
  0.048056112    0.000000    0.000000    0.000000    0.000000  -98.978166   32.741276   -5.330599  -31.947290
  0.048256513    0.000000    0.000000    0.000000    0.000000  -99.934265   24.321121   -5.364076  -33.733589
  0.048456914    0.000000    0.000000    0.000000    0.000000  -99.537924   26.771397   -5.393125  -35.532494
  0.048657315    0.000000    0.000000    0.000000    0.000000  -98.337598   25.718952   -5.419936  -37.321384
  0.048857715    0.000000    0.000000    0.000000    0.000000  -98.924667   31.387571   -5.450033  -39.103374
  0.049058116    0.000000    0.000000    0.000000    0.000000 -100.245785   25.216883   -5.474426  -40.854794
  0.049258517    0.000000    0.000000    0.000000    0.000000  -99.185246   36.244282   -5.499494  -42.588879
  0.049458918    0.000000    0.000000    0.000000    0.000000 -100.575389   40.835358   -5.523271  -44.316971
  0.049659319    0.000000    0.000000    0.000000    0.000000  -99.283698   29.772739   -5.548025  -46.024273
  0.049859719    0.000000    0.000000    0.000000    0.000000  -99.479602   34.230423   -5.576198  -47.713421
  0.050060120    0.000000    0.000000    0.000000    0.000000  -99.295726   36.237236   -5.598103  -49.401974
  0.050260521    0.000000    0.000000    0.000000    0.000000  -99.702006   32.821243   -5.619321  -51.096119
  0.050460922    0.000000    0.000000    0.000000    0.000000  -99.396623   29.442377   -5.638883  -52.776302
  0.050661323    0.000000    0.000000    0.000000    0.000000  -98.089169   37.815857   -5.656554  -54.436455
  0.050861723    0.000000    0.000000    0.000000    0.000000  -99.739960   33.553104   -5.674807  -56.069569
  0.051062124    0.000000    0.000000    0.000000    0.000000  -98.598939   38.339664   -5.697625  -57.697765
  0.051262525    0.000000    0.000000    0.000000    0.000000  -98.936367   33.767525   -5.715340  -59.296696
  0.051462926    0.000000    0.000000    0.000000    0.000000  -98.998709   31.686647   -5.736750  -60.903622
  0.051663327    0.000000    0.000000    0.000000    0.000000  -98.696859   26.588959   -5.751373  -62.489292
  0.051863727    0.000000    0.000000    0.000000    0.000000  -99.195813   33.192097   -5.768823  -64.087418
  0.052064128    0.000000    0.000000    0.000000    0.000000  -98.493078   41.047867   -5.778862  -65.663078
  0.052264529    0.000000    0.000000    0.000000    0.000000  -97.977709   33.613956   -5.795229  -67.237541
  0.052464930    0.000000    0.000000    0.000000    0.000000  -99.088531   34.211575   -5.811747  -68.795151
  0.052665331    0.000000    0.000000    0.000000    0.000000  -97.929880   32.534698   -5.828565  -70.304115
  0.052865731    0.000000    0.000000    0.000000    0.000000  -98.343896   34.330288   -5.840515  -71.856239
