! Anritsu VNA Master:                     Model: MS2036C/10/77
! SN:                                  1601066
! /bd0/18may10/255.ew.m2.s2p
! Existing Calibration Information:
! TYPE:                         Current Settings,       Active Cal Settings
! TIME:             	   05/10/2018 01:41:18 PM,    05/10/2018 01:36:00 PM
! INTERNAL TEMP:    	                   55.3 C,                    54.5 C
! # POINTS:         	                      492,                       492
! START FREQ:       	               20.000 MHz,                20.000 MHz
! STOP FREQ:        	          118.396 793 MHz,           118.396 793 MHz
! SOURCE POWER:     	                     High,                      High
! IFBW:             	                    50 Hz,                     50 Hz
! AVG FACTOR:       	                       1 ,                        1 
! REF PLANE 1:      	                     0 mm,                      0 mm
! REF PLANE 2:      	                     0 mm,                      0 mm
! CAL TYPE:         	                 Full S22,                  Full S22
! CAL METHOD:       	                     SOLT,                      SOLT
! CAL LINE TYPE:    	                     Coax,                      Coax
! DUT PORT 1:       	                K-Conn(M),                 K-Conn(M)
! DUT PORT 2:       	                K-Conn(M),                 K-Conn(M)
! CAL STATUS:       	        OK: Accuracy High,                        --
# GHZ S DB R 50.0
! FREQ.GHZ       S11DB        S11A       S21DB        S21A       S12DB        S12A       S22DB        S22A
  0.020000000    0.000000    0.000000    0.000000    0.000000  -89.849780   35.331329   -0.905248 -125.654747
  0.020200401    0.000000    0.000000    0.000000    0.000000  -90.286090   34.132504   -0.915395 -127.099930
  0.020400802    0.000000    0.000000    0.000000    0.000000  -90.162326   33.187481   -0.926245 -128.527451
  0.020601202    0.000000    0.000000    0.000000    0.000000  -90.651602   34.907608   -0.936034 -129.993866
  0.020801603    0.000000    0.000000    0.000000    0.000000  -91.166489   35.195099   -0.947282 -131.485077
  0.021002004    0.000000    0.000000    0.000000    0.000000  -90.951478   33.069202   -0.955508 -132.984070
  0.021202405    0.000000    0.000000    0.000000    0.000000  -91.299052   33.704540   -0.965978 -134.486557
  0.021402806    0.000000    0.000000    0.000000    0.000000  -90.910865   40.655945   -0.976524 -135.989349
  0.021603206    0.000000    0.000000    0.000000    0.000000  -91.589979   42.709751   -0.982817 -137.478226
  0.021803607    0.000000    0.000000    0.000000    0.000000  -91.566968   41.222179   -0.994364 -138.984314
  0.022004008    0.000000    0.000000    0.000000    0.000000  -91.353245   36.863888   -1.005096 -140.476059
  0.022204409    0.000000    0.000000    0.000000    0.000000  -91.908273   41.579109   -1.017803 -141.992752
  0.022404810    0.000000    0.000000    0.000000    0.000000  -92.082016   41.571239   -1.029863 -143.529907
  0.022605210    0.000000    0.000000    0.000000    0.000000  -91.681385   45.481373   -1.040252 -145.084473
  0.022805611    0.000000    0.000000    0.000000    0.000000  -91.333029   40.454132   -1.046791 -146.647415
  0.023006012    0.000000    0.000000    0.000000    0.000000  -91.417775   42.654194   -1.056376 -148.202927
  0.023206413    0.000000    0.000000    0.000000    0.000000  -91.845866   40.156181   -1.065553 -149.745667
  0.023406814    0.000000    0.000000    0.000000    0.000000  -91.750056   44.342255   -1.076132 -151.301605
  0.023607214    0.000000    0.000000    0.000000    0.000000  -90.790934   40.345284   -1.087562 -152.859711
  0.023807615    0.000000    0.000000    0.000000    0.000000  -90.917723   39.909534   -1.102218 -154.430023
  0.024008016    0.000000    0.000000    0.000000    0.000000  -91.052096   36.247177   -1.113963 -156.038727
  0.024208417    0.000000    0.000000    0.000000    0.000000  -91.742899   37.350304   -1.126147 -157.653503
  0.024408818    0.000000    0.000000    0.000000    0.000000  -91.862620   31.350540   -1.136787 -159.286758
  0.024609218    0.000000    0.000000    0.000000    0.000000  -91.712873   30.742428   -1.148770 -160.904480
  0.024809619    0.000000    0.000000    0.000000    0.000000  -92.014775   36.420227   -1.162988 -162.544312
  0.025010020    0.000000    0.000000    0.000000    0.000000  -91.463181   34.251549   -1.178211 -164.178360
  0.025210421    0.000000    0.000000    0.000000    0.000000  -92.080456   28.743450   -1.192599 -165.819458
  0.025410822    0.000000    0.000000    0.000000    0.000000  -91.744030   24.403740   -1.208521 -167.484634
  0.025611222    0.000000    0.000000    0.000000    0.000000  -92.210290   26.144400   -1.224539 -169.146652
  0.025811623    0.000000    0.000000    0.000000    0.000000  -92.861675   27.199381   -1.241181 -170.845139
  0.026012024    0.000000    0.000000    0.000000    0.000000  -92.868937   25.762125   -1.257659 -172.544174
  0.026212425    0.000000    0.000000    0.000000    0.000000  -93.246322   23.416508   -1.274118 -174.256561
  0.026412826    0.000000    0.000000    0.000000    0.000000  -92.999185   25.298729   -1.292751 -175.973877
  0.026613226    0.000000    0.000000    0.000000    0.000000  -93.947190   27.610607   -1.313154 -177.702927
  0.026813627    0.000000    0.000000    0.000000    0.000000  -94.301354   33.012348   -1.332682 -179.431564
  0.027014028    0.000000    0.000000    0.000000    0.000000  -94.502363   28.133919   -1.354439  178.816895
  0.027214429    0.000000    0.000000    0.000000    0.000000  -94.428815   31.270109   -1.375417  177.069229
  0.027414830    0.000000    0.000000    0.000000    0.000000  -94.943131   28.686460   -1.398513  175.316269
  0.027615230    0.000000    0.000000    0.000000    0.000000  -94.036891   28.207865   -1.420504  173.535965
  0.027815631    0.000000    0.000000    0.000000    0.000000  -94.267254   29.528185   -1.444976  171.758698
  0.028016032    0.000000    0.000000    0.000000    0.000000  -94.913369   31.488443   -1.468953  169.963882
  0.028216433    0.000000    0.000000    0.000000    0.000000  -94.014298   32.914635   -1.494794  168.153152
  0.028416834    0.000000    0.000000    0.000000    0.000000  -94.280554   32.605923   -1.521234  166.344254
  0.028617234    0.000000    0.000000    0.000000    0.000000  -94.012125   33.067169   -1.547592  164.520355
  0.028817635    0.000000    0.000000    0.000000    0.000000  -95.076591   29.707785   -1.576112  162.701279
  0.029018036    0.000000    0.000000    0.000000    0.000000  -94.441920   31.569336   -1.603467  160.877563
  0.029218437    0.000000    0.000000    0.000000    0.000000  -94.092838   28.664333   -1.633721  159.043732
  0.029418838    0.000000    0.000000    0.000000    0.000000  -93.927699   33.544266   -1.662899  157.189285
  0.029619238    0.000000    0.000000    0.000000    0.000000  -93.849160   31.864994   -1.694117  155.312943
  0.029819639    0.000000    0.000000    0.000000    0.000000  -94.005210   33.323803   -1.724887  153.443542
  0.030020040    0.000000    0.000000    0.000000    0.000000  -93.890197   28.526014   -1.757185  151.569870
  0.030220441    0.000000    0.000000    0.000000    0.000000  -94.137509   28.559830   -1.788136  149.690857
  0.030420842    0.000000    0.000000    0.000000    0.000000  -94.306880   28.052921   -1.820354  147.814880
  0.030621242    0.000000    0.000000    0.000000    0.000000  -94.730090   21.290569   -1.854524  145.931152
  0.030821643    0.000000    0.000000    0.000000    0.000000  -94.485656   27.671726   -1.890886  144.037735
  0.031022044    0.000000    0.000000    0.000000    0.000000  -94.561736   23.932247   -1.925112  142.121399
  0.031222445    0.000000    0.000000    0.000000    0.000000  -94.409399   26.527519   -1.954475  140.222046
  0.031422846    0.000000    0.000000    0.000000    0.000000  -94.877655   17.526674   -1.992788  138.270279
  0.031623246    0.000000    0.000000    0.000000    0.000000  -94.832082   24.500952   -2.031484  136.309387
  0.031823647    0.000000    0.000000    0.000000    0.000000  -94.668814   21.131165   -2.069223  134.336563
  0.032024048    0.000000    0.000000    0.000000    0.000000  -94.565625   14.015163   -2.109413  132.399918
  0.032224449    0.000000    0.000000    0.000000    0.000000  -95.312244   12.196131   -2.148544  130.418945
  0.032424850    0.000000    0.000000    0.000000    0.000000  -94.771548   16.205687   -2.190468  128.431183
  0.032625250    0.000000    0.000000    0.000000    0.000000  -96.151100   21.354183   -2.231384  126.439194
  0.032825651    0.000000    0.000000    0.000000    0.000000  -95.419766   18.787081   -2.273330  124.425880
  0.033026052    0.000000    0.000000    0.000000    0.000000  -96.464570   20.180811   -2.314950  122.414734
  0.033226453    0.000000    0.000000    0.000000    0.000000  -96.557503   20.806526   -2.358204  120.391151
  0.033426854    0.000000    0.000000    0.000000    0.000000  -96.697490   21.474167   -2.401090  118.354706
  0.033627254    0.000000    0.000000    0.000000    0.000000  -97.838830   23.242399   -2.443314  116.336594
  0.033827655    0.000000    0.000000    0.000000    0.000000  -96.013133   21.104794   -2.488717  114.333801
  0.034028056    0.000000    0.000000    0.000000    0.000000  -95.856512   29.124315   -2.532894  112.288864
  0.034228457    0.000000    0.000000    0.000000    0.000000  -96.714252   20.751301   -2.580568  110.264816
  0.034428858    0.000000    0.000000    0.000000    0.000000  -95.077809   26.702618   -2.626735  108.201920
  0.034629258    0.000000    0.000000    0.000000    0.000000  -97.518028   27.919947   -2.672148  106.127197
  0.034829659    0.000000    0.000000    0.000000    0.000000  -97.171803   28.324350   -2.720100  104.082352
  0.035030060    0.000000    0.000000    0.000000    0.000000  -96.525355   34.477123   -2.767764  102.009445
  0.035230461    0.000000    0.000000    0.000000    0.000000  -95.782698   24.745987   -2.817609   99.939232
  0.035430862    0.000000    0.000000    0.000000    0.000000  -96.699706   28.971081   -2.865412   97.875671
  0.035631262    0.000000    0.000000    0.000000    0.000000  -96.248441   27.696468   -2.913987   95.812607
  0.035831663    0.000000    0.000000    0.000000    0.000000  -96.439468   28.088694   -2.963245   93.740990
  0.036032064    0.000000    0.000000    0.000000    0.000000  -96.320291   21.606871   -3.010363   91.665115
  0.036232465    0.000000    0.000000    0.000000    0.000000  -97.460928   27.045494   -3.059725   89.583481
  0.036432866    0.000000    0.000000    0.000000    0.000000  -96.791796   25.511545   -3.107369   87.498215
  0.036633266    0.000000    0.000000    0.000000    0.000000  -97.109394   20.685177   -3.152266   85.411629
  0.036833667    0.000000    0.000000    0.000000    0.000000  -97.393794   19.688234   -3.194892   83.329582
  0.037034068    0.000000    0.000000    0.000000    0.000000  -97.346289   29.065910   -3.238665   81.222160
  0.037234469    0.000000    0.000000    0.000000    0.000000  -97.162499   27.669010   -3.279314   79.117104
  0.037434870    0.000000    0.000000    0.000000    0.000000  -97.959544   20.374876   -3.313095   76.950813
  0.037635270    0.000000    0.000000    0.000000    0.000000  -98.156582   26.508020   -3.348958   74.739868
  0.037835671    0.000000    0.000000    0.000000    0.000000  -96.957522   25.693022   -3.389083   72.448936
  0.038036072    0.000000    0.000000    0.000000    0.000000  -97.359942   17.839268   -3.446059   70.082314
  0.038236473    0.000000    0.000000    0.000000    0.000000  -97.215754   28.108616   -3.517220   67.748817
  0.038436874    0.000000    0.000000    0.000000    0.000000  -97.719963   26.772417   -3.598540   65.488396
  0.038637274    0.000000    0.000000    0.000000    0.000000  -98.405139   23.216953   -3.677994   63.300137
  0.038837675    0.000000    0.000000    0.000000    0.000000  -97.450096   22.051693   -3.750032   61.181255
  0.039038076    0.000000    0.000000    0.000000    0.000000  -97.342413   21.100149   -3.816442   59.095234
  0.039238477    0.000000    0.000000    0.000000    0.000000  -97.749960   32.932495   -3.877918   56.996487
  0.039438878    0.000000    0.000000    0.000000    0.000000  -98.241613   24.815907   -3.939349   54.909916
  0.039639278    0.000000    0.000000    0.000000    0.000000  -98.603564   29.453325   -4.000417   52.813332
  0.039839679    0.000000    0.000000    0.000000    0.000000  -97.818479   27.713799   -4.057276   50.723946
  0.040040080    0.000000    0.000000    0.000000    0.000000  -97.724314   37.280857   -4.108630   48.613804
  0.040240481    0.000000    0.000000    0.000000    0.000000  -97.620342   28.217199   -4.161911   46.495449
  0.040440882    0.000000    0.000000    0.000000    0.000000  -98.512358   23.671131   -4.211381   44.384892
  0.040641283    0.000000    0.000000    0.000000    0.000000  -98.364929   34.138275   -4.263287   42.289299
  0.040841683    0.000000    0.000000    0.000000    0.000000  -97.108467   23.088287   -4.315093   40.194542
  0.041042084    0.000000    0.000000    0.000000    0.000000  -97.318946   28.907061   -4.366475   38.118095
  0.041242485    0.000000    0.000000    0.000000    0.000000  -98.576168   21.187160   -4.417355   36.024300
  0.041442886    0.000000    0.000000    0.000000    0.000000  -96.888231   32.645115   -4.466937   33.926361
  0.041643287    0.000000    0.000000    0.000000    0.000000  -98.354914   26.459295   -4.515569   31.819788
  0.041843687    0.000000    0.000000    0.000000    0.000000  -96.808190   30.452225   -4.565518   29.716381
  0.042044088    0.000000    0.000000    0.000000    0.000000  -97.690824   21.295460   -4.614213   27.624212
  0.042244489    0.000000    0.000000    0.000000    0.000000  -96.678124   20.479280   -4.658793   25.550522
  0.042444890    0.000000    0.000000    0.000000    0.000000  -97.794995   25.828962   -4.706486   23.486696
  0.042645291    0.000000    0.000000    0.000000    0.000000  -98.617074   22.408169   -4.754925   21.425844
  0.042845691    0.000000    0.000000    0.000000    0.000000  -99.436705   23.610973   -4.802512   19.374817
  0.043046092    0.000000    0.000000    0.000000    0.000000  -99.298248   33.656105   -4.845586   17.313349
  0.043246493    0.000000    0.000000    0.000000    0.000000  -97.692738   32.666328   -4.890584   15.258932
  0.043446894    0.000000    0.000000    0.000000    0.000000  -98.600780   23.700373   -4.934403   13.214586
  0.043647295    0.000000    0.000000    0.000000    0.000000  -98.482311   25.406141   -4.972856   11.171332
  0.043847695    0.000000    0.000000    0.000000    0.000000  -98.489011   31.094757   -5.014966    9.147386
  0.044048096    0.000000    0.000000    0.000000    0.000000  -99.536451   35.768749   -5.055826    7.141541
  0.044248497    0.000000    0.000000    0.000000    0.000000  -99.083930   38.411427   -5.095981    5.119384
  0.044448898    0.000000    0.000000    0.000000    0.000000  -98.622626   35.184803   -5.134325    3.129506
  0.044649299    0.000000    0.000000    0.000000    0.000000  -99.125519   33.765160   -5.170944    1.130293
  0.044849699    0.000000    0.000000    0.000000    0.000000  -99.459728   29.027153   -5.209485   -0.840509
  0.045050100    0.000000    0.000000    0.000000    0.000000  -99.115510   31.845411   -5.241608   -2.827296
  0.045250501    0.000000    0.000000    0.000000    0.000000  -98.931558   28.117359   -5.274246   -4.793151
  0.045450902    0.000000    0.000000    0.000000    0.000000  -99.128084   25.891443   -5.302812   -6.762711
  0.045651303    0.000000    0.000000    0.000000    0.000000  -99.653348   27.576458   -5.337811   -8.723859
  0.045851703    0.000000    0.000000    0.000000    0.000000 -100.166626   31.898302   -5.368541  -10.642607
  0.046052104    0.000000    0.000000    0.000000    0.000000  -99.684354   29.684299   -5.396406  -12.581496
  0.046252505    0.000000    0.000000    0.000000    0.000000  -99.411432   24.786682   -5.427067  -14.494179
  0.046452906    0.000000    0.000000    0.000000    0.000000  -99.439517   34.251564   -5.457116  -16.390310
  0.046653307    0.000000    0.000000    0.000000    0.000000  -98.474711   31.572559   -5.480936  -18.298187
  0.046853707    0.000000    0.000000    0.000000    0.000000  -98.487649   26.413015   -5.510377  -20.184164
  0.047054108    0.000000    0.000000    0.000000    0.000000  -97.657613   31.140427   -5.535398  -22.076693
  0.047254509    0.000000    0.000000    0.000000    0.000000  -96.967304   20.879099   -5.559749  -23.960526
  0.047454910    0.000000    0.000000    0.000000    0.000000  -99.082055   28.740067   -5.579914  -25.828997
  0.047655311    0.000000    0.000000    0.000000    0.000000  -97.991831   31.673651   -5.601564  -27.674271
  0.047855711    0.000000    0.000000    0.000000    0.000000  -99.112606   33.719406   -5.622846  -29.496513
  0.048056112    0.000000    0.000000    0.000000    0.000000  -99.622121   24.361383   -5.646489  -31.324648
  0.048256513    0.000000    0.000000    0.000000    0.000000  -98.279702   19.277670   -5.669530  -33.120712
  0.048456914    0.000000    0.000000    0.000000    0.000000  -98.678103   26.102877   -5.688842  -34.920193
  0.048657315    0.000000    0.000000    0.000000    0.000000  -98.285559   17.967438   -5.708191  -36.709278
  0.048857715    0.000000    0.000000    0.000000    0.000000  -99.658684   25.720840   -5.725345  -38.521717
  0.049058116    0.000000    0.000000    0.000000    0.000000  -98.676541   32.013836   -5.744105  -40.299709
  0.049258517    0.000000    0.000000    0.000000    0.000000  -99.396470   26.986187   -5.758584  -42.052467
  0.049458918    0.000000    0.000000    0.000000    0.000000  -99.165440   32.979851   -5.776459  -43.794613
  0.049659319    0.000000    0.000000    0.000000    0.000000  -99.519829   36.769535   -5.793045  -45.516464
  0.049859719    0.000000    0.000000    0.000000    0.000000  -98.873200   25.415684   -5.807830  -47.250607
  0.050060120    0.000000    0.000000    0.000000    0.000000  -99.497315   39.622078   -5.827532  -48.970375
  0.050260521    0.000000    0.000000    0.000000    0.000000  -98.636242   38.638073   -5.841249  -50.683258
  0.050460922    0.000000    0.000000    0.000000    0.000000  -98.298271   28.094391   -5.853030  -52.382584
  0.050661323    0.000000    0.000000    0.000000    0.000000  -99.347333   29.902035   -5.863220  -54.067326
  0.050861723    0.000000    0.000000    0.000000    0.000000  -98.704257   39.779686   -5.873412  -55.744366
  0.051062124    0.000000    0.000000    0.000000    0.000000  -99.398071   28.550114   -5.886919  -57.410645
  0.051262525    0.000000    0.000000    0.000000    0.000000  -97.689020   34.390713   -5.899215  -59.074211
  0.051462926    0.000000    0.000000    0.000000    0.000000  -98.498188   34.696178   -5.909168  -60.699165
  0.051663327    0.000000    0.000000    0.000000    0.000000  -99.105388   26.884003   -5.919877  -62.329922
  0.051863727    0.000000    0.000000    0.000000    0.000000  -98.450347   42.357353   -5.928681  -63.960178
  0.052064128    0.000000    0.000000    0.000000    0.000000  -98.387081   32.223408   -5.936271  -65.567017
  0.052264529    0.000000    0.000000    0.000000    0.000000  -98.091227   32.800381   -5.940267  -67.160965
  0.052464930    0.000000    0.000000    0.000000    0.000000  -99.541445   34.655651   -5.945743  -68.775909
  0.052665331    0.000000    0.000000    0.000000    0.000000  -97.619398   29.167690   -5.953333  -70.326324
  0.052865731    0.000000    0.000000    0.000000    0.000000  -97.876220   27.733061   -5.961985  -71.891617
