! Anritsu VNA Master:                     Model: MS2036C/10/77
! SN:                                  1601066
! /bd0/18may10/255.ew.m3.s2p
! Existing Calibration Information:
! TYPE:                         Current Settings,       Active Cal Settings
! TIME:             	   05/10/2018 01:43:48 PM,    05/10/2018 01:36:00 PM
! INTERNAL TEMP:    	                   55.5 C,                    54.5 C
! # POINTS:         	                      492,                       492
! START FREQ:       	               20.000 MHz,                20.000 MHz
! STOP FREQ:        	          118.396 793 MHz,           118.396 793 MHz
! SOURCE POWER:     	                     High,                      High
! IFBW:             	                    50 Hz,                     50 Hz
! AVG FACTOR:       	                       1 ,                        1 
! REF PLANE 1:      	                     0 mm,                      0 mm
! REF PLANE 2:      	                     0 mm,                      0 mm
! CAL TYPE:         	                 Full S22,                  Full S22
! CAL METHOD:       	                     SOLT,                      SOLT
! CAL LINE TYPE:    	                     Coax,                      Coax
! DUT PORT 1:       	                K-Conn(M),                 K-Conn(M)
! DUT PORT 2:       	                K-Conn(M),                 K-Conn(M)
! CAL STATUS:       	        OK: Accuracy High,                        --
# GHZ S DB R 50.0
! FREQ.GHZ       S11DB        S11A       S21DB        S21A       S12DB        S12A       S22DB        S22A
  0.020000000    0.000000    0.000000    0.000000    0.000000  -89.564132   34.017590   -0.920906 -125.561020
  0.020200401    0.000000    0.000000    0.000000    0.000000  -89.967816   34.197990   -0.929810 -127.008461
  0.020400802    0.000000    0.000000    0.000000    0.000000  -90.145227   31.767262   -0.939591 -128.440811
  0.020601202    0.000000    0.000000    0.000000    0.000000  -90.151329   32.138393   -0.948194 -129.901291
  0.020801603    0.000000    0.000000    0.000000    0.000000  -90.696989   35.165836   -0.958990 -131.396912
  0.021002004    0.000000    0.000000    0.000000    0.000000  -90.874513   36.344261   -0.966491 -132.895874
  0.021202405    0.000000    0.000000    0.000000    0.000000  -91.142976   36.227726   -0.977300 -134.407944
  0.021402806    0.000000    0.000000    0.000000    0.000000  -91.345801   36.152935   -0.987561 -135.902206
  0.021603206    0.000000    0.000000    0.000000    0.000000  -91.357383   38.340725   -0.995479 -137.398102
  0.021803607    0.000000    0.000000    0.000000    0.000000  -91.457270   36.538532   -1.006048 -138.888000
  0.022004008    0.000000    0.000000    0.000000    0.000000  -92.260598   42.053429   -1.017534 -140.396591
  0.022204409    0.000000    0.000000    0.000000    0.000000  -92.475557   42.528061   -1.030270 -141.909561
  0.022404810    0.000000    0.000000    0.000000    0.000000  -92.102962   38.491749   -1.041605 -143.455307
  0.022605210    0.000000    0.000000    0.000000    0.000000  -91.735105   42.087921   -1.047611 -145.021622
  0.022805611    0.000000    0.000000    0.000000    0.000000  -91.249654   41.887108   -1.055194 -146.578979
  0.023006012    0.000000    0.000000    0.000000    0.000000  -91.180017   46.918663   -1.064878 -148.133209
  0.023206413    0.000000    0.000000    0.000000    0.000000  -91.473951   40.413582   -1.075124 -149.678619
  0.023406814    0.000000    0.000000    0.000000    0.000000  -91.821993   37.508995   -1.085372 -151.226517
  0.023607214    0.000000    0.000000    0.000000    0.000000  -91.401016   41.721359   -1.096077 -152.796829
  0.023807615    0.000000    0.000000    0.000000    0.000000  -91.340954   42.165428   -1.109369 -154.370636
  0.024008016    0.000000    0.000000    0.000000    0.000000  -91.318655   38.786610   -1.120894 -155.975601
  0.024208417    0.000000    0.000000    0.000000    0.000000  -91.099331   35.938843   -1.132632 -157.591156
  0.024408818    0.000000    0.000000    0.000000    0.000000  -91.135665   34.592007   -1.143632 -159.222992
  0.024609218    0.000000    0.000000    0.000000    0.000000  -92.040049   34.264172   -1.154897 -160.834732
  0.024809619    0.000000    0.000000    0.000000    0.000000  -91.465781   29.328730   -1.167977 -162.471283
  0.025010020    0.000000    0.000000    0.000000    0.000000  -91.759321   30.438519   -1.182813 -164.104385
  0.025210421    0.000000    0.000000    0.000000    0.000000  -92.009931   28.518478   -1.197653 -165.743576
  0.025410822    0.000000    0.000000    0.000000    0.000000  -91.930686   26.225023   -1.213811 -167.396820
  0.025611222    0.000000    0.000000    0.000000    0.000000  -92.331583   30.050598   -1.229397 -169.071548
  0.025811623    0.000000    0.000000    0.000000    0.000000  -92.565209   23.483315   -1.245932 -170.750366
  0.026012024    0.000000    0.000000    0.000000    0.000000  -92.570014   21.794130   -1.261928 -172.455673
  0.026212425    0.000000    0.000000    0.000000    0.000000  -93.227871   25.375555   -1.278995 -174.163971
  0.026412826    0.000000    0.000000    0.000000    0.000000  -93.531000   26.775227   -1.297114 -175.873383
  0.026613226    0.000000    0.000000    0.000000    0.000000  -93.645553   24.791143   -1.316623 -177.603531
  0.026813627    0.000000    0.000000    0.000000    0.000000  -94.549899   28.503235   -1.335404 -179.342468
  0.027014028    0.000000    0.000000    0.000000    0.000000  -94.273351   29.367767   -1.357870  178.928726
  0.027214429    0.000000    0.000000    0.000000    0.000000  -95.327320   28.826859   -1.378916  177.167252
  0.027414830    0.000000    0.000000    0.000000    0.000000  -94.288863   33.900112   -1.402448  175.414841
  0.027615230    0.000000    0.000000    0.000000    0.000000  -95.315787   26.225611   -1.425694  173.637497
  0.027815631    0.000000    0.000000    0.000000    0.000000  -94.583454   32.369030   -1.448411  171.854782
  0.028016032    0.000000    0.000000    0.000000    0.000000  -94.660152   27.463915   -1.473314  170.054825
  0.028216433    0.000000    0.000000    0.000000    0.000000  -94.803095   32.312710   -1.498685  168.237350
  0.028416834    0.000000    0.000000    0.000000    0.000000  -94.801861   28.310768   -1.524483  166.431595
  0.028617234    0.000000    0.000000    0.000000    0.000000  -94.271694   33.757450   -1.551498  164.608521
  0.028817635    0.000000    0.000000    0.000000    0.000000  -94.087022   35.508041   -1.579690  162.777908
  0.029018036    0.000000    0.000000    0.000000    0.000000  -94.252373   34.028366   -1.607792  160.962143
  0.029218437    0.000000    0.000000    0.000000    0.000000  -94.380997   31.500036   -1.637229  159.114929
  0.029418838    0.000000    0.000000    0.000000    0.000000  -93.922526   33.756847   -1.667091  157.252289
  0.029619238    0.000000    0.000000    0.000000    0.000000  -94.114852   28.660416   -1.698525  155.389343
  0.029819639    0.000000    0.000000    0.000000    0.000000  -94.381314   31.224493   -1.728698  153.512390
  0.030020040    0.000000    0.000000    0.000000    0.000000  -94.293486   28.535007   -1.760726  151.646881
  0.030220441    0.000000    0.000000    0.000000    0.000000  -94.272483   26.994560   -1.791874  149.755310
  0.030420842    0.000000    0.000000    0.000000    0.000000  -94.255227   26.919964   -1.824230  147.876938
  0.030621242    0.000000    0.000000    0.000000    0.000000  -94.791517   28.532736   -1.858904  145.995987
  0.030821643    0.000000    0.000000    0.000000    0.000000  -95.066233   26.655592   -1.894718  144.102478
  0.031022044    0.000000    0.000000    0.000000    0.000000  -94.752141   22.555836   -1.928385  142.187775
  0.031222445    0.000000    0.000000    0.000000    0.000000  -94.324410   15.534432   -1.961371  140.291595
  0.031422846    0.000000    0.000000    0.000000    0.000000  -95.755103   21.533596   -1.998505  138.336121
  0.031623246    0.000000    0.000000    0.000000    0.000000  -94.519726   15.450167   -2.035967  136.376465
  0.031823647    0.000000    0.000000    0.000000    0.000000  -95.751321   23.031830   -2.074366  134.414825
  0.032024048    0.000000    0.000000    0.000000    0.000000  -95.992780   22.480932   -2.113826  132.471283
  0.032224449    0.000000    0.000000    0.000000    0.000000  -94.604676   15.065276   -2.154180  130.494339
  0.032424850    0.000000    0.000000    0.000000    0.000000  -95.574388   16.989124   -2.194264  128.511093
  0.032625250    0.000000    0.000000    0.000000    0.000000  -95.912927   16.749844   -2.237045  126.521164
  0.032825651    0.000000    0.000000    0.000000    0.000000  -96.245894   17.713741   -2.277387  124.512260
  0.033026052    0.000000    0.000000    0.000000    0.000000  -96.928829   18.287573   -2.320598  122.497383
  0.033226453    0.000000    0.000000    0.000000    0.000000  -95.282702   18.212601   -2.362327  120.465988
  0.033426854    0.000000    0.000000    0.000000    0.000000  -96.376214   24.903706   -2.405383  118.442764
  0.033627254    0.000000    0.000000    0.000000    0.000000  -96.510196   22.162962   -2.451678  116.424141
  0.033827655    0.000000    0.000000    0.000000    0.000000  -97.181106   19.950497   -2.494989  114.417831
  0.034028056    0.000000    0.000000    0.000000    0.000000  -97.551308   31.170671   -2.537513  112.366310
  0.034228457    0.000000    0.000000    0.000000    0.000000  -96.625801   25.855223   -2.587333  110.335197
  0.034428858    0.000000    0.000000    0.000000    0.000000  -96.962279   25.570684   -2.630226  108.281929
  0.034629258    0.000000    0.000000    0.000000    0.000000  -96.027942   27.728645   -2.677612  106.202499
  0.034829659    0.000000    0.000000    0.000000    0.000000  -95.579179   23.811037   -2.724813  104.157990
  0.035030060    0.000000    0.000000    0.000000    0.000000  -96.181024   21.031628   -2.772397  102.084557
  0.035230461    0.000000    0.000000    0.000000    0.000000  -96.675582   23.766998   -2.822009  100.021767
  0.035430862    0.000000    0.000000    0.000000    0.000000  -96.807371   29.306831   -2.870597   97.950394
  0.035631262    0.000000    0.000000    0.000000    0.000000  -96.160743   23.723591   -2.920289   95.888939
  0.035831663    0.000000    0.000000    0.000000    0.000000  -96.454240   21.736509   -2.968718   93.818123
  0.036032064    0.000000    0.000000    0.000000    0.000000  -95.820108   29.796177   -3.016453   91.748589
  0.036232465    0.000000    0.000000    0.000000    0.000000  -95.717865   27.481869   -3.063860   89.665306
  0.036432866    0.000000    0.000000    0.000000    0.000000  -96.396669   21.162346   -3.111950   87.586685
  0.036633266    0.000000    0.000000    0.000000    0.000000  -97.124034   27.080135   -3.156364   85.496971
  0.036833667    0.000000    0.000000    0.000000    0.000000  -96.766421   28.860977   -3.201581   83.423134
  0.037034068    0.000000    0.000000    0.000000    0.000000  -96.546806   16.532526   -3.244122   81.326668
  0.037234469    0.000000    0.000000    0.000000    0.000000  -96.448812   15.892623   -3.283301   79.211395
  0.037434870    0.000000    0.000000    0.000000    0.000000  -96.627783   32.308823   -3.318834   77.054749
  0.037635270    0.000000    0.000000    0.000000    0.000000  -97.033861   22.929947   -3.354687   74.837723
  0.037835671    0.000000    0.000000    0.000000    0.000000  -97.425881   23.657557   -3.396381   72.550072
  0.038036072    0.000000    0.000000    0.000000    0.000000  -98.223669   22.271555   -3.453628   70.184616
  0.038236473    0.000000    0.000000    0.000000    0.000000  -97.278474   28.165937   -3.524582   67.862839
  0.038436874    0.000000    0.000000    0.000000    0.000000  -97.786675   28.022985   -3.606936   65.599480
  0.038637274    0.000000    0.000000    0.000000    0.000000  -97.435936   21.633072   -3.685121   63.407883
  0.038837675    0.000000    0.000000    0.000000    0.000000  -99.392266   20.986654   -3.759282   61.296097
  0.039038076    0.000000    0.000000    0.000000    0.000000  -98.233123   20.949493   -3.826822   59.207283
  0.039238477    0.000000    0.000000    0.000000    0.000000  -97.430038   28.726860   -3.888925   57.097946
  0.039438878    0.000000    0.000000    0.000000    0.000000  -97.976966   26.671137   -3.948706   55.002949
  0.039639278    0.000000    0.000000    0.000000    0.000000  -96.986139   27.576826   -4.010842   52.910912
  0.039839679    0.000000    0.000000    0.000000    0.000000  -99.703903   39.603516   -4.065423   50.819851
  0.040040080    0.000000    0.000000    0.000000    0.000000  -97.706523   37.197239   -4.119519   48.702816
  0.040240481    0.000000    0.000000    0.000000    0.000000  -99.299131   28.734697   -4.172883   46.594322
  0.040440882    0.000000    0.000000    0.000000    0.000000  -98.146099   34.819687   -4.221740   44.469730
  0.040641283    0.000000    0.000000    0.000000    0.000000  -98.697508   28.943735   -4.273273   42.374138
  0.040841683    0.000000    0.000000    0.000000    0.000000  -97.095809   28.353941   -4.324983   40.271465
  0.041042084    0.000000    0.000000    0.000000    0.000000  -97.923223   32.822971   -4.375434   38.207924
  0.041242485    0.000000    0.000000    0.000000    0.000000  -97.376162   28.091612   -4.426790   36.097691
  0.041442886    0.000000    0.000000    0.000000    0.000000  -98.678039   23.902081   -4.476814   34.008286
  0.041643287    0.000000    0.000000    0.000000    0.000000  -97.715980   31.630421   -4.524233   31.894234
  0.041843687    0.000000    0.000000    0.000000    0.000000  -98.123786   28.736122   -4.573758   29.804539
  0.042044088    0.000000    0.000000    0.000000    0.000000  -97.979287   23.727451   -4.621117   27.720644
  0.042244489    0.000000    0.000000    0.000000    0.000000  -98.904653   28.566269   -4.666446   25.645674
  0.042444890    0.000000    0.000000    0.000000    0.000000  -97.594717   28.014778   -4.714200   23.596149
  0.042645291    0.000000    0.000000    0.000000    0.000000  -97.757405   25.397114   -4.762153   21.530647
  0.042845691    0.000000    0.000000    0.000000    0.000000  -99.590800   24.140627   -4.807413   19.480238
  0.043046092    0.000000    0.000000    0.000000    0.000000  -97.845669   27.896196   -4.852389   17.433466
  0.043246493    0.000000    0.000000    0.000000    0.000000  -99.269239   25.850416   -4.897167   15.383848
  0.043446894    0.000000    0.000000    0.000000    0.000000  -98.502728   26.105772   -4.939413   13.340135
  0.043647295    0.000000    0.000000    0.000000    0.000000  -99.407547   23.467251   -4.980061   11.307999
  0.043847695    0.000000    0.000000    0.000000    0.000000  -97.736293   32.116447   -5.021881    9.292117
  0.044048096    0.000000    0.000000    0.000000    0.000000  -99.264029   35.540123   -5.063112    7.292831
  0.044248497    0.000000    0.000000    0.000000    0.000000  -97.975031   31.438318   -5.102428    5.277486
  0.044448898    0.000000    0.000000    0.000000    0.000000  -99.194982   28.940876   -5.142819    3.293316
  0.044649299    0.000000    0.000000    0.000000    0.000000  -99.182712   33.475452   -5.180621    1.293095
  0.044849699    0.000000    0.000000    0.000000    0.000000  -99.757206   29.482765   -5.216523   -0.678850
  0.045050100    0.000000    0.000000    0.000000    0.000000  -98.108704   23.079401   -5.251175   -2.666796
  0.045250501    0.000000    0.000000    0.000000    0.000000  -98.325015   45.116161   -5.283991   -4.633326
  0.045450902    0.000000    0.000000    0.000000    0.000000 -100.354195   34.487339   -5.316700   -6.606913
  0.045651303    0.000000    0.000000    0.000000    0.000000  -98.721285   39.072941   -5.351011   -8.565824
  0.045851703    0.000000    0.000000    0.000000    0.000000  -98.202622   38.415569   -5.382159  -10.483574
  0.046052104    0.000000    0.000000    0.000000    0.000000  -97.842920   36.319553   -5.410174  -12.428360
  0.046252505    0.000000    0.000000    0.000000    0.000000  -98.373156   24.706600   -5.440855  -14.346037
  0.046452906    0.000000    0.000000    0.000000    0.000000  -98.499155   34.072670   -5.470484  -16.247475
  0.046653307    0.000000    0.000000    0.000000    0.000000  -98.491117   38.246414   -5.496588  -18.164583
  0.046853707    0.000000    0.000000    0.000000    0.000000  -98.740818   31.076836   -5.523863  -20.058628
  0.047054108    0.000000    0.000000    0.000000    0.000000  -98.649955   29.859030   -5.550029  -21.951115
  0.047254509    0.000000    0.000000    0.000000    0.000000  -98.884553   27.681570   -5.571631  -23.834919
  0.047454910    0.000000    0.000000    0.000000    0.000000  -98.086816   28.640535   -5.593865  -25.711584
  0.047655311    0.000000    0.000000    0.000000    0.000000  -98.766091   28.684244   -5.615064  -27.571507
  0.047855711    0.000000    0.000000    0.000000    0.000000  -98.166897   40.363564   -5.636807  -29.389740
  0.048056112    0.000000    0.000000    0.000000    0.000000  -97.624531   22.540470   -5.659039  -31.221355
  0.048256513    0.000000    0.000000    0.000000    0.000000  -99.861223   20.410109   -5.680616  -33.017872
  0.048456914    0.000000    0.000000    0.000000    0.000000  -99.440923   26.073111   -5.700178  -34.818676
  0.048657315    0.000000    0.000000    0.000000    0.000000  -99.479464   24.538544   -5.720216  -36.619389
  0.048857715    0.000000    0.000000    0.000000    0.000000  -99.278410   36.109447   -5.736981  -38.412823
  0.049058116    0.000000    0.000000    0.000000    0.000000 -100.632601   36.964020   -5.754729  -40.203178
  0.049258517    0.000000    0.000000    0.000000    0.000000  -98.960707   38.638302   -5.772296  -41.939857
  0.049458918    0.000000    0.000000    0.000000    0.000000  -98.353924   31.677488   -5.787533  -43.685059
  0.049659319    0.000000    0.000000    0.000000    0.000000 -100.112172   30.714582   -5.804862  -45.421604
  0.049859719    0.000000    0.000000    0.000000    0.000000  -99.027241   34.738701   -5.821672  -47.153706
  0.050060120    0.000000    0.000000    0.000000    0.000000  -97.860392   33.988567   -5.838024  -48.862568
  0.050260521    0.000000    0.000000    0.000000    0.000000  -99.934772   46.044540   -5.851449  -50.568188
  0.050460922    0.000000    0.000000    0.000000    0.000000  -99.539558   35.210335   -5.864113  -52.286793
  0.050661323    0.000000    0.000000    0.000000    0.000000 -100.746065   30.267916   -5.873542  -53.966961
  0.050861723    0.000000    0.000000    0.000000    0.000000 -100.592375   31.394066   -5.884714  -55.654610
  0.051062124    0.000000    0.000000    0.000000    0.000000  -99.465552   30.040600   -5.898331  -57.312950
  0.051262525    0.000000    0.000000    0.000000    0.000000  -99.378312   30.439674   -5.910827  -58.973759
  0.051462926    0.000000    0.000000    0.000000    0.000000 -100.004752   26.213840   -5.920088  -60.606468
  0.051663327    0.000000    0.000000    0.000000    0.000000  -98.451042   42.742798   -5.931645  -62.222286
  0.051863727    0.000000    0.000000    0.000000    0.000000  -98.412852   37.182369   -5.940809  -63.844681
  0.052064128    0.000000    0.000000    0.000000    0.000000  -99.064110   39.783775   -5.948194  -65.459694
  0.052264529    0.000000    0.000000    0.000000    0.000000  -98.031752   39.438576   -5.953359  -67.061111
  0.052464930    0.000000    0.000000    0.000000    0.000000  -99.456909   37.905796   -5.957585  -68.684502
  0.052665331    0.000000    0.000000    0.000000    0.000000  -97.720717   34.337460   -5.965953  -70.222374
  0.052865731    0.000000    0.000000    0.000000    0.000000  -97.480713   27.802755   -5.974180  -71.791878
