! Anritsu VNA Master:                     Model: MS2036C/10/77
! SN:                                  1601066
! /card0/usr/18may27.balun/252b.m5.s2p
! Existing Calibration Information:
! TYPE:                         Current Settings,       Active Cal Settings
! TIME:             	   05/27/2018 01:08:15 PM,    05/27/2018 12:49:51 PM
! INTERNAL TEMP:    	                   52.0 C,                    52.5 C
! # POINTS:         	                      500,                       500
! START FREQ:       	               20.000 MHz,                20.000 MHz
! STOP FREQ:        	              120.000 MHz,               120.000 MHz
! SOURCE POWER:     	                     High,                      High
! IFBW:             	                    50 Hz,                     50 Hz
! AVG FACTOR:       	                       1 ,                        1 
! REF PLANE 1:      	                     0 mm,                      0 mm
! REF PLANE 2:      	                     0 mm,                      0 mm
! CAL TYPE:         	                 Full S11,                  Full S11
! CAL METHOD:       	                     SOLT,                      SOLT
! CAL LINE TYPE:    	                     Coax,                      Coax
! DUT PORT 1:       	                K-Conn(M),                 K-Conn(M)
! DUT PORT 2:       	                K-Conn(M),                 K-Conn(M)
! CAL STATUS:       	        OK: Accuracy High,                        --
# GHZ S DB R 50.0
! FREQ.GHZ       S11DB        S11A       S21DB        S21A       S12DB        S12A       S22DB        S22A
  0.020000000   -0.626685 -125.634895  -90.792187   31.036297    0.000000    0.000000    0.000000    0.000000
  0.020200401   -0.625642 -127.117607  -91.055818   33.199089    0.000000    0.000000    0.000000    0.000000
  0.020400802   -0.623877 -128.566452  -90.948990   31.628208    0.000000    0.000000    0.000000    0.000000
  0.020601202   -0.625785 -129.990906  -91.696927   27.622625    0.000000    0.000000    0.000000    0.000000
  0.020801603   -0.628575 -131.447403  -92.453094   29.060465    0.000000    0.000000    0.000000    0.000000
  0.021002004   -0.634521 -132.939743  -92.099970   30.800404    0.000000    0.000000    0.000000    0.000000
  0.021202405   -0.642683 -134.442673  -92.938944   29.982494    0.000000    0.000000    0.000000    0.000000
  0.021402806   -0.649397 -135.941818  -92.745892   31.561386    0.000000    0.000000    0.000000    0.000000
  0.021603206   -0.655457 -137.439026  -92.837638   31.663076    0.000000    0.000000    0.000000    0.000000
  0.021803607   -0.660614 -138.934921  -92.662142   34.151539    0.000000    0.000000    0.000000    0.000000
  0.022004008   -0.668651 -140.444107  -93.210558   34.636398    0.000000    0.000000    0.000000    0.000000
  0.022204409   -0.674810 -141.989883  -92.930722   36.226456    0.000000    0.000000    0.000000    0.000000
  0.022404810   -0.677030 -143.542496  -92.480810   37.856884    0.000000    0.000000    0.000000    0.000000
  0.022605210   -0.678653 -145.077209  -92.483798   34.064571    0.000000    0.000000    0.000000    0.000000
  0.022805611   -0.681491 -146.615234  -92.720969   35.431133    0.000000    0.000000    0.000000    0.000000
  0.023006012   -0.686114 -148.154114  -92.222211   36.275364    0.000000    0.000000    0.000000    0.000000
  0.023206413   -0.693260 -149.705978  -92.986441   38.830410    0.000000    0.000000    0.000000    0.000000
  0.023406814   -0.702335 -151.283386  -92.449402   31.429646    0.000000    0.000000    0.000000    0.000000
  0.023607214   -0.709042 -152.890533  -92.488562   29.496979    0.000000    0.000000    0.000000    0.000000
  0.023807615   -0.718192 -154.487411  -93.034790   26.344645    0.000000    0.000000    0.000000    0.000000
  0.024008016   -0.725541 -156.070328  -92.483994   23.156096    0.000000    0.000000    0.000000    0.000000
  0.024208417   -0.735507 -157.683105  -92.984862   22.236603    0.000000    0.000000    0.000000    0.000000
  0.024408818   -0.747292 -159.301605  -93.629254   22.952114    0.000000    0.000000    0.000000    0.000000
  0.024609218   -0.757250 -160.957458  -93.315146   19.123335    0.000000    0.000000    0.000000    0.000000
  0.024809619   -0.762038 -162.621902  -94.242810   19.039879    0.000000    0.000000    0.000000    0.000000
  0.025010020   -0.767612 -164.280060  -94.675270   17.463943    0.000000    0.000000    0.000000    0.000000
  0.025210421   -0.775563 -165.936844  -94.915947   22.263807    0.000000    0.000000    0.000000    0.000000
  0.025410822   -0.782332 -167.604858  -94.300975   22.898355    0.000000    0.000000    0.000000    0.000000
  0.025611222   -0.791833 -169.262711  -95.184208   20.904202    0.000000    0.000000    0.000000    0.000000
  0.025811623   -0.800742 -170.943741  -95.284565   23.404417    0.000000    0.000000    0.000000    0.000000
  0.026012024   -0.810404 -172.623871  -95.159598   27.254856    0.000000    0.000000    0.000000    0.000000
  0.026212425   -0.823879 -174.333099  -95.864728   29.147644    0.000000    0.000000    0.000000    0.000000
  0.026412826   -0.840469 -176.030640  -94.976897   26.149412    0.000000    0.000000    0.000000    0.000000
  0.026613226   -0.856438 -177.755524  -96.282742   24.588217    0.000000    0.000000    0.000000    0.000000
  0.026813627   -0.871708 -179.471451  -94.411148   26.129519    0.000000    0.000000    0.000000    0.000000
  0.027014028   -0.887551  178.805191  -96.065428   21.324043    0.000000    0.000000    0.000000    0.000000
  0.027214429   -0.902595  177.078003  -95.542412   25.489882    0.000000    0.000000    0.000000    0.000000
  0.027414830   -0.919242  175.339615  -96.000302   23.976149    0.000000    0.000000    0.000000    0.000000
  0.027615230   -0.936869  173.592834  -94.795708   21.447437    0.000000    0.000000    0.000000    0.000000
  0.027815631   -0.958825  171.828003  -95.612125   21.981136    0.000000    0.000000    0.000000    0.000000
  0.028016032   -0.979242  170.017029  -96.145417   22.046104    0.000000    0.000000    0.000000    0.000000
  0.028216433   -0.999836  168.209442  -95.215279   24.727762    0.000000    0.000000    0.000000    0.000000
  0.028416834   -1.023785  166.393341  -95.029927   17.858963    0.000000    0.000000    0.000000    0.000000
  0.028617234   -1.047547  164.578537  -96.131940   13.391038    0.000000    0.000000    0.000000    0.000000
  0.028817635   -1.073760  162.731873  -96.580117   16.030643    0.000000    0.000000    0.000000    0.000000
  0.029018036   -1.101301  160.869904  -97.027935   13.698803    0.000000    0.000000    0.000000    0.000000
  0.029218437   -1.125427  158.980072  -96.190499   16.860643    0.000000    0.000000    0.000000    0.000000
  0.029418838   -1.150244  157.093597  -96.364822   15.781456    0.000000    0.000000    0.000000    0.000000
  0.029619238   -1.174107  155.239029  -97.884796   14.158678    0.000000    0.000000    0.000000    0.000000
  0.029819639   -1.198623  153.389236  -96.060407   14.952043    0.000000    0.000000    0.000000    0.000000
  0.030020040   -1.224295  151.533936  -97.864501   18.431961    0.000000    0.000000    0.000000    0.000000
  0.030220441   -1.255618  149.683151  -97.603589   22.943228    0.000000    0.000000    0.000000    0.000000
  0.030420842   -1.290795  147.817017  -97.446804   20.826233    0.000000    0.000000    0.000000    0.000000
  0.030621242   -1.330892  145.913864  -98.028869   12.530675    0.000000    0.000000    0.000000    0.000000
  0.030821643   -1.366840  143.981750  -97.963596   21.277044    0.000000    0.000000    0.000000    0.000000
  0.031022044   -1.400382  142.025436  -97.722491   16.879234    0.000000    0.000000    0.000000    0.000000
  0.031222445   -1.425606  140.052734  -96.994795   11.457250    0.000000    0.000000    0.000000    0.000000
  0.031422846   -1.453541  138.098694  -97.632075   14.327015    0.000000    0.000000    0.000000    0.000000
  0.031623246   -1.478425  136.165573  -96.939947   17.451345    0.000000    0.000000    0.000000    0.000000
  0.031823647   -1.498813  134.216858  -96.882953   12.174864    0.000000    0.000000    0.000000    0.000000
  0.032024048   -1.523653  132.310196  -97.682810   10.445348    0.000000    0.000000    0.000000    0.000000
  0.032224449   -1.549427  130.409485  -97.046086    6.719925    0.000000    0.000000    0.000000    0.000000
  0.032424850   -1.575903  128.497406  -97.599163   12.660191    0.000000    0.000000    0.000000    0.000000
  0.032625251   -1.612205  126.574051  -98.014481   12.463374    0.000000    0.000000    0.000000    0.000000
  0.032825651   -1.651001  124.634125  -98.759529    1.340676    0.000000    0.000000    0.000000    0.000000
  0.033026052   -1.695904  122.678131  -98.728810   10.431480    0.000000    0.000000    0.000000    0.000000
  0.033226453   -1.740517  120.697098  -97.616602   10.384010    0.000000    0.000000    0.000000    0.000000
  0.033426854   -1.785999  118.667351  -97.719042   14.144630    0.000000    0.000000    0.000000    0.000000
  0.033627255   -1.830147  116.624428  -97.725978    6.359452    0.000000    0.000000    0.000000    0.000000
  0.033827655   -1.874690  114.547340  -98.922276    0.145428    0.000000    0.000000    0.000000    0.000000
  0.034028056   -1.920243  112.464706  -97.731319    6.005602    0.000000    0.000000    0.000000    0.000000
  0.034228457   -1.968615  110.332161  -98.520355    5.247946    0.000000    0.000000    0.000000    0.000000
  0.034428858   -2.011779  108.234428  -99.578171   16.406330    0.000000    0.000000    0.000000    0.000000
  0.034629259   -2.052534  106.159859  -98.158377   15.990070    0.000000    0.000000    0.000000    0.000000
  0.034829659   -2.089573  104.090080 -100.366575    2.497607    0.000000    0.000000    0.000000    0.000000
  0.035030060   -2.129140  102.040352  -99.214024    7.404764    0.000000    0.000000    0.000000    0.000000
  0.035230461   -2.172127  100.025093  -99.378873    4.612572    0.000000    0.000000    0.000000    0.000000
  0.035430862   -2.225692   97.995911  -99.754023   16.345119    0.000000    0.000000    0.000000    0.000000
  0.035631263   -2.285198   95.986053  -97.919068    7.246802    0.000000    0.000000    0.000000    0.000000
  0.035831663   -2.347107   93.924858  -98.980303   11.553488    0.000000    0.000000    0.000000    0.000000
  0.036032064   -2.405985   91.821640  -97.974692   11.061990    0.000000    0.000000    0.000000    0.000000
  0.036232465   -2.465241   89.637039  -98.275620   15.129663    0.000000    0.000000    0.000000    0.000000
  0.036432866   -2.523848   87.473320  -99.054034   -3.875710    0.000000    0.000000    0.000000    0.000000
  0.036633267   -2.576007   85.301811  -99.353332   15.846749    0.000000    0.000000    0.000000    0.000000
  0.036833667   -2.624815   83.144867  -99.630750    9.429228    0.000000    0.000000    0.000000    0.000000
  0.037034068   -2.675379   80.990639  -98.765798    6.098657    0.000000    0.000000    0.000000    0.000000
  0.037234469   -2.720871   78.855522  -98.322269   -1.437661    0.000000    0.000000    0.000000    0.000000
  0.037434870   -2.766801   76.752663  -98.871234    4.286848    0.000000    0.000000    0.000000    0.000000
  0.037635271   -2.820399   74.683205  -99.330521    2.943193    0.000000    0.000000    0.000000    0.000000
  0.037835671   -2.872968   72.588516  -98.824407    4.627257    0.000000    0.000000    0.000000    0.000000
  0.038036072   -2.931468   70.553665  -99.209716   -0.118829    0.000000    0.000000    0.000000    0.000000
  0.038236473   -2.988823   68.497047 -100.047754    4.411366    0.000000    0.000000    0.000000    0.000000
  0.038436874   -3.048258   66.402679 -100.201864    3.535446    0.000000    0.000000    0.000000    0.000000
  0.038637275   -3.111718   64.284050 -100.372483   13.904624    0.000000    0.000000    0.000000    0.000000
  0.038837675   -3.179290   62.125439 -100.543759    9.095460    0.000000    0.000000    0.000000    0.000000
  0.039038076   -3.242577   59.931747 -102.007007    7.133619    0.000000    0.000000    0.000000    0.000000
  0.039238477   -3.302492   57.699600 -101.464615    9.165623    0.000000    0.000000    0.000000    0.000000
  0.039438878   -3.356124   55.512161  -99.008696    6.915866    0.000000    0.000000    0.000000    0.000000
  0.039639279   -3.408057   53.365307 -101.396225    7.811280    0.000000    0.000000    0.000000    0.000000
  0.039839679   -3.451196   51.236797  -99.517840    5.277044    0.000000    0.000000    0.000000    0.000000
  0.040040080   -3.500239   49.175724  -98.795952   13.379939    0.000000    0.000000    0.000000    0.000000
  0.040240481   -3.558406   47.115276 -100.491099    3.490195    0.000000    0.000000    0.000000    0.000000
  0.040440882   -3.618532   45.035763  -99.139818   10.625553    0.000000    0.000000    0.000000    0.000000
  0.040641283   -3.681348   42.932350  -99.652032    1.018842    0.000000    0.000000    0.000000    0.000000
  0.040841683   -3.744448   40.825092 -101.468813    2.785414    0.000000    0.000000    0.000000    0.000000
  0.041042084   -3.809996   38.725937  -99.759566    3.839649    0.000000    0.000000    0.000000    0.000000
  0.041242485   -3.871524   36.598751  -99.854021   12.776000    0.000000    0.000000    0.000000    0.000000
  0.041442886   -3.932323   34.479927 -100.355891    6.688945    0.000000    0.000000    0.000000    0.000000
  0.041643287   -3.991154   32.333694 -100.141617    1.680058    0.000000    0.000000    0.000000    0.000000
  0.041843687   -4.043336   30.189590 -101.125547    0.755616    0.000000    0.000000    0.000000    0.000000
  0.042044088   -4.098914   28.077589 -101.628471   -6.775993    0.000000    0.000000    0.000000    0.000000
  0.042244489   -4.150788   25.992367  -99.149107   15.072180    0.000000    0.000000    0.000000    0.000000
  0.042444890   -4.202418   23.902874 -101.111984   -5.716846    0.000000    0.000000    0.000000    0.000000
  0.042645291   -4.255385   21.832928 -100.496159   -3.312926    0.000000    0.000000    0.000000    0.000000
  0.042845691   -4.306181   19.787367 -103.422813   10.400795    0.000000    0.000000    0.000000    0.000000
  0.043046092   -4.355347   17.716461 -102.473070   10.700336    0.000000    0.000000    0.000000    0.000000
  0.043246493   -4.400369   15.675213 -101.222184   13.009720    0.000000    0.000000    0.000000    0.000000
  0.043446894   -4.451255   13.651424 -102.417045    7.312993    0.000000    0.000000    0.000000    0.000000
  0.043647295   -4.501365   11.624486 -103.628150   21.320717    0.000000    0.000000    0.000000    0.000000
  0.043847695   -4.552992    9.624467 -100.461092    6.993450    0.000000    0.000000    0.000000    0.000000
  0.044048096   -4.601181    7.624668 -101.063664    0.474824    0.000000    0.000000    0.000000    0.000000
  0.044248497   -4.645291    5.621531 -101.260759    0.846418    0.000000    0.000000    0.000000    0.000000
  0.044448898   -4.689437    3.642817 -100.411980   15.758781    0.000000    0.000000    0.000000    0.000000
  0.044649299   -4.729363    1.677844 -101.888934    7.244945    0.000000    0.000000    0.000000    0.000000
  0.044849699   -4.774250   -0.248359 -101.677831    5.605519    0.000000    0.000000    0.000000    0.000000
  0.045050100   -4.817185   -2.171924 -101.395276   10.664473    0.000000    0.000000    0.000000    0.000000
  0.045250501   -4.863870   -4.087675 -101.028547    7.586345    0.000000    0.000000    0.000000    0.000000
  0.045450902   -4.906589   -5.988067 -101.105199   11.949862    0.000000    0.000000    0.000000    0.000000
  0.045651303   -4.950179   -7.924614 -100.269020    2.763631    0.000000    0.000000    0.000000    0.000000
  0.045851703   -4.990469   -9.839361 -102.203301    7.844959    0.000000    0.000000    0.000000    0.000000
  0.046052104   -5.033469  -11.741145 -102.483145    6.906367    0.000000    0.000000    0.000000    0.000000
  0.046252505   -5.073966  -13.646324 -102.374020  -12.318025    0.000000    0.000000    0.000000    0.000000
  0.046452906   -5.113618  -15.539401 -101.770947   -5.749650    0.000000    0.000000    0.000000    0.000000
  0.046653307   -5.154730  -17.433386 -101.053967    1.782612    0.000000    0.000000    0.000000    0.000000
  0.046853707   -5.193277  -19.330488 -103.339480    3.079511    0.000000    0.000000    0.000000    0.000000
  0.047054108   -5.233930  -21.229673 -101.293610    4.223948    0.000000    0.000000    0.000000    0.000000
  0.047254509   -5.268645  -23.148556 -103.181250    5.743846    0.000000    0.000000    0.000000    0.000000
  0.047454910   -5.300561  -25.056379 -101.536904   11.346788    0.000000    0.000000    0.000000    0.000000
  0.047655311   -5.333518  -26.948727 -104.290013   13.979974    0.000000    0.000000    0.000000    0.000000
  0.047855711   -5.363809  -28.867521 -105.326867   -7.221995    0.000000    0.000000    0.000000    0.000000
  0.048056112   -5.390675  -30.763195 -105.356683   11.877669    0.000000    0.000000    0.000000    0.000000
  0.048256513   -5.416301  -32.639149 -103.946902   -2.974465    0.000000    0.000000    0.000000    0.000000
  0.048456914   -5.439051  -34.547775 -103.626005    3.134173    0.000000    0.000000    0.000000    0.000000
  0.048657315   -5.457059  -36.408382 -103.768408   10.828683    0.000000    0.000000    0.000000    0.000000
  0.048857715   -5.473324  -38.250507 -102.473555   21.601866    0.000000    0.000000    0.000000    0.000000
  0.049058116   -5.485386  -40.045223 -101.642946   25.820843    0.000000    0.000000    0.000000    0.000000
  0.049258517   -5.501337  -41.791855 -102.036314   14.991934    0.000000    0.000000    0.000000    0.000000
  0.049458918   -5.514349  -43.532867 -100.931458   15.466221    0.000000    0.000000    0.000000    0.000000
  0.049659319   -5.532495  -45.220379 -101.010387   15.629097    0.000000    0.000000    0.000000    0.000000
  0.049859719   -5.549701  -46.952118 -100.517539   -1.693402    0.000000    0.000000    0.000000    0.000000
  0.050060120   -5.567790  -48.647812 -102.313139    2.929973    0.000000    0.000000    0.000000    0.000000
  0.050260521   -5.589550  -50.330273 -102.095405   -2.009564    0.000000    0.000000    0.000000    0.000000
  0.050460922   -5.605898  -52.021263 -102.785892   -0.986416    0.000000    0.000000    0.000000    0.000000
  0.050661323   -5.622187  -53.716610 -103.335673    4.497809    0.000000    0.000000    0.000000    0.000000
  0.050861723   -5.635057  -55.415615 -101.848617   -3.379517    0.000000    0.000000    0.000000    0.000000
  0.051062124   -5.646564  -57.065075 -102.826148    0.260426    0.000000    0.000000    0.000000    0.000000
  0.051262525   -5.657497  -58.666641 -102.384354    4.497700    0.000000    0.000000    0.000000    0.000000
  0.051462926   -5.670779  -60.286964 -103.655288    8.548389    0.000000    0.000000    0.000000    0.000000
  0.051663327   -5.684640  -61.869938 -106.356329   -7.603525    0.000000    0.000000    0.000000    0.000000
  0.051863727   -5.704246  -63.453728 -103.827915    1.108758    0.000000    0.000000    0.000000    0.000000
  0.052064128   -5.723987  -65.061165 -101.978155   -1.188806    0.000000    0.000000    0.000000    0.000000
  0.052264529   -5.743774  -66.640938 -104.728045  -11.422256    0.000000    0.000000    0.000000    0.000000
  0.052464930   -5.761024  -68.266556 -103.010533   27.472889    0.000000    0.000000    0.000000    0.000000
  0.052665331   -5.777426  -69.902420 -105.163492   17.010321    0.000000    0.000000    0.000000    0.000000
  0.052865731   -5.792450  -71.516342 -103.181328   10.384667    0.000000    0.000000    0.000000    0.000000
