! Anritsu VNA Master:                     Model: MS2036C/10/77
! SN:                                  1601066
! /bd0/18may10/256.ew.m2.s2p
! Existing Calibration Information:
! TYPE:                         Current Settings,       Active Cal Settings
! TIME:             	   05/10/2018 10:12:52 AM,    05/10/2018 10:05:08 AM
! INTERNAL TEMP:    	                   46.3 C,                    45.0 C
! # POINTS:         	                      494,                       494
! START FREQ:       	               20.000 MHz,                20.000 MHz
! STOP FREQ:        	          118.797 594 MHz,           118.797 594 MHz
! SOURCE POWER:     	                     High,                      High
! IFBW:             	                    50 Hz,                     50 Hz
! AVG FACTOR:       	                       1 ,                        1 
! REF PLANE 1:      	                     0 mm,                      0 mm
! REF PLANE 2:      	                     0 mm,                      0 mm
! CAL TYPE:         	                 Full S22,                  Full S22
! CAL METHOD:       	                     SOLT,                      SOLT
! CAL LINE TYPE:    	                     Coax,                      Coax
! DUT PORT 1:       	                K-Conn(M),                 K-Conn(M)
! DUT PORT 2:       	                K-Conn(M),                 K-Conn(M)
! CAL STATUS:       	        OK: Accuracy High,                        --
# GHZ S DB R 50.0
! FREQ.GHZ       S11DB        S11A       S21DB        S21A       S12DB        S12A       S22DB        S22A
  0.020000000    0.000000    0.000000    0.000000    0.000000  -89.641238   35.640205   -0.617890 -126.979599
  0.020200401    0.000000    0.000000    0.000000    0.000000  -89.715898   37.076817   -0.622427 -128.437866
  0.020400802    0.000000    0.000000    0.000000    0.000000  -89.975524   36.435009   -0.626789 -129.908005
  0.020601202    0.000000    0.000000    0.000000    0.000000  -90.457368   35.650505   -0.631447 -131.404694
  0.020801603    0.000000    0.000000    0.000000    0.000000  -90.801955   32.890308   -0.635643 -132.928360
  0.021002004    0.000000    0.000000    0.000000    0.000000  -91.195085   33.963974   -0.638561 -134.459030
  0.021202405    0.000000    0.000000    0.000000    0.000000  -91.458178   39.854797   -0.644161 -136.004318
  0.021402806    0.000000    0.000000    0.000000    0.000000  -92.002706   40.555782   -0.647400 -137.527634
  0.021603206    0.000000    0.000000    0.000000    0.000000  -91.897572   41.272850   -0.650821 -139.047943
  0.021803607    0.000000    0.000000    0.000000    0.000000  -92.228167   46.147072   -0.656098 -140.581558
  0.022004008    0.000000    0.000000    0.000000    0.000000  -92.081296   42.978172   -0.664051 -142.121185
  0.022204409    0.000000    0.000000    0.000000    0.000000  -92.387969   46.815060   -0.670253 -143.693390
  0.022404810    0.000000    0.000000    0.000000    0.000000  -91.928796   46.987431   -0.677332 -145.297318
  0.022605210    0.000000    0.000000    0.000000    0.000000  -91.549430   40.972252   -0.686525 -146.883743
  0.022805611    0.000000    0.000000    0.000000    0.000000  -91.581968   47.631538   -0.692017 -148.479370
  0.023006012    0.000000    0.000000    0.000000    0.000000  -91.263153   45.019413   -0.695378 -150.078110
  0.023206413    0.000000    0.000000    0.000000    0.000000  -91.416796   42.036201   -0.700004 -151.688370
  0.023406814    0.000000    0.000000    0.000000    0.000000  -91.052084   40.343639   -0.706619 -153.275238
  0.023607214    0.000000    0.000000    0.000000    0.000000  -91.092679   44.023590   -0.715178 -154.887634
  0.023807615    0.000000    0.000000    0.000000    0.000000  -91.398639   42.276108   -0.727071 -156.524918
  0.024008016    0.000000    0.000000    0.000000    0.000000  -90.511650   39.273678   -0.737856 -158.158508
  0.024208417    0.000000    0.000000    0.000000    0.000000  -91.560891   37.450775   -0.745496 -159.821960
  0.024408818    0.000000    0.000000    0.000000    0.000000  -91.460146   35.935444   -0.750755 -161.480927
  0.024609218    0.000000    0.000000    0.000000    0.000000  -91.230617   34.930912   -0.760510 -163.147873
  0.024809619    0.000000    0.000000    0.000000    0.000000  -91.408684   34.508568   -0.771052 -164.814896
  0.025010020    0.000000    0.000000    0.000000    0.000000  -91.957347   28.756557   -0.782598 -166.490509
  0.025210421    0.000000    0.000000    0.000000    0.000000  -91.512843   29.400246   -0.794787 -168.178925
  0.025410822    0.000000    0.000000    0.000000    0.000000  -91.635984   28.520992   -0.807555 -169.868912
  0.025611222    0.000000    0.000000    0.000000    0.000000  -91.997843   28.299442   -0.820452 -171.581802
  0.025811623    0.000000    0.000000    0.000000    0.000000  -92.780698   24.484262   -0.833084 -173.295715
  0.026012024    0.000000    0.000000    0.000000    0.000000  -92.244552   32.255913   -0.845991 -175.030151
  0.026212425    0.000000    0.000000    0.000000    0.000000  -92.810204   23.960844   -0.859636 -176.769226
  0.026412826    0.000000    0.000000    0.000000    0.000000  -93.676579   26.923492   -0.875717 -178.518509
  0.026613226    0.000000    0.000000    0.000000    0.000000  -93.210571   26.892315   -0.893346  179.729507
  0.026813627    0.000000    0.000000    0.000000    0.000000  -94.492036   26.652740   -0.908646  177.959473
  0.027014028    0.000000    0.000000    0.000000    0.000000  -94.192651   27.555088   -0.926648  176.188217
  0.027214429    0.000000    0.000000    0.000000    0.000000  -94.473203   32.267994   -0.944901  174.411255
  0.027414830    0.000000    0.000000    0.000000    0.000000  -94.470052   31.020523   -0.963601  172.630676
  0.027615230    0.000000    0.000000    0.000000    0.000000  -94.027404   34.106323   -0.982780  170.824890
  0.027815631    0.000000    0.000000    0.000000    0.000000  -94.471938   32.688248   -1.003241  169.020325
  0.028016032    0.000000    0.000000    0.000000    0.000000  -94.580901   30.353302   -1.025418  167.186264
  0.028216433    0.000000    0.000000    0.000000    0.000000  -94.403863   33.649605   -1.047915  165.347778
  0.028416834    0.000000    0.000000    0.000000    0.000000  -94.377009   35.044891   -1.070828  163.511642
  0.028617234    0.000000    0.000000    0.000000    0.000000  -94.047598   33.205814   -1.093865  161.671600
  0.028817635    0.000000    0.000000    0.000000    0.000000  -94.220039   38.238930   -1.118212  159.826752
  0.029018036    0.000000    0.000000    0.000000    0.000000  -94.577575   34.770638   -1.144763  157.978867
  0.029218437    0.000000    0.000000    0.000000    0.000000  -94.175930   34.587196   -1.169834  156.118576
  0.029418838    0.000000    0.000000    0.000000    0.000000  -94.191486   34.486206   -1.198536  154.241730
  0.029619238    0.000000    0.000000    0.000000    0.000000  -94.238492   31.925854   -1.225948  152.360336
  0.029819639    0.000000    0.000000    0.000000    0.000000  -93.789077   29.122974   -1.254441  150.469131
  0.030020040    0.000000    0.000000    0.000000    0.000000  -94.221051   33.036152   -1.283853  148.582626
  0.030220441    0.000000    0.000000    0.000000    0.000000  -93.893743   23.238766   -1.314065  146.673706
  0.030420842    0.000000    0.000000    0.000000    0.000000  -94.231794   28.037683   -1.343159  144.787537
  0.030621242    0.000000    0.000000    0.000000    0.000000  -93.746992   24.176188   -1.375598  142.897125
  0.030821643    0.000000    0.000000    0.000000    0.000000  -94.422919   22.967876   -1.410103  140.990616
  0.031022044    0.000000    0.000000    0.000000    0.000000  -94.597626   24.597023   -1.442750  139.077057
  0.031222445    0.000000    0.000000    0.000000    0.000000  -94.487484   21.719992   -1.472478  137.149368
  0.031422846    0.000000    0.000000    0.000000    0.000000  -94.796442   22.945951   -1.506066  135.192886
  0.031623246    0.000000    0.000000    0.000000    0.000000  -94.110833   24.106457   -1.542336  133.219513
  0.031823647    0.000000    0.000000    0.000000    0.000000  -95.703397   18.618736   -1.575252  131.264740
  0.032024048    0.000000    0.000000    0.000000    0.000000  -95.308672   13.789491   -1.612911  129.299042
  0.032224449    0.000000    0.000000    0.000000    0.000000  -95.003252   21.084860   -1.650727  127.308357
  0.032424850    0.000000    0.000000    0.000000    0.000000  -96.069936   20.154917   -1.687760  125.331100
  0.032625250    0.000000    0.000000    0.000000    0.000000  -96.582386   24.515238   -1.727055  123.319229
  0.032825651    0.000000    0.000000    0.000000    0.000000  -95.495329   22.028870   -1.767505  121.290733
  0.033026052    0.000000    0.000000    0.000000    0.000000  -96.112611   29.028185   -1.808120  119.251686
  0.033226453    0.000000    0.000000    0.000000    0.000000  -96.062858   18.042870   -1.848701  117.214050
  0.033426854    0.000000    0.000000    0.000000    0.000000  -95.907683   25.431473   -1.890175  115.165535
  0.033627254    0.000000    0.000000    0.000000    0.000000  -96.379991   27.383753   -1.933644  113.131958
  0.033827655    0.000000    0.000000    0.000000    0.000000  -96.457563   19.479631   -1.981219  111.094093
  0.034028056    0.000000    0.000000    0.000000    0.000000  -96.523159   26.834257   -2.022061  109.031509
  0.034228457    0.000000    0.000000    0.000000    0.000000  -96.892765   24.805607   -2.069666  106.957817
  0.034428858    0.000000    0.000000    0.000000    0.000000  -97.464725   32.797245   -2.115312  104.879341
  0.034629258    0.000000    0.000000    0.000000    0.000000  -96.667407   29.341732   -2.160502  102.773384
  0.034829659    0.000000    0.000000    0.000000    0.000000  -95.581598   31.453917   -2.210379  100.707367
  0.035030060    0.000000    0.000000    0.000000    0.000000  -96.246860   34.912373   -2.260426   98.619568
  0.035230461    0.000000    0.000000    0.000000    0.000000  -95.515667   28.688803   -2.308469   96.524895
  0.035430862    0.000000    0.000000    0.000000    0.000000  -96.003859   30.849752   -2.359412   94.450974
  0.035631262    0.000000    0.000000    0.000000    0.000000  -95.982047   26.776793   -2.408532   92.369293
  0.035831663    0.000000    0.000000    0.000000    0.000000  -97.027599   21.357477   -2.459657   90.268356
  0.036032064    0.000000    0.000000    0.000000    0.000000  -95.968967   28.121466   -2.509421   88.176727
  0.036232465    0.000000    0.000000    0.000000    0.000000  -95.390693   18.083483   -2.561185   86.100029
  0.036432866    0.000000    0.000000    0.000000    0.000000  -95.873809   27.415039   -2.613426   83.995918
  0.036633266    0.000000    0.000000    0.000000    0.000000  -96.664034   21.657059   -2.664759   81.904846
  0.036833667    0.000000    0.000000    0.000000    0.000000  -97.349119   26.768999   -2.718583   79.817574
  0.037034068    0.000000    0.000000    0.000000    0.000000  -97.139679   19.435125   -2.772558   77.710098
  0.037234469    0.000000    0.000000    0.000000    0.000000  -97.379508   14.525381   -2.826835   75.618195
  0.037434870    0.000000    0.000000    0.000000    0.000000  -98.255960   19.797588   -2.881379   73.502510
  0.037635270    0.000000    0.000000    0.000000    0.000000  -97.277126   18.185810   -2.933242   71.403908
  0.037835671    0.000000    0.000000    0.000000    0.000000  -98.063416   20.525171   -2.989613   69.283531
  0.038036072    0.000000    0.000000    0.000000    0.000000  -97.713613   17.375971   -3.049159   67.168098
  0.038236473    0.000000    0.000000    0.000000    0.000000  -98.847459   20.007696   -3.105357   65.030609
  0.038436874    0.000000    0.000000    0.000000    0.000000  -97.782711   26.707735   -3.164893   62.925522
  0.038637274    0.000000    0.000000    0.000000    0.000000  -98.190503   31.112711   -3.220915   60.793690
  0.038837675    0.000000    0.000000    0.000000    0.000000  -97.031505   23.515505   -3.279765   58.678074
  0.039038076    0.000000    0.000000    0.000000    0.000000  -98.688508   38.402679   -3.334367   56.594414
  0.039238477    0.000000    0.000000    0.000000    0.000000  -97.841602   32.256077   -3.393026   54.485306
  0.039438878    0.000000    0.000000    0.000000    0.000000  -97.936759   29.167965   -3.448563   52.380726
  0.039639278    0.000000    0.000000    0.000000    0.000000  -99.291202   30.844858   -3.507576   50.247612
  0.039839679    0.000000    0.000000    0.000000    0.000000  -97.339103   26.977798   -3.564138   48.129711
  0.040040080    0.000000    0.000000    0.000000    0.000000  -98.053531   36.271355   -3.622770   46.001896
  0.040240481    0.000000    0.000000    0.000000    0.000000  -98.787999   31.767889   -3.677121   43.885262
  0.040440882    0.000000    0.000000    0.000000    0.000000  -98.529921   28.948360   -3.733440   41.772015
  0.040641283    0.000000    0.000000    0.000000    0.000000  -97.759261   27.440828   -3.789103   39.678589
  0.040841683    0.000000    0.000000    0.000000    0.000000  -97.841453   34.131027   -3.845815   37.594887
  0.041042084    0.000000    0.000000    0.000000    0.000000  -96.617375   32.771652   -3.902019   35.511658
  0.041242485    0.000000    0.000000    0.000000    0.000000  -98.816340   34.449837   -3.958763   33.425468
  0.041442886    0.000000    0.000000    0.000000    0.000000  -96.867434   28.149187   -4.013528   31.337980
  0.041643287    0.000000    0.000000    0.000000    0.000000  -98.121237   30.427319   -4.068005   29.247086
  0.041843687    0.000000    0.000000    0.000000    0.000000  -97.590975   22.726585   -4.119975   27.174126
  0.042044088    0.000000    0.000000    0.000000    0.000000  -96.861345   23.086739   -4.172074   25.117744
  0.042244489    0.000000    0.000000    0.000000    0.000000  -97.980775   23.502098   -4.222061   23.074739
  0.042444890    0.000000    0.000000    0.000000    0.000000  -98.798126   26.722084   -4.277137   21.047688
  0.042645291    0.000000    0.000000    0.000000    0.000000  -98.692017   23.163702   -4.327764   19.029276
  0.042845691    0.000000    0.000000    0.000000    0.000000  -98.579512   22.879278   -4.377792   16.988258
  0.043046092    0.000000    0.000000    0.000000    0.000000  -99.586493   22.223452   -4.427574   14.994904
  0.043246493    0.000000    0.000000    0.000000    0.000000  -98.964420   30.791548   -4.475499   12.967484
  0.043446894    0.000000    0.000000    0.000000    0.000000  -98.561566   23.106012   -4.521649   10.987646
  0.043647295    0.000000    0.000000    0.000000    0.000000  -99.123536   35.859566   -4.567375    8.988655
  0.043847695    0.000000    0.000000    0.000000    0.000000  -97.548111   30.268879   -4.612569    7.033015
  0.044048096    0.000000    0.000000    0.000000    0.000000  -99.444628   29.219208   -4.656266    5.043884
  0.044248497    0.000000    0.000000    0.000000    0.000000  -99.387441   34.843227   -4.703599    3.071845
  0.044448898    0.000000    0.000000    0.000000    0.000000  -99.179463   34.503906   -4.744959    1.121632
  0.044649299    0.000000    0.000000    0.000000    0.000000  -99.020060   30.024761   -4.788943   -0.840077
  0.044849699    0.000000    0.000000    0.000000    0.000000 -100.865976   27.255545   -4.831060   -2.772001
  0.045050100    0.000000    0.000000    0.000000    0.000000  -99.773408   41.740620   -4.870497   -4.734261
  0.045250501    0.000000    0.000000    0.000000    0.000000  -98.600656   32.282471   -4.914111   -6.673047
  0.045450902    0.000000    0.000000    0.000000    0.000000  -99.622068   37.993744   -4.954407   -8.617502
  0.045651303    0.000000    0.000000    0.000000    0.000000  -98.559401   33.223507   -4.994378  -10.541744
  0.045851703    0.000000    0.000000    0.000000    0.000000  -98.590409   37.972599   -5.030166  -12.472672
  0.046052104    0.000000    0.000000    0.000000    0.000000  -99.676406   24.499933   -5.069251  -14.358645
  0.046252505    0.000000    0.000000    0.000000    0.000000  -98.836030   32.681828   -5.109887  -16.249874
  0.046452906    0.000000    0.000000    0.000000    0.000000  -99.086320   37.811058   -5.149198  -18.090090
  0.046653307    0.000000    0.000000    0.000000    0.000000  -97.628633   40.915295   -5.185769  -19.942162
  0.046853707    0.000000    0.000000    0.000000    0.000000  -98.347243   27.420774   -5.216313  -21.773127
  0.047054108    0.000000    0.000000    0.000000    0.000000  -98.095122   27.982206   -5.244879  -23.610601
  0.047254509    0.000000    0.000000    0.000000    0.000000  -99.567178   33.508038   -5.269859  -25.468298
  0.047454910    0.000000    0.000000    0.000000    0.000000  -98.670184   28.908493   -5.293335  -27.307381
  0.047655311    0.000000    0.000000    0.000000    0.000000  -98.798391   26.292654   -5.313284  -29.148113
  0.047855711    0.000000    0.000000    0.000000    0.000000  -98.404167   31.835781   -5.334810  -30.980665
  0.048056112    0.000000    0.000000    0.000000    0.000000  -98.827064   27.862743   -5.361463  -32.817295
  0.048256513    0.000000    0.000000    0.000000    0.000000  -98.445390   31.189283   -5.382255  -34.635868
  0.048456914    0.000000    0.000000    0.000000    0.000000  -99.423984   32.094704   -5.404242  -36.447731
  0.048657315    0.000000    0.000000    0.000000    0.000000  -99.519937   18.376984   -5.426361  -38.255905
  0.048857715    0.000000    0.000000    0.000000    0.000000  -99.698029   31.010357   -5.448340  -40.069561
  0.049058116    0.000000    0.000000    0.000000    0.000000 -100.323059   34.952755   -5.467074  -41.857338
  0.049258517    0.000000    0.000000    0.000000    0.000000 -100.118488   29.688108   -5.488391  -43.613556
  0.049458918    0.000000    0.000000    0.000000    0.000000 -100.057430   28.061111   -5.506275  -45.371773
  0.049659319    0.000000    0.000000    0.000000    0.000000 -100.604546   34.391815   -5.532425  -47.085594
  0.049859719    0.000000    0.000000    0.000000    0.000000  -98.904185   43.989754   -5.551222  -48.801857
  0.050060120    0.000000    0.000000    0.000000    0.000000  -99.872875   39.869698   -5.572885  -50.519085
  0.050260521    0.000000    0.000000    0.000000    0.000000  -99.170801   32.666069   -5.588903  -52.212749
  0.050460922    0.000000    0.000000    0.000000    0.000000  -99.437498   34.718796   -5.608815  -53.912437
  0.050661323    0.000000    0.000000    0.000000    0.000000  -98.900807   34.767670   -5.623140  -55.575855
  0.050861723    0.000000    0.000000    0.000000    0.000000 -100.435912   44.984112   -5.642118  -57.241795
  0.051062124    0.000000    0.000000    0.000000    0.000000 -100.262126   30.631227   -5.662543  -58.884415
  0.051262525    0.000000    0.000000    0.000000    0.000000  -98.860837   29.243574   -5.681465  -60.529510
  0.051462926    0.000000    0.000000    0.000000    0.000000  -98.282124   37.072151   -5.696457  -62.150837
  0.051663327    0.000000    0.000000    0.000000    0.000000  -99.195532   43.695358   -5.714812  -63.768551
  0.051863727    0.000000    0.000000    0.000000    0.000000  -99.861370   24.031582   -5.734241  -65.387535
  0.052064128    0.000000    0.000000    0.000000    0.000000  -98.657592   27.731909   -5.747394  -66.991951
  0.052264529    0.000000    0.000000    0.000000    0.000000  -98.202654   29.843887   -5.756141  -68.581795
  0.052464930    0.000000    0.000000    0.000000    0.000000 -100.163353   32.803772   -5.772580  -70.171700
  0.052665331    0.000000    0.000000    0.000000    0.000000  -98.890316   26.120403   -5.787373  -71.728767
  0.052865731    0.000000    0.000000    0.000000    0.000000 -100.445144   34.782166   -5.801221  -73.279747
