! Anritsu VNA Master:                     Model: MS2036C/10/77
! SN:                                  1601066
! /bd0/18may10/256.ew.m10.s2p
! Existing Calibration Information:
! TYPE:                         Current Settings,       Active Cal Settings
! TIME:             	   05/10/2018 10:32:58 AM,    05/10/2018 10:22:12 AM
! INTERNAL TEMP:    	                   47.5 C,                    47.0 C
! # POINTS:         	                      494,                       494
! START FREQ:       	               20.000 MHz,                20.000 MHz
! STOP FREQ:        	          118.797 594 MHz,           118.797 594 MHz
! SOURCE POWER:     	                     High,                      High
! IFBW:             	                    50 Hz,                     50 Hz
! AVG FACTOR:       	                       1 ,                        1 
! REF PLANE 1:      	                     0 mm,                      0 mm
! REF PLANE 2:      	                     0 mm,                      0 mm
! CAL TYPE:         	                 Full S22,                  Full S22
! CAL METHOD:       	                     SOLT,                      SOLT
! CAL LINE TYPE:    	                     Coax,                      Coax
! DUT PORT 1:       	                K-Conn(M),                 K-Conn(M)
! DUT PORT 2:       	                K-Conn(M),                 K-Conn(M)
! CAL STATUS:       	        OK: Accuracy High,                        --
# GHZ S DB R 50.0
! FREQ.GHZ       S11DB        S11A       S21DB        S21A       S12DB        S12A       S22DB        S22A
  0.020000000    0.000000    0.000000    0.000000    0.000000  -90.080906   34.544003   -0.613918 -126.960106
  0.020200401    0.000000    0.000000    0.000000    0.000000  -89.981197   34.133888   -0.617046 -128.416382
  0.020400802    0.000000    0.000000    0.000000    0.000000  -90.409916   34.790726   -0.620403 -129.905121
  0.020601202    0.000000    0.000000    0.000000    0.000000  -90.340640   38.442333   -0.623507 -131.396866
  0.020801603    0.000000    0.000000    0.000000    0.000000  -90.425899   36.383434   -0.630175 -132.935364
  0.021002004    0.000000    0.000000    0.000000    0.000000  -91.324173   38.236744   -0.632259 -134.474457
  0.021202405    0.000000    0.000000    0.000000    0.000000  -91.486814   36.055275   -0.638016 -136.007187
  0.021402806    0.000000    0.000000    0.000000    0.000000  -91.461807   36.846317   -0.640724 -137.547607
  0.021603206    0.000000    0.000000    0.000000    0.000000  -91.677201   37.968895   -0.645383 -139.079697
  0.021803607    0.000000    0.000000    0.000000    0.000000  -92.297446   36.559120   -0.649945 -140.614105
  0.022004008    0.000000    0.000000    0.000000    0.000000  -91.642141   41.058052   -0.655643 -142.160934
  0.022204409    0.000000    0.000000    0.000000    0.000000  -91.137378   43.673534   -0.660408 -143.736328
  0.022404810    0.000000    0.000000    0.000000    0.000000  -91.784140   43.635811   -0.667852 -145.335556
  0.022605210    0.000000    0.000000    0.000000    0.000000  -91.812116   43.581989   -0.673240 -146.920288
  0.022805611    0.000000    0.000000    0.000000    0.000000  -91.350596   44.349369   -0.682984 -148.515289
  0.023006012    0.000000    0.000000    0.000000    0.000000  -91.542937   42.718296   -0.687701 -150.112885
  0.023206413    0.000000    0.000000    0.000000    0.000000  -91.520584   46.762989   -0.691381 -151.709335
  0.023406814    0.000000    0.000000    0.000000    0.000000  -90.961663   46.371193   -0.697338 -153.300888
  0.023607214    0.000000    0.000000    0.000000    0.000000  -91.323834   39.390274   -0.706711 -154.906784
  0.023807615    0.000000    0.000000    0.000000    0.000000  -90.726862   42.564724   -0.719201 -156.535431
  0.024008016    0.000000    0.000000    0.000000    0.000000  -90.813433   41.122154   -0.729097 -158.178558
  0.024208417    0.000000    0.000000    0.000000    0.000000  -91.749397   35.296700   -0.736280 -159.841965
  0.024408818    0.000000    0.000000    0.000000    0.000000  -91.703929   35.914093   -0.744136 -161.495682
  0.024609218    0.000000    0.000000    0.000000    0.000000  -91.315172   34.425251   -0.752856 -163.161469
  0.024809619    0.000000    0.000000    0.000000    0.000000  -91.490391   31.786680   -0.762691 -164.821487
  0.025010020    0.000000    0.000000    0.000000    0.000000  -91.866523   31.410965   -0.774366 -166.499481
  0.025210421    0.000000    0.000000    0.000000    0.000000  -92.179248   31.512020   -0.785992 -168.175629
  0.025410822    0.000000    0.000000    0.000000    0.000000  -91.692223   25.246098   -0.799983 -169.869476
  0.025611222    0.000000    0.000000    0.000000    0.000000  -92.027158   30.682907   -0.813427 -171.579987
  0.025811623    0.000000    0.000000    0.000000    0.000000  -93.161259   27.908997   -0.826355 -173.304214
  0.026012024    0.000000    0.000000    0.000000    0.000000  -92.914592   26.787416   -0.840160 -175.036819
  0.026212425    0.000000    0.000000    0.000000    0.000000  -93.176609   29.202429   -0.853299 -176.783875
  0.026412826    0.000000    0.000000    0.000000    0.000000  -93.755238   27.736731   -0.869968 -178.532623
  0.026613226    0.000000    0.000000    0.000000    0.000000  -93.576179   27.937330   -0.885565  179.709045
  0.026813627    0.000000    0.000000    0.000000    0.000000  -93.703178   28.266336   -0.902491  177.937973
  0.027014028    0.000000    0.000000    0.000000    0.000000  -93.993302   28.146389   -0.921191  176.158951
  0.027214429    0.000000    0.000000    0.000000    0.000000  -94.048731   25.224878   -0.937727  174.383316
  0.027414830    0.000000    0.000000    0.000000    0.000000  -95.049914   28.646177   -0.957460  172.591019
  0.027615230    0.000000    0.000000    0.000000    0.000000  -93.936479   25.752632   -0.976023  170.779953
  0.027815631    0.000000    0.000000    0.000000    0.000000  -94.606613   32.519089   -0.997217  168.970215
  0.028016032    0.000000    0.000000    0.000000    0.000000  -94.425739   33.603409   -1.017862  167.139847
  0.028216433    0.000000    0.000000    0.000000    0.000000  -93.911807   35.931007   -1.040577  165.304474
  0.028416834    0.000000    0.000000    0.000000    0.000000  -94.101919   38.564972   -1.063792  163.469711
  0.028617234    0.000000    0.000000    0.000000    0.000000  -93.917362   32.782326   -1.086777  161.629074
  0.028817635    0.000000    0.000000    0.000000    0.000000  -94.491056   36.791927   -1.111039  159.789261
  0.029018036    0.000000    0.000000    0.000000    0.000000  -94.095630   35.630699   -1.136849  157.947052
  0.029218437    0.000000    0.000000    0.000000    0.000000  -94.171072   33.387981   -1.163898  156.093277
  0.029418838    0.000000    0.000000    0.000000    0.000000  -93.981131   37.512268   -1.190111  154.222946
  0.029619238    0.000000    0.000000    0.000000    0.000000  -93.980168   31.766010   -1.219436  152.347549
  0.029819639    0.000000    0.000000    0.000000    0.000000  -94.331892   31.068058   -1.248509  150.470535
  0.030020040    0.000000    0.000000    0.000000    0.000000  -93.654655   30.293108   -1.277284  148.584656
  0.030220441    0.000000    0.000000    0.000000    0.000000  -93.995327   26.496126   -1.304915  146.695053
  0.030420842    0.000000    0.000000    0.000000    0.000000  -93.960138   27.294413   -1.335011  144.820694
  0.030621242    0.000000    0.000000    0.000000    0.000000  -94.264885   25.529085   -1.365762  142.935883
  0.030821643    0.000000    0.000000    0.000000    0.000000  -94.400521   24.343742   -1.400550  141.031403
  0.031022044    0.000000    0.000000    0.000000    0.000000  -94.500746   22.615410   -1.433165  139.109299
  0.031222445    0.000000    0.000000    0.000000    0.000000  -94.230127   27.848854   -1.462870  137.200058
  0.031422846    0.000000    0.000000    0.000000    0.000000  -94.949581   20.314581   -1.495998  135.231735
  0.031623246    0.000000    0.000000    0.000000    0.000000  -94.093612   18.832052   -1.532872  133.263245
  0.031823647    0.000000    0.000000    0.000000    0.000000  -95.644569   17.776625   -1.566493  131.291214
  0.032024048    0.000000    0.000000    0.000000    0.000000  -95.589796   23.013542   -1.604553  129.320557
  0.032224449    0.000000    0.000000    0.000000    0.000000  -94.805037   19.037083   -1.641364  127.332497
  0.032424850    0.000000    0.000000    0.000000    0.000000  -96.397037   23.730499   -1.682052  125.334435
  0.032625250    0.000000    0.000000    0.000000    0.000000  -95.956028   18.983583   -1.719813  123.306808
  0.032825651    0.000000    0.000000    0.000000    0.000000  -95.041676   25.701990   -1.758970  121.274841
  0.033026052    0.000000    0.000000    0.000000    0.000000  -95.251289   21.844952   -1.799170  119.208305
  0.033226453    0.000000    0.000000    0.000000    0.000000  -95.994290   26.550800   -1.840882  117.193672
  0.033426854    0.000000    0.000000    0.000000    0.000000  -96.843642   22.990402   -1.881236  115.132500
  0.033627254    0.000000    0.000000    0.000000    0.000000  -96.286207   26.247715   -1.922501  113.092964
  0.033827655    0.000000    0.000000    0.000000    0.000000  -97.230479   20.059967   -1.967006  111.048180
  0.034028056    0.000000    0.000000    0.000000    0.000000  -95.658060   29.687765   -2.011852  108.979118
  0.034228457    0.000000    0.000000    0.000000    0.000000  -97.016911   25.505259   -2.057914  106.910591
  0.034428858    0.000000    0.000000    0.000000    0.000000  -95.958940   31.653002   -2.103757  104.843918
  0.034629258    0.000000    0.000000    0.000000    0.000000  -95.531851   25.332207   -2.149294  102.739487
  0.034829659    0.000000    0.000000    0.000000    0.000000  -95.988562   24.874445   -2.196702  100.664192
  0.035030060    0.000000    0.000000    0.000000    0.000000  -96.223875   32.298061   -2.246200   98.596878
  0.035230461    0.000000    0.000000    0.000000    0.000000  -97.135421   29.211832   -2.294220   96.498856
  0.035430862    0.000000    0.000000    0.000000    0.000000  -96.350614   29.957558   -2.342747   94.416351
  0.035631262    0.000000    0.000000    0.000000    0.000000  -95.812682   25.280197   -2.394566   92.353622
  0.035831663    0.000000    0.000000    0.000000    0.000000  -95.960181   20.702152   -2.445276   90.259583
  0.036032064    0.000000    0.000000    0.000000    0.000000  -96.360187   31.285295   -2.494114   88.184830
  0.036232465    0.000000    0.000000    0.000000    0.000000  -95.789052   29.954105   -2.545931   86.104691
  0.036432866    0.000000    0.000000    0.000000    0.000000  -96.171414   27.261555   -2.597331   84.016350
  0.036633266    0.000000    0.000000    0.000000    0.000000  -96.779457   23.707775   -2.650852   81.903595
  0.036833667    0.000000    0.000000    0.000000    0.000000  -96.568922   34.711445   -2.705831   79.830208
  0.037034068    0.000000    0.000000    0.000000    0.000000  -96.898730   22.004395   -2.760723   77.750786
  0.037234469    0.000000    0.000000    0.000000    0.000000  -97.020602   20.107483   -2.814468   75.646698
  0.037434870    0.000000    0.000000    0.000000    0.000000  -97.189545   27.581627   -2.867629   73.555870
  0.037635270    0.000000    0.000000    0.000000    0.000000  -98.066263   24.595730   -2.921359   71.441002
  0.037835671    0.000000    0.000000    0.000000    0.000000  -97.922271   14.736236   -2.978460   69.313927
  0.038036072    0.000000    0.000000    0.000000    0.000000  -96.942962   26.159929   -3.035575   67.182251
  0.038236473    0.000000    0.000000    0.000000    0.000000  -97.658251   27.445221   -3.096304   65.054420
  0.038436874    0.000000    0.000000    0.000000    0.000000  -98.324244   23.545792   -3.155428   62.927441
  0.038637274    0.000000    0.000000    0.000000    0.000000  -97.679442   29.180101   -3.214751   60.791702
  0.038837675    0.000000    0.000000    0.000000    0.000000  -96.875938   32.834122   -3.269523   58.685642
  0.039038076    0.000000    0.000000    0.000000    0.000000  -99.123418   25.264297   -3.323230   56.561218
  0.039238477    0.000000    0.000000    0.000000    0.000000  -98.807877   24.050266   -3.381876   54.432289
  0.039438878    0.000000    0.000000    0.000000    0.000000  -97.486926   33.059010   -3.440054   52.328598
  0.039639278    0.000000    0.000000    0.000000    0.000000  -98.897362   21.135576   -3.497795   50.201340
  0.039839679    0.000000    0.000000    0.000000    0.000000  -97.718135   29.431299   -3.555300   48.083206
  0.040040080    0.000000    0.000000    0.000000    0.000000  -98.620753   26.396500   -3.610675   45.945236
  0.040240481    0.000000    0.000000    0.000000    0.000000  -97.498613   39.998653   -3.665387   43.818169
  0.040440882    0.000000    0.000000    0.000000    0.000000  -97.138115   29.927017   -3.720367   41.710983
  0.040641283    0.000000    0.000000    0.000000    0.000000  -98.820002   26.916059   -3.777657   39.601322
  0.040841683    0.000000    0.000000    0.000000    0.000000  -98.421486   27.660652   -3.829875   37.527073
  0.041042084    0.000000    0.000000    0.000000    0.000000  -97.373463   32.119331   -3.887149   35.457924
  0.041242485    0.000000    0.000000    0.000000    0.000000  -98.218941   32.357944   -3.943273   33.367512
  0.041442886    0.000000    0.000000    0.000000    0.000000  -98.510075   34.554447   -3.997964   31.271400
  0.041643287    0.000000    0.000000    0.000000    0.000000  -98.683657   32.447693   -4.052183   29.194677
  0.041843687    0.000000    0.000000    0.000000    0.000000  -98.322783   25.280348   -4.105695   27.128193
  0.042044088    0.000000    0.000000    0.000000    0.000000  -98.638107   21.301329   -4.158297   25.082430
  0.042244489    0.000000    0.000000    0.000000    0.000000  -97.804677   35.402512   -4.211831   23.054502
  0.042444890    0.000000    0.000000    0.000000    0.000000  -97.917524   27.658171   -4.264308   21.023470
  0.042645291    0.000000    0.000000    0.000000    0.000000  -97.776315   25.914139   -4.318921   19.003288
  0.042845691    0.000000    0.000000    0.000000    0.000000  -98.528238   26.846842   -4.370604   17.012327
  0.043046092    0.000000    0.000000    0.000000    0.000000 -100.158120   32.912727   -4.421668   14.998783
  0.043246493    0.000000    0.000000    0.000000    0.000000  -98.253144   17.280693   -4.471581   12.981408
  0.043446894    0.000000    0.000000    0.000000    0.000000  -99.498005   30.515291   -4.519496   10.990487
  0.043647295    0.000000    0.000000    0.000000    0.000000  -99.134315   30.549236   -4.565763    9.008042
  0.043847695    0.000000    0.000000    0.000000    0.000000  -99.145404   27.027718   -4.613493    7.040159
  0.044048096    0.000000    0.000000    0.000000    0.000000  -99.068068   33.945690   -4.659869    5.052119
  0.044248497    0.000000    0.000000    0.000000    0.000000  -98.514014   35.638901   -4.705228    3.086625
  0.044448898    0.000000    0.000000    0.000000    0.000000  -99.808401   37.570747   -4.746836    1.121320
  0.044649299    0.000000    0.000000    0.000000    0.000000 -101.165373   38.032799   -4.787098   -0.849077
  0.044849699    0.000000    0.000000    0.000000    0.000000  -99.655492   26.626642   -4.831032   -2.804516
  0.045050100    0.000000    0.000000    0.000000    0.000000  -99.434136   45.191959   -4.869807   -4.774383
  0.045250501    0.000000    0.000000    0.000000    0.000000  -99.794306   39.603321   -4.915353   -6.719274
  0.045450902    0.000000    0.000000    0.000000    0.000000 -100.338118   29.364971   -4.953626   -8.657439
  0.045651303    0.000000    0.000000    0.000000    0.000000  -99.446403   29.404985   -4.991242  -10.603230
  0.045851703    0.000000    0.000000    0.000000    0.000000  -98.793032   34.733551   -5.028564  -12.530226
  0.046052104    0.000000    0.000000    0.000000    0.000000  -98.640413   33.801033   -5.064704  -14.435009
  0.046252505    0.000000    0.000000    0.000000    0.000000  -99.286681   42.924294   -5.103504  -16.287012
  0.046452906    0.000000    0.000000    0.000000    0.000000  -99.723602   33.842060   -5.140182  -18.160553
  0.046653307    0.000000    0.000000    0.000000    0.000000  -98.952712   28.067299   -5.174469  -20.005054
  0.046853707    0.000000    0.000000    0.000000    0.000000  -97.449201   40.124020   -5.205869  -21.823942
  0.047054108    0.000000    0.000000    0.000000    0.000000  -97.923892   21.374695   -5.230792  -23.657608
  0.047254509    0.000000    0.000000    0.000000    0.000000  -98.287746   37.209503   -5.253088  -25.486881
  0.047454910    0.000000    0.000000    0.000000    0.000000  -99.122321   22.881800   -5.275686  -27.309591
  0.047655311    0.000000    0.000000    0.000000    0.000000  -98.019363   31.907089   -5.298011  -29.132666
  0.047855711    0.000000    0.000000    0.000000    0.000000  -99.662239   27.477640   -5.321100  -30.949594
  0.048056112    0.000000    0.000000    0.000000    0.000000  -98.955404   34.071762   -5.345131  -32.755856
  0.048256513    0.000000    0.000000    0.000000    0.000000 -100.179023   23.780375   -5.366904  -34.564976
  0.048456914    0.000000    0.000000    0.000000    0.000000  -99.049321   29.001158   -5.388347  -36.374107
  0.048657315    0.000000    0.000000    0.000000    0.000000  -98.182021   30.614449   -5.412079  -38.180763
  0.048857715    0.000000    0.000000    0.000000    0.000000  -99.750120   30.531889   -5.436780  -39.955288
  0.049058116    0.000000    0.000000    0.000000    0.000000 -100.353453   44.562965   -5.455089  -41.742977
  0.049258517    0.000000    0.000000    0.000000    0.000000  -99.037596   33.151073   -5.479702  -43.486687
  0.049458918    0.000000    0.000000    0.000000    0.000000 -101.735016   27.478001   -5.501443  -45.233330
  0.049659319    0.000000    0.000000    0.000000    0.000000  -98.802253   34.065784   -5.526237  -46.963627
  0.049859719    0.000000    0.000000    0.000000    0.000000 -100.553830   34.160252   -5.549907  -48.662449
  0.050060120    0.000000    0.000000    0.000000    0.000000  -99.171183   33.692955   -5.572161  -50.390224
  0.050260521    0.000000    0.000000    0.000000    0.000000 -100.613854   40.194752   -5.592290  -52.099827
  0.050460922    0.000000    0.000000    0.000000    0.000000  -99.723678   40.959370   -5.609963  -53.805683
  0.050661323    0.000000    0.000000    0.000000    0.000000  -99.670319   29.990843   -5.629174  -55.485443
  0.050861723    0.000000    0.000000    0.000000    0.000000 -100.208113   33.051258   -5.647236  -57.177486
  0.051062124    0.000000    0.000000    0.000000    0.000000  -99.657322   35.378048   -5.665413  -58.808586
  0.051262525    0.000000    0.000000    0.000000    0.000000 -100.542013   36.341198   -5.686490  -60.460972
  0.051462926    0.000000    0.000000    0.000000    0.000000  -98.385141   36.242172   -5.701909  -62.124580
  0.051663327    0.000000    0.000000    0.000000    0.000000  -98.082652   35.252724   -5.719073  -63.741989
  0.051863727    0.000000    0.000000    0.000000    0.000000  -97.465369   30.398775   -5.737052  -65.369156
  0.052064128    0.000000    0.000000    0.000000    0.000000  -98.379092   35.527332   -5.748259  -66.992905
  0.052264529    0.000000    0.000000    0.000000    0.000000  -98.142005   32.607399   -5.758934  -68.584000
  0.052464930    0.000000    0.000000    0.000000    0.000000  -99.235983   44.757938   -5.774956  -70.174446
  0.052665331    0.000000    0.000000    0.000000    0.000000  -99.343454   17.829248   -5.785605  -71.734024
  0.052865731    0.000000    0.000000    0.000000    0.000000  -97.869935   33.195644   -5.800533  -73.277840
