! Anritsu VNA Master:                     Model: MS2036C/10/77
! SN:                                  1601066
! /bd0/18may8/255.ew.m2.s2p
! Existing Calibration Information:
! TYPE:                         Current Settings,       Active Cal Settings
! TIME:             	   05/08/2018 10:03:02 AM,    05/08/2018 09:57:41 AM
! INTERNAL TEMP:    	                   46.8 C,                    46.8 C
! # POINTS:         	                      500,                       500
! START FREQ:       	               20.000 MHz,                20.000 MHz
! STOP FREQ:        	              120.000 MHz,               120.000 MHz
! SOURCE POWER:     	                     High,                      High
! IFBW:             	                    50 Hz,                     50 Hz
! AVG FACTOR:       	                       1 ,                        1 
! REF PLANE 1:      	                     0 mm,                      0 mm
! REF PLANE 2:      	                     0 mm,                      0 mm
! CAL TYPE:         	                 Full S11,                  Full S11
! CAL METHOD:       	                     SOLT,                      SOLT
! CAL LINE TYPE:    	                     Coax,                      Coax
! DUT PORT 1:       	                K-Conn(F),                 K-Conn(F)
! DUT PORT 2:       	                K-Conn(F),                 K-Conn(F)
! CAL STATUS:       	        OK: Accuracy High,                        --
# GHZ S DB R 50.0
! FREQ.GHZ       S11DB        S11A       S21DB        S21A       S12DB        S12A       S22DB        S22A
  0.020000000   -0.895504 -124.302925  -90.764430   32.125011    0.000000    0.000000    0.000000    0.000000
  0.020200401   -0.900372 -125.734810  -90.635534   30.270931    0.000000    0.000000    0.000000    0.000000
  0.020400802   -0.908147 -127.144432  -92.177014   26.533609    0.000000    0.000000    0.000000    0.000000
  0.020601202   -0.913689 -128.577515  -92.101445   29.348715    0.000000    0.000000    0.000000    0.000000
  0.020801603   -0.925095 -130.048370  -92.075835   30.734049    0.000000    0.000000    0.000000    0.000000
  0.021002004   -0.937772 -131.536575  -92.096772   27.197487    0.000000    0.000000    0.000000    0.000000
  0.021202405   -0.948930 -133.027954  -92.100278   29.839815    0.000000    0.000000    0.000000    0.000000
  0.021402806   -0.960817 -134.522568  -92.756596   35.831802    0.000000    0.000000    0.000000    0.000000
  0.021603206   -0.970322 -136.011749  -92.715590   33.728951    0.000000    0.000000    0.000000    0.000000
  0.021803607   -0.981215 -137.517227  -93.176947   33.817711    0.000000    0.000000    0.000000    0.000000
  0.022004008   -0.992811 -139.008453  -93.472363   36.329151    0.000000    0.000000    0.000000    0.000000
  0.022204409   -1.006447 -140.513565  -92.964099   35.805939    0.000000    0.000000    0.000000    0.000000
  0.022404810   -1.016442 -142.038498  -93.575036   33.026825    0.000000    0.000000    0.000000    0.000000
  0.022605210   -1.024919 -143.589981  -92.403171   34.628014    0.000000    0.000000    0.000000    0.000000
  0.022805611   -1.035509 -145.140289  -93.167598   36.306988    0.000000    0.000000    0.000000    0.000000
  0.023006012   -1.045449 -146.681702  -92.904135   32.571659    0.000000    0.000000    0.000000    0.000000
  0.023206413   -1.055110 -148.211899  -92.010805   33.624443    0.000000    0.000000    0.000000    0.000000
  0.023406814   -1.061239 -149.744583  -92.947271   33.500706    0.000000    0.000000    0.000000    0.000000
  0.023607214   -1.069426 -151.283173  -92.503082   30.733496    0.000000    0.000000    0.000000    0.000000
  0.023807615   -1.081609 -152.827515  -93.175278   32.717510    0.000000    0.000000    0.000000    0.000000
  0.024008016   -1.094913 -154.397598  -92.315190   31.816362    0.000000    0.000000    0.000000    0.000000
  0.024208417   -1.107784 -155.984589  -93.124074   30.937532    0.000000    0.000000    0.000000    0.000000
  0.024408818   -1.121706 -157.575836  -92.317104   23.281857    0.000000    0.000000    0.000000    0.000000
  0.024609218   -1.134019 -159.167358  -93.558746   24.257973    0.000000    0.000000    0.000000    0.000000
  0.024809619   -1.147101 -160.786057  -92.880658   21.314096    0.000000    0.000000    0.000000    0.000000
  0.025010020   -1.160702 -162.375961  -93.389987   17.463707    0.000000    0.000000    0.000000    0.000000
  0.025210421   -1.175578 -163.993042  -94.314210   17.673267    0.000000    0.000000    0.000000    0.000000
  0.025410822   -1.194799 -165.622238  -94.640409   23.226360    0.000000    0.000000    0.000000    0.000000
  0.025611222   -1.212506 -167.292618  -94.595667   22.986256    0.000000    0.000000    0.000000    0.000000
  0.025811623   -1.228414 -168.960190  -94.359901   17.531719    0.000000    0.000000    0.000000    0.000000
  0.026012024   -1.242767 -170.646652  -94.878281   24.257629    0.000000    0.000000    0.000000    0.000000
  0.026212425   -1.256856 -172.337128  -95.545681   14.774880    0.000000    0.000000    0.000000    0.000000
  0.026412826   -1.273112 -174.021027  -95.263884   23.222698    0.000000    0.000000    0.000000    0.000000
  0.026613226   -1.292332 -175.724503  -95.407641   16.929468    0.000000    0.000000    0.000000    0.000000
  0.026813627   -1.311864 -177.442337  -95.533292   22.009636    0.000000    0.000000    0.000000    0.000000
  0.027014028   -1.331505 -179.163437  -96.253062   24.212084    0.000000    0.000000    0.000000    0.000000
  0.027214429   -1.352720  179.095337  -95.996602   20.908476    0.000000    0.000000    0.000000    0.000000
  0.027414830   -1.372970  177.340027  -95.563684   16.072338    0.000000    0.000000    0.000000    0.000000
  0.027615230   -1.394765  175.573669  -96.320900   22.126608    0.000000    0.000000    0.000000    0.000000
  0.027815631   -1.420349  173.802704  -96.385111   25.712639    0.000000    0.000000    0.000000    0.000000
  0.028016032   -1.444271  172.010330  -96.819199   22.297081    0.000000    0.000000    0.000000    0.000000
  0.028216433   -1.472036  170.214355  -97.237848   31.099060    0.000000    0.000000    0.000000    0.000000
  0.028416834   -1.498280  168.402328  -96.340335   20.114643    0.000000    0.000000    0.000000    0.000000
  0.028617234   -1.522089  166.614136  -95.450470   24.655235    0.000000    0.000000    0.000000    0.000000
  0.028817635   -1.546977  164.817856  -96.207623   21.695354    0.000000    0.000000    0.000000    0.000000
  0.029018036   -1.571682  163.020416  -95.578441   19.398972    0.000000    0.000000    0.000000    0.000000
  0.029218437   -1.598255  161.231277  -95.839997   20.551144    0.000000    0.000000    0.000000    0.000000
  0.029418838   -1.626095  159.436783  -95.865871   21.728102    0.000000    0.000000    0.000000    0.000000
  0.029619238   -1.656330  157.609497  -95.951734   19.737806    0.000000    0.000000    0.000000    0.000000
  0.029819639   -1.688249  155.785004  -96.217444   13.922391    0.000000    0.000000    0.000000    0.000000
  0.030020040   -1.722417  153.915344  -96.562839   14.786080    0.000000    0.000000    0.000000    0.000000
  0.030220441   -1.756282  152.039902  -96.298425   14.296499    0.000000    0.000000    0.000000    0.000000
  0.030420842   -1.789095  150.155777  -95.980552   14.857287    0.000000    0.000000    0.000000    0.000000
  0.030621242   -1.823693  148.280045  -96.223024   13.961901    0.000000    0.000000    0.000000    0.000000
  0.030821643   -1.858853  146.411682  -97.097898   14.190041    0.000000    0.000000    0.000000    0.000000
  0.031022044   -1.896120  144.525864  -96.659526   11.454042    0.000000    0.000000    0.000000    0.000000
  0.031222445   -1.929820  142.640396  -96.920982    8.793893    0.000000    0.000000    0.000000    0.000000
  0.031422846   -1.969718  140.677094  -96.341496   13.527001    0.000000    0.000000    0.000000    0.000000
  0.031623246   -2.011008  138.726425  -95.944050    9.266261    0.000000    0.000000    0.000000    0.000000
  0.031823647   -2.047835  136.762054  -97.518858    7.987529    0.000000    0.000000    0.000000    0.000000
  0.032024048   -2.082719  134.805771  -98.190342    6.630352    0.000000    0.000000    0.000000    0.000000
  0.032224449   -2.118969  132.841217  -99.172253    8.867137    0.000000    0.000000    0.000000    0.000000
  0.032424850   -2.156345  130.879059  -99.555068   -3.451616    0.000000    0.000000    0.000000    0.000000
  0.032625251   -2.192740  128.913635  -98.107250    0.545294    0.000000    0.000000    0.000000    0.000000
  0.032825651   -2.232720  126.956718  -99.058494    2.849158    0.000000    0.000000    0.000000    0.000000
  0.033026052   -2.275860  124.994049 -100.452289   14.419906    0.000000    0.000000    0.000000    0.000000
  0.033226453   -2.321596  123.029709  -99.605474   16.031845    0.000000    0.000000    0.000000    0.000000
  0.033426854   -2.369497  121.066330  -97.848541   15.566515    0.000000    0.000000    0.000000    0.000000
  0.033627255   -2.423470  119.076546  -97.915872   22.626328    0.000000    0.000000    0.000000    0.000000
  0.033827655   -2.478073  117.048553  -98.264639    4.405104    0.000000    0.000000    0.000000    0.000000
  0.034028056   -2.528591  114.984489  -97.363324   11.441611    0.000000    0.000000    0.000000    0.000000
  0.034228457   -2.581228  112.883278  -97.448873   19.463322    0.000000    0.000000    0.000000    0.000000
  0.034428858   -2.627583  110.767586  -97.574961   15.042496    0.000000    0.000000    0.000000    0.000000
  0.034629259   -2.676520  108.652016  -97.354510   14.451482    0.000000    0.000000    0.000000    0.000000
  0.034829659   -2.718780  106.539978  -99.332090   13.989303    0.000000    0.000000    0.000000    0.000000
  0.035030060   -2.764898  104.436646  -98.626516   11.853297    0.000000    0.000000    0.000000    0.000000
  0.035230461   -2.807975  102.358002  -98.428879    5.944630    0.000000    0.000000    0.000000    0.000000
  0.035430862   -2.850515  100.265022  -98.123836   14.641638    0.000000    0.000000    0.000000    0.000000
  0.035631263   -2.890620   98.194740  -98.336557    1.739529    0.000000    0.000000    0.000000    0.000000
  0.035831663   -2.935406   96.127068  -99.674045    5.330476    0.000000    0.000000    0.000000    0.000000
  0.036032064   -2.975499   94.078056  -98.611992   -0.562499    0.000000    0.000000    0.000000    0.000000
  0.036232465   -3.019373   92.023529  -98.570001    9.125721    0.000000    0.000000    0.000000    0.000000
  0.036432866   -3.062512   90.018150 -100.206390    2.569101    0.000000    0.000000    0.000000    0.000000
  0.036633267   -3.109772   87.985413  -99.402827   -2.173558    0.000000    0.000000    0.000000    0.000000
  0.036833667   -3.157602   85.951019  -98.940941    5.362165    0.000000    0.000000    0.000000    0.000000
  0.037034068   -3.203637   83.881470  -99.382675    4.055630    0.000000    0.000000    0.000000    0.000000
  0.037234469   -3.250873   81.788315  -98.290273    9.932433    0.000000    0.000000    0.000000    0.000000
  0.037434870   -3.295609   79.627380 -100.013182   10.952265    0.000000    0.000000    0.000000    0.000000
  0.037635271   -3.336638   77.378250  -98.288037    8.147415    0.000000    0.000000    0.000000    0.000000
  0.037835671   -3.387794   75.031647 -100.816431   11.690058    0.000000    0.000000    0.000000    0.000000
  0.038036072   -3.451134   72.629448 -101.757352   14.438334    0.000000    0.000000    0.000000    0.000000
  0.038236473   -3.531159   70.267624 -101.849333    5.969069    0.000000    0.000000    0.000000    0.000000
  0.038436874   -3.612918   68.003967 -102.409828   15.126598    0.000000    0.000000    0.000000    0.000000
  0.038637275   -3.688918   65.825645 -100.324856   13.583960    0.000000    0.000000    0.000000    0.000000
  0.038837675   -3.754186   63.719463 -100.357348    1.253451    0.000000    0.000000    0.000000    0.000000
  0.039038076   -3.812598   61.666836 -100.243151    1.030985    0.000000    0.000000    0.000000    0.000000
  0.039238477   -3.867006   59.630386 -100.111935   21.408802    0.000000    0.000000    0.000000    0.000000
  0.039438878   -3.922808   57.613197 -100.883713    5.937904    0.000000    0.000000    0.000000    0.000000
  0.039639279   -3.976029   55.582024 -100.423661   11.126493    0.000000    0.000000    0.000000    0.000000
  0.039839679   -4.036679   53.522377  -97.939013   13.555358    0.000000    0.000000    0.000000    0.000000
  0.040040080   -4.098302   51.465721 -100.426448   10.581997    0.000000    0.000000    0.000000    0.000000
  0.040240481   -4.156131   49.398525  -99.752690   13.982894    0.000000    0.000000    0.000000    0.000000
  0.040440882   -4.214071   47.270611  -99.121362   10.772898    0.000000    0.000000    0.000000    0.000000
  0.040641283   -4.272148   45.171070 -100.993874   17.328222    0.000000    0.000000    0.000000    0.000000
  0.040841683   -4.329337   43.061489  -99.913632    4.759768    0.000000    0.000000    0.000000    0.000000
  0.041042084   -4.382128   40.947483 -100.023370    5.587202    0.000000    0.000000    0.000000    0.000000
  0.041242485   -4.436831   38.835728 -101.012705    7.271901    0.000000    0.000000    0.000000    0.000000
  0.041442886   -4.490714   36.712414  -99.344363    3.554762    0.000000    0.000000    0.000000    0.000000
  0.041643287   -4.536815   34.601944 -100.697691    7.196020    0.000000    0.000000    0.000000    0.000000
  0.041843687   -4.586496   32.466057 -100.544579    5.365376    0.000000    0.000000    0.000000    0.000000
  0.042044088   -4.632925   30.386139 -101.733102   -0.790848    0.000000    0.000000    0.000000    0.000000
  0.042244489   -4.674919   28.297070 -100.162238   -6.054112    0.000000    0.000000    0.000000    0.000000
  0.042444890   -4.724829   26.238907 -102.244030    0.463033    0.000000    0.000000    0.000000    0.000000
  0.042645291   -4.767294   24.184126 -101.872276    3.823304    0.000000    0.000000    0.000000    0.000000
  0.042845691   -4.813943   22.129257 -102.724436    5.661623    0.000000    0.000000    0.000000    0.000000
  0.043046092   -4.855898   20.093817 -101.911313    6.701749    0.000000    0.000000    0.000000    0.000000
  0.043246493   -4.900892   18.052311 -102.688824    7.107262    0.000000    0.000000    0.000000    0.000000
  0.043446894   -4.941637   16.028820 -102.541241   -0.984286    0.000000    0.000000    0.000000    0.000000
  0.043647295   -4.983999   13.983384 -102.690705    9.581141    0.000000    0.000000    0.000000    0.000000
  0.043847695   -5.027049   11.954468  -99.843715    0.600140    0.000000    0.000000    0.000000    0.000000
  0.044048096   -5.069432    9.952501 -104.229722    2.585772    0.000000    0.000000    0.000000    0.000000
  0.044248497   -5.111942    7.941125 -103.763589   14.679067    0.000000    0.000000    0.000000    0.000000
  0.044448898   -5.154428    5.946624 -102.324809   -8.104856    0.000000    0.000000    0.000000    0.000000
  0.044649299   -5.195744    3.948770 -103.742112    5.345439    0.000000    0.000000    0.000000    0.000000
  0.044849699   -5.231548    1.963567 -100.980632    8.887043    0.000000    0.000000    0.000000    0.000000
  0.045050100   -5.264789   -0.026670 -101.369619    8.389254    0.000000    0.000000    0.000000    0.000000
  0.045250501   -5.298320   -2.007204 -102.843916    7.967257    0.000000    0.000000    0.000000    0.000000
  0.045450902   -5.331659   -3.940923 -101.796679   11.886378    0.000000    0.000000    0.000000    0.000000
  0.045651303   -5.365135   -5.902660 -101.212991    7.264050    0.000000    0.000000    0.000000    0.000000
  0.045851703   -5.399803   -7.829202 -102.030563   21.119150    0.000000    0.000000    0.000000    0.000000
  0.046052104   -5.431194   -9.774385 -100.213535   -3.840127    0.000000    0.000000    0.000000    0.000000
  0.046252505   -5.461254  -11.682123 -101.793887    3.103255    0.000000    0.000000    0.000000    0.000000
  0.046452906   -5.493470  -13.591325 -100.464110    3.007577    0.000000    0.000000    0.000000    0.000000
  0.046653307   -5.517294  -15.515318 -100.934921   -7.907290    0.000000    0.000000    0.000000    0.000000
  0.046853707   -5.545382  -17.428789 -101.120864    3.628584    0.000000    0.000000    0.000000    0.000000
  0.047054108   -5.570345  -19.319988 -102.525580   -0.883922    0.000000    0.000000    0.000000    0.000000
  0.047254509   -5.590422  -21.204016 -102.270443    5.786294    0.000000    0.000000    0.000000    0.000000
  0.047454910   -5.614548  -23.077784 -101.757704   -3.083107    0.000000    0.000000    0.000000    0.000000
  0.047655311   -5.636236  -24.921535 -102.585281    2.706835    0.000000    0.000000    0.000000    0.000000
  0.047855711   -5.659610  -26.734312 -102.618309    8.284393    0.000000    0.000000    0.000000    0.000000
  0.048056112   -5.679346  -28.546101 -102.274115   -5.521214    0.000000    0.000000    0.000000    0.000000
  0.048256513   -5.699722  -30.337187 -102.856308   -8.402497    0.000000    0.000000    0.000000    0.000000
  0.048456914   -5.721743  -32.139172 -101.926167   -8.735569    0.000000    0.000000    0.000000    0.000000
  0.048657315   -5.740960  -33.919403 -102.045850    4.943569    0.000000    0.000000    0.000000    0.000000
  0.048857715   -5.756831  -35.715492 -105.988178   -7.146441    0.000000    0.000000    0.000000    0.000000
  0.049058116   -5.775280  -37.489185 -103.479011    5.607354    0.000000    0.000000    0.000000    0.000000
  0.049258517   -5.786694  -39.259857 -104.839948    4.172821    0.000000    0.000000    0.000000    0.000000
  0.049458918   -5.805786  -40.982040 -104.715543   16.080692    0.000000    0.000000    0.000000    0.000000
  0.049659319   -5.822434  -42.720158 -102.701364   19.753839    0.000000    0.000000    0.000000    0.000000
  0.049859719   -5.838629  -44.435184 -102.890015   -0.319418    0.000000    0.000000    0.000000    0.000000
  0.050060120   -5.852986  -46.166763 -101.859853   -4.549661    0.000000    0.000000    0.000000    0.000000
  0.050260521   -5.862831  -47.871128 -104.661225   13.796940    0.000000    0.000000    0.000000    0.000000
  0.050460922   -5.877785  -49.604771 -101.576447   -4.229483    0.000000    0.000000    0.000000    0.000000
  0.050661323   -5.883562  -51.292873 -103.646256    8.174562    0.000000    0.000000    0.000000    0.000000
  0.050861723   -5.889678  -52.971077 -102.712557    3.709193    0.000000    0.000000    0.000000    0.000000
  0.051062124   -5.897733  -54.629635 -100.564227    2.201729    0.000000    0.000000    0.000000    0.000000
  0.051262525   -5.902754  -56.238258 -103.343976   20.728380    0.000000    0.000000    0.000000    0.000000
  0.051462926   -5.910524  -57.850021 -103.481761   -4.674531    0.000000    0.000000    0.000000    0.000000
  0.051663327   -5.915329  -59.427647 -102.521647    1.002912    0.000000    0.000000    0.000000    0.000000
  0.051863727   -5.922694  -61.003963 -100.590586   12.152530    0.000000    0.000000    0.000000    0.000000
  0.052064128   -5.934817  -62.564163 -101.827788   16.530981    0.000000    0.000000    0.000000    0.000000
  0.052264529   -5.942692  -64.139717 -103.735640    6.687859    0.000000    0.000000    0.000000    0.000000
  0.052464930   -5.951659  -65.696983 -100.683116    0.732216    0.000000    0.000000    0.000000    0.000000
  0.052665331   -5.961835  -67.268639 -102.432114    6.068439    0.000000    0.000000    0.000000    0.000000
  0.052865731   -5.973816  -68.824425 -101.980613   -6.762255    0.000000    0.000000    0.000000    0.000000
