! Anritsu VNA Master:                     Model: MS2036C/10/77
! SN:                                  1601066
! /bd0/18may8/255.ew.m10.s2p
! Existing Calibration Information:
! TYPE:                         Current Settings,       Active Cal Settings
! TIME:             	   05/08/2018 10:32:36 AM,    05/08/2018 10:22:10 AM
! INTERNAL TEMP:    	                   48.0 C,                    47.5 C
! # POINTS:         	                      500,                       500
! START FREQ:       	               20.000 MHz,                20.000 MHz
! STOP FREQ:        	              120.000 MHz,               120.000 MHz
! SOURCE POWER:     	                     High,                      High
! IFBW:             	                    50 Hz,                     50 Hz
! AVG FACTOR:       	                       1 ,                        1 
! REF PLANE 1:      	                     0 mm,                      0 mm
! REF PLANE 2:      	                     0 mm,                      0 mm
! CAL TYPE:         	                 Full S11,                  Full S11
! CAL METHOD:       	                     SOLT,                      SOLT
! CAL LINE TYPE:    	                     Coax,                      Coax
! DUT PORT 1:       	                K-Conn(F),                 K-Conn(F)
! DUT PORT 2:       	                K-Conn(F),                 K-Conn(F)
! CAL STATUS:       	        OK: Accuracy High,                        --
# GHZ S DB R 50.0
! FREQ.GHZ       S11DB        S11A       S21DB        S21A       S12DB        S12A       S22DB        S22A
  0.020000000   -0.947017 -124.292725  -91.181283   34.689690    0.000000    0.000000    0.000000    0.000000
  0.020200401   -0.953931 -125.712723  -91.191038   29.128742    0.000000    0.000000    0.000000    0.000000
  0.020400802   -0.960145 -127.138344  -91.724096   32.010490    0.000000    0.000000    0.000000    0.000000
  0.020601202   -0.968968 -128.566284  -91.390947   28.349150    0.000000    0.000000    0.000000    0.000000
  0.020801603   -0.981988 -130.024261  -92.346042   28.680668    0.000000    0.000000    0.000000    0.000000
  0.021002004   -0.994810 -131.520782  -92.605235   26.806213    0.000000    0.000000    0.000000    0.000000
  0.021202405   -1.010558 -133.003754  -93.268199   32.091869    0.000000    0.000000    0.000000    0.000000
  0.021402806   -1.019676 -134.509430  -93.096432   31.220461    0.000000    0.000000    0.000000    0.000000
  0.021603206   -1.032616 -135.999496  -92.528410   32.066818    0.000000    0.000000    0.000000    0.000000
  0.021803607   -1.043113 -137.490280  -93.237174   37.932335    0.000000    0.000000    0.000000    0.000000
  0.022004008   -1.055669 -138.996109  -93.033227   34.154869    0.000000    0.000000    0.000000    0.000000
  0.022204409   -1.066895 -140.512421  -92.991869   41.619228    0.000000    0.000000    0.000000    0.000000
  0.022404810   -1.079810 -142.034515  -93.460433   37.592075    0.000000    0.000000    0.000000    0.000000
  0.022605210   -1.090070 -143.571991  -92.568228   34.360893    0.000000    0.000000    0.000000    0.000000
  0.022805611   -1.102175 -145.131744  -92.425052   37.339207    0.000000    0.000000    0.000000    0.000000
  0.023006012   -1.111910 -146.676865  -92.976038   35.702671    0.000000    0.000000    0.000000    0.000000
  0.023206413   -1.120597 -148.211823  -94.200020   32.042011    0.000000    0.000000    0.000000    0.000000
  0.023406814   -1.128013 -149.746552  -92.606096   32.269180    0.000000    0.000000    0.000000    0.000000
  0.023607214   -1.136363 -151.284348  -92.814530   36.388737    0.000000    0.000000    0.000000    0.000000
  0.023807615   -1.147585 -152.839645  -92.256329   28.301710    0.000000    0.000000    0.000000    0.000000
  0.024008016   -1.162484 -154.404343  -92.616086   31.346201    0.000000    0.000000    0.000000    0.000000
  0.024208417   -1.176492 -155.994324  -93.049606   26.426575    0.000000    0.000000    0.000000    0.000000
  0.024408818   -1.188760 -157.594894  -93.171395   26.381098    0.000000    0.000000    0.000000    0.000000
  0.024609218   -1.204193 -159.194229  -93.122325   21.049072    0.000000    0.000000    0.000000    0.000000
  0.024809619   -1.217519 -160.792160  -93.507818   21.454672    0.000000    0.000000    0.000000    0.000000
  0.025010020   -1.231552 -162.406326  -93.631526   20.699120    0.000000    0.000000    0.000000    0.000000
  0.025210421   -1.246637 -164.018570  -93.828898   19.477587    0.000000    0.000000    0.000000    0.000000
  0.025410822   -1.265212 -165.660934  -94.323185   17.418804    0.000000    0.000000    0.000000    0.000000
  0.025611222   -1.283618 -167.310043  -94.804740   15.224401    0.000000    0.000000    0.000000    0.000000
  0.025811623   -1.299659 -168.979782  -95.005400   13.468302    0.000000    0.000000    0.000000    0.000000
  0.026012024   -1.315072 -170.675049  -94.931627   15.151235    0.000000    0.000000    0.000000    0.000000
  0.026212425   -1.330400 -172.351349  -95.501685   17.102060    0.000000    0.000000    0.000000    0.000000
  0.026412826   -1.346407 -174.044708  -95.370986   14.203169    0.000000    0.000000    0.000000    0.000000
  0.026613226   -1.363921 -175.753067  -95.909625   18.578949    0.000000    0.000000    0.000000    0.000000
  0.026813627   -1.385048 -177.464798  -94.627585   16.066759    0.000000    0.000000    0.000000    0.000000
  0.027014028   -1.406128 -179.181870  -95.393614   22.330830    0.000000    0.000000    0.000000    0.000000
  0.027214429   -1.426746  179.076614  -95.559638   22.414532    0.000000    0.000000    0.000000    0.000000
  0.027414830   -1.449706  177.329269  -96.638074   23.649660    0.000000    0.000000    0.000000    0.000000
  0.027615230   -1.470948  175.564728  -95.733182   22.357407    0.000000    0.000000    0.000000    0.000000
  0.027815631   -1.495572  173.794785  -96.152787   19.753729    0.000000    0.000000    0.000000    0.000000
  0.028016032   -1.521070  171.999496  -95.865498   26.092638    0.000000    0.000000    0.000000    0.000000
  0.028216433   -1.549664  170.213974  -96.501260   24.241890    0.000000    0.000000    0.000000    0.000000
  0.028416834   -1.574769  168.407700  -96.216517   29.750460    0.000000    0.000000    0.000000    0.000000
  0.028617234   -1.601458  166.611633  -96.076882   21.165905    0.000000    0.000000    0.000000    0.000000
  0.028817635   -1.626844  164.813217  -95.647544   22.553343    0.000000    0.000000    0.000000    0.000000
  0.029018036   -1.651825  163.028519  -96.468032   21.065567    0.000000    0.000000    0.000000    0.000000
  0.029218437   -1.677795  161.227234  -96.300023   19.953758    0.000000    0.000000    0.000000    0.000000
  0.029418838   -1.706465  159.429260  -95.734729   19.457607    0.000000    0.000000    0.000000    0.000000
  0.029619238   -1.737988  157.611801  -94.950753   20.710819    0.000000    0.000000    0.000000    0.000000
  0.029819639   -1.770459  155.776199  -95.501346   16.556532    0.000000    0.000000    0.000000    0.000000
  0.030020040   -1.804572  153.918747  -95.834744   16.716640    0.000000    0.000000    0.000000    0.000000
  0.030220441   -1.837358  152.040482  -96.734125   20.061964    0.000000    0.000000    0.000000    0.000000
  0.030420842   -1.870926  150.143845  -96.470006   10.568916    0.000000    0.000000    0.000000    0.000000
  0.030621242   -1.905620  148.270309  -96.262500   16.556131    0.000000    0.000000    0.000000    0.000000
  0.030821643   -1.941940  146.383026  -96.740298    7.742759    0.000000    0.000000    0.000000    0.000000
  0.031022044   -1.977656  144.488144  -96.599235    5.927426    0.000000    0.000000    0.000000    0.000000
  0.031222445   -2.009536  142.600754  -96.790122    5.345967    0.000000    0.000000    0.000000    0.000000
  0.031422846   -2.052907  140.652451  -97.725500    9.236361    0.000000    0.000000    0.000000    0.000000
  0.031623246   -2.091633  138.692947  -96.549567   11.508726    0.000000    0.000000    0.000000    0.000000
  0.031823647   -2.128908  136.715668  -97.407136    4.854537    0.000000    0.000000    0.000000    0.000000
  0.032024048   -2.167406  134.739960  -97.231606   15.010606    0.000000    0.000000    0.000000    0.000000
  0.032224449   -2.202684  132.760834  -97.268267   11.323019    0.000000    0.000000    0.000000    0.000000
  0.032424850   -2.238862  130.787415  -97.573815    8.153849    0.000000    0.000000    0.000000    0.000000
  0.032625251   -2.273431  128.833862  -97.198578    8.184069    0.000000    0.000000    0.000000    0.000000
  0.032825651   -2.310749  126.860794  -98.305559    6.035897    0.000000    0.000000    0.000000    0.000000
  0.033026052   -2.352821  124.893875  -97.239978   20.319462    0.000000    0.000000    0.000000    0.000000
  0.033226453   -2.399792  122.926559  -98.587898    5.674687    0.000000    0.000000    0.000000    0.000000
  0.033426854   -2.446612  120.973579  -98.524664    6.728320    0.000000    0.000000    0.000000    0.000000
  0.033627255   -2.498271  118.975693  -98.175333   16.355625    0.000000    0.000000    0.000000    0.000000
  0.033827655   -2.548839  116.938873  -97.483915   15.736340    0.000000    0.000000    0.000000    0.000000
  0.034028056   -2.601053  114.880447  -98.263333   13.535219    0.000000    0.000000    0.000000    0.000000
  0.034228457   -2.651863  112.779587  -96.852678   25.373199    0.000000    0.000000    0.000000    0.000000
  0.034428858   -2.699663  110.679855  -98.286713    8.694628    0.000000    0.000000    0.000000    0.000000
  0.034629259   -2.747594  108.556465  -97.631815    7.900583    0.000000    0.000000    0.000000    0.000000
  0.034829659   -2.792463  106.462540  -97.673768    6.958646    0.000000    0.000000    0.000000    0.000000
  0.035030060   -2.834517  104.342918  -98.311362    3.277053    0.000000    0.000000    0.000000    0.000000
  0.035230461   -2.877523  102.241722  -99.146421    7.912141    0.000000    0.000000    0.000000    0.000000
  0.035430862   -2.917154  100.166298  -98.787976    4.163480    0.000000    0.000000    0.000000    0.000000
  0.035631263   -2.957961   98.100296  -98.569569    1.273195    0.000000    0.000000    0.000000    0.000000
  0.035831663   -3.000518   96.045929  -97.703278    6.295259    0.000000    0.000000    0.000000    0.000000
  0.036032064   -3.039132   94.010269  -98.920892   -1.237344    0.000000    0.000000    0.000000    0.000000
  0.036232465   -3.083708   91.956894  -98.821001   11.759842    0.000000    0.000000    0.000000    0.000000
  0.036432866   -3.130106   89.933968  -98.588668    6.136717    0.000000    0.000000    0.000000    0.000000
  0.036633267   -3.172517   87.912727  -99.216759    1.329677    0.000000    0.000000    0.000000    0.000000
  0.036833667   -3.220158   85.879456 -100.052832   11.455476    0.000000    0.000000    0.000000    0.000000
  0.037034068   -3.264818   83.810051  -97.912931   -1.220972    0.000000    0.000000    0.000000    0.000000
  0.037234469   -3.312610   81.703819  -98.835008    3.646560    0.000000    0.000000    0.000000    0.000000
  0.037434870   -3.354258   79.546371  -99.290740   -0.447785    0.000000    0.000000    0.000000    0.000000
  0.037635271   -3.395619   77.296898  -98.506687    3.470269    0.000000    0.000000    0.000000    0.000000
  0.037835671   -3.444251   74.938431  -99.032612    8.386704    0.000000    0.000000    0.000000    0.000000
  0.038036072   -3.509792   72.543228  -99.498231   14.062160    0.000000    0.000000    0.000000    0.000000
  0.038236473   -3.588912   70.181389 -100.566393    6.330271    0.000000    0.000000    0.000000    0.000000
  0.038436874   -3.669783   67.873756 -100.774697    5.758961    0.000000    0.000000    0.000000    0.000000
  0.038637275   -3.744685   65.697044  -98.921327    4.459249    0.000000    0.000000    0.000000    0.000000
  0.038837675   -3.808572   63.594090 -100.701064   14.385439    0.000000    0.000000    0.000000    0.000000
  0.039038076   -3.864024   61.506004 -100.237684   12.382040    0.000000    0.000000    0.000000    0.000000
  0.039238477   -3.917593   59.461441 -101.264955   14.725677    0.000000    0.000000    0.000000    0.000000
  0.039438878   -3.970943   57.436359  -99.488142    9.045441    0.000000    0.000000    0.000000    0.000000
  0.039639279   -4.023719   55.406319  -99.584913   11.909510    0.000000    0.000000    0.000000    0.000000
  0.039839679   -4.080749   53.329910  -99.761014   11.653024    0.000000    0.000000    0.000000    0.000000
  0.040040080   -4.137961   51.262859  -99.491813   15.601126    0.000000    0.000000    0.000000    0.000000
  0.040240481   -4.196598   49.194569  -99.742828    4.546137    0.000000    0.000000    0.000000    0.000000
  0.040440882   -4.253195   47.065327  -99.197454    4.558622    0.000000    0.000000    0.000000    0.000000
  0.040641283   -4.307120   44.983833  -99.624687    9.115461    0.000000    0.000000    0.000000    0.000000
  0.040841683   -4.360782   42.865112  -99.231106    7.564616    0.000000    0.000000    0.000000    0.000000
  0.041042084   -4.414565   40.768272  -98.739556   -1.069258    0.000000    0.000000    0.000000    0.000000
  0.041242485   -4.465594   38.666420  -99.564263   10.791774    0.000000    0.000000    0.000000    0.000000
  0.041442886   -4.517169   36.556278 -100.786540    7.505131    0.000000    0.000000    0.000000    0.000000
  0.041643287   -4.564045   34.428165 -101.333786    0.733450    0.000000    0.000000    0.000000    0.000000
  0.041843687   -4.610626   32.318871 -101.455389    6.856052    0.000000    0.000000    0.000000    0.000000
  0.042044088   -4.654596   30.246670 -100.569916   10.019995    0.000000    0.000000    0.000000    0.000000
  0.042244489   -4.696710   28.156635 -102.017002    2.416292    0.000000    0.000000    0.000000    0.000000
  0.042444890   -4.739585   26.098835 -100.863355   13.283869    0.000000    0.000000    0.000000    0.000000
  0.042645291   -4.784898   24.070869 -103.399733    7.785835    0.000000    0.000000    0.000000    0.000000
  0.042845691   -4.827197   22.026539 -102.199265    0.998477    0.000000    0.000000    0.000000    0.000000
  0.043046092   -4.872378   20.000443 -103.118002   -3.345254    0.000000    0.000000    0.000000    0.000000
  0.043246493   -4.914020   17.967892 -101.707723    8.036036    0.000000    0.000000    0.000000    0.000000
  0.043446894   -4.955738   15.955379 -102.871294   14.915468    0.000000    0.000000    0.000000    0.000000
  0.043647295   -4.998323   13.935761 -102.756476    0.730392    0.000000    0.000000    0.000000    0.000000
  0.043847695   -5.040642   11.907655 -102.726094    1.532590    0.000000    0.000000    0.000000    0.000000
  0.044048096   -5.082959    9.914888 -103.260039   12.836579    0.000000    0.000000    0.000000    0.000000
  0.044248497   -5.125338    7.922933 -100.817242   -0.636913    0.000000    0.000000    0.000000    0.000000
  0.044448898   -5.166237    5.930008 -101.377707   11.458705    0.000000    0.000000    0.000000    0.000000
  0.044649299   -5.205264    3.948883  -99.366734   -3.451448    0.000000    0.000000    0.000000    0.000000
  0.044849699   -5.241235    1.966545 -100.542852    3.880605    0.000000    0.000000    0.000000    0.000000
  0.045050100   -5.275242   -0.009041 -101.467192   28.226053    0.000000    0.000000    0.000000    0.000000
  0.045250501   -5.311322   -1.988496 -100.952361   13.074325    0.000000    0.000000    0.000000    0.000000
  0.045450902   -5.342118   -3.933346 -100.276962   13.576962    0.000000    0.000000    0.000000    0.000000
  0.045651303   -5.374771   -5.871912 -101.309163   11.981073    0.000000    0.000000    0.000000    0.000000
  0.045851703   -5.406908   -7.794574 -100.609774    0.110585    0.000000    0.000000    0.000000    0.000000
  0.046052104   -5.440148   -9.720956  -99.402571    1.448244    0.000000    0.000000    0.000000    0.000000
  0.046252505   -5.472013  -11.638806  -99.879725    9.221325    0.000000    0.000000    0.000000    0.000000
  0.046452906   -5.499535  -13.534947 -102.704026   -9.021393    0.000000    0.000000    0.000000    0.000000
  0.046653307   -5.525876  -15.446686 -101.182920   -3.875898    0.000000    0.000000    0.000000    0.000000
  0.046853707   -5.551992  -17.359310 -102.063973   -7.594422    0.000000    0.000000    0.000000    0.000000
  0.047054108   -5.578684  -19.241205 -102.058108    5.207715    0.000000    0.000000    0.000000    0.000000
  0.047254509   -5.599908  -21.117319 -101.542061    2.889475    0.000000    0.000000    0.000000    0.000000
  0.047454910   -5.624479  -22.989708 -102.528877   10.478889    0.000000    0.000000    0.000000    0.000000
  0.047655311   -5.645657  -24.853510 -102.953106    6.125781    0.000000    0.000000    0.000000    0.000000
  0.047855711   -5.663812  -26.651764 -103.204424   -6.999019    0.000000    0.000000    0.000000    0.000000
  0.048056112   -5.685950  -28.450611 -103.319508  -12.035005    0.000000    0.000000    0.000000    0.000000
  0.048256513   -5.707625  -30.277563 -102.930080    0.522300    0.000000    0.000000    0.000000    0.000000
  0.048456914   -5.728634  -32.057331 -105.437386   13.787878    0.000000    0.000000    0.000000    0.000000
  0.048657315   -5.747754  -33.839317 -103.368864  -21.106359    0.000000    0.000000    0.000000    0.000000
  0.048857715   -5.764292  -35.624050 -103.037247    6.763305    0.000000    0.000000    0.000000    0.000000
  0.049058116   -5.781769  -37.413876 -103.225269   10.527800    0.000000    0.000000    0.000000    0.000000
  0.049258517   -5.797576  -39.153332 -102.757022    5.996329    0.000000    0.000000    0.000000    0.000000
  0.049458918   -5.812679  -40.897713 -102.677748   -0.746337    0.000000    0.000000    0.000000    0.000000
  0.049659319   -5.828053  -42.646580 -102.247779   -1.565119    0.000000    0.000000    0.000000    0.000000
  0.049859719   -5.844695  -44.353397 -105.671467    8.431796    0.000000    0.000000    0.000000    0.000000
  0.050060120   -5.859820  -46.065693 -104.132811    7.382621    0.000000    0.000000    0.000000    0.000000
  0.050260521   -5.870755  -47.808926 -104.421090   13.723154    0.000000    0.000000    0.000000    0.000000
  0.050460922   -5.882399  -49.527138 -102.878806    6.694656    0.000000    0.000000    0.000000    0.000000
  0.050661323   -5.889985  -51.222713 -102.999279    6.710625    0.000000    0.000000    0.000000    0.000000
  0.050861723   -5.896040  -52.884460 -103.855502   13.139040    0.000000    0.000000    0.000000    0.000000
  0.051062124   -5.902860  -54.538742 -102.433657   18.322567    0.000000    0.000000    0.000000    0.000000
  0.051262525   -5.905956  -56.163300 -102.826111   -1.137849    0.000000    0.000000    0.000000    0.000000
  0.051462926   -5.912063  -57.749352 -101.679451    3.547389    0.000000    0.000000    0.000000    0.000000
  0.051663327   -5.915015  -59.312168 -100.464480   17.768227    0.000000    0.000000    0.000000    0.000000
  0.051863727   -5.925080  -60.897865 -101.224000   10.250624    0.000000    0.000000    0.000000    0.000000
  0.052064128   -5.931392  -62.453152 -102.540589    3.651409    0.000000    0.000000    0.000000    0.000000
  0.052264529   -5.940701  -63.994576 -102.667406   -3.967281    0.000000    0.000000    0.000000    0.000000
  0.052464930   -5.950640  -65.535652 -103.091263   -3.033001    0.000000    0.000000    0.000000    0.000000
  0.052665331   -5.959581  -67.117615 -100.866785   -4.861122    0.000000    0.000000    0.000000    0.000000
  0.052865731   -5.969603  -68.651215 -103.177513   -7.916489    0.000000    0.000000    0.000000    0.000000
