! Anritsu VNA Master:                     Model: MS2036C/10/77
! SN:                                  1601066
! /bd0/18may8/255.ew.m3.s2p
! Existing Calibration Information:
! TYPE:                         Current Settings,       Active Cal Settings
! TIME:             	   05/08/2018 10:06:28 AM,    05/08/2018 09:57:41 AM
! INTERNAL TEMP:    	                   47.0 C,                    46.8 C
! # POINTS:         	                      500,                       500
! START FREQ:       	               20.000 MHz,                20.000 MHz
! STOP FREQ:        	              120.000 MHz,               120.000 MHz
! SOURCE POWER:     	                     High,                      High
! IFBW:             	                    50 Hz,                     50 Hz
! AVG FACTOR:       	                       1 ,                        1 
! REF PLANE 1:      	                     0 mm,                      0 mm
! REF PLANE 2:      	                     0 mm,                      0 mm
! CAL TYPE:         	                 Full S11,                  Full S11
! CAL METHOD:       	                     SOLT,                      SOLT
! CAL LINE TYPE:    	                     Coax,                      Coax
! DUT PORT 1:       	                K-Conn(F),                 K-Conn(F)
! DUT PORT 2:       	                K-Conn(F),                 K-Conn(F)
! CAL STATUS:       	        OK: Accuracy High,                        --
# GHZ S DB R 50.0
! FREQ.GHZ       S11DB        S11A       S21DB        S21A       S12DB        S12A       S22DB        S22A
  0.020000000   -0.888006 -124.241798  -91.094999   30.862347    0.000000    0.000000    0.000000    0.000000
  0.020200401   -0.892383 -125.663689  -91.070805   25.992994    0.000000    0.000000    0.000000    0.000000
  0.020400802   -0.901882 -127.088593  -91.370415   28.427330    0.000000    0.000000    0.000000    0.000000
  0.020601202   -0.908385 -128.516769  -91.833199   31.955788    0.000000    0.000000    0.000000    0.000000
  0.020801603   -0.917552 -129.988541  -92.090572   27.880339    0.000000    0.000000    0.000000    0.000000
  0.021002004   -0.932381 -131.467392  -92.413801   27.906137    0.000000    0.000000    0.000000    0.000000
  0.021202405   -0.943506 -132.956436  -92.259493   32.608707    0.000000    0.000000    0.000000    0.000000
  0.021402806   -0.955496 -134.462708  -93.213331   28.975374    0.000000    0.000000    0.000000    0.000000
  0.021603206   -0.964805 -135.959808  -93.329576   32.672646    0.000000    0.000000    0.000000    0.000000
  0.021803607   -0.976097 -137.455521  -92.610023   34.643696    0.000000    0.000000    0.000000    0.000000
  0.022004008   -0.986983 -138.957214  -93.066707   36.300228    0.000000    0.000000    0.000000    0.000000
  0.022204409   -1.000444 -140.463516  -92.492104   32.824959    0.000000    0.000000    0.000000    0.000000
  0.022404810   -1.011784 -142.000076  -93.578194   31.731979    0.000000    0.000000    0.000000    0.000000
  0.022605210   -1.022907 -143.546265  -93.354665   35.279335    0.000000    0.000000    0.000000    0.000000
  0.022805611   -1.032061 -145.091339  -92.987631   37.095871    0.000000    0.000000    0.000000    0.000000
  0.023006012   -1.039605 -146.645889  -92.959145   33.815258    0.000000    0.000000    0.000000    0.000000
  0.023206413   -1.048660 -148.164932  -93.425195   33.627972    0.000000    0.000000    0.000000    0.000000
  0.023406814   -1.056013 -149.710281  -92.631542   35.301197    0.000000    0.000000    0.000000    0.000000
  0.023607214   -1.064774 -151.239349  -92.593137   33.497093    0.000000    0.000000    0.000000    0.000000
  0.023807615   -1.076054 -152.785446  -93.190393   25.818783    0.000000    0.000000    0.000000    0.000000
  0.024008016   -1.090927 -154.356430  -92.928690   28.007475    0.000000    0.000000    0.000000    0.000000
  0.024208417   -1.103131 -155.939438  -92.680201   28.868675    0.000000    0.000000    0.000000    0.000000
  0.024408818   -1.116155 -157.528366  -93.135791   22.750374    0.000000    0.000000    0.000000    0.000000
  0.024609218   -1.128897 -159.121765  -93.102256   26.743889    0.000000    0.000000    0.000000    0.000000
  0.024809619   -1.141549 -160.726974  -93.844404   25.840248    0.000000    0.000000    0.000000    0.000000
  0.025010020   -1.157040 -162.320801  -94.060347   21.459257    0.000000    0.000000    0.000000    0.000000
  0.025210421   -1.171569 -163.930695  -94.315368   19.910061    0.000000    0.000000    0.000000    0.000000
  0.025410822   -1.189448 -165.563583  -94.068418   21.607279    0.000000    0.000000    0.000000    0.000000
  0.025611222   -1.207996 -167.217224  -93.696865   17.336866    0.000000    0.000000    0.000000    0.000000
  0.025811623   -1.223662 -168.889343  -94.586775   18.712032    0.000000    0.000000    0.000000    0.000000
  0.026012024   -1.238741 -170.567108  -94.161814   18.846407    0.000000    0.000000    0.000000    0.000000
  0.026212425   -1.253187 -172.257477  -96.233752   15.920854    0.000000    0.000000    0.000000    0.000000
  0.026412826   -1.269320 -173.940643  -94.299985   16.484512    0.000000    0.000000    0.000000    0.000000
  0.026613226   -1.288140 -175.646057  -94.735769   21.074551    0.000000    0.000000    0.000000    0.000000
  0.026813627   -1.308442 -177.359299  -96.005836   17.770369    0.000000    0.000000    0.000000    0.000000
  0.027014028   -1.327900 -179.084671  -95.448261   12.329866    0.000000    0.000000    0.000000    0.000000
  0.027214429   -1.348566  179.174057  -95.941267   15.341138    0.000000    0.000000    0.000000    0.000000
  0.027414830   -1.369310  177.406952  -97.986910   24.680302    0.000000    0.000000    0.000000    0.000000
  0.027615230   -1.391315  175.649796  -96.114493   21.676455    0.000000    0.000000    0.000000    0.000000
  0.027815631   -1.415411  173.871124  -96.886909   22.933058    0.000000    0.000000    0.000000    0.000000
  0.028016032   -1.440940  172.076447  -95.831113   22.717623    0.000000    0.000000    0.000000    0.000000
  0.028216433   -1.469036  170.278290  -96.450823   25.112322    0.000000    0.000000    0.000000    0.000000
  0.028416834   -1.494098  168.470581  -95.685555   20.699429    0.000000    0.000000    0.000000    0.000000
  0.028617234   -1.518840  166.677521  -96.468366   22.717861    0.000000    0.000000    0.000000    0.000000
  0.028817635   -1.544110  164.883194  -95.489603   23.064314    0.000000    0.000000    0.000000    0.000000
  0.029018036   -1.568936  163.088150  -95.822416   19.292570    0.000000    0.000000    0.000000    0.000000
  0.029218437   -1.595037  161.285736  -96.409376   21.330271    0.000000    0.000000    0.000000    0.000000
  0.029418838   -1.623021  159.494904  -95.931428   19.143055    0.000000    0.000000    0.000000    0.000000
  0.029619238   -1.653663  157.681335  -95.426433   14.920408    0.000000    0.000000    0.000000    0.000000
  0.029819639   -1.686608  155.848373  -96.383159   22.716423    0.000000    0.000000    0.000000    0.000000
  0.030020040   -1.720748  153.989395  -96.756325   18.511740    0.000000    0.000000    0.000000    0.000000
  0.030220441   -1.753319  152.112473  -96.128233   11.973568    0.000000    0.000000    0.000000    0.000000
  0.030420842   -1.785727  150.221649  -96.934299   12.394609    0.000000    0.000000    0.000000    0.000000
  0.030621242   -1.819746  148.354660  -96.534553    9.903078    0.000000    0.000000    0.000000    0.000000
  0.030821643   -1.856428  146.484344  -96.622892   14.514909    0.000000    0.000000    0.000000    0.000000
  0.031022044   -1.893450  144.605209  -97.695242    8.285910    0.000000    0.000000    0.000000    0.000000
  0.031222445   -1.926855  142.725204  -96.986937   12.576543    0.000000    0.000000    0.000000    0.000000
  0.031422846   -1.967455  140.772476  -96.509929    9.271909    0.000000    0.000000    0.000000    0.000000
  0.031623246   -2.008370  138.826447  -97.575766   13.930408    0.000000    0.000000    0.000000    0.000000
  0.031823647   -2.044989  136.862518  -97.255569   -0.956875    0.000000    0.000000    0.000000    0.000000
  0.032024048   -2.081010  134.908371  -97.385118    7.281047    0.000000    0.000000    0.000000    0.000000
  0.032224449   -2.116412  132.948196  -96.698801   11.213770    0.000000    0.000000    0.000000    0.000000
  0.032424850   -2.153784  130.985519  -98.521489    6.851075    0.000000    0.000000    0.000000    0.000000
  0.032625251   -2.189745  129.021896  -97.611654   10.846504    0.000000    0.000000    0.000000    0.000000
  0.032825651   -2.229924  127.072594  -97.354332   14.853482    0.000000    0.000000    0.000000    0.000000
  0.033026052   -2.272931  125.109993  -97.816272    7.543526    0.000000    0.000000    0.000000    0.000000
  0.033226453   -2.319400  123.148186  -99.551493   20.578920    0.000000    0.000000    0.000000    0.000000
  0.033426854   -2.368437  121.188278  -98.822415   20.307961    0.000000    0.000000    0.000000    0.000000
  0.033627255   -2.420900  119.194366  -97.916006   12.008814    0.000000    0.000000    0.000000    0.000000
  0.033827655   -2.475809  117.154518  -99.073566    6.899019    0.000000    0.000000    0.000000    0.000000
  0.034028056   -2.526883  115.103661  -99.622392   13.580805    0.000000    0.000000    0.000000    0.000000
  0.034228457   -2.577836  112.998657  -99.145805   13.924049    0.000000    0.000000    0.000000    0.000000
  0.034428858   -2.624725  110.883003  -99.958925   21.328642    0.000000    0.000000    0.000000    0.000000
  0.034629259   -2.674559  108.759987  -98.860005   13.887172    0.000000    0.000000    0.000000    0.000000
  0.034829659   -2.718680  106.648354  -98.991089   14.594319    0.000000    0.000000    0.000000    0.000000
  0.035030060   -2.763407  104.544258  -98.334525    6.468439    0.000000    0.000000    0.000000    0.000000
  0.035230461   -2.806627  102.465790  -97.709205    7.751861    0.000000    0.000000    0.000000    0.000000
  0.035430862   -2.848233  100.384041  -98.463722   10.031735    0.000000    0.000000    0.000000    0.000000
  0.035631263   -2.887943   98.309822  -99.611681    6.839314    0.000000    0.000000    0.000000    0.000000
  0.035831663   -2.932739   96.243858  -99.117050    3.709790    0.000000    0.000000    0.000000    0.000000
  0.036032064   -2.972247   94.195671  -98.067730   11.071058    0.000000    0.000000    0.000000    0.000000
  0.036232465   -3.016241   92.156113  -98.416549    4.928119    0.000000    0.000000    0.000000    0.000000
  0.036432866   -3.060460   90.139908  -99.848255   12.026314    0.000000    0.000000    0.000000    0.000000
  0.036633267   -3.106947   88.122375 -100.266947   10.641305    0.000000    0.000000    0.000000    0.000000
  0.036833667   -3.154703   86.090462  -99.227712    8.837383    0.000000    0.000000    0.000000    0.000000
  0.037034068   -3.202406   84.018669  -99.919323    8.713534    0.000000    0.000000    0.000000    0.000000
  0.037234469   -3.248634   81.931580  -98.847091    0.566261    0.000000    0.000000    0.000000    0.000000
  0.037434870   -3.291678   79.766014 -100.564511    9.424437    0.000000    0.000000    0.000000    0.000000
  0.037635271   -3.337347   77.528648  -99.812147    3.432310    0.000000    0.000000    0.000000    0.000000
  0.037835671   -3.384924   75.187622 -102.648751   -4.905551    0.000000    0.000000    0.000000    0.000000
  0.038036072   -3.448434   72.783264 -100.384408    4.822917    0.000000    0.000000    0.000000    0.000000
  0.038236473   -3.527840   70.440666 -100.743662   -0.354268    0.000000    0.000000    0.000000    0.000000
  0.038436874   -3.612881   68.171158  -99.797699    0.392913    0.000000    0.000000    0.000000    0.000000
  0.038637275   -3.688264   66.001472  -99.873074   11.123597    0.000000    0.000000    0.000000    0.000000
  0.038837675   -3.754937   63.893127 -100.128925    5.633512    0.000000    0.000000    0.000000    0.000000
  0.039038076   -3.813978   61.844547 -100.231810   13.713750    0.000000    0.000000    0.000000    0.000000
  0.039238477   -3.866441   59.810047 -100.389402    9.788430    0.000000    0.000000    0.000000    0.000000
  0.039438878   -3.922566   57.789043 -100.013754    1.099141    0.000000    0.000000    0.000000    0.000000
  0.039639279   -3.975888   55.760189 -100.340826   16.457390    0.000000    0.000000    0.000000    0.000000
  0.039839679   -4.036012   53.708553 -100.762587    9.887486    0.000000    0.000000    0.000000    0.000000
  0.040040080   -4.096281   51.637527 -101.197879   -2.665195    0.000000    0.000000    0.000000    0.000000
  0.040240481   -4.156014   49.558273 -100.743898    7.079725    0.000000    0.000000    0.000000    0.000000
  0.040440882   -4.214969   47.434219 -100.231910    4.316393    0.000000    0.000000    0.000000    0.000000
  0.040641283   -4.272587   45.328243 -100.582303   11.285096    0.000000    0.000000    0.000000    0.000000
  0.040841683   -4.329780   43.223351 -101.018212    3.061211    0.000000    0.000000    0.000000    0.000000
  0.041042084   -4.382180   41.120117 -100.316689    6.496104    0.000000    0.000000    0.000000    0.000000
  0.041242485   -4.436871   39.004578  -99.597005    6.964848    0.000000    0.000000    0.000000    0.000000
  0.041442886   -4.490759   36.873413 -100.019371    2.976805    0.000000    0.000000    0.000000    0.000000
  0.041643287   -4.538780   34.761642  -99.538243   13.558421    0.000000    0.000000    0.000000    0.000000
  0.041843687   -4.587438   32.638885 -100.438867    6.499663    0.000000    0.000000    0.000000    0.000000
  0.042044088   -4.632544   30.565643 -100.414337    7.906186    0.000000    0.000000    0.000000    0.000000
  0.042244489   -4.676954   28.475586 -101.066519    6.402617    0.000000    0.000000    0.000000    0.000000
  0.042444890   -4.724631   26.430897 -100.067456    5.715546    0.000000    0.000000    0.000000    0.000000
  0.042645291   -4.768405   24.374397 -100.181864   -2.145818    0.000000    0.000000    0.000000    0.000000
  0.042845691   -4.813720   22.328182 -100.556011    2.889706    0.000000    0.000000    0.000000    0.000000
  0.043046092   -4.856143   20.291199 -102.522604  -12.702597    0.000000    0.000000    0.000000    0.000000
  0.043246493   -4.900597   18.249691 -101.584143   -0.986913    0.000000    0.000000    0.000000    0.000000
  0.043446894   -4.943393   16.226351 -101.179186   10.751910    0.000000    0.000000    0.000000    0.000000
  0.043647295   -4.985530   14.199635 -102.380704    4.175146    0.000000    0.000000    0.000000    0.000000
  0.043847695   -5.028794   12.177371 -100.769959    4.501146    0.000000    0.000000    0.000000    0.000000
  0.044048096   -5.070891   10.171037 -101.331234    1.950837    0.000000    0.000000    0.000000    0.000000
  0.044248497   -5.114917    8.148185 -102.911877    1.789686    0.000000    0.000000    0.000000    0.000000
  0.044448898   -5.158005    6.148319 -103.533665    9.638257    0.000000    0.000000    0.000000    0.000000
  0.044649299   -5.197827    4.166007 -101.653229   12.776675    0.000000    0.000000    0.000000    0.000000
  0.044849699   -5.235751    2.176027 -102.395385    0.776813    0.000000    0.000000    0.000000    0.000000
  0.045050100   -5.267159    0.196798 -101.097111    6.609690    0.000000    0.000000    0.000000    0.000000
  0.045250501   -5.302772   -1.796626 -101.698893   25.152536    0.000000    0.000000    0.000000    0.000000
  0.045450902   -5.336278   -3.731810 -100.719039   13.003513    0.000000    0.000000    0.000000    0.000000
  0.045651303   -5.370897   -5.684978 -100.501405   11.494486    0.000000    0.000000    0.000000    0.000000
  0.045851703   -5.402437   -7.607197 -100.754851   12.844954    0.000000    0.000000    0.000000    0.000000
  0.046052104   -5.435933   -9.569874 -100.598334    0.703293    0.000000    0.000000    0.000000    0.000000
  0.046252505   -5.467210  -11.484568 -100.045893   13.183700    0.000000    0.000000    0.000000    0.000000
  0.046452906   -5.498058  -13.385151 -100.879585   12.782331    0.000000    0.000000    0.000000    0.000000
  0.046653307   -5.523998  -15.312164 -101.296859   -0.916453    0.000000    0.000000    0.000000    0.000000
  0.046853707   -5.549588  -17.212601 -100.541974    6.988360    0.000000    0.000000    0.000000    0.000000
  0.047054108   -5.575256  -19.101347 -103.555639  -12.009417    0.000000    0.000000    0.000000    0.000000
  0.047254509   -5.599387  -20.994684 -102.183582   -3.257625    0.000000    0.000000    0.000000    0.000000
  0.047454910   -5.619759  -22.857349 -101.712942    2.315537    0.000000    0.000000    0.000000    0.000000
  0.047655311   -5.640259  -24.712599 -101.922742    1.104997    0.000000    0.000000    0.000000    0.000000
  0.047855711   -5.664798  -26.539278 -104.862465  -11.953521    0.000000    0.000000    0.000000    0.000000
  0.048056112   -5.683314  -28.345087 -102.578956  -16.599079    0.000000    0.000000    0.000000    0.000000
  0.048256513   -5.703384  -30.135836 -103.287156   -7.058334    0.000000    0.000000    0.000000    0.000000
  0.048456914   -5.726219  -31.941698 -102.934488  -15.336220    0.000000    0.000000    0.000000    0.000000
  0.048657315   -5.746657  -33.712917 -102.928114   -3.889534    0.000000    0.000000    0.000000    0.000000
  0.048857715   -5.762098  -35.510033 -102.545977   -1.118911    0.000000    0.000000    0.000000    0.000000
  0.049058116   -5.779503  -37.278381 -105.961431   -6.373770    0.000000    0.000000    0.000000    0.000000
  0.049258517   -5.792749  -39.041138 -105.443076    4.918889    0.000000    0.000000    0.000000    0.000000
  0.049458918   -5.811726  -40.773243 -105.453033    0.997708    0.000000    0.000000    0.000000    0.000000
  0.049659319   -5.828304  -42.503967 -103.261909    0.814628    0.000000    0.000000    0.000000    0.000000
  0.049859719   -5.846540  -44.233170 -104.121616   17.566010    0.000000    0.000000    0.000000    0.000000
  0.050060120   -5.858829  -45.962875 -102.189212    8.915765    0.000000    0.000000    0.000000    0.000000
  0.050260521   -5.868608  -47.685307 -104.461639   -1.188437    0.000000    0.000000    0.000000    0.000000
  0.050460922   -5.882986  -49.400650 -104.578830    6.871974    0.000000    0.000000    0.000000    0.000000
  0.050661323   -5.889461  -51.094769 -103.928903   15.119950    0.000000    0.000000    0.000000    0.000000
  0.050861723   -5.894273  -52.775791 -101.790483   14.609730    0.000000    0.000000    0.000000    0.000000
  0.051062124   -5.904276  -54.419697 -101.653589   11.287952    0.000000    0.000000    0.000000    0.000000
  0.051262525   -5.909185  -56.054432 -101.042122   14.652528    0.000000    0.000000    0.000000    0.000000
  0.051462926   -5.916118  -57.647404 -100.093619    4.770866    0.000000    0.000000    0.000000    0.000000
  0.051663327   -5.921323  -59.224583 -103.510217    1.251356    0.000000    0.000000    0.000000    0.000000
  0.051863727   -5.927875  -60.815948 -102.379976   -1.889375    0.000000    0.000000    0.000000    0.000000
  0.052064128   -5.939682  -62.371578 -100.774212    7.209335    0.000000    0.000000    0.000000    0.000000
  0.052264529   -5.947080  -63.950016 -100.967009    4.384732    0.000000    0.000000    0.000000    0.000000
  0.052464930   -5.955100  -65.493263 -103.207364   19.631666    0.000000    0.000000    0.000000    0.000000
  0.052665331   -5.964714  -67.060303 -103.046002   -0.401204    0.000000    0.000000    0.000000    0.000000
  0.052865731   -5.977005  -68.630531 -100.032334   13.691527    0.000000    0.000000    0.000000    0.000000
