! Anritsu VNA Master:                     Model: MS2036C/10/77
! SN:                                  1601066
! /bd0/18may8/255.ew.m9.s2p
! Existing Calibration Information:
! TYPE:                         Current Settings,       Active Cal Settings
! TIME:             	   05/08/2018 10:31:17 AM,    05/08/2018 10:22:10 AM
! INTERNAL TEMP:    	                   48.0 C,                    47.5 C
! # POINTS:         	                      500,                       500
! START FREQ:       	               20.000 MHz,                20.000 MHz
! STOP FREQ:        	              120.000 MHz,               120.000 MHz
! SOURCE POWER:     	                     High,                      High
! IFBW:             	                    50 Hz,                     50 Hz
! AVG FACTOR:       	                       1 ,                        1 
! REF PLANE 1:      	                     0 mm,                      0 mm
! REF PLANE 2:      	                     0 mm,                      0 mm
! CAL TYPE:         	                 Full S11,                  Full S11
! CAL METHOD:       	                     SOLT,                      SOLT
! CAL LINE TYPE:    	                     Coax,                      Coax
! DUT PORT 1:       	                K-Conn(F),                 K-Conn(F)
! DUT PORT 2:       	                K-Conn(F),                 K-Conn(F)
! CAL STATUS:       	        OK: Accuracy High,                        --
# GHZ S DB R 50.0
! FREQ.GHZ       S11DB        S11A       S21DB        S21A       S12DB        S12A       S22DB        S22A
  0.020000000   -0.901386 -124.318100  -90.520527   29.570692    0.000000    0.000000    0.000000    0.000000
  0.020200401   -0.908399 -125.747223  -90.869658   31.916058    0.000000    0.000000    0.000000    0.000000
  0.020400802   -0.913610 -127.165039  -91.260019   30.787764    0.000000    0.000000    0.000000    0.000000
  0.020601202   -0.920896 -128.596954  -91.220197   28.470774    0.000000    0.000000    0.000000    0.000000
  0.020801603   -0.933607 -130.045090  -92.128624   31.540878    0.000000    0.000000    0.000000    0.000000
  0.021002004   -0.946481 -131.547821  -92.441837   29.194212    0.000000    0.000000    0.000000    0.000000
  0.021202405   -0.959544 -133.032516  -93.156183   28.375568    0.000000    0.000000    0.000000    0.000000
  0.021402806   -0.968877 -134.541473  -92.964493   33.241661    0.000000    0.000000    0.000000    0.000000
  0.021603206   -0.980439 -136.026718  -92.856900   34.912823    0.000000    0.000000    0.000000    0.000000
  0.021803607   -0.989748 -137.524506  -92.975777   31.209352    0.000000    0.000000    0.000000    0.000000
  0.022004008   -1.002121 -139.022614  -93.015598   32.206333    0.000000    0.000000    0.000000    0.000000
  0.022204409   -1.014161 -140.541946  -93.295191   35.233665    0.000000    0.000000    0.000000    0.000000
  0.022404810   -1.025553 -142.066742  -92.437611   36.498650    0.000000    0.000000    0.000000    0.000000
  0.022605210   -1.034340 -143.604034  -92.758147   38.407604    0.000000    0.000000    0.000000    0.000000
  0.022805611   -1.044697 -145.168457  -93.130080   32.196663    0.000000    0.000000    0.000000    0.000000
  0.023006012   -1.054519 -146.710953  -93.597751   38.993401    0.000000    0.000000    0.000000    0.000000
  0.023206413   -1.062831 -148.246841  -93.294678   34.683064    0.000000    0.000000    0.000000    0.000000
  0.023406814   -1.069128 -149.785629  -93.374643   33.914032    0.000000    0.000000    0.000000    0.000000
  0.023607214   -1.078151 -151.318787  -92.757901   31.034658    0.000000    0.000000    0.000000    0.000000
  0.023807615   -1.088775 -152.875870  -92.694683   32.308083    0.000000    0.000000    0.000000    0.000000
  0.024008016   -1.102879 -154.440491  -92.238615   28.047167    0.000000    0.000000    0.000000    0.000000
  0.024208417   -1.115352 -156.028381  -92.229069   25.754585    0.000000    0.000000    0.000000    0.000000
  0.024408818   -1.128587 -157.630035  -92.706951   25.377489    0.000000    0.000000    0.000000    0.000000
  0.024609218   -1.141820 -159.227600  -92.964388   28.590117    0.000000    0.000000    0.000000    0.000000
  0.024809619   -1.154356 -160.823273  -93.920836   25.676765    0.000000    0.000000    0.000000    0.000000
  0.025010020   -1.168509 -162.434555  -93.994011   28.522253    0.000000    0.000000    0.000000    0.000000
  0.025210421   -1.181955 -164.051041  -93.630136   22.999025    0.000000    0.000000    0.000000    0.000000
  0.025410822   -1.199160 -165.685608  -93.691876   15.165192    0.000000    0.000000    0.000000    0.000000
  0.025611222   -1.217321 -167.337402  -94.552824   15.726995    0.000000    0.000000    0.000000    0.000000
  0.025811623   -1.232406 -169.017410  -94.656796   21.044722    0.000000    0.000000    0.000000    0.000000
  0.026012024   -1.247024 -170.694382  -94.624267   21.830545    0.000000    0.000000    0.000000    0.000000
  0.026212425   -1.261359 -172.382263  -95.527211   19.274197    0.000000    0.000000    0.000000    0.000000
  0.026412826   -1.276984 -174.072769  -95.849615   21.383924    0.000000    0.000000    0.000000    0.000000
  0.026613226   -1.294267 -175.779678  -95.800909   21.703716    0.000000    0.000000    0.000000    0.000000
  0.026813627   -1.314797 -177.490509  -95.988401   12.855729    0.000000    0.000000    0.000000    0.000000
  0.027014028   -1.335346 -179.216187  -95.747048   16.490419    0.000000    0.000000    0.000000    0.000000
  0.027214429   -1.355328  179.045486  -96.975883   20.283302    0.000000    0.000000    0.000000    0.000000
  0.027414830   -1.377067  177.302963  -96.304758   19.869720    0.000000    0.000000    0.000000    0.000000
  0.027615230   -1.399271  175.536636  -96.229032   23.760979    0.000000    0.000000    0.000000    0.000000
  0.027815631   -1.422454  173.765640  -96.280601   24.636086    0.000000    0.000000    0.000000    0.000000
  0.028016032   -1.448763  171.977066  -96.392626   22.198208    0.000000    0.000000    0.000000    0.000000
  0.028216433   -1.476746  170.181625  -96.633405   17.153463    0.000000    0.000000    0.000000    0.000000
  0.028416834   -1.501718  168.380081  -96.613474   25.522717    0.000000    0.000000    0.000000    0.000000
  0.028617234   -1.528778  166.584518  -96.569007   25.709314    0.000000    0.000000    0.000000    0.000000
  0.028817635   -1.552341  164.784821  -95.864932   23.644232    0.000000    0.000000    0.000000    0.000000
  0.029018036   -1.577767  162.996872  -96.136486   26.512497    0.000000    0.000000    0.000000    0.000000
  0.029218437   -1.603530  161.200516  -96.113699   24.338404    0.000000    0.000000    0.000000    0.000000
  0.029418838   -1.633033  159.399216  -96.301483   22.829157    0.000000    0.000000    0.000000    0.000000
  0.029619238   -1.663933  157.587921  -96.214207   22.641096    0.000000    0.000000    0.000000    0.000000
  0.029819639   -1.696292  155.757843  -95.729649   19.193037    0.000000    0.000000    0.000000    0.000000
  0.030020040   -1.731331  153.896042  -95.589795   16.535814    0.000000    0.000000    0.000000    0.000000
  0.030220441   -1.762905  152.015503  -95.668041   13.918517    0.000000    0.000000    0.000000    0.000000
  0.030420842   -1.796460  150.131622  -96.421637   12.219404    0.000000    0.000000    0.000000    0.000000
  0.030621242   -1.832103  148.247391  -96.562093   11.759076    0.000000    0.000000    0.000000    0.000000
  0.030821643   -1.867882  146.363129  -96.715356    6.122169    0.000000    0.000000    0.000000    0.000000
  0.031022044   -1.903742  144.473190  -97.772930   11.392321    0.000000    0.000000    0.000000    0.000000
  0.031222445   -1.936611  142.583389  -96.763334    8.470652    0.000000    0.000000    0.000000    0.000000
  0.031422846   -1.978719  140.635284  -97.630364   12.673650    0.000000    0.000000    0.000000    0.000000
  0.031623246   -2.017336  138.673126  -95.955502    8.430428    0.000000    0.000000    0.000000    0.000000
  0.031823647   -2.055198  136.698883  -97.731371   15.139907    0.000000    0.000000    0.000000    0.000000
  0.032024048   -2.092519  134.724655  -96.442740    8.571340    0.000000    0.000000    0.000000    0.000000
  0.032224449   -2.128379  132.757690  -98.686410    9.504072    0.000000    0.000000    0.000000    0.000000
  0.032424850   -2.163643  130.781326  -98.193844   12.437052    0.000000    0.000000    0.000000    0.000000
  0.032625251   -2.200262  128.826447  -98.950620    4.472046    0.000000    0.000000    0.000000    0.000000
  0.032825651   -2.237996  126.856064  -96.242479   10.770279    0.000000    0.000000    0.000000    0.000000
  0.033026052   -2.278168  124.900757  -97.360718   16.619419    0.000000    0.000000    0.000000    0.000000
  0.033226453   -2.325806  122.932327  -97.505350   10.498630    0.000000    0.000000    0.000000    0.000000
  0.033426854   -2.373901  120.968636  -97.376773    4.620099    0.000000    0.000000    0.000000    0.000000
  0.033627255   -2.425279  118.981209  -98.084036    4.994504    0.000000    0.000000    0.000000    0.000000
  0.033827655   -2.476538  116.944710  -99.221396   12.621319    0.000000    0.000000    0.000000    0.000000
  0.034028056   -2.529273  114.893906  -97.822129   16.303589    0.000000    0.000000    0.000000    0.000000
  0.034228457   -2.581168  112.788643  -99.389897   15.278677    0.000000    0.000000    0.000000    0.000000
  0.034428858   -2.629020  110.695229  -98.729403   15.611665    0.000000    0.000000    0.000000    0.000000
  0.034629259   -2.676120  108.571640  -97.932350   16.777664    0.000000    0.000000    0.000000    0.000000
  0.034829659   -2.723153  106.481247  -97.859285   15.070640    0.000000    0.000000    0.000000    0.000000
  0.035030060   -2.767113  104.366455  -99.021293    0.972329    0.000000    0.000000    0.000000    0.000000
  0.035230461   -2.810407  102.273735 -101.399688   15.048742    0.000000    0.000000    0.000000    0.000000
  0.035430862   -2.851724  100.193459  -97.926979    7.752482    0.000000    0.000000    0.000000    0.000000
  0.035631263   -2.891334   98.133163  -97.896949   12.863157    0.000000    0.000000    0.000000    0.000000
  0.035831663   -2.934749   96.068550  -97.889909   16.618151    0.000000    0.000000    0.000000    0.000000
  0.036032064   -2.975202   94.026924  -99.018523    2.974347    0.000000    0.000000    0.000000    0.000000
  0.036232465   -3.020558   91.990532  -98.828684    6.234598    0.000000    0.000000    0.000000    0.000000
  0.036432866   -3.066799   89.955635  -99.801282    7.080257    0.000000    0.000000    0.000000    0.000000
  0.036633267   -3.110736   87.936005  -98.708562    3.548238    0.000000    0.000000    0.000000    0.000000
  0.036833667   -3.160091   85.913490 -100.103623    7.241972    0.000000    0.000000    0.000000    0.000000
  0.037034068   -3.207173   83.834908  -99.191262   -1.569498    0.000000    0.000000    0.000000    0.000000
  0.037234469   -3.254419   81.743484  -99.106350    3.130704    0.000000    0.000000    0.000000    0.000000
  0.037434870   -3.298112   79.584587 -100.992648   -0.339446    0.000000    0.000000    0.000000    0.000000
  0.037635271   -3.340024   77.345558 -100.436857    5.352101    0.000000    0.000000    0.000000    0.000000
  0.037835671   -3.390597   74.987801  -99.766253    0.483242    0.000000    0.000000    0.000000    0.000000
  0.038036072   -3.456976   72.600677 -100.391568    8.115541    0.000000    0.000000    0.000000    0.000000
  0.038236473   -3.537566   70.228958  -99.724402   13.858459    0.000000    0.000000    0.000000    0.000000
  0.038436874   -3.618311   67.936241  -99.230008   13.345340    0.000000    0.000000    0.000000    0.000000
  0.038637275   -3.695258   65.770531 -100.097260   14.038632    0.000000    0.000000    0.000000    0.000000
  0.038837675   -3.760335   63.674587 -100.271019   -1.618127    0.000000    0.000000    0.000000    0.000000
  0.039038076   -3.817727   61.588245 -100.758882   11.114001    0.000000    0.000000    0.000000    0.000000
  0.039238477   -3.869672   59.547981 -101.410987    8.943567    0.000000    0.000000    0.000000    0.000000
  0.039438878   -3.925913   57.518696  -99.697231    9.204230    0.000000    0.000000    0.000000    0.000000
  0.039639279   -3.980748   55.492428  -99.501275   13.851292    0.000000    0.000000    0.000000    0.000000
  0.039839679   -4.038547   53.434952  -99.787656   16.501560    0.000000    0.000000    0.000000    0.000000
  0.040040080   -4.097817   51.364532  -99.136978    3.676418    0.000000    0.000000    0.000000    0.000000
  0.040240481   -4.156169   49.302162  -98.926057    7.569416    0.000000    0.000000    0.000000    0.000000
  0.040440882   -4.213230   47.177864  -99.411592   11.991282    0.000000    0.000000    0.000000    0.000000
  0.040641283   -4.270348   45.093533  -99.312015    6.348913    0.000000    0.000000    0.000000    0.000000
  0.040841683   -4.325815   42.964756  -99.166229    6.696527    0.000000    0.000000    0.000000    0.000000
  0.041042084   -4.380109   40.872158 -100.348808   13.188886    0.000000    0.000000    0.000000    0.000000
  0.041242485   -4.432193   38.764698 -100.701041   -8.923810    0.000000    0.000000    0.000000    0.000000
  0.041442886   -4.485259   36.656857 -100.579134   -0.664347    0.000000    0.000000    0.000000    0.000000
  0.041643287   -4.534194   34.528465 -100.515450    0.930165    0.000000    0.000000    0.000000    0.000000
  0.041843687   -4.581187   32.413071 -101.075081    2.626443    0.000000    0.000000    0.000000    0.000000
  0.042044088   -4.627427   30.334457 -102.578795    9.703738    0.000000    0.000000    0.000000    0.000000
  0.042244489   -4.670846   28.254206 -100.575535   -0.067783    0.000000    0.000000    0.000000    0.000000
  0.042444890   -4.716382   26.196842 -101.768063   -2.438360    0.000000    0.000000    0.000000    0.000000
  0.042645291   -4.761466   24.167089 -102.401044    1.905355    0.000000    0.000000    0.000000    0.000000
  0.042845691   -4.805179   22.112108 -101.078924    1.021530    0.000000    0.000000    0.000000    0.000000
  0.043046092   -4.850563   20.085321 -102.967196   13.078727    0.000000    0.000000    0.000000    0.000000
  0.043246493   -4.894560   18.043043 -101.793864    1.100233    0.000000    0.000000    0.000000    0.000000
  0.043446894   -4.938722   16.023928 -101.737693   10.532317    0.000000    0.000000    0.000000    0.000000
  0.043647295   -4.980957   13.999972 -101.647193    4.337967    0.000000    0.000000    0.000000    0.000000
  0.043847695   -5.024611   11.983023 -102.745324    9.764708    0.000000    0.000000    0.000000    0.000000
  0.044048096   -5.068093    9.986715 -103.992583    3.968726    0.000000    0.000000    0.000000    0.000000
  0.044248497   -5.110735    7.985353 -102.352239   11.831966    0.000000    0.000000    0.000000    0.000000
  0.044448898   -5.150830    5.990194 -102.268613    9.674844    0.000000    0.000000    0.000000    0.000000
  0.044649299   -5.194047    4.007518 -102.487774   -4.024173    0.000000    0.000000    0.000000    0.000000
  0.044849699   -5.231967    2.037157 -103.006039   13.409415    0.000000    0.000000    0.000000    0.000000
  0.045050100   -5.266076    0.050490 -100.226361    0.808457    0.000000    0.000000    0.000000    0.000000
  0.045250501   -5.301122   -1.942635 -101.437260    7.850415    0.000000    0.000000    0.000000    0.000000
  0.045450902   -5.333423   -3.872980 -101.796901   -3.841125    0.000000    0.000000    0.000000    0.000000
  0.045651303   -5.367214   -5.820034 -101.297314    2.268634    0.000000    0.000000    0.000000    0.000000
  0.045851703   -5.401360   -7.750162 -102.111296   -2.516098    0.000000    0.000000    0.000000    0.000000
  0.046052104   -5.433645   -9.682600  -99.681442    0.198074    0.000000    0.000000    0.000000    0.000000
  0.046252505   -5.464946  -11.596947 -102.110762    5.892133    0.000000    0.000000    0.000000    0.000000
  0.046452906   -5.493287  -13.499631 -100.878928    3.408759    0.000000    0.000000    0.000000    0.000000
  0.046653307   -5.520971  -15.410588 -101.218607   -6.081318    0.000000    0.000000    0.000000    0.000000
  0.046853707   -5.548356  -17.301336 -100.579385   -0.753188    0.000000    0.000000    0.000000    0.000000
  0.047054108   -5.575316  -19.209354 -101.326953    3.151506    0.000000    0.000000    0.000000    0.000000
  0.047254509   -5.597501  -21.086618 -101.241726    3.046013    0.000000    0.000000    0.000000    0.000000
  0.047454910   -5.620477  -22.954384 -101.245665    7.935087    0.000000    0.000000    0.000000    0.000000
  0.047655311   -5.641234  -24.808935 -103.949922   -8.414683    0.000000    0.000000    0.000000    0.000000
  0.047855711   -5.664020  -26.617630 -103.683469    4.293890    0.000000    0.000000    0.000000    0.000000
  0.048056112   -5.684292  -28.416859 -104.475532   -6.697539    0.000000    0.000000    0.000000    0.000000
  0.048256513   -5.705641  -30.230011 -103.297476  -12.563781    0.000000    0.000000    0.000000    0.000000
  0.048456914   -5.728411  -32.012890 -102.898976   -6.178182    0.000000    0.000000    0.000000    0.000000
  0.048657315   -5.747333  -33.815536 -103.508093   -1.981932    0.000000    0.000000    0.000000    0.000000
  0.048857715   -5.766804  -35.588287 -104.140982    4.279545    0.000000    0.000000    0.000000    0.000000
  0.049058116   -5.784468  -37.378651 -104.060586   13.233142    0.000000    0.000000    0.000000    0.000000
  0.049258517   -5.799295  -39.143120 -103.108366  -20.162846    0.000000    0.000000    0.000000    0.000000
  0.049458918   -5.815696  -40.874382 -104.052807    1.188798    0.000000    0.000000    0.000000    0.000000
  0.049659319   -5.830369  -42.622711 -103.697208   -1.481835    0.000000    0.000000    0.000000    0.000000
  0.049859719   -5.847194  -44.343285 -102.945593    6.353255    0.000000    0.000000    0.000000    0.000000
  0.050060120   -5.859906  -46.043583 -101.641645    9.491930    0.000000    0.000000    0.000000    0.000000
  0.050260521   -5.871779  -47.797935 -102.862628    3.184029    0.000000    0.000000    0.000000    0.000000
  0.050460922   -5.884784  -49.501099 -102.330939    5.254330    0.000000    0.000000    0.000000    0.000000
  0.050661323   -5.893819  -51.216148 -103.289118   15.915157    0.000000    0.000000    0.000000    0.000000
  0.050861723   -5.898754  -52.885082 -104.052860   12.184862    0.000000    0.000000    0.000000    0.000000
  0.051062124   -5.903716  -54.540825 -104.133949   21.575861    0.000000    0.000000    0.000000    0.000000
  0.051262525   -5.909677  -56.157871 -102.435376   -2.684917    0.000000    0.000000    0.000000    0.000000
  0.051462926   -5.915053  -57.761532 -100.241794   11.432761    0.000000    0.000000    0.000000    0.000000
  0.051663327   -5.919832  -59.324661 -100.913202    1.714116    0.000000    0.000000    0.000000    0.000000
  0.051863727   -5.930157  -60.918423 -103.414801   11.448133    0.000000    0.000000    0.000000    0.000000
  0.052064128   -5.935560  -62.491913 -103.036950    3.995709    0.000000    0.000000    0.000000    0.000000
  0.052264529   -5.946471  -64.038696 -102.049375    9.319712    0.000000    0.000000    0.000000    0.000000
  0.052464930   -5.955171  -65.569519 -104.009271   -6.362569    0.000000    0.000000    0.000000    0.000000
  0.052665331   -5.964853  -67.154091 -101.616799   12.732774    0.000000    0.000000    0.000000    0.000000
  0.052865731   -5.975055  -68.701653 -100.411816   -5.519818    0.000000    0.000000    0.000000    0.000000
