! Anritsu VNA Master:                     Model: MS2036C/10/77
! SN:                                  1601066
! /bd0/18may8/255.ew.m4.s2p
! Existing Calibration Information:
! TYPE:                         Current Settings,       Active Cal Settings
! TIME:             	   05/08/2018 10:08:20 AM,    05/08/2018 09:57:41 AM
! INTERNAL TEMP:    	                   47.0 C,                    46.8 C
! # POINTS:         	                      500,                       500
! START FREQ:       	               20.000 MHz,                20.000 MHz
! STOP FREQ:        	              120.000 MHz,               120.000 MHz
! SOURCE POWER:     	                     High,                      High
! IFBW:             	                    50 Hz,                     50 Hz
! AVG FACTOR:       	                       1 ,                        1 
! REF PLANE 1:      	                     0 mm,                      0 mm
! REF PLANE 2:      	                     0 mm,                      0 mm
! CAL TYPE:         	                 Full S11,                  Full S11
! CAL METHOD:       	                     SOLT,                      SOLT
! CAL LINE TYPE:    	                     Coax,                      Coax
! DUT PORT 1:       	                K-Conn(F),                 K-Conn(F)
! DUT PORT 2:       	                K-Conn(F),                 K-Conn(F)
! CAL STATUS:       	        OK: Accuracy High,                        --
# GHZ S DB R 50.0
! FREQ.GHZ       S11DB        S11A       S21DB        S21A       S12DB        S12A       S22DB        S22A
  0.020000000   -0.885459 -124.218315  -90.771301   31.039925    0.000000    0.000000    0.000000    0.000000
  0.020200401   -0.889595 -125.642601  -90.899695   29.591986    0.000000    0.000000    0.000000    0.000000
  0.020400802   -0.899442 -127.059616  -92.297792   28.360613    0.000000    0.000000    0.000000    0.000000
  0.020601202   -0.905918 -128.486755  -91.669830   25.476101    0.000000    0.000000    0.000000    0.000000
  0.020801603   -0.916790 -129.965302  -91.640268   29.837364    0.000000    0.000000    0.000000    0.000000
  0.021002004   -0.929635 -131.441162  -92.503435   32.557785    0.000000    0.000000    0.000000    0.000000
  0.021202405   -0.942204 -132.937546  -92.599292   30.192366    0.000000    0.000000    0.000000    0.000000
  0.021402806   -0.952815 -134.438110  -93.024940   30.419334    0.000000    0.000000    0.000000    0.000000
  0.021603206   -0.963455 -135.929138  -93.204946   28.663664    0.000000    0.000000    0.000000    0.000000
  0.021803607   -0.974739 -137.433640  -93.100418   28.577604    0.000000    0.000000    0.000000    0.000000
  0.022004008   -0.984031 -138.932220  -93.320700   31.243481    0.000000    0.000000    0.000000    0.000000
  0.022204409   -0.998190 -140.450867  -92.855563   35.064587    0.000000    0.000000    0.000000    0.000000
  0.022404810   -1.009612 -141.971725  -93.202797   34.094639    0.000000    0.000000    0.000000    0.000000
  0.022605210   -1.020893 -143.513763  -93.404028   34.961838    0.000000    0.000000    0.000000    0.000000
  0.022805611   -1.029697 -145.068298  -92.815239   37.608173    0.000000    0.000000    0.000000    0.000000
  0.023006012   -1.037345 -146.625488  -92.701026   40.380775    0.000000    0.000000    0.000000    0.000000
  0.023206413   -1.046904 -148.151047  -92.360395   34.932339    0.000000    0.000000    0.000000    0.000000
  0.023406814   -1.054417 -149.686401  -92.391936   34.734695    0.000000    0.000000    0.000000    0.000000
  0.023607214   -1.062689 -151.221695  -92.463912   35.521961    0.000000    0.000000    0.000000    0.000000
  0.023807615   -1.074963 -152.769745  -92.176050   32.156879    0.000000    0.000000    0.000000    0.000000
  0.024008016   -1.089241 -154.334045  -92.858602   31.261202    0.000000    0.000000    0.000000    0.000000
  0.024208417   -1.101977 -155.915054  -93.422692   26.677307    0.000000    0.000000    0.000000    0.000000
  0.024408818   -1.114373 -157.503189  -93.538051   27.181828    0.000000    0.000000    0.000000    0.000000
  0.024609218   -1.128417 -159.097900  -93.426652   24.696482    0.000000    0.000000    0.000000    0.000000
  0.024809619   -1.140730 -160.699875  -93.359789   24.618738    0.000000    0.000000    0.000000    0.000000
  0.025010020   -1.154957 -162.294540  -92.983924   19.093439    0.000000    0.000000    0.000000    0.000000
  0.025210421   -1.170570 -163.906677  -92.691839   19.333260    0.000000    0.000000    0.000000    0.000000
  0.025410822   -1.188047 -165.526138  -93.838381   18.784069    0.000000    0.000000    0.000000    0.000000
  0.025611222   -1.206602 -167.192505  -94.102016   16.867281    0.000000    0.000000    0.000000    0.000000
  0.025811623   -1.221513 -168.854553  -94.620070   16.177174    0.000000    0.000000    0.000000    0.000000
  0.026012024   -1.236853 -170.546600  -94.866921   18.920494    0.000000    0.000000    0.000000    0.000000
  0.026212425   -1.251315 -172.220779  -95.422085   19.618176    0.000000    0.000000    0.000000    0.000000
  0.026412826   -1.267654 -173.911942  -96.019975   17.325325    0.000000    0.000000    0.000000    0.000000
  0.026613226   -1.285511 -175.610947  -96.651558   17.372845    0.000000    0.000000    0.000000    0.000000
  0.026813627   -1.305978 -177.328094  -95.543890   15.225888    0.000000    0.000000    0.000000    0.000000
  0.027014028   -1.325199 -179.056152  -95.421368   21.306629    0.000000    0.000000    0.000000    0.000000
  0.027214429   -1.346306  179.207870  -97.168691   21.101711    0.000000    0.000000    0.000000    0.000000
  0.027414830   -1.367040  177.447052  -96.770581   13.602931    0.000000    0.000000    0.000000    0.000000
  0.027615230   -1.388511  175.683411  -95.780149   23.435410    0.000000    0.000000    0.000000    0.000000
  0.027815631   -1.413387  173.904755  -96.312634   25.627533    0.000000    0.000000    0.000000    0.000000
  0.028016032   -1.438228  172.106857  -96.082851   24.177689    0.000000    0.000000    0.000000    0.000000
  0.028216433   -1.466142  170.308731  -95.693319   24.638636    0.000000    0.000000    0.000000    0.000000
  0.028416834   -1.491349  168.509399  -95.158870   18.708765    0.000000    0.000000    0.000000    0.000000
  0.028617234   -1.517261  166.711456  -96.036843   21.593025    0.000000    0.000000    0.000000    0.000000
  0.028817635   -1.540879  164.909515  -96.150110   24.113218    0.000000    0.000000    0.000000    0.000000
  0.029018036   -1.566518  163.118530  -96.099102   17.843479    0.000000    0.000000    0.000000    0.000000
  0.029218437   -1.592124  161.324493  -95.157842   18.822586    0.000000    0.000000    0.000000    0.000000
  0.029418838   -1.620650  159.529205  -96.353644   25.657722    0.000000    0.000000    0.000000    0.000000
  0.029619238   -1.651087  157.713699  -95.360770   21.066818    0.000000    0.000000    0.000000    0.000000
  0.029819639   -1.683683  155.884079  -96.073465   20.759968    0.000000    0.000000    0.000000    0.000000
  0.030020040   -1.717716  154.030457  -95.814922   15.416763    0.000000    0.000000    0.000000    0.000000
  0.030220441   -1.751723  152.155716  -96.031912   21.652403    0.000000    0.000000    0.000000    0.000000
  0.030420842   -1.783802  150.269745  -96.621750   16.338106    0.000000    0.000000    0.000000    0.000000
  0.030621242   -1.818431  148.401733  -96.508191   12.567480    0.000000    0.000000    0.000000    0.000000
  0.030821643   -1.853633  146.539932  -96.245724    8.745968    0.000000    0.000000    0.000000    0.000000
  0.031022044   -1.891628  144.654999  -96.899210    7.944142    0.000000    0.000000    0.000000    0.000000
  0.031222445   -1.924501  142.775208  -97.885929    6.609535    0.000000    0.000000    0.000000    0.000000
  0.031422846   -1.965265  140.831741  -97.211112   10.859768    0.000000    0.000000    0.000000    0.000000
  0.031623246   -2.005042  138.878891  -96.947909   15.201761    0.000000    0.000000    0.000000    0.000000
  0.031823647   -2.042632  136.907761  -96.765563   18.302406    0.000000    0.000000    0.000000    0.000000
  0.032024048   -2.078249  134.965256  -97.369256    7.267691    0.000000    0.000000    0.000000    0.000000
  0.032224449   -2.114565  132.998383  -97.503676   18.067698    0.000000    0.000000    0.000000    0.000000
  0.032424850   -2.152093  131.035263  -98.065650    7.038618    0.000000    0.000000    0.000000    0.000000
  0.032625251   -2.187845  129.077133  -99.007586   20.604250    0.000000    0.000000    0.000000    0.000000
  0.032825651   -2.227868  127.121483  -98.202301    2.925439    0.000000    0.000000    0.000000    0.000000
  0.033026052   -2.271580  125.161057  -99.277150    5.746842    0.000000    0.000000    0.000000    0.000000
  0.033226453   -2.318497  123.192039  -98.168476   19.705935    0.000000    0.000000    0.000000    0.000000
  0.033426854   -2.366855  121.231926  -98.623333   17.250086    0.000000    0.000000    0.000000    0.000000
  0.033627255   -2.421009  119.231552  -97.282704   12.240344    0.000000    0.000000    0.000000    0.000000
  0.033827655   -2.474088  117.202812  -98.725522   14.778883    0.000000    0.000000    0.000000    0.000000
  0.034028056   -2.525295  115.142609  -98.821581   14.081258    0.000000    0.000000    0.000000    0.000000
  0.034228457   -2.576225  113.035683  -98.239875   19.767437    0.000000    0.000000    0.000000    0.000000
  0.034428858   -2.624097  110.936852  -99.563682    7.942133    0.000000    0.000000    0.000000    0.000000
  0.034629259   -2.672287  108.811531  -98.340338   16.970163    0.000000    0.000000    0.000000    0.000000
  0.034829659   -2.716732  106.697006  -97.080908    9.730075    0.000000    0.000000    0.000000    0.000000
  0.035030060   -2.761995  104.577316  -97.796214    6.126633    0.000000    0.000000    0.000000    0.000000
  0.035230461   -2.804514  102.502007  -97.878560    1.361560    0.000000    0.000000    0.000000    0.000000
  0.035430862   -2.846223  100.428497  -98.979760    4.062653    0.000000    0.000000    0.000000    0.000000
  0.035631263   -2.886332   98.358086  -98.977128    7.825658    0.000000    0.000000    0.000000    0.000000
  0.035831663   -2.930603   96.293434  -97.777929    1.827889    0.000000    0.000000    0.000000    0.000000
  0.036032064   -2.971067   94.249641  -98.277331   14.315819    0.000000    0.000000    0.000000    0.000000
  0.036232465   -3.014488   92.204315  -99.284989   16.499651    0.000000    0.000000    0.000000    0.000000
  0.036432866   -3.058000   90.199562  -98.102400    5.935859    0.000000    0.000000    0.000000    0.000000
  0.036633267   -3.104182   88.176689  -98.253359    7.338019    0.000000    0.000000    0.000000    0.000000
  0.036833667   -3.152721   86.146072  -99.060647   -1.310864    0.000000    0.000000    0.000000    0.000000
  0.037034068   -3.200026   84.080559 -100.201881    4.809858    0.000000    0.000000    0.000000    0.000000
  0.037234469   -3.247556   81.991959  -99.857112    5.515531    0.000000    0.000000    0.000000    0.000000
  0.037434870   -3.291229   79.839348  -99.847330   10.125827    0.000000    0.000000    0.000000    0.000000
  0.037635271   -3.333820   77.596146  -98.682031    4.736082    0.000000    0.000000    0.000000    0.000000
  0.037835671   -3.384411   75.249756  -99.777065    5.939862    0.000000    0.000000    0.000000    0.000000
  0.038036072   -3.447515   72.851067  -99.790024    7.683877    0.000000    0.000000    0.000000    0.000000
  0.038236473   -3.527228   70.509811 -101.527804   -0.027338    0.000000    0.000000    0.000000    0.000000
  0.038436874   -3.610907   68.242668 -101.537606    4.145770    0.000000    0.000000    0.000000    0.000000
  0.038637275   -3.686777   66.075813  -99.922164   11.873231    0.000000    0.000000    0.000000    0.000000
  0.038837675   -3.752564   63.963970  -99.605292    6.645271    0.000000    0.000000    0.000000    0.000000
  0.039038076   -3.811930   61.921093 -100.973586    1.595019    0.000000    0.000000    0.000000    0.000000
  0.039238477   -3.867257   59.872181 -100.679997   16.530788    0.000000    0.000000    0.000000    0.000000
  0.039438878   -3.922277   57.849045  -99.726747   13.198527    0.000000    0.000000    0.000000    0.000000
  0.039639279   -3.976698   55.820400  -99.859131    9.338726    0.000000    0.000000    0.000000    0.000000
  0.039839679   -4.037145   53.747406  -98.668556    7.974060    0.000000    0.000000    0.000000    0.000000
  0.040040080   -4.098707   51.689739 -100.679429   18.051262    0.000000    0.000000    0.000000    0.000000
  0.040240481   -4.156085   49.608021 -101.767726    9.503551    0.000000    0.000000    0.000000    0.000000
  0.040440882   -4.215668   47.493912  -98.866310    5.003365    0.000000    0.000000    0.000000    0.000000
  0.040641283   -4.273809   45.375072 -100.604663   11.448784    0.000000    0.000000    0.000000    0.000000
  0.040841683   -4.329207   43.278843  -99.225811    7.604497    0.000000    0.000000    0.000000    0.000000
  0.041042084   -4.382716   41.169579 -101.011186   11.127844    0.000000    0.000000    0.000000    0.000000
  0.041242485   -4.438867   39.038235 -100.373538    0.056486    0.000000    0.000000    0.000000    0.000000
  0.041442886   -4.490351   36.915730 -102.012245   -1.904727    0.000000    0.000000    0.000000    0.000000
  0.041643287   -4.539998   34.808517 -100.291143   -2.057449    0.000000    0.000000    0.000000    0.000000
  0.041843687   -4.587791   32.673958 -101.543175    5.591881    0.000000    0.000000    0.000000    0.000000
  0.042044088   -4.634069   30.602564 -101.286445    0.700027    0.000000    0.000000    0.000000    0.000000
  0.042244489   -4.675146   28.520378 -100.456375   -0.280519    0.000000    0.000000    0.000000    0.000000
  0.042444890   -4.724418   26.459196 -100.543472    6.017432    0.000000    0.000000    0.000000    0.000000
  0.042645291   -4.768211   24.414446 -101.565773   -2.959667    0.000000    0.000000    0.000000    0.000000
  0.042845691   -4.811690   22.369678 -101.822616    0.921361    0.000000    0.000000    0.000000    0.000000
  0.043046092   -4.857505   20.341974 -103.340018   -7.189137    0.000000    0.000000    0.000000    0.000000
  0.043246493   -4.901206   18.295996 -100.935864    6.643683    0.000000    0.000000    0.000000    0.000000
  0.043446894   -4.942796   16.263371 -102.263891   20.906654    0.000000    0.000000    0.000000    0.000000
  0.043647295   -4.984886   14.240006 -101.708352   11.185618    0.000000    0.000000    0.000000    0.000000
  0.043847695   -5.029988   12.220285 -104.801785    4.240131    0.000000    0.000000    0.000000    0.000000
  0.044048096   -5.071316   10.218111 -102.304162   16.183239    0.000000    0.000000    0.000000    0.000000
  0.044248497   -5.115709    8.204062 -101.704065   19.623346    0.000000    0.000000    0.000000    0.000000
  0.044448898   -5.157736    6.211944 -103.530229   11.646786    0.000000    0.000000    0.000000    0.000000
  0.044649299   -5.197749    4.220108 -103.196224    6.908170    0.000000    0.000000    0.000000    0.000000
  0.044849699   -5.237055    2.229983 -100.766843   10.202806    0.000000    0.000000    0.000000    0.000000
  0.045050100   -5.269142    0.238437 -101.169720   11.388729    0.000000    0.000000    0.000000    0.000000
  0.045250501   -5.302432   -1.743127 -100.238285    6.379289    0.000000    0.000000    0.000000    0.000000
  0.045450902   -5.337115   -3.681031 -103.265976    3.923234    0.000000    0.000000    0.000000    0.000000
  0.045651303   -5.372156   -5.630169 -101.548413    4.118287    0.000000    0.000000    0.000000    0.000000
  0.045851703   -5.405264   -7.564227 -101.426200   10.023624    0.000000    0.000000    0.000000    0.000000
  0.046052104   -5.438255   -9.508486 -100.468372   13.704964    0.000000    0.000000    0.000000    0.000000
  0.046252505   -5.468418  -11.417066 -102.635898    2.158456    0.000000    0.000000    0.000000    0.000000
  0.046452906   -5.498757  -13.337226 -103.755937    3.786962    0.000000    0.000000    0.000000    0.000000
  0.046653307   -5.524463  -15.253315 -101.045960   15.160011    0.000000    0.000000    0.000000    0.000000
  0.046853707   -5.551476  -17.169411 -100.420491   11.589168    0.000000    0.000000    0.000000    0.000000
  0.047054108   -5.576080  -19.048626 -100.762775  -12.856751    0.000000    0.000000    0.000000    0.000000
  0.047254509   -5.598460  -20.949322 -101.500303   -0.505956    0.000000    0.000000    0.000000    0.000000
  0.047454910   -5.622206  -22.807737 -102.372604    8.544377    0.000000    0.000000    0.000000    0.000000
  0.047655311   -5.641993  -24.660149 -104.329296  -10.494891    0.000000    0.000000    0.000000    0.000000
  0.047855711   -5.664858  -26.481085 -101.428217   -3.216552    0.000000    0.000000    0.000000    0.000000
  0.048056112   -5.685357  -28.293116 -101.957405   -9.458924    0.000000    0.000000    0.000000    0.000000
  0.048256513   -5.706435  -30.087471 -103.498465   -2.499562    0.000000    0.000000    0.000000    0.000000
  0.048456914   -5.730093  -31.892082 -103.941912   -6.903475    0.000000    0.000000    0.000000    0.000000
  0.048657315   -5.749202  -33.669121 -104.491507    4.150707    0.000000    0.000000    0.000000    0.000000
  0.048857715   -5.764872  -35.461739 -103.632730   -4.848757    0.000000    0.000000    0.000000    0.000000
  0.049058116   -5.780988  -37.246902 -102.763085    7.996708    0.000000    0.000000    0.000000    0.000000
  0.049258517   -5.793143  -38.999992 -104.338011   -5.239080    0.000000    0.000000    0.000000    0.000000
  0.049458918   -5.812209  -40.717957 -102.659372   -3.940260    0.000000    0.000000    0.000000    0.000000
  0.049659319   -5.828837  -42.470257 -101.952248    1.807292    0.000000    0.000000    0.000000    0.000000
  0.049859719   -5.845387  -44.188160 -105.973292    7.381899    0.000000    0.000000    0.000000    0.000000
  0.050060120   -5.859755  -45.910633 -103.348366    1.590308    0.000000    0.000000    0.000000    0.000000
  0.050260521   -5.873064  -47.635971 -104.237772   24.204838    0.000000    0.000000    0.000000    0.000000
  0.050460922   -5.884131  -49.363712 -104.393494    3.519168    0.000000    0.000000    0.000000    0.000000
  0.050661323   -5.891641  -51.055447 -101.243234   15.790952    0.000000    0.000000    0.000000    0.000000
  0.050861723   -5.895095  -52.741879 -105.540082   -7.397465    0.000000    0.000000    0.000000    0.000000
  0.051062124   -5.904355  -54.398468 -103.058845   23.158918    0.000000    0.000000    0.000000    0.000000
  0.051262525   -5.908107  -56.018162 -105.320299   -6.279904    0.000000    0.000000    0.000000    0.000000
  0.051462926   -5.914876  -57.615868 -101.660785    4.688056    0.000000    0.000000    0.000000    0.000000
  0.051663327   -5.919222  -59.190918 -103.230368    8.397477    0.000000    0.000000    0.000000    0.000000
  0.051863727   -5.928270  -60.771370 -101.103830    4.137750    0.000000    0.000000    0.000000    0.000000
  0.052064128   -5.938117  -62.328156 -101.999543  -11.240520    0.000000    0.000000    0.000000    0.000000
  0.052264529   -5.947172  -63.914806 -102.698298   -3.049857    0.000000    0.000000    0.000000    0.000000
  0.052464930   -5.954834  -65.455437 -102.746983   -0.946054    0.000000    0.000000    0.000000    0.000000
  0.052665331   -5.964842  -67.018517 -102.978266   -3.653563    0.000000    0.000000    0.000000    0.000000
  0.052865731   -5.973943  -68.588982 -101.112200    0.045849    0.000000    0.000000    0.000000    0.000000
