! Anritsu VNA Master:                     Model: MS2036C/10/77
! SN:                                  1601066
! /bd0/18may8/255.ns.m6.s2p
! Existing Calibration Information:
! TYPE:                         Current Settings,       Active Cal Settings
! TIME:             	   05/08/2018 11:19:57 AM,    05/08/2018 11:16:31 AM
! INTERNAL TEMP:    	                   51.5 C,                    51.3 C
! # POINTS:         	                      500,                       500
! START FREQ:       	               20.000 MHz,                20.000 MHz
! STOP FREQ:        	              120.000 MHz,               120.000 MHz
! SOURCE POWER:     	                     High,                      High
! IFBW:             	                    50 Hz,                     50 Hz
! AVG FACTOR:       	                       1 ,                        1 
! REF PLANE 1:      	                     0 mm,                      0 mm
! REF PLANE 2:      	                     0 mm,                      0 mm
! CAL TYPE:         	                 Full S11,                  Full S11
! CAL METHOD:       	                     SOLT,                      SOLT
! CAL LINE TYPE:    	                     Coax,                      Coax
! DUT PORT 1:       	                K-Conn(F),                 K-Conn(F)
! DUT PORT 2:       	                K-Conn(F),                 K-Conn(F)
! CAL STATUS:       	        OK: Accuracy High,                        --
# GHZ S DB R 50.0
! FREQ.GHZ       S11DB        S11A       S21DB        S21A       S12DB        S12A       S22DB        S22A
  0.020000000   -0.552688 -124.446289  -90.463011   29.130112    0.000000    0.000000    0.000000    0.000000
  0.020200401   -0.542042 -125.869415  -91.386785   26.112204    0.000000    0.000000    0.000000    0.000000
  0.020400802   -0.531786 -127.294701  -91.251785   31.845821    0.000000    0.000000    0.000000    0.000000
  0.020601202   -0.523410 -128.735001  -92.085500   30.255129    0.000000    0.000000    0.000000    0.000000
  0.020801603   -0.518806 -130.196472  -91.903523   30.021854    0.000000    0.000000    0.000000    0.000000
  0.021002004   -0.520013 -131.678116  -92.532880   25.709898    0.000000    0.000000    0.000000    0.000000
  0.021202405   -0.518297 -133.174377  -92.125458   27.612043    0.000000    0.000000    0.000000    0.000000
  0.021402806   -0.516891 -134.671310  -92.656137   32.298706    0.000000    0.000000    0.000000    0.000000
  0.021603206   -0.519560 -136.169693  -93.974102   30.118750    0.000000    0.000000    0.000000    0.000000
  0.021803607   -0.520221 -137.665558  -93.348144   32.276497    0.000000    0.000000    0.000000    0.000000
  0.022004008   -0.523659 -139.157608  -92.854124   25.846743    0.000000    0.000000    0.000000    0.000000
  0.022204409   -0.530468 -140.676804  -94.593931   34.134975    0.000000    0.000000    0.000000    0.000000
  0.022404810   -0.534638 -142.225189  -92.971716   36.414188    0.000000    0.000000    0.000000    0.000000
  0.022605210   -0.540985 -143.780350  -93.331782   37.349632    0.000000    0.000000    0.000000    0.000000
  0.022805611   -0.548931 -145.327362  -92.858233   37.960556    0.000000    0.000000    0.000000    0.000000
  0.023006012   -0.556227 -146.890442  -92.490497   32.294395    0.000000    0.000000    0.000000    0.000000
  0.023206413   -0.563115 -148.452606  -92.884828   35.581482    0.000000    0.000000    0.000000    0.000000
  0.023406814   -0.570220 -150.009430  -92.768960   34.260933    0.000000    0.000000    0.000000    0.000000
  0.023607214   -0.578821 -151.561905  -92.609757   31.158804    0.000000    0.000000    0.000000    0.000000
  0.023807615   -0.594190 -153.152283  -92.954410   32.264431    0.000000    0.000000    0.000000    0.000000
  0.024008016   -0.611009 -154.742584  -93.325897   26.083017    0.000000    0.000000    0.000000    0.000000
  0.024208417   -0.628308 -156.362213  -92.278944   22.917135    0.000000    0.000000    0.000000    0.000000
  0.024408818   -0.646009 -157.985168  -92.917012   27.370892    0.000000    0.000000    0.000000    0.000000
  0.024609218   -0.661195 -159.628326  -93.692599   23.518908    0.000000    0.000000    0.000000    0.000000
  0.024809619   -0.678517 -161.273697  -93.697094   21.691311    0.000000    0.000000    0.000000    0.000000
  0.025010020   -0.696874 -162.918442  -93.637908   20.503397    0.000000    0.000000    0.000000    0.000000
  0.025210421   -0.715153 -164.580673  -94.015847   13.440282    0.000000    0.000000    0.000000    0.000000
  0.025410822   -0.734474 -166.255554  -94.344265   21.281029    0.000000    0.000000    0.000000    0.000000
  0.025611222   -0.752350 -167.949463  -94.610805   21.384953    0.000000    0.000000    0.000000    0.000000
  0.025811623   -0.768295 -169.680023  -93.947556   16.271626    0.000000    0.000000    0.000000    0.000000
  0.026012024   -0.779217 -171.408096  -94.691558   20.034674    0.000000    0.000000    0.000000    0.000000
  0.026212425   -0.790669 -173.142090  -95.305839   19.059649    0.000000    0.000000    0.000000    0.000000
  0.026412826   -0.802147 -174.872711  -95.177690   15.301189    0.000000    0.000000    0.000000    0.000000
  0.026613226   -0.814208 -176.629272  -96.280861   21.453403    0.000000    0.000000    0.000000    0.000000
  0.026813627   -0.826954 -178.394180  -96.021387   16.573795    0.000000    0.000000    0.000000    0.000000
  0.027014028   -0.837821  179.844528  -95.629730   20.944218    0.000000    0.000000    0.000000    0.000000
  0.027214429   -0.847352  178.060883  -96.353127   17.963581    0.000000    0.000000    0.000000    0.000000
  0.027414830   -0.855731  176.267731  -96.121696   19.319078    0.000000    0.000000    0.000000    0.000000
  0.027615230   -0.863560  174.474762  -95.519010   25.304743    0.000000    0.000000    0.000000    0.000000
  0.027815631   -0.873245  172.665512  -95.875245   27.690386    0.000000    0.000000    0.000000    0.000000
  0.028016032   -0.884812  170.849335  -97.063628   24.032009    0.000000    0.000000    0.000000    0.000000
  0.028216433   -0.894966  169.018738  -97.322692   21.935673    0.000000    0.000000    0.000000    0.000000
  0.028416834   -0.905381  167.190811  -96.644516   21.788540    0.000000    0.000000    0.000000    0.000000
  0.028617234   -0.914325  165.369995  -96.017511   24.726725    0.000000    0.000000    0.000000    0.000000
  0.028817635   -0.928533  163.553467  -96.148971   22.194469    0.000000    0.000000    0.000000    0.000000
  0.029018036   -0.938423  161.747528  -96.420493   22.993906    0.000000    0.000000    0.000000    0.000000
  0.029218437   -0.950359  159.942703  -96.118232   20.540253    0.000000    0.000000    0.000000    0.000000
  0.029418838   -0.966276  158.131119  -95.923377   21.702295    0.000000    0.000000    0.000000    0.000000
  0.029619238   -0.984100  156.308380  -95.651067   17.825939    0.000000    0.000000    0.000000    0.000000
  0.029819639   -1.007378  154.466400  -96.700995   21.089886    0.000000    0.000000    0.000000    0.000000
  0.030020040   -1.032168  152.586502  -96.194502   19.106712    0.000000    0.000000    0.000000    0.000000
  0.030220441   -1.057670  150.704468  -95.916878   16.822130    0.000000    0.000000    0.000000    0.000000
  0.030420842   -1.085613  148.801498  -97.263339   13.553969    0.000000    0.000000    0.000000    0.000000
  0.030621242   -1.115192  146.923233  -96.698106    9.544711    0.000000    0.000000    0.000000    0.000000
  0.030821643   -1.150676  145.030746  -96.739917    9.668343    0.000000    0.000000    0.000000    0.000000
  0.031022044   -1.185756  143.142975  -97.748971   14.479611    0.000000    0.000000    0.000000    0.000000
  0.031222445   -1.221095  141.242065  -96.156281   14.372960    0.000000    0.000000    0.000000    0.000000
  0.031422846   -1.261559  139.311371  -97.188254   21.468500    0.000000    0.000000    0.000000    0.000000
  0.031623246   -1.305704  137.345932  -97.943589   11.133685    0.000000    0.000000    0.000000    0.000000
  0.031823647   -1.346637  135.351898  -97.060693    8.651829    0.000000    0.000000    0.000000    0.000000
  0.032024048   -1.388901  133.384537  -96.331318   22.907644    0.000000    0.000000    0.000000    0.000000
  0.032224449   -1.429513  131.401672  -96.914428   11.753999    0.000000    0.000000    0.000000    0.000000
  0.032424850   -1.474306  129.428711  -98.825417   14.760403    0.000000    0.000000    0.000000    0.000000
  0.032625251   -1.515732  127.456245  -97.926767    4.625340    0.000000    0.000000    0.000000    0.000000
  0.032825651   -1.560537  125.478432  -98.730326   10.404431    0.000000    0.000000    0.000000    0.000000
  0.033026052   -1.609242  123.528534  -97.508898    8.784333    0.000000    0.000000    0.000000    0.000000
  0.033226453   -1.657513  121.541634  -97.640544   13.276296    0.000000    0.000000    0.000000    0.000000
  0.033426854   -1.710199  119.550797  -98.051535   13.328219    0.000000    0.000000    0.000000    0.000000
  0.033627255   -1.767561  117.545166  -97.757335    7.084185    0.000000    0.000000    0.000000    0.000000
  0.033827655   -1.825979  115.503426  -97.705632   12.963489    0.000000    0.000000    0.000000    0.000000
  0.034028056   -1.878326  113.443169  -97.870099    8.670636    0.000000    0.000000    0.000000    0.000000
  0.034228457   -1.932231  111.325676  -97.093009   11.717512    0.000000    0.000000    0.000000    0.000000
  0.034428858   -1.980193  109.196152  -98.372303   12.010967    0.000000    0.000000    0.000000    0.000000
  0.034629259   -2.030219  107.032814  -97.696090   14.494017    0.000000    0.000000    0.000000    0.000000
  0.034829659   -2.072600  104.891365  -98.587201   10.713582    0.000000    0.000000    0.000000    0.000000
  0.035030060   -2.112065  102.777275  -98.075894   15.010587    0.000000    0.000000    0.000000    0.000000
  0.035230461   -2.149289  100.668556  -98.387374    5.846728    0.000000    0.000000    0.000000    0.000000
  0.035430862   -2.189247   98.535721  -98.621904    6.920488    0.000000    0.000000    0.000000    0.000000
  0.035631263   -2.223989   96.439003  -98.018149   13.497286    0.000000    0.000000    0.000000    0.000000
  0.035831663   -2.257399   94.357826  -98.679805   13.359434    0.000000    0.000000    0.000000    0.000000
  0.036032064   -2.295868   92.291023  -99.839828   14.411533    0.000000    0.000000    0.000000    0.000000
  0.036232465   -2.333143   90.227501 -100.013558    5.574141    0.000000    0.000000    0.000000    0.000000
  0.036432866   -2.372472   88.171394  -97.877602    7.838979    0.000000    0.000000    0.000000    0.000000
  0.036633267   -2.414048   86.159561  -99.974222    9.695644    0.000000    0.000000    0.000000    0.000000
  0.036833667   -2.461447   84.117744 -100.116280    9.518970    0.000000    0.000000    0.000000    0.000000
  0.037034068   -2.511108   82.078308  -99.653708    3.466171    0.000000    0.000000    0.000000    0.000000
  0.037234469   -2.565036   80.028091  -98.834418    3.745709    0.000000    0.000000    0.000000    0.000000
  0.037434870   -2.621679   77.958954 -100.169339    7.365422    0.000000    0.000000    0.000000    0.000000
  0.037635271   -2.678237   75.897423  -99.436052   10.144206    0.000000    0.000000    0.000000    0.000000
  0.037835671   -2.736907   73.788193 -100.074834    1.807690    0.000000    0.000000    0.000000    0.000000
  0.038036072   -2.796296   71.669731 -100.381209   13.187230    0.000000    0.000000    0.000000    0.000000
  0.038236473   -2.853576   69.572266 -100.177891    7.477636    0.000000    0.000000    0.000000    0.000000
  0.038436874   -2.910523   67.456245 -100.182961   10.352919    0.000000    0.000000    0.000000    0.000000
  0.038637275   -2.965429   65.360146  -99.214048   16.662497    0.000000    0.000000    0.000000    0.000000
  0.038837675   -3.021603   63.269238 -100.556412    6.543107    0.000000    0.000000    0.000000    0.000000
  0.039038076   -3.071694   61.220665 -101.573844   11.240096    0.000000    0.000000    0.000000    0.000000
  0.039238477   -3.125773   59.220676 -101.310043    9.694412    0.000000    0.000000    0.000000    0.000000
  0.039438878   -3.181648   57.218006  -99.530129   16.487854    0.000000    0.000000    0.000000    0.000000
  0.039639279   -3.246648   55.231281  -99.958610    4.902901    0.000000    0.000000    0.000000    0.000000
  0.039839679   -3.315229   53.203201 -100.646186   -5.260598    0.000000    0.000000    0.000000    0.000000
  0.040040080   -3.386827   51.192192  -99.842006   10.165511    0.000000    0.000000    0.000000    0.000000
  0.040240481   -3.460645   49.165588  -99.538905   16.636116    0.000000    0.000000    0.000000    0.000000
  0.040440882   -3.534656   47.115166  -99.257141   14.538195    0.000000    0.000000    0.000000    0.000000
  0.040641283   -3.610155   45.080608 -101.835595   -5.807149    0.000000    0.000000    0.000000    0.000000
  0.040841683   -3.678109   43.007420 -100.989612    7.162138    0.000000    0.000000    0.000000    0.000000
  0.041042084   -3.750461   40.964691 -100.001662    5.692631    0.000000    0.000000    0.000000    0.000000
  0.041242485   -3.820923   38.900856 -101.390594    6.406087    0.000000    0.000000    0.000000    0.000000
  0.041442886   -3.890788   36.810459  -99.799195    3.651726    0.000000    0.000000    0.000000    0.000000
  0.041643287   -3.953283   34.723049  -99.891023   -5.072255    0.000000    0.000000    0.000000    0.000000
  0.041843687   -4.016537   32.638908 -101.430352    0.563566    0.000000    0.000000    0.000000    0.000000
  0.042044088   -4.074680   30.590662 -100.833644    6.826725    0.000000    0.000000    0.000000    0.000000
  0.042244489   -4.130323   28.521156 -101.903936   -0.017590    0.000000    0.000000    0.000000    0.000000
  0.042444890   -4.185888   26.488838 -101.824037   -5.704530    0.000000    0.000000    0.000000    0.000000
  0.042645291   -4.238298   24.441668 -101.344053   -1.904083    0.000000    0.000000    0.000000    0.000000
  0.042845691   -4.288610   22.410940 -105.291514    9.445360    0.000000    0.000000    0.000000    0.000000
  0.043046092   -4.336214   20.381014 -103.134920   -6.294463    0.000000    0.000000    0.000000    0.000000
  0.043246493   -4.382512   18.350233 -102.395987    8.153314    0.000000    0.000000    0.000000    0.000000
  0.043446894   -4.427291   16.329731 -102.473033   14.827029    0.000000    0.000000    0.000000    0.000000
  0.043647295   -4.466867   14.331024 -103.727953    7.845609    0.000000    0.000000    0.000000    0.000000
  0.043847695   -4.508097   12.318438 -104.096258   -1.190242    0.000000    0.000000    0.000000    0.000000
  0.044048096   -4.547355   10.339162 -103.390171    4.691247    0.000000    0.000000    0.000000    0.000000
  0.044248497   -4.587334    8.352537 -103.227157   11.814508    0.000000    0.000000    0.000000    0.000000
  0.044448898   -4.622967    6.410235 -104.408522   10.142321    0.000000    0.000000    0.000000    0.000000
  0.044649299   -4.659548    4.458216 -102.234904   14.583199    0.000000    0.000000    0.000000    0.000000
  0.044849699   -4.692135    2.517956 -102.143571   14.042166    0.000000    0.000000    0.000000    0.000000
  0.045050100   -4.721006    0.584085 -100.643021   12.834452    0.000000    0.000000    0.000000    0.000000
  0.045250501   -4.752024   -1.318491 -100.647144   13.790251    0.000000    0.000000    0.000000    0.000000
  0.045450902   -4.781913   -3.188129 -101.026297    9.367298    0.000000    0.000000    0.000000    0.000000
  0.045651303   -4.814522   -5.055285 -100.210023   -0.743432    0.000000    0.000000    0.000000    0.000000
  0.045851703   -4.847448   -6.890851 -101.650078    9.223804    0.000000    0.000000    0.000000    0.000000
  0.046052104   -4.882344   -8.707215 -102.205682    2.550652    0.000000    0.000000    0.000000    0.000000
  0.046252505   -4.916387  -10.534915 -100.925752   18.821529    0.000000    0.000000    0.000000    0.000000
  0.046452906   -4.949465  -12.339421 -101.885318    3.844754    0.000000    0.000000    0.000000    0.000000
  0.046653307   -4.983230  -14.122171 -100.479161   -1.194567    0.000000    0.000000    0.000000    0.000000
  0.046853707   -5.019167  -15.913697 -101.098764    0.560885    0.000000    0.000000    0.000000    0.000000
  0.047054108   -5.053096  -17.700060 -102.062306    2.902433    0.000000    0.000000    0.000000    0.000000
  0.047254509   -5.090347  -19.470404 -101.092206    4.309062    0.000000    0.000000    0.000000    0.000000
  0.047454910   -5.125924  -21.230326 -101.592735   -6.687956    0.000000    0.000000    0.000000    0.000000
  0.047655311   -5.163188  -22.975674 -103.179713   -2.954404    0.000000    0.000000    0.000000    0.000000
  0.047855711   -5.203285  -24.677935 -102.002809    2.896337    0.000000    0.000000    0.000000    0.000000
  0.048056112   -5.244321  -26.390570 -103.449562    6.423479    0.000000    0.000000    0.000000    0.000000
  0.048256513   -5.286144  -28.099060 -102.568950    0.352593    0.000000    0.000000    0.000000    0.000000
  0.048456914   -5.328876  -29.825588 -103.691050    0.386708    0.000000    0.000000    0.000000    0.000000
  0.048657315   -5.367566  -31.546127 -105.811444   -8.621131    0.000000    0.000000    0.000000    0.000000
  0.048857715   -5.410148  -33.279758 -105.031442    0.349589    0.000000    0.000000    0.000000    0.000000
  0.049058116   -5.449302  -35.032314 -102.654900    8.792412    0.000000    0.000000    0.000000    0.000000
  0.049258517   -5.487451  -36.739044 -103.330297   14.529825    0.000000    0.000000    0.000000    0.000000
  0.049458918   -5.525377  -38.467197 -103.681432    5.169457    0.000000    0.000000    0.000000    0.000000
  0.049659319   -5.565945  -40.208012 -103.482852    9.333522    0.000000    0.000000    0.000000    0.000000
  0.049859719   -5.598598  -41.926682 -103.722042   10.445449    0.000000    0.000000    0.000000    0.000000
  0.050060120   -5.634096  -43.666847 -104.646908   18.672724    0.000000    0.000000    0.000000    0.000000
  0.050260521   -5.663629  -45.419861 -104.384881    7.787153    0.000000    0.000000    0.000000    0.000000
  0.050460922   -5.689099  -47.167198 -103.731548    5.197392    0.000000    0.000000    0.000000    0.000000
  0.050661323   -5.711873  -48.905937 -103.046701    3.092790    0.000000    0.000000    0.000000    0.000000
  0.050861723   -5.729893  -50.637402 -102.723206    4.771824    0.000000    0.000000    0.000000    0.000000
  0.051062124   -5.747435  -52.367386 -102.975580    6.630844    0.000000    0.000000    0.000000    0.000000
  0.051262525   -5.761507  -54.061466 -103.133341    7.097300    0.000000    0.000000    0.000000    0.000000
  0.051462926   -5.769630  -55.724525 -102.203026    2.830488    0.000000    0.000000    0.000000    0.000000
  0.051663327   -5.776260  -57.347347 -104.097630    5.503557    0.000000    0.000000    0.000000    0.000000
  0.051863727   -5.787047  -58.973362 -104.054426    6.360957    0.000000    0.000000    0.000000    0.000000
  0.052064128   -5.800517  -60.590588 -100.836882   -3.291844    0.000000    0.000000    0.000000    0.000000
  0.052264529   -5.802800  -62.206898 -102.461928   19.421139    0.000000    0.000000    0.000000    0.000000
  0.052464930   -5.807860  -63.778252 -101.692462    4.172764    0.000000    0.000000    0.000000    0.000000
  0.052665331   -5.815790  -65.418777 -101.678097   12.483966    0.000000    0.000000    0.000000    0.000000
  0.052865731   -5.817849  -67.000793 -100.650277   -1.261239    0.000000    0.000000    0.000000    0.000000
