! Anritsu VNA Master:                     Model: MS2036C/10/77
! SN:                                  1601066
! /bd0/18may8/255.ns.m4.s2p
! Existing Calibration Information:
! TYPE:                         Current Settings,       Active Cal Settings
! TIME:             	   05/08/2018 11:07:46 AM,    05/08/2018 10:55:57 AM
! INTERNAL TEMP:    	                   50.8 C,                    49.3 C
! # POINTS:         	                      500,                       500
! START FREQ:       	               20.000 MHz,                20.000 MHz
! STOP FREQ:        	              120.000 MHz,               120.000 MHz
! SOURCE POWER:     	                     High,                      High
! IFBW:             	                    50 Hz,                     50 Hz
! AVG FACTOR:       	                       1 ,                        1 
! REF PLANE 1:      	                     0 mm,                      0 mm
! REF PLANE 2:      	                     0 mm,                      0 mm
! CAL TYPE:         	                 Full S11,                  Full S11
! CAL METHOD:       	                     SOLT,                      SOLT
! CAL LINE TYPE:    	                     Coax,                      Coax
! DUT PORT 1:       	                K-Conn(F),                 K-Conn(F)
! DUT PORT 2:       	                K-Conn(F),                 K-Conn(F)
! CAL STATUS:       	        OK: Accuracy High,                        --
# GHZ S DB R 50.0
! FREQ.GHZ       S11DB        S11A       S21DB        S21A       S12DB        S12A       S22DB        S22A
  0.020000000   -0.668791 -124.137581  -91.094947   31.399984    0.000000    0.000000    0.000000    0.000000
  0.020200401   -0.669933 -125.566574  -91.006142   31.448475    0.000000    0.000000    0.000000    0.000000
  0.020400802   -0.673165 -126.991058  -91.457448   30.658253    0.000000    0.000000    0.000000    0.000000
  0.020601202   -0.678361 -128.448914  -91.935222   30.122559    0.000000    0.000000    0.000000    0.000000
  0.020801603   -0.684143 -129.937958  -92.102145   31.795429    0.000000    0.000000    0.000000    0.000000
  0.021002004   -0.693988 -131.442886  -92.230433   28.672075    0.000000    0.000000    0.000000    0.000000
  0.021202405   -0.702813 -132.973709  -93.241408   29.835196    0.000000    0.000000    0.000000    0.000000
  0.021402806   -0.711346 -134.508911  -92.732766   28.769707    0.000000    0.000000    0.000000    0.000000
  0.021603206   -0.714924 -136.029282  -93.699988   27.075050    0.000000    0.000000    0.000000    0.000000
  0.021803607   -0.720820 -137.558395  -92.751764   28.976696    0.000000    0.000000    0.000000    0.000000
  0.022004008   -0.725228 -139.093018  -93.622839   30.913067    0.000000    0.000000    0.000000    0.000000
  0.022204409   -0.728510 -140.659744  -93.685467   32.155659    0.000000    0.000000    0.000000    0.000000
  0.022404810   -0.730422 -142.227493  -94.060147   36.235077    0.000000    0.000000    0.000000    0.000000
  0.022605210   -0.733520 -143.825653  -93.210024   38.878143    0.000000    0.000000    0.000000    0.000000
  0.022805611   -0.734015 -145.431183  -92.609596   31.925291    0.000000    0.000000    0.000000    0.000000
  0.023006012   -0.733739 -147.017868  -93.979546   34.748806    0.000000    0.000000    0.000000    0.000000
  0.023206413   -0.730911 -148.591614  -92.601508   30.370443    0.000000    0.000000    0.000000    0.000000
  0.023406814   -0.727785 -150.158188  -92.874134   34.855068    0.000000    0.000000    0.000000    0.000000
  0.023607214   -0.727711 -151.738281  -92.991983   32.724487    0.000000    0.000000    0.000000    0.000000
  0.023807615   -0.728712 -153.316788  -92.493308   27.648918    0.000000    0.000000    0.000000    0.000000
  0.024008016   -0.733279 -154.931168  -92.784970   24.084955    0.000000    0.000000    0.000000    0.000000
  0.024208417   -0.737483 -156.545044  -92.895624   31.559938    0.000000    0.000000    0.000000    0.000000
  0.024408818   -0.740176 -158.160965  -93.302191   26.428223    0.000000    0.000000    0.000000    0.000000
  0.024609218   -0.741589 -159.790588  -92.975127   27.852983    0.000000    0.000000    0.000000    0.000000
  0.024809619   -0.746142 -161.400894  -93.604652   23.355362    0.000000    0.000000    0.000000    0.000000
  0.025010020   -0.751894 -163.029068  -93.419879   21.406738    0.000000    0.000000    0.000000    0.000000
  0.025210421   -0.758318 -164.656357  -93.696427   24.165462    0.000000    0.000000    0.000000    0.000000
  0.025410822   -0.768497 -166.297928  -94.137561   19.282501    0.000000    0.000000    0.000000    0.000000
  0.025611222   -0.777638 -167.975052  -94.394875   14.174290    0.000000    0.000000    0.000000    0.000000
  0.025811623   -0.787149 -169.663788  -94.408061   16.383951    0.000000    0.000000    0.000000    0.000000
  0.026012024   -0.795467 -171.367615  -94.090237   19.248842    0.000000    0.000000    0.000000    0.000000
  0.026212425   -0.803002 -173.067856  -95.290093   17.096451    0.000000    0.000000    0.000000    0.000000
  0.026412826   -0.816308 -174.777374  -95.731114   14.527078    0.000000    0.000000    0.000000    0.000000
  0.026613226   -0.831309 -176.502777  -95.662880   12.797116    0.000000    0.000000    0.000000    0.000000
  0.026813627   -0.847014 -178.242310  -95.504559   24.602324    0.000000    0.000000    0.000000    0.000000
  0.027014028   -0.863919 -179.989502  -95.135147   18.019390    0.000000    0.000000    0.000000    0.000000
  0.027214429   -0.880483  178.248306  -96.789655   18.562077    0.000000    0.000000    0.000000    0.000000
  0.027414830   -0.899274  176.465088  -96.988986   20.664017    0.000000    0.000000    0.000000    0.000000
  0.027615230   -0.918306  174.675446  -96.231411   25.801285    0.000000    0.000000    0.000000    0.000000
  0.027815631   -0.941487  172.880478  -96.874349   23.710375    0.000000    0.000000    0.000000    0.000000
  0.028016032   -0.964640  171.043900  -95.734727   26.106878    0.000000    0.000000    0.000000    0.000000
  0.028216433   -0.989899  169.213669  -96.615133   17.235472    0.000000    0.000000    0.000000    0.000000
  0.028416834   -1.013891  167.380569  -96.896856   23.795393    0.000000    0.000000    0.000000    0.000000
  0.028617234   -1.037601  165.541504  -96.496719   25.443972    0.000000    0.000000    0.000000    0.000000
  0.028817635   -1.058997  163.703995  -95.573982   19.981873    0.000000    0.000000    0.000000    0.000000
  0.029018036   -1.081603  161.878387  -96.456430   21.850191    0.000000    0.000000    0.000000    0.000000
  0.029218437   -1.105714  160.056458  -96.769650   16.146847    0.000000    0.000000    0.000000    0.000000
  0.029418838   -1.129796  158.225479  -96.817522   21.751366    0.000000    0.000000    0.000000    0.000000
  0.029619238   -1.155873  156.380463  -95.633757   16.100195    0.000000    0.000000    0.000000    0.000000
  0.029819639   -1.185807  154.519913  -96.075876   15.613963    0.000000    0.000000    0.000000    0.000000
  0.030020040   -1.215889  152.630569  -96.400484    9.643517    0.000000    0.000000    0.000000    0.000000
  0.030220441   -1.244487  150.719009  -96.906159   14.512771    0.000000    0.000000    0.000000    0.000000
  0.030420842   -1.272485  148.811401  -96.575416   13.481264    0.000000    0.000000    0.000000    0.000000
  0.030621242   -1.301917  146.918472  -96.687597   16.699656    0.000000    0.000000    0.000000    0.000000
  0.030821643   -1.331951  145.036560  -97.043712   10.365474    0.000000    0.000000    0.000000    0.000000
  0.031022044   -1.365069  143.128403  -97.142174   10.953207    0.000000    0.000000    0.000000    0.000000
  0.031222445   -1.395310  141.230682  -96.124216   13.391201    0.000000    0.000000    0.000000    0.000000
  0.031422846   -1.427876  139.276871  -97.027478    6.196263    0.000000    0.000000    0.000000    0.000000
  0.031623246   -1.461413  137.305420  -96.150903   14.920518    0.000000    0.000000    0.000000    0.000000
  0.031823647   -1.494097  135.327011  -98.260534   18.232130    0.000000    0.000000    0.000000    0.000000
  0.032024048   -1.523651  133.351990  -98.058447    9.539622    0.000000    0.000000    0.000000    0.000000
  0.032224449   -1.552278  131.394363  -96.814625    6.373288    0.000000    0.000000    0.000000    0.000000
  0.032424850   -1.582009  129.430038  -97.558380   13.769771    0.000000    0.000000    0.000000    0.000000
  0.032625251   -1.612073  127.443642  -98.714771   11.352427    0.000000    0.000000    0.000000    0.000000
  0.032825651   -1.645052  125.489464  -97.916921   10.838723    0.000000    0.000000    0.000000    0.000000
  0.033026052   -1.679883  123.540825  -98.983295    7.814017    0.000000    0.000000    0.000000    0.000000
  0.033226453   -1.720576  121.555473  -98.955762   18.233913    0.000000    0.000000    0.000000    0.000000
  0.033426854   -1.763900  119.573349  -98.634667   13.779174    0.000000    0.000000    0.000000    0.000000
  0.033627255   -1.811896  117.572784  -98.087390   10.608665    0.000000    0.000000    0.000000    0.000000
  0.033827655   -1.861973  115.547935  -98.860533    1.763062    0.000000    0.000000    0.000000    0.000000
  0.034028056   -1.910685  113.467361  -99.108429   19.082117    0.000000    0.000000    0.000000    0.000000
  0.034228457   -1.959005  111.387344  -98.383260   16.839703    0.000000    0.000000    0.000000    0.000000
  0.034428858   -2.006603  109.246208  -98.280279   10.902250    0.000000    0.000000    0.000000    0.000000
  0.034629259   -2.052027  107.118851  -97.759159   14.728775    0.000000    0.000000    0.000000    0.000000
  0.034829659   -2.097400  104.994202  -97.477731   11.466639    0.000000    0.000000    0.000000    0.000000
  0.035030060   -2.143097  102.878914  -98.174486   12.851242    0.000000    0.000000    0.000000    0.000000
  0.035230461   -2.186471  100.754387  -98.696500    3.794235    0.000000    0.000000    0.000000    0.000000
  0.035430862   -2.229892   98.678619  -97.522090    6.978666    0.000000    0.000000    0.000000    0.000000
  0.035631263   -2.274264   96.604485  -98.458960    4.222347    0.000000    0.000000    0.000000    0.000000
  0.035831663   -2.321072   94.544914  -97.289255   13.491377    0.000000    0.000000    0.000000    0.000000
  0.036032064   -2.367641   92.495148  -99.206856   -1.369638    0.000000    0.000000    0.000000    0.000000
  0.036232465   -2.420607   90.464928  -99.581262   -0.000247    0.000000    0.000000    0.000000    0.000000
  0.036432866   -2.471291   88.459488  -99.012040    4.039972    0.000000    0.000000    0.000000    0.000000
  0.036633267   -2.528257   86.445892  -99.819062   -1.642727    0.000000    0.000000    0.000000    0.000000
  0.036833667   -2.591677   84.443291  -99.092484    1.860175    0.000000    0.000000    0.000000    0.000000
  0.037034068   -2.653170   82.429520  -99.700991   11.257497    0.000000    0.000000    0.000000    0.000000
  0.037234469   -2.721841   80.361305  -98.333567    2.690051    0.000000    0.000000    0.000000    0.000000
  0.037434870   -2.789090   78.290329  -98.609595   12.022150    0.000000    0.000000    0.000000    0.000000
  0.037635271   -2.856237   76.223282 -100.079524    4.195389    0.000000    0.000000    0.000000    0.000000
  0.037835671   -2.925649   74.113228 -100.273541   14.105152    0.000000    0.000000    0.000000    0.000000
  0.038036072   -2.990415   71.987236 -100.182508    6.166233    0.000000    0.000000    0.000000    0.000000
  0.038236473   -3.055229   69.862129  -99.905713    4.484103    0.000000    0.000000    0.000000    0.000000
  0.038436874   -3.117595   67.724380  -99.852455   10.560358    0.000000    0.000000    0.000000    0.000000
  0.038637275   -3.174709   65.596535  -99.704821    4.936648    0.000000    0.000000    0.000000    0.000000
  0.038837675   -3.224535   63.480488 -101.766300   14.532229    0.000000    0.000000    0.000000    0.000000
  0.039038076   -3.273810   61.384640 -101.503965   19.394205    0.000000    0.000000    0.000000    0.000000
  0.039238477   -3.322514   59.314201  -99.077223    0.581918    0.000000    0.000000    0.000000    0.000000
  0.039438878   -3.376368   57.282459 -100.045877    6.499949    0.000000    0.000000    0.000000    0.000000
  0.039639279   -3.431901   55.249832 -100.484700   16.776354    0.000000    0.000000    0.000000    0.000000
  0.039839679   -3.489268   53.192917  -99.920047   12.543782    0.000000    0.000000    0.000000    0.000000
  0.040040080   -3.547023   51.116642  -99.657920    9.022124    0.000000    0.000000    0.000000    0.000000
  0.040240481   -3.606965   49.039833  -98.811312    9.051604    0.000000    0.000000    0.000000    0.000000
  0.040440882   -3.670359   46.956905  -99.739253   19.955326    0.000000    0.000000    0.000000    0.000000
  0.040641283   -3.729040   44.851376 -100.316916    0.422804    0.000000    0.000000    0.000000    0.000000
  0.040841683   -3.781991   42.761673  -99.727954    8.958309    0.000000    0.000000    0.000000    0.000000
  0.041042084   -3.839389   40.686584 -101.940908    5.834283    0.000000    0.000000    0.000000    0.000000
  0.041242485   -3.890809   38.600441  -99.820218    1.689732    0.000000    0.000000    0.000000    0.000000
  0.041442886   -3.943755   36.512798  -99.926194    0.779846    0.000000    0.000000    0.000000    0.000000
  0.041643287   -3.995447   34.414524 -100.664829    3.909618    0.000000    0.000000    0.000000    0.000000
  0.041843687   -4.046608   32.350212 -102.522843  -15.234634    0.000000    0.000000    0.000000    0.000000
  0.042044088   -4.091268   30.289907 -102.011380    1.210795    0.000000    0.000000    0.000000    0.000000
  0.042244489   -4.138302   28.270218 -101.584777   -7.774993    0.000000    0.000000    0.000000    0.000000
  0.042444890   -4.187665   26.267015  -99.945785   -2.315074    0.000000    0.000000    0.000000    0.000000
  0.042645291   -4.236354   24.285162 -102.069479    6.792254    0.000000    0.000000    0.000000    0.000000
  0.042845691   -4.284165   22.322865 -102.028788   11.063229    0.000000    0.000000    0.000000    0.000000
  0.043046092   -4.332056   20.357843 -102.018714   -5.660963    0.000000    0.000000    0.000000    0.000000
  0.043246493   -4.381326   18.382231 -100.724930   15.085796    0.000000    0.000000    0.000000    0.000000
  0.043446894   -4.431225   16.464268 -104.035669   -0.882717    0.000000    0.000000    0.000000    0.000000
  0.043647295   -4.479548   14.522355 -101.803109    5.738974    0.000000    0.000000    0.000000    0.000000
  0.043847695   -4.533385   12.597606 -102.942418    1.552444    0.000000    0.000000    0.000000    0.000000
  0.044048096   -4.585552   10.686691 -102.151375   13.386228    0.000000    0.000000    0.000000    0.000000
  0.044248497   -4.639515    8.795989 -102.564080    6.485206    0.000000    0.000000    0.000000    0.000000
  0.044448898   -4.694269    6.889904 -103.602713   23.648443    0.000000    0.000000    0.000000    0.000000
  0.044649299   -4.743494    4.997395 -101.548274   17.130814    0.000000    0.000000    0.000000    0.000000
  0.044849699   -4.795587    3.090430 -101.915351    4.915692    0.000000    0.000000    0.000000    0.000000
  0.045050100   -4.842811    1.205099 -100.019390    5.157846    0.000000    0.000000    0.000000    0.000000
  0.045250501   -4.889795   -0.684403 -101.348442    6.206387    0.000000    0.000000    0.000000    0.000000
  0.045450902   -4.933648   -2.571376 -100.498125    9.304872    0.000000    0.000000    0.000000    0.000000
  0.045651303   -4.979885   -4.431555 -101.359133   15.127210    0.000000    0.000000    0.000000    0.000000
  0.045851703   -5.026526   -6.279459 -101.272422   13.016315    0.000000    0.000000    0.000000    0.000000
  0.046052104   -5.074428   -8.149450 -100.652623    4.639330    0.000000    0.000000    0.000000    0.000000
  0.046252505   -5.117345   -9.984891 -101.058479   11.666781    0.000000    0.000000    0.000000    0.000000
  0.046452906   -5.162883  -11.835617  -99.885807    4.979296    0.000000    0.000000    0.000000    0.000000
  0.046653307   -5.202444  -13.701221 -100.191949    3.236801    0.000000    0.000000    0.000000    0.000000
  0.046853707   -5.240487  -15.554636 -100.482793   -3.511510    0.000000    0.000000    0.000000    0.000000
  0.047054108   -5.275868  -17.386116 -101.748112   -2.140900    0.000000    0.000000    0.000000    0.000000
  0.047254509   -5.311983  -19.241539 -101.331957    0.647745    0.000000    0.000000    0.000000    0.000000
  0.047454910   -5.344255  -21.082218 -100.812673   -0.092844    0.000000    0.000000    0.000000    0.000000
  0.047655311   -5.372445  -22.886272 -103.180095   -2.587930    0.000000    0.000000    0.000000    0.000000
  0.047855711   -5.398612  -24.676430 -100.566437    6.629006    0.000000    0.000000    0.000000    0.000000
  0.048056112   -5.427171  -26.460901 -102.071302   -8.883353    0.000000    0.000000    0.000000    0.000000
  0.048256513   -5.455510  -28.254461 -102.668134   -5.937618    0.000000    0.000000    0.000000    0.000000
  0.048456914   -5.478367  -30.020866 -105.497883  -11.316492    0.000000    0.000000    0.000000    0.000000
  0.048657315   -5.503293  -31.795856 -105.332070   -4.569316    0.000000    0.000000    0.000000    0.000000
  0.048857715   -5.524450  -33.553608 -104.212174   -4.138341    0.000000    0.000000    0.000000    0.000000
  0.049058116   -5.545382  -35.336567 -103.525489   -6.403540    0.000000    0.000000    0.000000    0.000000
  0.049258517   -5.564675  -37.075443 -102.575781   -4.946985    0.000000    0.000000    0.000000    0.000000
  0.049458918   -5.582014  -38.775677 -106.186804    6.455795    0.000000    0.000000    0.000000    0.000000
  0.049659319   -5.601704  -40.500240 -102.014760   -2.354655    0.000000    0.000000    0.000000    0.000000
  0.049859719   -5.621414  -42.196167 -103.875752   10.146914    0.000000    0.000000    0.000000    0.000000
  0.050060120   -5.642724  -43.887836 -104.337446   13.034193    0.000000    0.000000    0.000000    0.000000
  0.050260521   -5.655967  -45.588646 -102.686531    9.726233    0.000000    0.000000    0.000000    0.000000
  0.050460922   -5.670379  -47.259418 -102.595819   -1.905480    0.000000    0.000000    0.000000    0.000000
  0.050661323   -5.685159  -48.940887 -101.928292   23.351448    0.000000    0.000000    0.000000    0.000000
  0.050861723   -5.701197  -50.587822 -100.736111    1.667059    0.000000    0.000000    0.000000    0.000000
  0.051062124   -5.712860  -52.211021 -103.799814   14.884168    0.000000    0.000000    0.000000    0.000000
  0.051262525   -5.727558  -53.802834 -102.862030    7.181591    0.000000    0.000000    0.000000    0.000000
  0.051462926   -5.739798  -55.369347 -102.567541    9.398711    0.000000    0.000000    0.000000    0.000000
  0.051663327   -5.754748  -56.906975 -101.663826   11.854015    0.000000    0.000000    0.000000    0.000000
  0.051863727   -5.773869  -58.458935 -102.936231    2.029687    0.000000    0.000000    0.000000    0.000000
  0.052064128   -5.792202  -59.997555 -100.311024  -12.504473    0.000000    0.000000    0.000000    0.000000
  0.052264529   -5.812294  -61.525608 -102.566398  -10.880656    0.000000    0.000000    0.000000    0.000000
  0.052464930   -5.832361  -63.053520 -102.836104   -1.083269    0.000000    0.000000    0.000000    0.000000
  0.052665331   -5.857473  -64.625076 -103.782512    2.721157    0.000000    0.000000    0.000000    0.000000
  0.052865731   -5.881541  -66.140572 -101.677429   -6.789444    0.000000    0.000000    0.000000    0.000000
