! Anritsu VNA Master:                     Model: MS2036C/10/77
! SN:                                  1601066
! /bd0/18may8/255.ns.s.s2p
! Existing Calibration Information:
! TYPE:                         Current Settings,       Active Cal Settings
! TIME:             	   05/08/2018 11:26:39 AM,    05/08/2018 11:16:31 AM
! INTERNAL TEMP:    	                   51.8 C,                    51.3 C
! # POINTS:         	                      500,                       500
! START FREQ:       	               20.000 MHz,                20.000 MHz
! STOP FREQ:        	              120.000 MHz,               120.000 MHz
! SOURCE POWER:     	                     High,                      High
! IFBW:             	                    50 Hz,                     50 Hz
! AVG FACTOR:       	                       1 ,                        1 
! REF PLANE 1:      	                     0 mm,                      0 mm
! REF PLANE 2:      	                     0 mm,                      0 mm
! CAL TYPE:         	                 Full S11,                  Full S11
! CAL METHOD:       	                     SOLT,                      SOLT
! CAL LINE TYPE:    	                     Coax,                      Coax
! DUT PORT 1:       	                K-Conn(F),                 K-Conn(F)
! DUT PORT 2:       	                K-Conn(F),                 K-Conn(F)
! CAL STATUS:       	        OK: Accuracy High,                        --
# GHZ S DB R 50.0
! FREQ.GHZ       S11DB        S11A       S21DB        S21A       S12DB        S12A       S22DB        S22A
  0.020000000   -0.769751 -124.025963  -91.478011   28.761690    0.000000    0.000000    0.000000    0.000000
  0.020200401   -0.788224 -125.466110  -91.315181   29.226168    0.000000    0.000000    0.000000    0.000000
  0.020400802   -0.808956 -126.902878  -91.599795   26.427794    0.000000    0.000000    0.000000    0.000000
  0.020601202   -0.831057 -128.358047  -91.596855   31.942900    0.000000    0.000000    0.000000    0.000000
  0.020801603   -0.853330 -129.840759  -92.348187   29.411129    0.000000    0.000000    0.000000    0.000000
  0.021002004   -0.877406 -131.367676  -92.155466   29.397598    0.000000    0.000000    0.000000    0.000000
  0.021202405   -0.898199 -132.908447  -93.030788   28.481424    0.000000    0.000000    0.000000    0.000000
  0.021402806   -0.915564 -134.455002  -92.815071   29.202169    0.000000    0.000000    0.000000    0.000000
  0.021603206   -0.932957 -136.013062  -93.827402   34.753139    0.000000    0.000000    0.000000    0.000000
  0.021803607   -0.942986 -137.576767  -92.907988   33.800194    0.000000    0.000000    0.000000    0.000000
  0.022004008   -0.950608 -139.123856  -92.873262   31.427507    0.000000    0.000000    0.000000    0.000000
  0.022204409   -0.955971 -140.706696  -92.758279   32.435131    0.000000    0.000000    0.000000    0.000000
  0.022404810   -0.956375 -142.311249  -92.632754   36.304539    0.000000    0.000000    0.000000    0.000000
  0.022605210   -0.953102 -143.933594  -93.315774   31.691727    0.000000    0.000000    0.000000    0.000000
  0.022805611   -0.947804 -145.526810  -92.536045   38.074009    0.000000    0.000000    0.000000    0.000000
  0.023006012   -0.937582 -147.147049  -93.049886   33.008835    0.000000    0.000000    0.000000    0.000000
  0.023206413   -0.923174 -148.744324  -93.333997   37.363800    0.000000    0.000000    0.000000    0.000000
  0.023406814   -0.905026 -150.341339  -92.712428   31.019936    0.000000    0.000000    0.000000    0.000000
  0.023607214   -0.888122 -151.914230  -92.666687   34.279118    0.000000    0.000000    0.000000    0.000000
  0.023807615   -0.871091 -153.521606  -92.902978   31.957413    0.000000    0.000000    0.000000    0.000000
  0.024008016   -0.856743 -155.115265  -92.585674   26.782646    0.000000    0.000000    0.000000    0.000000
  0.024208417   -0.841993 -156.723770  -93.319040   23.679806    0.000000    0.000000    0.000000    0.000000
  0.024408818   -0.827479 -158.333710  -93.463617   23.991556    0.000000    0.000000    0.000000    0.000000
  0.024609218   -0.811628 -159.945007  -93.407909   25.839758    0.000000    0.000000    0.000000    0.000000
  0.024809619   -0.797885 -161.556870  -93.809722   18.192291    0.000000    0.000000    0.000000    0.000000
  0.025010020   -0.787412 -163.162277  -94.146468   22.480017    0.000000    0.000000    0.000000    0.000000
  0.025210421   -0.781446 -164.770493  -93.722107   21.962799    0.000000    0.000000    0.000000    0.000000
  0.025410822   -0.776292 -166.387253  -94.486070   18.265621    0.000000    0.000000    0.000000    0.000000
  0.025611222   -0.775749 -168.021896  -94.959604   21.758858    0.000000    0.000000    0.000000    0.000000
  0.025811623   -0.777021 -169.686401  -94.292918   17.793201    0.000000    0.000000    0.000000    0.000000
  0.026012024   -0.777895 -171.353882  -94.854724   14.412989    0.000000    0.000000    0.000000    0.000000
  0.026212425   -0.784235 -173.019913  -95.237670   17.288177    0.000000    0.000000    0.000000    0.000000
  0.026412826   -0.794321 -174.683960  -96.086339    8.470465    0.000000    0.000000    0.000000    0.000000
  0.026613226   -0.811388 -176.376389  -95.120615   16.115597    0.000000    0.000000    0.000000    0.000000
  0.026813627   -0.832840 -178.093033  -96.457274   17.990335    0.000000    0.000000    0.000000    0.000000
  0.027014028   -0.857749 -179.802185  -95.896455   18.149620    0.000000    0.000000    0.000000    0.000000
  0.027214429   -0.885746  178.465500  -97.086224   23.502707    0.000000    0.000000    0.000000    0.000000
  0.027414830   -0.917042  176.712219  -96.178912   22.294512    0.000000    0.000000    0.000000    0.000000
  0.027615230   -0.950975  174.951843  -96.466446   20.914986    0.000000    0.000000    0.000000    0.000000
  0.027815631   -0.989965  173.158142  -95.803137   29.659086    0.000000    0.000000    0.000000    0.000000
  0.028016032   -1.033375  171.353745  -95.685971   25.244968    0.000000    0.000000    0.000000    0.000000
  0.028216433   -1.076997  169.523560  -96.158515   20.151167    0.000000    0.000000    0.000000    0.000000
  0.028416834   -1.122377  167.686203  -95.580269   18.597980    0.000000    0.000000    0.000000    0.000000
  0.028617234   -1.165135  165.839691  -95.789094   23.289026    0.000000    0.000000    0.000000    0.000000
  0.028817635   -1.205841  163.984711  -96.776700   22.474087    0.000000    0.000000    0.000000    0.000000
  0.029018036   -1.247708  162.123642  -96.905534   18.785032    0.000000    0.000000    0.000000    0.000000
  0.029218437   -1.286226  160.266571  -96.375879   21.781500    0.000000    0.000000    0.000000    0.000000
  0.029418838   -1.326822  158.410614  -96.082752   22.788786    0.000000    0.000000    0.000000    0.000000
  0.029619238   -1.368513  156.520630  -96.515713   19.791492    0.000000    0.000000    0.000000    0.000000
  0.029819639   -1.408170  154.613647  -96.652855   19.687145    0.000000    0.000000    0.000000    0.000000
  0.030020040   -1.448245  152.672638  -95.875123   17.571905    0.000000    0.000000    0.000000    0.000000
  0.030220441   -1.483834  150.723236  -96.232361   14.127075    0.000000    0.000000    0.000000    0.000000
  0.030420842   -1.516349  148.754990  -96.669292   13.928641    0.000000    0.000000    0.000000    0.000000
  0.030621242   -1.544816  146.809982  -95.783401   11.053100    0.000000    0.000000    0.000000    0.000000
  0.030821643   -1.573696  144.858185  -97.287271   15.965777    0.000000    0.000000    0.000000    0.000000
  0.031022044   -1.599639  142.901947  -97.602429   12.211279    0.000000    0.000000    0.000000    0.000000
  0.031222445   -1.618444  140.952789  -95.445712    6.630670    0.000000    0.000000    0.000000    0.000000
  0.031422846   -1.639746  138.966141  -98.004371   11.306896    0.000000    0.000000    0.000000    0.000000
  0.031623246   -1.659168  136.969315  -97.641228   11.201635    0.000000    0.000000    0.000000    0.000000
  0.031823647   -1.672036  134.949020  -97.952892   10.414266    0.000000    0.000000    0.000000    0.000000
  0.032024048   -1.682670  132.949432  -98.595889    7.683593    0.000000    0.000000    0.000000    0.000000
  0.032224449   -1.692712  130.966385  -98.784713   13.385717    0.000000    0.000000    0.000000    0.000000
  0.032424850   -1.702322  128.992676  -98.471411   13.539878    0.000000    0.000000    0.000000    0.000000
  0.032625251   -1.709259  127.030769  -96.903745   19.702568    0.000000    0.000000    0.000000    0.000000
  0.032825651   -1.722121  125.082565  -98.246131   13.201883    0.000000    0.000000    0.000000    0.000000
  0.033026052   -1.736627  123.152573  -98.541551    1.000681    0.000000    0.000000    0.000000    0.000000
  0.033226453   -1.753987  121.210846 -100.113373   12.170580    0.000000    0.000000    0.000000    0.000000
  0.033426854   -1.779706  119.263992  -97.912633    9.862314    0.000000    0.000000    0.000000    0.000000
  0.033627255   -1.812154  117.320808  -98.470877   13.517486    0.000000    0.000000    0.000000    0.000000
  0.033827655   -1.849611  115.328766  -99.175071   19.474470    0.000000    0.000000    0.000000    0.000000
  0.034028056   -1.885180  113.350319  -98.720318   19.150618    0.000000    0.000000    0.000000    0.000000
  0.034228457   -1.928936  111.298691  -98.157640   13.353217    0.000000    0.000000    0.000000    0.000000
  0.034428858   -1.970174  109.256134  -97.520303    9.617277    0.000000    0.000000    0.000000    0.000000
  0.034629259   -2.018610  107.165382  -97.401400   17.865234    0.000000    0.000000    0.000000    0.000000
  0.034829659   -2.065918  105.111465  -98.311768    4.287775    0.000000    0.000000    0.000000    0.000000
  0.035030060   -2.115658  103.063896  -97.929587   10.798060    0.000000    0.000000    0.000000    0.000000
  0.035230461   -2.168180  101.044540  -97.620133    8.894232    0.000000    0.000000    0.000000    0.000000
  0.035430862   -2.227371   98.973930  -99.524436   11.017334    0.000000    0.000000    0.000000    0.000000
  0.035631263   -2.285364   96.946060  -97.606437    7.304399    0.000000    0.000000    0.000000    0.000000
  0.035831663   -2.349514   94.918480  -98.629087    9.308519    0.000000    0.000000    0.000000    0.000000
  0.036032064   -2.417687   92.895493  -98.400512   10.443033    0.000000    0.000000    0.000000    0.000000
  0.036232465   -2.488680   90.873177  -99.336676    8.349181    0.000000    0.000000    0.000000    0.000000
  0.036432866   -2.563420   88.850639  -99.190973   10.907144    0.000000    0.000000    0.000000    0.000000
  0.036633267   -2.640809   86.834930  -99.653768    9.179197    0.000000    0.000000    0.000000    0.000000
  0.036833667   -2.721712   84.799561 -100.517154   10.186721    0.000000    0.000000    0.000000    0.000000
  0.037034068   -2.808104   82.733192  -98.977921   -1.332500    0.000000    0.000000    0.000000    0.000000
  0.037234469   -2.895323   80.649750  -99.294694    6.338074    0.000000    0.000000    0.000000    0.000000
  0.037434870   -2.979907   78.526245  -98.889359    6.202449    0.000000    0.000000    0.000000    0.000000
  0.037635271   -3.064685   76.408195  -98.970552    4.453300    0.000000    0.000000    0.000000    0.000000
  0.037835671   -3.147063   74.232460 -100.136112   -4.404770    0.000000    0.000000    0.000000    0.000000
  0.038036072   -3.223946   72.018593  -99.768573    6.315246    0.000000    0.000000    0.000000    0.000000
  0.038236473   -3.296732   69.813148  -99.819222   10.828616    0.000000    0.000000    0.000000    0.000000
  0.038436874   -3.360851   67.590141 -101.134346   11.155769    0.000000    0.000000    0.000000    0.000000
  0.038637275   -3.417932   65.377106  -98.580845    5.245584    0.000000    0.000000    0.000000    0.000000
  0.038837675   -3.473134   63.169811 -100.347339    1.029692    0.000000    0.000000    0.000000    0.000000
  0.039038076   -3.512684   60.997032 -100.484039   10.437603    0.000000    0.000000    0.000000    0.000000
  0.039238477   -3.552542   58.886894 -100.709597   10.895923    0.000000    0.000000    0.000000    0.000000
  0.039438878   -3.587836   56.771786 -100.809795   -0.562703    0.000000    0.000000    0.000000    0.000000
  0.039639279   -3.627711   54.694103 -100.466887   14.781149    0.000000    0.000000    0.000000    0.000000
  0.039839679   -3.667485   52.568584  -99.347111   18.312040    0.000000    0.000000    0.000000    0.000000
  0.040040080   -3.706951   50.491100  -98.433051    9.766571    0.000000    0.000000    0.000000    0.000000
  0.040240481   -3.745439   48.402466  -99.333742    3.034960    0.000000    0.000000    0.000000    0.000000
  0.040440882   -3.783090   46.324306 -101.794309    5.673479    0.000000    0.000000    0.000000    0.000000
  0.040641283   -3.819015   44.263763 -101.609282   24.291891    0.000000    0.000000    0.000000    0.000000
  0.040841683   -3.847593   42.203453  -99.872312   10.564590    0.000000    0.000000    0.000000    0.000000
  0.041042084   -3.879720   40.196480  -99.300301   18.090443    0.000000    0.000000    0.000000    0.000000
  0.041242485   -3.915565   38.169125 -100.794936    5.710512    0.000000    0.000000    0.000000    0.000000
  0.041442886   -3.950153   36.152271  -99.933156   -3.686677    0.000000    0.000000    0.000000    0.000000
  0.041643287   -3.984867   34.167336 -100.530242    6.702425    0.000000    0.000000    0.000000    0.000000
  0.041843687   -4.019497   32.190716  -99.515729    4.168640    0.000000    0.000000    0.000000    0.000000
  0.042044088   -4.056690   30.258459 -100.134294    5.501575    0.000000    0.000000    0.000000    0.000000
  0.042244489   -4.096150   28.339069  -99.499612    4.867986    0.000000    0.000000    0.000000    0.000000
  0.042444890   -4.140198   26.453289 -101.264728    4.801825    0.000000    0.000000    0.000000    0.000000
  0.042645291   -4.189408   24.584501 -102.073828    0.510249    0.000000    0.000000    0.000000    0.000000
  0.042845691   -4.242327   22.701010 -103.605054   11.652304    0.000000    0.000000    0.000000    0.000000
  0.043046092   -4.297809   20.829216 -101.820223    3.183151    0.000000    0.000000    0.000000    0.000000
  0.043246493   -4.357466   18.950249 -101.497251   -2.453526    0.000000    0.000000    0.000000    0.000000
  0.043446894   -4.421937   17.093029 -104.241233    5.237179    0.000000    0.000000    0.000000    0.000000
  0.043647295   -4.487580   15.231590 -103.267554    9.921406    0.000000    0.000000    0.000000    0.000000
  0.043847695   -4.559583   13.341589 -100.613161    6.187924    0.000000    0.000000    0.000000    0.000000
  0.044048096   -4.633458   11.478450 -106.668812   -2.529769    0.000000    0.000000    0.000000    0.000000
  0.044248497   -4.710355    9.569601 -104.213251    7.044223    0.000000    0.000000    0.000000    0.000000
  0.044448898   -4.788316    7.675399 -101.675857    6.563551    0.000000    0.000000    0.000000    0.000000
  0.044649299   -4.865335    5.756113 -103.464629   14.643195    0.000000    0.000000    0.000000    0.000000
  0.044849699   -4.940705    3.805402 -103.185768   15.246953    0.000000    0.000000    0.000000    0.000000
  0.045050100   -5.009849    1.853870 -102.100595   21.903362    0.000000    0.000000    0.000000    0.000000
  0.045250501   -5.082629   -0.114689 -101.141959    8.917361    0.000000    0.000000    0.000000    0.000000
  0.045450902   -5.149762   -2.072592 -104.699117    5.878466    0.000000    0.000000    0.000000    0.000000
  0.045651303   -5.217006   -4.060819 -102.694282   10.580221    0.000000    0.000000    0.000000    0.000000
  0.045851703   -5.281050   -6.023435 -104.062399   -3.900288    0.000000    0.000000    0.000000    0.000000
  0.046052104   -5.340241   -8.012801 -101.128927    9.905610    0.000000    0.000000    0.000000    0.000000
  0.046252505   -5.395099   -9.999141 -103.057386    1.524651    0.000000    0.000000    0.000000    0.000000
  0.046452906   -5.441862  -11.989550 -100.060630    6.240795    0.000000    0.000000    0.000000    0.000000
  0.046653307   -5.481818  -13.965847 -100.213904   -7.664277    0.000000    0.000000    0.000000    0.000000
  0.046853707   -5.518754  -15.954888 -102.739049   -7.822879    0.000000    0.000000    0.000000    0.000000
  0.047054108   -5.549856  -17.947350 -102.740727   -3.445472    0.000000    0.000000    0.000000    0.000000
  0.047254509   -5.574286  -19.888266 -102.240755    8.672307    0.000000    0.000000    0.000000    0.000000
  0.047454910   -5.589797  -21.829638 -101.966092   -5.546265    0.000000    0.000000    0.000000    0.000000
  0.047655311   -5.604307  -23.745148 -101.921452  -13.195426    0.000000    0.000000    0.000000    0.000000
  0.047855711   -5.610948  -25.586647 -103.648326  -20.778721    0.000000    0.000000    0.000000    0.000000
  0.048056112   -5.618835  -27.416374 -104.617348    1.633155    0.000000    0.000000    0.000000    0.000000
  0.048256513   -5.619038  -29.221079 -101.630788    4.934365    0.000000    0.000000    0.000000    0.000000
  0.048456914   -5.623167  -31.010746 -104.263662    4.929807    0.000000    0.000000    0.000000    0.000000
  0.048657315   -5.619830  -32.777714 -103.313083   -7.439426    0.000000    0.000000    0.000000    0.000000
  0.048857715   -5.615700  -34.509369 -104.692840    3.283250    0.000000    0.000000    0.000000    0.000000
  0.049058116   -5.612043  -36.223873 -104.075021    1.554446    0.000000    0.000000    0.000000    0.000000
  0.049258517   -5.608680  -37.883736 -104.413278    0.469115    0.000000    0.000000    0.000000    0.000000
  0.049458918   -5.604405  -39.522320 -106.447643    4.048662    0.000000    0.000000    0.000000    0.000000
  0.049659319   -5.607120  -41.153271 -105.455536   19.224079    0.000000    0.000000    0.000000    0.000000
  0.049859719   -5.606319  -42.733688 -103.098029   16.893604    0.000000    0.000000    0.000000    0.000000
  0.050060120   -5.612971  -44.332458 -104.214865   19.088188    0.000000    0.000000    0.000000    0.000000
  0.050260521   -5.619479  -45.899403 -103.701697   15.838046    0.000000    0.000000    0.000000    0.000000
  0.050460922   -5.626482  -47.462772 -103.034759    0.657727    0.000000    0.000000    0.000000    0.000000
  0.050661323   -5.636330  -49.014030 -102.640758    8.297586    0.000000    0.000000    0.000000    0.000000
  0.050861723   -5.650413  -50.550465 -103.134606    4.339401    0.000000    0.000000    0.000000    0.000000
  0.051062124   -5.668690  -52.064156 -103.677169   17.013680    0.000000    0.000000    0.000000    0.000000
  0.051262525   -5.691738  -53.556084 -102.700331    1.250839    0.000000    0.000000    0.000000    0.000000
  0.051462926   -5.713839  -55.017647 -102.996083    6.064803    0.000000    0.000000    0.000000    0.000000
  0.051663327   -5.739406  -56.466705 -102.230309   -6.025205    0.000000    0.000000    0.000000    0.000000
  0.051863727   -5.777373  -57.928234 -101.876616   12.225046    0.000000    0.000000    0.000000    0.000000
  0.052064128   -5.818957  -59.404621 -102.108410   -2.101740    0.000000    0.000000    0.000000    0.000000
  0.052264529   -5.859383  -60.895653 -103.019713    2.183523    0.000000    0.000000    0.000000    0.000000
  0.052464930   -5.901684  -62.391235 -102.951859    6.592715    0.000000    0.000000    0.000000    0.000000
  0.052665331   -5.949555  -63.954689 -102.525252   -5.213470    0.000000    0.000000    0.000000    0.000000
  0.052865731   -5.996586  -65.507370 -102.689517    8.901779    0.000000    0.000000    0.000000    0.000000
