! Anritsu VNA Master:                     Model: MS2036C/10/77
! SN:                                  1601066
! /card0/usr/000000_+.s2p
! Existing Calibration Information:
! TYPE:                         Current Settings,       Active Cal Settings
! TIME:             	   12/17/2017 08:14:34 PM,    12/17/2017 06:38:14 PM
! INTERNAL TEMP:    	                   39.3 C,                    43.8 C
! # POINTS:         	                      501,                       501
! START FREQ:       	               10.000 MHz,                10.000 MHz
! STOP FREQ:        	          107.903 125 MHz,           107.903 125 MHz
! SOURCE POWER:     	                     High,                      High
! IFBW:             	                   100 Hz,                    100 Hz
! AVG FACTOR:       	                       1 ,                        1 
! REF PLANE 1:      	                     0 mm,                      0 mm
! REF PLANE 2:      	                     0 mm,                      0 mm
! CAL TYPE:         	                 Full S11,                  Full S11
! CAL METHOD:       	                     SOLT,                      SOLT
! CAL LINE TYPE:    	                     Coax,                      Coax
! DUT PORT 1:       	                N-Conn(F),                 N-Conn(F)
! DUT PORT 2:       	                K-Conn(F),                 K-Conn(F)
! CAL STATUS:       	        OK: Accuracy High,                        --
# GHZ S DB R 50.0
! FREQ.GHZ       S11DB        S11A       S21DB        S21A       S12DB        S12A       S22DB        S22A
  0.010000000    1.057086  158.115799  -81.073147   79.013779    0.000000    0.000000    0.000000    0.000000
  0.010195806    1.083762  168.072083  -81.504892   76.757317    0.000000    0.000000    0.000000    0.000000
  0.010391613    1.116113  178.064941  -81.958451   75.455772    0.000000    0.000000    0.000000    0.000000
  0.010587419    1.141964 -171.957382  -81.593745   74.107841    0.000000    0.000000    0.000000    0.000000
  0.010783225    1.170713 -161.994614  -82.189362   73.047081    0.000000    0.000000    0.000000    0.000000
  0.010979031    1.204956 -152.008698  -82.354017   73.028816    0.000000    0.000000    0.000000    0.000000
  0.011174837    1.228220 -142.024200  -82.531673   71.997551    0.000000    0.000000    0.000000    0.000000
  0.011370644    1.248250 -132.042801  -82.661152   71.967369    0.000000    0.000000    0.000000    0.000000
  0.011566450    1.269306 -122.019035  -82.916031   69.648415    0.000000    0.000000    0.000000    0.000000
  0.011762256    1.287302 -112.009659  -83.359568   68.657883    0.000000    0.000000    0.000000    0.000000
  0.011958062    1.302890 -102.020409  -83.243238   67.484650    0.000000    0.000000    0.000000    0.000000
  0.012153869    1.316102  -91.935188  -83.333105   65.640366    0.000000    0.000000    0.000000    0.000000
  0.012349675    1.324280  -81.906891  -83.640048   64.831047    0.000000    0.000000    0.000000    0.000000
  0.012545481    1.331627  -71.814400  -83.847778   63.040443    0.000000    0.000000    0.000000    0.000000
  0.012741288    1.335055  -61.712994  -84.264556   64.436234    0.000000    0.000000    0.000000    0.000000
  0.012937094    1.336543  -51.626560  -83.935254   65.007675    0.000000    0.000000    0.000000    0.000000
  0.013132900    1.329335  -41.507305  -84.716406   63.013241    0.000000    0.000000    0.000000    0.000000
  0.013328706    1.325125  -31.361578  -84.636048   63.512508    0.000000    0.000000    0.000000    0.000000
  0.013524512    1.314276  -21.221434  -84.508378   61.130623    0.000000    0.000000    0.000000    0.000000
  0.013720319    1.302973  -11.064376  -84.992330   61.771534    0.000000    0.000000    0.000000    0.000000
  0.013916125    1.290851   -0.908641  -84.736824   61.224026    0.000000    0.000000    0.000000    0.000000
  0.014111931    1.279654    9.229489  -85.675835   58.435329    0.000000    0.000000    0.000000    0.000000
  0.014307738    1.269029   19.388874  -85.384967   56.767059    0.000000    0.000000    0.000000    0.000000
  0.014503544    1.264162   29.541340  -85.608708   53.261395    0.000000    0.000000    0.000000    0.000000
  0.014699350    1.260052   39.693062  -85.968766   57.579220    0.000000    0.000000    0.000000    0.000000
  0.014895156    1.254560   49.860958  -85.874252   59.075127    0.000000    0.000000    0.000000    0.000000
  0.015090962    1.251650   59.976151  -86.546680   55.043655    0.000000    0.000000    0.000000    0.000000
  0.015286769    1.251569   70.095047  -86.031346   53.593948    0.000000    0.000000    0.000000    0.000000
  0.015482575    1.250244   80.199066  -86.374342   53.623928    0.000000    0.000000    0.000000    0.000000
  0.015678381    1.251355   90.262825  -86.742352   50.473358    0.000000    0.000000    0.000000    0.000000
  0.015874188    1.263037  100.327507  -86.269780   52.021126    0.000000    0.000000    0.000000    0.000000
  0.016069994    1.272532  110.369843  -86.731750   52.065548    0.000000    0.000000    0.000000    0.000000
  0.016265800    1.286356  120.384666  -87.372991   49.509518    0.000000    0.000000    0.000000    0.000000
  0.016461606    1.311066  130.387924  -87.480893   47.610493    0.000000    0.000000    0.000000    0.000000
  0.016657412    1.332986  140.396561  -87.433778   47.751942    0.000000    0.000000    0.000000    0.000000
  0.016853219    1.354002  150.381958  -87.729255   49.246166    0.000000    0.000000    0.000000    0.000000
  0.017049025    1.376497  160.343216  -87.164052   45.561703    0.000000    0.000000    0.000000    0.000000
  0.017244831    1.397764  170.293518  -87.448786   44.240963    0.000000    0.000000    0.000000    0.000000
  0.017440638    1.417584 -179.784653  -88.417649   48.045090    0.000000    0.000000    0.000000    0.000000
  0.017636444    1.436196 -169.877670  -88.201611   45.625996    0.000000    0.000000    0.000000    0.000000
  0.017832250    1.460136 -159.954346  -88.290602   42.196407    0.000000    0.000000    0.000000    0.000000
  0.018028056    1.481616 -150.012863  -88.197609   46.503197    0.000000    0.000000    0.000000    0.000000
  0.018223862    1.503345 -140.072601  -89.010121   43.554184    0.000000    0.000000    0.000000    0.000000
  0.018419669    1.523619 -130.125092  -88.926907   45.500587    0.000000    0.000000    0.000000    0.000000
  0.018615475    1.543771 -120.165840  -89.290296   44.699169    0.000000    0.000000    0.000000    0.000000
  0.018811281    1.561948 -110.174294  -88.787034   40.855167    0.000000    0.000000    0.000000    0.000000
  0.019007087    1.570724 -100.232834  -89.217101   43.091564    0.000000    0.000000    0.000000    0.000000
  0.019202894    1.575388  -90.262024  -88.975938   42.355484    0.000000    0.000000    0.000000    0.000000
  0.019398700    1.578320  -80.254181  -89.668129   41.315414    0.000000    0.000000    0.000000    0.000000
  0.019594506    1.587499  -70.242241  -89.073499   37.242283    0.000000    0.000000    0.000000    0.000000
  0.019790313    1.590572  -60.214237  -89.087469   36.402370    0.000000    0.000000    0.000000    0.000000
  0.019986119    1.589935  -50.151413  -90.027552   35.909428    0.000000    0.000000    0.000000    0.000000
  0.020181925    1.588511  -40.075344  -89.491294   39.647453    0.000000    0.000000    0.000000    0.000000
  0.020377731    1.584280  -29.970276  -89.792896   38.049374    0.000000    0.000000    0.000000    0.000000
  0.020573537    1.575087  -19.870106  -90.617583   33.861481    0.000000    0.000000    0.000000    0.000000
  0.020769344    1.566990   -9.751235  -90.800518   34.445389    0.000000    0.000000    0.000000    0.000000
  0.020965150    1.560117    0.381984  -89.613881   34.492378    0.000000    0.000000    0.000000    0.000000
  0.021160956    1.555227   10.506439  -90.503818   28.243916    0.000000    0.000000    0.000000    0.000000
  0.021356762    1.547309   20.637426  -91.510305   28.610872    0.000000    0.000000    0.000000    0.000000
  0.021552569    1.543508   30.803013  -91.114966   34.385353    0.000000    0.000000    0.000000    0.000000
  0.021748375    1.540969   40.982574  -90.964445   35.867249    0.000000    0.000000    0.000000    0.000000
  0.021944181    1.540581   51.136215  -90.588227   25.776957    0.000000    0.000000    0.000000    0.000000
  0.022139988    1.537366   61.281570  -90.324853   30.992208    0.000000    0.000000    0.000000    0.000000
  0.022335794    1.535784   71.427849  -90.859428   36.404743    0.000000    0.000000    0.000000    0.000000
  0.022531600    1.537941   81.518433  -91.561805   25.207451    0.000000    0.000000    0.000000    0.000000
  0.022727406    1.544225   91.622543  -92.296146   32.823643    0.000000    0.000000    0.000000    0.000000
  0.022923213    1.550770  101.712044  -90.974087   29.144672    0.000000    0.000000    0.000000    0.000000
  0.023119019    1.567393  111.747490  -91.314989   28.964436    0.000000    0.000000    0.000000    0.000000
  0.023314825    1.581268  121.803131  -92.405022   26.161476    0.000000    0.000000    0.000000    0.000000
  0.023510631    1.597463  131.838364  -91.583988   26.267113    0.000000    0.000000    0.000000    0.000000
  0.023706438    1.611880  141.857681  -92.271401   26.562630    0.000000    0.000000    0.000000    0.000000
  0.023902244    1.630834  151.871658  -92.582192   23.126558    0.000000    0.000000    0.000000    0.000000
  0.024098050    1.647129  161.894089  -92.262361   30.045231    0.000000    0.000000    0.000000    0.000000
  0.024293856    1.664423  171.866104  -92.614088   26.569649    0.000000    0.000000    0.000000    0.000000
  0.024489662    1.684628 -178.146011  -92.788388   30.212317    0.000000    0.000000    0.000000    0.000000
  0.024685469    1.705365 -168.153961  -93.646491   22.652521    0.000000    0.000000    0.000000    0.000000
  0.024881275    1.729238 -158.139526  -93.215983   24.026775    0.000000    0.000000    0.000000    0.000000
  0.025077081    1.752813 -148.126190  -93.256122   27.908779    0.000000    0.000000    0.000000    0.000000
  0.025272888    1.771634 -138.072601  -92.781803   20.119059    0.000000    0.000000    0.000000    0.000000
  0.025468694    1.788597 -128.037567  -93.415690   22.186766    0.000000    0.000000    0.000000    0.000000
  0.025664500    1.802956 -117.981392  -94.987192   23.474615    0.000000    0.000000    0.000000    0.000000
  0.025860306    1.811594 -107.912201  -94.400760   28.221766    0.000000    0.000000    0.000000    0.000000
  0.026056112    1.822032  -97.875511  -93.632300   22.859324    0.000000    0.000000    0.000000    0.000000
  0.026251919    1.830071  -87.817635  -94.128958   19.296345    0.000000    0.000000    0.000000    0.000000
  0.026447725    1.835411  -77.770073  -94.470622   24.336098    0.000000    0.000000    0.000000    0.000000
  0.026643531    1.835605  -67.714417  -94.004010   24.885361    0.000000    0.000000    0.000000    0.000000
  0.026839338    1.838258  -57.661869  -94.021661   19.874502    0.000000    0.000000    0.000000    0.000000
  0.027035144    1.838958  -47.545879  -93.524439   14.190614    0.000000    0.000000    0.000000    0.000000
  0.027230950    1.834227  -37.443699  -94.361563   17.561617    0.000000    0.000000    0.000000    0.000000
  0.027426756    1.830960  -27.313316  -96.228268   24.378355    0.000000    0.000000    0.000000    0.000000
  0.027622562    1.828096  -17.164915  -95.737821   15.920174    0.000000    0.000000    0.000000    0.000000
  0.027818369    1.823532   -7.015686  -94.625409   15.579769    0.000000    0.000000    0.000000    0.000000
  0.028014175    1.820500    3.126746  -95.307013   17.692770    0.000000    0.000000    0.000000    0.000000
  0.028209981    1.818999   13.264249  -94.379540   15.608546    0.000000    0.000000    0.000000    0.000000
  0.028405788    1.821352   23.428493  -95.091448   11.004343    0.000000    0.000000    0.000000    0.000000
  0.028601594    1.819701   33.598644  -94.912034   16.981131    0.000000    0.000000    0.000000    0.000000
  0.028797400    1.816047   43.755791  -96.329521    9.517249    0.000000    0.000000    0.000000    0.000000
  0.028993206    1.815395   53.919086  -95.406830   17.437086    0.000000    0.000000    0.000000    0.000000
  0.029189013    1.811174   64.046547  -95.735439   15.201327    0.000000    0.000000    0.000000    0.000000
  0.029384819    1.807473   74.161461  -95.809251   14.468931    0.000000    0.000000    0.000000    0.000000
  0.029580625    1.802782   84.254242  -95.948853   14.700019    0.000000    0.000000    0.000000    0.000000
  0.029776431    1.800900   94.301773  -96.613523   18.241644    0.000000    0.000000    0.000000    0.000000
  0.029972237    1.803010  104.311890  -95.753496    5.991401    0.000000    0.000000    0.000000    0.000000
  0.030168044    1.803543  114.332596  -96.443508   13.494742    0.000000    0.000000    0.000000    0.000000
  0.030363850    1.811040  124.320259  -97.057648   10.210821    0.000000    0.000000    0.000000    0.000000
  0.030559656    1.822409  134.310760  -96.706854   14.137958    0.000000    0.000000    0.000000    0.000000
  0.030755463    1.835747  144.311829  -96.438056    8.191363    0.000000    0.000000    0.000000    0.000000
  0.030951269    1.847435  154.270386  -96.923533   13.002579    0.000000    0.000000    0.000000    0.000000
  0.031147075    1.855726  164.165024  -95.885856   20.398161    0.000000    0.000000    0.000000    0.000000
  0.031342881    1.869867  174.079788  -96.609612   11.922551    0.000000    0.000000    0.000000    0.000000
  0.031538687    1.886430 -176.036453  -96.507765    7.639524    0.000000    0.000000    0.000000    0.000000
  0.031734494    1.911251 -166.129349  -96.219740   18.014185    0.000000    0.000000    0.000000    0.000000
  0.031930300    1.935096 -156.231735  -97.911972   11.195070    0.000000    0.000000    0.000000    0.000000
  0.032126106    1.960103 -146.279541  -96.981660   14.715933    0.000000    0.000000    0.000000    0.000000
  0.032321913    1.981602 -136.285873  -97.172743   22.165380    0.000000    0.000000    0.000000    0.000000
  0.032517719    2.006075 -126.293350  -97.417168    7.136345    0.000000    0.000000    0.000000    0.000000
  0.032713525    2.026645 -116.261787  -96.822356   14.030981    0.000000    0.000000    0.000000    0.000000
  0.032909331    2.040371 -106.208153  -97.566556   13.538558    0.000000    0.000000    0.000000    0.000000
  0.033105137    2.053301  -96.096817  -99.660555  -11.140224    0.000000    0.000000    0.000000    0.000000
  0.033300944    2.056878  -86.013344  -97.262395    4.863152    0.000000    0.000000    0.000000    0.000000
  0.033496750    2.054982  -75.907440  -98.171813   -0.202479    0.000000    0.000000    0.000000    0.000000
  0.033692556    2.057389  -65.842697  -99.208380    6.903087    0.000000    0.000000    0.000000    0.000000
  0.033888362    2.058515  -55.721981  -98.493362   13.726635    0.000000    0.000000    0.000000    0.000000
  0.034084169    2.057599  -45.607933  -96.776492   12.197124    0.000000    0.000000    0.000000    0.000000
  0.034279975    2.054157  -35.473602  -99.353006    6.996529    0.000000    0.000000    0.000000    0.000000
  0.034475781    2.046338  -25.358269  -97.839003   12.162780    0.000000    0.000000    0.000000    0.000000
  0.034671588    2.038458  -15.228441  -97.193985    7.330591    0.000000    0.000000    0.000000    0.000000
  0.034867394    2.029294   -5.139466  -96.827397   10.308410    0.000000    0.000000    0.000000    0.000000
  0.035063200    2.022752    4.944623  -98.802978    0.020290    0.000000    0.000000    0.000000    0.000000
  0.035259006    2.013058   15.004937 -100.290982   21.535751    0.000000    0.000000    0.000000    0.000000
  0.035454812    2.009257   25.083839  -97.653499   17.348680    0.000000    0.000000    0.000000    0.000000
  0.035650619    2.007330   35.152882  -97.125327    8.867776    0.000000    0.000000    0.000000    0.000000
  0.035846425    2.006536   45.223621  -99.156762    6.557815    0.000000    0.000000    0.000000    0.000000
  0.036042231    2.008284   55.272411  -98.755685   -1.184044    0.000000    0.000000    0.000000    0.000000
  0.036238037    2.008453   65.302437  -99.451009    8.421138    0.000000    0.000000    0.000000    0.000000
  0.036433844    2.014561   75.351822  -97.056214   -1.491204    0.000000    0.000000    0.000000    0.000000
  0.036629650    2.019842   85.405571  -99.612689    3.691973    0.000000    0.000000    0.000000    0.000000
  0.036825456    2.022626   95.417992 -100.685574   19.525747    0.000000    0.000000    0.000000    0.000000
  0.037021262    2.020969  105.404778 -100.250069    4.099665    0.000000    0.000000    0.000000    0.000000
  0.037217069    2.021870  115.346909  -98.949884    3.042814    0.000000    0.000000    0.000000    0.000000
  0.037412875    2.026180  125.266052  -98.280011    9.753052    0.000000    0.000000    0.000000    0.000000
  0.037608681    2.037138  135.148560  -99.830816   12.150888    0.000000    0.000000    0.000000    0.000000
  0.037804487    2.044413  144.996216  -99.634430    8.002295    0.000000    0.000000    0.000000    0.000000
  0.038000294    2.052365  154.820435  -98.692349   -4.042416    0.000000    0.000000    0.000000    0.000000
  0.038196100    2.062450  164.643936 -101.367060    0.613451    0.000000    0.000000    0.000000    0.000000
  0.038391906    2.073803  174.442566  -98.461896    6.714447    0.000000    0.000000    0.000000    0.000000
  0.038587713    2.085235 -175.777985  -98.815430    2.290765    0.000000    0.000000    0.000000    0.000000
  0.038783519    2.097447 -165.973694 -100.467782    3.695339    0.000000    0.000000    0.000000    0.000000
  0.038979325    2.112141 -156.161743  -99.049207   13.811847    0.000000    0.000000    0.000000    0.000000
  0.039175131    2.129236 -146.325180 -102.378296   -2.700468    0.000000    0.000000    0.000000    0.000000
  0.039370938    2.146763 -136.481979  -99.070607   10.985685    0.000000    0.000000    0.000000    0.000000
  0.039566744    2.165610 -126.578461  -99.660304   -6.236316    0.000000    0.000000    0.000000    0.000000
  0.039762550    2.184965 -116.667747 -104.335796   -8.059818    0.000000    0.000000    0.000000    0.000000
  0.039958356    2.202362 -106.723183  -98.276744    5.056941    0.000000    0.000000    0.000000    0.000000
  0.040154163    2.217496  -96.730919  -99.185246    8.049800    0.000000    0.000000    0.000000    0.000000
  0.040349969    2.229938  -86.681618 -101.484131   11.988758    0.000000    0.000000    0.000000    0.000000
  0.040545775    2.240965  -76.590012 -100.229848    4.515460    0.000000    0.000000    0.000000    0.000000
  0.040741581    2.242257  -66.517349  -99.847670    1.023133    0.000000    0.000000    0.000000    0.000000
  0.040937387    2.242627  -56.388073  -99.829260   11.535679    0.000000    0.000000    0.000000    0.000000
  0.041133194    2.242781  -46.253731 -101.989827    6.049792    0.000000    0.000000    0.000000    0.000000
  0.041329000    2.240064  -36.099613 -102.177177   -8.668000    0.000000    0.000000    0.000000    0.000000
  0.041524806    2.239822  -25.911150  -99.871843    5.154477    0.000000    0.000000    0.000000    0.000000
  0.041720612    2.239368  -15.696897  -99.723459  -13.671614    0.000000    0.000000    0.000000    0.000000
  0.041916419    2.234858   -5.465388 -101.134504   -0.081405    0.000000    0.000000    0.000000    0.000000
  0.042112225    2.229501    4.767632 -100.323428    3.288719    0.000000    0.000000    0.000000    0.000000
