! Anritsu VNA Master:                     Model: MS2036C/10/77
! SN:                                  1601066
! /card0/usr/20ohm4.s2p
! Existing Calibration Information:
! TYPE:                         Current Settings,       Active Cal Settings
! TIME:             	   12/20/2017 04:18:04 PM,    12/20/2017 04:05:21 PM
! INTERNAL TEMP:    	                   42.0 C,                    43.3 C
! # POINTS:         	                      501,                       501
! START FREQ:       	               10.000 MHz,                10.000 MHz
! STOP FREQ:        	              110.000 MHz,               110.000 MHz
! SOURCE POWER:     	                     High,                      High
! IFBW:             	                   100 Hz,                    100 Hz
! AVG FACTOR:       	                       1 ,                        1 
! REF PLANE 1:      	                     0 mm,                      0 mm
! REF PLANE 2:      	                     0 mm,                      0 mm
! CAL TYPE:         	                 Full S11,                  Full S11
! CAL METHOD:       	                     SOLT,                      SOLT
! CAL LINE TYPE:    	                     Coax,                      Coax
! DUT PORT 1:       	                K-Conn(F),                 K-Conn(F)
! DUT PORT 2:       	                K-Conn(F),                 K-Conn(F)
! CAL STATUS:       	        OK: Accuracy High,                        --
# GHZ S DB R 50.0
! FREQ.GHZ       S11DB        S11A       S21DB        S21A       S12DB        S12A       S22DB        S22A
  0.010000000   -7.214380  167.492310  -82.635778   79.708290    0.000000    0.000000    0.000000    0.000000
  0.010200000   -7.204262  167.315353  -82.618027   77.951103    0.000000    0.000000    0.000000    0.000000
  0.010400000   -7.207281  166.975754  -82.459154   76.950874    0.000000    0.000000    0.000000    0.000000
  0.010600000   -7.211469  166.767349  -83.013702   73.828720    0.000000    0.000000    0.000000    0.000000
  0.010800000   -7.209487  166.491272  -82.948215   70.148613    0.000000    0.000000    0.000000    0.000000
  0.011000000   -7.215342  166.224625  -83.566397   66.536171    0.000000    0.000000    0.000000    0.000000
  0.011200000   -7.211836  165.958405  -83.875869   66.836929    0.000000    0.000000    0.000000    0.000000
  0.011400000   -7.209489  165.709122  -84.231321   66.887665    0.000000    0.000000    0.000000    0.000000
  0.011600000   -7.211618  165.461807  -84.363126   61.017483    0.000000    0.000000    0.000000    0.000000
  0.011800000   -7.212948  165.171173  -84.665798   63.296921    0.000000    0.000000    0.000000    0.000000
  0.012000000   -7.211934  164.940186  -85.245538   63.130470    0.000000    0.000000    0.000000    0.000000
  0.012200000   -7.214152  164.652191  -85.819373   59.658138    0.000000    0.000000    0.000000    0.000000
  0.012400000   -7.216236  164.396790  -85.542349   63.564255    0.000000    0.000000    0.000000    0.000000
  0.012600000   -7.211534  164.176361  -86.080823   57.260883    0.000000    0.000000    0.000000    0.000000
  0.012800000   -7.215636  163.912796  -86.705270   63.526497    0.000000    0.000000    0.000000    0.000000
  0.013000000   -7.214110  163.674179  -85.939851   61.941502    0.000000    0.000000    0.000000    0.000000
  0.013200000   -7.213968  163.439240  -87.248824   58.007866    0.000000    0.000000    0.000000    0.000000
  0.013400000   -7.215092  163.202881  -87.033678   61.014496    0.000000    0.000000    0.000000    0.000000
  0.013600000   -7.211081  162.971710  -86.971068   62.939823    0.000000    0.000000    0.000000    0.000000
  0.013800000   -7.207965  162.732178  -87.589948   60.260906    0.000000    0.000000    0.000000    0.000000
  0.014000000   -7.212441  162.502762  -87.833682   57.583851    0.000000    0.000000    0.000000    0.000000
  0.014200000   -7.214904  162.225830  -86.909354   59.003635    0.000000    0.000000    0.000000    0.000000
  0.014400000   -7.217274  162.000671  -87.471904   56.614262    0.000000    0.000000    0.000000    0.000000
  0.014600000   -7.220907  161.768463  -87.578666   58.675800    0.000000    0.000000    0.000000    0.000000
  0.014800000   -7.222310  161.530136  -87.578180   56.912891    0.000000    0.000000    0.000000    0.000000
  0.015000000   -7.226056  161.282822  -88.096731   59.663013    0.000000    0.000000    0.000000    0.000000
  0.015200000   -7.229584  161.035843  -88.165993   57.015984    0.000000    0.000000    0.000000    0.000000
  0.015400000   -7.229326  160.760483  -87.607447   56.369984    0.000000    0.000000    0.000000    0.000000
  0.015600000   -7.232773  160.508560  -88.424886   54.766975    0.000000    0.000000    0.000000    0.000000
  0.015800000   -7.239121  160.290222  -88.347253   55.531864    0.000000    0.000000    0.000000    0.000000
  0.016000000   -7.238769  160.047882  -88.065554   51.845516    0.000000    0.000000    0.000000    0.000000
  0.016200000   -7.242196  159.778717  -87.939526   51.372601    0.000000    0.000000    0.000000    0.000000
  0.016400000   -7.245847  159.536667  -88.583845   50.508858    0.000000    0.000000    0.000000    0.000000
  0.016600000   -7.248454  159.263596  -88.564631   52.892963    0.000000    0.000000    0.000000    0.000000
  0.016800000   -7.247483  159.033569  -88.502856   48.064121    0.000000    0.000000    0.000000    0.000000
  0.017000000   -7.246794  158.756073  -89.021557   44.540058    0.000000    0.000000    0.000000    0.000000
  0.017200000   -7.244997  158.496582  -89.184896   43.736671    0.000000    0.000000    0.000000    0.000000
  0.017400000   -7.246627  158.239517  -89.190690   44.774033    0.000000    0.000000    0.000000    0.000000
  0.017600000   -7.245762  157.970169  -89.288738   41.936237    0.000000    0.000000    0.000000    0.000000
  0.017800000   -7.244885  157.713531  -89.962737   43.537392    0.000000    0.000000    0.000000    0.000000
  0.018000000   -7.246162  157.458847  -89.880562   42.336983    0.000000    0.000000    0.000000    0.000000
  0.018200000   -7.245714  157.215134  -89.416906   34.978474    0.000000    0.000000    0.000000    0.000000
  0.018400000   -7.244964  156.939880  -89.822702   40.469723    0.000000    0.000000    0.000000    0.000000
  0.018600000   -7.249300  156.714600  -89.699580   39.033310    0.000000    0.000000    0.000000    0.000000
  0.018800000   -7.247103  156.449326  -90.271278   32.988625    0.000000    0.000000    0.000000    0.000000
  0.019000000   -7.237643  156.203186  -90.618184   40.750214    0.000000    0.000000    0.000000    0.000000
  0.019200000   -7.239960  155.956696  -91.416976   35.029781    0.000000    0.000000    0.000000    0.000000
  0.019400000   -7.237369  155.696136  -90.581632   36.768887    0.000000    0.000000    0.000000    0.000000
  0.019600000   -7.239600  155.474030  -90.617125   40.793762    0.000000    0.000000    0.000000    0.000000
  0.019800000   -7.241479  155.256531  -92.353305   37.739384    0.000000    0.000000    0.000000    0.000000
  0.020000000   -7.239306  154.981766  -91.187437   39.585377    0.000000    0.000000    0.000000    0.000000
  0.020200000   -7.244219  154.769760  -92.035995   37.866528    0.000000    0.000000    0.000000    0.000000
  0.020400000   -7.237829  154.513626  -92.217202   39.507950    0.000000    0.000000    0.000000    0.000000
  0.020600000   -7.233369  154.290817  -91.998157   35.164009    0.000000    0.000000    0.000000    0.000000
  0.020800000   -7.230734  154.046310  -92.651017   35.250992    0.000000    0.000000    0.000000    0.000000
  0.021000000   -7.234102  153.797379  -92.662466   35.107983    0.000000    0.000000    0.000000    0.000000
  0.021200000   -7.235667  153.558197  -92.941797   37.765152    0.000000    0.000000    0.000000    0.000000
  0.021400000   -7.234714  153.322495  -92.060429   31.580643    0.000000    0.000000    0.000000    0.000000
  0.021600000   -7.239510  153.123886  -92.118911   37.354172    0.000000    0.000000    0.000000    0.000000
  0.021800000   -7.242024  152.877014  -91.279767   40.181400    0.000000    0.000000    0.000000    0.000000
  0.022000000   -7.245446  152.635834  -92.605670   37.316341    0.000000    0.000000    0.000000    0.000000
  0.022200000   -7.244224  152.404755  -92.358850   41.019543    0.000000    0.000000    0.000000    0.000000
  0.022400000   -7.242145  152.167892  -92.144050   35.953987    0.000000    0.000000    0.000000    0.000000
  0.022600000   -7.251121  151.915512  -92.260615   31.102705    0.000000    0.000000    0.000000    0.000000
  0.022800000   -7.253091  151.699081  -91.686131   38.327488    0.000000    0.000000    0.000000    0.000000
  0.023000000   -7.252292  151.451324  -93.148900   35.069553    0.000000    0.000000    0.000000    0.000000
  0.023200000   -7.252487  151.184052  -92.958971   38.172161    0.000000    0.000000    0.000000    0.000000
  0.023400000   -7.256740  150.959824  -92.947052   30.607687    0.000000    0.000000    0.000000    0.000000
  0.023600000   -7.254358  150.722626  -92.426208   29.626616    0.000000    0.000000    0.000000    0.000000
  0.023800000   -7.260419  150.422943  -93.716662   31.287703    0.000000    0.000000    0.000000    0.000000
  0.024000000   -7.253896  150.183731  -91.940719   32.571255    0.000000    0.000000    0.000000    0.000000
  0.024200000   -7.256611  149.901855  -93.316272   23.108232    0.000000    0.000000    0.000000    0.000000
  0.024400000   -7.255192  149.618774  -93.472818   24.832275    0.000000    0.000000    0.000000    0.000000
  0.024600000   -7.260234  149.337494  -93.689157   26.721968    0.000000    0.000000    0.000000    0.000000
  0.024800000   -7.257582  149.086090  -94.519032   27.769472    0.000000    0.000000    0.000000    0.000000
  0.025000000   -7.257143  148.834778  -93.954176   23.267853    0.000000    0.000000    0.000000    0.000000
  0.025200000   -7.256635  148.614227  -94.915910   14.430432    0.000000    0.000000    0.000000    0.000000
  0.025400000   -7.253869  148.395813  -94.866486   13.950673    0.000000    0.000000    0.000000    0.000000
  0.025600000   -7.255608  148.154388  -94.546846   24.910357    0.000000    0.000000    0.000000    0.000000
  0.025800000   -7.258810  147.955780  -94.292112   24.295572    0.000000    0.000000    0.000000    0.000000
  0.026000000   -7.259635  147.727570  -94.403194   20.407537    0.000000    0.000000    0.000000    0.000000
  0.026200000   -7.257219  147.487595  -94.648700   22.555382    0.000000    0.000000    0.000000    0.000000
  0.026400000   -7.260652  147.238953  -96.357233   15.018054    0.000000    0.000000    0.000000    0.000000
  0.026600000   -7.262843  146.980881  -95.281733   22.054153    0.000000    0.000000    0.000000    0.000000
  0.026800000   -7.264350  146.730087  -95.410635   17.403339    0.000000    0.000000    0.000000    0.000000
  0.027000000   -7.266444  146.487671  -96.459536   23.983290    0.000000    0.000000    0.000000    0.000000
  0.027200000   -7.262887  146.212097  -94.672293   31.037373    0.000000    0.000000    0.000000    0.000000
  0.027400000   -7.259123  145.951797  -96.552265   18.696104    0.000000    0.000000    0.000000    0.000000
  0.027600000   -7.256714  145.667862  -95.984299   28.145657    0.000000    0.000000    0.000000    0.000000
  0.027800000   -7.256533  145.422104  -95.029170   22.842840    0.000000    0.000000    0.000000    0.000000
  0.028000000   -7.254725  145.157822  -95.104081   22.644140    0.000000    0.000000    0.000000    0.000000
  0.028200000   -7.255254  144.952499  -95.428576   26.852461    0.000000    0.000000    0.000000    0.000000
  0.028400000   -7.250901  144.689178  -94.932003   22.944273    0.000000    0.000000    0.000000    0.000000
  0.028600000   -7.249775  144.502365  -96.866092   16.658270    0.000000    0.000000    0.000000    0.000000
  0.028800000   -7.246411  144.276199  -96.502875   23.773624    0.000000    0.000000    0.000000    0.000000
  0.029000000   -7.247995  144.100540  -96.866832   21.655804    0.000000    0.000000    0.000000    0.000000
  0.029200000   -7.250386  143.891647  -96.012024   25.498510    0.000000    0.000000    0.000000    0.000000
  0.029400000   -7.249503  143.700409  -97.115178   16.298807    0.000000    0.000000    0.000000    0.000000
  0.029600000   -7.252725  143.489853  -96.612726   17.092297    0.000000    0.000000    0.000000    0.000000
  0.029800000   -7.256530  143.248001  -96.717411   21.186172    0.000000    0.000000    0.000000    0.000000
  0.030000000   -7.261208  142.985947  -97.246804   17.619106    0.000000    0.000000    0.000000    0.000000
  0.030200000   -7.263764  142.743652  -97.537795   17.922716    0.000000    0.000000    0.000000    0.000000
  0.030400000   -7.265963  142.483429  -96.131564    6.419480    0.000000    0.000000    0.000000    0.000000
  0.030600000   -7.266561  142.192841  -96.877297   18.529003    0.000000    0.000000    0.000000    0.000000
  0.030800000   -7.270402  141.945999  -96.428826   15.364596    0.000000    0.000000    0.000000    0.000000
  0.031000000   -7.269944  141.684235  -96.615092   19.025793    0.000000    0.000000    0.000000    0.000000
  0.031200000   -7.265185  141.470551  -97.450988   11.481783    0.000000    0.000000    0.000000    0.000000
  0.031400000   -7.270995  141.176559  -97.325015   18.440847    0.000000    0.000000    0.000000    0.000000
  0.031600000   -7.268790  140.893219  -96.721791   17.858196    0.000000    0.000000    0.000000    0.000000
  0.031800000   -7.270441  140.632538  -96.786679    3.556668    0.000000    0.000000    0.000000    0.000000
  0.032000000   -7.262204  140.375305  -98.112817    7.908634    0.000000    0.000000    0.000000    0.000000
  0.032200000   -7.260785  140.149811  -99.145036   23.399471    0.000000    0.000000    0.000000    0.000000
  0.032400000   -7.254439  139.874344  -98.144841    7.164278    0.000000    0.000000    0.000000    0.000000
  0.032600000   -7.249042  139.661972  -99.400917   27.735662    0.000000    0.000000    0.000000    0.000000
  0.032800000   -7.244097  139.422211  -96.934276    7.509316    0.000000    0.000000    0.000000    0.000000
  0.033000000   -7.240910  139.202301  -98.014012   18.860708    0.000000    0.000000    0.000000    0.000000
  0.033200000   -7.241691  139.012024  -98.569443   16.093903    0.000000    0.000000    0.000000    0.000000
  0.033400000   -7.240624  138.794708  -99.447171   10.494242    0.000000    0.000000    0.000000    0.000000
  0.033600000   -7.242785  138.591141 -100.099836   18.286383    0.000000    0.000000    0.000000    0.000000
  0.033800000   -7.251177  138.393417  -97.329166   17.269230    0.000000    0.000000    0.000000    0.000000
  0.034000000   -7.248882  138.125610  -98.550276    7.927593    0.000000    0.000000    0.000000    0.000000
  0.034200000   -7.255789  137.867981  -98.523421   15.766028    0.000000    0.000000    0.000000    0.000000
  0.034400000   -7.256306  137.586365  -98.702615   10.980941    0.000000    0.000000    0.000000    0.000000
  0.034600000   -7.259090  137.335312  -99.007566   12.205759    0.000000    0.000000    0.000000    0.000000
  0.034800000   -7.264149  137.093857 -100.906403   17.242254    0.000000    0.000000    0.000000    0.000000
  0.035000000   -7.265749  136.835419  -98.143374   13.916012    0.000000    0.000000    0.000000    0.000000
  0.035200000   -7.265072  136.576889  -97.139175   18.210762    0.000000    0.000000    0.000000    0.000000
  0.035400000   -7.263450  136.299103  -99.111316   19.011114    0.000000    0.000000    0.000000    0.000000
  0.035600000   -7.260644  136.042542  -98.859243    2.848691    0.000000    0.000000    0.000000    0.000000
  0.035800000   -7.258703  135.757187  -97.350728    9.204077    0.000000    0.000000    0.000000    0.000000
  0.036000000   -7.251717  135.495132  -98.091411   16.091164    0.000000    0.000000    0.000000    0.000000
  0.036200000   -7.247462  135.283966  -97.908102    7.919875    0.000000    0.000000    0.000000    0.000000
  0.036400000   -7.240183  135.054733  -99.328283    7.455237    0.000000    0.000000    0.000000    0.000000
  0.036600000   -7.240027  134.811554  -97.725519   17.175379    0.000000    0.000000    0.000000    0.000000
  0.036800000   -7.238632  134.599686  -98.399677    7.965108    0.000000    0.000000    0.000000    0.000000
  0.037000000   -7.236548  134.375702  -99.777356   -1.917136    0.000000    0.000000    0.000000    0.000000
  0.037200000   -7.237839  134.185165  -98.440744    2.789641    0.000000    0.000000    0.000000    0.000000
  0.037400000   -7.242645  133.925003 -100.291882    4.636489    0.000000    0.000000    0.000000    0.000000
  0.037600000   -7.242832  133.713226  -98.649633    8.315991    0.000000    0.000000    0.000000    0.000000
  0.037800000   -7.248976  133.446686  -97.889062    6.448704    0.000000    0.000000    0.000000    0.000000
  0.038000000   -7.248649  133.185745 -100.038320    2.319869    0.000000    0.000000    0.000000    0.000000
  0.038200000   -7.253000  132.935562  -99.863946    4.129408    0.000000    0.000000    0.000000    0.000000
  0.038400000   -7.256362  132.656921 -100.308269   -2.134515    0.000000    0.000000    0.000000    0.000000
  0.038600000   -7.258429  132.402802 -100.825943   -1.167993    0.000000    0.000000    0.000000    0.000000
  0.038800000   -7.256794  132.137497 -100.482878    1.380674    0.000000    0.000000    0.000000    0.000000
  0.039000000   -7.257741  131.894684 -101.115510    7.264244    0.000000    0.000000    0.000000    0.000000
  0.039200000   -7.260521  131.621933 -101.900691   24.005817    0.000000    0.000000    0.000000    0.000000
  0.039400000   -7.249958  131.343964 -100.218482    3.887750    0.000000    0.000000    0.000000    0.000000
  0.039600000   -7.248708  131.089127  -99.988020  -10.029293    0.000000    0.000000    0.000000    0.000000
  0.039800000   -7.241423  130.809341  -99.731163    4.381977    0.000000    0.000000    0.000000    0.000000
  0.040000000   -7.233025  130.571686  -99.393869    8.877707    0.000000    0.000000    0.000000    0.000000
  0.040200000   -7.230102  130.312225 -101.576198    9.888298    0.000000    0.000000    0.000000    0.000000
  0.040400000   -7.222247  130.127213 -100.480642   27.592514    0.000000    0.000000    0.000000    0.000000
  0.040600000   -7.220854  129.931320 -101.328785   -3.512622    0.000000    0.000000    0.000000    0.000000
  0.040800000   -7.223824  129.779495  -96.670582   14.964699    0.000000    0.000000    0.000000    0.000000
  0.041000000   -7.227862  129.590500 -101.722276    5.964343    0.000000    0.000000    0.000000    0.000000
  0.041200000   -7.229697  129.378662  -99.639807   13.509577    0.000000    0.000000    0.000000    0.000000
  0.041400000   -7.238097  129.168304  -98.470468    3.310386    0.000000    0.000000    0.000000    0.000000
  0.041600000   -7.248217  128.930634 -101.070924   -2.428738    0.000000    0.000000    0.000000    0.000000
  0.041800000   -7.254641  128.636765 -100.618524   -1.523178    0.000000    0.000000    0.000000    0.000000
  0.042000000   -7.259764  128.392319  -99.340376    8.143808    0.000000    0.000000    0.000000    0.000000
  0.042200000   -7.262698  128.136185  -97.462988   11.861530    0.000000    0.000000    0.000000    0.000000
  0.042400000   -7.260289  127.865593  -99.753608   -2.163208    0.000000    0.000000    0.000000    0.000000
  0.042600000   -7.263897  127.606529 -101.281461   -3.640737    0.000000    0.000000    0.000000    0.000000
  0.042800000   -7.264068  127.329002 -100.145723    6.569504    0.000000    0.000000    0.000000    0.000000
