! Anritsu VNA Master:                     Model: MS2036C/10/77
! SN:                                  1601066
! /card0/usr/ns.msr1.s2p
! Existing Calibration Information:
! TYPE:                         Current Settings,       Active Cal Settings
! TIME:             	   12/21/2017 05:04:41 PM,    12/21/2017 04:46:01 PM
! INTERNAL TEMP:    	                   40.5 C,                    41.5 C
! # POINTS:         	                      501,                       501
! START FREQ:       	               10.000 MHz,                10.000 MHz
! STOP FREQ:        	              110.000 MHz,               110.000 MHz
! SOURCE POWER:     	                     High,                      High
! IFBW:             	                   100 Hz,                    100 Hz
! AVG FACTOR:       	                       1 ,                        1 
! REF PLANE 1:      	                     0 mm,                      0 mm
! REF PLANE 2:      	                     0 mm,                      0 mm
! CAL TYPE:         	                 Full S11,                  Full S11
! CAL METHOD:       	                     SOLT,                      SOLT
! CAL LINE TYPE:    	                     Coax,                      Coax
! DUT PORT 1:       	                K-Conn(F),                 K-Conn(F)
! DUT PORT 2:       	                K-Conn(F),                 K-Conn(F)
! CAL STATUS:       	        OK: Accuracy High,                        --
# GHZ S DB R 50.0
! FREQ.GHZ       S11DB        S11A       S21DB        S21A       S12DB        S12A       S22DB        S22A
  0.010000000   -0.547933  -58.540276  -84.952041   86.506371    0.000000    0.000000    0.000000    0.000000
  0.010200000   -0.540867  -59.735310  -84.978243   85.986328    0.000000    0.000000    0.000000    0.000000
  0.010400000   -0.542426  -61.005905  -84.872098   89.732460    0.000000    0.000000    0.000000    0.000000
  0.010600000   -0.544493  -62.227291  -83.934868   84.980988    0.000000    0.000000    0.000000    0.000000
  0.010800000   -0.545024  -63.515816  -84.181188   83.276382    0.000000    0.000000    0.000000    0.000000
  0.011000000   -0.544512  -64.801208  -83.780203   85.239319    0.000000    0.000000    0.000000    0.000000
  0.011200000   -0.543271  -66.030502  -83.948217   81.251282    0.000000    0.000000    0.000000    0.000000
  0.011400000   -0.547957  -67.275711  -84.264768   76.471008    0.000000    0.000000    0.000000    0.000000
  0.011600000   -0.551585  -68.504044  -83.289996   75.594727    0.000000    0.000000    0.000000    0.000000
  0.011800000   -0.559275  -69.778610  -83.897904   74.067093    0.000000    0.000000    0.000000    0.000000
  0.012000000   -0.561453  -71.033432  -83.792797   71.567123    0.000000    0.000000    0.000000    0.000000
  0.012200000   -0.559786  -72.335976  -83.868075   68.929131    0.000000    0.000000    0.000000    0.000000
  0.012400000   -0.560671  -73.603065  -84.041099   64.679779    0.000000    0.000000    0.000000    0.000000
  0.012600000   -0.560472  -74.898537  -84.343668   60.637772    0.000000    0.000000    0.000000    0.000000
  0.012800000   -0.560144  -76.179123  -84.463416   62.117065    0.000000    0.000000    0.000000    0.000000
  0.013000000   -0.562604  -77.453583  -84.514021   58.793060    0.000000    0.000000    0.000000    0.000000
  0.013200000   -0.561670  -78.725204  -84.966017   54.346062    0.000000    0.000000    0.000000    0.000000
  0.013400000   -0.564443  -80.012955  -84.995068   56.779102    0.000000    0.000000    0.000000    0.000000
  0.013600000   -0.561068  -81.294991  -85.531019   53.721127    0.000000    0.000000    0.000000    0.000000
  0.013800000   -0.563407  -82.559029  -86.060557   50.230999    0.000000    0.000000    0.000000    0.000000
  0.014000000   -0.565650  -83.871735  -86.328627   48.139252    0.000000    0.000000    0.000000    0.000000
  0.014200000   -0.569452  -85.174011  -87.278885   48.091797    0.000000    0.000000    0.000000    0.000000
  0.014400000   -0.572296  -86.465561  -87.908059   47.398968    0.000000    0.000000    0.000000    0.000000
  0.014600000   -0.577152  -87.786102  -87.289216   44.762291    0.000000    0.000000    0.000000    0.000000
  0.014800000   -0.580454  -89.079170  -88.670792   46.047989    0.000000    0.000000    0.000000    0.000000
  0.015000000   -0.582731  -90.380836  -88.931800   46.894012    0.000000    0.000000    0.000000    0.000000
  0.015200000   -0.581335  -91.706665  -88.759126   52.448208    0.000000    0.000000    0.000000    0.000000
  0.015400000   -0.579082  -93.016846  -89.587694   53.667820    0.000000    0.000000    0.000000    0.000000
  0.015600000   -0.570388  -94.375549  -89.298957   50.472988    0.000000    0.000000    0.000000    0.000000
  0.015800000   -0.576149  -95.615166  -89.894448   54.054085    0.000000    0.000000    0.000000    0.000000
  0.016000000   -0.577544  -96.932785  -89.346814   50.037411    0.000000    0.000000    0.000000    0.000000
  0.016200000   -0.577010  -98.249687  -89.667347   55.827984    0.000000    0.000000    0.000000    0.000000
  0.016400000   -0.574688  -99.596161  -89.751893   56.937740    0.000000    0.000000    0.000000    0.000000
  0.016600000   -0.573540 -100.941734  -89.906271   55.679813    0.000000    0.000000    0.000000    0.000000
  0.016800000   -0.566863 -102.286575  -89.742015   55.635223    0.000000    0.000000    0.000000    0.000000
  0.017000000   -0.563342 -103.662308  -88.672631   53.265053    0.000000    0.000000    0.000000    0.000000
  0.017200000   -0.559328 -105.010963  -89.409893   57.671173    0.000000    0.000000    0.000000    0.000000
  0.017400000   -0.562434 -106.335434  -88.837018   55.149681    0.000000    0.000000    0.000000    0.000000
  0.017600000   -0.567227 -107.682358  -89.514061   51.819920    0.000000    0.000000    0.000000    0.000000
  0.017800000   -0.570012 -109.054451  -88.923958   50.976250    0.000000    0.000000    0.000000    0.000000
  0.018000000   -0.572763 -110.414169  -88.931882   50.534451    0.000000    0.000000    0.000000    0.000000
  0.018200000   -0.573808 -111.800049  -89.156456   45.715248    0.000000    0.000000    0.000000    0.000000
  0.018400000   -0.570540 -113.185287  -88.812688   43.763184    0.000000    0.000000    0.000000    0.000000
  0.018600000   -0.570837 -114.565048  -88.657777   42.735336    0.000000    0.000000    0.000000    0.000000
  0.018800000   -0.566848 -115.966774  -88.829081   41.102364    0.000000    0.000000    0.000000    0.000000
  0.019000000   -0.567473 -117.369308  -89.892668   42.785439    0.000000    0.000000    0.000000    0.000000
  0.019200000   -0.570118 -118.802711  -89.637486   35.872982    0.000000    0.000000    0.000000    0.000000
  0.019400000   -0.575832 -120.219292  -90.232010   37.666203    0.000000    0.000000    0.000000    0.000000
  0.019600000   -0.576941 -121.678535  -90.186657   38.363846    0.000000    0.000000    0.000000    0.000000
  0.019800000   -0.576408 -123.144142  -90.416293   30.657003    0.000000    0.000000    0.000000    0.000000
  0.020000000   -0.572324 -124.556229  -91.480939   24.365746    0.000000    0.000000    0.000000    0.000000
  0.020200000   -0.572166 -125.984055  -90.329980   37.181370    0.000000    0.000000    0.000000    0.000000
  0.020400000   -0.571090 -127.430359  -90.995842   32.094917    0.000000    0.000000    0.000000    0.000000
  0.020600000   -0.573580 -128.869598  -91.791417   31.377438    0.000000    0.000000    0.000000    0.000000
  0.020800000   -0.577325 -130.341827  -92.744028   32.274006    0.000000    0.000000    0.000000    0.000000
  0.021000000   -0.589006 -131.844666  -92.724119   29.192659    0.000000    0.000000    0.000000    0.000000
  0.021200000   -0.591619 -133.342178  -92.956199   33.286510    0.000000    0.000000    0.000000    0.000000
  0.021400000   -0.599093 -134.845810  -94.287717   30.060366    0.000000    0.000000    0.000000    0.000000
  0.021600000   -0.601121 -136.335648  -93.063964   35.480255    0.000000    0.000000    0.000000    0.000000
  0.021800000   -0.606083 -137.820663  -93.531910   32.365158    0.000000    0.000000    0.000000    0.000000
  0.022000000   -0.611636 -139.325943  -92.899333   36.147213    0.000000    0.000000    0.000000    0.000000
  0.022200000   -0.618821 -140.858368  -93.725062   43.904171    0.000000    0.000000    0.000000    0.000000
  0.022400000   -0.622728 -142.376953  -92.402865   38.563950    0.000000    0.000000    0.000000    0.000000
  0.022600000   -0.626851 -143.912476  -93.339318   38.256817    0.000000    0.000000    0.000000    0.000000
  0.022800000   -0.634385 -145.466522  -92.344968   35.369408    0.000000    0.000000    0.000000    0.000000
  0.023000000   -0.640120 -147.013489  -92.041179   35.100376    0.000000    0.000000    0.000000    0.000000
  0.023200000   -0.643129 -148.543396  -93.671303   33.608089    0.000000    0.000000    0.000000    0.000000
  0.023400000   -0.650635 -150.153748  -92.359489   31.029236    0.000000    0.000000    0.000000    0.000000
  0.023600000   -0.650070 -151.621536  -92.550124   32.874302    0.000000    0.000000    0.000000    0.000000
  0.023800000   -0.657608 -153.168747  -93.282323   36.044983    0.000000    0.000000    0.000000    0.000000
  0.024000000   -0.667090 -154.727097  -92.275453   30.674685    0.000000    0.000000    0.000000    0.000000
  0.024200000   -0.675898 -156.332458  -93.477328   28.772779    0.000000    0.000000    0.000000    0.000000
  0.024400000   -0.684172 -157.932175  -92.476478   33.014797    0.000000    0.000000    0.000000    0.000000
  0.024600000   -0.691542 -159.531403  -92.543093   21.538963    0.000000    0.000000    0.000000    0.000000
  0.024800000   -0.701465 -161.119934  -92.833919   26.124205    0.000000    0.000000    0.000000    0.000000
  0.025000000   -0.709249 -162.735657  -92.978245   19.390610    0.000000    0.000000    0.000000    0.000000
  0.025200000   -0.719227 -164.358521  -93.266934   24.155724    0.000000    0.000000    0.000000    0.000000
  0.025400000   -0.730562 -165.989487  -93.593587   24.824608    0.000000    0.000000    0.000000    0.000000
  0.025600000   -0.742786 -167.656693  -93.511593   25.559202    0.000000    0.000000    0.000000    0.000000
  0.025800000   -0.752695 -169.359558  -94.525664   16.095764    0.000000    0.000000    0.000000    0.000000
  0.026000000   -0.760825 -171.027084  -95.797659   16.075960    0.000000    0.000000    0.000000    0.000000
  0.026200000   -0.768206 -172.707977  -94.748438   24.170059    0.000000    0.000000    0.000000    0.000000
  0.026400000   -0.782338 -174.402817  -94.612909   13.348500    0.000000    0.000000    0.000000    0.000000
  0.026600000   -0.791472 -176.119675  -96.436048   19.771109    0.000000    0.000000    0.000000    0.000000
  0.026800000   -0.806108 -177.834702  -94.790497   17.123655    0.000000    0.000000    0.000000    0.000000
  0.027000000   -0.821537 -179.572983  -96.355649   21.622267    0.000000    0.000000    0.000000    0.000000
  0.027200000   -0.836197  178.690552  -95.536593   14.039352    0.000000    0.000000    0.000000    0.000000
  0.027400000   -0.849098  176.930405  -95.859419   18.535318    0.000000    0.000000    0.000000    0.000000
  0.027600000   -0.863940  175.169281  -95.712461   22.480297    0.000000    0.000000    0.000000    0.000000
  0.027800000   -0.882482  173.400909  -96.494482   26.268663    0.000000    0.000000    0.000000    0.000000
  0.028000000   -0.902526  171.611298  -96.018479   19.675163    0.000000    0.000000    0.000000    0.000000
  0.028200000   -0.922759  169.818237  -95.819989   23.110523    0.000000    0.000000    0.000000    0.000000
  0.028400000   -0.941915  168.045425  -95.404342   25.452425    0.000000    0.000000    0.000000    0.000000
  0.028600000   -0.960455  166.240341  -96.879603   27.122845    0.000000    0.000000    0.000000    0.000000
  0.028800000   -0.979241  164.459824  -97.294958   28.101280    0.000000    0.000000    0.000000    0.000000
  0.029000000   -0.998607  162.668701  -96.429338   21.316385    0.000000    0.000000    0.000000    0.000000
  0.029200000   -1.019434  160.863144  -95.739443   24.294403    0.000000    0.000000    0.000000    0.000000
  0.029400000   -1.045359  159.072678  -95.157871   22.480682    0.000000    0.000000    0.000000    0.000000
  0.029600000   -1.071002  157.253983  -96.083387   20.113138    0.000000    0.000000    0.000000    0.000000
  0.029800000   -1.100692  155.420853  -96.839468   13.547695    0.000000    0.000000    0.000000    0.000000
  0.030000000   -1.131640  153.549789  -95.992173   13.847095    0.000000    0.000000    0.000000    0.000000
  0.030200000   -1.159599  151.664795  -95.958316   20.897673    0.000000    0.000000    0.000000    0.000000
  0.030400000   -1.190522  149.788010  -96.320630   12.080320    0.000000    0.000000    0.000000    0.000000
  0.030600000   -1.220203  147.916229  -95.732857   17.061047    0.000000    0.000000    0.000000    0.000000
  0.030800000   -1.253225  146.059875  -96.930750   10.770761    0.000000    0.000000    0.000000    0.000000
  0.031000000   -1.287159  144.177399  -96.812003   16.207109    0.000000    0.000000    0.000000    0.000000
  0.031200000   -1.317806  142.297119  -97.854134    6.136453    0.000000    0.000000    0.000000    0.000000
  0.031400000   -1.357194  140.350082  -95.372868   15.802838    0.000000    0.000000    0.000000    0.000000
  0.031600000   -1.389202  138.414276 -100.001685   14.654344    0.000000    0.000000    0.000000    0.000000
  0.031800000   -1.426200  136.480560  -95.407876   11.153109    0.000000    0.000000    0.000000    0.000000
  0.032000000   -1.457477  134.531082  -97.289188    5.488060    0.000000    0.000000    0.000000    0.000000
  0.032200000   -1.490260  132.594711  -98.822517   20.534143    0.000000    0.000000    0.000000    0.000000
  0.032400000   -1.521536  130.660507  -98.302924   18.968044    0.000000    0.000000    0.000000    0.000000
  0.032600000   -1.553729  128.767014  -97.730895   20.080887    0.000000    0.000000    0.000000    0.000000
  0.032800000   -1.590102  126.807541  -95.979662    5.887197    0.000000    0.000000    0.000000    0.000000
  0.033000000   -1.629997  124.872910  -97.909609   13.157488    0.000000    0.000000    0.000000    0.000000
  0.033200000   -1.671007  122.945305  -97.028969   -2.279781    0.000000    0.000000    0.000000    0.000000
  0.033400000   -1.718231  120.974480  -97.073198   12.536225    0.000000    0.000000    0.000000    0.000000
  0.033600000   -1.764908  118.950378  -98.037800   12.673382    0.000000    0.000000    0.000000    0.000000
  0.033800000   -1.814425  116.917221  -97.308214   16.380102    0.000000    0.000000    0.000000    0.000000
  0.034000000   -1.857170  114.831528  -97.742339   15.412962    0.000000    0.000000    0.000000    0.000000
  0.034200000   -1.904857  112.714989  -99.099186    6.535563    0.000000    0.000000    0.000000    0.000000
  0.034400000   -1.945962  110.598938  -97.911538   19.839067    0.000000    0.000000    0.000000    0.000000
  0.034600000   -1.991579  108.505203  -99.568011    6.430339    0.000000    0.000000    0.000000    0.000000
  0.034800000   -2.030573  106.357315  -98.224074   22.704653    0.000000    0.000000    0.000000    0.000000
  0.035000000   -2.068998  104.246140  -97.731641   11.236288    0.000000    0.000000    0.000000    0.000000
  0.035200000   -2.109022  102.171272  -98.922935    7.204620    0.000000    0.000000    0.000000    0.000000
  0.035400000   -2.147619  100.062866  -96.708939   -1.576907    0.000000    0.000000    0.000000    0.000000
  0.035600000   -2.189617   97.966652  -97.849638   20.749073    0.000000    0.000000    0.000000    0.000000
  0.035800000   -2.231693   95.886993  -98.770491    9.779524    0.000000    0.000000    0.000000    0.000000
  0.036000000   -2.274179   93.852386  -99.360641    5.943377    0.000000    0.000000    0.000000    0.000000
  0.036200000   -2.322215   91.777740  -99.987311   -2.830675    0.000000    0.000000    0.000000    0.000000
  0.036400000   -2.372827   89.714783  -99.828433   14.570059    0.000000    0.000000    0.000000    0.000000
  0.036600000   -2.424064   87.700951  -98.847635   11.017030    0.000000    0.000000    0.000000    0.000000
  0.036800000   -2.483734   85.634315 -100.797640   19.576227    0.000000    0.000000    0.000000    0.000000
  0.037000000   -2.541862   83.561043  -99.786351    6.183198    0.000000    0.000000    0.000000    0.000000
  0.037200000   -2.607040   81.467293  -99.206095    7.393171    0.000000    0.000000    0.000000    0.000000
  0.037400000   -2.672574   79.360619  -99.614650   10.918612    0.000000    0.000000    0.000000    0.000000
  0.037600000   -2.728375   77.239464 -100.487621    3.622868    0.000000    0.000000    0.000000    0.000000
  0.037800000   -2.789237   75.046143 -102.212320    1.044698    0.000000    0.000000    0.000000    0.000000
  0.038000000   -2.855989   72.874321  -97.458462   10.722225    0.000000    0.000000    0.000000    0.000000
  0.038200000   -2.923332   70.657646  -99.203671   27.430752    0.000000    0.000000    0.000000    0.000000
  0.038400000   -2.996740   68.524208 -101.284897   13.431638    0.000000    0.000000    0.000000    0.000000
  0.038600000   -3.054964   66.478058 -100.061239   22.314829    0.000000    0.000000    0.000000    0.000000
  0.038800000   -3.101922   64.404808 -101.211741   -6.737695    0.000000    0.000000    0.000000    0.000000
  0.039000000   -3.151861   62.352306  -99.620601   10.383554    0.000000    0.000000    0.000000    0.000000
  0.039200000   -3.200336   60.279629 -100.269729   11.726391    0.000000    0.000000    0.000000    0.000000
  0.039400000   -3.253340   58.231113  -98.922499   22.855816    0.000000    0.000000    0.000000    0.000000
  0.039600000   -3.317963   56.161102  -98.849615   20.932447    0.000000    0.000000    0.000000    0.000000
  0.039800000   -3.382694   54.115349  -98.606949    6.758553    0.000000    0.000000    0.000000    0.000000
  0.040000000   -3.447111   52.025486  -99.254601   28.857252    0.000000    0.000000    0.000000    0.000000
  0.040200000   -3.514015   49.930756  -98.554400    0.537013    0.000000    0.000000    0.000000    0.000000
  0.040400000   -3.581994   47.830875  -99.692540   15.260337    0.000000    0.000000    0.000000    0.000000
  0.040600000   -3.649243   45.695583  -99.381499   -3.638221    0.000000    0.000000    0.000000    0.000000
  0.040800000   -3.715415   43.587269  -98.390592   12.253015    0.000000    0.000000    0.000000    0.000000
  0.041000000   -3.777324   41.455841 -100.853115    0.641660    0.000000    0.000000    0.000000    0.000000
  0.041200000   -3.836213   39.340012  -99.302921   11.699747    0.000000    0.000000    0.000000    0.000000
  0.041400000   -3.902103   37.186459 -100.323405   22.588093    0.000000    0.000000    0.000000    0.000000
  0.041600000   -3.960377   35.047581 -100.122284   -2.183831    0.000000    0.000000    0.000000    0.000000
  0.041800000   -4.016239   32.911186 -101.434940   18.779552    0.000000    0.000000    0.000000    0.000000
  0.042000000   -4.071505   30.816580 -100.943450    4.538154    0.000000    0.000000    0.000000    0.000000
  0.042200000   -4.123750   28.712790 -100.799900   11.233631    0.000000    0.000000    0.000000    0.000000
  0.042400000   -4.177551   26.644840 -100.072254   -9.384542    0.000000    0.000000    0.000000    0.000000
  0.042600000   -4.233248   24.590254 -101.707932    3.432971    0.000000    0.000000    0.000000    0.000000
  0.042800000   -4.286291   22.531891 -101.607078    5.496441    0.000000    0.000000    0.000000    0.000000
