! Anritsu VNA Master:                     Model: MS2036C/10/77
! SN:                                  1601066
! /card0/usr/ns.50bohm.s2p
! Existing Calibration Information:
! TYPE:                         Current Settings,       Active Cal Settings
! TIME:             	   12/21/2017 04:58:43 PM,    12/21/2017 04:46:01 PM
! INTERNAL TEMP:    	                   40.8 C,                    41.5 C
! # POINTS:         	                      501,                       501
! START FREQ:       	               10.000 MHz,                10.000 MHz
! STOP FREQ:        	              110.000 MHz,               110.000 MHz
! SOURCE POWER:     	                     High,                      High
! IFBW:             	                   100 Hz,                    100 Hz
! AVG FACTOR:       	                       1 ,                        1 
! REF PLANE 1:      	                     0 mm,                      0 mm
! REF PLANE 2:      	                     0 mm,                      0 mm
! CAL TYPE:         	                 Full S11,                  Full S11
! CAL METHOD:       	                     SOLT,                      SOLT
! CAL LINE TYPE:    	                     Coax,                      Coax
! DUT PORT 1:       	                K-Conn(F),                 K-Conn(F)
! DUT PORT 2:       	                K-Conn(F),                 K-Conn(F)
! CAL STATUS:       	        OK: Accuracy High,                        --
# GHZ S DB R 50.0
! FREQ.GHZ       S11DB        S11A       S21DB        S21A       S12DB        S12A       S22DB        S22A
  0.010000000  -45.993665   71.920631  -83.262606   76.438210    0.000000    0.000000    0.000000    0.000000
  0.010200000  -45.371987   72.751854  -83.371828   73.733391    0.000000    0.000000    0.000000    0.000000
  0.010400000  -44.875693   71.109108  -83.620001   75.935997    0.000000    0.000000    0.000000    0.000000
  0.010600000  -44.723895   71.548355  -84.038547   73.172859    0.000000    0.000000    0.000000    0.000000
  0.010800000  -44.730041   72.158684  -83.817813   71.571091    0.000000    0.000000    0.000000    0.000000
  0.011000000  -44.778116   71.604530  -84.040193   68.905769    0.000000    0.000000    0.000000    0.000000
  0.011200000  -44.400962   70.802299  -84.322440   72.315163    0.000000    0.000000    0.000000    0.000000
  0.011400000  -44.245877   69.906921  -84.499048   73.388199    0.000000    0.000000    0.000000    0.000000
  0.011600000  -43.940126   71.406830  -84.842785   68.468178    0.000000    0.000000    0.000000    0.000000
  0.011800000  -44.012189   72.192093  -84.799435   68.584854    0.000000    0.000000    0.000000    0.000000
  0.012000000  -43.849753   71.814232  -85.240897   66.003265    0.000000    0.000000    0.000000    0.000000
  0.012200000  -43.629635   72.434906  -85.526026   68.157501    0.000000    0.000000    0.000000    0.000000
  0.012400000  -43.450178   72.012337  -84.715530   62.702599    0.000000    0.000000    0.000000    0.000000
  0.012600000  -43.286631   72.104362  -85.582908   64.589111    0.000000    0.000000    0.000000    0.000000
  0.012800000  -43.460190   72.722412  -85.802885   62.039467    0.000000    0.000000    0.000000    0.000000
  0.013000000  -43.307993   73.449066  -86.066947   63.464165    0.000000    0.000000    0.000000    0.000000
  0.013200000  -43.284916   72.379181  -85.894451   60.577789    0.000000    0.000000    0.000000    0.000000
  0.013400000  -43.027397   73.656013  -86.514593   61.761822    0.000000    0.000000    0.000000    0.000000
  0.013600000  -43.236570   72.903961  -86.460636   61.996315    0.000000    0.000000    0.000000    0.000000
  0.013800000  -43.296465   72.779617  -86.937300   58.235924    0.000000    0.000000    0.000000    0.000000
  0.014000000  -43.147856   73.401909  -86.827972   59.075947    0.000000    0.000000    0.000000    0.000000
  0.014200000  -43.284216   73.545494  -87.234947   55.510792    0.000000    0.000000    0.000000    0.000000
  0.014400000  -43.047510   72.415520  -87.326385   59.631016    0.000000    0.000000    0.000000    0.000000
  0.014600000  -43.134742   72.184059  -87.059280   49.899414    0.000000    0.000000    0.000000    0.000000
  0.014800000  -43.035729   70.793373  -87.579504   55.830482    0.000000    0.000000    0.000000    0.000000
  0.015000000  -42.982791   70.332634  -87.838793   59.785820    0.000000    0.000000    0.000000    0.000000
  0.015200000  -43.129627   70.563911  -88.132455   52.738819    0.000000    0.000000    0.000000    0.000000
  0.015400000  -42.801189   70.071602  -87.826337   53.011181    0.000000    0.000000    0.000000    0.000000
  0.015600000  -42.975897   69.477234  -88.508411   47.564816    0.000000    0.000000    0.000000    0.000000
  0.015800000  -42.915788   67.553734  -88.572400   52.311062    0.000000    0.000000    0.000000    0.000000
  0.016000000  -42.751480   66.893692  -88.810536   53.226765    0.000000    0.000000    0.000000    0.000000
  0.016200000  -42.534530   66.805901  -89.161468   49.096107    0.000000    0.000000    0.000000    0.000000
  0.016400000  -42.294587   66.137863  -88.631719   50.294903    0.000000    0.000000    0.000000    0.000000
  0.016600000  -42.379742   67.648193  -89.325837   48.852322    0.000000    0.000000    0.000000    0.000000
  0.016800000  -42.199238   65.243416  -89.121906   42.482311    0.000000    0.000000    0.000000    0.000000
  0.017000000  -42.120701   64.455177  -89.514870   41.899273    0.000000    0.000000    0.000000    0.000000
  0.017200000  -42.290180   65.092041  -88.990002   42.273209    0.000000    0.000000    0.000000    0.000000
  0.017400000  -42.072031   64.932190  -89.480373   45.377483    0.000000    0.000000    0.000000    0.000000
  0.017600000  -41.847619   63.653721  -89.466272   45.226265    0.000000    0.000000    0.000000    0.000000
  0.017800000  -41.710293   65.063583  -89.431231   41.522644    0.000000    0.000000    0.000000    0.000000
  0.018000000  -41.439653   64.666618  -89.736437   41.922764    0.000000    0.000000    0.000000    0.000000
  0.018200000  -41.411293   64.039711  -89.910262   43.524136    0.000000    0.000000    0.000000    0.000000
  0.018400000  -41.328487   64.088135  -90.624231   41.419659    0.000000    0.000000    0.000000    0.000000
  0.018600000  -41.253696   63.500370  -89.983680   42.368137    0.000000    0.000000    0.000000    0.000000
  0.018800000  -40.985854   64.272079  -90.671894   44.386784    0.000000    0.000000    0.000000    0.000000
  0.019000000  -40.866825   63.756748  -89.923264   38.197666    0.000000    0.000000    0.000000    0.000000
  0.019200000  -40.945409   64.484894  -89.965057   43.034019    0.000000    0.000000    0.000000    0.000000
  0.019400000  -40.744326   63.913849  -90.409185   43.499458    0.000000    0.000000    0.000000    0.000000
  0.019600000  -40.685881   64.464302  -90.764709   37.528313    0.000000    0.000000    0.000000    0.000000
  0.019800000  -40.614538   65.477158  -90.858775   47.643444    0.000000    0.000000    0.000000    0.000000
  0.020000000  -40.453891   64.499596  -90.049854   35.639256    0.000000    0.000000    0.000000    0.000000
  0.020200000  -40.412257   64.526566  -91.425004   37.518234    0.000000    0.000000    0.000000    0.000000
  0.020400000  -40.412932   65.408104  -90.692473   37.527294    0.000000    0.000000    0.000000    0.000000
  0.020600000  -40.375146   64.864395  -90.758684   41.282330    0.000000    0.000000    0.000000    0.000000
  0.020800000  -40.413234   65.450600  -91.456265   34.703068    0.000000    0.000000    0.000000    0.000000
  0.021000000  -40.301926   64.971207  -91.084718   35.225418    0.000000    0.000000    0.000000    0.000000
  0.021200000  -40.499084   64.182945  -91.527164   42.031303    0.000000    0.000000    0.000000    0.000000
  0.021400000  -40.354818   64.583496  -91.201171   35.315361    0.000000    0.000000    0.000000    0.000000
  0.021600000  -40.339940   64.941589  -92.130943   39.364483    0.000000    0.000000    0.000000    0.000000
  0.021800000  -40.283183   64.288086  -92.276182   36.654633    0.000000    0.000000    0.000000    0.000000
  0.022000000  -40.170322   63.876667  -92.075451   31.081429    0.000000    0.000000    0.000000    0.000000
  0.022200000  -40.250961   64.387062  -92.580512   37.366364    0.000000    0.000000    0.000000    0.000000
  0.022400000  -40.056888   64.723541  -92.381289   33.089123    0.000000    0.000000    0.000000    0.000000
  0.022600000  -40.154594   63.173115  -93.231993   31.700922    0.000000    0.000000    0.000000    0.000000
  0.022800000  -39.955319   63.238174  -92.579804   33.556496    0.000000    0.000000    0.000000    0.000000
  0.023000000  -39.911278   62.743866  -93.210365   33.601418    0.000000    0.000000    0.000000    0.000000
  0.023200000  -39.965808   62.838676  -93.517206   24.623337    0.000000    0.000000    0.000000    0.000000
  0.023400000  -39.768028   62.334446  -93.659896   32.282749    0.000000    0.000000    0.000000    0.000000
  0.023600000  -39.807927   61.850212  -94.167320   29.486050    0.000000    0.000000    0.000000    0.000000
  0.023800000  -39.827455   61.589905  -94.120850   34.744358    0.000000    0.000000    0.000000    0.000000
  0.024000000  -39.634368   60.627834  -93.179248   26.799204    0.000000    0.000000    0.000000    0.000000
  0.024200000  -39.643303   61.286583  -93.614200   31.985437    0.000000    0.000000    0.000000    0.000000
  0.024400000  -39.642333   61.542622  -94.054711   28.726315    0.000000    0.000000    0.000000    0.000000
  0.024600000  -39.528460   60.055649  -94.301213   25.815332    0.000000    0.000000    0.000000    0.000000
  0.024800000  -39.405751   60.319717  -92.566890   19.590759    0.000000    0.000000    0.000000    0.000000
  0.025000000  -39.447592   60.844563  -94.713232   29.461199    0.000000    0.000000    0.000000    0.000000
  0.025200000  -39.322371   60.771770  -94.077425   28.104622    0.000000    0.000000    0.000000    0.000000
  0.025400000  -39.241259   59.313637  -93.555555   23.936768    0.000000    0.000000    0.000000    0.000000
  0.025600000  -39.186333   59.452099  -94.253423   19.766117    0.000000    0.000000    0.000000    0.000000
  0.025800000  -39.058372   60.307182  -94.752472   26.836176    0.000000    0.000000    0.000000    0.000000
  0.026000000  -39.047629   59.707710  -94.663563   32.007343    0.000000    0.000000    0.000000    0.000000
  0.026200000  -39.074109   59.497211  -94.093918   24.938400    0.000000    0.000000    0.000000    0.000000
  0.026400000  -38.988083   59.650936  -95.258708   24.495155    0.000000    0.000000    0.000000    0.000000
  0.026600000  -38.851529   59.561573  -95.236318   21.959108    0.000000    0.000000    0.000000    0.000000
  0.026800000  -38.743303   59.431858  -95.128206   24.922092    0.000000    0.000000    0.000000    0.000000
  0.027000000  -38.756293   58.801445  -94.722361   24.279682    0.000000    0.000000    0.000000    0.000000
  0.027200000  -38.699743   58.041416  -95.514277   16.406681    0.000000    0.000000    0.000000    0.000000
  0.027400000  -38.629214   59.027348  -95.279554   23.947269    0.000000    0.000000    0.000000    0.000000
  0.027600000  -38.533472   58.881168  -95.575261   20.034145    0.000000    0.000000    0.000000    0.000000
  0.027800000  -38.569150   58.901360  -95.251669   22.483223    0.000000    0.000000    0.000000    0.000000
  0.028000000  -38.409954   59.057354  -95.070289   24.239727    0.000000    0.000000    0.000000    0.000000
  0.028200000  -38.422860   58.693993  -95.510949   13.363498    0.000000    0.000000    0.000000    0.000000
  0.028400000  -38.431320   58.917225  -96.777082   15.373734    0.000000    0.000000    0.000000    0.000000
  0.028600000  -38.372802   58.529667  -96.400572   22.601305    0.000000    0.000000    0.000000    0.000000
  0.028800000  -38.454447   58.087269  -96.070098   13.830949    0.000000    0.000000    0.000000    0.000000
  0.029000000  -38.314077   58.610367  -97.069091   22.375216    0.000000    0.000000    0.000000    0.000000
  0.029200000  -38.128541   58.402706  -96.211838   21.278954    0.000000    0.000000    0.000000    0.000000
  0.029400000  -38.231413   58.423172  -96.056078   25.865662    0.000000    0.000000    0.000000    0.000000
  0.029600000  -38.135754   58.241344  -96.588765   18.099436    0.000000    0.000000    0.000000    0.000000
  0.029800000  -38.137460   58.256889  -96.369740   19.117216    0.000000    0.000000    0.000000    0.000000
  0.030000000  -38.098387   57.615158  -96.331257   22.316662    0.000000    0.000000    0.000000    0.000000
  0.030200000  -38.073178   58.065678  -97.440249    8.571214    0.000000    0.000000    0.000000    0.000000
  0.030400000  -38.041348   57.677063  -96.726931   16.588932    0.000000    0.000000    0.000000    0.000000
  0.030600000  -37.921884   57.331749  -97.243483   18.503162    0.000000    0.000000    0.000000    0.000000
  0.030800000  -38.014372   57.199062  -97.126306   18.566658    0.000000    0.000000    0.000000    0.000000
  0.031000000  -37.917874   57.616512  -97.542223   19.934704    0.000000    0.000000    0.000000    0.000000
  0.031200000  -37.806736   58.012547  -96.507698   15.524489    0.000000    0.000000    0.000000    0.000000
  0.031400000  -37.765540   57.265144  -97.459311   16.447248    0.000000    0.000000    0.000000    0.000000
  0.031600000  -37.776950   57.578869  -95.856927   19.397318    0.000000    0.000000    0.000000    0.000000
  0.031800000  -37.808139   57.304890  -97.105593   16.987944    0.000000    0.000000    0.000000    0.000000
  0.032000000  -37.676598   57.064774  -98.174447   19.075333    0.000000    0.000000    0.000000    0.000000
  0.032200000  -37.763842   56.868977  -98.315827   16.825958    0.000000    0.000000    0.000000    0.000000
  0.032400000  -37.684898   57.066994  -96.855372    6.171809    0.000000    0.000000    0.000000    0.000000
  0.032600000  -37.671814   57.008850  -99.053207   12.114945    0.000000    0.000000    0.000000    0.000000
  0.032800000  -37.645960   55.939350  -98.926411    8.091362    0.000000    0.000000    0.000000    0.000000
  0.033000000  -37.609870   55.969425  -98.642279    5.291534    0.000000    0.000000    0.000000    0.000000
  0.033200000  -37.722397   55.829155  -99.572896   14.114483    0.000000    0.000000    0.000000    0.000000
  0.033400000  -37.568805   55.897396  -98.248783    5.429351    0.000000    0.000000    0.000000    0.000000
  0.033600000  -37.508543   55.861614  -97.235544    5.299824    0.000000    0.000000    0.000000    0.000000
  0.033800000  -37.421303   54.735207  -98.295141   16.292448    0.000000    0.000000    0.000000    0.000000
  0.034000000  -37.434307   54.694134  -98.363786   24.391619    0.000000    0.000000    0.000000    0.000000
  0.034200000  -37.448410   54.425938  -97.854704   12.046605    0.000000    0.000000    0.000000    0.000000
  0.034400000  -37.383369   53.764427  -97.581428   17.190849    0.000000    0.000000    0.000000    0.000000
  0.034600000  -37.462533   53.861568  -98.494631   14.900056    0.000000    0.000000    0.000000    0.000000
  0.034800000  -37.361327   53.084602  -99.639746    4.418413    0.000000    0.000000    0.000000    0.000000
  0.035000000  -37.150862   52.534904  -96.595372    7.683486    0.000000    0.000000    0.000000    0.000000
  0.035200000  -37.252865   53.008011  -99.757710    2.284708    0.000000    0.000000    0.000000    0.000000
  0.035400000  -37.135495   52.469173  -97.727321   14.330907    0.000000    0.000000    0.000000    0.000000
  0.035600000  -37.108381   52.111412  -97.666536    8.182311    0.000000    0.000000    0.000000    0.000000
  0.035800000  -36.952512   52.805561  -97.816918   18.204250    0.000000    0.000000    0.000000    0.000000
  0.036000000  -36.892651   52.354969 -100.064045    3.859091    0.000000    0.000000    0.000000    0.000000
  0.036200000  -36.890556   52.756634  -97.068398   -0.743907    0.000000    0.000000    0.000000    0.000000
  0.036400000  -36.816634   51.998531  -99.057995    4.316715    0.000000    0.000000    0.000000    0.000000
  0.036600000  -36.717179   52.245899 -100.228626   14.076204    0.000000    0.000000    0.000000    0.000000
  0.036800000  -36.738749   51.558319  -99.162619    8.250415    0.000000    0.000000    0.000000    0.000000
  0.037000000  -36.626209   52.155418  -97.756648    3.076073    0.000000    0.000000    0.000000    0.000000
  0.037200000  -36.625525   52.345680  -98.318687   18.787893    0.000000    0.000000    0.000000    0.000000
  0.037400000  -36.631447   51.667118 -100.526363    5.045425    0.000000    0.000000    0.000000    0.000000
  0.037600000  -36.538165   52.305878  -99.000606    1.135020    0.000000    0.000000    0.000000    0.000000
  0.037800000  -36.386247   51.811165  -98.953373    4.564514    0.000000    0.000000    0.000000    0.000000
  0.038000000  -36.404839   51.931252  -99.472103    0.615159    0.000000    0.000000    0.000000    0.000000
  0.038200000  -36.458077   51.918102  -99.481761    3.410850    0.000000    0.000000    0.000000    0.000000
  0.038400000  -36.360591   51.751186  -99.017512   10.855750    0.000000    0.000000    0.000000    0.000000
  0.038600000  -36.321409   51.884178 -100.097105   13.556668    0.000000    0.000000    0.000000    0.000000
  0.038800000  -36.314733   52.118969  -99.494360   14.521597    0.000000    0.000000    0.000000    0.000000
  0.039000000  -36.343577   52.887566 -100.121602    9.963655    0.000000    0.000000    0.000000    0.000000
  0.039200000  -36.302368   52.542919 -100.625196   10.712705    0.000000    0.000000    0.000000    0.000000
  0.039400000  -36.255802   52.825962 -100.829958    8.581301    0.000000    0.000000    0.000000    0.000000
  0.039600000  -36.279834   51.749775 -100.251962    2.491738    0.000000    0.000000    0.000000    0.000000
  0.039800000  -36.151119   53.155499 -100.644142    7.629312    0.000000    0.000000    0.000000    0.000000
  0.040000000  -36.228196   52.077309  -99.636073   12.520441    0.000000    0.000000    0.000000    0.000000
  0.040200000  -36.152885   52.702206 -100.144140    1.387269    0.000000    0.000000    0.000000    0.000000
  0.040400000  -36.284682   52.540680  -99.508824    1.758018    0.000000    0.000000    0.000000    0.000000
  0.040600000  -36.217473   51.552391 -100.242139   -6.977571    0.000000    0.000000    0.000000    0.000000
  0.040800000  -36.267438   51.926491 -101.061691    9.575384    0.000000    0.000000    0.000000    0.000000
  0.041000000  -36.285018   51.650864 -101.766371    2.005240    0.000000    0.000000    0.000000    0.000000
  0.041200000  -36.249553   51.985428 -102.448818   14.156540    0.000000    0.000000    0.000000    0.000000
  0.041400000  -36.318058   50.965611 -100.249876    4.773993    0.000000    0.000000    0.000000    0.000000
  0.041600000  -36.228835   51.265736  -99.910795    2.354659    0.000000    0.000000    0.000000    0.000000
  0.041800000  -36.123139   49.634708 -101.393592    6.706396    0.000000    0.000000    0.000000    0.000000
  0.042000000  -36.210124   50.235645 -100.220273   -7.309492    0.000000    0.000000    0.000000    0.000000
  0.042200000  -36.042447   49.392323 -100.815638    6.182267    0.000000    0.000000    0.000000    0.000000
  0.042400000  -36.109336   48.905678 -101.827825    0.778537    0.000000    0.000000    0.000000    0.000000
  0.042600000  -36.016451   48.736763 -100.191006    9.431134    0.000000    0.000000    0.000000    0.000000
  0.042800000  -36.082341   49.131546 -100.029187   13.235677    0.000000    0.000000    0.000000    0.000000
