! Anritsu VNA Master:                     Model: MS2036C/10/77
! SN:                                  1601066
! /card0/usr/msr2.s2p
! Existing Calibration Information:
! TYPE:                         Current Settings,       Active Cal Settings
! TIME:             	   12/20/2017 04:10:03 PM,    12/20/2017 04:05:21 PM
! INTERNAL TEMP:    	                   42.5 C,                    43.3 C
! # POINTS:         	                      501,                       501
! START FREQ:       	               10.000 MHz,                10.000 MHz
! STOP FREQ:        	              110.000 MHz,               110.000 MHz
! SOURCE POWER:     	                     High,                      High
! IFBW:             	                   100 Hz,                    100 Hz
! AVG FACTOR:       	                       1 ,                        1 
! REF PLANE 1:      	                     0 mm,                      0 mm
! REF PLANE 2:      	                     0 mm,                      0 mm
! CAL TYPE:         	                 Full S11,                  Full S11
! CAL METHOD:       	                     SOLT,                      SOLT
! CAL LINE TYPE:    	                     Coax,                      Coax
! DUT PORT 1:       	                K-Conn(F),                 K-Conn(F)
! DUT PORT 2:       	                K-Conn(F),                 K-Conn(F)
! CAL STATUS:       	        OK: Accuracy High,                        --
# GHZ S DB R 50.0
! FREQ.GHZ       S11DB        S11A       S21DB        S21A       S12DB        S12A       S22DB        S22A
  0.010000000   -0.620606  -58.378712  -84.450633   89.295403    0.000000    0.000000    0.000000    0.000000
  0.010200000   -0.606617  -59.530064  -84.378104   86.520699    0.000000    0.000000    0.000000    0.000000
  0.010400000   -0.606482  -60.781166  -84.605794   85.080215    0.000000    0.000000    0.000000    0.000000
  0.010600000   -0.610256  -62.020138  -84.385432   85.068779    0.000000    0.000000    0.000000    0.000000
  0.010800000   -0.613131  -63.301613  -84.447345   89.046143    0.000000    0.000000    0.000000    0.000000
  0.011000000   -0.611504  -64.567101  -84.102161   80.797630    0.000000    0.000000    0.000000    0.000000
  0.011200000   -0.611343  -65.821442  -84.104455   83.824150    0.000000    0.000000    0.000000    0.000000
  0.011400000   -0.609644  -67.066345  -83.770596   77.854683    0.000000    0.000000    0.000000    0.000000
  0.011600000   -0.616785  -68.311485  -83.971189   74.690506    0.000000    0.000000    0.000000    0.000000
  0.011800000   -0.617563  -69.550720  -83.884108   73.483513    0.000000    0.000000    0.000000    0.000000
  0.012000000   -0.617970  -70.828850  -83.901353   72.387527    0.000000    0.000000    0.000000    0.000000
  0.012200000   -0.619892  -72.091576  -84.023933   67.434982    0.000000    0.000000    0.000000    0.000000
  0.012400000   -0.617827  -73.386658  -83.978581   66.637505    0.000000    0.000000    0.000000    0.000000
  0.012600000   -0.616292  -74.668892  -84.013948   63.580368    0.000000    0.000000    0.000000    0.000000
  0.012800000   -0.616038  -75.929192  -84.306140   62.076469    0.000000    0.000000    0.000000    0.000000
  0.013000000   -0.614628  -77.215019  -84.735680   57.008068    0.000000    0.000000    0.000000    0.000000
  0.013200000   -0.614261  -78.504753  -85.561017   57.173141    0.000000    0.000000    0.000000    0.000000
  0.013400000   -0.615108  -79.787994  -84.923278   51.441715    0.000000    0.000000    0.000000    0.000000
  0.013600000   -0.609665  -81.053497  -85.517681   50.450134    0.000000    0.000000    0.000000    0.000000
  0.013800000   -0.610211  -82.329971  -85.826957   49.841740    0.000000    0.000000    0.000000    0.000000
  0.014000000   -0.613114  -83.634827  -86.546631   47.660107    0.000000    0.000000    0.000000    0.000000
  0.014200000   -0.613177  -84.942780  -87.281191   48.132965    0.000000    0.000000    0.000000    0.000000
  0.014400000   -0.614577  -86.244766  -87.920419   47.154327    0.000000    0.000000    0.000000    0.000000
  0.014600000   -0.619183  -87.545319  -87.852286   50.806400    0.000000    0.000000    0.000000    0.000000
  0.014800000   -0.619173  -88.862473  -88.158648   47.677555    0.000000    0.000000    0.000000    0.000000
  0.015000000   -0.622365  -90.174278  -88.136655   48.605724    0.000000    0.000000    0.000000    0.000000
  0.015200000   -0.623615  -91.508202  -88.914808   48.635384    0.000000    0.000000    0.000000    0.000000
  0.015400000   -0.620439  -92.827881  -89.542821   49.161823    0.000000    0.000000    0.000000    0.000000
  0.015600000   -0.617135  -94.137939  -89.192010   53.854443    0.000000    0.000000    0.000000    0.000000
  0.015800000   -0.613419  -95.457314  -89.989372   48.118660    0.000000    0.000000    0.000000    0.000000
  0.016000000   -0.611984  -96.784729  -89.739675   54.534641    0.000000    0.000000    0.000000    0.000000
  0.016200000   -0.613347  -98.107468  -89.579978   56.260616    0.000000    0.000000    0.000000    0.000000
  0.016400000   -0.610357  -99.473656  -89.064349   58.374390    0.000000    0.000000    0.000000    0.000000
  0.016600000   -0.608880 -100.829803  -89.209589   56.739655    0.000000    0.000000    0.000000    0.000000
  0.016800000   -0.601449 -102.200699  -89.052939   61.433537    0.000000    0.000000    0.000000    0.000000
  0.017000000   -0.600275 -103.586449  -89.739289   50.379032    0.000000    0.000000    0.000000    0.000000
  0.017200000   -0.594526 -104.927200  -89.632657   50.996548    0.000000    0.000000    0.000000    0.000000
  0.017400000   -0.598761 -106.283195  -89.278929   56.725014    0.000000    0.000000    0.000000    0.000000
  0.017600000   -0.601346 -107.649979  -89.582967   52.541248    0.000000    0.000000    0.000000    0.000000
  0.017800000   -0.605056 -109.022415  -88.919142   49.659500    0.000000    0.000000    0.000000    0.000000
  0.018000000   -0.605337 -110.410782  -89.339205   47.849915    0.000000    0.000000    0.000000    0.000000
  0.018200000   -0.605205 -111.822037  -88.535934   45.006279    0.000000    0.000000    0.000000    0.000000
  0.018400000   -0.607753 -113.223808  -89.435369   47.145866    0.000000    0.000000    0.000000    0.000000
  0.018600000   -0.601183 -114.627701  -89.434078   45.363712    0.000000    0.000000    0.000000    0.000000
  0.018800000   -0.598836 -116.045311  -88.907976   44.285828    0.000000    0.000000    0.000000    0.000000
  0.019000000   -0.598148 -117.488464  -88.937934   39.689442    0.000000    0.000000    0.000000    0.000000
  0.019200000   -0.601602 -118.891914  -89.599510   39.913101    0.000000    0.000000    0.000000    0.000000
  0.019400000   -0.606082 -120.346550  -90.034056   38.598362    0.000000    0.000000    0.000000    0.000000
  0.019600000   -0.606099 -121.829170  -90.582423   34.113464    0.000000    0.000000    0.000000    0.000000
  0.019800000   -0.602868 -123.286720  -90.053941   33.430668    0.000000    0.000000    0.000000    0.000000
  0.020000000   -0.600879 -124.755379  -90.324229   29.854477    0.000000    0.000000    0.000000    0.000000
  0.020200000   -0.597675 -126.183975  -91.216482   30.677549    0.000000    0.000000    0.000000    0.000000
  0.020400000   -0.596197 -127.630920  -92.132736   30.708427    0.000000    0.000000    0.000000    0.000000
  0.020600000   -0.597101 -129.111511  -92.182471   29.176983    0.000000    0.000000    0.000000    0.000000
  0.020800000   -0.600558 -130.597992  -91.651893   33.623211    0.000000    0.000000    0.000000    0.000000
  0.021000000   -0.606078 -132.104553  -92.092562   31.289469    0.000000    0.000000    0.000000    0.000000
  0.021200000   -0.613784 -133.604080  -92.644448   26.969248    0.000000    0.000000    0.000000    0.000000
  0.021400000   -0.616205 -135.138794  -92.994770   32.341873    0.000000    0.000000    0.000000    0.000000
  0.021600000   -0.617392 -136.652527  -93.386132   33.358421    0.000000    0.000000    0.000000    0.000000
  0.021800000   -0.620692 -138.157166  -93.385117   34.104183    0.000000    0.000000    0.000000    0.000000
  0.022000000   -0.626688 -139.682114  -92.450624   33.982182    0.000000    0.000000    0.000000    0.000000
  0.022200000   -0.629058 -141.241379  -93.068997   36.139919    0.000000    0.000000    0.000000    0.000000
  0.022400000   -0.633698 -142.797897  -93.463438   37.239201    0.000000    0.000000    0.000000    0.000000
  0.022600000   -0.635916 -144.366180  -93.016841   35.357002    0.000000    0.000000    0.000000    0.000000
  0.022800000   -0.639609 -145.957260  -92.302955   39.095936    0.000000    0.000000    0.000000    0.000000
  0.023000000   -0.641895 -147.553040  -92.567013   37.491528    0.000000    0.000000    0.000000    0.000000
  0.023200000   -0.641037 -149.111618  -93.597513   37.414104    0.000000    0.000000    0.000000    0.000000
  0.023400000   -0.638147 -150.739227  -92.992469   40.134972    0.000000    0.000000    0.000000    0.000000
  0.023600000   -0.646060 -152.284821  -93.097970   36.863842    0.000000    0.000000    0.000000    0.000000
  0.023800000   -0.653630 -153.867111  -92.663898   31.764935    0.000000    0.000000    0.000000    0.000000
  0.024000000   -0.661648 -155.505035  -92.356152   35.329433    0.000000    0.000000    0.000000    0.000000
  0.024200000   -0.672000 -157.148834  -93.799806   31.002741    0.000000    0.000000    0.000000    0.000000
  0.024400000   -0.680351 -158.781784  -92.576461   25.714207    0.000000    0.000000    0.000000    0.000000
  0.024600000   -0.687144 -160.421356  -93.000394   33.867035    0.000000    0.000000    0.000000    0.000000
  0.024800000   -0.695600 -162.087540  -93.409503   21.306820    0.000000    0.000000    0.000000    0.000000
  0.025000000   -0.706622 -163.731430  -93.702420   24.250050    0.000000    0.000000    0.000000    0.000000
  0.025200000   -0.718209 -165.401917  -93.937908   23.696047    0.000000    0.000000    0.000000    0.000000
  0.025400000   -0.729008 -167.085907  -93.658743   23.458141    0.000000    0.000000    0.000000    0.000000
  0.025600000   -0.741510 -168.790192  -94.159062   23.092701    0.000000    0.000000    0.000000    0.000000
  0.025800000   -0.753467 -170.496948  -94.750730   17.849777    0.000000    0.000000    0.000000    0.000000
  0.026000000   -0.761662 -172.225479  -95.008856   12.646360    0.000000    0.000000    0.000000    0.000000
  0.026200000   -0.771915 -173.953278  -94.168331   20.536446    0.000000    0.000000    0.000000    0.000000
  0.026400000   -0.784847 -175.672806  -94.765640   18.938322    0.000000    0.000000    0.000000    0.000000
  0.026600000   -0.796331 -177.411179  -96.096621   19.223164    0.000000    0.000000    0.000000    0.000000
  0.026800000   -0.812338 -179.171066  -95.844999    8.580757    0.000000    0.000000    0.000000    0.000000
  0.027000000   -0.828646  179.080627  -95.780879   28.472317    0.000000    0.000000    0.000000    0.000000
  0.027200000   -0.841365  177.293091  -96.053526   19.770380    0.000000    0.000000    0.000000    0.000000
  0.027400000   -0.856499  175.514923  -95.798127   27.243658    0.000000    0.000000    0.000000    0.000000
  0.027600000   -0.872083  173.715454  -96.254165   23.045713    0.000000    0.000000    0.000000    0.000000
  0.027800000   -0.891131  171.913223  -95.734451   20.370636    0.000000    0.000000    0.000000    0.000000
  0.028000000   -0.909631  170.094864  -96.011288   23.796417    0.000000    0.000000    0.000000    0.000000
  0.028200000   -0.931425  168.283722  -95.205747   16.034256    0.000000    0.000000    0.000000    0.000000
  0.028400000   -0.952330  166.454926  -95.954029   31.608887    0.000000    0.000000    0.000000    0.000000
  0.028600000   -0.972114  164.638428  -96.832451   19.742949    0.000000    0.000000    0.000000    0.000000
  0.028800000   -0.987815  162.807388  -95.507416   19.958357    0.000000    0.000000    0.000000    0.000000
  0.029000000   -1.009048  160.988556  -95.161419   20.852877    0.000000    0.000000    0.000000    0.000000
  0.029200000   -1.030639  159.160522  -96.468866   17.676706    0.000000    0.000000    0.000000    0.000000
  0.029400000   -1.051732  157.336639  -95.433883   21.818800    0.000000    0.000000    0.000000    0.000000
  0.029600000   -1.079386  155.485260  -97.217165   17.825779    0.000000    0.000000    0.000000    0.000000
  0.029800000   -1.107521  153.607208  -97.323178   18.259388    0.000000    0.000000    0.000000    0.000000
  0.030000000   -1.139871  151.689835  -96.109532   16.217186    0.000000    0.000000    0.000000    0.000000
  0.030200000   -1.166714  149.778091  -95.866715   22.917067    0.000000    0.000000    0.000000    0.000000
  0.030400000   -1.196809  147.853943  -95.204764   22.085035    0.000000    0.000000    0.000000    0.000000
  0.030600000   -1.225609  145.932465  -97.064480   11.512893    0.000000    0.000000    0.000000    0.000000
  0.030800000   -1.258428  144.023849  -97.054465   11.125017    0.000000    0.000000    0.000000    0.000000
  0.031000000   -1.293669  142.093964  -97.541728    7.462409    0.000000    0.000000    0.000000    0.000000
  0.031200000   -1.322255  140.154419  -95.839872   11.713983    0.000000    0.000000    0.000000    0.000000
  0.031400000   -1.362721  138.177170  -98.239766   14.315974    0.000000    0.000000    0.000000    0.000000
  0.031600000   -1.397098  136.172806  -95.784303   17.811092    0.000000    0.000000    0.000000    0.000000
  0.031800000   -1.431980  134.155533  -98.521066   11.563216    0.000000    0.000000    0.000000    0.000000
  0.032000000   -1.465637  132.172638  -96.784862    9.515106    0.000000    0.000000    0.000000    0.000000
  0.032200000   -1.500005  130.183014  -97.221082    8.698237    0.000000    0.000000    0.000000    0.000000
  0.032400000   -1.533717  128.199829  -97.102387    9.810670    0.000000    0.000000    0.000000    0.000000
  0.032600000   -1.567038  126.230690  -97.403809   18.623152    0.000000    0.000000    0.000000    0.000000
  0.032800000   -1.606686  124.254463  -99.102450   11.088769    0.000000    0.000000    0.000000    0.000000
  0.033000000   -1.649788  122.266769  -97.964912   26.804781    0.000000    0.000000    0.000000    0.000000
  0.033200000   -1.698961  120.287918  -98.059412   16.432777    0.000000    0.000000    0.000000    0.000000
  0.033400000   -1.745046  118.301498  -98.765439   23.643410    0.000000    0.000000    0.000000    0.000000
  0.033600000   -1.799107  116.269829  -97.473365   19.669094    0.000000    0.000000    0.000000    0.000000
  0.033800000   -1.855340  114.224983  -97.948422   14.856141    0.000000    0.000000    0.000000    0.000000
  0.034000000   -1.904894  112.158630  -97.785074    7.206884    0.000000    0.000000    0.000000    0.000000
  0.034200000   -1.956196  110.028351  -98.139577   24.673607    0.000000    0.000000    0.000000    0.000000
  0.034400000   -2.000177  107.893387  -97.582539   15.028541    0.000000    0.000000    0.000000    0.000000
  0.034600000   -2.044919  105.795609  -98.343436   14.031995    0.000000    0.000000    0.000000    0.000000
  0.034800000   -2.088871  103.685585  -97.843073    7.106311    0.000000    0.000000    0.000000    0.000000
  0.035000000   -2.133389  101.590225  -97.049466   21.588467    0.000000    0.000000    0.000000    0.000000
  0.035200000   -2.174854   99.489311  -99.459571   15.576620    0.000000    0.000000    0.000000    0.000000
  0.035400000   -2.217114   97.399239  -99.211249   13.856781    0.000000    0.000000    0.000000    0.000000
  0.035600000   -2.262075   95.345078  -97.349605   13.504233    0.000000    0.000000    0.000000    0.000000
  0.035800000   -2.305487   93.255882  -99.707182    7.802919    0.000000    0.000000    0.000000    0.000000
  0.036000000   -2.350291   91.192772  -98.130626    3.575712    0.000000    0.000000    0.000000    0.000000
  0.036200000   -2.398889   89.174995  -97.648342   13.572605    0.000000    0.000000    0.000000    0.000000
  0.036400000   -2.449815   87.132332  -98.914663   11.300214    0.000000    0.000000    0.000000    0.000000
  0.036600000   -2.503667   85.100662  -98.143084    2.068319    0.000000    0.000000    0.000000    0.000000
  0.036800000   -2.561273   83.068802  -98.573267    3.436518    0.000000    0.000000    0.000000    0.000000
  0.037000000   -2.623269   81.007080  -98.093503   -4.456732    0.000000    0.000000    0.000000    0.000000
  0.037200000   -2.681687   78.956413  -98.497591   16.820330    0.000000    0.000000    0.000000    0.000000
  0.037400000   -2.747514   76.863716 -101.335325   12.843606    0.000000    0.000000    0.000000    0.000000
  0.037600000   -2.812627   74.771294  -98.626927   18.403330    0.000000    0.000000    0.000000    0.000000
  0.037800000   -2.873733   72.620125 -102.089967   18.172001    0.000000    0.000000    0.000000    0.000000
  0.038000000   -2.932736   70.495171  -98.297324   13.430630    0.000000    0.000000    0.000000    0.000000
  0.038200000   -2.987521   68.359924 -101.288256   11.279422    0.000000    0.000000    0.000000    0.000000
  0.038400000   -3.045831   66.226822  -99.727854    1.422601    0.000000    0.000000    0.000000    0.000000
  0.038600000   -3.100974   64.119934  -99.939429    4.545818    0.000000    0.000000    0.000000    0.000000
  0.038800000   -3.148719   62.009533  -99.735136    1.080453    0.000000    0.000000    0.000000    0.000000
  0.039000000   -3.198562   59.943836 -100.291611   -3.602093    0.000000    0.000000    0.000000    0.000000
  0.039200000   -3.250759   57.918766  -98.611886    6.417027    0.000000    0.000000    0.000000    0.000000
  0.039400000   -3.296691   55.916447 -100.273783   17.714693    0.000000    0.000000    0.000000    0.000000
  0.039600000   -3.357628   53.871876  -99.253447    7.390019    0.000000    0.000000    0.000000    0.000000
  0.039800000   -3.421714   51.879902  -98.162770   21.219975    0.000000    0.000000    0.000000    0.000000
  0.040000000   -3.480581   49.839771  -98.913903    6.051850    0.000000    0.000000    0.000000    0.000000
  0.040200000   -3.547744   47.778290  -98.550031   16.463131    0.000000    0.000000    0.000000    0.000000
  0.040400000   -3.611966   45.713364  -99.594964    7.828975    0.000000    0.000000    0.000000    0.000000
  0.040600000   -3.673896   43.690014 -101.409405    8.104724    0.000000    0.000000    0.000000    0.000000
  0.040800000   -3.737538   41.619972  -99.613846    7.726088    0.000000    0.000000    0.000000    0.000000
  0.041000000   -3.794977   39.569786  -99.010855   -5.723769    0.000000    0.000000    0.000000    0.000000
  0.041200000   -3.851024   37.516964  -99.812019    6.053486    0.000000    0.000000    0.000000    0.000000
  0.041400000   -3.914135   35.456512 -100.753684   11.099816    0.000000    0.000000    0.000000    0.000000
  0.041600000   -3.971848   33.380005  -99.059889   14.820080    0.000000    0.000000    0.000000    0.000000
  0.041800000   -4.022221   31.319727 -100.804197    4.987339    0.000000    0.000000    0.000000    0.000000
  0.042000000   -4.074557   29.272032  -99.680802   -3.452214    0.000000    0.000000    0.000000    0.000000
  0.042200000   -4.125639   27.268017 -101.562040   14.296769    0.000000    0.000000    0.000000    0.000000
  0.042400000   -4.173645   25.264601 -104.115649    6.148147    0.000000    0.000000    0.000000    0.000000
  0.042600000   -4.225923   23.253269 -102.512995   -3.498144    0.000000    0.000000    0.000000    0.000000
  0.042800000   -4.275923   21.269154 -100.704722   15.111753    0.000000    0.000000    0.000000    0.000000
