! Anritsu VNA Master:                     Model: MS2036C/10/77
! SN:                                  1601066
! /card0/usr/254.ns.sma.r50.22.s2p
! Existing Calibration Information:
! TYPE:                         Current Settings,       Active Cal Settings
! TIME:             	   12/20/2017 01:52:39 PM,    12/20/2017 01:40:30 PM
! INTERNAL TEMP:    	                   46.8 C,                    46.0 C
! # POINTS:         	                      501,                       501
! START FREQ:       	               10.000 MHz,                10.000 MHz
! STOP FREQ:        	              110.000 MHz,               110.000 MHz
! SOURCE POWER:     	                     High,                      High
! IFBW:             	                   100 Hz,                    100 Hz
! AVG FACTOR:       	                       1 ,                        1 
! REF PLANE 1:      	                     0 mm,                      0 mm
! REF PLANE 2:      	                     0 mm,                      0 mm
! CAL TYPE:         	                 Full S11,                  Full S11
! CAL METHOD:       	                     SOLT,                      SOLT
! CAL LINE TYPE:    	                     Coax,                      Coax
! DUT PORT 1:       	                N-Conn(F),                 N-Conn(F)
! DUT PORT 2:       	                K-Conn(F),                 K-Conn(F)
! CAL STATUS:       	        OK: Accuracy High,                        --
# GHZ S DB R 50.0
! FREQ.GHZ       S11DB        S11A       S21DB        S21A       S12DB        S12A       S22DB        S22A
  0.010000000  -44.468694   66.831650  -83.024801   76.634384    0.000000    0.000000    0.000000    0.000000
  0.010200000  -44.593474   65.802666  -83.103428   73.813019    0.000000    0.000000    0.000000    0.000000
  0.010400000  -44.311741   65.873627  -83.495602   75.978531    0.000000    0.000000    0.000000    0.000000
  0.010600000  -44.593028   66.344528  -84.199713   73.287376    0.000000    0.000000    0.000000    0.000000
  0.010800000  -44.472427   65.549561  -83.889970   71.730362    0.000000    0.000000    0.000000    0.000000
  0.011000000  -44.339887   65.637505  -84.329749   69.932846    0.000000    0.000000    0.000000    0.000000
  0.011200000  -44.373180   63.643990  -84.927153   71.657646    0.000000    0.000000    0.000000    0.000000
  0.011400000  -43.832147   63.824322  -84.572536   67.150406    0.000000    0.000000    0.000000    0.000000
  0.011600000  -44.002580   63.023605  -84.949598   68.284286    0.000000    0.000000    0.000000    0.000000
  0.011800000  -43.918794   62.454075  -85.001837   65.200043    0.000000    0.000000    0.000000    0.000000
  0.012000000  -43.766192   61.753380  -85.362665   69.137962    0.000000    0.000000    0.000000    0.000000
  0.012200000  -43.467324   61.891617  -84.962808   66.393456    0.000000    0.000000    0.000000    0.000000
  0.012400000  -43.655472   58.617203  -85.184930   62.529957    0.000000    0.000000    0.000000    0.000000
  0.012600000  -43.450275   59.805565  -85.478727   63.493549    0.000000    0.000000    0.000000    0.000000
  0.012800000  -43.203579   59.144344  -86.052198   64.844421    0.000000    0.000000    0.000000    0.000000
  0.013000000  -43.089748   59.617912  -86.084948   57.923325    0.000000    0.000000    0.000000    0.000000
  0.013200000  -42.974851   57.930790  -86.313380   60.459938    0.000000    0.000000    0.000000    0.000000
  0.013400000  -42.938027   57.537594  -86.569001   60.465958    0.000000    0.000000    0.000000    0.000000
  0.013600000  -42.708677   57.346680  -86.545977   58.247902    0.000000    0.000000    0.000000    0.000000
  0.013800000  -42.529527   57.669331  -86.671974   56.796764    0.000000    0.000000    0.000000    0.000000
  0.014000000  -42.364357   58.178364  -86.639873   57.687134    0.000000    0.000000    0.000000    0.000000
  0.014200000  -42.108745   58.429531  -87.133220   55.314484    0.000000    0.000000    0.000000    0.000000
  0.014400000  -41.996850   57.833580  -87.693408   58.269779    0.000000    0.000000    0.000000    0.000000
  0.014600000  -41.783737   56.833645  -87.002750   55.290531    0.000000    0.000000    0.000000    0.000000
  0.014800000  -41.640273   57.723976  -87.306480   55.544136    0.000000    0.000000    0.000000    0.000000
  0.015000000  -41.519459   57.839523  -87.634832   51.991295    0.000000    0.000000    0.000000    0.000000
  0.015200000  -41.455070   57.811028  -87.523503   52.304993    0.000000    0.000000    0.000000    0.000000
  0.015400000  -41.225895   58.234699  -87.484625   51.382977    0.000000    0.000000    0.000000    0.000000
  0.015600000  -41.212363   58.338066  -87.921621   48.008514    0.000000    0.000000    0.000000    0.000000
  0.015800000  -40.992516   58.564671  -88.414219   52.582359    0.000000    0.000000    0.000000    0.000000
  0.016000000  -41.043387   58.072174  -88.260166   46.565670    0.000000    0.000000    0.000000    0.000000
  0.016200000  -40.769274   59.951153  -88.246250   48.092682    0.000000    0.000000    0.000000    0.000000
  0.016400000  -40.782076   60.395451  -89.212352   47.548046    0.000000    0.000000    0.000000    0.000000
  0.016600000  -40.584206   60.248028  -89.017646   46.376682    0.000000    0.000000    0.000000    0.000000
  0.016800000  -40.673731   61.728409  -88.997388   49.399338    0.000000    0.000000    0.000000    0.000000
  0.017000000  -40.590788   62.657394  -89.124958   44.898525    0.000000    0.000000    0.000000    0.000000
  0.017200000  -40.576363   62.645626  -89.363279   42.371868    0.000000    0.000000    0.000000    0.000000
  0.017400000  -40.681424   62.258213  -89.607314   45.820473    0.000000    0.000000    0.000000    0.000000
  0.017600000  -40.622394   62.133781  -90.235796   43.143776    0.000000    0.000000    0.000000    0.000000
  0.017800000  -40.480831   61.892120  -89.718188   44.036510    0.000000    0.000000    0.000000    0.000000
  0.018000000  -40.659770   61.516651  -89.256766   42.627117    0.000000    0.000000    0.000000    0.000000
  0.018200000  -40.538786   62.202671  -90.367985   40.183445    0.000000    0.000000    0.000000    0.000000
  0.018400000  -40.673840   62.470890  -90.177608   45.421589    0.000000    0.000000    0.000000    0.000000
  0.018600000  -40.462130   61.701496  -90.013576   40.277054    0.000000    0.000000    0.000000    0.000000
  0.018800000  -40.448572   62.282841  -90.493525   41.476456    0.000000    0.000000    0.000000    0.000000
  0.019000000  -40.752483   61.240330  -90.303367   36.359325    0.000000    0.000000    0.000000    0.000000
  0.019200000  -40.598926   60.621815  -90.957241   41.280960    0.000000    0.000000    0.000000    0.000000
  0.019400000  -40.364083   60.426273  -90.453295   41.224552    0.000000    0.000000    0.000000    0.000000
  0.019600000  -40.565613   59.582527  -90.656776   37.420551    0.000000    0.000000    0.000000    0.000000
  0.019800000  -40.538677   60.052799  -91.791122   34.347828    0.000000    0.000000    0.000000    0.000000
  0.020000000  -40.538832   58.232937  -90.809435   36.039814    0.000000    0.000000    0.000000    0.000000
  0.020200000  -40.355955   58.984604  -91.705336   36.386135    0.000000    0.000000    0.000000    0.000000
  0.020400000  -40.311782   57.820900  -91.443270   37.935966    0.000000    0.000000    0.000000    0.000000
  0.020600000  -40.216736   58.111038  -91.902953   38.086864    0.000000    0.000000    0.000000    0.000000
  0.020800000  -40.146930   57.120777  -91.604471   38.177460    0.000000    0.000000    0.000000    0.000000
  0.021000000  -40.070947   57.916008  -91.273062   33.503586    0.000000    0.000000    0.000000    0.000000
  0.021200000  -39.999214   56.760468  -91.353325   38.591293    0.000000    0.000000    0.000000    0.000000
  0.021400000  -39.874004   55.623821  -91.264274   28.984133    0.000000    0.000000    0.000000    0.000000
  0.021600000  -39.681678   55.350479  -92.754605   33.945110    0.000000    0.000000    0.000000    0.000000
  0.021800000  -39.902178   55.273678  -92.083782   30.800356    0.000000    0.000000    0.000000    0.000000
  0.022000000  -39.658114   55.109085  -93.149701   33.512199    0.000000    0.000000    0.000000    0.000000
  0.022200000  -39.373121   55.917149  -92.994191   34.324097    0.000000    0.000000    0.000000    0.000000
  0.022400000  -39.503521   55.054264  -92.003413   36.502831    0.000000    0.000000    0.000000    0.000000
  0.022600000  -39.302256   55.000160  -92.679741   34.650627    0.000000    0.000000    0.000000    0.000000
  0.022800000  -39.141831   54.228096  -93.155788   30.291885    0.000000    0.000000    0.000000    0.000000
  0.023000000  -39.217859   54.362778  -93.421252   25.526043    0.000000    0.000000    0.000000    0.000000
  0.023200000  -39.054892   54.538414  -92.909166   26.290384    0.000000    0.000000    0.000000    0.000000
  0.023400000  -38.872263   54.856541  -93.492589   30.173845    0.000000    0.000000    0.000000    0.000000
  0.023600000  -38.806172   54.124058  -92.779351   24.211557    0.000000    0.000000    0.000000    0.000000
  0.023800000  -38.813818   55.035019  -93.302681   33.338520    0.000000    0.000000    0.000000    0.000000
  0.024000000  -38.556384   55.801048  -93.463377   30.302532    0.000000    0.000000    0.000000    0.000000
  0.024200000  -38.563681   54.347401  -94.202453   25.165733    0.000000    0.000000    0.000000    0.000000
  0.024400000  -38.504452   54.988724  -94.017323   23.640295    0.000000    0.000000    0.000000    0.000000
  0.024600000  -38.470173   54.622169  -93.536282   29.105608    0.000000    0.000000    0.000000    0.000000
  0.024800000  -38.393860   55.709644  -93.592152   26.325871    0.000000    0.000000    0.000000    0.000000
  0.025000000  -38.319182   55.053173  -94.129757   28.030394    0.000000    0.000000    0.000000    0.000000
  0.025200000  -38.375846   55.228260  -94.253719   26.588268    0.000000    0.000000    0.000000    0.000000
  0.025400000  -38.364121   55.277576  -94.317726   19.177155    0.000000    0.000000    0.000000    0.000000
  0.025600000  -38.276244   55.410042  -93.506680   33.944401    0.000000    0.000000    0.000000    0.000000
  0.025800000  -38.249521   55.975670  -94.256417   20.532997    0.000000    0.000000    0.000000    0.000000
  0.026000000  -38.178363   55.195606  -94.399090   31.505329    0.000000    0.000000    0.000000    0.000000
  0.026200000  -38.098063   55.345428  -94.594869   21.463236    0.000000    0.000000    0.000000    0.000000
  0.026400000  -38.155617   55.685253  -95.632940   21.814957    0.000000    0.000000    0.000000    0.000000
  0.026600000  -38.115008   55.334526  -95.073472   11.431679    0.000000    0.000000    0.000000    0.000000
  0.026800000  -38.071297   55.597996  -94.883684   18.220362    0.000000    0.000000    0.000000    0.000000
  0.027000000  -38.066652   55.456100  -94.892520   23.618141    0.000000    0.000000    0.000000    0.000000
  0.027200000  -38.059649   55.399578  -94.658512   20.884468    0.000000    0.000000    0.000000    0.000000
  0.027400000  -38.012158   55.117863  -96.170797   16.978405    0.000000    0.000000    0.000000    0.000000
  0.027600000  -38.048771   55.148922  -94.696598   15.328987    0.000000    0.000000    0.000000    0.000000
  0.027800000  -38.067923   55.346291  -95.486950   20.641933    0.000000    0.000000    0.000000    0.000000
  0.028000000  -37.933697   54.007198  -95.231478   22.819572    0.000000    0.000000    0.000000    0.000000
  0.028200000  -37.915268   53.595100  -96.538700   26.001684    0.000000    0.000000    0.000000    0.000000
  0.028400000  -37.941684   54.129177  -95.265699   21.390648    0.000000    0.000000    0.000000    0.000000
  0.028600000  -37.924677   53.435574  -96.405146   28.625616    0.000000    0.000000    0.000000    0.000000
  0.028800000  -37.851364   53.653526  -97.271004   22.099232    0.000000    0.000000    0.000000    0.000000
  0.029000000  -37.925980   53.445656  -94.987325   24.309103    0.000000    0.000000    0.000000    0.000000
  0.029200000  -37.777126   52.607090  -97.672171   19.296955    0.000000    0.000000    0.000000    0.000000
  0.029400000  -37.859119   52.368938  -96.667735   20.548733    0.000000    0.000000    0.000000    0.000000
  0.029600000  -37.703217   51.596096  -95.880887   15.112236    0.000000    0.000000    0.000000    0.000000
  0.029800000  -37.718321   51.908081  -97.438073   22.738289    0.000000    0.000000    0.000000    0.000000
  0.030000000  -37.516763   51.777969  -95.357295   15.955178    0.000000    0.000000    0.000000    0.000000
  0.030200000  -37.514258   51.094398  -97.022845   16.681091    0.000000    0.000000    0.000000    0.000000
  0.030400000  -37.484604   50.852386  -97.455538   23.809528    0.000000    0.000000    0.000000    0.000000
  0.030600000  -37.450586   50.831039  -97.785170   14.227428    0.000000    0.000000    0.000000    0.000000
  0.030800000  -37.309457   50.231800  -96.159046   12.063811    0.000000    0.000000    0.000000    0.000000
  0.031000000  -37.149847   50.471695  -98.161759   22.020842    0.000000    0.000000    0.000000    0.000000
  0.031200000  -37.199944   49.952721  -96.603447    4.496872    0.000000    0.000000    0.000000    0.000000
  0.031400000  -37.113481   50.603405  -96.697535   16.670502    0.000000    0.000000    0.000000    0.000000
  0.031600000  -37.036356   49.823727  -97.854102   13.387747    0.000000    0.000000    0.000000    0.000000
  0.031800000  -37.099705   48.925106  -97.656447   20.320118    0.000000    0.000000    0.000000    0.000000
  0.032000000  -36.865586   49.521347  -97.896413   20.495852    0.000000    0.000000    0.000000    0.000000
  0.032200000  -36.729962   50.018623  -97.423340   11.804643    0.000000    0.000000    0.000000    0.000000
  0.032400000  -36.813372   49.329739  -96.879220   15.869003    0.000000    0.000000    0.000000    0.000000
  0.032600000  -36.705165   49.109905  -95.749434   19.030703    0.000000    0.000000    0.000000    0.000000
  0.032800000  -36.519759   49.595753  -96.729750    7.326691    0.000000    0.000000    0.000000    0.000000
  0.033000000  -36.667665   49.226349  -97.580612   14.404268    0.000000    0.000000    0.000000    0.000000
  0.033200000  -36.431287   49.736156  -98.791409   10.666884    0.000000    0.000000    0.000000    0.000000
  0.033400000  -36.425642   49.060112  -99.034939   10.989880    0.000000    0.000000    0.000000    0.000000
  0.033600000  -36.442160   49.169704  -98.990229   22.829161    0.000000    0.000000    0.000000    0.000000
  0.033800000  -36.313541   49.461090  -99.332296   -3.084175    0.000000    0.000000    0.000000    0.000000
  0.034000000  -36.259874   49.170795  -96.780158    3.469634    0.000000    0.000000    0.000000    0.000000
  0.034200000  -36.230910   49.003719  -99.479582   15.264290    0.000000    0.000000    0.000000    0.000000
  0.034400000  -36.193652   49.583145  -97.169659   15.772381    0.000000    0.000000    0.000000    0.000000
  0.034600000  -36.176568   49.035191  -98.452194    8.869892    0.000000    0.000000    0.000000    0.000000
  0.034800000  -36.124912   49.298538  -99.562793    8.200828    0.000000    0.000000    0.000000    0.000000
  0.035000000  -36.078288   49.436649  -97.533443   -2.551421    0.000000    0.000000    0.000000    0.000000
  0.035200000  -35.976725   48.722500  -98.229369   12.996016    0.000000    0.000000    0.000000    0.000000
  0.035400000  -35.892527   48.839371  -97.915148   17.618773    0.000000    0.000000    0.000000    0.000000
  0.035600000  -35.997688   49.520424 -100.566322   20.078001    0.000000    0.000000    0.000000    0.000000
  0.035800000  -35.830761   49.617283  -99.836324   13.885011    0.000000    0.000000    0.000000    0.000000
  0.036000000  -35.834170   49.356468  -96.884585    7.599312    0.000000    0.000000    0.000000    0.000000
  0.036200000  -35.871933   49.021137  -99.762783    9.608477    0.000000    0.000000    0.000000    0.000000
  0.036400000  -35.716222   49.181740  -98.147640    5.181332    0.000000    0.000000    0.000000    0.000000
  0.036600000  -35.696934   49.332859  -98.479831   18.233637    0.000000    0.000000    0.000000    0.000000
  0.036800000  -35.688402   49.721699  -98.769777   23.262646    0.000000    0.000000    0.000000    0.000000
  0.037000000  -35.667954   50.038990 -100.188885   11.924390    0.000000    0.000000    0.000000    0.000000
  0.037200000  -35.560032   49.250351  -99.404187   13.810685    0.000000    0.000000    0.000000    0.000000
  0.037400000  -35.537500   50.003834 -100.156772   14.060397    0.000000    0.000000    0.000000    0.000000
  0.037600000  -35.587686   49.050308 -100.704667   12.292166    0.000000    0.000000    0.000000    0.000000
  0.037800000  -35.537188   49.596748 -100.908965   -9.615436    0.000000    0.000000    0.000000    0.000000
  0.038000000  -35.462056   49.379208  -99.447321  -13.055748    0.000000    0.000000    0.000000    0.000000
  0.038200000  -35.483399   49.288303  -99.963516    9.760922    0.000000    0.000000    0.000000    0.000000
  0.038400000  -35.438776   48.981827  -98.185558    0.495209    0.000000    0.000000    0.000000    0.000000
  0.038600000  -35.461632   48.870235  -99.810480   13.542092    0.000000    0.000000    0.000000    0.000000
  0.038800000  -35.390685   48.734814 -101.547761   14.317515    0.000000    0.000000    0.000000    0.000000
  0.039000000  -35.382715   48.695354  -99.974784   13.278424    0.000000    0.000000    0.000000    0.000000
  0.039200000  -35.425709   48.926666  -98.649456    8.969863    0.000000    0.000000    0.000000    0.000000
  0.039400000  -35.280936   49.372677 -100.786822   18.936024    0.000000    0.000000    0.000000    0.000000
  0.039600000  -35.296866   49.273148  -99.728534    3.208361    0.000000    0.000000    0.000000    0.000000
  0.039800000  -35.323827   48.918495 -100.865865    2.944867    0.000000    0.000000    0.000000    0.000000
  0.040000000  -35.233849   49.313080 -102.390916   31.985100    0.000000    0.000000    0.000000    0.000000
  0.040200000  -35.180888   48.757687 -100.136614    7.220629    0.000000    0.000000    0.000000    0.000000
  0.040400000  -35.240758   49.221394  -98.767077   12.149409    0.000000    0.000000    0.000000    0.000000
  0.040600000  -35.154884   49.189091 -101.789470    9.242943    0.000000    0.000000    0.000000    0.000000
  0.040800000  -35.196166   48.363888  -99.769478   -6.968238    0.000000    0.000000    0.000000    0.000000
  0.041000000  -35.145434   48.831982 -100.734543  -13.547764    0.000000    0.000000    0.000000    0.000000
  0.041200000  -35.171817   49.283962 -101.663033   26.385414    0.000000    0.000000    0.000000    0.000000
  0.041400000  -35.037410   48.242390 -101.058479    2.989353    0.000000    0.000000    0.000000    0.000000
  0.041600000  -35.103139   48.750031 -100.576054    6.802400    0.000000    0.000000    0.000000    0.000000
  0.041800000  -35.153765   48.983261 -100.991994    8.547297    0.000000    0.000000    0.000000    0.000000
  0.042000000  -35.084287   47.976803 -103.424293    9.638305    0.000000    0.000000    0.000000    0.000000
  0.042200000  -35.119771   47.621979 -100.982987    6.003875    0.000000    0.000000    0.000000    0.000000
  0.042400000  -35.056032   47.661789 -100.160364  -14.632316    0.000000    0.000000    0.000000    0.000000
  0.042600000  -35.097284   47.789566 -103.187201  -20.499861    0.000000    0.000000    0.000000    0.000000
  0.042800000  -35.006474   48.081284  -99.720248    6.882500    0.000000    0.000000    0.000000    0.000000
