! Anritsu VNA Master:                     Model: MS2036C/10/77
! SN:                                  1601066
! /card0/usr/254.ew.sma.r20.12.s2p
! Existing Calibration Information:
! TYPE:                         Current Settings,       Active Cal Settings
! TIME:             	   12/20/2017 12:39:13 PM,    12/20/2017 12:32:09 PM
! INTERNAL TEMP:    	                   45.3 C,                    45.8 C
! # POINTS:         	                      501,                       501
! START FREQ:       	               10.000 MHz,                10.000 MHz
! STOP FREQ:        	              110.000 MHz,               110.000 MHz
! SOURCE POWER:     	                     High,                      High
! IFBW:             	                   100 Hz,                    100 Hz
! AVG FACTOR:       	                       1 ,                        1 
! REF PLANE 1:      	                     0 mm,                      0 mm
! REF PLANE 2:      	                     0 mm,                      0 mm
! CAL TYPE:         	                 Full S11,                  Full S11
! CAL METHOD:       	                     SOLT,                      SOLT
! CAL LINE TYPE:    	                     Coax,                      Coax
! DUT PORT 1:       	                N-Conn(F),                 N-Conn(F)
! DUT PORT 2:       	                K-Conn(F),                 K-Conn(F)
! CAL STATUS:       	        OK: Accuracy High,                        --
# GHZ S DB R 50.0
! FREQ.GHZ       S11DB        S11A       S21DB        S21A       S12DB        S12A       S22DB        S22A
  0.010000000  -60.872632   91.471619  -82.768998   77.737480    0.000000    0.000000    0.000000    0.000000
  0.010200000  -61.302017   89.224419  -82.422217   76.001472    0.000000    0.000000    0.000000    0.000000
  0.010400000  -60.410581   88.783615  -82.658608   74.588669    0.000000    0.000000    0.000000    0.000000
  0.010600000  -60.652127   88.159973  -83.197522   73.360817    0.000000    0.000000    0.000000    0.000000
  0.010800000  -60.656025   91.103943  -83.543734   71.797432    0.000000    0.000000    0.000000    0.000000
  0.011000000  -60.238380   86.126389  -83.548275   70.549400    0.000000    0.000000    0.000000    0.000000
  0.011200000  -60.082651   88.924606  -83.654409   67.883583    0.000000    0.000000    0.000000    0.000000
  0.011400000  -59.868856   87.530182  -84.297666   66.754364    0.000000    0.000000    0.000000    0.000000
  0.011600000  -59.784662   86.392227  -84.364975   64.535011    0.000000    0.000000    0.000000    0.000000
  0.011800000  -59.901470   86.718521  -84.808861   62.220039    0.000000    0.000000    0.000000    0.000000
  0.012000000  -59.849780   86.465652  -85.094808   61.421459    0.000000    0.000000    0.000000    0.000000
  0.012200000  -59.693310   85.255432  -85.404147   59.678738    0.000000    0.000000    0.000000    0.000000
  0.012400000  -59.509103   84.053314  -85.508655   60.401848    0.000000    0.000000    0.000000    0.000000
  0.012600000  -59.388199   85.446793  -85.844105   61.316856    0.000000    0.000000    0.000000    0.000000
  0.012800000  -59.280481   85.794319  -86.470698   57.090965    0.000000    0.000000    0.000000    0.000000
  0.013000000  -59.128136   83.022629  -86.159110   58.080959    0.000000    0.000000    0.000000    0.000000
  0.013200000  -58.966094   84.749191  -86.817084   58.666988    0.000000    0.000000    0.000000    0.000000
  0.013400000  -58.926139   80.353546  -86.787516   60.824318    0.000000    0.000000    0.000000    0.000000
  0.013600000  -58.613404   83.893654  -87.072624   61.512562    0.000000    0.000000    0.000000    0.000000
  0.013800000  -58.511633   82.401741  -87.788784   60.725014    0.000000    0.000000    0.000000    0.000000
  0.014000000  -58.680364   81.370865  -87.720722   59.572262    0.000000    0.000000    0.000000    0.000000
  0.014200000  -58.143120   80.344688  -87.556348   59.017757    0.000000    0.000000    0.000000    0.000000
  0.014400000  -58.293266   81.804749  -87.879656   58.082794    0.000000    0.000000    0.000000    0.000000
  0.014600000  -58.086782   80.596230  -87.553742   54.648804    0.000000    0.000000    0.000000    0.000000
  0.014800000  -57.938656   80.837128  -87.683332   57.696266    0.000000    0.000000    0.000000    0.000000
  0.015000000  -57.915273   79.947594  -88.349675   54.474045    0.000000    0.000000    0.000000    0.000000
  0.015200000  -57.503741   80.477455  -87.925810   55.564323    0.000000    0.000000    0.000000    0.000000
  0.015400000  -57.576829   80.289383  -88.355738   56.921993    0.000000    0.000000    0.000000    0.000000
  0.015600000  -58.110579   78.049484  -87.794851   54.163170    0.000000    0.000000    0.000000    0.000000
  0.015800000  -57.394971   78.521820  -87.975191   52.465351    0.000000    0.000000    0.000000    0.000000
  0.016000000  -57.296356   78.320366  -87.739197   52.910553    0.000000    0.000000    0.000000    0.000000
  0.016200000  -57.078633   77.837982  -88.355180   51.285286    0.000000    0.000000    0.000000    0.000000
  0.016400000  -56.902992   77.558861  -88.262447   50.016644    0.000000    0.000000    0.000000    0.000000
  0.016600000  -56.925451   77.901787  -88.934239   47.833897    0.000000    0.000000    0.000000    0.000000
  0.016800000  -56.723417   77.833984  -88.916985   48.434029    0.000000    0.000000    0.000000    0.000000
  0.017000000  -56.882395   78.486061  -88.499003   40.669827    0.000000    0.000000    0.000000    0.000000
  0.017200000  -56.663589   77.391479  -89.517354   45.046417    0.000000    0.000000    0.000000    0.000000
  0.017400000  -56.447318   77.472664  -88.190344   43.134453    0.000000    0.000000    0.000000    0.000000
  0.017600000  -56.541925   76.766464  -88.843622   47.944828    0.000000    0.000000    0.000000    0.000000
  0.017800000  -56.334086   76.637093  -89.029685   42.397095    0.000000    0.000000    0.000000    0.000000
  0.018000000  -56.167816   77.078445  -89.379381   38.249584    0.000000    0.000000    0.000000    0.000000
  0.018200000  -56.078717   77.548050  -89.591682   39.145573    0.000000    0.000000    0.000000    0.000000
  0.018400000  -56.061883   76.563812  -89.876334   39.602413    0.000000    0.000000    0.000000    0.000000
  0.018600000  -55.930373   77.086174  -89.929260   37.954330    0.000000    0.000000    0.000000    0.000000
  0.018800000  -55.843727   76.393890  -90.493828   37.385078    0.000000    0.000000    0.000000    0.000000
  0.019000000  -55.738773   76.676216  -91.110032   37.753838    0.000000    0.000000    0.000000    0.000000
  0.019200000  -55.642110   76.226624  -90.864822   38.471535    0.000000    0.000000    0.000000    0.000000
  0.019400000  -55.618763   75.720238  -91.138972   37.458347    0.000000    0.000000    0.000000    0.000000
  0.019600000  -55.450634   75.646568  -91.990554   33.810642    0.000000    0.000000    0.000000    0.000000
  0.019800000  -55.355221   74.825134  -92.186560   32.154247    0.000000    0.000000    0.000000    0.000000
  0.020000000  -55.244152   75.352852  -90.773369   37.928417    0.000000    0.000000    0.000000    0.000000
  0.020200000  -55.191288   75.076378  -91.442128   35.556255    0.000000    0.000000    0.000000    0.000000
  0.020400000  -55.110900   75.023430  -92.615374   36.081863    0.000000    0.000000    0.000000    0.000000
  0.020600000  -55.105556   74.719307  -91.512608   37.040737    0.000000    0.000000    0.000000    0.000000
  0.020800000  -54.842238   74.008804  -92.621729   29.218887    0.000000    0.000000    0.000000    0.000000
  0.021000000  -54.917858   74.095886  -92.284379   35.261337    0.000000    0.000000    0.000000    0.000000
  0.021200000  -54.607597   73.633377  -92.437085   43.473465    0.000000    0.000000    0.000000    0.000000
  0.021400000  -54.769099   72.851425  -91.905689   39.943577    0.000000    0.000000    0.000000    0.000000
  0.021600000  -54.687204   73.886269  -93.032206   37.875793    0.000000    0.000000    0.000000    0.000000
  0.021800000  -54.549093   73.099670  -92.235911   35.794037    0.000000    0.000000    0.000000    0.000000
  0.022000000  -54.301970   73.183678  -92.837137   34.421837    0.000000    0.000000    0.000000    0.000000
  0.022200000  -54.338953   73.696785  -92.541025   37.303852    0.000000    0.000000    0.000000    0.000000
  0.022400000  -54.213428   72.791351  -92.464992   33.103394    0.000000    0.000000    0.000000    0.000000
  0.022600000  -54.088021   72.693062  -92.210498   31.654642    0.000000    0.000000    0.000000    0.000000
  0.022800000  -54.004976   72.143707  -92.667714   31.536852    0.000000    0.000000    0.000000    0.000000
  0.023000000  -54.220279   70.732666  -92.459808   33.248024    0.000000    0.000000    0.000000    0.000000
  0.023200000  -54.018895   71.338974  -92.300386   31.424597    0.000000    0.000000    0.000000    0.000000
  0.023400000  -53.387600   70.022125  -93.387526   29.707573    0.000000    0.000000    0.000000    0.000000
  0.023600000  -53.765555   71.164490  -92.235500   28.703720    0.000000    0.000000    0.000000    0.000000
  0.023800000  -53.671282   70.642914  -92.544992   29.285994    0.000000    0.000000    0.000000    0.000000
  0.024000000  -53.648184   71.243767  -92.368199   24.406967    0.000000    0.000000    0.000000    0.000000
  0.024200000  -53.598538   70.097504  -93.235791   26.070774    0.000000    0.000000    0.000000    0.000000
  0.024400000  -53.446087   70.668846  -93.406041   18.087370    0.000000    0.000000    0.000000    0.000000
  0.024600000  -53.386122   70.529335  -94.050894   24.061985    0.000000    0.000000    0.000000    0.000000
  0.024800000  -53.400226   70.243172  -94.365353   18.912354    0.000000    0.000000    0.000000    0.000000
  0.025000000  -53.395983   69.785980  -94.626271   26.526487    0.000000    0.000000    0.000000    0.000000
  0.025200000  -53.164388   69.709206  -95.180792   28.660242    0.000000    0.000000    0.000000    0.000000
  0.025400000  -53.087191   69.699989  -93.965314   27.073959    0.000000    0.000000    0.000000    0.000000
  0.025600000  -53.074875   69.897377  -93.239095   17.387239    0.000000    0.000000    0.000000    0.000000
  0.025800000  -53.083079   69.594925  -94.564552   25.224239    0.000000    0.000000    0.000000    0.000000
  0.026000000  -52.960636   68.586586  -94.381113   19.917816    0.000000    0.000000    0.000000    0.000000
  0.026200000  -52.982563   69.217293  -95.135984    6.966820    0.000000    0.000000    0.000000    0.000000
  0.026400000  -52.860242   68.610794  -95.048511   31.093197    0.000000    0.000000    0.000000    0.000000
  0.026600000  -52.738121   68.416641  -95.723682   14.645911    0.000000    0.000000    0.000000    0.000000
  0.026800000  -52.650464   68.425224  -95.563099   22.889910    0.000000    0.000000    0.000000    0.000000
  0.027000000  -52.582105   67.901649  -95.930235   25.438055    0.000000    0.000000    0.000000    0.000000
  0.027200000  -52.557868   67.598969  -95.547396   23.940691    0.000000    0.000000    0.000000    0.000000
  0.027400000  -52.437536   67.675156  -95.373088   26.260246    0.000000    0.000000    0.000000    0.000000
  0.027600000  -52.390162   67.252907  -96.367684   21.666420    0.000000    0.000000    0.000000    0.000000
  0.027800000  -52.290964   67.093056  -96.868393   16.271448    0.000000    0.000000    0.000000    0.000000
  0.028000000  -52.209565   66.714943  -96.409297   21.753698    0.000000    0.000000    0.000000    0.000000
  0.028200000  -52.161620   66.327843  -96.459462   19.648090    0.000000    0.000000    0.000000    0.000000
  0.028400000  -52.129408   66.457336  -96.439070   14.756599    0.000000    0.000000    0.000000    0.000000
  0.028600000  -52.094895   66.400108  -94.315898   27.789394    0.000000    0.000000    0.000000    0.000000
  0.028800000  -51.984097   66.034851  -96.218623   27.450560    0.000000    0.000000    0.000000    0.000000
  0.029000000  -51.922148   65.870132  -96.162870   24.140511    0.000000    0.000000    0.000000    0.000000
  0.029200000  -51.867457   66.402077  -96.849926    9.450484    0.000000    0.000000    0.000000    0.000000
  0.029400000  -51.858051   66.209854  -96.100521   23.988520    0.000000    0.000000    0.000000    0.000000
  0.029600000  -51.796382   65.886772  -95.470623   11.955963    0.000000    0.000000    0.000000    0.000000
  0.029800000  -51.719836   64.720856  -97.013784   19.161896    0.000000    0.000000    0.000000    0.000000
  0.030000000  -51.747254   65.759483  -95.823992   21.615536    0.000000    0.000000    0.000000    0.000000
  0.030200000  -51.648969   65.581154  -97.319230   21.133553    0.000000    0.000000    0.000000    0.000000
  0.030400000  -51.499055   64.425934  -96.401839   12.085814    0.000000    0.000000    0.000000    0.000000
  0.030600000  -51.563888   64.259109  -96.557548   21.591425    0.000000    0.000000    0.000000    0.000000
  0.030800000  -51.497520   63.916809  -95.790566   20.297020    0.000000    0.000000    0.000000    0.000000
  0.031000000  -51.320499   64.688446  -96.362413   14.199731    0.000000    0.000000    0.000000    0.000000
  0.031200000  -51.261621   64.193527  -96.979562    9.301180    0.000000    0.000000    0.000000    0.000000
  0.031400000  -51.244337   64.523834  -96.548920   20.134123    0.000000    0.000000    0.000000    0.000000
  0.031600000  -51.098923   64.167038  -99.291745   30.124798    0.000000    0.000000    0.000000    0.000000
  0.031800000  -51.083166   63.834423  -96.533074   11.226066    0.000000    0.000000    0.000000    0.000000
  0.032000000  -50.942708   64.169617  -98.322440    3.280682    0.000000    0.000000    0.000000    0.000000
  0.032200000  -50.973581   63.494953  -98.636552   18.483685    0.000000    0.000000    0.000000    0.000000
  0.032400000  -50.903421   63.740288  -97.895697    9.718245    0.000000    0.000000    0.000000    0.000000
  0.032600000  -50.813816   63.186142  -99.309861    9.009208    0.000000    0.000000    0.000000    0.000000
  0.032800000  -50.802129   62.821041  -98.716826   16.563324    0.000000    0.000000    0.000000    0.000000
  0.033000000  -50.728088   63.249561  -97.365556   18.776190    0.000000    0.000000    0.000000    0.000000
  0.033200000  -50.712318   63.534595  -98.003998   13.691360    0.000000    0.000000    0.000000    0.000000
  0.033400000  -50.704847   62.474663  -97.466268    4.963556    0.000000    0.000000    0.000000    0.000000
  0.033600000  -50.523839   62.745285  -97.837806   14.887263    0.000000    0.000000    0.000000    0.000000
  0.033800000  -50.451626   62.130474  -97.476400    6.876783    0.000000    0.000000    0.000000    0.000000
  0.034000000  -50.392550   62.145420  -98.934540   16.430601    0.000000    0.000000    0.000000    0.000000
  0.034200000  -50.526100   62.051811  -98.887873   11.051161    0.000000    0.000000    0.000000    0.000000
  0.034400000  -50.362266   61.257473  -99.644778   15.141242    0.000000    0.000000    0.000000    0.000000
  0.034600000  -50.260556   61.620110  -97.401670   18.609119    0.000000    0.000000    0.000000    0.000000
  0.034800000  -50.308668   61.137024 -101.072371   10.626085    0.000000    0.000000    0.000000    0.000000
  0.035000000  -50.183850   60.940384  -98.483382    3.583570    0.000000    0.000000    0.000000    0.000000
  0.035200000  -50.142334   60.829597  -98.504975   12.848575    0.000000    0.000000    0.000000    0.000000
  0.035400000  -50.079362   60.685692  -98.192895   11.954972    0.000000    0.000000    0.000000    0.000000
  0.035600000  -50.010365   60.879307  -98.994061   15.484831    0.000000    0.000000    0.000000    0.000000
  0.035800000  -49.980492   60.011559  -99.692193   10.208894    0.000000    0.000000    0.000000    0.000000
  0.036000000  -49.889102   59.608326  -97.717020    0.657595    0.000000    0.000000    0.000000    0.000000
  0.036200000  -49.828543   59.960613  -99.573779   10.272170    0.000000    0.000000    0.000000    0.000000
  0.036400000  -49.812927   59.830360  -99.770241    8.472161    0.000000    0.000000    0.000000    0.000000
  0.036600000  -49.752353   60.043060  -98.582793   20.787991    0.000000    0.000000    0.000000    0.000000
  0.036800000  -49.666957   59.503677  -99.991130    6.829921    0.000000    0.000000    0.000000    0.000000
  0.037000000  -49.634669   59.579262  -99.689159    2.548409    0.000000    0.000000    0.000000    0.000000
  0.037200000  -49.593780   59.615143 -101.987815    0.165644    0.000000    0.000000    0.000000    0.000000
  0.037400000  -49.608511   59.251865  -99.733113   15.648806    0.000000    0.000000    0.000000    0.000000
  0.037600000  -49.560054   58.921459  -99.896166   10.818514    0.000000    0.000000    0.000000    0.000000
  0.037800000  -49.530134   59.024323  -99.504150   19.118601    0.000000    0.000000    0.000000    0.000000
  0.038000000  -49.528816   58.801487 -100.088994    7.943979    0.000000    0.000000    0.000000    0.000000
  0.038200000  -49.396575   58.644878  -97.295764    5.115934    0.000000    0.000000    0.000000    0.000000
  0.038400000  -49.343788   58.229687 -101.154469    5.909626    0.000000    0.000000    0.000000    0.000000
  0.038600000  -49.374347   58.022888 -101.245544   10.308685    0.000000    0.000000    0.000000    0.000000
  0.038800000  -49.263142   57.661522  -99.161298    2.322469    0.000000    0.000000    0.000000    0.000000
  0.039000000  -49.227610   57.447964  -97.267715   -3.295340    0.000000    0.000000    0.000000    0.000000
  0.039200000  -49.123119   57.823711  -98.251618   -0.322097    0.000000    0.000000    0.000000    0.000000
  0.039400000  -49.049621   57.280033 -100.559180   10.997812    0.000000    0.000000    0.000000    0.000000
  0.039600000  -49.037186   57.058315 -100.444241   24.818304    0.000000    0.000000    0.000000    0.000000
  0.039800000  -49.039187   57.271400 -100.973049   10.988890    0.000000    0.000000    0.000000    0.000000
  0.040000000  -48.919646   56.753414  -99.141677    5.079727    0.000000    0.000000    0.000000    0.000000
  0.040200000  -48.887949   56.660496 -101.296853   11.963514    0.000000    0.000000    0.000000    0.000000
  0.040400000  -48.839174   56.897800 -100.934743   11.650134    0.000000    0.000000    0.000000    0.000000
  0.040600000  -48.775183   56.642841  -99.603596   15.305697    0.000000    0.000000    0.000000    0.000000
  0.040800000  -48.760737   56.502468 -100.379758   12.256991    0.000000    0.000000    0.000000    0.000000
  0.041000000  -48.754492   56.181057 -102.103640    8.661555    0.000000    0.000000    0.000000    0.000000
  0.041200000  -48.709183   56.520126  -98.208985    1.418902    0.000000    0.000000    0.000000    0.000000
  0.041400000  -48.572011   56.139397 -100.073628    3.717221    0.000000    0.000000    0.000000    0.000000
  0.041600000  -48.527351   55.534393 -100.787250   16.263460    0.000000    0.000000    0.000000    0.000000
  0.041800000  -48.566678   55.430950 -101.301502   -1.246816    0.000000    0.000000    0.000000    0.000000
  0.042000000  -48.441210   55.243919  -99.946917    1.327552    0.000000    0.000000    0.000000    0.000000
  0.042200000  -48.471625   55.035950  -99.568892    3.917483    0.000000    0.000000    0.000000    0.000000
  0.042400000  -48.438784   54.642025  -98.373410    6.814960    0.000000    0.000000    0.000000    0.000000
  0.042600000  -48.385584   54.576447 -100.944696   -0.559087    0.000000    0.000000    0.000000    0.000000
  0.042800000  -48.340031   54.335785 -101.074512   11.435023    0.000000    0.000000    0.000000    0.000000
