! Anritsu VNA Master:                     Model: MS2036C/10/77
! SN:                                  1601066
! /card0/usr/254.ns.sma.r50.11.s2p
! Existing Calibration Information:
! TYPE:                         Current Settings,       Active Cal Settings
! TIME:             	   12/20/2017 01:28:39 PM,    12/20/2017 01:21:26 PM
! INTERNAL TEMP:    	                   45.0 C,                    44.5 C
! # POINTS:         	                      501,                       501
! START FREQ:       	               10.000 MHz,                10.000 MHz
! STOP FREQ:        	              110.000 MHz,               110.000 MHz
! SOURCE POWER:     	                     High,                      High
! IFBW:             	                   100 Hz,                    100 Hz
! AVG FACTOR:       	                       1 ,                        1 
! REF PLANE 1:      	                     0 mm,                      0 mm
! REF PLANE 2:      	                     0 mm,                      0 mm
! CAL TYPE:         	                 Full S11,                  Full S11
! CAL METHOD:       	                     SOLT,                      SOLT
! CAL LINE TYPE:    	                     Coax,                      Coax
! DUT PORT 1:       	                N-Conn(F),                 N-Conn(F)
! DUT PORT 2:       	                K-Conn(F),                 K-Conn(F)
! CAL STATUS:       	        OK: Accuracy High,                        --
# GHZ S DB R 50.0
! FREQ.GHZ       S11DB        S11A       S21DB        S21A       S12DB        S12A       S22DB        S22A
  0.010000000  -98.584712  -21.744549  -83.251169   76.200562    0.000000    0.000000    0.000000    0.000000
  0.010200000  -97.875160  -17.289879  -83.287994   75.159325    0.000000    0.000000    0.000000    0.000000
  0.010400000  -97.000459  -18.795830  -83.641021   74.695648    0.000000    0.000000    0.000000    0.000000
  0.010600000  -97.551644  -20.248968  -83.972319   73.179092    0.000000    0.000000    0.000000    0.000000
  0.010800000  -97.244643  -20.100643  -84.243486   72.778442    0.000000    0.000000    0.000000    0.000000
  0.011000000  -96.803382  -21.881857  -84.053770   68.684761    0.000000    0.000000    0.000000    0.000000
  0.011200000  -97.221951  -21.586363  -84.554084   68.836227    0.000000    0.000000    0.000000    0.000000
  0.011400000  -97.363160  -20.327396  -84.459406   67.499985    0.000000    0.000000    0.000000    0.000000
  0.011600000  -95.956259  -16.823515  -84.606447   66.078812    0.000000    0.000000    0.000000    0.000000
  0.011800000  -95.867325  -21.774204  -84.840872   65.671143    0.000000    0.000000    0.000000    0.000000
  0.012000000  -96.048392  -20.341364  -84.798295   64.594147    0.000000    0.000000    0.000000    0.000000
  0.012200000  -95.678649  -18.106085  -85.349395   64.341728    0.000000    0.000000    0.000000    0.000000
  0.012400000  -95.652104  -18.000132  -85.745317   66.189545    0.000000    0.000000    0.000000    0.000000
  0.012600000  -95.531140  -21.089636  -85.305256   64.373283    0.000000    0.000000    0.000000    0.000000
  0.012800000  -95.145654  -22.360498  -85.212484   64.536858    0.000000    0.000000    0.000000    0.000000
  0.013000000  -95.011235  -21.384714  -85.958079   61.066959    0.000000    0.000000    0.000000    0.000000
  0.013200000  -95.295266  -24.179094  -86.160191   59.264889    0.000000    0.000000    0.000000    0.000000
  0.013400000  -94.656106  -22.596714  -86.299769   61.877190    0.000000    0.000000    0.000000    0.000000
  0.013600000  -94.737910  -26.638086  -86.647624   59.564228    0.000000    0.000000    0.000000    0.000000
  0.013800000  -94.457495  -25.905096  -86.739089   59.266323    0.000000    0.000000    0.000000    0.000000
  0.014000000  -94.398290  -28.387093  -86.972194   57.233006    0.000000    0.000000    0.000000    0.000000
  0.014200000  -94.158810  -28.809950  -87.006686   56.684765    0.000000    0.000000    0.000000    0.000000
  0.014400000  -93.766289  -29.144299  -86.592341   56.259560    0.000000    0.000000    0.000000    0.000000
  0.014600000  -93.469213  -27.882757  -87.110413   54.075214    0.000000    0.000000    0.000000    0.000000
  0.014800000  -93.044010  -32.062939  -87.599651   54.585888    0.000000    0.000000    0.000000    0.000000
  0.015000000  -93.169130  -29.879374  -87.374008   55.991783    0.000000    0.000000    0.000000    0.000000
  0.015200000  -92.974658  -31.715250  -87.833463   52.488220    0.000000    0.000000    0.000000    0.000000
  0.015400000  -92.476073  -30.176619  -87.863674   49.405453    0.000000    0.000000    0.000000    0.000000
  0.015600000  -92.523519  -34.682499  -88.231800   52.175510    0.000000    0.000000    0.000000    0.000000
  0.015800000  -92.245218  -34.723705  -87.800812   51.818047    0.000000    0.000000    0.000000    0.000000
  0.016000000  -91.972221  -31.529837  -89.059767   49.464439    0.000000    0.000000    0.000000    0.000000
  0.016200000  -91.602580  -33.611626  -88.050790   48.521797    0.000000    0.000000    0.000000    0.000000
  0.016400000  -91.162774  -33.639221  -88.169201   48.719830    0.000000    0.000000    0.000000    0.000000
  0.016600000  -91.380242  -34.946175  -88.774165   47.005428    0.000000    0.000000    0.000000    0.000000
  0.016800000  -91.067568  -30.105053  -89.111233   49.649048    0.000000    0.000000    0.000000    0.000000
  0.017000000  -90.724912  -31.493633  -89.393264   48.769951    0.000000    0.000000    0.000000    0.000000
  0.017200000  -90.640146  -31.175459  -89.680093   42.819973    0.000000    0.000000    0.000000    0.000000
  0.017400000  -90.230172  -31.696466  -89.864440   47.133785    0.000000    0.000000    0.000000    0.000000
  0.017600000  -90.363946  -29.084681  -89.928856   43.207355    0.000000    0.000000    0.000000    0.000000
  0.017800000  -90.121740  -28.399117  -89.456952   43.384537    0.000000    0.000000    0.000000    0.000000
  0.018000000  -89.828065  -26.937311  -89.629281   39.615868    0.000000    0.000000    0.000000    0.000000
  0.018200000  -89.761283  -26.110107  -89.822555   43.863911    0.000000    0.000000    0.000000    0.000000
  0.018400000  -89.571027  -26.840693  -90.037381   45.213078    0.000000    0.000000    0.000000    0.000000
  0.018600000  -89.553201  -26.860523  -90.189795   41.825253    0.000000    0.000000    0.000000    0.000000
  0.018800000  -89.492741  -24.278749  -89.530585   43.611916    0.000000    0.000000    0.000000    0.000000
  0.019000000  -89.493688  -24.719234  -89.588379   44.456501    0.000000    0.000000    0.000000    0.000000
  0.019200000  -89.290819  -22.772049  -90.692633   36.336510    0.000000    0.000000    0.000000    0.000000
  0.019400000  -89.507885  -24.362568  -90.673220   37.396885    0.000000    0.000000    0.000000    0.000000
  0.019600000  -89.282051  -21.772291  -90.743502   36.187511    0.000000    0.000000    0.000000    0.000000
  0.019800000  -88.924097  -22.541773  -91.070002   36.990234    0.000000    0.000000    0.000000    0.000000
  0.020000000  -88.967703  -22.904764  -90.739552   36.970989    0.000000    0.000000    0.000000    0.000000
  0.020200000  -89.146798  -22.842682  -91.160736   40.945057    0.000000    0.000000    0.000000    0.000000
  0.020400000  -88.833329  -23.357466  -91.611997   40.090897    0.000000    0.000000    0.000000    0.000000
  0.020600000  -88.568446  -23.635700  -92.378935   41.111309    0.000000    0.000000    0.000000    0.000000
  0.020800000  -88.617458  -23.949339  -91.744322   41.908241    0.000000    0.000000    0.000000    0.000000
  0.021000000  -88.661968  -24.284975  -91.421013   40.298298    0.000000    0.000000    0.000000    0.000000
  0.021200000  -88.765597  -26.852064  -90.933925   28.879358    0.000000    0.000000    0.000000    0.000000
  0.021400000  -88.586283  -27.846323  -93.501764   44.307831    0.000000    0.000000    0.000000    0.000000
  0.021600000  -88.549162  -29.197529  -92.372085   31.925083    0.000000    0.000000    0.000000    0.000000
  0.021800000  -88.145544  -29.888870  -92.353486   28.930433    0.000000    0.000000    0.000000    0.000000
  0.022000000  -87.970558  -32.685379  -91.392396   31.521585    0.000000    0.000000    0.000000    0.000000
  0.022200000  -88.068904  -34.258549  -92.399371   32.831501    0.000000    0.000000    0.000000    0.000000
  0.022400000  -87.910722  -34.737999  -92.740564   32.760033    0.000000    0.000000    0.000000    0.000000
  0.022600000  -87.556623  -34.089550  -92.199976   30.968361    0.000000    0.000000    0.000000    0.000000
  0.022800000  -87.176168  -36.014477  -93.216519   33.190540    0.000000    0.000000    0.000000    0.000000
  0.023000000  -87.168139  -37.385765  -92.487982   31.614252    0.000000    0.000000    0.000000    0.000000
  0.023200000  -86.598778  -37.980728  -93.026520   25.796932    0.000000    0.000000    0.000000    0.000000
  0.023400000  -87.519213  -38.559666  -93.600620   27.978222    0.000000    0.000000    0.000000    0.000000
  0.023600000  -86.247955  -40.097366  -92.753013   24.644056    0.000000    0.000000    0.000000    0.000000
  0.023800000  -85.844570  -39.847916  -93.492112   33.069637    0.000000    0.000000    0.000000    0.000000
  0.024000000  -85.835468  -39.944588  -93.288577   28.928734    0.000000    0.000000    0.000000    0.000000
  0.024200000  -85.450611  -39.884689  -92.838595   29.642519    0.000000    0.000000    0.000000    0.000000
  0.024400000  -85.117886  -39.110493  -93.623919   25.246668    0.000000    0.000000    0.000000    0.000000
  0.024600000  -84.795202  -37.727360  -94.117305   32.615940    0.000000    0.000000    0.000000    0.000000
  0.024800000  -84.862325  -37.949600  -92.782174   24.748203    0.000000    0.000000    0.000000    0.000000
  0.025000000  -84.711644  -37.322655  -94.713093   27.222271    0.000000    0.000000    0.000000    0.000000
  0.025200000  -84.432759  -37.087135  -93.649554   27.238152    0.000000    0.000000    0.000000    0.000000
  0.025400000  -84.395863  -36.820019  -95.005616   19.467745    0.000000    0.000000    0.000000    0.000000
  0.025600000  -84.424272  -34.272820  -94.145323   25.117090    0.000000    0.000000    0.000000    0.000000
  0.025800000  -84.282571  -34.992527  -95.104617   21.912104    0.000000    0.000000    0.000000    0.000000
  0.026000000  -84.293058  -33.620045  -95.038803   23.714972    0.000000    0.000000    0.000000    0.000000
  0.026200000  -84.328299  -34.073174  -94.799675   27.941650    0.000000    0.000000    0.000000    0.000000
  0.026400000  -84.062363  -33.262505  -94.244109   22.869640    0.000000    0.000000    0.000000    0.000000
  0.026600000  -84.156677  -34.269478  -95.577733   24.016907    0.000000    0.000000    0.000000    0.000000
  0.026800000  -83.985665  -32.736462  -95.449557   23.858334    0.000000    0.000000    0.000000    0.000000
  0.027000000  -83.808216  -32.005222  -95.650863   10.392655    0.000000    0.000000    0.000000    0.000000
  0.027200000  -84.032778  -32.519108  -95.206658   17.840256    0.000000    0.000000    0.000000    0.000000
  0.027400000  -83.827904  -31.123472  -94.482228   13.819455    0.000000    0.000000    0.000000    0.000000
  0.027600000  -83.906732  -31.133480  -95.631497   12.968940    0.000000    0.000000    0.000000    0.000000
  0.027800000  -84.005237  -31.200537  -95.644807   18.690203    0.000000    0.000000    0.000000    0.000000
  0.028000000  -83.846322  -31.469025  -95.815239   16.729921    0.000000    0.000000    0.000000    0.000000
  0.028200000  -83.834682  -31.356115  -95.536125   23.567316    0.000000    0.000000    0.000000    0.000000
  0.028400000  -83.777125  -31.813911  -96.138226   16.289864    0.000000    0.000000    0.000000    0.000000
  0.028600000  -83.788653  -33.426987  -95.044411   19.612329    0.000000    0.000000    0.000000    0.000000
  0.028800000  -83.629332  -33.920734  -97.194470   21.613079    0.000000    0.000000    0.000000    0.000000
  0.029000000  -83.531512  -33.289474  -96.491845   19.271629    0.000000    0.000000    0.000000    0.000000
  0.029200000  -83.518935  -35.501675  -97.554382   21.415831    0.000000    0.000000    0.000000    0.000000
  0.029400000  -83.425749  -35.590126  -97.393698   15.252733    0.000000    0.000000    0.000000    0.000000
  0.029600000  -83.378936  -36.288483  -96.687782   17.151293    0.000000    0.000000    0.000000    0.000000
  0.029800000  -83.203372  -36.646584  -97.337005   17.187872    0.000000    0.000000    0.000000    0.000000
  0.030000000  -83.095450  -38.119457  -96.280306   16.341406    0.000000    0.000000    0.000000    0.000000
  0.030200000  -82.739120  -38.217056  -97.660863   19.279387    0.000000    0.000000    0.000000    0.000000
  0.030400000  -82.885479  -38.851162  -97.289647   24.465469    0.000000    0.000000    0.000000    0.000000
  0.030600000  -82.621646  -39.624260  -96.365230   25.487530    0.000000    0.000000    0.000000    0.000000
  0.030800000  -82.343760  -39.412430  -97.493140   10.778478    0.000000    0.000000    0.000000    0.000000
  0.031000000  -82.093306  -40.537506  -96.851681   13.432244    0.000000    0.000000    0.000000    0.000000
  0.031200000  -81.718012  -42.163326  -97.934156   11.975019    0.000000    0.000000    0.000000    0.000000
  0.031400000  -81.769604  -39.476219  -95.449484   15.855675    0.000000    0.000000    0.000000    0.000000
  0.031600000  -81.510731  -40.405941  -96.727880   12.855232    0.000000    0.000000    0.000000    0.000000
  0.031800000  -81.322106  -38.612286  -97.639615   18.326578    0.000000    0.000000    0.000000    0.000000
  0.032000000  -81.299416  -37.501339  -97.374663   12.493020    0.000000    0.000000    0.000000    0.000000
  0.032200000  -81.358607  -37.129845  -99.840977    8.908829    0.000000    0.000000    0.000000    0.000000
  0.032400000  -81.005672  -37.909306  -99.879142    9.603528    0.000000    0.000000    0.000000    0.000000
  0.032600000  -80.903032  -35.195385  -98.065275    6.667216    0.000000    0.000000    0.000000    0.000000
  0.032800000  -80.883329  -36.402584  -97.644544    6.057833    0.000000    0.000000    0.000000    0.000000
  0.033000000  -80.826927  -33.429710  -98.086325   13.719827    0.000000    0.000000    0.000000    0.000000
  0.033200000  -80.739350  -35.358562  -97.009432   12.602409    0.000000    0.000000    0.000000    0.000000
  0.033400000  -81.016542  -33.513950  -98.114956   13.248128    0.000000    0.000000    0.000000    0.000000
  0.033600000  -80.705214  -34.017708  -98.134500    8.088444    0.000000    0.000000    0.000000    0.000000
  0.033800000  -80.989958  -32.497967  -98.497336   19.095335    0.000000    0.000000    0.000000    0.000000
  0.034000000  -81.007123  -32.954044  -98.569564   -1.005683    0.000000    0.000000    0.000000    0.000000
  0.034200000  -80.897554  -32.432133  -98.676793    1.494108    0.000000    0.000000    0.000000    0.000000
  0.034400000  -80.735452  -32.620216  -97.876124    9.460552    0.000000    0.000000    0.000000    0.000000
  0.034600000  -81.012425  -32.133179  -97.067414   23.595856    0.000000    0.000000    0.000000    0.000000
  0.034800000  -80.788861  -32.127838  -98.314116    7.854425    0.000000    0.000000    0.000000    0.000000
  0.035000000  -80.797537  -32.663902  -98.992973    1.522770    0.000000    0.000000    0.000000    0.000000
  0.035200000  -80.893165  -33.208511  -98.663758   13.756413    0.000000    0.000000    0.000000    0.000000
  0.035400000  -80.936486  -33.541138  -98.157162   -5.072104    0.000000    0.000000    0.000000    0.000000
  0.035600000  -80.738217  -35.017666  -98.142518   -3.879333    0.000000    0.000000    0.000000    0.000000
  0.035800000  -80.842132  -35.850121  -99.375978   14.157839    0.000000    0.000000    0.000000    0.000000
  0.036000000  -80.777632  -36.811687  -99.649908   20.934446    0.000000    0.000000    0.000000    0.000000
  0.036200000  -80.504188  -38.621723  -98.737244   -0.227498    0.000000    0.000000    0.000000    0.000000
  0.036400000  -80.749900  -39.251369  -99.098702    8.931290    0.000000    0.000000    0.000000    0.000000
  0.036600000  -80.438200  -39.135365 -100.361728   22.338093    0.000000    0.000000    0.000000    0.000000
  0.036800000  -80.277230  -39.485981  -98.847774   -2.084890    0.000000    0.000000    0.000000    0.000000
  0.037000000  -80.116043  -42.574200  -97.504373    3.896015    0.000000    0.000000    0.000000    0.000000
  0.037200000  -79.911629  -42.276867  -99.025160   17.524298    0.000000    0.000000    0.000000    0.000000
  0.037400000  -79.923242  -44.073761  -99.159108   15.629044    0.000000    0.000000    0.000000    0.000000
  0.037600000  -79.581939  -44.761501 -101.476965   16.077110    0.000000    0.000000    0.000000    0.000000
  0.037800000  -79.263527  -45.624985  -99.288103   11.129438    0.000000    0.000000    0.000000    0.000000
  0.038000000  -79.072314  -44.244358  -98.468404   11.556929    0.000000    0.000000    0.000000    0.000000
  0.038200000  -79.024506  -46.278805  -99.918365    1.536468    0.000000    0.000000    0.000000    0.000000
  0.038400000  -78.780028  -46.111576  -99.545285   -7.089178    0.000000    0.000000    0.000000    0.000000
  0.038600000  -78.651311  -45.973690 -100.299862    2.853917    0.000000    0.000000    0.000000    0.000000
  0.038800000  -78.431287  -45.114037  -97.833851   -0.710331    0.000000    0.000000    0.000000    0.000000
  0.039000000  -78.101882  -46.494961  -98.747863    3.980376    0.000000    0.000000    0.000000    0.000000
  0.039200000  -77.891458  -43.815399 -100.258063   18.225117    0.000000    0.000000    0.000000    0.000000
  0.039400000  -77.823193  -43.891979  -97.358875    1.767673    0.000000    0.000000    0.000000    0.000000
  0.039600000  -77.657846  -43.304348 -101.239089   17.689751    0.000000    0.000000    0.000000    0.000000
  0.039800000  -77.632259  -42.136276  -99.226792   16.839314    0.000000    0.000000    0.000000    0.000000
  0.040000000  -77.421147  -39.959095 -101.648962    7.866027    0.000000    0.000000    0.000000    0.000000
  0.040200000  -77.465793  -41.382290  -98.988252   -6.059350    0.000000    0.000000    0.000000    0.000000
  0.040400000  -77.421481  -40.046551  -99.606239   10.147076    0.000000    0.000000    0.000000    0.000000
  0.040600000  -77.321068  -38.705528 -101.170432   -6.664587    0.000000    0.000000    0.000000    0.000000
  0.040800000  -77.483488  -37.817047  -99.855203    8.960800    0.000000    0.000000    0.000000    0.000000
  0.041000000  -77.425768  -36.811176 -101.215692    7.233105    0.000000    0.000000    0.000000    0.000000
  0.041200000  -77.419113  -36.388180 -101.012230    0.485643    0.000000    0.000000    0.000000    0.000000
  0.041400000  -77.299284  -35.916492  -99.571919    6.227628    0.000000    0.000000    0.000000    0.000000
  0.041600000  -77.640123  -35.659637 -100.284808  -10.482119    0.000000    0.000000    0.000000    0.000000
  0.041800000  -77.635059  -34.511063 -100.890928   -8.537684    0.000000    0.000000    0.000000    0.000000
  0.042000000  -77.797036  -34.375980 -101.815570    5.026060    0.000000    0.000000    0.000000    0.000000
  0.042200000  -77.793643  -35.533035 -102.389673   -3.976084    0.000000    0.000000    0.000000    0.000000
  0.042400000  -77.673911  -34.895386 -105.387320    9.887534    0.000000    0.000000    0.000000    0.000000
  0.042600000  -77.856048  -34.149235 -101.845479   11.645232    0.000000    0.000000    0.000000    0.000000
  0.042800000  -78.037822  -34.375961 -102.582846   -1.351742    0.000000    0.000000    0.000000    0.000000
