! Anritsu VNA Master:                     Model: MS2036C/10/77
! SN:                                  1601066
! /card0/usr/254.ns.sma.r50.12.s2p
! Existing Calibration Information:
! TYPE:                         Current Settings,       Active Cal Settings
! TIME:             	   12/20/2017 01:32:48 PM,    12/20/2017 01:21:26 PM
! INTERNAL TEMP:    	                   45.5 C,                    44.5 C
! # POINTS:         	                      501,                       501
! START FREQ:       	               10.000 MHz,                10.000 MHz
! STOP FREQ:        	              110.000 MHz,               110.000 MHz
! SOURCE POWER:     	                     High,                      High
! IFBW:             	                   100 Hz,                    100 Hz
! AVG FACTOR:       	                       1 ,                        1 
! REF PLANE 1:      	                     0 mm,                      0 mm
! REF PLANE 2:      	                     0 mm,                      0 mm
! CAL TYPE:         	                 Full S11,                  Full S11
! CAL METHOD:       	                     SOLT,                      SOLT
! CAL LINE TYPE:    	                     Coax,                      Coax
! DUT PORT 1:       	                N-Conn(F),                 N-Conn(F)
! DUT PORT 2:       	                K-Conn(F),                 K-Conn(F)
! CAL STATUS:       	        OK: Accuracy High,                        --
# GHZ S DB R 50.0
! FREQ.GHZ       S11DB        S11A       S21DB        S21A       S12DB        S12A       S22DB        S22A
  0.010000000  -98.764966  -20.095985  -83.330069   79.181122    0.000000    0.000000    0.000000    0.000000
  0.010200000  -98.048821  -14.497116  -83.444211   75.075722    0.000000    0.000000    0.000000    0.000000
  0.010400000  -97.568375  -18.743305  -83.252039   76.187225    0.000000    0.000000    0.000000    0.000000
  0.010600000  -97.673115  -18.760008  -83.711926   74.903549    0.000000    0.000000    0.000000    0.000000
  0.010800000  -97.734218  -20.565550  -83.847143   73.481125    0.000000    0.000000    0.000000    0.000000
  0.011000000  -97.206462  -20.184076  -84.275872   68.998001    0.000000    0.000000    0.000000    0.000000
  0.011200000  -97.422510  -22.259941  -83.959581   69.003052    0.000000    0.000000    0.000000    0.000000
  0.011400000  -97.795512  -21.509647  -84.871672   70.492157    0.000000    0.000000    0.000000    0.000000
  0.011600000  -96.332061  -17.060482  -84.739740   68.927422    0.000000    0.000000    0.000000    0.000000
  0.011800000  -96.323605  -21.538300  -85.072568   67.328224    0.000000    0.000000    0.000000    0.000000
  0.012000000  -96.548133  -22.027649  -84.974181   64.431419    0.000000    0.000000    0.000000    0.000000
  0.012200000  -96.134959  -19.639484  -85.314199   67.292458    0.000000    0.000000    0.000000    0.000000
  0.012400000  -96.010107  -20.656424  -85.395306   65.943909    0.000000    0.000000    0.000000    0.000000
  0.012600000  -95.719592  -23.865103  -85.493524   63.646339    0.000000    0.000000    0.000000    0.000000
  0.012800000  -95.325028  -26.033028  -85.939161   62.207321    0.000000    0.000000    0.000000    0.000000
  0.013000000  -95.326391  -25.146854  -86.287434   62.318886    0.000000    0.000000    0.000000    0.000000
  0.013200000  -95.304544  -28.389851  -86.335443   59.688934    0.000000    0.000000    0.000000    0.000000
  0.013400000  -94.716788  -27.430489  -86.670270   59.489071    0.000000    0.000000    0.000000    0.000000
  0.013600000  -94.693708  -31.407804  -86.827415   62.213932    0.000000    0.000000    0.000000    0.000000
  0.013800000  -94.463727  -29.894081  -86.476723   56.515125    0.000000    0.000000    0.000000    0.000000
  0.014000000  -94.317509  -33.484287  -86.762957   59.819077    0.000000    0.000000    0.000000    0.000000
  0.014200000  -93.876407  -32.293556  -86.916887   58.575886    0.000000    0.000000    0.000000    0.000000
  0.014400000  -93.230702  -32.756336  -87.094686   54.764957    0.000000    0.000000    0.000000    0.000000
  0.014600000  -92.914161  -30.739065  -87.513007   56.070847    0.000000    0.000000    0.000000    0.000000
  0.014800000  -92.515441  -34.233299  -87.962365   56.252224    0.000000    0.000000    0.000000    0.000000
  0.015000000  -92.356019  -32.371750  -87.747238   52.269424    0.000000    0.000000    0.000000    0.000000
  0.015200000  -92.252813  -33.878429  -87.518121   53.196381    0.000000    0.000000    0.000000    0.000000
  0.015400000  -91.774785  -32.276863  -87.770956   50.954063    0.000000    0.000000    0.000000    0.000000
  0.015600000  -91.714719  -35.766586  -88.358782   51.867088    0.000000    0.000000    0.000000    0.000000
  0.015800000  -91.429361  -34.492031  -88.376763   49.000172    0.000000    0.000000    0.000000    0.000000
  0.016000000  -91.158194  -31.240948  -88.446218   50.506050    0.000000    0.000000    0.000000    0.000000
  0.016200000  -90.740321  -32.368565  -88.913312   48.303024    0.000000    0.000000    0.000000    0.000000
  0.016400000  -90.284971  -32.305954  -88.696851   47.944355    0.000000    0.000000    0.000000    0.000000
  0.016600000  -90.562340  -32.529488  -88.276683   44.849445    0.000000    0.000000    0.000000    0.000000
  0.016800000  -90.298959  -27.495249  -89.653514   49.790508    0.000000    0.000000    0.000000    0.000000
  0.017000000  -90.038963  -28.070419  -89.894747   46.048092    0.000000    0.000000    0.000000    0.000000
  0.017200000  -90.003886  -27.884981  -89.517144   49.176617    0.000000    0.000000    0.000000    0.000000
  0.017400000  -89.731606  -27.636322  -89.417602   44.596241    0.000000    0.000000    0.000000    0.000000
  0.017600000  -89.836988  -25.140667  -89.742984   43.525913    0.000000    0.000000    0.000000    0.000000
  0.017800000  -89.800228  -23.818142  -89.414369   40.521179    0.000000    0.000000    0.000000    0.000000
  0.018000000  -89.418098  -22.285004  -90.062552   43.483177    0.000000    0.000000    0.000000    0.000000
  0.018200000  -89.428705  -21.283894  -89.992578   43.473579    0.000000    0.000000    0.000000    0.000000
  0.018400000  -89.222973  -21.398033  -89.700322   41.366581    0.000000    0.000000    0.000000    0.000000
  0.018600000  -89.377224  -22.986887  -90.341659   40.060307    0.000000    0.000000    0.000000    0.000000
  0.018800000  -89.320726  -19.159866  -89.751113   39.615868    0.000000    0.000000    0.000000    0.000000
  0.019000000  -89.418029  -19.412128  -90.919830   41.471935    0.000000    0.000000    0.000000    0.000000
  0.019200000  -89.315842  -18.135799  -90.630694   38.657253    0.000000    0.000000    0.000000    0.000000
  0.019400000  -89.519035  -18.957697  -90.740422   36.246983    0.000000    0.000000    0.000000    0.000000
  0.019600000  -89.437948  -16.794714  -91.365555   38.151142    0.000000    0.000000    0.000000    0.000000
  0.019800000  -89.160461  -18.605461  -90.584948   34.725773    0.000000    0.000000    0.000000    0.000000
  0.020000000  -89.211038  -17.958511  -91.112303   33.208900    0.000000    0.000000    0.000000    0.000000
  0.020200000  -89.591400  -18.696510  -91.954697   35.980911    0.000000    0.000000    0.000000    0.000000
  0.020400000  -89.262412  -19.812912  -91.480825   38.543369    0.000000    0.000000    0.000000    0.000000
  0.020600000  -89.142966  -20.969410  -91.344900   33.168800    0.000000    0.000000    0.000000    0.000000
  0.020800000  -89.201927  -21.023935  -91.503715   31.211887    0.000000    0.000000    0.000000    0.000000
  0.021000000  -89.429809  -21.576004  -91.598574   40.371723    0.000000    0.000000    0.000000    0.000000
  0.021200000  -89.225121  -24.562632  -91.550400   35.254772    0.000000    0.000000    0.000000    0.000000
  0.021400000  -89.288461  -26.478075  -92.288379   38.037704    0.000000    0.000000    0.000000    0.000000
  0.021600000  -89.171667  -27.819403  -92.092012   32.924015    0.000000    0.000000    0.000000    0.000000
  0.021800000  -88.650659  -29.481508  -92.013011   33.435432    0.000000    0.000000    0.000000    0.000000
  0.022000000  -88.647775  -33.329235  -91.555892   30.632692    0.000000    0.000000    0.000000    0.000000
  0.022200000  -88.556550  -35.322163  -92.021903   33.908432    0.000000    0.000000    0.000000    0.000000
  0.022400000  -88.226435  -35.916397  -91.486704   33.271023    0.000000    0.000000    0.000000    0.000000
  0.022600000  -87.903124  -35.757595  -92.066624   33.866848    0.000000    0.000000    0.000000    0.000000
  0.022800000  -87.440814  -38.920048  -93.541852   32.429993    0.000000    0.000000    0.000000    0.000000
  0.023000000  -87.209911  -38.698471  -93.844463   33.453106    0.000000    0.000000    0.000000    0.000000
  0.023200000  -86.592092  -40.158955  -92.901169   32.572670    0.000000    0.000000    0.000000    0.000000
  0.023400000  -87.432697  -40.507030  -93.265427   27.369747    0.000000    0.000000    0.000000    0.000000
  0.023600000  -86.205910  -41.609264  -93.821108   33.223972    0.000000    0.000000    0.000000    0.000000
  0.023800000  -85.893622  -41.479805  -92.548946   23.530563    0.000000    0.000000    0.000000    0.000000
  0.024000000  -85.614025  -41.732876  -93.478586   28.658009    0.000000    0.000000    0.000000    0.000000
  0.024200000  -85.263536  -40.604622  -93.927314   25.143667    0.000000    0.000000    0.000000    0.000000
  0.024400000  -85.000790  -39.911182  -93.776660   26.795023    0.000000    0.000000    0.000000    0.000000
  0.024600000  -84.564544  -38.387756  -94.996217   27.509777    0.000000    0.000000    0.000000    0.000000
  0.024800000  -84.620332  -37.779930  -94.572356   24.254665    0.000000    0.000000    0.000000    0.000000
  0.025000000  -84.392841  -37.225368  -94.423694   27.933714    0.000000    0.000000    0.000000    0.000000
  0.025200000  -84.078150  -36.765568  -94.095792   26.458605    0.000000    0.000000    0.000000    0.000000
  0.025400000  -84.080010  -35.610043  -94.317909   26.236103    0.000000    0.000000    0.000000    0.000000
  0.025600000  -84.082915  -33.482182  -93.522923   26.513340    0.000000    0.000000    0.000000    0.000000
  0.025800000  -84.018977  -33.948006  -94.449571   23.357592    0.000000    0.000000    0.000000    0.000000
  0.026000000  -84.050127  -31.961731  -94.492030   23.195982    0.000000    0.000000    0.000000    0.000000
  0.026200000  -84.021176  -32.507160  -93.973106   30.067291    0.000000    0.000000    0.000000    0.000000
  0.026400000  -83.912864  -31.383438  -95.296879   23.429764    0.000000    0.000000    0.000000    0.000000
  0.026600000  -83.998141  -32.050114  -94.637000   17.947155    0.000000    0.000000    0.000000    0.000000
  0.026800000  -83.734048  -30.625505  -96.146062   23.151392    0.000000    0.000000    0.000000    0.000000
  0.027000000  -83.688630  -29.557682  -94.567493   23.046814    0.000000    0.000000    0.000000    0.000000
  0.027200000  -83.870163  -29.764668  -95.761628   20.822994    0.000000    0.000000    0.000000    0.000000
  0.027400000  -83.753415  -28.570095  -96.695046   21.958202    0.000000    0.000000    0.000000    0.000000
  0.027600000  -83.944324  -28.422731  -95.432692   16.788771    0.000000    0.000000    0.000000    0.000000
  0.027800000  -83.948148  -28.492659  -95.585910   15.648269    0.000000    0.000000    0.000000    0.000000
  0.028000000  -83.934493  -28.327034  -95.346830   25.906797    0.000000    0.000000    0.000000    0.000000
  0.028200000  -83.861920  -29.738527  -96.040204   17.869360    0.000000    0.000000    0.000000    0.000000
  0.028400000  -83.902441  -29.299364  -96.591914   17.429663    0.000000    0.000000    0.000000    0.000000
  0.028600000  -83.918367  -31.214689  -95.499217   13.973621    0.000000    0.000000    0.000000    0.000000
  0.028800000  -83.807192  -31.210539  -95.577641   19.966869    0.000000    0.000000    0.000000    0.000000
  0.029000000  -83.742600  -31.217735  -95.934509   16.620579    0.000000    0.000000    0.000000    0.000000
  0.029200000  -83.784898  -34.229355  -97.382634   23.999502    0.000000    0.000000    0.000000    0.000000
  0.029400000  -83.759274  -34.017891  -95.770124   17.228354    0.000000    0.000000    0.000000    0.000000
  0.029600000  -83.628380  -35.792492  -96.009076   16.823093    0.000000    0.000000    0.000000    0.000000
  0.029800000  -83.514065  -35.666573  -97.095673   18.547623    0.000000    0.000000    0.000000    0.000000
  0.030000000  -83.290502  -37.834866  -96.295921   23.765812    0.000000    0.000000    0.000000    0.000000
  0.030200000  -82.905987  -38.154076  -96.202063   19.974655    0.000000    0.000000    0.000000    0.000000
  0.030400000  -83.089613  -39.098152  -97.194319   13.722479    0.000000    0.000000    0.000000    0.000000
  0.030600000  -82.801916  -40.115887  -96.484473    5.807279    0.000000    0.000000    0.000000    0.000000
  0.030800000  -82.530762  -39.914211  -98.008905   19.393162    0.000000    0.000000    0.000000    0.000000
  0.031000000  -82.182414  -40.989841  -97.142228   16.395462    0.000000    0.000000    0.000000    0.000000
  0.031200000  -81.853461  -42.242931  -96.598110   12.116991    0.000000    0.000000    0.000000    0.000000
  0.031400000  -81.759860  -39.982468  -98.369571    6.303314    0.000000    0.000000    0.000000    0.000000
  0.031600000  -81.506985  -41.190617  -97.499645    9.237838    0.000000    0.000000    0.000000    0.000000
  0.031800000  -81.202854  -39.024303  -98.084460   22.134575    0.000000    0.000000    0.000000    0.000000
  0.032000000  -81.256111  -37.682507  -97.868792    4.469627    0.000000    0.000000    0.000000    0.000000
  0.032200000  -81.217696  -37.804901  -97.167811   12.868603    0.000000    0.000000    0.000000    0.000000
  0.032400000  -80.981886  -37.575813  -95.860098   13.347654    0.000000    0.000000    0.000000    0.000000
  0.032600000  -80.815794  -35.006950  -96.771640   19.766640    0.000000    0.000000    0.000000    0.000000
  0.032800000  -80.773020  -35.782673  -97.209514   10.582603    0.000000    0.000000    0.000000    0.000000
  0.033000000  -80.663772  -33.448280  -98.678479   12.156717    0.000000    0.000000    0.000000    0.000000
  0.033200000  -80.574852  -33.803570  -98.595685    4.249323    0.000000    0.000000    0.000000    0.000000
  0.033400000  -80.785555  -32.771946  -97.504302   17.929787    0.000000    0.000000    0.000000    0.000000
  0.033600000  -80.507952  -32.861046  -98.525303    6.783200    0.000000    0.000000    0.000000    0.000000
  0.033800000  -80.756585  -30.924187  -97.654729   12.629691    0.000000    0.000000    0.000000    0.000000
  0.034000000  -80.783026  -31.865206  -99.579411   12.194562    0.000000    0.000000    0.000000    0.000000
  0.034200000  -80.665913  -30.143072  -97.402363   19.223520    0.000000    0.000000    0.000000    0.000000
  0.034400000  -80.621197  -30.859453  -98.326954   15.853765    0.000000    0.000000    0.000000    0.000000
  0.034600000  -80.890502  -30.064400  -97.078736   16.638828    0.000000    0.000000    0.000000    0.000000
  0.034800000  -80.763734  -29.961475 -100.845890   21.807497    0.000000    0.000000    0.000000    0.000000
  0.035000000  -80.637557  -30.083849  -98.540157    4.483492    0.000000    0.000000    0.000000    0.000000
  0.035200000  -80.843023  -31.751144  -96.954445   22.124500    0.000000    0.000000    0.000000    0.000000
  0.035400000  -80.886674  -30.864304  -97.707787    8.996948    0.000000    0.000000    0.000000    0.000000
  0.035600000  -80.768565  -32.689629  -98.220626    7.603203    0.000000    0.000000    0.000000    0.000000
  0.035800000  -80.890999  -33.170036  -99.714194   -4.844487    0.000000    0.000000    0.000000    0.000000
  0.036000000  -80.896703  -34.293026  -99.750948   -5.335134    0.000000    0.000000    0.000000    0.000000
  0.036200000  -80.660126  -36.434544  -98.695680    6.075372    0.000000    0.000000    0.000000    0.000000
  0.036400000  -80.875294  -36.602421  -98.153612    0.595247    0.000000    0.000000    0.000000    0.000000
  0.036600000  -80.633800  -37.059284  -98.892563    5.763791    0.000000    0.000000    0.000000    0.000000
  0.036800000  -80.514211  -38.031189 -100.054664    6.312711    0.000000    0.000000    0.000000    0.000000
  0.037000000  -80.272275  -41.297276  -99.122963    8.252973    0.000000    0.000000    0.000000    0.000000
  0.037200000  -80.166317  -41.418419 -101.808913   -3.217400    0.000000    0.000000    0.000000    0.000000
  0.037400000  -80.066966  -42.960182  -99.209681    5.737453    0.000000    0.000000    0.000000    0.000000
  0.037600000  -79.796107  -43.925613 -101.018364   -5.153104    0.000000    0.000000    0.000000    0.000000
  0.037800000  -79.442748  -44.445808  -99.280417    3.436463    0.000000    0.000000    0.000000    0.000000
  0.038000000  -79.270171  -43.970119 -101.067052    3.313273    0.000000    0.000000    0.000000    0.000000
  0.038200000  -79.113115  -46.531490 -102.116906   11.962243    0.000000    0.000000    0.000000    0.000000
  0.038400000  -78.855889  -46.207146  -99.795920  -14.268461    0.000000    0.000000    0.000000    0.000000
  0.038600000  -78.633013  -46.466053 -102.036949   13.956428    0.000000    0.000000    0.000000    0.000000
  0.038800000  -78.396960  -45.533600  -98.012557   17.930462    0.000000    0.000000    0.000000    0.000000
  0.039000000  -77.997027  -47.063419 -100.626099   10.451480    0.000000    0.000000    0.000000    0.000000
  0.039200000  -77.857248  -44.416992 -102.061129    7.415273    0.000000    0.000000    0.000000    0.000000
  0.039400000  -77.739469  -43.654739  -98.224969    4.370574    0.000000    0.000000    0.000000    0.000000
  0.039600000  -77.589480  -43.211823 -101.163443    2.778191    0.000000    0.000000    0.000000    0.000000
  0.039800000  -77.444821  -42.032089  -99.184012    3.315266    0.000000    0.000000    0.000000    0.000000
  0.040000000  -77.225808  -40.203476  -99.947898    7.475443    0.000000    0.000000    0.000000    0.000000
  0.040200000  -77.153837  -41.159637  -99.521421   10.244319    0.000000    0.000000    0.000000    0.000000
  0.040400000  -77.227604  -39.562065  -99.634933    5.042120    0.000000    0.000000    0.000000    0.000000
  0.040600000  -77.184104  -38.024235 -100.342031   19.548643    0.000000    0.000000    0.000000    0.000000
  0.040800000  -77.268191  -36.032814 -100.716563    9.745115    0.000000    0.000000    0.000000    0.000000
  0.041000000  -77.156908  -35.268291 -100.978922   21.167583    0.000000    0.000000    0.000000    0.000000
  0.041200000  -77.173175  -34.696011  -99.922675   10.671344    0.000000    0.000000    0.000000    0.000000
  0.041400000  -77.143199  -33.975555  -98.780332    3.483664    0.000000    0.000000    0.000000    0.000000
  0.041600000  -77.455355  -33.663441  -98.247106   -6.289470    0.000000    0.000000    0.000000    0.000000
  0.041800000  -77.420163  -32.449711 -100.136575   -5.538186    0.000000    0.000000    0.000000    0.000000
  0.042000000  -77.614745  -31.517672 -102.179905   13.498635    0.000000    0.000000    0.000000    0.000000
  0.042200000  -77.626691  -32.472832 -104.186730    4.088701    0.000000    0.000000    0.000000    0.000000
  0.042400000  -77.511859  -31.598886  -99.535644    1.333877    0.000000    0.000000    0.000000    0.000000
  0.042600000  -77.773823  -30.806456 -100.963124    6.892738    0.000000    0.000000    0.000000    0.000000
  0.042800000  -77.962586  -30.753456 -100.298828   18.812273    0.000000    0.000000    0.000000    0.000000
