! Anritsu VNA Master:                     Model: MS2036C/10/77
! SN:                                  1601066
! /card0/usr/254.ns.sma.r200.32.s2p
! Existing Calibration Information:
! TYPE:                         Current Settings,       Active Cal Settings
! TIME:             	   12/20/2017 02:15:31 PM,    12/20/2017 02:00:00 PM
! INTERNAL TEMP:    	                   47.5 C,                    47.0 C
! # POINTS:         	                      501,                       501
! START FREQ:       	               10.000 MHz,                10.000 MHz
! STOP FREQ:        	              110.000 MHz,               110.000 MHz
! SOURCE POWER:     	                     High,                      High
! IFBW:             	                   100 Hz,                    100 Hz
! AVG FACTOR:       	                       1 ,                        1 
! REF PLANE 1:      	                     0 mm,                      0 mm
! REF PLANE 2:      	                     0 mm,                      0 mm
! CAL TYPE:         	                 Full S11,                  Full S11
! CAL METHOD:       	                     SOLT,                      SOLT
! CAL LINE TYPE:    	                     Coax,                      Coax
! DUT PORT 1:       	                N-Conn(F),                 N-Conn(F)
! DUT PORT 2:       	                K-Conn(F),                 K-Conn(F)
! CAL STATUS:       	        OK: Accuracy High,                        --
# GHZ S DB R 50.0
! FREQ.GHZ       S11DB        S11A       S21DB        S21A       S12DB        S12A       S22DB        S22A
  0.010000000   -4.551611  -10.696714  -84.352823   75.130005    0.000000    0.000000    0.000000    0.000000
  0.010200000   -4.537523  -10.863262  -84.745709   74.462196    0.000000    0.000000    0.000000    0.000000
  0.010400000   -4.539349  -11.065764  -84.190705   76.472824    0.000000    0.000000    0.000000    0.000000
  0.010600000   -4.541609  -11.296854  -85.243057   72.816788    0.000000    0.000000    0.000000    0.000000
  0.010800000   -4.545451  -11.523571  -84.602183   75.091133    0.000000    0.000000    0.000000    0.000000
  0.011000000   -4.542877  -11.746508  -85.197114   80.062042    0.000000    0.000000    0.000000    0.000000
  0.011200000   -4.542108  -11.978934  -84.942850   73.943710    0.000000    0.000000    0.000000    0.000000
  0.011400000   -4.543653  -12.211856  -84.834717   77.024979    0.000000    0.000000    0.000000    0.000000
  0.011600000   -4.545938  -12.412575  -85.199885   73.479240    0.000000    0.000000    0.000000    0.000000
  0.011800000   -4.540828  -12.647604  -85.458989   73.458984    0.000000    0.000000    0.000000    0.000000
  0.012000000   -4.541880  -12.845968  -85.407573   73.074135    0.000000    0.000000    0.000000    0.000000
  0.012200000   -4.543658  -13.082858  -84.797336   73.713936    0.000000    0.000000    0.000000    0.000000
  0.012400000   -4.542473  -13.300052  -85.011754   67.479202    0.000000    0.000000    0.000000    0.000000
  0.012600000   -4.543645  -13.528476  -85.334089   68.670265    0.000000    0.000000    0.000000    0.000000
  0.012800000   -4.545104  -13.745104  -85.254428   71.293724    0.000000    0.000000    0.000000    0.000000
  0.013000000   -4.544721  -13.957289  -85.245220   64.149277    0.000000    0.000000    0.000000    0.000000
  0.013200000   -4.543570  -14.152420  -85.509162   63.135044    0.000000    0.000000    0.000000    0.000000
  0.013400000   -4.543417  -14.348452  -85.697914   64.040482    0.000000    0.000000    0.000000    0.000000
  0.013600000   -4.543821  -14.573870  -85.444290   60.467480    0.000000    0.000000    0.000000    0.000000
  0.013800000   -4.541232  -14.776435  -85.528461   59.293030    0.000000    0.000000    0.000000    0.000000
  0.014000000   -4.542905  -14.989689  -85.961327   56.534683    0.000000    0.000000    0.000000    0.000000
  0.014200000   -4.541514  -15.208862  -86.140080   55.030670    0.000000    0.000000    0.000000    0.000000
  0.014400000   -4.543380  -15.410259  -85.878293   55.141430    0.000000    0.000000    0.000000    0.000000
  0.014600000   -4.545173  -15.651862  -86.980886   51.144188    0.000000    0.000000    0.000000    0.000000
  0.014800000   -4.544105  -15.858427  -86.910540   50.065624    0.000000    0.000000    0.000000    0.000000
  0.015000000   -4.546611  -16.064695  -87.023812   45.484764    0.000000    0.000000    0.000000    0.000000
  0.015200000   -4.547569  -16.277990  -87.358553   44.964268    0.000000    0.000000    0.000000    0.000000
  0.015400000   -4.551701  -16.504120  -87.831444   49.156490    0.000000    0.000000    0.000000    0.000000
  0.015600000   -4.549917  -16.659613  -88.106619   46.214439    0.000000    0.000000    0.000000    0.000000
  0.015800000   -4.553351  -16.957367  -88.857322   46.187016    0.000000    0.000000    0.000000    0.000000
  0.016000000   -4.555200  -17.169985  -88.810400   44.237160    0.000000    0.000000    0.000000    0.000000
  0.016200000   -4.556842  -17.371555  -89.362502   41.955624    0.000000    0.000000    0.000000    0.000000
  0.016400000   -4.558295  -17.604719  -89.450551   47.249752    0.000000    0.000000    0.000000    0.000000
  0.016600000   -4.560541  -17.812071  -89.152741   42.827858    0.000000    0.000000    0.000000    0.000000
  0.016800000   -4.559496  -18.047644  -89.498665   47.228977    0.000000    0.000000    0.000000    0.000000
  0.017000000   -4.563181  -18.266033  -89.685963   41.466805    0.000000    0.000000    0.000000    0.000000
  0.017200000   -4.560220  -18.483099  -89.678516   49.658539    0.000000    0.000000    0.000000    0.000000
  0.017400000   -4.556631  -18.736399  -90.464948   42.526173    0.000000    0.000000    0.000000    0.000000
  0.017600000   -4.557320  -18.952690  -91.164379   43.207474    0.000000    0.000000    0.000000    0.000000
  0.017800000   -4.558135  -19.152771  -90.632192   49.126514    0.000000    0.000000    0.000000    0.000000
  0.018000000   -4.559440  -19.384041  -90.245279   43.304050    0.000000    0.000000    0.000000    0.000000
  0.018200000   -4.559423  -19.582989  -90.618429   46.434059    0.000000    0.000000    0.000000    0.000000
  0.018400000   -4.562976  -19.807238  -90.284864   46.541187    0.000000    0.000000    0.000000    0.000000
  0.018600000   -4.564673  -20.034843  -90.648418   43.212547    0.000000    0.000000    0.000000    0.000000
  0.018800000   -4.566099  -20.284525  -90.605884   44.164330    0.000000    0.000000    0.000000    0.000000
  0.019000000   -4.565686  -20.477787  -90.361695   47.533482    0.000000    0.000000    0.000000    0.000000
  0.019200000   -4.564486  -20.683302  -90.138192   41.213669    0.000000    0.000000    0.000000    0.000000
  0.019400000   -4.568497  -20.897596  -90.721351   39.041592    0.000000    0.000000    0.000000    0.000000
  0.019600000   -4.568130  -21.116205  -90.719284   42.463062    0.000000    0.000000    0.000000    0.000000
  0.019800000   -4.565690  -21.316774  -90.158761   41.649303    0.000000    0.000000    0.000000    0.000000
  0.020000000   -4.560257  -21.522211  -90.664657   41.183533    0.000000    0.000000    0.000000    0.000000
  0.020200000   -4.562169  -21.750227  -91.067195   41.615116    0.000000    0.000000    0.000000    0.000000
  0.020400000   -4.561905  -21.959124  -90.607969   31.311745    0.000000    0.000000    0.000000    0.000000
  0.020600000   -4.557676  -22.173346  -90.937837   36.265854    0.000000    0.000000    0.000000    0.000000
  0.020800000   -4.557838  -22.394686  -90.577811   31.609377    0.000000    0.000000    0.000000    0.000000
  0.021000000   -4.560845  -22.620329  -91.198121   33.362938    0.000000    0.000000    0.000000    0.000000
  0.021200000   -4.561132  -22.822439  -90.995084   29.925674    0.000000    0.000000    0.000000    0.000000
  0.021400000   -4.564721  -23.066982  -91.813825   37.517189    0.000000    0.000000    0.000000    0.000000
  0.021600000   -4.564851  -23.272369  -91.085760   38.536552    0.000000    0.000000    0.000000    0.000000
  0.021800000   -4.563730  -23.479252  -91.712580   34.226650    0.000000    0.000000    0.000000    0.000000
  0.022000000   -4.566789  -23.678925  -91.762716   35.752655    0.000000    0.000000    0.000000    0.000000
  0.022200000   -4.567353  -23.910982  -92.751613   30.157433    0.000000    0.000000    0.000000    0.000000
  0.022400000   -4.568909  -24.106905  -93.113646   30.891804    0.000000    0.000000    0.000000    0.000000
  0.022600000   -4.568574  -24.330435  -93.970379   26.144953    0.000000    0.000000    0.000000    0.000000
  0.022800000   -4.570643  -24.516819  -93.405871   22.577993    0.000000    0.000000    0.000000    0.000000
  0.023000000   -4.577182  -24.740959  -93.297553   25.754011    0.000000    0.000000    0.000000    0.000000
  0.023200000   -4.578614  -24.970171  -93.756090   23.719324    0.000000    0.000000    0.000000    0.000000
  0.023400000   -4.577828  -25.199867  -93.777177   24.701733    0.000000    0.000000    0.000000    0.000000
  0.023600000   -4.575968  -25.424650  -93.579609   31.893904    0.000000    0.000000    0.000000    0.000000
  0.023800000   -4.576731  -25.643969  -94.645510   25.415762    0.000000    0.000000    0.000000    0.000000
  0.024000000   -4.574475  -25.879303  -94.967034   35.247719    0.000000    0.000000    0.000000    0.000000
  0.024200000   -4.569331  -26.104025  -92.800507   22.628550    0.000000    0.000000    0.000000    0.000000
  0.024400000   -4.570396  -26.343666  -94.304551   33.784184    0.000000    0.000000    0.000000    0.000000
  0.024600000   -4.570737  -26.572466  -94.114786   27.158037    0.000000    0.000000    0.000000    0.000000
  0.024800000   -4.571726  -26.794237  -94.535486   28.409222    0.000000    0.000000    0.000000    0.000000
  0.025000000   -4.570262  -26.989305  -94.044334   30.168177    0.000000    0.000000    0.000000    0.000000
  0.025200000   -4.569278  -27.218431  -94.414461   25.168446    0.000000    0.000000    0.000000    0.000000
  0.025400000   -4.573390  -27.400745  -94.253086   31.768648    0.000000    0.000000    0.000000    0.000000
  0.025600000   -4.574076  -27.592075  -95.250771   26.534439    0.000000    0.000000    0.000000    0.000000
  0.025800000   -4.573206  -27.786921  -94.534542   19.839182    0.000000    0.000000    0.000000    0.000000
  0.026000000   -4.574342  -27.971090  -93.284418   23.043104    0.000000    0.000000    0.000000    0.000000
  0.026200000   -4.577710  -28.186729  -94.568764   20.324070    0.000000    0.000000    0.000000    0.000000
  0.026400000   -4.582795  -28.402142  -94.468756   19.528526    0.000000    0.000000    0.000000    0.000000
  0.026600000   -4.582710  -28.608480  -95.164360   27.870047    0.000000    0.000000    0.000000    0.000000
  0.026800000   -4.583720  -28.830170  -94.315401   25.031410    0.000000    0.000000    0.000000    0.000000
  0.027000000   -4.586315  -29.056530  -95.193145   20.474110    0.000000    0.000000    0.000000    0.000000
  0.027200000   -4.583697  -29.273037  -95.284720   27.099762    0.000000    0.000000    0.000000    0.000000
  0.027400000   -4.584020  -29.505754  -94.510541   16.868021    0.000000    0.000000    0.000000    0.000000
  0.027600000   -4.585223  -29.725676  -95.126081   14.581619    0.000000    0.000000    0.000000    0.000000
  0.027800000   -4.588783  -29.973265  -96.548199   17.301546    0.000000    0.000000    0.000000    0.000000
  0.028000000   -4.589385  -30.200975  -96.420695   17.688786    0.000000    0.000000    0.000000    0.000000
  0.028200000   -4.593521  -30.451967  -95.998184   18.465317    0.000000    0.000000    0.000000    0.000000
  0.028400000   -4.593123  -30.682016  -95.757183   11.691573    0.000000    0.000000    0.000000    0.000000
  0.028600000   -4.587059  -30.910488  -96.184343   12.743618    0.000000    0.000000    0.000000    0.000000
  0.028800000   -4.584643  -31.092220  -96.797431   19.417271    0.000000    0.000000    0.000000    0.000000
  0.029000000   -4.582801  -31.288765  -97.071756   23.051256    0.000000    0.000000    0.000000    0.000000
  0.029200000   -4.584565  -31.472986  -98.524391   17.375175    0.000000    0.000000    0.000000    0.000000
  0.029400000   -4.584154  -31.661806  -96.826403   19.491177    0.000000    0.000000    0.000000    0.000000
  0.029600000   -4.588229  -31.836782  -96.835443   28.481997    0.000000    0.000000    0.000000    0.000000
  0.029800000   -4.590783  -32.050575  -97.805868   11.447403    0.000000    0.000000    0.000000    0.000000
  0.030000000   -4.597637  -32.267483  -97.302690   13.335057    0.000000    0.000000    0.000000    0.000000
  0.030200000   -4.601713  -32.498146  -96.941772    7.081848    0.000000    0.000000    0.000000    0.000000
  0.030400000   -4.607053  -32.725243  -96.957755   16.561293    0.000000    0.000000    0.000000    0.000000
  0.030600000   -4.606903  -32.979164  -97.828275   21.384586    0.000000    0.000000    0.000000    0.000000
  0.030800000   -4.609109  -33.232346  -97.084135   21.589329    0.000000    0.000000    0.000000    0.000000
  0.031000000   -4.608247  -33.495659  -97.572164   13.916435    0.000000    0.000000    0.000000    0.000000
  0.031200000   -4.597943  -33.738712  -99.335302   14.692679    0.000000    0.000000    0.000000    0.000000
  0.031400000   -4.600944  -33.974834  -98.127615   18.014452    0.000000    0.000000    0.000000    0.000000
  0.031600000   -4.597364  -34.201214  -98.247208    9.494192    0.000000    0.000000    0.000000    0.000000
  0.031800000   -4.596719  -34.430191  -98.173015    7.067523    0.000000    0.000000    0.000000    0.000000
  0.032000000   -4.591780  -34.657913  -97.307643   11.920862    0.000000    0.000000    0.000000    0.000000
  0.032200000   -4.584409  -34.859894  -97.948690   20.552509    0.000000    0.000000    0.000000    0.000000
  0.032400000   -4.578933  -35.080612  -97.784371   19.982954    0.000000    0.000000    0.000000    0.000000
  0.032600000   -4.572059  -35.274796  -97.748778   15.273190    0.000000    0.000000    0.000000    0.000000
  0.032800000   -4.568288  -35.454765  -98.865804   15.719641    0.000000    0.000000    0.000000    0.000000
  0.033000000   -4.568052  -35.652176  -98.755438   20.694063    0.000000    0.000000    0.000000    0.000000
  0.033200000   -4.569800  -35.828541  -96.507455    7.825522    0.000000    0.000000    0.000000    0.000000
  0.033400000   -4.568926  -36.038231  -98.321828   20.195528    0.000000    0.000000    0.000000    0.000000
  0.033600000   -4.570609  -36.222820  -97.250842    4.562127    0.000000    0.000000    0.000000    0.000000
  0.033800000   -4.571971  -36.431774  -99.103781   14.795846    0.000000    0.000000    0.000000    0.000000
  0.034000000   -4.571223  -36.625332  -98.411132   18.890842    0.000000    0.000000    0.000000    0.000000
  0.034200000   -4.577325  -36.844219  -98.475880    9.991939    0.000000    0.000000    0.000000    0.000000
  0.034400000   -4.579425  -37.063305  -98.725985   18.913305    0.000000    0.000000    0.000000    0.000000
  0.034600000   -4.583508  -37.281372  -97.194563    1.230670    0.000000    0.000000    0.000000    0.000000
  0.034800000   -4.588099  -37.509827 -100.983060   10.088798    0.000000    0.000000    0.000000    0.000000
  0.035000000   -4.594630  -37.736568  -98.502208    6.110233    0.000000    0.000000    0.000000    0.000000
  0.035200000   -4.597187  -37.945366  -99.132577    4.798174    0.000000    0.000000    0.000000    0.000000
  0.035400000   -4.600651  -38.170589 -100.055746   -0.697218    0.000000    0.000000    0.000000    0.000000
  0.035600000   -4.603264  -38.388641  -99.667043   -5.576387    0.000000    0.000000    0.000000    0.000000
  0.035800000   -4.601641  -38.607082  -99.790837    6.389544    0.000000    0.000000    0.000000    0.000000
  0.036000000   -4.601812  -38.850380  -98.822694    9.570240    0.000000    0.000000    0.000000    0.000000
  0.036200000   -4.603133  -39.073479  -98.892668    4.681148    0.000000    0.000000    0.000000    0.000000
  0.036400000   -4.599299  -39.320694  -97.725987   -0.263012    0.000000    0.000000    0.000000    0.000000
  0.036600000   -4.595819  -39.528744  -98.993943   16.873882    0.000000    0.000000    0.000000    0.000000
  0.036800000   -4.591716  -39.736870  -99.908819    1.825468    0.000000    0.000000    0.000000    0.000000
  0.037000000   -4.593946  -39.903687 -101.172365    5.397483    0.000000    0.000000    0.000000    0.000000
  0.037200000   -4.589526  -40.074883 -101.922577   19.090197    0.000000    0.000000    0.000000    0.000000
  0.037400000   -4.594857  -40.258999  -98.326720   12.643397    0.000000    0.000000    0.000000    0.000000
  0.037600000   -4.602034  -40.440533  -97.380045   13.114819    0.000000    0.000000    0.000000    0.000000
  0.037800000   -4.611013  -40.680412  -98.972350   22.012812    0.000000    0.000000    0.000000    0.000000
  0.038000000   -4.615560  -40.924389  -98.289939   -5.150113    0.000000    0.000000    0.000000    0.000000
  0.038200000   -4.626887  -41.141346  -99.808037    1.206440    0.000000    0.000000    0.000000    0.000000
  0.038400000   -4.628556  -41.424709  -98.852110    6.765025    0.000000    0.000000    0.000000    0.000000
  0.038600000   -4.636197  -41.675579  -98.807993   10.320126    0.000000    0.000000    0.000000    0.000000
  0.038800000   -4.633546  -41.936214  -98.450508   12.249578    0.000000    0.000000    0.000000    0.000000
  0.039000000   -4.636888  -42.179401  -99.091180    3.713935    0.000000    0.000000    0.000000    0.000000
  0.039200000   -4.637054  -42.422703 -100.741821    6.147675    0.000000    0.000000    0.000000    0.000000
  0.039400000   -4.631968  -42.670902 -100.157276   13.291626    0.000000    0.000000    0.000000    0.000000
  0.039600000   -4.626538  -42.906212 -103.239140    5.331456    0.000000    0.000000    0.000000    0.000000
  0.039800000   -4.619415  -43.145145  -99.679733   13.561931    0.000000    0.000000    0.000000    0.000000
  0.040000000   -4.617762  -43.376713 -102.719470    6.462898    0.000000    0.000000    0.000000    0.000000
  0.040200000   -4.611431  -43.555077  -98.221774    9.606454    0.000000    0.000000    0.000000    0.000000
  0.040400000   -4.608872  -43.780159  -99.477357    6.921001    0.000000    0.000000    0.000000    0.000000
  0.040600000   -4.605933  -43.963890 -102.047090  -17.224730    0.000000    0.000000    0.000000    0.000000
  0.040800000   -4.606594  -44.144508  -99.868751   -4.183738    0.000000    0.000000    0.000000    0.000000
  0.041000000   -4.611590  -44.351067 -100.608454    5.266175    0.000000    0.000000    0.000000    0.000000
  0.041200000   -4.612144  -44.563793 -101.861050   30.452293    0.000000    0.000000    0.000000    0.000000
  0.041400000   -4.618311  -44.782055 -104.041578    2.143151    0.000000    0.000000    0.000000    0.000000
  0.041600000   -4.622283  -45.011520 -102.572748   12.714108    0.000000    0.000000    0.000000    0.000000
  0.041800000   -4.622511  -45.255993 -100.522060   -0.784409    0.000000    0.000000    0.000000    0.000000
  0.042000000   -4.627365  -45.489151 -102.066778   -7.756929    0.000000    0.000000    0.000000    0.000000
  0.042200000   -4.629300  -45.713295 -100.445039   -2.037162    0.000000    0.000000    0.000000    0.000000
  0.042400000   -4.629497  -45.913677 -102.334112   13.778317    0.000000    0.000000    0.000000    0.000000
  0.042600000   -4.627619  -46.162964 -103.247377   16.370749    0.000000    0.000000    0.000000    0.000000
  0.042800000   -4.630077  -46.357834 -104.028557   11.224489    0.000000    0.000000    0.000000    0.000000
