! Anritsu VNA Master:                     Model: MS2036C/10/77
! SN:                                  1601066
! /card0/usr/254.ns.sma.r20.12.s2p
! Existing Calibration Information:
! TYPE:                         Current Settings,       Active Cal Settings
! TIME:             	   12/20/2017 01:31:32 PM,    12/20/2017 01:21:26 PM
! INTERNAL TEMP:    	                   45.5 C,                    44.5 C
! # POINTS:         	                      501,                       501
! START FREQ:       	               10.000 MHz,                10.000 MHz
! STOP FREQ:        	              110.000 MHz,               110.000 MHz
! SOURCE POWER:     	                     High,                      High
! IFBW:             	                   100 Hz,                    100 Hz
! AVG FACTOR:       	                       1 ,                        1 
! REF PLANE 1:      	                     0 mm,                      0 mm
! REF PLANE 2:      	                     0 mm,                      0 mm
! CAL TYPE:         	                 Full S11,                  Full S11
! CAL METHOD:       	                     SOLT,                      SOLT
! CAL LINE TYPE:    	                     Coax,                      Coax
! DUT PORT 1:       	                N-Conn(F),                 N-Conn(F)
! DUT PORT 2:       	                K-Conn(F),                 K-Conn(F)
! CAL STATUS:       	        OK: Accuracy High,                        --
# GHZ S DB R 50.0
! FREQ.GHZ       S11DB        S11A       S21DB        S21A       S12DB        S12A       S22DB        S22A
  0.010000000  -64.914644   89.859352  -82.685295   78.774689    0.000000    0.000000    0.000000    0.000000
  0.010200000  -64.107451   94.823395  -82.033729   73.769127    0.000000    0.000000    0.000000    0.000000
  0.010400000  -63.720395   92.210228  -82.839891   76.941032    0.000000    0.000000    0.000000    0.000000
  0.010600000  -63.892172   89.679810  -83.142926   74.183136    0.000000    0.000000    0.000000    0.000000
  0.010800000  -63.880146   88.840057  -83.546360   71.271980    0.000000    0.000000    0.000000    0.000000
  0.011000000  -63.964228   87.211456  -83.465918   68.295731    0.000000    0.000000    0.000000    0.000000
  0.011200000  -64.176756   86.521172  -84.197660   65.072090    0.000000    0.000000    0.000000    0.000000
  0.011400000  -64.353172   87.801590  -84.099340   67.169937    0.000000    0.000000    0.000000    0.000000
  0.011600000  -63.306750   91.553902  -84.009701   64.047607    0.000000    0.000000    0.000000    0.000000
  0.011800000  -63.017365   85.857468  -84.639919   62.233650    0.000000    0.000000    0.000000    0.000000
  0.012000000  -63.298036   85.605217  -84.995018   66.176338    0.000000    0.000000    0.000000    0.000000
  0.012200000  -62.897116   89.614380  -85.568451   59.140804    0.000000    0.000000    0.000000    0.000000
  0.012400000  -62.842515   87.676506  -85.777081   62.563637    0.000000    0.000000    0.000000    0.000000
  0.012600000  -62.809644   84.675827  -86.196197   59.332577    0.000000    0.000000    0.000000    0.000000
  0.012800000  -62.410953   84.508942  -85.857613   60.223942    0.000000    0.000000    0.000000    0.000000
  0.013000000  -62.301349   83.794724  -86.192249   57.126003    0.000000    0.000000    0.000000    0.000000
  0.013200000  -62.456650   82.644272  -86.559683   58.582893    0.000000    0.000000    0.000000    0.000000
  0.013400000  -62.049811   84.524216  -86.992557   57.305382    0.000000    0.000000    0.000000    0.000000
  0.013600000  -62.137179   81.999191  -87.458808   58.069244    0.000000    0.000000    0.000000    0.000000
  0.013800000  -62.060407   82.154221  -86.726465   56.694855    0.000000    0.000000    0.000000    0.000000
  0.014000000  -62.020124   80.922600  -87.743227   59.797123    0.000000    0.000000    0.000000    0.000000
  0.014200000  -61.873301   81.663368  -86.692430   60.725334    0.000000    0.000000    0.000000    0.000000
  0.014400000  -61.441687   81.223656  -87.745630   56.453243    0.000000    0.000000    0.000000    0.000000
  0.014600000  -61.431499   82.880333  -87.740363   55.108646    0.000000    0.000000    0.000000    0.000000
  0.014800000  -61.273659   80.187576  -88.084501   58.455265    0.000000    0.000000    0.000000    0.000000
  0.015000000  -61.321504   82.191467  -87.787419   57.350266    0.000000    0.000000    0.000000    0.000000
  0.015200000  -61.389431   80.339920  -88.330685   57.761497    0.000000    0.000000    0.000000    0.000000
  0.015400000  -61.074943   81.315231  -87.827594   55.833496    0.000000    0.000000    0.000000    0.000000
  0.015600000  -61.291689   78.917404  -87.977144   56.541992    0.000000    0.000000    0.000000    0.000000
  0.015800000  -61.163591   79.054436  -87.792709   53.838848    0.000000    0.000000    0.000000    0.000000
  0.016000000  -61.264160   81.487747  -88.024608   52.189293    0.000000    0.000000    0.000000    0.000000
  0.016200000  -60.993164   79.960922  -88.106529   52.722267    0.000000    0.000000    0.000000    0.000000
  0.016400000  -60.816119   79.223640  -88.120294   47.672569    0.000000    0.000000    0.000000    0.000000
  0.016600000  -61.165451   77.584373  -88.552785   53.271118    0.000000    0.000000    0.000000    0.000000
  0.016800000  -60.971476   80.712227  -88.632605   47.081867    0.000000    0.000000    0.000000    0.000000
  0.017000000  -60.891591   78.315636  -88.638311   47.171574    0.000000    0.000000    0.000000    0.000000
  0.017200000  -61.072459   77.972038  -88.689959   41.326485    0.000000    0.000000    0.000000    0.000000
  0.017400000  -60.737696   77.949661  -89.005208   43.895561    0.000000    0.000000    0.000000    0.000000
  0.017600000  -60.855193   78.003792  -89.220978   41.884293    0.000000    0.000000    0.000000    0.000000
  0.017800000  -60.817928   78.316963  -89.478774   43.950237    0.000000    0.000000    0.000000    0.000000
  0.018000000  -60.637541   78.909622  -89.455813   43.470215    0.000000    0.000000    0.000000    0.000000
  0.018200000  -60.631464   78.764732  -90.879732   37.797680    0.000000    0.000000    0.000000    0.000000
  0.018400000  -60.297386   77.037399  -90.359758   33.347416    0.000000    0.000000    0.000000    0.000000
  0.018600000  -60.387015   75.477524  -90.035478   39.864830    0.000000    0.000000    0.000000    0.000000
  0.018800000  -60.397048   76.954361  -91.167834   39.329788    0.000000    0.000000    0.000000    0.000000
  0.019000000  -60.326370   76.274719  -90.293870   35.488853    0.000000    0.000000    0.000000    0.000000
  0.019200000  -60.024947   77.635857  -91.131398   32.976749    0.000000    0.000000    0.000000    0.000000
  0.019400000  -60.091816   75.461555  -91.211154   36.592155    0.000000    0.000000    0.000000    0.000000
  0.019600000  -59.845391   76.732178  -90.933133   42.037460    0.000000    0.000000    0.000000    0.000000
  0.019800000  -59.528712   75.904388  -91.330015   36.587315    0.000000    0.000000    0.000000    0.000000
  0.020000000  -59.355732   75.381599  -91.173789   35.194809    0.000000    0.000000    0.000000    0.000000
  0.020200000  -59.432381   75.081757  -91.828511   33.129154    0.000000    0.000000    0.000000    0.000000
  0.020400000  -59.166835   74.210091  -91.676240   34.779102    0.000000    0.000000    0.000000    0.000000
  0.020600000  -58.755447   75.279846  -92.289210   38.265106    0.000000    0.000000    0.000000    0.000000
  0.020800000  -58.700921   74.858788  -92.344072   36.984570    0.000000    0.000000    0.000000    0.000000
  0.021000000  -58.784692   75.740097  -92.818086   39.411385    0.000000    0.000000    0.000000    0.000000
  0.021200000  -58.537399   73.629509  -92.214242   30.811516    0.000000    0.000000    0.000000    0.000000
  0.021400000  -58.337122   73.687584  -92.565924   37.645420    0.000000    0.000000    0.000000    0.000000
  0.021600000  -58.314613   73.547775  -92.089310   42.234360    0.000000    0.000000    0.000000    0.000000
  0.021800000  -57.931278   74.209496  -91.958904   36.987770    0.000000    0.000000    0.000000    0.000000
  0.022000000  -57.918249   71.998352  -91.860339   39.144726    0.000000    0.000000    0.000000    0.000000
  0.022200000  -57.944621   71.857513  -92.744410   34.081215    0.000000    0.000000    0.000000    0.000000
  0.022400000  -57.866197   72.063019  -92.437047   33.823658    0.000000    0.000000    0.000000    0.000000
  0.022600000  -57.737684   73.875305  -92.506185   36.104187    0.000000    0.000000    0.000000    0.000000
  0.022800000  -57.584292   72.306335  -91.911459   33.250774    0.000000    0.000000    0.000000    0.000000
  0.023000000  -57.584770   72.461060  -92.222916   32.984440    0.000000    0.000000    0.000000    0.000000
  0.023200000  -57.425798   72.383736  -93.138085   27.363989    0.000000    0.000000    0.000000    0.000000
  0.023400000  -58.433704   72.941444  -92.943220   32.150574    0.000000    0.000000    0.000000    0.000000
  0.023600000  -57.410409   71.637009  -92.910234   31.670378    0.000000    0.000000    0.000000    0.000000
  0.023800000  -57.338888   71.422302  -93.694809   24.904650    0.000000    0.000000    0.000000    0.000000
  0.024000000  -57.403519   70.710716  -92.324287   28.831779    0.000000    0.000000    0.000000    0.000000
  0.024200000  -57.329063   71.126076  -92.782709   27.747835    0.000000    0.000000    0.000000    0.000000
  0.024400000  -57.186100   71.282150  -93.492956   28.394085    0.000000    0.000000    0.000000    0.000000
  0.024600000  -57.051771   71.893387  -93.076651   25.432953    0.000000    0.000000    0.000000    0.000000
  0.024800000  -57.280970   70.847649  -94.244851   30.637079    0.000000    0.000000    0.000000    0.000000
  0.025000000  -57.252627   71.071335  -93.631544   23.195429    0.000000    0.000000    0.000000    0.000000
  0.025200000  -57.080554   70.256783  -95.660001   10.881097    0.000000    0.000000    0.000000    0.000000
  0.025400000  -57.197440   70.481224  -95.578213   11.474825    0.000000    0.000000    0.000000    0.000000
  0.025600000  -57.188821   70.647919  -95.692942   23.401125    0.000000    0.000000    0.000000    0.000000
  0.025800000  -57.212842   70.070526  -93.076190   25.723381    0.000000    0.000000    0.000000    0.000000
  0.026000000  -57.289224   70.065025  -96.024999   24.387550    0.000000    0.000000    0.000000    0.000000
  0.026200000  -57.196043   68.736809  -94.922053   14.582233    0.000000    0.000000    0.000000    0.000000
  0.026400000  -57.157234   68.951591  -94.675384   23.758587    0.000000    0.000000    0.000000    0.000000
  0.026600000  -57.168783   67.646309  -95.327932   25.642691    0.000000    0.000000    0.000000    0.000000
  0.026800000  -56.936849   68.343430  -94.985684   20.754068    0.000000    0.000000    0.000000    0.000000
  0.027000000  -56.809711   68.280205  -95.532190   22.413488    0.000000    0.000000    0.000000    0.000000
  0.027200000  -56.841671   67.608398  -95.843830   28.581779    0.000000    0.000000    0.000000    0.000000
  0.027400000  -56.743949   67.755829  -95.569819   23.622952    0.000000    0.000000    0.000000    0.000000
  0.027600000  -56.750986   67.557838  -96.125828   20.697538    0.000000    0.000000    0.000000    0.000000
  0.027800000  -56.697172   67.786758  -94.922667   28.479803    0.000000    0.000000    0.000000    0.000000
  0.028000000  -56.543480   67.344719  -97.496514   15.546171    0.000000    0.000000    0.000000    0.000000
  0.028200000  -56.417738   66.549995  -95.104203   19.131310    0.000000    0.000000    0.000000    0.000000
  0.028400000  -56.326008   67.152290  -95.194004   20.135036    0.000000    0.000000    0.000000    0.000000
  0.028600000  -56.243362   65.756332  -94.850920   24.402699    0.000000    0.000000    0.000000    0.000000
  0.028800000  -56.100331   65.926033  -95.970930   25.030367    0.000000    0.000000    0.000000    0.000000
  0.029000000  -55.930054   66.715538  -95.877548   27.557585    0.000000    0.000000    0.000000    0.000000
  0.029200000  -56.003582   65.284019  -98.813431   24.001223    0.000000    0.000000    0.000000    0.000000
  0.029400000  -55.850548   65.341866  -97.336115   17.561041    0.000000    0.000000    0.000000    0.000000
  0.029600000  -55.887804   65.457764  -96.381751   21.158916    0.000000    0.000000    0.000000    0.000000
  0.029800000  -55.834301   66.028992  -97.301836   15.761225    0.000000    0.000000    0.000000    0.000000
  0.030000000  -55.789290   64.956398  -98.373357    8.423005    0.000000    0.000000    0.000000    0.000000
  0.030200000  -55.524339   65.169319  -96.092172   21.476759    0.000000    0.000000    0.000000    0.000000
  0.030400000  -55.766762   64.939735  -97.380090   15.426049    0.000000    0.000000    0.000000    0.000000
  0.030600000  -55.660185   64.225563  -97.083975   16.734591    0.000000    0.000000    0.000000    0.000000
  0.030800000  -55.595258   64.457817  -97.026643   14.939778    0.000000    0.000000    0.000000    0.000000
  0.031000000  -55.477413   63.829845  -98.622684   13.557531    0.000000    0.000000    0.000000    0.000000
  0.031200000  -55.189616   62.627789  -98.075756   20.481701    0.000000    0.000000    0.000000    0.000000
  0.031400000  -55.340322   64.178307  -96.129361    0.243112    0.000000    0.000000    0.000000    0.000000
  0.031600000  -55.246131   62.779594  -98.547307    8.104904    0.000000    0.000000    0.000000    0.000000
  0.031800000  -55.066501   64.215126  -96.631939   13.015412    0.000000    0.000000    0.000000    0.000000
  0.032000000  -55.207351   64.146881  -97.784501   21.985462    0.000000    0.000000    0.000000    0.000000
  0.032200000  -55.276740   63.856499  -98.964909    3.139318    0.000000    0.000000    0.000000    0.000000
  0.032400000  -55.072753   62.829983  -97.817066   24.073788    0.000000    0.000000    0.000000    0.000000
  0.032600000  -55.075340   64.610649  -97.007931   14.011430    0.000000    0.000000    0.000000    0.000000
  0.032800000  -55.180181   63.108242  -97.008171   22.350733    0.000000    0.000000    0.000000    0.000000
  0.033000000  -55.045996   64.583504  -97.684037   16.910765    0.000000    0.000000    0.000000    0.000000
  0.033200000  -54.964827   62.573521  -96.267479   19.131504    0.000000    0.000000    0.000000    0.000000
  0.033400000  -55.188630   63.266670  -96.978986   11.043173    0.000000    0.000000    0.000000    0.000000
  0.033600000  -54.896414   62.404522  -97.814665    6.515426    0.000000    0.000000    0.000000    0.000000
  0.033800000  -55.020069   62.751255  -97.418469   13.350548    0.000000    0.000000    0.000000    0.000000
  0.034000000  -54.957714   61.575405  -99.012983   23.380625    0.000000    0.000000    0.000000    0.000000
  0.034200000  -54.838366   62.582264 -100.349351   12.302246    0.000000    0.000000    0.000000    0.000000
  0.034400000  -54.633241   61.736317  -99.285841    9.957721    0.000000    0.000000    0.000000    0.000000
  0.034600000  -54.820847   62.287151  -97.351528   18.355999    0.000000    0.000000    0.000000    0.000000
  0.034800000  -54.572289   61.719769  -98.570354   18.531006    0.000000    0.000000    0.000000    0.000000
  0.035000000  -54.408430   61.194477  -97.990999    7.823683    0.000000    0.000000    0.000000    0.000000
  0.035200000  -54.403749   60.380299  -98.761115    0.773908    0.000000    0.000000    0.000000    0.000000
  0.035400000  -54.307833   60.931236  -98.620270   12.795587    0.000000    0.000000    0.000000    0.000000
  0.035600000  -54.125985   60.510578  -96.868524   19.130947    0.000000    0.000000    0.000000    0.000000
  0.035800000  -54.100376   59.899406  -98.457536   13.860575    0.000000    0.000000    0.000000    0.000000
  0.036000000  -54.009459   59.554699  -97.875953    5.599475    0.000000    0.000000    0.000000    0.000000
  0.036200000  -53.709384   59.198746  -99.004495   11.724557    0.000000    0.000000    0.000000    0.000000
  0.036400000  -53.889329   59.505516  -99.403827    4.490180    0.000000    0.000000    0.000000    0.000000
  0.036600000  -53.655709   60.053825 -100.130483    6.427455    0.000000    0.000000    0.000000    0.000000
  0.036800000  -53.610995   60.627922  -97.769096   17.563955    0.000000    0.000000    0.000000    0.000000
  0.037000000  -53.473648   58.774128  -98.608068    1.309782    0.000000    0.000000    0.000000    0.000000
  0.037200000  -53.408881   59.246822 -100.111210   -0.086754    0.000000    0.000000    0.000000    0.000000
  0.037400000  -53.486579   59.136654  -99.637683   13.593492    0.000000    0.000000    0.000000    0.000000
  0.037600000  -53.407717   58.708344  -98.925723    6.295502    0.000000    0.000000    0.000000    0.000000
  0.037800000  -53.255336   58.320007  -98.176299   13.146310    0.000000    0.000000    0.000000    0.000000
  0.038000000  -53.227206   59.372177 -101.856972    8.890291    0.000000    0.000000    0.000000    0.000000
  0.038200000  -53.285071   57.864796 -101.553832    9.947333    0.000000    0.000000    0.000000    0.000000
  0.038400000  -53.223292   57.755123 -102.475270   -4.696735    0.000000    0.000000    0.000000    0.000000
  0.038600000  -53.213504   58.129692  -99.751341    9.305357    0.000000    0.000000    0.000000    0.000000
  0.038800000  -53.193565   58.555832  -99.155494    6.391781    0.000000    0.000000    0.000000    0.000000
  0.039000000  -53.144007   56.551342  -98.011830   15.692846    0.000000    0.000000    0.000000    0.000000
  0.039200000  -53.068151   58.479019  -99.345806   14.172007    0.000000    0.000000    0.000000    0.000000
  0.039400000  -53.112829   57.869072 -102.709049    1.732095    0.000000    0.000000    0.000000    0.000000
  0.039600000  -53.076659   57.267784  -99.803055   12.890349    0.000000    0.000000    0.000000    0.000000
  0.039800000  -53.085332   57.208233  -99.429397   16.112562    0.000000    0.000000    0.000000    0.000000
  0.040000000  -53.020314   57.740097 -100.592907   12.686732    0.000000    0.000000    0.000000    0.000000
  0.040200000  -52.995875   55.860466 -100.882138    1.820715    0.000000    0.000000    0.000000    0.000000
  0.040400000  -53.038338   56.616795  -99.019231   -8.391912    0.000000    0.000000    0.000000    0.000000
  0.040600000  -53.003988   56.768124 -100.917847   10.756062    0.000000    0.000000    0.000000    0.000000
  0.040800000  -53.050029   57.013882 -100.632308   -2.113404    0.000000    0.000000    0.000000    0.000000
  0.041000000  -52.958482   56.394356 -100.608129   19.333506    0.000000    0.000000    0.000000    0.000000
  0.041200000  -52.994288   56.416405 -101.984006    6.718156    0.000000    0.000000    0.000000    0.000000
  0.041400000  -52.876380   56.241352 -101.574599    6.062635    0.000000    0.000000    0.000000    0.000000
  0.041600000  -53.057871   55.721832  -99.634837   15.525894    0.000000    0.000000    0.000000    0.000000
  0.041800000  -52.949926   55.534790  -99.279383   10.092638    0.000000    0.000000    0.000000    0.000000
  0.042000000  -52.988291   55.533062 -101.019798    9.310209    0.000000    0.000000    0.000000    0.000000
  0.042200000  -52.920343   54.316601  -99.981553   20.457281    0.000000    0.000000    0.000000    0.000000
  0.042400000  -52.660126   54.188927 -101.142274   18.285851    0.000000    0.000000    0.000000    0.000000
  0.042600000  -52.636311   55.046284 -100.543128    0.250529    0.000000    0.000000    0.000000    0.000000
  0.042800000  -52.704051   54.570469 -101.139373   17.914728    0.000000    0.000000    0.000000    0.000000
