! Anritsu VNA Master:                     Model: MS2036C/10/77
! SN:                                  1601066
! /card0/usr/254.ew.sma.r200.21.s2p
! Existing Calibration Information:
! TYPE:                         Current Settings,       Active Cal Settings
! TIME:             	   12/20/2017 01:04:03 PM,    12/20/2017 12:55:07 PM
! INTERNAL TEMP:    	                   44.3 C,                    44.3 C
! # POINTS:         	                      501,                       501
! START FREQ:       	               10.000 MHz,                10.000 MHz
! STOP FREQ:        	              110.000 MHz,               110.000 MHz
! SOURCE POWER:     	                     High,                      High
! IFBW:             	                   100 Hz,                    100 Hz
! AVG FACTOR:       	                       1 ,                        1 
! REF PLANE 1:      	                     0 mm,                      0 mm
! REF PLANE 2:      	                     0 mm,                      0 mm
! CAL TYPE:         	                 Full S11,                  Full S11
! CAL METHOD:       	                     SOLT,                      SOLT
! CAL LINE TYPE:    	                     Coax,                      Coax
! DUT PORT 1:       	                N-Conn(F),                 N-Conn(F)
! DUT PORT 2:       	                K-Conn(F),                 K-Conn(F)
! CAL STATUS:       	        OK: Accuracy High,                        --
# GHZ S DB R 50.0
! FREQ.GHZ       S11DB        S11A       S21DB        S21A       S12DB        S12A       S22DB        S22A
  0.010000000   -4.545417  -10.727968  -84.011224   75.607895    0.000000    0.000000    0.000000    0.000000
  0.010200000   -4.535534  -10.896740  -84.218954   77.900864    0.000000    0.000000    0.000000    0.000000
  0.010400000   -4.533259  -11.100514  -84.810107   74.515083    0.000000    0.000000    0.000000    0.000000
  0.010600000   -4.534053  -11.345499  -84.448327   74.890450    0.000000    0.000000    0.000000    0.000000
  0.010800000   -4.538393  -11.570881  -84.941907   78.603493    0.000000    0.000000    0.000000    0.000000
  0.011000000   -4.537270  -11.792302  -85.237031   75.764885    0.000000    0.000000    0.000000    0.000000
  0.011200000   -4.534113  -12.008224  -84.755945   75.118851    0.000000    0.000000    0.000000    0.000000
  0.011400000   -4.536630  -12.242255  -85.549516   74.900520    0.000000    0.000000    0.000000    0.000000
  0.011600000   -4.540839  -12.447529  -85.326746   72.110809    0.000000    0.000000    0.000000    0.000000
  0.011800000   -4.535471  -12.663830  -85.303565   74.330849    0.000000    0.000000    0.000000    0.000000
  0.012000000   -4.535240  -12.881552  -85.149741   74.100693    0.000000    0.000000    0.000000    0.000000
  0.012200000   -4.534460  -13.088694  -84.735257   70.329636    0.000000    0.000000    0.000000    0.000000
  0.012400000   -4.539244  -13.334237  -84.722675   68.765701    0.000000    0.000000    0.000000    0.000000
  0.012600000   -4.538123  -13.567018  -85.277966   70.714500    0.000000    0.000000    0.000000    0.000000
  0.012800000   -4.540615  -13.768107  -85.472256   67.162674    0.000000    0.000000    0.000000    0.000000
  0.013000000   -4.541261  -13.987371  -85.519392   66.536865    0.000000    0.000000    0.000000    0.000000
  0.013200000   -4.540040  -14.177943  -85.749916   64.059769    0.000000    0.000000    0.000000    0.000000
  0.013400000   -4.542379  -14.410563  -84.940771   60.770992    0.000000    0.000000    0.000000    0.000000
  0.013600000   -4.539131  -14.629731  -85.027283   62.083115    0.000000    0.000000    0.000000    0.000000
  0.013800000   -4.536625  -14.835060  -86.118836   60.587959    0.000000    0.000000    0.000000    0.000000
  0.014000000   -4.540315  -15.054851  -86.009375   54.566040    0.000000    0.000000    0.000000    0.000000
  0.014200000   -4.542692  -15.286920  -86.207134   54.614037    0.000000    0.000000    0.000000    0.000000
  0.014400000   -4.544342  -15.500481  -85.855969   54.353363    0.000000    0.000000    0.000000    0.000000
  0.014600000   -4.545185  -15.725600  -86.821893   50.652256    0.000000    0.000000    0.000000    0.000000
  0.014800000   -4.545616  -15.953657  -86.877930   49.449177    0.000000    0.000000    0.000000    0.000000
  0.015000000   -4.548888  -16.165684  -87.224903   45.853104    0.000000    0.000000    0.000000    0.000000
  0.015200000   -4.545337  -16.380186  -87.421952   48.105721    0.000000    0.000000    0.000000    0.000000
  0.015400000   -4.550864  -16.604227  -87.814208   45.371262    0.000000    0.000000    0.000000    0.000000
  0.015600000   -4.551915  -16.842424  -88.523554   43.531868    0.000000    0.000000    0.000000    0.000000
  0.015800000   -4.550769  -17.080471  -88.583230   42.690548    0.000000    0.000000    0.000000    0.000000
  0.016000000   -4.553874  -17.311489  -88.846907   47.076752    0.000000    0.000000    0.000000    0.000000
  0.016200000   -4.554664  -17.518339  -89.373390   42.821808    0.000000    0.000000    0.000000    0.000000
  0.016400000   -4.557142  -17.729425  -89.882005   44.817749    0.000000    0.000000    0.000000    0.000000
  0.016600000   -4.559151  -17.956881  -89.936555   47.010059    0.000000    0.000000    0.000000    0.000000
  0.016800000   -4.558716  -18.191980  -89.493066   45.332230    0.000000    0.000000    0.000000    0.000000
  0.017000000   -4.557841  -18.420280  -90.308555   45.206161    0.000000    0.000000    0.000000    0.000000
  0.017200000   -4.551780  -18.642197  -89.786091   45.117622    0.000000    0.000000    0.000000    0.000000
  0.017400000   -4.551899  -18.876997  -90.110326   44.873100    0.000000    0.000000    0.000000    0.000000
  0.017600000   -4.548087  -19.087797  -90.290293   47.386635    0.000000    0.000000    0.000000    0.000000
  0.017800000   -4.548540  -19.310682  -90.641269   44.207684    0.000000    0.000000    0.000000    0.000000
  0.018000000   -4.549151  -19.538372  -90.166845   45.831051    0.000000    0.000000    0.000000    0.000000
  0.018200000   -4.551090  -19.741703  -90.202420   47.869976    0.000000    0.000000    0.000000    0.000000
  0.018400000   -4.553472  -19.968576  -90.894517   45.577297    0.000000    0.000000    0.000000    0.000000
  0.018600000   -4.555188  -20.175623  -90.837621   43.337753    0.000000    0.000000    0.000000    0.000000
  0.018800000   -4.553669  -20.401218  -90.180691   44.314144    0.000000    0.000000    0.000000    0.000000
  0.019000000   -4.550115  -20.635555  -90.412714   45.620178    0.000000    0.000000    0.000000    0.000000
  0.019200000   -4.552819  -20.818905  -90.584928   45.275455    0.000000    0.000000    0.000000    0.000000
  0.019400000   -4.553743  -21.021412  -90.185385   44.895950    0.000000    0.000000    0.000000    0.000000
  0.019600000   -4.555262  -21.244350  -91.035189   41.070904    0.000000    0.000000    0.000000    0.000000
  0.019800000   -4.553277  -21.439585  -90.163935   45.956646    0.000000    0.000000    0.000000    0.000000
  0.020000000   -4.551500  -21.646364  -90.948207   41.769142    0.000000    0.000000    0.000000    0.000000
  0.020200000   -4.550904  -21.862209  -90.010104   40.789330    0.000000    0.000000    0.000000    0.000000
  0.020400000   -4.550773  -22.069469  -91.030729   32.948921    0.000000    0.000000    0.000000    0.000000
  0.020600000   -4.547593  -22.285200  -91.239012   36.940147    0.000000    0.000000    0.000000    0.000000
  0.020800000   -4.547340  -22.481258  -91.173957   32.889652    0.000000    0.000000    0.000000    0.000000
  0.021000000   -4.551673  -22.717707  -90.789682   32.540924    0.000000    0.000000    0.000000    0.000000
  0.021200000   -4.552722  -22.937956  -91.324787   33.337238    0.000000    0.000000    0.000000    0.000000
  0.021400000   -4.555858  -23.161028  -91.614448   28.619255    0.000000    0.000000    0.000000    0.000000
  0.021600000   -4.556521  -23.393400  -91.784789   28.476542    0.000000    0.000000    0.000000    0.000000
  0.021800000   -4.554322  -23.588278  -91.542442   30.761351    0.000000    0.000000    0.000000    0.000000
  0.022000000   -4.560972  -23.799873  -91.944881   31.676088    0.000000    0.000000    0.000000    0.000000
  0.022200000   -4.562846  -24.030336  -92.500508   31.608971    0.000000    0.000000    0.000000    0.000000
  0.022400000   -4.560986  -24.215590  -92.394185   23.209616    0.000000    0.000000    0.000000    0.000000
  0.022600000   -4.563177  -24.424969  -92.916003   27.897877    0.000000    0.000000    0.000000    0.000000
  0.022800000   -4.566395  -24.665201  -93.208140   31.441561    0.000000    0.000000    0.000000    0.000000
  0.023000000   -4.569804  -24.886673  -92.650249   30.632675    0.000000    0.000000    0.000000    0.000000
  0.023200000   -4.570743  -25.087799  -93.042478   24.610859    0.000000    0.000000    0.000000    0.000000
  0.023400000   -4.571717  -25.336187  -93.157764   27.585533    0.000000    0.000000    0.000000    0.000000
  0.023600000   -4.572861  -25.585892  -93.414052   28.199312    0.000000    0.000000    0.000000    0.000000
  0.023800000   -4.569939  -25.804674  -93.294430   32.994743    0.000000    0.000000    0.000000    0.000000
  0.024000000   -4.570134  -26.029867  -94.017402   30.571646    0.000000    0.000000    0.000000    0.000000
  0.024200000   -4.565642  -26.273653  -94.756654   23.214224    0.000000    0.000000    0.000000    0.000000
  0.024400000   -4.564858  -26.517334  -94.625408   25.084187    0.000000    0.000000    0.000000    0.000000
  0.024600000   -4.565784  -26.757627  -93.204313   30.126919    0.000000    0.000000    0.000000    0.000000
  0.024800000   -4.565834  -26.975088  -93.440127   30.575758    0.000000    0.000000    0.000000    0.000000
  0.025000000   -4.567065  -27.193382  -93.741210   31.388910    0.000000    0.000000    0.000000    0.000000
  0.025200000   -4.566012  -27.401075  -95.060770   25.678669    0.000000    0.000000    0.000000    0.000000
  0.025400000   -4.566757  -27.604263  -93.099359   28.271791    0.000000    0.000000    0.000000    0.000000
  0.025600000   -4.569785  -27.809559  -93.762663   24.955957    0.000000    0.000000    0.000000    0.000000
  0.025800000   -4.567447  -27.994692  -94.641642   27.929575    0.000000    0.000000    0.000000    0.000000
  0.026000000   -4.567696  -28.191496  -94.047496   22.214556    0.000000    0.000000    0.000000    0.000000
  0.026200000   -4.571271  -28.411118  -94.490120   18.628077    0.000000    0.000000    0.000000    0.000000
  0.026400000   -4.573960  -28.631386  -94.534546   19.926224    0.000000    0.000000    0.000000    0.000000
  0.026600000   -4.572979  -28.822422  -93.867493   26.489748    0.000000    0.000000    0.000000    0.000000
  0.026800000   -4.574832  -29.054319  -95.323037   24.725586    0.000000    0.000000    0.000000    0.000000
  0.027000000   -4.575488  -29.283077  -94.276322   26.542301    0.000000    0.000000    0.000000    0.000000
  0.027200000   -4.574832  -29.519411  -95.230673   18.778284    0.000000    0.000000    0.000000    0.000000
  0.027400000   -4.574752  -29.730164  -94.573973   19.103516    0.000000    0.000000    0.000000    0.000000
  0.027600000   -4.576144  -29.955353  -95.625370   21.847382    0.000000    0.000000    0.000000    0.000000
  0.027800000   -4.579870  -30.176941  -95.227086   25.593544    0.000000    0.000000    0.000000    0.000000
  0.028000000   -4.580086  -30.441120  -95.610591   23.033270    0.000000    0.000000    0.000000    0.000000
  0.028200000   -4.581870  -30.686209  -95.883093   23.662006    0.000000    0.000000    0.000000    0.000000
  0.028400000   -4.579970  -30.902754  -96.016038   20.921610    0.000000    0.000000    0.000000    0.000000
  0.028600000   -4.575406  -31.104897  -97.660777   15.116172    0.000000    0.000000    0.000000    0.000000
  0.028800000   -4.570579  -31.304823  -96.839276   25.236677    0.000000    0.000000    0.000000    0.000000
  0.029000000   -4.572132  -31.495029  -95.974517   19.780508    0.000000    0.000000    0.000000    0.000000
  0.029200000   -4.569425  -31.694899  -97.104326   17.904642    0.000000    0.000000    0.000000    0.000000
  0.029400000   -4.574164  -31.876633  -96.737448   19.456251    0.000000    0.000000    0.000000    0.000000
  0.029600000   -4.574660  -32.042763  -96.875441   16.017399    0.000000    0.000000    0.000000    0.000000
  0.029800000   -4.582074  -32.242233  -96.565280   18.634687    0.000000    0.000000    0.000000    0.000000
  0.030000000   -4.587480  -32.484814  -97.695648   20.954666    0.000000    0.000000    0.000000    0.000000
  0.030200000   -4.593933  -32.711975  -96.434101   17.402786    0.000000    0.000000    0.000000    0.000000
  0.030400000   -4.596738  -32.955746  -96.934795   15.406451    0.000000    0.000000    0.000000    0.000000
  0.030600000   -4.600269  -33.214756  -96.529778   13.569803    0.000000    0.000000    0.000000    0.000000
  0.030800000   -4.599132  -33.467449  -98.594999   23.675653    0.000000    0.000000    0.000000    0.000000
  0.031000000   -4.596901  -33.737278  -96.476787   27.069180    0.000000    0.000000    0.000000    0.000000
  0.031200000   -4.593435  -33.959412  -97.619537   22.193411    0.000000    0.000000    0.000000    0.000000
  0.031400000   -4.590161  -34.200542  -97.760602   25.367136    0.000000    0.000000    0.000000    0.000000
  0.031600000   -4.590672  -34.456715  -97.067976   17.104013    0.000000    0.000000    0.000000    0.000000
  0.031800000   -4.586178  -34.675129  -97.657088   21.365219    0.000000    0.000000    0.000000    0.000000
  0.032000000   -4.580175  -34.926598  -96.664637   18.302689    0.000000    0.000000    0.000000    0.000000
  0.032200000   -4.574010  -35.108437  -97.640234    2.929326    0.000000    0.000000    0.000000    0.000000
  0.032400000   -4.565883  -35.317581  -97.700633    1.170333    0.000000    0.000000    0.000000    0.000000
  0.032600000   -4.561416  -35.519680  -97.258380   22.943125    0.000000    0.000000    0.000000    0.000000
  0.032800000   -4.557655  -35.712303  -98.047000   26.050951    0.000000    0.000000    0.000000    0.000000
  0.033000000   -4.555967  -35.882851  -97.980095   20.553846    0.000000    0.000000    0.000000    0.000000
  0.033200000   -4.555053  -36.067478  -97.806635   23.449726    0.000000    0.000000    0.000000    0.000000
  0.033400000   -4.556672  -36.272671  -97.676714    9.294575    0.000000    0.000000    0.000000    0.000000
  0.033600000   -4.561301  -36.464264  -98.060672    8.837653    0.000000    0.000000    0.000000    0.000000
  0.033800000   -4.561347  -36.685108  -98.043342   13.110059    0.000000    0.000000    0.000000    0.000000
  0.034000000   -4.562734  -36.901112  -97.512719   14.719464    0.000000    0.000000    0.000000    0.000000
  0.034200000   -4.564858  -37.116745  -96.263878   10.779143    0.000000    0.000000    0.000000    0.000000
  0.034400000   -4.567590  -37.320553  -99.085538    4.317688    0.000000    0.000000    0.000000    0.000000
  0.034600000   -4.572933  -37.553680  -96.716070    8.200861    0.000000    0.000000    0.000000    0.000000
  0.034800000   -4.578341  -37.773773 -100.086255    1.674133    0.000000    0.000000    0.000000    0.000000
  0.035000000   -4.581700  -38.013683  -97.875599    6.110453    0.000000    0.000000    0.000000    0.000000
  0.035200000   -4.585520  -38.238770  -98.230964    9.414222    0.000000    0.000000    0.000000    0.000000
  0.035400000   -4.586819  -38.468414  -99.833029   10.055561    0.000000    0.000000    0.000000    0.000000
  0.035600000   -4.584291  -38.685612  -97.915981    8.746375    0.000000    0.000000    0.000000    0.000000
  0.035800000   -4.587771  -38.915348  -99.074632   22.710539    0.000000    0.000000    0.000000    0.000000
  0.036000000   -4.586441  -39.145252  -98.177166   20.377892    0.000000    0.000000    0.000000    0.000000
  0.036200000   -4.583270  -39.377430 -101.229503   13.410411    0.000000    0.000000    0.000000    0.000000
  0.036400000   -4.579416  -39.606598  -99.297851   19.724701    0.000000    0.000000    0.000000    0.000000
  0.036600000   -4.575238  -39.831123  -98.669938    8.929452    0.000000    0.000000    0.000000    0.000000
  0.036800000   -4.572248  -40.020054  -97.252088   13.726907    0.000000    0.000000    0.000000    0.000000
  0.037000000   -4.572034  -40.199829  -97.824107    6.110486    0.000000    0.000000    0.000000    0.000000
  0.037200000   -4.571673  -40.368687  -98.791034    3.733624    0.000000    0.000000    0.000000    0.000000
  0.037400000   -4.573935  -40.560154  -98.433541    1.100041    0.000000    0.000000    0.000000    0.000000
  0.037600000   -4.580598  -40.762177  -98.209976    4.691080    0.000000    0.000000    0.000000    0.000000
  0.037800000   -4.587984  -40.993053  -98.546177    8.651188    0.000000    0.000000    0.000000    0.000000
  0.038000000   -4.594667  -41.235249  -99.252659    9.472642    0.000000    0.000000    0.000000    0.000000
  0.038200000   -4.601352  -41.468445 -100.370411   -0.345051    0.000000    0.000000    0.000000    0.000000
  0.038400000   -4.605334  -41.697109  -99.050655   13.873972    0.000000    0.000000    0.000000    0.000000
  0.038600000   -4.611325  -41.976547 -100.442062   18.092682    0.000000    0.000000    0.000000    0.000000
  0.038800000   -4.611534  -42.224533  -99.037013    7.662963    0.000000    0.000000    0.000000    0.000000
  0.039000000   -4.610025  -42.485188  -99.276915   12.664529    0.000000    0.000000    0.000000    0.000000
  0.039200000   -4.607601  -42.738083  -99.262412   13.906348    0.000000    0.000000    0.000000    0.000000
  0.039400000   -4.602663  -42.979866  -99.603887    7.985853    0.000000    0.000000    0.000000    0.000000
  0.039600000   -4.599508  -43.200127 -100.043121   -0.214229    0.000000    0.000000    0.000000    0.000000
  0.039800000   -4.593279  -43.441593 -100.240652   12.880746    0.000000    0.000000    0.000000    0.000000
  0.040000000   -4.588167  -43.634132 -100.485525   -4.025085    0.000000    0.000000    0.000000    0.000000
  0.040200000   -4.583662  -43.848400 -101.437888   -5.933053    0.000000    0.000000    0.000000    0.000000
  0.040400000   -4.581314  -44.016056 -100.353987    2.671122    0.000000    0.000000    0.000000    0.000000
  0.040600000   -4.580100  -44.207874  -97.971591    7.917390    0.000000    0.000000    0.000000    0.000000
  0.040800000   -4.579548  -44.393269  -99.155163    1.549388    0.000000    0.000000    0.000000    0.000000
  0.041000000   -4.580435  -44.588177 -100.906975    8.649885    0.000000    0.000000    0.000000    0.000000
  0.041200000   -4.586193  -44.793644 -102.619800    2.496947    0.000000    0.000000    0.000000    0.000000
  0.041400000   -4.590364  -45.021374 -100.849088  -12.156672    0.000000    0.000000    0.000000    0.000000
  0.041600000   -4.593799  -45.242287 -101.321237   -3.973217    0.000000    0.000000    0.000000    0.000000
  0.041800000   -4.597482  -45.445099 -102.444843   18.978247    0.000000    0.000000    0.000000    0.000000
  0.042000000   -4.598129  -45.682465 -101.844294  -17.454496    0.000000    0.000000    0.000000    0.000000
  0.042200000   -4.603764  -45.900715 -105.491860   -4.560217    0.000000    0.000000    0.000000    0.000000
  0.042400000   -4.604045  -46.091099 -103.739218    5.351689    0.000000    0.000000    0.000000    0.000000
  0.042600000   -4.606679  -46.325180 -101.421917    1.066622    0.000000    0.000000    0.000000    0.000000
  0.042800000   -4.606736  -46.544018 -101.157906   17.781923    0.000000    0.000000    0.000000    0.000000
