! Anritsu VNA Master:                     Model: MS2036C/10/77
! SN:                                  1601066
! /card0/usr/254.ns.sma.me3.s2p
! Existing Calibration Information:
! TYPE:                         Current Settings,       Active Cal Settings
! TIME:             	   12/20/2017 02:04:00 PM,    12/20/2017 02:00:00 PM
! INTERNAL TEMP:    	                   47.3 C,                    47.0 C
! # POINTS:         	                      501,                       501
! START FREQ:       	               10.000 MHz,                10.000 MHz
! STOP FREQ:        	              110.000 MHz,               110.000 MHz
! SOURCE POWER:     	                     High,                      High
! IFBW:             	                   100 Hz,                    100 Hz
! AVG FACTOR:       	                       1 ,                        1 
! REF PLANE 1:      	                     0 mm,                      0 mm
! REF PLANE 2:      	                     0 mm,                      0 mm
! CAL TYPE:         	                 Full S11,                  Full S11
! CAL METHOD:       	                     SOLT,                      SOLT
! CAL LINE TYPE:    	                     Coax,                      Coax
! DUT PORT 1:       	                N-Conn(F),                 N-Conn(F)
! DUT PORT 2:       	                K-Conn(F),                 K-Conn(F)
! CAL STATUS:       	        OK: Accuracy High,                        --
# GHZ S DB R 50.0
! FREQ.GHZ       S11DB        S11A       S21DB        S21A       S12DB        S12A       S22DB        S22A
  0.010000000   -0.604403  -58.910233  -84.584026   83.888710    0.000000    0.000000    0.000000    0.000000
  0.010200000   -0.590543  -60.100677  -84.652967   83.295937    0.000000    0.000000    0.000000    0.000000
  0.010400000   -0.593149  -61.368744  -84.303525   86.780556    0.000000    0.000000    0.000000    0.000000
  0.010600000   -0.597897  -62.621319  -84.325094   82.850624    0.000000    0.000000    0.000000    0.000000
  0.010800000   -0.598423  -63.914467  -83.982311   84.150002    0.000000    0.000000    0.000000    0.000000
  0.011000000   -0.599494  -65.187035  -83.960450   82.021820    0.000000    0.000000    0.000000    0.000000
  0.011200000   -0.598878  -66.471100  -83.655308   80.111641    0.000000    0.000000    0.000000    0.000000
  0.011400000   -0.598949  -67.736679  -83.777576   79.609467    0.000000    0.000000    0.000000    0.000000
  0.011600000   -0.601464  -68.962311  -83.725096   73.929588    0.000000    0.000000    0.000000    0.000000
  0.011800000   -0.602771  -70.232483  -83.916359   73.748459    0.000000    0.000000    0.000000    0.000000
  0.012000000   -0.606313  -71.481003  -84.080074   72.581032    0.000000    0.000000    0.000000    0.000000
  0.012200000   -0.602296  -72.799797  -83.820333   71.679817    0.000000    0.000000    0.000000    0.000000
  0.012400000   -0.603038  -74.076637  -84.339315   67.038513    0.000000    0.000000    0.000000    0.000000
  0.012600000   -0.596353  -75.351135  -84.062019   62.809185    0.000000    0.000000    0.000000    0.000000
  0.012800000   -0.598527  -76.643440  -84.330804   58.964592    0.000000    0.000000    0.000000    0.000000
  0.013000000   -0.595264  -77.925484  -84.738224   56.325371    0.000000    0.000000    0.000000    0.000000
  0.013200000   -0.594678  -79.202408  -84.638981   54.524384    0.000000    0.000000    0.000000    0.000000
  0.013400000   -0.593407  -80.488762  -85.321939   49.617241    0.000000    0.000000    0.000000    0.000000
  0.013600000   -0.590737  -81.790344  -85.976814   54.570953    0.000000    0.000000    0.000000    0.000000
  0.013800000   -0.588644  -83.070404  -86.033889   49.327358    0.000000    0.000000    0.000000    0.000000
  0.014000000   -0.588013  -84.387497  -86.384515   47.879208    0.000000    0.000000    0.000000    0.000000
  0.014200000   -0.591444  -85.694695  -86.662617   45.598507    0.000000    0.000000    0.000000    0.000000
  0.014400000   -0.594279  -87.009003  -87.786974   48.161880    0.000000    0.000000    0.000000    0.000000
  0.014600000   -0.595728  -88.353531  -87.836730   44.318157    0.000000    0.000000    0.000000    0.000000
  0.014800000   -0.601647  -89.693542  -88.220035   48.318260    0.000000    0.000000    0.000000    0.000000
  0.015000000   -0.603468  -91.023048  -89.019969   42.244991    0.000000    0.000000    0.000000    0.000000
  0.015200000   -0.600442  -92.378166  -89.623573   46.243248    0.000000    0.000000    0.000000    0.000000
  0.015400000   -0.600495  -93.714249  -89.316618   46.309406    0.000000    0.000000    0.000000    0.000000
  0.015600000   -0.601467  -94.954681  -89.329773   47.288109    0.000000    0.000000    0.000000    0.000000
  0.015800000   -0.595416  -96.381119  -89.961639   48.171684    0.000000    0.000000    0.000000    0.000000
  0.016000000   -0.596490  -97.711967  -90.362398   50.409840    0.000000    0.000000    0.000000    0.000000
  0.016200000   -0.595765  -99.080811  -89.445503   56.363819    0.000000    0.000000    0.000000    0.000000
  0.016400000   -0.591297 -100.461166  -89.369889   56.929375    0.000000    0.000000    0.000000    0.000000
  0.016600000   -0.590762 -101.848877  -89.863262   54.563976    0.000000    0.000000    0.000000    0.000000
  0.016800000   -0.586804 -103.245056  -88.902705   53.582485    0.000000    0.000000    0.000000    0.000000
  0.017000000   -0.588191 -104.644547  -89.236335   53.711914    0.000000    0.000000    0.000000    0.000000
  0.017200000   -0.585122 -106.005249  -88.821752   54.375370    0.000000    0.000000    0.000000    0.000000
  0.017400000   -0.588667 -107.379402  -89.627477   49.083534    0.000000    0.000000    0.000000    0.000000
  0.017600000   -0.596188 -108.760406  -89.130686   54.085003    0.000000    0.000000    0.000000    0.000000
  0.017800000   -0.599474 -110.127632  -88.430829   50.256416    0.000000    0.000000    0.000000    0.000000
  0.018000000   -0.602107 -111.542450  -88.399609   43.078922    0.000000    0.000000    0.000000    0.000000
  0.018200000   -0.603097 -112.945534  -88.470201   40.978889    0.000000    0.000000    0.000000    0.000000
  0.018400000   -0.604702 -114.346939  -89.145640   46.419655    0.000000    0.000000    0.000000    0.000000
  0.018600000   -0.605322 -115.782021  -88.647071   37.077106    0.000000    0.000000    0.000000    0.000000
  0.018800000   -0.602901 -117.207588  -89.606267   38.185997    0.000000    0.000000    0.000000    0.000000
  0.019000000   -0.605756 -118.629578  -90.651712   39.565914    0.000000    0.000000    0.000000    0.000000
  0.019200000   -0.609271 -120.075233  -90.360491   37.241165    0.000000    0.000000    0.000000    0.000000
  0.019400000   -0.611010 -121.530106  -89.879089   36.659267    0.000000    0.000000    0.000000    0.000000
  0.019600000   -0.614439 -122.996147  -90.269655   32.313114    0.000000    0.000000    0.000000    0.000000
  0.019800000   -0.612872 -124.457687  -91.279962   31.920458    0.000000    0.000000    0.000000    0.000000
  0.020000000   -0.611005 -125.892517  -90.620362   26.514576    0.000000    0.000000    0.000000    0.000000
  0.020200000   -0.610859 -127.364105  -91.554002   31.322063    0.000000    0.000000    0.000000    0.000000
  0.020400000   -0.610149 -128.821793  -92.354691   29.844023    0.000000    0.000000    0.000000    0.000000
  0.020600000   -0.610425 -130.280396  -91.913620   28.972170    0.000000    0.000000    0.000000    0.000000
  0.020800000   -0.616150 -131.779724  -92.353240   32.337635    0.000000    0.000000    0.000000    0.000000
  0.021000000   -0.622207 -133.293518  -92.963335   28.156214    0.000000    0.000000    0.000000    0.000000
  0.021200000   -0.631294 -134.796448  -92.630492   32.294647    0.000000    0.000000    0.000000    0.000000
  0.021400000   -0.635183 -136.344116  -93.033147   35.225914    0.000000    0.000000    0.000000    0.000000
  0.021600000   -0.637340 -137.869873  -93.753843   32.333344    0.000000    0.000000    0.000000    0.000000
  0.021800000   -0.642480 -139.397141  -93.584057   38.095158    0.000000    0.000000    0.000000    0.000000
  0.022000000   -0.646545 -140.934845  -93.396015   40.610622    0.000000    0.000000    0.000000    0.000000
  0.022200000   -0.652571 -142.490189  -94.090744   29.461065    0.000000    0.000000    0.000000    0.000000
  0.022400000   -0.658346 -144.064728  -92.921493   31.675993    0.000000    0.000000    0.000000    0.000000
  0.022600000   -0.662286 -145.656906  -93.766271   35.710197    0.000000    0.000000    0.000000    0.000000
  0.022800000   -0.669809 -147.256714  -92.864777   33.535969    0.000000    0.000000    0.000000    0.000000
  0.023000000   -0.672734 -148.858292  -92.228490   37.136673    0.000000    0.000000    0.000000    0.000000
  0.023200000   -0.676277 -150.440521  -93.430612   36.644848    0.000000    0.000000    0.000000    0.000000
  0.023400000   -0.681327 -152.044083  -93.852616   26.652473    0.000000    0.000000    0.000000    0.000000
  0.023600000   -0.683511 -153.597443  -93.516041   32.593384    0.000000    0.000000    0.000000    0.000000
  0.023800000   -0.693723 -155.203094  -91.833803   26.895502    0.000000    0.000000    0.000000    0.000000
  0.024000000   -0.703227 -156.831863  -92.249436   30.546921    0.000000    0.000000    0.000000    0.000000
  0.024200000   -0.713266 -158.457855  -92.340574   31.707458    0.000000    0.000000    0.000000    0.000000
  0.024400000   -0.722747 -160.093384  -92.463844   26.019596    0.000000    0.000000    0.000000    0.000000
  0.024600000   -0.731439 -161.732346  -93.106970   24.958036    0.000000    0.000000    0.000000    0.000000
  0.024800000   -0.740270 -163.362808  -92.740416   19.393414    0.000000    0.000000    0.000000    0.000000
  0.025000000   -0.751356 -165.003326  -94.215387   19.118200    0.000000    0.000000    0.000000    0.000000
  0.025200000   -0.760364 -166.657089  -93.937719   20.399254    0.000000    0.000000    0.000000    0.000000
  0.025400000   -0.771554 -168.317520  -94.809501   14.556931    0.000000    0.000000    0.000000    0.000000
  0.025600000   -0.785031 -170.011032  -93.671919   17.239393    0.000000    0.000000    0.000000    0.000000
  0.025800000   -0.792507 -171.729126  -94.101958   17.503740    0.000000    0.000000    0.000000    0.000000
  0.026000000   -0.799478 -173.451508  -94.881907   16.221235    0.000000    0.000000    0.000000    0.000000
  0.026200000   -0.809120 -175.167343  -94.694790   18.165216    0.000000    0.000000    0.000000    0.000000
  0.026400000   -0.821209 -176.892685  -94.566973   16.071247    0.000000    0.000000    0.000000    0.000000
  0.026600000   -0.831567 -178.630936  -96.546490   14.712898    0.000000    0.000000    0.000000    0.000000
  0.026800000   -0.844621  179.612686  -97.308272   22.127008    0.000000    0.000000    0.000000    0.000000
  0.027000000   -0.859932  177.848175  -95.877111   16.036810    0.000000    0.000000    0.000000    0.000000
  0.027200000   -0.873724  176.060638  -95.064845   17.896257    0.000000    0.000000    0.000000    0.000000
  0.027400000   -0.888043  174.268036  -95.604557    6.663946    0.000000    0.000000    0.000000    0.000000
  0.027600000   -0.900684  172.476303  -95.557099   24.541985    0.000000    0.000000    0.000000    0.000000
  0.027800000   -0.918623  170.664581  -96.161670   28.902348    0.000000    0.000000    0.000000    0.000000
  0.028000000   -0.938201  168.845520  -95.791602   28.059969    0.000000    0.000000    0.000000    0.000000
  0.028200000   -0.959616  166.996780  -95.516975   19.330311    0.000000    0.000000    0.000000    0.000000
  0.028400000   -0.978342  165.167007  -96.195125   22.373428    0.000000    0.000000    0.000000    0.000000
  0.028600000   -0.996095  163.335785  -97.153304   17.545584    0.000000    0.000000    0.000000    0.000000
  0.028800000   -1.012736  161.509964  -95.722638   21.122343    0.000000    0.000000    0.000000    0.000000
  0.029000000   -1.030749  159.683563  -96.788697   32.507294    0.000000    0.000000    0.000000    0.000000
  0.029200000   -1.051140  157.853149  -95.641946   22.350115    0.000000    0.000000    0.000000    0.000000
  0.029400000   -1.074595  156.038147  -96.449778   27.166950    0.000000    0.000000    0.000000    0.000000
  0.029600000   -1.099616  154.179398  -95.772468   17.597918    0.000000    0.000000    0.000000    0.000000
  0.029800000   -1.129385  152.321686  -95.429981   18.102734    0.000000    0.000000    0.000000    0.000000
  0.030000000   -1.158189  150.416351  -95.982519   20.726091    0.000000    0.000000    0.000000    0.000000
  0.030200000   -1.185466  148.506638  -96.794297   15.025178    0.000000    0.000000    0.000000    0.000000
  0.030400000   -1.213333  146.585648  -96.808846   22.030085    0.000000    0.000000    0.000000    0.000000
  0.030600000   -1.242989  144.667770  -96.178708   11.199710    0.000000    0.000000    0.000000    0.000000
  0.030800000   -1.272864  142.776169  -96.697110   11.028797    0.000000    0.000000    0.000000    0.000000
  0.031000000   -1.307008  140.862915  -97.946395   15.114292    0.000000    0.000000    0.000000    0.000000
  0.031200000   -1.338026  138.940567  -96.422641   19.411289    0.000000    0.000000    0.000000    0.000000
  0.031400000   -1.373273  136.973892  -97.015367    7.896620    0.000000    0.000000    0.000000    0.000000
  0.031600000   -1.407616  134.991898  -95.395784   17.081352    0.000000    0.000000    0.000000    0.000000
  0.031800000   -1.438512  132.993454  -97.892865   10.191401    0.000000    0.000000    0.000000    0.000000
  0.032000000   -1.469316  131.018936  -97.736893   15.596972    0.000000    0.000000    0.000000    0.000000
  0.032200000   -1.501735  129.033020  -98.797721    3.411340    0.000000    0.000000    0.000000    0.000000
  0.032400000   -1.531725  127.045532  -99.074852   11.025073    0.000000    0.000000    0.000000    0.000000
  0.032600000   -1.565896  125.084053  -98.354926    1.963543    0.000000    0.000000    0.000000    0.000000
  0.032800000   -1.601304  123.119362  -97.899442   10.775041    0.000000    0.000000    0.000000    0.000000
  0.033000000   -1.641007  121.179565  -97.289927   16.209200    0.000000    0.000000    0.000000    0.000000
  0.033200000   -1.682833  119.201393  -98.518154   12.479322    0.000000    0.000000    0.000000    0.000000
  0.033400000   -1.730546  117.212975  -97.431533   12.441673    0.000000    0.000000    0.000000    0.000000
  0.033600000   -1.778513  115.208038  -98.525576   11.972667    0.000000    0.000000    0.000000    0.000000
  0.033800000   -1.827148  113.154327  -97.648789   15.992340    0.000000    0.000000    0.000000    0.000000
  0.034000000   -1.876022  111.069328  -97.413903    9.850513    0.000000    0.000000    0.000000    0.000000
  0.034200000   -1.919431  108.986855  -99.681354   18.859949    0.000000    0.000000    0.000000    0.000000
  0.034400000   -1.967525  106.860123  -97.754329    7.948316    0.000000    0.000000    0.000000    0.000000
  0.034600000   -2.009714  104.732491  -98.724466   17.287766    0.000000    0.000000    0.000000    0.000000
  0.034800000   -2.049835  102.628693  -98.559314   13.996100    0.000000    0.000000    0.000000    0.000000
  0.035000000   -2.091008  100.510223 -100.055434    6.121222    0.000000    0.000000    0.000000    0.000000
  0.035200000   -2.127438   98.418953  -97.129785   13.655838    0.000000    0.000000    0.000000    0.000000
  0.035400000   -2.163572   96.340088  -98.679947   15.259522    0.000000    0.000000    0.000000    0.000000
  0.035600000   -2.203260   94.251053  -98.458889   -5.036595    0.000000    0.000000    0.000000    0.000000
  0.035800000   -2.243378   92.158806  -98.420335    8.940479    0.000000    0.000000    0.000000    0.000000
  0.036000000   -2.287147   90.085968  -99.382404   33.528774    0.000000    0.000000    0.000000    0.000000
  0.036200000   -2.328289   88.057869  -98.940702   -1.811540    0.000000    0.000000    0.000000    0.000000
  0.036400000   -2.379781   86.014847  -97.805039   10.687129    0.000000    0.000000    0.000000    0.000000
  0.036600000   -2.425608   83.995575  -98.628488    0.047769    0.000000    0.000000    0.000000    0.000000
  0.036800000   -2.480361   81.967079  -97.585270    6.143765    0.000000    0.000000    0.000000    0.000000
  0.037000000   -2.540148   79.901489 -100.467789   11.329391    0.000000    0.000000    0.000000    0.000000
  0.037200000   -2.597435   77.813400  -98.947042    1.582159    0.000000    0.000000    0.000000    0.000000
  0.037400000   -2.655539   75.725273 -100.443413   13.288198    0.000000    0.000000    0.000000    0.000000
  0.037600000   -2.715346   73.603386 -100.492390   12.243533    0.000000    0.000000    0.000000    0.000000
  0.037800000   -2.779535   71.452744 -100.688070   10.900390    0.000000    0.000000    0.000000    0.000000
  0.038000000   -2.842078   69.301056 -101.685151    0.749601    0.000000    0.000000    0.000000    0.000000
  0.038200000   -2.905172   67.130035 -100.892566   11.487347    0.000000    0.000000    0.000000    0.000000
  0.038400000   -2.963921   65.011932  -99.195053   12.159341    0.000000    0.000000    0.000000    0.000000
  0.038600000   -3.015934   62.941074 -100.766672    7.987086    0.000000    0.000000    0.000000    0.000000
  0.038800000   -3.066346   60.832424 -101.087373   17.752993    0.000000    0.000000    0.000000    0.000000
  0.039000000   -3.111905   58.785286 -101.381007   18.776440    0.000000    0.000000    0.000000    0.000000
  0.039200000   -3.160804   56.772953  -99.972782   24.180178    0.000000    0.000000    0.000000    0.000000
  0.039400000   -3.213138   54.745266 -101.201869   17.274988    0.000000    0.000000    0.000000    0.000000
  0.039600000   -3.267672   52.756207  -99.166195   11.716270    0.000000    0.000000    0.000000    0.000000
  0.039800000   -3.326880   50.731712 -100.745620   11.037286    0.000000    0.000000    0.000000    0.000000
  0.040000000   -3.390820   48.726559 -101.014224    3.290090    0.000000    0.000000    0.000000    0.000000
  0.040200000   -3.450906   46.686012  -98.900367    9.270110    0.000000    0.000000    0.000000    0.000000
  0.040400000   -3.514187   44.641396 -100.837934    1.356531    0.000000    0.000000    0.000000    0.000000
  0.040600000   -3.572527   42.596447  -97.857129   16.090193    0.000000    0.000000    0.000000    0.000000
  0.040800000   -3.629825   40.533627  -99.980514  -17.747719    0.000000    0.000000    0.000000    0.000000
  0.041000000   -3.686226   38.508659 -100.681408   -1.636850    0.000000    0.000000    0.000000    0.000000
  0.041200000   -3.742747   36.464405 -100.892472    4.479887    0.000000    0.000000    0.000000    0.000000
  0.041400000   -3.797395   34.411747 -101.521289   -0.108058    0.000000    0.000000    0.000000    0.000000
  0.041600000   -3.848708   32.352741  -99.346321   -3.809177    0.000000    0.000000    0.000000    0.000000
  0.041800000   -3.900313   30.304268 -101.467519    6.561799    0.000000    0.000000    0.000000    0.000000
  0.042000000   -3.948446   28.274252 -101.920092   17.229841    0.000000    0.000000    0.000000    0.000000
  0.042200000   -3.996606   26.276180 -100.085330  -16.837160    0.000000    0.000000    0.000000    0.000000
  0.042400000   -4.044949   24.279890 -101.268160   15.714334    0.000000    0.000000    0.000000    0.000000
  0.042600000   -4.092415   22.274035 -100.957952   -8.885113    0.000000    0.000000    0.000000    0.000000
  0.042800000   -4.136333   20.302404 -100.663248   10.901086    0.000000    0.000000    0.000000    0.000000
