! Anritsu VNA Master:                     Model: MS2036C/10/77
! SN:                                  1601066
! /card0/usr/255.ns.sma.r20.1.s2p
! Existing Calibration Information:
! TYPE:                         Current Settings,       Active Cal Settings
! TIME:             	   12/19/2017 07:11:16 PM,    12/19/2017 06:59:48 PM
! INTERNAL TEMP:    	                   39.8 C,                    39.3 C
! # POINTS:         	                      501,                       501
! START FREQ:       	               10.000 MHz,                10.000 MHz
! STOP FREQ:        	              110.000 MHz,               110.000 MHz
! SOURCE POWER:     	                     High,                      High
! IFBW:             	                   100 Hz,                    100 Hz
! AVG FACTOR:       	                       1 ,                        1 
! REF PLANE 1:      	                     0 mm,                      0 mm
! REF PLANE 2:      	                     0 mm,                      0 mm
! CAL TYPE:         	                 Full S11,                  Full S11
! CAL METHOD:       	                     SOLT,                      SOLT
! CAL LINE TYPE:    	                     Coax,                      Coax
! DUT PORT 1:       	                N-Conn(F),                 N-Conn(F)
! DUT PORT 2:       	                K-Conn(F),                 K-Conn(F)
! CAL STATUS:       	        OK: Accuracy High,                        --
# GHZ S DB R 50.0
! FREQ.GHZ       S11DB        S11A       S21DB        S21A       S12DB        S12A       S22DB        S22A
  0.010000000   -7.240814  167.671234  -82.250287   78.170807    0.000000    0.000000    0.000000    0.000000
  0.010200000   -7.229416  167.456375  -82.754248   77.243027    0.000000    0.000000    0.000000    0.000000
  0.010400000   -7.224465  167.230438  -83.191591   74.987961    0.000000    0.000000    0.000000    0.000000
  0.010600000   -7.232882  166.987213  -83.241042   75.357719    0.000000    0.000000    0.000000    0.000000
  0.010800000   -7.234656  166.710663  -83.146361   71.102112    0.000000    0.000000    0.000000    0.000000
  0.011000000   -7.237344  166.464539  -83.623715   69.816978    0.000000    0.000000    0.000000    0.000000
  0.011200000   -7.239357  166.236511  -83.829033   67.360062    0.000000    0.000000    0.000000    0.000000
  0.011400000   -7.240186  165.993790  -84.672075   68.403542    0.000000    0.000000    0.000000    0.000000
  0.011600000   -7.240313  165.753433  -84.585129   66.138123    0.000000    0.000000    0.000000    0.000000
  0.011800000   -7.241572  165.529022  -84.859130   61.465240    0.000000    0.000000    0.000000    0.000000
  0.012000000   -7.239807  165.241364  -84.901420   64.069016    0.000000    0.000000    0.000000    0.000000
  0.012200000   -7.238575  164.984985  -85.297955   56.977867    0.000000    0.000000    0.000000    0.000000
  0.012400000   -7.244843  164.728806  -85.657976   62.774731    0.000000    0.000000    0.000000    0.000000
  0.012600000   -7.240671  164.479309  -86.163588   58.857113    0.000000    0.000000    0.000000    0.000000
  0.012800000   -7.243653  164.237946  -86.616902   60.925129    0.000000    0.000000    0.000000    0.000000
  0.013000000   -7.252638  164.008270  -86.045350   60.003540    0.000000    0.000000    0.000000    0.000000
  0.013200000   -7.252913  163.782730  -86.258829   61.630955    0.000000    0.000000    0.000000    0.000000
  0.013400000   -7.252892  163.525543  -86.446448   60.816406    0.000000    0.000000    0.000000    0.000000
  0.013600000   -7.246700  163.312515  -87.150010   58.321571    0.000000    0.000000    0.000000    0.000000
  0.013800000   -7.243102  163.059723  -87.269192   62.743362    0.000000    0.000000    0.000000    0.000000
  0.014000000   -7.250320  162.820404  -87.653382   60.715950    0.000000    0.000000    0.000000    0.000000
  0.014200000   -7.250301  162.575409  -87.328449   58.598194    0.000000    0.000000    0.000000    0.000000
  0.014400000   -7.254492  162.336487  -87.592163   63.216572    0.000000    0.000000    0.000000    0.000000
  0.014600000   -7.251086  162.106842  -88.749652   60.690098    0.000000    0.000000    0.000000    0.000000
  0.014800000   -7.257222  161.835587  -87.868799   51.947914    0.000000    0.000000    0.000000    0.000000
  0.015000000   -7.258026  161.603119  -87.783845   56.710659    0.000000    0.000000    0.000000    0.000000
  0.015200000   -7.259198  161.364868  -87.954855   57.369442    0.000000    0.000000    0.000000    0.000000
  0.015400000   -7.257231  161.090988  -88.194745   59.116920    0.000000    0.000000    0.000000    0.000000
  0.015600000   -7.262363  160.898315  -88.026575   53.124619    0.000000    0.000000    0.000000    0.000000
  0.015800000   -7.264428  160.610809  -87.744740   53.353062    0.000000    0.000000    0.000000    0.000000
  0.016000000   -7.268351  160.368988  -88.087930   55.913399    0.000000    0.000000    0.000000    0.000000
  0.016200000   -7.268686  160.121490  -88.305634   55.918423    0.000000    0.000000    0.000000    0.000000
  0.016400000   -7.267829  159.872375  -88.393023   50.540684    0.000000    0.000000    0.000000    0.000000
  0.016600000   -7.265066  159.641006  -88.043579   50.548717    0.000000    0.000000    0.000000    0.000000
  0.016800000   -7.269118  159.408920  -88.513947   47.837437    0.000000    0.000000    0.000000    0.000000
  0.017000000   -7.272388  159.135040  -88.335874   45.756344    0.000000    0.000000    0.000000    0.000000
  0.017200000   -7.269083  158.881332  -88.782627   42.643909    0.000000    0.000000    0.000000    0.000000
  0.017400000   -7.270957  158.659195  -88.864340   43.956726    0.000000    0.000000    0.000000    0.000000
  0.017600000   -7.274586  158.406860  -90.118140   42.834652    0.000000    0.000000    0.000000    0.000000
  0.017800000   -7.273236  158.150223  -88.756207   41.695084    0.000000    0.000000    0.000000    0.000000
  0.018000000   -7.273723  157.875687  -89.240064   41.947849    0.000000    0.000000    0.000000    0.000000
  0.018200000   -7.271309  157.637085  -89.978727   40.058601    0.000000    0.000000    0.000000    0.000000
  0.018400000   -7.274370  157.394806  -90.073167   45.060463    0.000000    0.000000    0.000000    0.000000
  0.018600000   -7.276616  157.177475  -90.465904   37.645115    0.000000    0.000000    0.000000    0.000000
  0.018800000   -7.277615  156.909195  -90.993793   38.386166    0.000000    0.000000    0.000000    0.000000
  0.019000000   -7.276397  156.694794  -90.597536   42.734108    0.000000    0.000000    0.000000    0.000000
  0.019200000   -7.275923  156.454437  -90.702192   36.700054    0.000000    0.000000    0.000000    0.000000
  0.019400000   -7.275779  156.224274  -91.021646   39.086823    0.000000    0.000000    0.000000    0.000000
  0.019600000   -7.278075  155.990036  -91.632116   30.996977    0.000000    0.000000    0.000000    0.000000
  0.019800000   -7.276318  155.758408  -91.967182   37.831619    0.000000    0.000000    0.000000    0.000000
  0.020000000   -7.276249  155.519196  -91.136537   39.825348    0.000000    0.000000    0.000000    0.000000
  0.020200000   -7.275420  155.266571  -91.214991   34.722252    0.000000    0.000000    0.000000    0.000000
  0.020400000   -7.272206  155.024582  -91.984572   41.636791    0.000000    0.000000    0.000000    0.000000
  0.020600000   -7.269883  154.771637  -92.308581   43.039768    0.000000    0.000000    0.000000    0.000000
  0.020800000   -7.268095  154.545181  -91.947342   35.480511    0.000000    0.000000    0.000000    0.000000
  0.021000000   -7.267162  154.317169  -91.123835   41.583744    0.000000    0.000000    0.000000    0.000000
  0.021200000   -7.267543  154.064117  -92.291976   37.455353    0.000000    0.000000    0.000000    0.000000
  0.021400000   -7.268745  153.824326  -91.800303   39.079033    0.000000    0.000000    0.000000    0.000000
  0.021600000   -7.268899  153.622559  -92.737467   34.609234    0.000000    0.000000    0.000000    0.000000
  0.021800000   -7.274749  153.403870  -91.863909   34.330002    0.000000    0.000000    0.000000    0.000000
  0.022000000   -7.272634  153.152130  -92.553914   37.541752    0.000000    0.000000    0.000000    0.000000
  0.022200000   -7.277613  152.906342  -91.677197   38.248470    0.000000    0.000000    0.000000    0.000000
  0.022400000   -7.278041  152.686737  -91.206344   33.456802    0.000000    0.000000    0.000000    0.000000
  0.022600000   -7.281762  152.487778  -92.396554   35.335289    0.000000    0.000000    0.000000    0.000000
  0.022800000   -7.278276  152.237381  -92.096733   37.530411    0.000000    0.000000    0.000000    0.000000
  0.023000000   -7.283715  152.022369  -92.423392   34.092995    0.000000    0.000000    0.000000    0.000000
  0.023200000   -7.284837  151.772324  -92.911895   29.832146    0.000000    0.000000    0.000000    0.000000
  0.023400000   -7.285533  151.540161  -92.970696   32.914413    0.000000    0.000000    0.000000    0.000000
  0.023600000   -7.285701  151.284286  -92.565707   24.995832    0.000000    0.000000    0.000000    0.000000
  0.023800000   -7.286110  151.030075  -92.036910   24.865168    0.000000    0.000000    0.000000    0.000000
  0.024000000   -7.283028  150.793396  -92.811628   26.621164    0.000000    0.000000    0.000000    0.000000
  0.024200000   -7.280961  150.523361  -94.279557   29.810801    0.000000    0.000000    0.000000    0.000000
  0.024400000   -7.283714  150.284607  -93.557873   25.447090    0.000000    0.000000    0.000000    0.000000
  0.024600000   -7.286951  150.018204  -93.285013   26.441479    0.000000    0.000000    0.000000    0.000000
  0.024800000   -7.284277  149.791107  -93.394887   30.053505    0.000000    0.000000    0.000000    0.000000
  0.025000000   -7.285800  149.530884  -93.427847   19.079311    0.000000    0.000000    0.000000    0.000000
  0.025200000   -7.282700  149.318832  -94.897002   31.154545    0.000000    0.000000    0.000000    0.000000
  0.025400000   -7.286268  149.110275  -94.706558   24.009161    0.000000    0.000000    0.000000    0.000000
  0.025600000   -7.290226  148.852112  -94.665552   24.980595    0.000000    0.000000    0.000000    0.000000
  0.025800000   -7.294257  148.663452  -94.772499   30.196201    0.000000    0.000000    0.000000    0.000000
  0.026000000   -7.292775  148.400940  -95.269213   17.681005    0.000000    0.000000    0.000000    0.000000
  0.026200000   -7.291320  148.182480  -94.575470   25.903673    0.000000    0.000000    0.000000    0.000000
  0.026400000   -7.296443  147.934235  -94.551068   21.030638    0.000000    0.000000    0.000000    0.000000
  0.026600000   -7.302932  147.683716  -95.009382   14.668877    0.000000    0.000000    0.000000    0.000000
  0.026800000   -7.300957  147.423370  -95.730791   20.285463    0.000000    0.000000    0.000000    0.000000
  0.027000000   -7.302191  147.163727  -96.893329   27.681520    0.000000    0.000000    0.000000    0.000000
  0.027200000   -7.298820  146.917343  -95.471474   20.173258    0.000000    0.000000    0.000000    0.000000
  0.027400000   -7.293329  146.650284  -95.342650   22.394333    0.000000    0.000000    0.000000    0.000000
  0.027600000   -7.290248  146.375992  -95.176579   22.250689    0.000000    0.000000    0.000000    0.000000
  0.027800000   -7.291109  146.130234  -95.412195   18.763857    0.000000    0.000000    0.000000    0.000000
  0.028000000   -7.288792  145.869202  -95.745107   26.849186    0.000000    0.000000    0.000000    0.000000
  0.028200000   -7.290542  145.625336  -97.398895   25.816687    0.000000    0.000000    0.000000    0.000000
  0.028400000   -7.287983  145.416855  -94.822394   23.896475    0.000000    0.000000    0.000000    0.000000
  0.028600000   -7.282098  145.191269  -95.598831   19.422895    0.000000    0.000000    0.000000    0.000000
  0.028800000   -7.284896  144.995621  -95.957025   19.757673    0.000000    0.000000    0.000000    0.000000
  0.029000000   -7.285462  144.799713  -95.904509   20.842957    0.000000    0.000000    0.000000    0.000000
  0.029200000   -7.285135  144.597565  -96.900534   15.619763    0.000000    0.000000    0.000000    0.000000
  0.029400000   -7.285863  144.421417  -95.794935   18.803371    0.000000    0.000000    0.000000    0.000000
  0.029600000   -7.286419  144.213791  -95.308055   22.137774    0.000000    0.000000    0.000000    0.000000
  0.029800000   -7.288659  143.980972  -96.159907   16.239531    0.000000    0.000000    0.000000    0.000000
  0.030000000   -7.293685  143.755753  -95.979996   16.311071    0.000000    0.000000    0.000000    0.000000
  0.030200000   -7.296462  143.488434  -96.855725   17.669636    0.000000    0.000000    0.000000    0.000000
  0.030400000   -7.298995  143.242599  -96.636808    9.240609    0.000000    0.000000    0.000000    0.000000
  0.030600000   -7.299661  142.959213  -96.330560   14.864870    0.000000    0.000000    0.000000    0.000000
  0.030800000   -7.300665  142.694580  -96.764881    8.933626    0.000000    0.000000    0.000000    0.000000
  0.031000000   -7.299928  142.440292  -96.937082   18.858511    0.000000    0.000000    0.000000    0.000000
  0.031200000   -7.299273  142.266891  -97.182778    7.245331    0.000000    0.000000    0.000000    0.000000
  0.031400000   -7.303793  141.964355  -96.768833   15.192062    0.000000    0.000000    0.000000    0.000000
  0.031600000   -7.305717  141.711761  -96.599748    4.670367    0.000000    0.000000    0.000000    0.000000
  0.031800000   -7.301473  141.433685  -97.422674   16.316109    0.000000    0.000000    0.000000    0.000000
  0.032000000   -7.298719  141.194962  -96.596257   10.260929    0.000000    0.000000    0.000000    0.000000
  0.032200000   -7.291252  140.936554  -97.090472    8.838862    0.000000    0.000000    0.000000    0.000000
  0.032400000   -7.288704  140.681076  -96.051454   10.750458    0.000000    0.000000    0.000000    0.000000
  0.032600000   -7.283343  140.487930  -98.810191    9.530051    0.000000    0.000000    0.000000    0.000000
  0.032800000   -7.279088  140.279510  -97.523360   11.293077    0.000000    0.000000    0.000000    0.000000
  0.033000000   -7.281779  140.074265  -97.293637    5.405617    0.000000    0.000000    0.000000    0.000000
  0.033200000   -7.278242  139.880051  -97.789496   10.741126    0.000000    0.000000    0.000000    0.000000
  0.033400000   -7.281623  139.675018 -100.043954   15.857230    0.000000    0.000000    0.000000    0.000000
  0.033600000   -7.284910  139.461380  -97.193339   15.962106    0.000000    0.000000    0.000000    0.000000
  0.033800000   -7.291746  139.213943  -98.032842   17.952730    0.000000    0.000000    0.000000    0.000000
  0.034000000   -7.290278  138.954468  -98.390085    3.872100    0.000000    0.000000    0.000000    0.000000
  0.034200000   -7.295802  138.670135  -97.207235   14.405629    0.000000    0.000000    0.000000    0.000000
  0.034400000   -7.296678  138.423676  -97.450637   10.278354    0.000000    0.000000    0.000000    0.000000
  0.034600000   -7.299623  138.140656  -98.840558   22.381018    0.000000    0.000000    0.000000    0.000000
  0.034800000   -7.303419  137.865982  -99.971873    5.987224    0.000000    0.000000    0.000000    0.000000
  0.035000000   -7.304858  137.653336  -99.011412   17.291861    0.000000    0.000000    0.000000    0.000000
  0.035200000   -7.299591  137.369629  -98.007575   10.823909    0.000000    0.000000    0.000000    0.000000
  0.035400000   -7.296737  137.134140  -99.443048   12.454779    0.000000    0.000000    0.000000    0.000000
  0.035600000   -7.297166  136.893433  -99.569662    8.272041    0.000000    0.000000    0.000000    0.000000
  0.035800000   -7.287469  136.606277  -97.541514    8.906646    0.000000    0.000000    0.000000    0.000000
  0.036000000   -7.280023  136.368011  -99.153231   10.139758    0.000000    0.000000    0.000000    0.000000
  0.036200000   -7.274805  136.147995  -99.798707   13.056766    0.000000    0.000000    0.000000    0.000000
  0.036400000   -7.270750  135.947083  -99.177076   11.861819    0.000000    0.000000    0.000000    0.000000
  0.036600000   -7.261742  135.709976 -100.458858   -2.902952    0.000000    0.000000    0.000000    0.000000
  0.036800000   -7.263934  135.520981  -98.269474    6.328662    0.000000    0.000000    0.000000    0.000000
  0.037000000   -7.264574  135.331192  -98.819394    7.009743    0.000000    0.000000    0.000000    0.000000
  0.037200000   -7.269476  135.127884  -97.156043    9.612067    0.000000    0.000000    0.000000    0.000000
  0.037400000   -7.271826  134.906601  -99.578590    4.800969    0.000000    0.000000    0.000000    0.000000
  0.037600000   -7.277926  134.641800  -98.505485   -1.107474    0.000000    0.000000    0.000000    0.000000
  0.037800000   -7.277273  134.432632  -98.435122    0.424572    0.000000    0.000000    0.000000    0.000000
  0.038000000   -7.283671  134.161545  -98.699922   19.805021    0.000000    0.000000    0.000000    0.000000
  0.038200000   -7.288355  133.933594 -100.513852   -1.850381    0.000000    0.000000    0.000000    0.000000
  0.038400000   -7.292368  133.657623  -98.677336   16.537973    0.000000    0.000000    0.000000    0.000000
  0.038600000   -7.293915  133.434860  -99.550588   16.941618    0.000000    0.000000    0.000000    0.000000
  0.038800000   -7.293857  133.177795 -100.141797   -8.531152    0.000000    0.000000    0.000000    0.000000
  0.039000000   -7.295405  132.915497 -100.038135   13.807439    0.000000    0.000000    0.000000    0.000000
  0.039200000   -7.293118  132.707443  -98.251967    1.966357    0.000000    0.000000    0.000000    0.000000
  0.039400000   -7.294950  132.411392  -99.242872    8.026837    0.000000    0.000000    0.000000    0.000000
  0.039600000   -7.287000  132.168442 -100.185934   16.569719    0.000000    0.000000    0.000000    0.000000
  0.039800000   -7.281703  131.908508 -103.154851    8.391551    0.000000    0.000000    0.000000    0.000000
  0.040000000   -7.276393  131.672012  -98.469262   23.595205    0.000000    0.000000    0.000000    0.000000
  0.040200000   -7.271490  131.480865 -100.350939   -2.992900    0.000000    0.000000    0.000000    0.000000
  0.040400000   -7.265588  131.240204 -100.683385   -6.361145    0.000000    0.000000    0.000000    0.000000
  0.040600000   -7.268095  131.048798 -101.076645   12.063226    0.000000    0.000000    0.000000    0.000000
  0.040800000   -7.270908  130.875839 -102.335803   11.161645    0.000000    0.000000    0.000000    0.000000
  0.041000000   -7.271831  130.679932 -100.868967   13.173176    0.000000    0.000000    0.000000    0.000000
  0.041200000   -7.279940  130.443542 -101.109047    5.395540    0.000000    0.000000    0.000000    0.000000
  0.041400000   -7.290020  130.203384 -100.238217   -0.199707    0.000000    0.000000    0.000000    0.000000
  0.041600000   -7.296881  129.961075 -101.196375   10.808943    0.000000    0.000000    0.000000    0.000000
  0.041800000   -7.298537  129.701569 -101.380476    9.375984    0.000000    0.000000    0.000000    0.000000
  0.042000000   -7.300461  129.455734 -100.214589    2.229155    0.000000    0.000000    0.000000    0.000000
  0.042200000   -7.306617  129.201202 -101.107124   18.572578    0.000000    0.000000    0.000000    0.000000
  0.042400000   -7.305371  128.952682  -99.597725   -5.373444    0.000000    0.000000    0.000000    0.000000
  0.042600000   -7.300959  128.679703 -100.514798    7.293164    0.000000    0.000000    0.000000    0.000000
  0.042800000   -7.297791  128.393509 -100.100285   10.432595    0.000000    0.000000    0.000000    0.000000
