! Anritsu VNA Master:                     Model: MS2036C/10/77
! SN:                                  1601066
! /card0/usr/255.ns.sma.r50.11.s2p
! Existing Calibration Information:
! TYPE:                         Current Settings,       Active Cal Settings
! TIME:             	   12/19/2017 07:05:10 PM,    12/19/2017 06:59:48 PM
! INTERNAL TEMP:    	                   39.8 C,                    39.3 C
! # POINTS:         	                      501,                       501
! START FREQ:       	               10.000 MHz,                10.000 MHz
! STOP FREQ:        	              110.000 MHz,               110.000 MHz
! SOURCE POWER:     	                     High,                      High
! IFBW:             	                   100 Hz,                    100 Hz
! AVG FACTOR:       	                       1 ,                        1 
! REF PLANE 1:      	                     0 mm,                      0 mm
! REF PLANE 2:      	                     0 mm,                      0 mm
! CAL TYPE:         	                 Full S11,                  Full S11
! CAL METHOD:       	                     SOLT,                      SOLT
! CAL LINE TYPE:    	                     Coax,                      Coax
! DUT PORT 1:       	                N-Conn(F),                 N-Conn(F)
! DUT PORT 2:       	                K-Conn(F),                 K-Conn(F)
! CAL STATUS:       	        OK: Accuracy High,                        --
# GHZ S DB R 50.0
! FREQ.GHZ       S11DB        S11A       S21DB        S21A       S12DB        S12A       S22DB        S22A
  0.010000000  -44.674310   65.226120  -83.219062   78.238541    0.000000    0.000000    0.000000    0.000000
  0.010200000  -44.583160   62.858574  -83.600070   78.847229    0.000000    0.000000    0.000000    0.000000
  0.010400000  -44.546140   64.817085  -83.961812   74.739014    0.000000    0.000000    0.000000    0.000000
  0.010600000  -44.601951   60.055130  -83.661583   73.849411    0.000000    0.000000    0.000000    0.000000
  0.010800000  -43.866954   62.051208  -84.567184   73.345726    0.000000    0.000000    0.000000    0.000000
  0.011000000  -44.408683   61.798542  -83.930289   73.330116    0.000000    0.000000    0.000000    0.000000
  0.011200000  -43.918332   60.249393  -84.646534   70.696831    0.000000    0.000000    0.000000    0.000000
  0.011400000  -43.906514   62.296371  -84.315865   71.067879    0.000000    0.000000    0.000000    0.000000
  0.011600000  -44.041055   61.533024  -85.100613   66.839752    0.000000    0.000000    0.000000    0.000000
  0.011800000  -43.739644   60.133537  -84.555843   68.514862    0.000000    0.000000    0.000000    0.000000
  0.012000000  -43.481510   62.154331  -84.790326   64.175858    0.000000    0.000000    0.000000    0.000000
  0.012200000  -43.294805   61.974789  -84.876862   65.953316    0.000000    0.000000    0.000000    0.000000
  0.012400000  -43.124641   60.985161  -85.981959   67.047783    0.000000    0.000000    0.000000    0.000000
  0.012600000  -43.205802   61.815979  -85.713546   63.550751    0.000000    0.000000    0.000000    0.000000
  0.012800000  -43.110648   61.141552  -85.673318   61.104691    0.000000    0.000000    0.000000    0.000000
  0.013000000  -42.950332   61.238403  -85.187154   64.047989    0.000000    0.000000    0.000000    0.000000
  0.013200000  -43.131719   59.463558  -86.428447   62.308678    0.000000    0.000000    0.000000    0.000000
  0.013400000  -42.938285   60.268074  -86.124234   60.826530    0.000000    0.000000    0.000000    0.000000
  0.013600000  -42.936075   60.923019  -86.546353   59.007515    0.000000    0.000000    0.000000    0.000000
  0.013800000  -42.799303   60.571301  -86.856906   62.456692    0.000000    0.000000    0.000000    0.000000
  0.014000000  -42.654016   61.429955  -86.758539   60.502575    0.000000    0.000000    0.000000    0.000000
  0.014200000  -42.591482   60.009518  -86.383564   57.814217    0.000000    0.000000    0.000000    0.000000
  0.014400000  -42.547129   59.146698  -87.020100   57.238365    0.000000    0.000000    0.000000    0.000000
  0.014600000  -42.431123   59.956413  -87.157303   57.326626    0.000000    0.000000    0.000000    0.000000
  0.014800000  -42.209091   59.495121  -87.804241   54.973145    0.000000    0.000000    0.000000    0.000000
  0.015000000  -42.093616   59.142254  -88.386826   51.600433    0.000000    0.000000    0.000000    0.000000
  0.015200000  -42.205975   58.697136  -87.506808   52.427197    0.000000    0.000000    0.000000    0.000000
  0.015400000  -41.894202   60.326889  -87.358745   53.610382    0.000000    0.000000    0.000000    0.000000
  0.015600000  -41.953161   58.240860  -87.739742   53.436375    0.000000    0.000000    0.000000    0.000000
  0.015800000  -41.983557   58.855297  -88.707954   49.514668    0.000000    0.000000    0.000000    0.000000
  0.016000000  -41.658751   56.419498  -88.294386   48.490459    0.000000    0.000000    0.000000    0.000000
  0.016200000  -41.619665   57.665100  -89.192033   50.684849    0.000000    0.000000    0.000000    0.000000
  0.016400000  -41.530458   57.541050  -88.771097   49.506062    0.000000    0.000000    0.000000    0.000000
  0.016600000  -41.407237   58.907631  -88.616104   50.787079    0.000000    0.000000    0.000000    0.000000
  0.016800000  -41.326106   57.873032  -89.055689   47.723228    0.000000    0.000000    0.000000    0.000000
  0.017000000  -41.216371   57.214798  -88.420922   47.450459    0.000000    0.000000    0.000000    0.000000
  0.017200000  -41.154708   57.280136  -89.484972   48.491829    0.000000    0.000000    0.000000    0.000000
  0.017400000  -41.066913   57.527493  -89.490595   48.454880    0.000000    0.000000    0.000000    0.000000
  0.017600000  -40.932408   56.695404  -89.818315   43.060562    0.000000    0.000000    0.000000    0.000000
  0.017800000  -40.913517   57.752132  -88.993466   48.692623    0.000000    0.000000    0.000000    0.000000
  0.018000000  -40.691016   57.100578  -89.410635   46.302345    0.000000    0.000000    0.000000    0.000000
  0.018200000  -40.678586   57.900749  -89.719363   44.327541    0.000000    0.000000    0.000000    0.000000
  0.018400000  -40.606003   56.948013  -90.229514   44.933830    0.000000    0.000000    0.000000    0.000000
  0.018600000  -40.620136   57.228756  -90.505616   41.696823    0.000000    0.000000    0.000000    0.000000
  0.018800000  -40.522542   57.862591  -90.623153   44.335842    0.000000    0.000000    0.000000    0.000000
  0.019000000  -40.576179   57.563728  -90.977156   46.652306    0.000000    0.000000    0.000000    0.000000
  0.019200000  -40.343744   56.784866  -90.110032   39.022324    0.000000    0.000000    0.000000    0.000000
  0.019400000  -40.409549   57.268276  -91.176650   42.319633    0.000000    0.000000    0.000000    0.000000
  0.019600000  -40.383210   56.878723  -90.458024   34.676998    0.000000    0.000000    0.000000    0.000000
  0.019800000  -40.349804   58.284286  -91.606777   42.481747    0.000000    0.000000    0.000000    0.000000
  0.020000000  -40.137446   56.317959  -90.628478   41.058613    0.000000    0.000000    0.000000    0.000000
  0.020200000  -40.093681   57.084450  -91.004423   36.495319    0.000000    0.000000    0.000000    0.000000
  0.020400000  -40.015217   57.588432  -91.738401   40.815411    0.000000    0.000000    0.000000    0.000000
  0.020600000  -39.899796   56.543064  -91.163048   39.057014    0.000000    0.000000    0.000000    0.000000
  0.020800000  -40.032793   57.043510  -92.111853   35.631901    0.000000    0.000000    0.000000    0.000000
  0.021000000  -39.951556   56.715981  -91.212609   41.329716    0.000000    0.000000    0.000000    0.000000
  0.021200000  -39.969597   57.493336  -92.034075   41.943039    0.000000    0.000000    0.000000    0.000000
  0.021400000  -39.579791   57.315613  -91.552606   40.276470    0.000000    0.000000    0.000000    0.000000
  0.021600000  -39.835100   56.235962  -91.485481   30.560667    0.000000    0.000000    0.000000    0.000000
  0.021800000  -39.820039   56.827995  -92.048549   34.619820    0.000000    0.000000    0.000000    0.000000
  0.022000000  -39.715746   57.171455  -92.966007   31.857220    0.000000    0.000000    0.000000    0.000000
  0.022200000  -39.658606   55.956757  -92.441477   32.979568    0.000000    0.000000    0.000000    0.000000
  0.022400000  -39.578422   56.277203  -92.215352   28.628654    0.000000    0.000000    0.000000    0.000000
  0.022600000  -39.516289   55.385426  -92.583412   26.426172    0.000000    0.000000    0.000000    0.000000
  0.022800000  -39.653404   55.736069  -92.304753   33.256042    0.000000    0.000000    0.000000    0.000000
  0.023000000  -39.510500   55.763821  -93.092310   24.322510    0.000000    0.000000    0.000000    0.000000
  0.023200000  -39.449960   55.789001  -92.858017   28.703596    0.000000    0.000000    0.000000    0.000000
  0.023400000  -39.224846   55.165367  -93.070700   36.412834    0.000000    0.000000    0.000000    0.000000
  0.023600000  -39.357698   54.862152  -92.956074   33.242729    0.000000    0.000000    0.000000    0.000000
  0.023800000  -39.276047   54.116585  -93.551764   29.966137    0.000000    0.000000    0.000000    0.000000
  0.024000000  -39.208088   55.175064  -93.316094   28.096077    0.000000    0.000000    0.000000    0.000000
  0.024200000  -39.125748   55.053833  -94.295868   31.424129    0.000000    0.000000    0.000000    0.000000
  0.024400000  -39.130245   54.792885  -93.447995   26.356657    0.000000    0.000000    0.000000    0.000000
  0.024600000  -38.991001   54.193375  -93.746456   27.514017    0.000000    0.000000    0.000000    0.000000
  0.024800000  -39.067132   54.136597  -94.581276   26.036016    0.000000    0.000000    0.000000    0.000000
  0.025000000  -38.932839   53.533127  -93.736072   25.322514    0.000000    0.000000    0.000000    0.000000
  0.025200000  -38.847882   53.399963  -93.948996   26.533567    0.000000    0.000000    0.000000    0.000000
  0.025400000  -38.960888   53.450733  -93.569000   32.437115    0.000000    0.000000    0.000000    0.000000
  0.025600000  -38.747037   52.945595  -94.310700   19.133636    0.000000    0.000000    0.000000    0.000000
  0.025800000  -38.817566   53.007084  -94.819198   28.135015    0.000000    0.000000    0.000000    0.000000
  0.026000000  -38.583206   53.467258  -94.362836   23.769938    0.000000    0.000000    0.000000    0.000000
  0.026200000  -38.693395   53.250980  -94.632396   26.591351    0.000000    0.000000    0.000000    0.000000
  0.026400000  -38.613411   52.477390  -93.928105   27.379436    0.000000    0.000000    0.000000    0.000000
  0.026600000  -38.532435   52.765915  -95.525699   18.557743    0.000000    0.000000    0.000000    0.000000
  0.026800000  -38.525977   52.478043  -94.881322   16.437868    0.000000    0.000000    0.000000    0.000000
  0.027000000  -38.457560   52.163639  -95.596457   16.702187    0.000000    0.000000    0.000000    0.000000
  0.027200000  -38.407998   52.393600  -95.281841   23.917376    0.000000    0.000000    0.000000    0.000000
  0.027400000  -38.432187   52.178192  -94.746136   21.661110    0.000000    0.000000    0.000000    0.000000
  0.027600000  -38.233965   52.369892  -95.688290   25.601053    0.000000    0.000000    0.000000    0.000000
  0.027800000  -38.199875   52.383499  -95.828983   23.483345    0.000000    0.000000    0.000000    0.000000
  0.028000000  -38.308463   52.233356  -94.881832   20.217731    0.000000    0.000000    0.000000    0.000000
  0.028200000  -38.171322   51.018562  -95.442780   26.026432    0.000000    0.000000    0.000000    0.000000
  0.028400000  -38.158690   51.564491  -96.397829   20.848932    0.000000    0.000000    0.000000    0.000000
  0.028600000  -38.106229   51.681980  -95.537866   19.288008    0.000000    0.000000    0.000000    0.000000
  0.028800000  -38.036683   51.007729  -97.124980   16.357517    0.000000    0.000000    0.000000    0.000000
  0.029000000  -38.133048   51.322063  -95.875055   20.484165    0.000000    0.000000    0.000000    0.000000
  0.029200000  -37.936148   50.681877  -97.157586   16.346380    0.000000    0.000000    0.000000    0.000000
  0.029400000  -37.786962   50.602795  -97.128280   23.624729    0.000000    0.000000    0.000000    0.000000
  0.029600000  -37.846910   50.625580  -96.015625   13.264130    0.000000    0.000000    0.000000    0.000000
  0.029800000  -37.745567   50.196548  -96.509591   18.434622    0.000000    0.000000    0.000000    0.000000
  0.030000000  -37.830462   50.219814  -97.559518   13.590754    0.000000    0.000000    0.000000    0.000000
  0.030200000  -37.657949   50.158295  -97.918670   11.220182    0.000000    0.000000    0.000000    0.000000
  0.030400000  -37.686557   49.394154  -96.986399   16.242981    0.000000    0.000000    0.000000    0.000000
  0.030600000  -37.536290   49.603756  -96.416112   26.721634    0.000000    0.000000    0.000000    0.000000
  0.030800000  -37.492993   49.449387  -96.899259   16.430494    0.000000    0.000000    0.000000    0.000000
  0.031000000  -37.450527   50.111012  -97.428157   23.195313    0.000000    0.000000    0.000000    0.000000
  0.031200000  -37.326522   49.599731  -96.011251   16.707739    0.000000    0.000000    0.000000    0.000000
  0.031400000  -37.398199   49.238358  -97.375096    3.914495    0.000000    0.000000    0.000000    0.000000
  0.031600000  -37.510788   49.130512  -97.346245   22.117031    0.000000    0.000000    0.000000    0.000000
  0.031800000  -37.283293   49.404922  -98.191107   11.384066    0.000000    0.000000    0.000000    0.000000
  0.032000000  -37.195321   49.345150  -96.352602   15.677145    0.000000    0.000000    0.000000    0.000000
  0.032200000  -37.266727   50.029072  -98.001760   10.367740    0.000000    0.000000    0.000000    0.000000
  0.032400000  -37.076766   48.680710  -97.017292   19.415604    0.000000    0.000000    0.000000    0.000000
  0.032600000  -37.124119   49.105453  -97.399160    2.073457    0.000000    0.000000    0.000000    0.000000
  0.032800000  -37.024172   49.003532  -97.443815   22.048180    0.000000    0.000000    0.000000    0.000000
  0.033000000  -36.946926   48.485268  -97.425667   15.987661    0.000000    0.000000    0.000000    0.000000
  0.033200000  -37.072500   48.969810  -97.015990   20.202179    0.000000    0.000000    0.000000    0.000000
  0.033400000  -37.025508   49.043457  -99.731786    3.132420    0.000000    0.000000    0.000000    0.000000
  0.033600000  -37.061475   48.520542  -99.135099   10.369268    0.000000    0.000000    0.000000    0.000000
  0.033800000  -36.842759   48.630974  -98.437987   16.300695    0.000000    0.000000    0.000000    0.000000
  0.034000000  -36.864775   48.689774  -97.516994    5.714877    0.000000    0.000000    0.000000    0.000000
  0.034200000  -36.892624   48.296200 -100.332674    5.607544    0.000000    0.000000    0.000000    0.000000
  0.034400000  -36.902415   48.514484  -99.870838    0.886138    0.000000    0.000000    0.000000    0.000000
  0.034600000  -36.745181   48.653934  -97.751846   14.237917    0.000000    0.000000    0.000000    0.000000
  0.034800000  -36.685529   47.729366  -97.968458    6.965481    0.000000    0.000000    0.000000    0.000000
  0.035000000  -36.741088   48.470428  -98.284732    7.089866    0.000000    0.000000    0.000000    0.000000
  0.035200000  -36.629494   48.224384  -98.154421    6.614245    0.000000    0.000000    0.000000    0.000000
  0.035400000  -36.602626   48.135136  -97.427736   12.214975    0.000000    0.000000    0.000000    0.000000
  0.035600000  -36.721717   47.090027  -98.904228    4.689995    0.000000    0.000000    0.000000    0.000000
  0.035800000  -36.549707   47.919209  -99.179334   25.768665    0.000000    0.000000    0.000000    0.000000
  0.036000000  -36.490750   47.600533  -98.480144    3.916694    0.000000    0.000000    0.000000    0.000000
  0.036200000  -36.501804   47.029755  -98.901761   -2.477554    0.000000    0.000000    0.000000    0.000000
  0.036400000  -36.536328   47.291718  -97.429089   -0.250242    0.000000    0.000000    0.000000    0.000000
  0.036600000  -36.424093   48.002293 -101.010122    0.172228    0.000000    0.000000    0.000000    0.000000
  0.036800000  -36.336453   47.396725  -99.145940   15.567186    0.000000    0.000000    0.000000    0.000000
  0.037000000  -36.340445   47.514912  -99.626982    5.129623    0.000000    0.000000    0.000000    0.000000
  0.037200000  -36.341480   46.520733  -99.998014   18.207758    0.000000    0.000000    0.000000    0.000000
  0.037400000  -36.467734   46.181679 -101.073729   13.566632    0.000000    0.000000    0.000000    0.000000
  0.037600000  -36.363711   45.249496 -101.209083   21.659863    0.000000    0.000000    0.000000    0.000000
  0.037800000  -36.346471   46.512825  -98.172423  -10.557012    0.000000    0.000000    0.000000    0.000000
  0.038000000  -36.135224   45.653004  -98.810326    6.427984    0.000000    0.000000    0.000000    0.000000
  0.038200000  -36.245006   45.962673 -100.857115   11.167459    0.000000    0.000000    0.000000    0.000000
  0.038400000  -36.138387   45.827023 -101.636255    2.753459    0.000000    0.000000    0.000000    0.000000
  0.038600000  -36.170391   45.478638 -100.156703    5.445713    0.000000    0.000000    0.000000    0.000000
  0.038800000  -36.130151   45.756947 -101.010031  -11.140251    0.000000    0.000000    0.000000    0.000000
  0.039000000  -36.095349   45.333660  -99.249912    9.746530    0.000000    0.000000    0.000000    0.000000
  0.039200000  -36.041855   44.741596  -98.215923   -0.288912    0.000000    0.000000    0.000000    0.000000
  0.039400000  -36.055139   44.600220 -100.028287   23.517202    0.000000    0.000000    0.000000    0.000000
  0.039600000  -36.003660   44.739403  -99.304205   10.238690    0.000000    0.000000    0.000000    0.000000
  0.039800000  -35.857310   44.611992 -100.161637   14.056644    0.000000    0.000000    0.000000    0.000000
  0.040000000  -35.872996   44.653610 -103.004832   13.143769    0.000000    0.000000    0.000000    0.000000
  0.040200000  -35.950002   45.279324  -99.620260   16.852695    0.000000    0.000000    0.000000    0.000000
  0.040400000  -35.884763   44.650116 -101.071125    6.831264    0.000000    0.000000    0.000000    0.000000
  0.040600000  -35.906916   44.104435  -99.145013   -2.441429    0.000000    0.000000    0.000000    0.000000
  0.040800000  -35.763308   43.776276 -101.695038    2.902668    0.000000    0.000000    0.000000    0.000000
  0.041000000  -35.782819   43.749836 -101.645598  -15.129070    0.000000    0.000000    0.000000    0.000000
  0.041200000  -35.766221   43.814198 -102.473013    6.161064    0.000000    0.000000    0.000000    0.000000
  0.041400000  -35.709006   43.503990  -98.982609   16.039711    0.000000    0.000000    0.000000    0.000000
  0.041600000  -35.580243   42.730572 -103.869305    0.015406    0.000000    0.000000    0.000000    0.000000
  0.041800000  -35.549274   43.021839 -101.911551   -0.845289    0.000000    0.000000    0.000000    0.000000
  0.042000000  -35.577134   43.499260 -101.344518   22.021133    0.000000    0.000000    0.000000    0.000000
  0.042200000  -35.519607   43.443596 -103.569481   19.376444    0.000000    0.000000    0.000000    0.000000
  0.042400000  -35.437988   43.141251 -100.691765    4.434561    0.000000    0.000000    0.000000    0.000000
  0.042600000  -35.466522   42.806778 -101.947351    8.660746    0.000000    0.000000    0.000000    0.000000
  0.042800000  -35.297839   42.461987 -100.044774   10.225090    0.000000    0.000000    0.000000    0.000000
