! Anritsu VNA Master:                     Model: MS2036C/10/77
! SN:                                  1601066
! /card0/usr/255.ew.sma.s2p
! Existing Calibration Information:
! TYPE:                         Current Settings,       Active Cal Settings
! TIME:             	   12/17/2017 05:59:56 PM,    12/17/2017 05:44:58 PM
! INTERNAL TEMP:    	                   44.0 C,                    43.8 C
! # POINTS:         	                      501,                       501
! START FREQ:       	               10.000 MHz,                10.000 MHz
! STOP FREQ:        	          107.903 125 MHz,           107.903 125 MHz
! SOURCE POWER:     	                     High,                      High
! IFBW:             	                   100 Hz,                    100 Hz
! AVG FACTOR:       	                       1 ,                        1 
! REF PLANE 1:      	                     0 mm,                      0 mm
! REF PLANE 2:      	                     0 mm,                      0 mm
! CAL TYPE:         	                 Full S11,                  Full S11
! CAL METHOD:       	                     SOLT,                      SOLT
! CAL LINE TYPE:    	                     Coax,                      Coax
! DUT PORT 1:       	                K-Conn(F),                 K-Conn(F)
! DUT PORT 2:       	                K-Conn(F),                 K-Conn(F)
! CAL STATUS:       	        OK: Accuracy High,                        --
# GHZ S DB R 50.0
! FREQ.GHZ       S11DB        S11A       S21DB        S21A       S12DB        S12A       S22DB        S22A
  0.010000000   -0.741925  -58.336071  -85.033622   82.481636  -81.598438 -136.983856   -0.587393  172.279572
  0.010195806   -0.731536  -59.504227  -84.354115   87.347206  -84.521485 -146.351593   -0.614023  171.767349
  0.010391613   -0.739620  -60.708332  -84.023196   85.757195  -84.571225 -160.478119   -0.613859  171.618668
  0.010587419   -0.749381  -61.938278  -84.600124   87.406166  -84.441833 -174.878036   -0.609144  171.453918
  0.010783225   -0.759136  -63.180759  -84.481680   84.117897  -84.688298  171.483093   -0.603736  171.311188
  0.010979031   -0.762473  -64.422409  -83.559832   81.291641  -85.040856  159.071747   -0.602266  171.182816
  0.011174837   -0.768391  -65.643929  -83.835966   81.641220  -84.944594  146.966919   -0.641708  170.634354
  0.011370644   -0.773418  -66.870270  -84.029713   80.935539  -85.000855  136.324310   -0.647186  170.527161
  0.011566450   -0.783102  -68.077385  -83.895729   74.616394  -84.662380  125.679893   -0.646986  170.400436
  0.011762256   -0.791689  -69.284058  -83.728544   74.760498  -85.045821  108.757713   -0.654099  170.298065
  0.011958062   -0.802951  -70.509933  -83.999379   73.534691  -85.165203  101.586311   -0.658784  170.203537
  0.012153869   -0.810852  -71.759346  -83.877664   69.983047  -84.418143   91.255302   -0.701014  169.690887
  0.012349675   -0.813446  -72.991562  -84.335154   65.974129  -85.050590   74.581810   -0.704552  169.586075
  0.012545481   -0.823775  -74.259224  -84.277295   64.454727  -85.034003   62.435612   -0.707079  169.496613
  0.012741288   -0.830942  -75.476768  -84.180246   58.725952  -85.118524   51.904087   -0.710431  169.390289
  0.012937094   -0.838328  -76.723091  -84.642172   57.018517  -85.617028   39.090679   -0.714299  169.320007
  0.013132900   -0.847588  -77.995132  -84.984668   58.176247  -85.692169   27.810774   -0.754239  168.822403
  0.013328706   -0.857264  -79.225029  -84.939036   55.554985  -86.435494   19.734735   -0.746129  168.734741
  0.013524512   -0.862143  -80.467224  -85.558253   54.291470  -86.625809    4.671880   -0.748891  168.638641
  0.013720319   -0.869427  -81.672562  -85.762387   53.392754  -86.647482   -9.182387   -0.751460  168.562134
  0.013916125   -0.879366  -82.935104  -86.789279   51.349068  -86.990160  -21.465488   -0.753901  168.482224
  0.014111931   -0.891491  -84.207016  -86.646342   43.347668  -87.256586  -30.111326   -0.796158  167.972870
  0.014307738   -0.904511  -85.432159  -87.144995   48.074657  -87.474417  -41.231995   -0.798413  167.894043
  0.014503544   -0.916316  -86.714485  -87.744258   45.298424  -87.930989  -58.633648   -0.800011  167.811066
  0.014699350   -0.927601  -87.977737  -88.179612   47.743000  -88.217375  -65.112305   -0.801530  167.729187
  0.014895156   -0.942734  -89.242897  -88.139306   46.675732  -88.489680  -78.025284   -0.801600  167.655243
  0.015090962   -0.951776  -90.560120  -89.167506   44.034931  -88.932993  -89.944969   -0.843445  167.168243
  0.015286769   -0.961060  -91.785240  -89.314297   52.110157  -89.393883 -101.618629   -0.842677  167.077820
  0.015482575   -0.968392  -93.069160  -89.307246   49.271957  -89.579723 -116.423775   -0.852080  167.046783
  0.015678381   -0.974898  -94.338600  -89.834198   50.450932  -90.163615 -129.304764   -0.851006  166.961823
  0.015874188   -0.982287  -95.599327  -89.708142   53.328777  -89.985509 -143.644897   -0.851809  166.889114
  0.016069994   -0.991789  -96.871964  -89.968631   47.733246  -90.114501 -152.034042   -0.890431  166.393005
  0.016265800   -1.000570  -98.146233  -89.409769   51.270214  -91.458119 -167.179214   -0.889014  166.306381
  0.016461606   -1.010367  -99.457558  -89.641610   54.400822  -91.047605 -176.916443   -0.885116  166.216965
  0.016657412   -1.018019 -100.767693  -89.602943   55.315430  -91.219236  164.719376   -0.882041  166.130310
  0.016853219   -1.021552 -102.080177  -89.551966   53.329334  -91.126358  151.036911   -0.875749  166.040527
  0.017049025   -1.033612 -103.398285  -89.353678   54.673759  -90.324829  143.927475   -0.868617  165.951660
  0.017244831   -1.044074 -104.703049  -89.674413   52.783295  -90.626766  127.998390   -0.899771  165.457413
  0.017440638   -1.057872 -105.987366  -89.111536   51.902756  -90.317272  117.307091   -0.890586  165.362335
  0.017636444   -1.072000 -107.278839  -89.424873   53.194542  -89.810620  104.966095   -0.879250  165.260208
  0.017832250   -1.092219 -108.595436  -89.036221   46.924385  -89.931228   93.255821   -0.867326  165.176193
  0.018028056   -1.099762 -109.916512  -88.976720   46.730885  -90.298849   85.038948   -0.855320  165.072464
  0.018223862   -1.114788 -111.240402  -89.029567   45.722179  -89.778346   72.437225   -0.884139  164.564621
  0.018419669   -1.127540 -112.589890  -88.727065   44.784008  -89.721856   67.889587   -0.870260  164.471786
  0.018615475   -1.137730 -113.907906  -89.043691   40.782185  -90.055061   48.512115   -0.855546  164.362152
  0.018811281   -1.146613 -115.256477  -89.560746   36.704155  -90.049410   42.803116   -0.846814  164.280640
  0.019007087   -1.160484 -116.623497  -89.421554   41.085224  -90.163652   31.044720   -0.834567  164.199829
  0.019202894   -1.173373 -117.974609  -89.789507   39.144360  -90.817376   16.972149   -0.863890  163.699615
  0.019398700   -1.189373 -119.326889  -89.602939   36.387527  -90.381894    9.082563   -0.853003  163.605804
  0.019594506   -1.198505 -120.705139  -89.889422   36.642239  -92.033860   -5.821330   -0.847980  163.526489
  0.019790313   -1.210346 -122.109428  -90.499019   32.138580  -92.062796  -20.559978   -0.840419  163.445587
  0.019986119   -1.220404 -123.481964  -90.576659   33.557964  -92.274022  -21.330643   -0.835608  163.358994
  0.020181925   -1.227699 -124.862617  -90.427924   32.505177  -92.441878  -35.086002   -0.870832  162.878265
  0.020377731   -1.241044 -126.205574  -91.281181   34.312943  -93.985994  -44.840454   -0.866787  162.801071
  0.020573537   -1.255215 -127.579796  -91.237899   29.569586  -94.525216  -58.832676   -0.862961  162.719101
  0.020769344   -1.266656 -129.010162  -92.345167   30.356316  -93.054297  -80.253708   -0.854724  162.653824
  0.020965150   -1.283132 -130.425125  -91.946401   31.951462  -96.326076  -87.826775   -0.851237  162.579300
  0.021160956   -1.300158 -131.854935  -92.883523   27.616159  -95.250966  -94.697708   -0.888088  162.090012
  0.021356762   -1.318062 -133.289215  -93.294763   30.923298  -96.163699 -111.999214   -0.883450  162.021881
  0.021552569   -1.332029 -134.710678  -92.330027   29.280109  -94.710343 -131.429688   -0.879430  161.957367
  0.021748375   -1.344222 -136.148788  -92.536354   33.902981  -95.476718 -143.003891   -0.876467  161.890320
  0.021944181   -1.358907 -137.598114  -93.620339   45.012829  -96.736494 -152.925797   -0.871746  161.824783
  0.022139988   -1.376747 -139.036346  -93.262252   35.905487  -95.776884 -172.699646   -0.904516  161.353500
  0.022335794   -1.391072 -140.507248  -93.104607   38.075157  -97.500957 -178.487427   -0.902152  161.280991
  0.022531600   -1.409260 -141.998001  -92.842633   33.272022  -95.929810  154.899597   -0.897540  161.215485
  0.022727406   -1.422404 -143.491196  -93.552879   35.700584  -96.981534  144.834824   -0.895993  161.160706
  0.022923213   -1.435776 -144.994156  -93.958347   32.450302  -94.466673  134.762177   -0.893255  161.102188
  0.023119019   -1.448196 -146.470627  -92.830479   41.965218  -94.626223  122.713867   -0.887689  161.039536
  0.023314825   -1.459719 -147.951385  -92.671236   32.778431  -94.902114  110.886108   -0.924624  160.557632
  0.023510631   -1.473647 -149.461304  -92.484566   28.192684  -94.602656  102.579735   -0.921448  160.503540
  0.023706438   -1.490590 -150.957031  -92.910884   30.130129  -92.793237   94.862747   -0.914842  160.445084
  0.023902244   -1.510879 -152.469391  -93.097210   31.793978  -93.839991   86.944534   -0.911113  160.393570
  0.024098050   -1.531797 -153.993042  -93.406684   30.913532  -94.450482   68.226028   -0.910366  160.335266
  0.024293856   -1.552285 -155.547943  -92.861669   23.414587  -93.958641   60.172768   -0.946149  159.874954
  0.024489662   -1.570699 -157.095810  -93.739624   33.117485  -93.877805   50.580818   -0.944930  159.825027
  0.024685469   -1.593534 -158.662109  -93.804092   26.247236  -93.253429   35.636742   -0.941375  159.778122
  0.024881275   -1.611646 -160.222015  -94.110268   21.776728  -94.269304   24.330347   -0.938505  159.726227
  0.025077081   -1.632428 -161.785202  -93.115792   17.379007  -93.255619   20.604774   -0.935592  159.676331
  0.025272888   -1.655218 -163.384033  -93.627314   15.763209  -93.792121    8.266059   -0.968552  159.215637
  0.025468694   -1.679657 -164.980499  -93.504006   26.568110  -96.977567   -0.039418   -0.965221  159.168304
  0.025664500   -1.704159 -166.591599  -94.362723   22.538910  -96.249837  -11.955816   -0.961726  159.121246
  0.025860306   -1.727636 -168.226791  -94.992308    8.156557  -96.947767  -34.262291   -0.958681  159.087677
  0.026056112   -1.748994 -169.861206  -93.713794   15.820651  -95.698717  -36.938267   -0.954011  159.042419
  0.026251919   -1.770625 -171.510651  -96.008650   17.777647  -98.964461  -46.411610   -0.988049  158.586655
  0.026447725   -1.796348 -173.147766  -96.276959   18.382380  -98.867354  -54.282391   -0.984046  158.550827
  0.026643531   -1.818472 -174.804230  -95.626765   17.554802  -97.851800  -55.901161   -0.978387  158.504288
  0.026839338   -1.846740 -176.478699  -95.444066   20.780689 -102.236142  -86.629883   -0.971132  158.464874
  0.027035144   -1.873104 -178.152176  -95.840715   22.916500  -99.939005  -95.681465   -0.965884  158.425873
  0.027230950   -1.899363 -179.841232  -96.902702   14.616482 -100.060564 -111.545860   -0.999616  157.982330
  0.027426756   -1.926844  178.464722  -95.675311   16.660786 -102.464680 -123.684181   -0.992093  157.938858
  0.027622562   -1.954992  176.760468  -96.148055   26.023237 -102.670751 -136.124207   -0.984121  157.897705
  0.027818369   -1.983462  175.033386  -96.953265   32.470657 -101.614448 -160.061172   -0.976268  157.856796
  0.028014175   -2.017450  173.302383  -96.085402   18.839441 -101.046191  177.514877   -0.970528  157.832291
  0.028209981   -2.049724  171.573563  -96.868494   18.295948 -104.071516  173.796234   -1.005187  157.391846
  0.028405788   -2.082288  169.830048  -96.745164   24.941210 -100.103496  139.939346   -0.998293  157.358780
  0.028601594   -2.111604  168.088913  -95.502300   20.703033 -100.956933  135.772552   -0.992182  157.335068
  0.028797400   -2.143090  166.345993  -95.631551   30.803371  -99.859227  117.785271   -0.985129  157.306015
  0.028993206   -2.173619  164.613373  -96.557340   17.204815 -100.132236  125.964806   -0.976095  157.277756
  0.029189013   -2.204108  162.869720  -95.337357   17.165739  -99.784247   93.633369   -0.969449  157.244431
  0.029384819   -2.238419  161.136230  -97.210003   18.180975  -97.828467   91.911423   -1.001743  156.810959
  0.029580625   -2.274575  159.373215  -95.679226   22.118814  -97.463054   82.825439   -0.994432  156.765198
  0.029776431   -2.312175  157.606812  -96.379727   15.192028  -97.049741   76.323570   -0.988714  156.723465
  0.029972237   -2.351096  155.805771  -96.298884   20.956835  -98.712428   60.337070   -0.982094  156.685654
  0.030168044   -2.389507  154.005829  -95.796293   19.638954  -97.870668   49.627411   -0.974739  156.627960
  0.030363850   -2.428185  152.168579  -96.765936   12.952072  -97.237113   38.640667   -1.008170  156.167496
  0.030559656   -2.467932  150.352127  -96.532500   11.885475  -95.179655   54.418045   -0.999660  156.104980
  0.030755463   -2.508520  148.549637  -96.848743   16.148361  -96.876501   30.123808   -0.992989  156.048096
  0.030951269   -2.550231  146.714157  -96.639792   16.196680  -98.429130   12.556457   -0.984602  155.988022
  0.031147075   -2.590231  144.911499  -96.292558   13.160990  -98.979410   11.746041   -0.875929  155.980545
  0.031342881   -2.637152  143.026871  -97.081807    6.755911  -98.042587   16.378578   -0.910144  155.519302
  0.031538687   -2.679455  141.147446  -96.786059   26.587812 -101.582857  -26.058945   -0.905583  155.464508
  0.031734494   -2.719732  139.265915  -98.291284   10.054557 -101.927748  -23.603369   -0.902353  155.414825
  0.031930300   -2.760265  137.374390  -95.714887   18.417780 -103.280870  -14.231605   -0.896502  155.359253
  0.032126106   -2.796926  135.472458  -97.028299   20.784096 -101.366303  -40.166729   -0.894088  155.308899
  0.032321913   -2.836041  133.599060  -97.061586    0.985941 -102.045873  -58.137611   -0.928386  154.838455
  0.032517719   -2.872547  131.739273  -97.454250   24.059410 -104.365539  -55.110104   -0.924014  154.780304
  0.032713525   -2.913339  129.834641  -98.937943   21.593998 -101.624403  -82.139519   -0.919006  154.725174
  0.032909331   -2.952358  127.984467  -97.709349   13.941108 -107.695081  -84.439911   -0.913016  154.667511
  0.033105137   -2.996970  126.114365  -99.265279    8.354417 -105.921029 -119.773117   -0.908242  154.615341
  0.033300944   -3.043632  124.203087 -100.575438   12.927440 -107.490992  -89.126434   -0.940899  154.140289
  0.033496750   -3.092408  122.343140  -96.617206    0.224407 -106.481346 -134.598328   -0.934586  154.087219
  0.033692556   -3.141583  120.395676  -98.511929    4.267837 -112.318643 -179.727707   -0.927218  154.029297
  0.033888362   -3.187734  118.434074  -99.863310   14.430894 -106.805312  142.180832   -0.920743  153.975906
  0.034084169   -3.232339  116.432556  -98.404341   21.033211 -103.919075  144.716019   -0.913484  153.926529
  0.034279975   -3.270448  114.433296  -97.822679   13.451913 -106.073090  121.527687   -0.946571  153.464722
  0.034475781   -3.308162  112.387421  -97.599695   10.501873 -104.007876  104.366264   -0.937838  153.402924
  0.034671588   -3.344867  110.374016  -98.635039   21.123377 -103.907866  118.601532   -0.930796  153.348129
  0.034867394   -3.374204  108.356583  -98.641126    8.293137 -100.316330   92.701225   -0.924222  153.301849
  0.035063200   -3.401476  106.321663  -98.040443   17.938847  -99.467963   81.751678   -0.916844  153.255890
  0.035259006   -3.425350  104.326035  -98.108994    9.852759  -99.691799   77.569229   -0.906080  153.196136
  0.035454812   -3.446392  102.298866  -99.744179    6.631493  -99.785463   84.222389   -0.937280  152.724716
  0.035650619   -3.464251  100.329834  -98.529806   11.210842 -100.271574   63.611893   -0.929513  152.665237
  0.035846425   -3.482251   98.306717  -97.104586   20.388218 -100.413032   51.145073   -0.920675  152.618179
  0.036042231   -3.492253   96.293404  -97.219474   10.609019  -99.684170   52.904503   -0.910717  152.545609
  0.036238037   -3.501899   94.328377  -99.884018   12.672503 -100.958655   32.028111   -0.901960  152.485687
  0.036433844   -3.506853   92.305878  -99.119596   13.103436  -98.240134   26.095972   -0.931908  152.010040
  0.036629650   -3.511361   90.249191 -100.104540   15.479164 -100.513168   23.293821   -0.922896  151.943527
  0.036825456   -3.514017   88.186356  -99.761943    1.571336 -100.759278   25.318844   -0.913406  151.879929
  0.037021262   -3.508208   85.982651  -98.141664    7.014150  -99.987546   -0.312115   -0.901788  151.818146
  0.037217069   -3.494679   83.744728  -98.914623    3.660408 -103.139106   16.453604   -0.892456  151.751236
  0.037412875   -3.478559   81.312035 -101.221888   12.618339 -101.019571    0.530188   -0.920692  151.271484
  0.037608681   -3.468171   78.726669  -98.869451   10.421579 -101.233176  -15.436719   -0.912254  151.218506
  0.037804487   -3.464175   75.922050 -101.718910   23.690706 -102.928937  -20.740616   -0.903854  151.166580
  0.038000294   -3.476771   72.964073  -99.975951   20.727558 -103.925524  -37.680302   -0.894071  151.118866
  0.038196100   -3.526139   69.875252 -100.450651   19.806202 -110.454594  -41.756889   -0.886091  151.055466
  0.038391906   -3.613827   66.781555 -100.511624    8.108014 -111.715091    7.390924   -0.915795  150.584030
  0.038587713   -3.743095   63.839272 -101.839029    1.542695 -112.614028  -76.153145   -0.906114  150.518143
  0.038783519   -3.892962   61.100365  -98.762205   18.410421 -109.293233  148.144608   -0.898056  150.458832
  0.038979325   -4.046168   58.696651 -101.295669   32.166210 -109.134620  174.639877   -0.889129  150.378128
  0.039175131   -4.203765   56.528992  -99.912849   15.622168 -109.047750 -170.623978   -0.880998  150.318787
  0.039370938   -4.347679   54.529972 -100.585648   11.526167 -108.102525  104.817551   -0.914282  149.835587
  0.039566744   -4.475376   52.653702 -102.040336   20.623388 -108.883165  151.778824   -0.905611  149.774338
  0.039762550   -4.587166   50.810623 -100.508795   25.444927 -110.479087   85.781151   -0.897299  149.703827
  0.039958356   -4.695977   48.970406  -99.564681   12.860696 -125.410397  -44.967449   -0.889694  149.638702
  0.040154163   -4.784379   47.138531 -100.131550   14.472391 -104.412057  126.329605   -0.882249  149.577911
  0.040349969   -4.870941   45.228497 -100.975227    5.140161 -103.401975  120.436859   -0.916150  149.105774
  0.040545775   -4.943772   43.358215 -101.074797   15.427188 -106.573130   75.220871   -0.909709  149.041916
  0.040741581   -5.010888   41.458900 -101.208085   27.679192 -103.404192   89.188400   -0.900561  148.984177
  0.040937387   -5.071353   39.536392  -99.035770   22.470465 -100.721869   95.753342   -0.891623  148.923416
  0.041133194   -5.127296   37.590725 -100.523772   15.287106 -100.770972   63.274387   -0.884369  148.865494
  0.041329000   -5.179837   35.635468 -102.255402   12.061163 -102.242984   48.959980   -0.918725  148.386780
  0.041524806   -5.228118   33.673443 -101.164406   -3.402921 -105.503747   68.953491   -0.910512  148.321686
  0.041720612   -5.274774   31.686539 -100.592502    5.413572 -103.667894   41.486458   -0.903225  148.260696
  0.041916419   -5.317838   29.706459 -102.363779   -5.472136 -100.495969   36.037529   -0.896072  148.203217
  0.042112225   -5.353388   27.721912 -102.848985    8.268355 -101.842760   44.120094   -0.888852  148.144653
