! Anritsu VNA Master:                     Model: MS2036C/10/77
! SN:                                  1601066
! /card0/usr/255.ew.sma.r200.v2.2.s2p
! Existing Calibration Information:
! TYPE:                         Current Settings,       Active Cal Settings
! TIME:             	   12/17/2017 06:32:09 PM,    12/17/2017 06:11:23 PM
! INTERNAL TEMP:    	                   43.8 C,                    43.8 C
! # POINTS:         	                      501,                       501
! START FREQ:       	               10.000 MHz,                10.000 MHz
! STOP FREQ:        	          107.903 125 MHz,           107.903 125 MHz
! SOURCE POWER:     	                     High,                      High
! IFBW:             	                   100 Hz,                    100 Hz
! AVG FACTOR:       	                       1 ,                        1 
! REF PLANE 1:      	                     0 mm,                      0 mm
! REF PLANE 2:      	                     0 mm,                      0 mm
! CAL TYPE:         	                 Full S11,                  Full S11
! CAL METHOD:       	                     SOLT,                      SOLT
! CAL LINE TYPE:    	                     Coax,                      Coax
! DUT PORT 1:       	                K-Conn(F),                 K-Conn(F)
! DUT PORT 2:       	                K-Conn(F),                 K-Conn(F)
! CAL STATUS:       	        OK: Accuracy High,                        --
# GHZ S DB R 50.0
! FREQ.GHZ       S11DB        S11A       S21DB        S21A       S12DB        S12A       S22DB        S22A
  0.010000000   -4.532705  -10.808407  -84.316599   73.394798    0.000000    0.000000    0.000000    0.000000
  0.010195806   -4.523851  -10.960893  -84.599648   73.449097    0.000000    0.000000    0.000000    0.000000
  0.010391613   -4.519142  -11.158007  -84.695527   77.062202    0.000000    0.000000    0.000000    0.000000
  0.010587419   -4.523135  -11.351715  -84.727457   76.102562    0.000000    0.000000    0.000000    0.000000
  0.010783225   -4.521369  -11.584723  -85.039578   75.745544    0.000000    0.000000    0.000000    0.000000
  0.010979031   -4.528177  -11.781956  -85.532910   76.237564    0.000000    0.000000    0.000000    0.000000
  0.011174837   -4.529195  -11.989488  -85.293852   74.173935    0.000000    0.000000    0.000000    0.000000
  0.011370644   -4.527284  -12.205786  -85.072239   76.399147    0.000000    0.000000    0.000000    0.000000
  0.011566450   -4.534607  -12.397024  -85.032617   74.188049    0.000000    0.000000    0.000000    0.000000
  0.011762256   -4.532146  -12.640301  -84.971479   75.540184    0.000000    0.000000    0.000000    0.000000
  0.011958062   -4.532741  -12.843119  -84.718143   71.651863    0.000000    0.000000    0.000000    0.000000
  0.012153869   -4.534162  -13.048881  -85.094330   69.034454    0.000000    0.000000    0.000000    0.000000
  0.012349675   -4.537849  -13.290462  -85.131890   69.347000    0.000000    0.000000    0.000000    0.000000
  0.012545481   -4.538565  -13.521509  -85.455368   71.416977    0.000000    0.000000    0.000000    0.000000
  0.012741288   -4.540790  -13.746303  -85.294879   66.645012    0.000000    0.000000    0.000000    0.000000
  0.012937094   -4.542852  -13.945561  -84.924510   67.511169    0.000000    0.000000    0.000000    0.000000
  0.013132900   -4.546432  -14.174437  -85.333790   61.979889    0.000000    0.000000    0.000000    0.000000
  0.013328706   -4.547128  -14.393152  -85.542663   61.497650    0.000000    0.000000    0.000000    0.000000
  0.013524512   -4.548100  -14.607096  -86.068556   56.859905    0.000000    0.000000    0.000000    0.000000
  0.013720319   -4.548046  -14.841718  -85.639130   59.090015    0.000000    0.000000    0.000000    0.000000
  0.013916125   -4.548018  -15.051297  -85.564409   56.385441    0.000000    0.000000    0.000000    0.000000
  0.014111931   -4.552768  -15.299779  -86.558477   57.081013    0.000000    0.000000    0.000000    0.000000
  0.014307738   -4.553694  -15.537188  -86.595951   54.326836    0.000000    0.000000    0.000000    0.000000
  0.014503544   -4.553191  -15.767128  -86.717551   51.379147    0.000000    0.000000    0.000000    0.000000
  0.014699350   -4.553589  -15.994877  -87.517468   49.054813    0.000000    0.000000    0.000000    0.000000
  0.014895156   -4.553262  -16.205795  -86.848936   47.763668    0.000000    0.000000    0.000000    0.000000
  0.015090962   -4.555842  -16.441448  -87.776404   47.840710    0.000000    0.000000    0.000000    0.000000
  0.015286769   -4.556258  -16.643032  -87.600453   46.868946    0.000000    0.000000    0.000000    0.000000
  0.015482575   -4.555968  -16.899687  -87.526090   44.341343    0.000000    0.000000    0.000000    0.000000
  0.015678381   -4.556994  -17.125408  -87.922328   47.801125    0.000000    0.000000    0.000000    0.000000
  0.015874188   -4.556863  -17.338020  -88.765604   46.903030    0.000000    0.000000    0.000000    0.000000
  0.016069994   -4.559348  -17.549425  -87.984838   45.935783    0.000000    0.000000    0.000000    0.000000
  0.016265800   -4.561213  -17.757341  -89.264721   43.321922    0.000000    0.000000    0.000000    0.000000
  0.016461606   -4.559597  -17.971989  -89.547088   43.967613    0.000000    0.000000    0.000000    0.000000
  0.016657412   -4.560040  -18.193933  -90.125577   45.841148    0.000000    0.000000    0.000000    0.000000
  0.016853219   -4.558527  -18.394741  -90.031444   47.718727    0.000000    0.000000    0.000000    0.000000
  0.017049025   -4.556100  -18.625248  -89.408057   46.115578    0.000000    0.000000    0.000000    0.000000
  0.017244831   -4.551912  -18.827028  -90.505630   49.629047    0.000000    0.000000    0.000000    0.000000
  0.017440638   -4.550541  -19.028502  -89.425891   44.616123    0.000000    0.000000    0.000000    0.000000
  0.017636444   -4.550676  -19.264570  -90.695122   49.291149    0.000000    0.000000    0.000000    0.000000
  0.017832250   -4.549697  -19.452829  -90.339774   49.340199    0.000000    0.000000    0.000000    0.000000
  0.018028056   -4.554528  -19.655973  -90.229279   48.099377    0.000000    0.000000    0.000000    0.000000
  0.018223862   -4.552604  -19.865627  -90.032207   48.622826    0.000000    0.000000    0.000000    0.000000
  0.018419669   -4.561813  -20.082005  -89.897833   40.408817    0.000000    0.000000    0.000000    0.000000
  0.018615475   -4.563165  -20.278200  -89.540234   48.828899    0.000000    0.000000    0.000000    0.000000
  0.018811281   -4.563053  -20.500988  -90.245022   49.355003    0.000000    0.000000    0.000000    0.000000
  0.019007087   -4.560286  -20.708670  -90.375289   46.318729    0.000000    0.000000    0.000000    0.000000
  0.019202894   -4.564482  -20.902008  -90.660068   41.526016    0.000000    0.000000    0.000000    0.000000
  0.019398700   -4.568250  -21.132723  -90.590736   42.466454    0.000000    0.000000    0.000000    0.000000
  0.019594506   -4.566897  -21.355261  -91.060645   45.983818    0.000000    0.000000    0.000000    0.000000
  0.019790313   -4.571645  -21.575010  -90.342532   45.505638    0.000000    0.000000    0.000000    0.000000
  0.019986119   -4.571581  -21.780861  -90.737782   35.670624    0.000000    0.000000    0.000000    0.000000
  0.020181925   -4.570162  -22.029518  -90.325812   35.955154    0.000000    0.000000    0.000000    0.000000
  0.020377731   -4.572831  -22.242838  -91.003799   42.215984    0.000000    0.000000    0.000000    0.000000
  0.020573537   -4.571882  -22.480122  -90.524074   33.819027    0.000000    0.000000    0.000000    0.000000
  0.020769344   -4.571964  -22.700741  -90.627892   31.168247    0.000000    0.000000    0.000000    0.000000
  0.020965150   -4.572679  -22.956026  -91.332615   33.462585    0.000000    0.000000    0.000000    0.000000
  0.021160956   -4.577028  -23.192450  -91.819274   34.594357    0.000000    0.000000    0.000000    0.000000
  0.021356762   -4.576844  -23.439205  -91.616316   27.939989    0.000000    0.000000    0.000000    0.000000
  0.021552569   -4.575741  -23.681419  -92.576835   34.371090    0.000000    0.000000    0.000000    0.000000
  0.021748375   -4.580958  -23.907475  -91.878782   30.251387    0.000000    0.000000    0.000000    0.000000
  0.021944181   -4.579299  -24.129507  -92.026521   26.490255    0.000000    0.000000    0.000000    0.000000
  0.022139988   -4.578648  -24.367109  -91.946912   31.824600    0.000000    0.000000    0.000000    0.000000
  0.022335794   -4.581340  -24.599627  -93.302507   25.392338    0.000000    0.000000    0.000000    0.000000
  0.022531600   -4.578525  -24.830141  -93.277032   27.264702    0.000000    0.000000    0.000000    0.000000
  0.022727406   -4.578676  -25.045763  -92.813825   25.135349    0.000000    0.000000    0.000000    0.000000
  0.022923213   -4.578924  -25.269691  -93.163535   35.470070    0.000000    0.000000    0.000000    0.000000
  0.023119019   -4.580893  -25.500000  -93.976392   35.537708    0.000000    0.000000    0.000000    0.000000
  0.023314825   -4.579170  -25.734316  -95.010881   31.739004    0.000000    0.000000    0.000000    0.000000
  0.023510631   -4.577320  -25.975170  -95.232595   26.603088    0.000000    0.000000    0.000000    0.000000
  0.023706438   -4.575148  -26.178829  -93.342649   38.965534    0.000000    0.000000    0.000000    0.000000
  0.023902244   -4.570054  -26.409761  -93.930096   33.584831    0.000000    0.000000    0.000000    0.000000
  0.024098050   -4.566339  -26.636660  -94.189054   28.826584    0.000000    0.000000    0.000000    0.000000
  0.024293856   -4.561690  -26.844833  -94.146246   26.523912    0.000000    0.000000    0.000000    0.000000
  0.024489662   -4.562139  -27.064037  -94.715374   22.064487    0.000000    0.000000    0.000000    0.000000
  0.024685469   -4.562712  -27.283890  -95.231774   34.800762    0.000000    0.000000    0.000000    0.000000
  0.024881275   -4.563653  -27.486137  -93.924506   30.753336    0.000000    0.000000    0.000000    0.000000
  0.025077081   -4.559165  -27.686306  -95.819879   29.962297    0.000000    0.000000    0.000000    0.000000
  0.025272888   -4.560027  -27.865654  -94.440881   27.242281    0.000000    0.000000    0.000000    0.000000
  0.025468694   -4.564096  -28.040565  -94.592231   21.266356    0.000000    0.000000    0.000000    0.000000
  0.025664500   -4.565464  -28.222645  -94.999251   38.755257    0.000000    0.000000    0.000000    0.000000
  0.025860306   -4.567597  -28.397238  -94.257341   31.458466    0.000000    0.000000    0.000000    0.000000
  0.026056112   -4.567321  -28.579227  -94.584920   19.921732    0.000000    0.000000    0.000000    0.000000
  0.026251919   -4.571141  -28.763741  -94.810428   22.080057    0.000000    0.000000    0.000000    0.000000
  0.026447725   -4.576382  -28.989088  -95.317675   27.898014    0.000000    0.000000    0.000000    0.000000
  0.026643531   -4.575889  -29.186371  -94.874677   28.694017    0.000000    0.000000    0.000000    0.000000
  0.026839338   -4.577811  -29.413038  -95.179175   23.140505    0.000000    0.000000    0.000000    0.000000
  0.027035144   -4.580205  -29.643539  -94.650940   19.225222    0.000000    0.000000    0.000000    0.000000
  0.027230950   -4.581954  -29.879410  -95.942913   28.626623    0.000000    0.000000    0.000000    0.000000
  0.027426756   -4.584585  -30.084848  -94.489799   16.963537    0.000000    0.000000    0.000000    0.000000
  0.027622562   -4.588398  -30.322628  -95.944845   15.443481    0.000000    0.000000    0.000000    0.000000
  0.027818369   -4.590431  -30.561251  -95.493256   14.776986    0.000000    0.000000    0.000000    0.000000
  0.028014175   -4.593762  -30.813944  -95.255081   17.650898    0.000000    0.000000    0.000000    0.000000
  0.028209981   -4.594815  -31.061283  -94.868671   19.034262    0.000000    0.000000    0.000000    0.000000
  0.028405788   -4.592517  -31.311468  -95.430958   14.065067    0.000000    0.000000    0.000000    0.000000
  0.028601594   -4.588257  -31.527330  -95.848145   17.278692    0.000000    0.000000    0.000000    0.000000
  0.028797400   -4.584578  -31.729395  -96.216609    8.807412    0.000000    0.000000    0.000000    0.000000
  0.028993206   -4.586558  -31.939661  -96.308302   12.820703    0.000000    0.000000    0.000000    0.000000
  0.029189013   -4.586157  -32.146595  -96.480094   14.385194    0.000000    0.000000    0.000000    0.000000
  0.029384819   -4.588047  -32.341705  -97.392249   16.725176    0.000000    0.000000    0.000000    0.000000
  0.029580625   -4.589230  -32.538841  -98.178494    8.977538    0.000000    0.000000    0.000000    0.000000
  0.029776431   -4.594654  -32.773067  -97.192557   17.412125    0.000000    0.000000    0.000000    0.000000
  0.029972237   -4.598826  -32.986359  -98.240863   27.977514    0.000000    0.000000    0.000000    0.000000
  0.030168044   -4.604172  -33.243488  -96.808212   24.853649    0.000000    0.000000    0.000000    0.000000
  0.030363850   -4.606565  -33.490540  -97.445959   29.639446    0.000000    0.000000    0.000000    0.000000
  0.030559656   -4.604854  -33.743885  -96.463895   26.641556    0.000000    0.000000    0.000000    0.000000
  0.030755463   -4.603082  -34.013111  -97.176260   24.583107    0.000000    0.000000    0.000000    0.000000
  0.030951269   -4.599264  -34.291187  -98.092503   25.314585    0.000000    0.000000    0.000000    0.000000
  0.031147075   -4.590382  -34.509289  -96.148430    9.410910    0.000000    0.000000    0.000000    0.000000
  0.031342881   -4.589536  -34.737514  -96.214615   10.379582    0.000000    0.000000    0.000000    0.000000
  0.031538687   -4.587496  -35.000904  -97.744103    8.240499    0.000000    0.000000    0.000000    0.000000
  0.031734494   -4.582249  -35.186344  -98.452467    1.966862    0.000000    0.000000    0.000000    0.000000
  0.031930300   -4.571025  -35.415012  -97.182215   23.358328    0.000000    0.000000    0.000000    0.000000
  0.032126106   -4.565538  -35.601772  -97.002991   23.238716    0.000000    0.000000    0.000000    0.000000
  0.032321913   -4.560969  -35.772785  -98.968136    9.781873    0.000000    0.000000    0.000000    0.000000
  0.032517719   -4.549799  -35.964397  -99.250427   19.415207    0.000000    0.000000    0.000000    0.000000
  0.032713525   -4.548560  -36.108822  -95.889980   23.119259    0.000000    0.000000    0.000000    0.000000
  0.032909331   -4.541931  -36.292496  -97.014111   13.375768    0.000000    0.000000    0.000000    0.000000
  0.033105137   -4.543260  -36.459225  -97.287598    8.354896    0.000000    0.000000    0.000000    0.000000
  0.033300944   -4.544691  -36.635303  -96.941497   19.078629    0.000000    0.000000    0.000000    0.000000
  0.033496750   -4.549836  -36.813015  -98.189116   21.535378    0.000000    0.000000    0.000000    0.000000
  0.033692556   -4.549833  -37.004890  -99.298560    7.216057    0.000000    0.000000    0.000000    0.000000
  0.033888362   -4.549582  -37.178398  -98.585765   19.680609    0.000000    0.000000    0.000000    0.000000
  0.034084169   -4.551694  -37.391361  -97.450647    8.958547    0.000000    0.000000    0.000000    0.000000
  0.034279975   -4.557113  -37.594440  -98.581019   22.589912    0.000000    0.000000    0.000000    0.000000
  0.034475781   -4.563208  -37.780209  -97.533817   12.869823    0.000000    0.000000    0.000000    0.000000
  0.034671588   -4.568064  -37.996590 -100.591194    2.377080    0.000000    0.000000    0.000000    0.000000
  0.034867394   -4.576366  -38.240261  -97.220692   11.985362    0.000000    0.000000    0.000000    0.000000
  0.035063200   -4.582121  -38.473690  -98.314030  -12.368762    0.000000    0.000000    0.000000    0.000000
  0.035259006   -4.584797  -38.675220  -97.983128   21.822874    0.000000    0.000000    0.000000    0.000000
  0.035454812   -4.585541  -38.893497 -101.199405   -4.291608    0.000000    0.000000    0.000000    0.000000
  0.035650619   -4.588135  -39.109501  -99.913773   16.188450    0.000000    0.000000    0.000000    0.000000
  0.035846425   -4.588714  -39.314167  -99.284508   16.968370    0.000000    0.000000    0.000000    0.000000
  0.036042231   -4.586346  -39.566402 -104.932665   17.599323    0.000000    0.000000    0.000000    0.000000
  0.036238037   -4.584627  -39.809452 -101.663919   10.666069    0.000000    0.000000    0.000000    0.000000
  0.036433844   -4.582819  -40.025761 -100.041369   10.297797    0.000000    0.000000    0.000000    0.000000
  0.036629650   -4.578985  -40.244328  -99.952612    6.378742    0.000000    0.000000    0.000000    0.000000
  0.036825456   -4.575527  -40.416805  -98.108432   16.163601    0.000000    0.000000    0.000000    0.000000
  0.037021262   -4.575285  -40.614029  -98.301489   14.100515    0.000000    0.000000    0.000000    0.000000
  0.037217069   -4.576867  -40.797096  -98.124584   16.394421    0.000000    0.000000    0.000000    0.000000
  0.037412875   -4.580885  -41.005623  -98.881190   13.353162    0.000000    0.000000    0.000000    0.000000
  0.037608681   -4.589992  -41.198158  -98.860897   10.834052    0.000000    0.000000    0.000000    0.000000
  0.037804487   -4.597059  -41.440834  -99.109552    2.548344    0.000000    0.000000    0.000000    0.000000
  0.038000294   -4.602878  -41.685287  -97.971700   14.268679    0.000000    0.000000    0.000000    0.000000
  0.038196100   -4.611774  -41.929817 -103.234677   13.744412    0.000000    0.000000    0.000000    0.000000
  0.038391906   -4.611497  -42.198269  -97.893499   16.071014    0.000000    0.000000    0.000000    0.000000
  0.038587713   -4.618227  -42.445129  -98.164738    0.421406    0.000000    0.000000    0.000000    0.000000
  0.038783519   -4.618900  -42.711674 -100.236871   19.622431    0.000000    0.000000    0.000000    0.000000
  0.038979325   -4.613990  -42.964821  -97.836463    8.123615    0.000000    0.000000    0.000000    0.000000
  0.039175131   -4.613650  -43.209324  -98.814331   12.879958    0.000000    0.000000    0.000000    0.000000
  0.039370938   -4.608086  -43.464287  -98.619476   12.917374    0.000000    0.000000    0.000000    0.000000
  0.039566744   -4.603963  -43.698364 -100.201432    1.165633    0.000000    0.000000    0.000000    0.000000
  0.039762550   -4.595316  -43.909649  -98.924607   -2.113407    0.000000    0.000000    0.000000    0.000000
  0.039958356   -4.591078  -44.101357  -99.628271   -0.191095    0.000000    0.000000    0.000000    0.000000
  0.040154163   -4.586345  -44.302246  -98.517530   10.990861    0.000000    0.000000    0.000000    0.000000
  0.040349969   -4.583161  -44.500835  -99.293926    5.743496    0.000000    0.000000    0.000000    0.000000
  0.040545775   -4.580638  -44.678856  -98.852785    0.920715    0.000000    0.000000    0.000000    0.000000
  0.040741581   -4.580612  -44.859196 -100.807356   12.240187    0.000000    0.000000    0.000000    0.000000
  0.040937387   -4.584111  -45.058308  -98.616054   -3.199465    0.000000    0.000000    0.000000    0.000000
  0.041133194   -4.592243  -45.262043  -99.136537  -15.663775    0.000000    0.000000    0.000000    0.000000
  0.041329000   -4.596901  -45.468800  -99.290021   10.786341    0.000000    0.000000    0.000000    0.000000
  0.041524806   -4.598869  -45.688438 -100.666918   12.148026    0.000000    0.000000    0.000000    0.000000
  0.041720612   -4.601792  -45.922535 -101.067357   13.538836    0.000000    0.000000    0.000000    0.000000
  0.041916419   -4.604801  -46.142906 -100.900721   -3.520559    0.000000    0.000000    0.000000    0.000000
  0.042112225   -4.608130  -46.354954  -99.555596    4.535214    0.000000    0.000000    0.000000    0.000000
