! Anritsu VNA Master:                     Model: MS2036C/10/77
! SN:                                  1601066
! /card0/usr/255.ew.sma.r50.v2.2_1.s2p
! Existing Calibration Information:
! TYPE:                         Current Settings,       Active Cal Settings
! TIME:             	   12/17/2017 06:31:43 PM,    12/17/2017 06:11:23 PM
! INTERNAL TEMP:    	                   44.0 C,                    43.8 C
! # POINTS:         	                      501,                       501
! START FREQ:       	               10.000 MHz,                10.000 MHz
! STOP FREQ:        	          107.903 125 MHz,           107.903 125 MHz
! SOURCE POWER:     	                     High,                      High
! IFBW:             	                   100 Hz,                    100 Hz
! AVG FACTOR:       	                       1 ,                        1 
! REF PLANE 1:      	                     0 mm,                      0 mm
! REF PLANE 2:      	                     0 mm,                      0 mm
! CAL TYPE:         	                 Full S11,                  Full S11
! CAL METHOD:       	                     SOLT,                      SOLT
! CAL LINE TYPE:    	                     Coax,                      Coax
! DUT PORT 1:       	                K-Conn(F),                 K-Conn(F)
! DUT PORT 2:       	                K-Conn(F),                 K-Conn(F)
! CAL STATUS:       	        OK: Accuracy High,                        --
# GHZ S DB R 50.0
! FREQ.GHZ       S11DB        S11A       S21DB        S21A       S12DB        S12A       S22DB        S22A
  0.010000000   -4.534912  -10.786214  -84.497542   74.534706    0.000000    0.000000    0.000000    0.000000
  0.010195806   -4.522490  -10.955520  -84.254058   76.261131    0.000000    0.000000    0.000000    0.000000
  0.010391613   -4.520408  -11.154543  -84.821922   71.626320    0.000000    0.000000    0.000000    0.000000
  0.010587419   -4.526312  -11.355136  -85.219757   76.775856    0.000000    0.000000    0.000000    0.000000
  0.010783225   -4.526805  -11.569227  -84.986411   78.781540    0.000000    0.000000    0.000000    0.000000
  0.010979031   -4.530150  -11.771557  -85.102968   74.418686    0.000000    0.000000    0.000000    0.000000
  0.011174837   -4.533079  -11.991078  -85.071725   75.351303    0.000000    0.000000    0.000000    0.000000
  0.011370644   -4.529439  -12.196221  -85.563886   75.341469    0.000000    0.000000    0.000000    0.000000
  0.011566450   -4.533567  -12.403920  -84.941242   75.818352    0.000000    0.000000    0.000000    0.000000
  0.011762256   -4.532165  -12.633997  -85.161895   72.226677    0.000000    0.000000    0.000000    0.000000
  0.011958062   -4.535944  -12.841299  -84.760672   73.406364    0.000000    0.000000    0.000000    0.000000
  0.012153869   -4.535745  -13.068849  -85.091272   73.638382    0.000000    0.000000    0.000000    0.000000
  0.012349675   -4.539989  -13.279893  -85.065190   71.700287    0.000000    0.000000    0.000000    0.000000
  0.012545481   -4.540165  -13.512321  -85.236484   68.300819    0.000000    0.000000    0.000000    0.000000
  0.012741288   -4.542567  -13.741906  -85.300907   70.621445    0.000000    0.000000    0.000000    0.000000
  0.012937094   -4.544036  -13.943016  -85.838975   69.906898    0.000000    0.000000    0.000000    0.000000
  0.013132900   -4.547103  -14.178645  -85.288981   63.008347    0.000000    0.000000    0.000000    0.000000
  0.013328706   -4.548880  -14.393623  -85.507010   64.361374    0.000000    0.000000    0.000000    0.000000
  0.013524512   -4.551130  -14.595209  -85.174947   59.790440    0.000000    0.000000    0.000000    0.000000
  0.013720319   -4.548806  -14.846951  -85.939085   59.590996    0.000000    0.000000    0.000000    0.000000
  0.013916125   -4.552062  -15.053061  -85.985904   57.924217    0.000000    0.000000    0.000000    0.000000
  0.014111931   -4.553291  -15.291592  -85.990730   58.617420    0.000000    0.000000    0.000000    0.000000
  0.014307738   -4.553376  -15.524851  -86.859494   55.698597    0.000000    0.000000    0.000000    0.000000
  0.014503544   -4.552801  -15.763786  -86.407426   50.441437    0.000000    0.000000    0.000000    0.000000
  0.014699350   -4.553349  -15.973685  -86.786809   52.807087    0.000000    0.000000    0.000000    0.000000
  0.014895156   -4.555447  -16.199200  -86.784172   50.466610    0.000000    0.000000    0.000000    0.000000
  0.015090962   -4.554961  -16.432766  -87.943208   49.113407    0.000000    0.000000    0.000000    0.000000
  0.015286769   -4.556409  -16.649492  -88.288683   46.217857    0.000000    0.000000    0.000000    0.000000
  0.015482575   -4.555341  -16.896303  -88.096514   44.003113    0.000000    0.000000    0.000000    0.000000
  0.015678381   -4.556841  -17.117498  -88.219937   43.750618    0.000000    0.000000    0.000000    0.000000
  0.015874188   -4.557228  -17.340702  -88.751675   48.805836    0.000000    0.000000    0.000000    0.000000
  0.016069994   -4.560850  -17.546057  -89.016655   42.908352    0.000000    0.000000    0.000000    0.000000
  0.016265800   -4.560806  -17.750481  -89.761922   48.249710    0.000000    0.000000    0.000000    0.000000
  0.016461606   -4.560323  -17.973848  -89.627761   48.699703    0.000000    0.000000    0.000000    0.000000
  0.016657412   -4.560408  -18.188410  -89.614151   45.514351    0.000000    0.000000    0.000000    0.000000
  0.016853219   -4.559421  -18.380985  -89.218167   46.719711    0.000000    0.000000    0.000000    0.000000
  0.017049025   -4.557534  -18.615973  -90.588117   43.363853    0.000000    0.000000    0.000000    0.000000
  0.017244831   -4.554247  -18.825327  -90.087565   44.382416    0.000000    0.000000    0.000000    0.000000
  0.017440638   -4.550710  -19.035641  -90.225403   48.077583    0.000000    0.000000    0.000000    0.000000
  0.017636444   -4.553325  -19.255919  -90.750791   44.667267    0.000000    0.000000    0.000000    0.000000
  0.017832250   -4.551246  -19.438993  -90.381424   44.979916    0.000000    0.000000    0.000000    0.000000
  0.018028056   -4.555006  -19.650316  -90.495470   48.184113    0.000000    0.000000    0.000000    0.000000
  0.018223862   -4.555513  -19.846418  -89.914068   46.476513    0.000000    0.000000    0.000000    0.000000
  0.018419669   -4.563617  -20.078514  -90.625734   46.471764    0.000000    0.000000    0.000000    0.000000
  0.018615475   -4.563510  -20.268400  -90.565388   47.992695    0.000000    0.000000    0.000000    0.000000
  0.018811281   -4.565372  -20.496880  -89.813581   41.713295    0.000000    0.000000    0.000000    0.000000
  0.019007087   -4.562045  -20.709743  -90.176926   41.924110    0.000000    0.000000    0.000000    0.000000
  0.019202894   -4.566396  -20.908075  -90.577103   42.701477    0.000000    0.000000    0.000000    0.000000
  0.019398700   -4.568085  -21.106216  -89.767889   44.077892    0.000000    0.000000    0.000000    0.000000
  0.019594506   -4.568900  -21.351269  -90.606647   38.770226    0.000000    0.000000    0.000000    0.000000
  0.019790313   -4.572217  -21.562838  -91.053486   39.945007    0.000000    0.000000    0.000000    0.000000
  0.019986119   -4.572222  -21.776806  -90.197835   41.655060    0.000000    0.000000    0.000000    0.000000
  0.020181925   -4.571190  -22.016884  -91.240303   37.303570    0.000000    0.000000    0.000000    0.000000
  0.020377731   -4.574963  -22.239470  -91.185512   41.679554    0.000000    0.000000    0.000000    0.000000
  0.020573537   -4.574598  -22.464964  -91.067296   31.413639    0.000000    0.000000    0.000000    0.000000
  0.020769344   -4.572962  -22.698338  -91.296042   37.026096    0.000000    0.000000    0.000000    0.000000
  0.020965150   -4.574423  -22.952259  -91.577547   31.211769    0.000000    0.000000    0.000000    0.000000
  0.021160956   -4.577735  -23.184521  -90.915598   30.040422    0.000000    0.000000    0.000000    0.000000
  0.021356762   -4.577526  -23.425182  -91.478842   30.487698    0.000000    0.000000    0.000000    0.000000
  0.021552569   -4.576942  -23.673765  -91.480688   31.738956    0.000000    0.000000    0.000000    0.000000
  0.021748375   -4.579805  -23.901871  -92.286052   34.661026    0.000000    0.000000    0.000000    0.000000
  0.021944181   -4.581436  -24.125822  -92.437176   32.931149    0.000000    0.000000    0.000000    0.000000
  0.022139988   -4.582120  -24.357018  -92.595517   27.717695    0.000000    0.000000    0.000000    0.000000
  0.022335794   -4.580482  -24.579315  -93.103196   24.302496    0.000000    0.000000    0.000000    0.000000
  0.022531600   -4.580834  -24.808739  -92.213272   28.608389    0.000000    0.000000    0.000000    0.000000
  0.022727406   -4.582063  -25.035089  -93.123193   30.905304    0.000000    0.000000    0.000000    0.000000
  0.022923213   -4.582025  -25.252722  -92.465932   34.577736    0.000000    0.000000    0.000000    0.000000
  0.023119019   -4.581552  -25.483677  -93.723744   33.076790    0.000000    0.000000    0.000000    0.000000
  0.023314825   -4.579659  -25.716902  -93.729378   30.661009    0.000000    0.000000    0.000000    0.000000
  0.023510631   -4.579428  -25.963915  -93.103716   24.169323    0.000000    0.000000    0.000000    0.000000
  0.023706438   -4.576089  -26.177877  -94.454038   29.420200    0.000000    0.000000    0.000000    0.000000
  0.023902244   -4.572702  -26.407501  -94.413964   24.343399    0.000000    0.000000    0.000000    0.000000
  0.024098050   -4.566506  -26.621490  -93.896583   23.571175    0.000000    0.000000    0.000000    0.000000
  0.024293856   -4.562739  -26.846600  -94.036777   28.481977    0.000000    0.000000    0.000000    0.000000
  0.024489662   -4.561844  -27.049335  -94.736226   30.871264    0.000000    0.000000    0.000000    0.000000
  0.024685469   -4.562080  -27.277813  -94.520815   36.910149    0.000000    0.000000    0.000000    0.000000
  0.024881275   -4.563890  -27.474937  -93.947359   27.782881    0.000000    0.000000    0.000000    0.000000
  0.025077081   -4.559827  -27.675261  -94.530323   25.550917    0.000000    0.000000    0.000000    0.000000
  0.025272888   -4.560461  -27.854237  -94.491566   25.898426    0.000000    0.000000    0.000000    0.000000
  0.025468694   -4.562937  -28.027716  -93.359913   30.995781    0.000000    0.000000    0.000000    0.000000
  0.025664500   -4.564442  -28.208359  -93.976969   24.074696    0.000000    0.000000    0.000000    0.000000
  0.025860306   -4.565502  -28.388554  -94.139311   29.542471    0.000000    0.000000    0.000000    0.000000
  0.026056112   -4.568047  -28.584818  -94.012269   23.923510    0.000000    0.000000    0.000000    0.000000
  0.026251919   -4.573721  -28.772640  -94.568666   21.282269    0.000000    0.000000    0.000000    0.000000
  0.026447725   -4.576923  -28.978861  -94.474909   25.946011    0.000000    0.000000    0.000000    0.000000
  0.026643531   -4.577059  -29.176123  -94.630063   23.339628    0.000000    0.000000    0.000000    0.000000
  0.026839338   -4.579006  -29.405563  -94.694540   24.434254    0.000000    0.000000    0.000000    0.000000
  0.027035144   -4.581736  -29.625605  -95.000139   16.960270    0.000000    0.000000    0.000000    0.000000
  0.027230950   -4.582492  -29.869917  -95.623471   16.381426    0.000000    0.000000    0.000000    0.000000
  0.027426756   -4.583843  -30.080330  -95.155317   25.491093    0.000000    0.000000    0.000000    0.000000
  0.027622562   -4.589964  -30.315159  -95.701924   17.820307    0.000000    0.000000    0.000000    0.000000
  0.027818369   -4.590841  -30.549982  -96.270602   17.052256    0.000000    0.000000    0.000000    0.000000
  0.028014175   -4.594509  -30.805676  -95.092893   21.453016    0.000000    0.000000    0.000000    0.000000
  0.028209981   -4.595330  -31.053001  -95.460487   12.662619    0.000000    0.000000    0.000000    0.000000
  0.028405788   -4.590371  -31.303320  -94.579202   14.159828    0.000000    0.000000    0.000000    0.000000
  0.028601594   -4.589410  -31.513987  -95.349283   17.784279    0.000000    0.000000    0.000000    0.000000
  0.028797400   -4.587359  -31.734808  -96.124229   19.093910    0.000000    0.000000    0.000000    0.000000
  0.028993206   -4.586822  -31.943842  -95.560326   16.406509    0.000000    0.000000    0.000000    0.000000
  0.029189013   -4.586340  -32.137722  -97.165146   17.552046    0.000000    0.000000    0.000000    0.000000
  0.029384819   -4.589736  -32.328285  -96.522716   18.312712    0.000000    0.000000    0.000000    0.000000
  0.029580625   -4.590290  -32.520473  -96.522357   17.807241    0.000000    0.000000    0.000000    0.000000
  0.029776431   -4.594202  -32.755421  -97.439875   19.980598    0.000000    0.000000    0.000000    0.000000
  0.029972237   -4.599714  -32.973927  -96.689161   18.901405    0.000000    0.000000    0.000000    0.000000
  0.030168044   -4.603604  -33.223804  -96.943610   20.387184    0.000000    0.000000    0.000000    0.000000
  0.030363850   -4.602997  -33.477070  -97.722978   16.051853    0.000000    0.000000    0.000000    0.000000
  0.030559656   -4.605739  -33.738998  -97.024063   20.012953    0.000000    0.000000    0.000000    0.000000
  0.030755463   -4.602765  -34.005943  -97.210810   16.021133    0.000000    0.000000    0.000000    0.000000
  0.030951269   -4.601008  -34.272060  -97.638185   27.501766    0.000000    0.000000    0.000000    0.000000
  0.031147075   -4.591643  -34.514179  -97.547485    7.235476    0.000000    0.000000    0.000000    0.000000
  0.031342881   -4.588326  -34.718502  -99.519967   15.405486    0.000000    0.000000    0.000000    0.000000
  0.031538687   -4.586712  -34.981865  -97.522654   13.710371    0.000000    0.000000    0.000000    0.000000
  0.031734494   -4.581154  -35.165577  -99.069005    8.942292    0.000000    0.000000    0.000000    0.000000
  0.031930300   -4.571573  -35.395691  -95.772697   15.271147    0.000000    0.000000    0.000000    0.000000
  0.032126106   -4.565393  -35.591789  -96.293515   18.837709    0.000000    0.000000    0.000000    0.000000
  0.032321913   -4.559157  -35.758560  -97.567025   15.370511    0.000000    0.000000    0.000000    0.000000
  0.032517719   -4.550322  -35.946461  -96.893499   14.297948    0.000000    0.000000    0.000000    0.000000
  0.032713525   -4.549476  -36.107117  -96.963681   15.089238    0.000000    0.000000    0.000000    0.000000
  0.032909331   -4.542414  -36.280323  -97.028720   11.538957    0.000000    0.000000    0.000000    0.000000
  0.033105137   -4.545647  -36.449459  -98.003026   10.075133    0.000000    0.000000    0.000000    0.000000
  0.033300944   -4.546257  -36.625629  -96.939566   10.749434    0.000000    0.000000    0.000000    0.000000
  0.033496750   -4.549597  -36.807365  -98.152589   18.398798    0.000000    0.000000    0.000000    0.000000
  0.033692556   -4.551902  -36.986462  -98.531917    9.565207    0.000000    0.000000    0.000000    0.000000
  0.033888362   -4.550674  -37.174026  -98.672838   23.610027    0.000000    0.000000    0.000000    0.000000
  0.034084169   -4.551251  -37.377182  -98.805829   14.846272    0.000000    0.000000    0.000000    0.000000
  0.034279975   -4.560468  -37.584587 -100.022994   12.699883    0.000000    0.000000    0.000000    0.000000
  0.034475781   -4.563714  -37.768456  -98.372358   16.574980    0.000000    0.000000    0.000000    0.000000
  0.034671588   -4.568996  -37.997700  -98.336081   11.636927    0.000000    0.000000    0.000000    0.000000
  0.034867394   -4.575162  -38.221649  -97.385732    8.369630    0.000000    0.000000    0.000000    0.000000
  0.035063200   -4.582247  -38.476086 -100.364258   17.578957    0.000000    0.000000    0.000000    0.000000
  0.035259006   -4.586649  -38.668201 -100.332116   16.309885    0.000000    0.000000    0.000000    0.000000
  0.035454812   -4.588560  -38.868496  -99.937767   17.206232    0.000000    0.000000    0.000000    0.000000
  0.035650619   -4.588055  -39.105068  -98.831260    6.804763    0.000000    0.000000    0.000000    0.000000
  0.035846425   -4.588289  -39.315132  -99.336596   16.634216    0.000000    0.000000    0.000000    0.000000
  0.036042231   -4.585663  -39.543781  -98.355359    3.038833    0.000000    0.000000    0.000000    0.000000
  0.036238037   -4.583814  -39.806629  -98.798977    4.257513    0.000000    0.000000    0.000000    0.000000
  0.036433844   -4.584123  -40.019291  -99.448532   11.744933    0.000000    0.000000    0.000000    0.000000
  0.036629650   -4.578663  -40.246086  -99.556312   17.111988    0.000000    0.000000    0.000000    0.000000
  0.036825456   -4.579875  -40.421600  -98.791345    6.170341    0.000000    0.000000    0.000000    0.000000
  0.037021262   -4.576053  -40.606483 -102.636562   16.122002    0.000000    0.000000    0.000000    0.000000
  0.037217069   -4.576874  -40.782784 -101.304537   14.901369    0.000000    0.000000    0.000000    0.000000
  0.037412875   -4.585173  -41.000618  -97.935377    8.706940    0.000000    0.000000    0.000000    0.000000
  0.037608681   -4.591494  -41.207352  -97.537329   21.695881    0.000000    0.000000    0.000000    0.000000
  0.037804487   -4.597971  -41.417995  -99.467429   19.914967    0.000000    0.000000    0.000000    0.000000
  0.038000294   -4.605258  -41.674107 -100.321431   11.575006    0.000000    0.000000    0.000000    0.000000
  0.038196100   -4.611284  -41.931370  -99.712080    8.352180    0.000000    0.000000    0.000000    0.000000
  0.038391906   -4.615202  -42.204247 -101.468041    6.381564    0.000000    0.000000    0.000000    0.000000
  0.038587713   -4.616981  -42.432728  -99.465198   11.566308    0.000000    0.000000    0.000000    0.000000
  0.038783519   -4.618936  -42.698620  -99.052872   -9.969426    0.000000    0.000000    0.000000    0.000000
  0.038979325   -4.617099  -42.951813  -97.574691   10.989262    0.000000    0.000000    0.000000    0.000000
  0.039175131   -4.614407  -43.212410  -98.429463  -14.493846    0.000000    0.000000    0.000000    0.000000
  0.039370938   -4.611515  -43.447205  -98.462209    4.717896    0.000000    0.000000    0.000000    0.000000
  0.039566744   -4.604509  -43.690228  -98.993004   11.484497    0.000000    0.000000    0.000000    0.000000
  0.039762550   -4.598637  -43.893616  -99.918521   17.324820    0.000000    0.000000    0.000000    0.000000
  0.039958356   -4.592846  -44.100071  -99.856201    6.937279    0.000000    0.000000    0.000000    0.000000
  0.040154163   -4.587199  -44.290775  -97.725243   11.506537    0.000000    0.000000    0.000000    0.000000
  0.040349969   -4.583350  -44.478367  -99.398856   -8.242633    0.000000    0.000000    0.000000    0.000000
  0.040545775   -4.583281  -44.666191  -98.574137   -1.182956    0.000000    0.000000    0.000000    0.000000
  0.040741581   -4.582533  -44.846054  -99.484427    1.204718    0.000000    0.000000    0.000000    0.000000
  0.040937387   -4.587569  -45.050224 -101.951944   24.211800    0.000000    0.000000    0.000000    0.000000
  0.041133194   -4.592447  -45.237030 -101.400415   13.760961    0.000000    0.000000    0.000000    0.000000
  0.041329000   -4.596821  -45.457447 -101.257557   -8.518188    0.000000    0.000000    0.000000    0.000000
  0.041524806   -4.597644  -45.685177 -100.431085    5.030212    0.000000    0.000000    0.000000    0.000000
  0.041720612   -4.601792  -45.913864 -100.180512   -1.756713    0.000000    0.000000    0.000000    0.000000
  0.041916419   -4.604722  -46.123825 -103.494845   21.218193    0.000000    0.000000    0.000000    0.000000
  0.042112225   -4.610116  -46.339760 -102.118360   -0.426276    0.000000    0.000000    0.000000    0.000000
