! Anritsu VNA Master:                     Model: MS2036C/10/77
! SN:                                  1601066
! /card0/usr/255.ew.n.s2p
! Existing Calibration Information:
! TYPE:                         Current Settings,       Active Cal Settings
! TIME:             	   12/17/2017 06:49:02 PM,    12/17/2017 06:38:14 PM
! INTERNAL TEMP:    	                   43.5 C,                    43.8 C
! # POINTS:         	                      501,                       501
! START FREQ:       	               10.000 MHz,                10.000 MHz
! STOP FREQ:        	          107.903 125 MHz,           107.903 125 MHz
! SOURCE POWER:     	                     High,                      High
! IFBW:             	                   100 Hz,                    100 Hz
! AVG FACTOR:       	                       1 ,                        1 
! REF PLANE 1:      	                     0 mm,                      0 mm
! REF PLANE 2:      	                     0 mm,                      0 mm
! CAL TYPE:         	                 Full S11,                  Full S11
! CAL METHOD:       	                     SOLT,                      SOLT
! CAL LINE TYPE:    	                     Coax,                      Coax
! DUT PORT 1:       	                N-Conn(F),                 N-Conn(F)
! DUT PORT 2:       	                K-Conn(F),                 K-Conn(F)
! CAL STATUS:       	        OK: Accuracy High,                        --
# GHZ S DB R 50.0
! FREQ.GHZ       S11DB        S11A       S21DB        S21A       S12DB        S12A       S22DB        S22A
  0.010000000   -0.675165  -59.523003  -84.274657   83.112198    0.000000    0.000000    0.000000    0.000000
  0.010195806   -0.666123  -60.677483  -84.653493   84.899460    0.000000    0.000000    0.000000    0.000000
  0.010391613   -0.670309  -61.908840  -84.647664   83.410919    0.000000    0.000000    0.000000    0.000000
  0.010587419   -0.681313  -63.156090  -84.739969   87.067596    0.000000    0.000000    0.000000    0.000000
  0.010783225   -0.687943  -64.430923  -84.085831   86.903427    0.000000    0.000000    0.000000    0.000000
  0.010979031   -0.693891  -65.666054  -84.007983   84.392441    0.000000    0.000000    0.000000    0.000000
  0.011174837   -0.699250  -66.899002  -83.989080   77.123405    0.000000    0.000000    0.000000    0.000000
  0.011370644   -0.704050  -68.161362  -83.945287   78.337471    0.000000    0.000000    0.000000    0.000000
  0.011566450   -0.709582  -69.367928  -83.879230   77.981247    0.000000    0.000000    0.000000    0.000000
  0.011762256   -0.718024  -70.616241  -83.718522   77.846916    0.000000    0.000000    0.000000    0.000000
  0.011958062   -0.725201  -71.919449  -84.361515   71.801010    0.000000    0.000000    0.000000    0.000000
  0.012153869   -0.731769  -73.164833  -83.837438   70.137749    0.000000    0.000000    0.000000    0.000000
  0.012349675   -0.739190  -74.477638  -84.359713   68.753632    0.000000    0.000000    0.000000    0.000000
  0.012545481   -0.742662  -75.742996  -84.277286   64.942047    0.000000    0.000000    0.000000    0.000000
  0.012741288   -0.747476  -77.005844  -84.335811   62.300278    0.000000    0.000000    0.000000    0.000000
  0.012937094   -0.752987  -78.299484  -84.613105   59.398407    0.000000    0.000000    0.000000    0.000000
  0.013132900   -0.759872  -79.569344  -85.080230   56.141918    0.000000    0.000000    0.000000    0.000000
  0.013328706   -0.765201  -80.848602  -85.435976   55.348663    0.000000    0.000000    0.000000    0.000000
  0.013524512   -0.768264  -82.126907  -85.539088   49.907486    0.000000    0.000000    0.000000    0.000000
  0.013720319   -0.773527  -83.371109  -85.883339   50.569099    0.000000    0.000000    0.000000    0.000000
  0.013916125   -0.780542  -84.659195  -86.621325   49.016174    0.000000    0.000000    0.000000    0.000000
  0.014111931   -0.789583  -85.928673  -86.872104   47.131088    0.000000    0.000000    0.000000    0.000000
  0.014307738   -0.795845  -87.207870  -86.801621   45.847458    0.000000    0.000000    0.000000    0.000000
  0.014503544   -0.808040  -88.500343  -87.338695   47.868874    0.000000    0.000000    0.000000    0.000000
  0.014699350   -0.820417  -89.781586  -88.103410   45.478683    0.000000    0.000000    0.000000    0.000000
  0.014895156   -0.827300  -91.091148  -88.167034   46.953655    0.000000    0.000000    0.000000    0.000000
  0.015090962   -0.835136  -92.388290  -88.792849   45.859535    0.000000    0.000000    0.000000    0.000000
  0.015286769   -0.842799  -93.667000  -89.435321   47.945122    0.000000    0.000000    0.000000    0.000000
  0.015482575   -0.843565  -94.939453  -89.461934   50.647278    0.000000    0.000000    0.000000    0.000000
  0.015678381   -0.848339  -96.230072  -89.600985   48.646610    0.000000    0.000000    0.000000    0.000000
  0.015874188   -0.854720  -97.505760  -89.731204   51.688663    0.000000    0.000000    0.000000    0.000000
  0.016069994   -0.861209  -98.798401  -89.260630   50.630039    0.000000    0.000000    0.000000    0.000000
  0.016265800   -0.866806 -100.117043  -89.648088   55.080120    0.000000    0.000000    0.000000    0.000000
  0.016461606   -0.876427 -101.416649  -89.214847   57.969299    0.000000    0.000000    0.000000    0.000000
  0.016657412   -0.881438 -102.773727  -89.898774   58.941799    0.000000    0.000000    0.000000    0.000000
  0.016853219   -0.885704 -104.113274  -89.768157   53.482399    0.000000    0.000000    0.000000    0.000000
  0.017049025   -0.891945 -105.467987  -88.478972   52.696396    0.000000    0.000000    0.000000    0.000000
  0.017244831   -0.899237 -106.772614  -89.193079   52.924042    0.000000    0.000000    0.000000    0.000000
  0.017440638   -0.910575 -108.100998  -89.073497   51.529011    0.000000    0.000000    0.000000    0.000000
  0.017636444   -0.923211 -109.463196  -89.216699   50.769432    0.000000    0.000000    0.000000    0.000000
  0.017832250   -0.934093 -110.795021  -89.013593   51.006271    0.000000    0.000000    0.000000    0.000000
  0.018028056   -0.945835 -112.165817  -89.481384   48.952404    0.000000    0.000000    0.000000    0.000000
  0.018223862   -0.955040 -113.531609  -89.461806   46.632992    0.000000    0.000000    0.000000    0.000000
  0.018419669   -0.962609 -114.933777  -88.989298   43.283268    0.000000    0.000000    0.000000    0.000000
  0.018615475   -0.970215 -116.313858  -89.506298   45.568401    0.000000    0.000000    0.000000    0.000000
  0.018811281   -0.975083 -117.676247  -89.329711   40.362568    0.000000    0.000000    0.000000    0.000000
  0.019007087   -0.985868 -119.078133  -89.407352   39.513371    0.000000    0.000000    0.000000    0.000000
  0.019202894   -0.994612 -120.505981  -89.793254   37.523998    0.000000    0.000000    0.000000    0.000000
  0.019398700   -1.004721 -121.900436  -89.876158   38.085285    0.000000    0.000000    0.000000    0.000000
  0.019594506   -1.013472 -123.329376  -90.135956   34.453869    0.000000    0.000000    0.000000    0.000000
  0.019790313   -1.020345 -124.761795  -90.720466   34.169109    0.000000    0.000000    0.000000    0.000000
  0.019986119   -1.028799 -126.173508  -90.688618   29.363447    0.000000    0.000000    0.000000    0.000000
  0.020181925   -1.034442 -127.591896  -91.774526   30.656536    0.000000    0.000000    0.000000    0.000000
  0.020377731   -1.040674 -128.975891  -91.712560   23.415012    0.000000    0.000000    0.000000    0.000000
  0.020573537   -1.048062 -130.383789  -92.110429   34.091614    0.000000    0.000000    0.000000    0.000000
  0.020769344   -1.061236 -131.835587  -91.563357   32.780869    0.000000    0.000000    0.000000    0.000000
  0.020965150   -1.073227 -133.262253  -92.266935   32.414436    0.000000    0.000000    0.000000    0.000000
  0.021160956   -1.088981 -134.729538  -93.101032   29.552057    0.000000    0.000000    0.000000    0.000000
  0.021356762   -1.097896 -136.199799  -92.288111   31.523870    0.000000    0.000000    0.000000    0.000000
  0.021552569   -1.110857 -137.671753  -93.356528   36.771179    0.000000    0.000000    0.000000    0.000000
  0.021748375   -1.122931 -139.139038  -93.081574   41.959538    0.000000    0.000000    0.000000    0.000000
  0.021944181   -1.135053 -140.603485  -92.971960   40.554226    0.000000    0.000000    0.000000    0.000000
  0.022139988   -1.150203 -142.088394  -93.085399   40.897224    0.000000    0.000000    0.000000    0.000000
  0.022335794   -1.163397 -143.600479  -94.002574   37.237286    0.000000    0.000000    0.000000    0.000000
  0.022531600   -1.174366 -145.118958  -92.392356   42.116486    0.000000    0.000000    0.000000    0.000000
  0.022727406   -1.186095 -146.658508  -92.451543   34.620056    0.000000    0.000000    0.000000    0.000000
  0.022923213   -1.198426 -148.191299  -93.010194   40.253193    0.000000    0.000000    0.000000    0.000000
  0.023119019   -1.211010 -149.723846  -92.769441   33.732510    0.000000    0.000000    0.000000    0.000000
  0.023314825   -1.219771 -151.269196  -92.899198   32.439583    0.000000    0.000000    0.000000    0.000000
  0.023510631   -1.230671 -152.811447  -93.144469   31.268524    0.000000    0.000000    0.000000    0.000000
  0.023706438   -1.247399 -154.371887  -92.556752   31.464636    0.000000    0.000000    0.000000    0.000000
  0.023902244   -1.261514 -155.950729  -92.137527   28.993990    0.000000    0.000000    0.000000    0.000000
  0.024098050   -1.277933 -157.546341  -92.633917   35.221237    0.000000    0.000000    0.000000    0.000000
  0.024293856   -1.293854 -159.160736  -92.872738   24.178516    0.000000    0.000000    0.000000    0.000000
  0.024489662   -1.309001 -160.774307  -92.512264   25.479033    0.000000    0.000000    0.000000    0.000000
  0.024685469   -1.326548 -162.394135  -93.041083   27.255058    0.000000    0.000000    0.000000    0.000000
  0.024881275   -1.342668 -163.995483  -93.438221   26.355736    0.000000    0.000000    0.000000    0.000000
  0.025077081   -1.358568 -165.635101  -93.934005   22.403101    0.000000    0.000000    0.000000    0.000000
  0.025272888   -1.379081 -167.265015  -94.104297   15.095366    0.000000    0.000000    0.000000    0.000000
  0.025468694   -1.396774 -168.913696  -94.148861   17.959551    0.000000    0.000000    0.000000    0.000000
  0.025664500   -1.416951 -170.575241  -94.280141   22.244192    0.000000    0.000000    0.000000    0.000000
  0.025860306   -1.435332 -172.236481  -95.224860   16.572689    0.000000    0.000000    0.000000    0.000000
  0.026056112   -1.453000 -173.902893  -94.620089   14.720158    0.000000    0.000000    0.000000    0.000000
  0.026251919   -1.469986 -175.561951  -95.478960   20.513870    0.000000    0.000000    0.000000    0.000000
  0.026447725   -1.490047 -177.230545  -95.448804   11.303778    0.000000    0.000000    0.000000    0.000000
  0.026643531   -1.511426 -178.892288  -95.423369   13.568517    0.000000    0.000000    0.000000    0.000000
  0.026839338   -1.532067  179.422638  -95.110289   19.967760    0.000000    0.000000    0.000000    0.000000
  0.027035144   -1.556835  177.723816  -95.367610   17.024803    0.000000    0.000000    0.000000    0.000000
  0.027230950   -1.581027  176.032639  -97.493506   18.044788    0.000000    0.000000    0.000000    0.000000
  0.027426756   -1.604538  174.318848  -95.301708   24.272371    0.000000    0.000000    0.000000    0.000000
  0.027622562   -1.629319  172.602890  -95.400324   18.414152    0.000000    0.000000    0.000000    0.000000
  0.027818369   -1.657584  170.879349  -96.159651   19.882101    0.000000    0.000000    0.000000    0.000000
  0.028014175   -1.689211  169.121796  -96.214332   21.747395    0.000000    0.000000    0.000000    0.000000
  0.028209981   -1.719531  167.360062  -97.522273   31.414324    0.000000    0.000000    0.000000    0.000000
  0.028405788   -1.749686  165.597824  -95.923219   27.454924    0.000000    0.000000    0.000000    0.000000
  0.028601594   -1.780049  163.825989  -96.974118   25.421938    0.000000    0.000000    0.000000    0.000000
  0.028797400   -1.809345  162.049286  -95.686042   20.355759    0.000000    0.000000    0.000000    0.000000
  0.028993206   -1.838347  160.286774  -95.421191   27.608192    0.000000    0.000000    0.000000    0.000000
  0.029189013   -1.871360  158.489899  -95.950219   14.684028    0.000000    0.000000    0.000000    0.000000
  0.029384819   -1.905361  156.707153  -96.151275   18.531490    0.000000    0.000000    0.000000    0.000000
  0.029580625   -1.940713  154.871552  -95.398999   21.899416    0.000000    0.000000    0.000000    0.000000
  0.029776431   -1.978794  153.038727  -95.753121   20.641546    0.000000    0.000000    0.000000    0.000000
  0.029972237   -2.018584  151.150314  -96.393706   23.792629    0.000000    0.000000    0.000000    0.000000
  0.030168044   -2.057841  149.252289  -95.725132   12.763256    0.000000    0.000000    0.000000    0.000000
  0.030363850   -2.095336  147.331436  -96.285246   20.980534    0.000000    0.000000    0.000000    0.000000
  0.030559656   -2.134418  145.409943  -97.307015   15.006830    0.000000    0.000000    0.000000    0.000000
  0.030755463   -2.172240  143.509018  -96.695466   11.756809    0.000000    0.000000    0.000000    0.000000
  0.030951269   -2.214177  141.589325  -97.341905   23.647882    0.000000    0.000000    0.000000    0.000000
  0.031147075   -2.249844  139.675156  -97.375509   12.101555    0.000000    0.000000    0.000000    0.000000
  0.031342881   -2.289422  137.714844  -98.037074    8.681781    0.000000    0.000000    0.000000    0.000000
  0.031538687   -2.335212  135.745728  -96.496487    7.184069    0.000000    0.000000    0.000000    0.000000
  0.031734494   -2.370258  133.764114  -97.670586   27.309992    0.000000    0.000000    0.000000    0.000000
  0.031930300   -2.404249  131.790344  -97.359755    6.963850    0.000000    0.000000    0.000000    0.000000
  0.032126106   -2.441689  129.843979  -97.018269   19.202995    0.000000    0.000000    0.000000    0.000000
  0.032321913   -2.474357  127.896919  -97.027880   16.077595    0.000000    0.000000    0.000000    0.000000
  0.032517719   -2.507943  125.987717  -99.773530    6.123345    0.000000    0.000000    0.000000    0.000000
  0.032713525   -2.544741  124.078407  -97.554280   16.023100    0.000000    0.000000    0.000000    0.000000
  0.032909331   -2.582482  122.193054  -98.342021   23.192150    0.000000    0.000000    0.000000    0.000000
  0.033105137   -2.627068  120.293472  -97.167113   20.480198    0.000000    0.000000    0.000000    0.000000
  0.033300944   -2.673580  118.375374  -97.865339   19.039253    0.000000    0.000000    0.000000    0.000000
  0.033496750   -2.722165  116.451546  -99.618709   22.641178    0.000000    0.000000    0.000000    0.000000
  0.033692556   -2.774602  114.535934  -97.274714    7.361892    0.000000    0.000000    0.000000    0.000000
  0.033888362   -2.822619  112.558151  -99.124903    2.022901    0.000000    0.000000    0.000000    0.000000
  0.034084169   -2.868482  110.562531  -99.579035   12.354909    0.000000    0.000000    0.000000    0.000000
  0.034279975   -2.913558  108.531670  -98.167147    0.695228    0.000000    0.000000    0.000000    0.000000
  0.034475781   -2.956463  106.499260  -99.864748   20.443983    0.000000    0.000000    0.000000    0.000000
  0.034671588   -3.000311  104.474915  -97.807155   18.390480    0.000000    0.000000    0.000000    0.000000
  0.034867394   -3.041644  102.461555 -100.272883   23.705673    0.000000    0.000000    0.000000    0.000000
  0.035063200   -3.078134  100.456688  -97.716847   21.647335    0.000000    0.000000    0.000000    0.000000
  0.035259006   -3.113093   98.420471  -98.724689   13.538558    0.000000    0.000000    0.000000    0.000000
  0.035454812   -3.147873   96.417580  -99.308422    4.572439    0.000000    0.000000    0.000000    0.000000
  0.035650619   -3.183539   94.398346  -98.333891    8.462525    0.000000    0.000000    0.000000    0.000000
  0.035846425   -3.215977   92.387657  -97.593608    5.658000    0.000000    0.000000    0.000000    0.000000
  0.036042231   -3.249310   90.385612  -98.256746   -0.827549    0.000000    0.000000    0.000000    0.000000
  0.036238037   -3.281964   88.361275  -99.797901   12.203869    0.000000    0.000000    0.000000    0.000000
  0.036433844   -3.309345   86.366600  -97.730081    5.431738    0.000000    0.000000    0.000000    0.000000
  0.036629650   -3.338945   84.379639  -98.385150   16.054842    0.000000    0.000000    0.000000    0.000000
  0.036825456   -3.365861   82.325623  -97.978934    4.114388    0.000000    0.000000    0.000000    0.000000
  0.037021262   -3.393681   80.254181  -99.047721    7.346763    0.000000    0.000000    0.000000    0.000000
  0.037217069   -3.413159   78.093498 -100.337587   15.782620    0.000000    0.000000    0.000000    0.000000
  0.037412875   -3.421061   75.873901  -99.793166   17.936605    0.000000    0.000000    0.000000    0.000000
  0.037608681   -3.423752   73.507935  -98.234008   -8.423958    0.000000    0.000000    0.000000    0.000000
  0.037804487   -3.429159   70.986008  -98.658422    8.662173    0.000000    0.000000    0.000000    0.000000
  0.038000294   -3.448959   68.284355  -99.171475    5.908926    0.000000    0.000000    0.000000    0.000000
  0.038196100   -3.492684   65.466042 -103.058771    8.842687    0.000000    0.000000    0.000000    0.000000
  0.038391906   -3.572069   62.662613  -99.131432   19.675884    0.000000    0.000000    0.000000    0.000000
  0.038587713   -3.680284   60.023991  -98.344262   12.781810    0.000000    0.000000    0.000000    0.000000
  0.038783519   -3.800356   57.637691 -101.982906    8.970620    0.000000    0.000000    0.000000    0.000000
  0.038979325   -3.915145   55.465687  -99.438926   -3.937449    0.000000    0.000000    0.000000    0.000000
  0.039175131   -4.022629   53.469902 -100.860201   25.120304    0.000000    0.000000    0.000000    0.000000
  0.039370938   -4.113482   51.552513  -99.749501    3.686328    0.000000    0.000000    0.000000    0.000000
  0.039566744   -4.203420   49.662735 -102.470881   18.973303    0.000000    0.000000    0.000000    0.000000
  0.039762550   -4.280324   47.761375 -100.594248    0.134037    0.000000    0.000000    0.000000    0.000000
  0.039958356   -4.356976   45.845837  -98.844643    6.024034    0.000000    0.000000    0.000000    0.000000
  0.040154163   -4.428257   43.890480  -99.304518    5.628499    0.000000    0.000000    0.000000    0.000000
  0.040349969   -4.495551   41.915455  -99.792602   -1.174026    0.000000    0.000000    0.000000    0.000000
  0.040545775   -4.557606   39.916840  -99.836612   19.661406    0.000000    0.000000    0.000000    0.000000
  0.040741581   -4.617337   37.905972  -99.747884   -2.768246    0.000000    0.000000    0.000000    0.000000
  0.040937387   -4.674115   35.865364  -99.458295    6.664406    0.000000    0.000000    0.000000    0.000000
  0.041133194   -4.729761   33.829853  -99.132394   -0.930657    0.000000    0.000000    0.000000    0.000000
  0.041329000   -4.779880   31.800631  -99.010117    0.361382    0.000000    0.000000    0.000000    0.000000
  0.041524806   -4.828643   29.706781 -102.538512  -10.110547    0.000000    0.000000    0.000000    0.000000
  0.041720612   -4.877779   27.646332 -100.701551   12.799247    0.000000    0.000000    0.000000    0.000000
  0.041916419   -4.918681   25.553205  -99.615850   11.706144    0.000000    0.000000    0.000000    0.000000
  0.042112225   -4.958365   23.495079 -100.364343   -1.824304    0.000000    0.000000    0.000000    0.000000
