! Anritsu VNA Master:                     Model: MS2036C/10/77
! SN:                                  1601066
! /card0/usr/255.ew.sma.r20.1.s2p
! Existing Calibration Information:
! TYPE:                         Current Settings,       Active Cal Settings
! TIME:             	   12/19/2017 06:06:42 PM,    12/19/2017 06:04:41 PM
! INTERNAL TEMP:    	                   40.0 C,                    39.8 C
! # POINTS:         	                      501,                       501
! START FREQ:       	               10.000 MHz,                10.000 MHz
! STOP FREQ:        	              110.000 MHz,               110.000 MHz
! SOURCE POWER:     	                     High,                      High
! IFBW:             	                   100 Hz,                    100 Hz
! AVG FACTOR:       	                       1 ,                        1 
! REF PLANE 1:      	                     0 mm,                      0 mm
! REF PLANE 2:      	                     0 mm,                      0 mm
! CAL TYPE:         	                 Full S11,                  Full S11
! CAL METHOD:       	                     SOLT,                      SOLT
! CAL LINE TYPE:    	                     Coax,                      Coax
! DUT PORT 1:       	                N-Conn(F),                 N-Conn(F)
! DUT PORT 2:       	                K-Conn(F),                 K-Conn(F)
! CAL STATUS:       	        OK: Accuracy High,                        --
# GHZ S DB R 50.0
! FREQ.GHZ       S11DB        S11A       S21DB        S21A       S12DB        S12A       S22DB        S22A
  0.010000000   -7.214178  167.801468  -82.231577   77.070236    0.000000    0.000000    0.000000    0.000000
  0.010200000   -7.202945  167.624847  -82.726952   78.266281    0.000000    0.000000    0.000000    0.000000
  0.010400000   -7.200151  167.436935  -83.126047   77.869568    0.000000    0.000000    0.000000    0.000000
  0.010600000   -7.205152  167.133942  -82.947422   74.262695    0.000000    0.000000    0.000000    0.000000
  0.010800000   -7.207969  166.924927  -83.162059   74.394562    0.000000    0.000000    0.000000    0.000000
  0.011000000   -7.207702  166.643890  -83.580070   68.628105    0.000000    0.000000    0.000000    0.000000
  0.011200000   -7.212789  166.385956  -83.816477   69.170395    0.000000    0.000000    0.000000    0.000000
  0.011400000   -7.211881  166.170807  -84.067242   66.056725    0.000000    0.000000    0.000000    0.000000
  0.011600000   -7.209342  165.934891  -83.888659   65.046509    0.000000    0.000000    0.000000    0.000000
  0.011800000   -7.214426  165.706528  -84.668323   63.609325    0.000000    0.000000    0.000000    0.000000
  0.012000000   -7.215394  165.447342  -85.339817   63.241673    0.000000    0.000000    0.000000    0.000000
  0.012200000   -7.217864  165.201233  -85.190265   62.935474    0.000000    0.000000    0.000000    0.000000
  0.012400000   -7.217139  164.946884  -85.374192   61.010693    0.000000    0.000000    0.000000    0.000000
  0.012600000   -7.217061  164.685364  -85.911010   62.446239    0.000000    0.000000    0.000000    0.000000
  0.012800000   -7.221397  164.449844  -86.472359   59.355148    0.000000    0.000000    0.000000    0.000000
  0.013000000   -7.225839  164.215118  -86.194587   59.033817    0.000000    0.000000    0.000000    0.000000
  0.013200000   -7.225749  163.957123  -86.657121   54.645397    0.000000    0.000000    0.000000    0.000000
  0.013400000   -7.228973  163.718307  -86.917668   59.232166    0.000000    0.000000    0.000000    0.000000
  0.013600000   -7.224867  163.491455  -86.610553   61.321480    0.000000    0.000000    0.000000    0.000000
  0.013800000   -7.221671  163.252975  -87.794839   59.398964    0.000000    0.000000    0.000000    0.000000
  0.014000000   -7.225658  163.001846  -86.967636   59.342419    0.000000    0.000000    0.000000    0.000000
  0.014200000   -7.227456  162.740845  -87.608726   60.573193    0.000000    0.000000    0.000000    0.000000
  0.014400000   -7.226958  162.548462  -87.953240   60.336967    0.000000    0.000000    0.000000    0.000000
  0.014600000   -7.227129  162.300888  -87.409948   57.889565    0.000000    0.000000    0.000000    0.000000
  0.014800000   -7.228650  162.046051  -88.090353   60.531857    0.000000    0.000000    0.000000    0.000000
  0.015000000   -7.232551  161.792114  -87.637210   60.546108    0.000000    0.000000    0.000000    0.000000
  0.015200000   -7.230578  161.537186  -87.368690   56.583454    0.000000    0.000000    0.000000    0.000000
  0.015400000   -7.232420  161.301285  -87.788486   56.070507    0.000000    0.000000    0.000000    0.000000
  0.015600000   -7.235667  161.035858  -87.939317   58.371140    0.000000    0.000000    0.000000    0.000000
  0.015800000   -7.235610  160.808945  -88.180458   56.197453    0.000000    0.000000    0.000000    0.000000
  0.016000000   -7.237933  160.572845  -87.898831   51.444717    0.000000    0.000000    0.000000    0.000000
  0.016200000   -7.237037  160.348480  -88.329166   51.979244    0.000000    0.000000    0.000000    0.000000
  0.016400000   -7.239165  160.123230  -88.395735   54.373070    0.000000    0.000000    0.000000    0.000000
  0.016600000   -7.235361  159.897675  -88.053798   49.242496    0.000000    0.000000    0.000000    0.000000
  0.016800000   -7.235968  159.674713  -88.774515   49.446014    0.000000    0.000000    0.000000    0.000000
  0.017000000   -7.240108  159.405487  -88.561794   48.517818    0.000000    0.000000    0.000000    0.000000
  0.017200000   -7.238144  159.172867  -88.454321   49.322647    0.000000    0.000000    0.000000    0.000000
  0.017400000   -7.239199  158.947571  -88.335336   45.768993    0.000000    0.000000    0.000000    0.000000
  0.017600000   -7.239369  158.698975  -89.463665   46.650696    0.000000    0.000000    0.000000    0.000000
  0.017800000   -7.243083  158.461716  -89.421132   40.317478    0.000000    0.000000    0.000000    0.000000
  0.018000000   -7.244486  158.200256  -89.413872   35.655174    0.000000    0.000000    0.000000    0.000000
  0.018200000   -7.244931  157.998154  -89.494846   40.063976    0.000000    0.000000    0.000000    0.000000
  0.018400000   -7.243870  157.758469  -89.664391   38.207806    0.000000    0.000000    0.000000    0.000000
  0.018600000   -7.251426  157.507462  -89.755094   38.776943    0.000000    0.000000    0.000000    0.000000
  0.018800000   -7.249510  157.277908  -90.194601   34.590416    0.000000    0.000000    0.000000    0.000000
  0.019000000   -7.248567  157.040756  -90.246602   35.688168    0.000000    0.000000    0.000000    0.000000
  0.019200000   -7.249405  156.803528  -90.430069   33.972454    0.000000    0.000000    0.000000    0.000000
  0.019400000   -7.248341  156.586365  -90.926860   37.513947    0.000000    0.000000    0.000000    0.000000
  0.019600000   -7.257682  156.321823  -91.330687   40.912106    0.000000    0.000000    0.000000    0.000000
  0.019800000   -7.255468  156.095810  -91.558325   41.357437    0.000000    0.000000    0.000000    0.000000
  0.020000000   -7.254807  155.856949  -91.368653   38.210918    0.000000    0.000000    0.000000    0.000000
  0.020200000   -7.257804  155.619812  -91.065496   31.435431    0.000000    0.000000    0.000000    0.000000
  0.020400000   -7.248854  155.382278  -91.612958   40.418976    0.000000    0.000000    0.000000    0.000000
  0.020600000   -7.250318  155.124466  -91.589978   44.511662    0.000000    0.000000    0.000000    0.000000
  0.020800000   -7.248449  154.884964  -91.797844   35.035255    0.000000    0.000000    0.000000    0.000000
  0.021000000   -7.250498  154.632233  -92.342794   37.573120    0.000000    0.000000    0.000000    0.000000
  0.021200000   -7.247917  154.384003  -92.638384   41.829483    0.000000    0.000000    0.000000    0.000000
  0.021400000   -7.254338  154.142242  -92.667722   38.684582    0.000000    0.000000    0.000000    0.000000
  0.021600000   -7.251499  153.948685  -92.587041   36.730694    0.000000    0.000000    0.000000    0.000000
  0.021800000   -7.250718  153.710693  -92.286935   36.226967    0.000000    0.000000    0.000000    0.000000
  0.022000000   -7.256387  153.458237  -92.170632   38.829578    0.000000    0.000000    0.000000    0.000000
  0.022200000   -7.257352  153.212433  -92.429368   35.705227    0.000000    0.000000    0.000000    0.000000
  0.022400000   -7.255513  152.979767  -91.445055   34.454189    0.000000    0.000000    0.000000    0.000000
  0.022600000   -7.259977  152.759644  -92.672171   41.042900    0.000000    0.000000    0.000000    0.000000
  0.022800000   -7.262923  152.530807  -92.269310   35.744942    0.000000    0.000000    0.000000    0.000000
  0.023000000   -7.263701  152.309601  -92.767998   31.127729    0.000000    0.000000    0.000000    0.000000
  0.023200000   -7.264197  152.085876  -92.550014   28.094429    0.000000    0.000000    0.000000    0.000000
  0.023400000   -7.259520  151.889984  -92.551394   32.289837    0.000000    0.000000    0.000000    0.000000
  0.023600000   -7.261583  151.572296  -92.229984   32.989578    0.000000    0.000000    0.000000    0.000000
  0.023800000   -7.259306  151.342743  -92.212990   26.364017    0.000000    0.000000    0.000000    0.000000
  0.024000000   -7.258653  151.090897  -92.981483   31.071018    0.000000    0.000000    0.000000    0.000000
  0.024200000   -7.260881  150.844513  -93.469143   24.635628    0.000000    0.000000    0.000000    0.000000
  0.024400000   -7.261056  150.606262  -92.787693   35.538055    0.000000    0.000000    0.000000    0.000000
  0.024600000   -7.261238  150.346573  -92.874262   21.059175    0.000000    0.000000    0.000000    0.000000
  0.024800000   -7.258613  150.101273  -93.497441   22.167988    0.000000    0.000000    0.000000    0.000000
  0.025000000   -7.261289  149.858154  -94.338165   24.588617    0.000000    0.000000    0.000000    0.000000
  0.025200000   -7.259165  149.647827  -94.289457   23.483091    0.000000    0.000000    0.000000    0.000000
  0.025400000   -7.260466  149.415833  -93.390612   20.718683    0.000000    0.000000    0.000000    0.000000
  0.025600000   -7.264180  149.204041  -94.285494   25.449186    0.000000    0.000000    0.000000    0.000000
  0.025800000   -7.263727  148.993332  -95.001411   20.252373    0.000000    0.000000    0.000000    0.000000
  0.026000000   -7.267703  148.764008  -94.199042   27.816748    0.000000    0.000000    0.000000    0.000000
  0.026200000   -7.265834  148.521362  -94.808238   20.634325    0.000000    0.000000    0.000000    0.000000
  0.026400000   -7.272172  148.265411  -95.277767   25.688116    0.000000    0.000000    0.000000    0.000000
  0.026600000   -7.271108  148.028427  -95.558219   24.651314    0.000000    0.000000    0.000000    0.000000
  0.026800000   -7.276868  147.771118  -94.794128   20.166397    0.000000    0.000000    0.000000    0.000000
  0.027000000   -7.275381  147.520584  -95.649872   22.753611    0.000000    0.000000    0.000000    0.000000
  0.027200000   -7.273121  147.250687  -96.241397   28.756390    0.000000    0.000000    0.000000    0.000000
  0.027400000   -7.269215  146.984634  -96.482603   17.462627    0.000000    0.000000    0.000000    0.000000
  0.027600000   -7.266874  146.755692  -95.469415   32.656853    0.000000    0.000000    0.000000    0.000000
  0.027800000   -7.263299  146.484116  -95.050776   17.359301    0.000000    0.000000    0.000000    0.000000
  0.028000000   -7.262061  146.248184  -95.989383   16.990686    0.000000    0.000000    0.000000    0.000000
  0.028200000   -7.264705  145.965210  -95.769345   25.278910    0.000000    0.000000    0.000000    0.000000
  0.028400000   -7.261150  145.753006  -94.965665   24.150541    0.000000    0.000000    0.000000    0.000000
  0.028600000   -7.259847  145.578949  -96.376063   24.579355    0.000000    0.000000    0.000000    0.000000
  0.028800000   -7.256919  145.346008  -97.004337   24.418928    0.000000    0.000000    0.000000    0.000000
  0.029000000   -7.253412  145.173355  -95.786163   24.626198    0.000000    0.000000    0.000000    0.000000
  0.029200000   -7.252344  144.993210  -95.687010   25.259035    0.000000    0.000000    0.000000    0.000000
  0.029400000   -7.253292  144.799789  -95.520648   17.130140    0.000000    0.000000    0.000000    0.000000
  0.029600000   -7.253968  144.614761  -96.281476   17.667074    0.000000    0.000000    0.000000    0.000000
  0.029800000   -7.258999  144.385315  -96.922138   19.446466    0.000000    0.000000    0.000000    0.000000
  0.030000000   -7.264122  144.149811  -95.878107    9.628382    0.000000    0.000000    0.000000    0.000000
  0.030200000   -7.263262  143.909668  -96.718668   10.699893    0.000000    0.000000    0.000000    0.000000
  0.030400000   -7.265291  143.679459  -96.160703   10.049300    0.000000    0.000000    0.000000    0.000000
  0.030600000   -7.269659  143.424347  -96.712508   15.789719    0.000000    0.000000    0.000000    0.000000
  0.030800000   -7.268275  143.148773  -96.731117    7.193656    0.000000    0.000000    0.000000    0.000000
  0.031000000   -7.268865  142.915009  -96.829205   12.470578    0.000000    0.000000    0.000000    0.000000
  0.031200000   -7.267206  142.704269  -95.840894   15.363273    0.000000    0.000000    0.000000    0.000000
  0.031400000   -7.270277  142.459244  -98.016694   10.749259    0.000000    0.000000    0.000000    0.000000
  0.031600000   -7.275330  142.182129  -98.885896   18.775486    0.000000    0.000000    0.000000    0.000000
  0.031800000   -7.270285  141.920547  -98.261292   20.583614    0.000000    0.000000    0.000000    0.000000
  0.032000000   -7.271010  141.719833  -96.442232   18.640226    0.000000    0.000000    0.000000    0.000000
  0.032200000   -7.264879  141.463547  -97.561261   18.500286    0.000000    0.000000    0.000000    0.000000
  0.032400000   -7.259637  141.209152  -98.045897   18.691805    0.000000    0.000000    0.000000    0.000000
  0.032600000   -7.258817  141.005859  -98.949361    7.336370    0.000000    0.000000    0.000000    0.000000
  0.032800000   -7.253122  140.777435  -96.853607   12.111593    0.000000    0.000000    0.000000    0.000000
  0.033000000   -7.253600  140.554596  -98.449243    6.726007    0.000000    0.000000    0.000000    0.000000
  0.033200000   -7.255042  140.382675  -98.360847   20.986959    0.000000    0.000000    0.000000    0.000000
  0.033400000   -7.255753  140.151703  -97.712066    8.079593    0.000000    0.000000    0.000000    0.000000
  0.033600000   -7.260136  139.976898  -99.697157   14.995289    0.000000    0.000000    0.000000    0.000000
  0.033800000   -7.266127  139.718842  -99.963043   14.124428    0.000000    0.000000    0.000000    0.000000
  0.034000000   -7.269989  139.437012  -98.603601   12.856194    0.000000    0.000000    0.000000    0.000000
  0.034200000   -7.271608  139.169159  -96.110677   22.783533    0.000000    0.000000    0.000000    0.000000
  0.034400000   -7.273859  138.897354  -98.187129   19.537884    0.000000    0.000000    0.000000    0.000000
  0.034600000   -7.281657  138.642197  -97.794838   21.355522    0.000000    0.000000    0.000000    0.000000
  0.034800000   -7.277165  138.359604  -97.653201   13.493625    0.000000    0.000000    0.000000    0.000000
  0.035000000   -7.283665  138.091629  -97.406651   19.043467    0.000000    0.000000    0.000000    0.000000
  0.035200000   -7.277910  137.856354  -97.749206   12.076042    0.000000    0.000000    0.000000    0.000000
  0.035400000   -7.272893  137.573990  -97.218567   24.010336    0.000000    0.000000    0.000000    0.000000
  0.035600000   -7.267503  137.304993  -98.078415    9.876846    0.000000    0.000000    0.000000    0.000000
  0.035800000   -7.266346  137.084000  -98.447556   11.314866    0.000000    0.000000    0.000000    0.000000
  0.036000000   -7.254351  136.835632  -99.688076    5.349189    0.000000    0.000000    0.000000    0.000000
  0.036200000   -7.250297  136.599792  -98.781024   16.010817    0.000000    0.000000    0.000000    0.000000
  0.036400000   -7.244879  136.429581  -98.665078   20.692657    0.000000    0.000000    0.000000    0.000000
  0.036600000   -7.241138  136.191025  -98.703692   12.107635    0.000000    0.000000    0.000000    0.000000
  0.036800000   -7.234622  135.995819 -100.342171   -2.739772    0.000000    0.000000    0.000000    0.000000
  0.037000000   -7.240852  135.813354 -101.184557   15.840734    0.000000    0.000000    0.000000    0.000000
  0.037200000   -7.240247  135.644135  -99.003310    7.486552    0.000000    0.000000    0.000000    0.000000
  0.037400000   -7.245226  135.395203 -100.097572   17.586187    0.000000    0.000000    0.000000    0.000000
  0.037600000   -7.247377  135.165558  -99.899114    2.210124    0.000000    0.000000    0.000000    0.000000
  0.037800000   -7.248748  134.916840 -102.080950   10.239537    0.000000    0.000000    0.000000    0.000000
  0.038000000   -7.255242  134.675049  -98.976369   17.711010    0.000000    0.000000    0.000000    0.000000
  0.038200000   -7.259622  134.445923 -100.268701    7.985460    0.000000    0.000000    0.000000    0.000000
  0.038400000   -7.261576  134.213318  -99.524025   -8.457707    0.000000    0.000000    0.000000    0.000000
  0.038600000   -7.269002  133.954742  -99.029103    2.943411    0.000000    0.000000    0.000000    0.000000
  0.038800000   -7.269732  133.709030 -101.746580   -4.731513    0.000000    0.000000    0.000000    0.000000
  0.039000000   -7.267299  133.471466 -101.218216   13.410631    0.000000    0.000000    0.000000    0.000000
  0.039200000   -7.268356  133.244614  -98.153826   13.199602    0.000000    0.000000    0.000000    0.000000
  0.039400000   -7.264326  132.972260 -101.164292   14.918246    0.000000    0.000000    0.000000    0.000000
  0.039600000   -7.265512  132.734177 -100.899395   12.343617    0.000000    0.000000    0.000000    0.000000
  0.039800000   -7.258387  132.469879 -102.326027    4.063847    0.000000    0.000000    0.000000    0.000000
  0.040000000   -7.255336  132.221298 -100.595380   10.676000    0.000000    0.000000    0.000000    0.000000
  0.040200000   -7.249794  132.004364 -100.039561   -3.140248    0.000000    0.000000    0.000000    0.000000
  0.040400000   -7.242232  131.790848 -101.875848    7.300213    0.000000    0.000000    0.000000    0.000000
  0.040600000   -7.242114  131.602554 -100.151361   11.817194    0.000000    0.000000    0.000000    0.000000
  0.040800000   -7.245714  131.387543 -100.541423   11.883415    0.000000    0.000000    0.000000    0.000000
  0.041000000   -7.244907  131.202866  -98.912269   14.511496    0.000000    0.000000    0.000000    0.000000
  0.041200000   -7.253546  130.986511  -99.115497    9.403298    0.000000    0.000000    0.000000    0.000000
  0.041400000   -7.262446  130.751251  -97.615676   14.585964    0.000000    0.000000    0.000000    0.000000
  0.041600000   -7.268932  130.495407  -99.382750   -2.038440    0.000000    0.000000    0.000000    0.000000
  0.041800000   -7.274771  130.250885  -99.232111   23.245613    0.000000    0.000000    0.000000    0.000000
  0.042000000   -7.283076  130.007935  -98.805811   10.514401    0.000000    0.000000    0.000000    0.000000
  0.042200000   -7.278440  129.720047 -100.024114    8.580082    0.000000    0.000000    0.000000    0.000000
  0.042400000   -7.280764  129.458740  -99.702322   18.937576    0.000000    0.000000    0.000000    0.000000
  0.042600000   -7.274674  129.215881  -98.944197    7.542339    0.000000    0.000000    0.000000    0.000000
  0.042800000   -7.271128  128.931580  -99.836687    0.761481    0.000000    0.000000    0.000000    0.000000
