! Anritsu VNA Master:                     Model: MS2036C/10/77
! SN:                                  1601066
! /card0/usr/256.ns.n.r200.22.s2p
! Existing Calibration Information:
! TYPE:                         Current Settings,       Active Cal Settings
! TIME:             	   12/19/2017 04:20:10 PM,    12/19/2017 03:58:02 PM
! INTERNAL TEMP:    	                   46.3 C,                    47.0 C
! # POINTS:         	                      501,                       501
! START FREQ:       	               10.000 MHz,                10.000 MHz
! STOP FREQ:        	              110.000 MHz,               110.000 MHz
! SOURCE POWER:     	                     High,                      High
! IFBW:             	                   100 Hz,                    100 Hz
! AVG FACTOR:       	                       1 ,                        1 
! REF PLANE 1:      	                     0 mm,                      0 mm
! REF PLANE 2:      	                     0 mm,                      0 mm
! CAL TYPE:         	                 Full S11,                  Full S11
! CAL METHOD:       	                     SOLT,                      SOLT
! CAL LINE TYPE:    	                     Coax,                      Coax
! DUT PORT 1:       	                N-Conn(F),                 N-Conn(F)
! DUT PORT 2:       	                K-Conn(F),                 K-Conn(F)
! CAL STATUS:       	        OK: Accuracy High,                        --
# GHZ S DB R 50.0
! FREQ.GHZ       S11DB        S11A       S21DB        S21A       S12DB        S12A       S22DB        S22A
  0.010000000   -4.527948  -11.452891  -84.178132   75.619377    0.000000    0.000000    0.000000    0.000000
  0.010200000   -4.516851  -11.648276  -84.874802   76.897919    0.000000    0.000000    0.000000    0.000000
  0.010400000   -4.516466  -11.825416  -84.492704   72.422043    0.000000    0.000000    0.000000    0.000000
  0.010600000   -4.515934  -12.111038  -85.056722   76.426109    0.000000    0.000000    0.000000    0.000000
  0.010800000   -4.518698  -12.320595  -85.098160   74.997986    0.000000    0.000000    0.000000    0.000000
  0.011000000   -4.520278  -12.558444  -84.925104   76.876366    0.000000    0.000000    0.000000    0.000000
  0.011200000   -4.518276  -12.802900  -84.821691   79.005928    0.000000    0.000000    0.000000    0.000000
  0.011400000   -4.518712  -13.031413  -84.906426   73.203049    0.000000    0.000000    0.000000    0.000000
  0.011600000   -4.524351  -13.245363  -84.853484   76.679840    0.000000    0.000000    0.000000    0.000000
  0.011800000   -4.522099  -13.484804  -85.310564   77.126678    0.000000    0.000000    0.000000    0.000000
  0.012000000   -4.523287  -13.707563  -84.883561   68.972519    0.000000    0.000000    0.000000    0.000000
  0.012200000   -4.522470  -13.970542  -85.240959   69.758781    0.000000    0.000000    0.000000    0.000000
  0.012400000   -4.525962  -14.199779  -85.736251   71.261276    0.000000    0.000000    0.000000    0.000000
  0.012600000   -4.527815  -14.428942  -85.237520   70.654869    0.000000    0.000000    0.000000    0.000000
  0.012800000   -4.526565  -14.674623  -85.520486   67.454575    0.000000    0.000000    0.000000    0.000000
  0.013000000   -4.529884  -14.882200  -85.334680   62.290718    0.000000    0.000000    0.000000    0.000000
  0.013200000   -4.529392  -15.130245  -85.714681   64.091766    0.000000    0.000000    0.000000    0.000000
  0.013400000   -4.530690  -15.360173  -85.762940   60.631420    0.000000    0.000000    0.000000    0.000000
  0.013600000   -4.531594  -15.590101  -85.406008   63.077946    0.000000    0.000000    0.000000    0.000000
  0.013800000   -4.527344  -15.844704  -85.727712   59.875282    0.000000    0.000000    0.000000    0.000000
  0.014000000   -4.531351  -16.061953  -85.702847   55.623543    0.000000    0.000000    0.000000    0.000000
  0.014200000   -4.533341  -16.310762  -85.793479   55.861168    0.000000    0.000000    0.000000    0.000000
  0.014400000   -4.532298  -16.558989  -86.234539   52.434715    0.000000    0.000000    0.000000    0.000000
  0.014600000   -4.535159  -16.786098  -86.683962   49.865868    0.000000    0.000000    0.000000    0.000000
  0.014800000   -4.536966  -17.035139  -87.158877   50.768822    0.000000    0.000000    0.000000    0.000000
  0.015000000   -4.536336  -17.258274  -87.319579   50.590462    0.000000    0.000000    0.000000    0.000000
  0.015200000   -4.537920  -17.500120  -88.096638   46.683468    0.000000    0.000000    0.000000    0.000000
  0.015400000   -4.538085  -17.744661  -87.518170   46.662914    0.000000    0.000000    0.000000    0.000000
  0.015600000   -4.540904  -17.960176  -88.110022   44.732239    0.000000    0.000000    0.000000    0.000000
  0.015800000   -4.541641  -18.235886  -88.583820   46.087730    0.000000    0.000000    0.000000    0.000000
  0.016000000   -4.543225  -18.471754  -88.851976   42.495575    0.000000    0.000000    0.000000    0.000000
  0.016200000   -4.542365  -18.693081  -88.789663   42.977268    0.000000    0.000000    0.000000    0.000000
  0.016400000   -4.547038  -18.922871  -89.392568   43.201775    0.000000    0.000000    0.000000    0.000000
  0.016600000   -4.546953  -19.143040  -90.365434   45.203106    0.000000    0.000000    0.000000    0.000000
  0.016800000   -4.545999  -19.403921  -89.345389   45.819740    0.000000    0.000000    0.000000    0.000000
  0.017000000   -4.542634  -19.643570  -90.414891   46.679386    0.000000    0.000000    0.000000    0.000000
  0.017200000   -4.540339  -19.875256  -90.017883   48.363598    0.000000    0.000000    0.000000    0.000000
  0.017400000   -4.540969  -20.099609  -90.923811   41.348957    0.000000    0.000000    0.000000    0.000000
  0.017600000   -4.537122  -20.348509  -90.426961   45.608818    0.000000    0.000000    0.000000    0.000000
  0.017800000   -4.539971  -20.563509  -91.308573   43.305313    0.000000    0.000000    0.000000    0.000000
  0.018000000   -4.535487  -20.800791  -90.771301   41.793819    0.000000    0.000000    0.000000    0.000000
  0.018200000   -4.538246  -21.029978  -89.681831   47.902225    0.000000    0.000000    0.000000    0.000000
  0.018400000   -4.540774  -21.267263  -90.316884   47.194080    0.000000    0.000000    0.000000    0.000000
  0.018600000   -4.547715  -21.490858  -90.559391   45.717243    0.000000    0.000000    0.000000    0.000000
  0.018800000   -4.544662  -21.731264  -90.873034   42.676357    0.000000    0.000000    0.000000    0.000000
  0.019000000   -4.540748  -21.963461  -90.459764   51.321667    0.000000    0.000000    0.000000    0.000000
  0.019200000   -4.543648  -22.182743  -90.209647   49.002354    0.000000    0.000000    0.000000    0.000000
  0.019400000   -4.545943  -22.392080  -90.553568   45.560543    0.000000    0.000000    0.000000    0.000000
  0.019600000   -4.546431  -22.639622  -91.118037   41.144928    0.000000    0.000000    0.000000    0.000000
  0.019800000   -4.546263  -22.870279  -89.871770   40.289742    0.000000    0.000000    0.000000    0.000000
  0.020000000   -4.547117  -23.112505  -91.634679   34.926121    0.000000    0.000000    0.000000    0.000000
  0.020200000   -4.545131  -23.332378  -90.626798   42.720253    0.000000    0.000000    0.000000    0.000000
  0.020400000   -4.545305  -23.561056  -91.345720   42.174507    0.000000    0.000000    0.000000    0.000000
  0.020600000   -4.543805  -23.813690  -91.237509   35.245136    0.000000    0.000000    0.000000    0.000000
  0.020800000   -4.541941  -24.036869  -90.347423   36.425377    0.000000    0.000000    0.000000    0.000000
  0.021000000   -4.541962  -24.279095  -91.484539   31.869261    0.000000    0.000000    0.000000    0.000000
  0.021200000   -4.545374  -24.530388  -91.003384   30.071119    0.000000    0.000000    0.000000    0.000000
  0.021400000   -4.545498  -24.764172  -91.151055   28.747898    0.000000    0.000000    0.000000    0.000000
  0.021600000   -4.544800  -24.994280  -92.404798   26.880548    0.000000    0.000000    0.000000    0.000000
  0.021800000   -4.547959  -25.219872  -92.053591   30.642691    0.000000    0.000000    0.000000    0.000000
  0.022000000   -4.546659  -25.462580  -91.887740   33.804104    0.000000    0.000000    0.000000    0.000000
  0.022200000   -4.547439  -25.676353  -92.699274   24.437063    0.000000    0.000000    0.000000    0.000000
  0.022400000   -4.548739  -25.885872  -92.563271   29.323006    0.000000    0.000000    0.000000    0.000000
  0.022600000   -4.548535  -26.107985  -92.593177   29.898098    0.000000    0.000000    0.000000    0.000000
  0.022800000   -4.549804  -26.325279  -92.811253   21.806360    0.000000    0.000000    0.000000    0.000000
  0.023000000   -4.549782  -26.554798  -92.330963   26.351944    0.000000    0.000000    0.000000    0.000000
  0.023200000   -4.552773  -26.776382  -93.675444   26.062208    0.000000    0.000000    0.000000    0.000000
  0.023400000   -4.551500  -27.010937  -93.097954   27.325228    0.000000    0.000000    0.000000    0.000000
  0.023600000   -4.551826  -27.255810  -94.256104   25.748926    0.000000    0.000000    0.000000    0.000000
  0.023800000   -4.551423  -27.485317  -94.530253   26.000427    0.000000    0.000000    0.000000    0.000000
  0.024000000   -4.548861  -27.727251  -94.853784   29.857065    0.000000    0.000000    0.000000    0.000000
  0.024200000   -4.546122  -27.959215  -94.112282   30.178965    0.000000    0.000000    0.000000    0.000000
  0.024400000   -4.543562  -28.207958  -94.103757   21.470091    0.000000    0.000000    0.000000    0.000000
  0.024600000   -4.545409  -28.428686  -94.563359   25.929865    0.000000    0.000000    0.000000    0.000000
  0.024800000   -4.548262  -28.670124  -94.427947   27.368719    0.000000    0.000000    0.000000    0.000000
  0.025000000   -4.549470  -28.897888  -94.100875   26.002193    0.000000    0.000000    0.000000    0.000000
  0.025200000   -4.548797  -29.128489  -94.170429   36.278915    0.000000    0.000000    0.000000    0.000000
  0.025400000   -4.551245  -29.328648  -94.411752   24.042994    0.000000    0.000000    0.000000    0.000000
  0.025600000   -4.555836  -29.540653  -95.485692   26.596533    0.000000    0.000000    0.000000    0.000000
  0.025800000   -4.556515  -29.723303  -94.006614   20.522470    0.000000    0.000000    0.000000    0.000000
  0.026000000   -4.558395  -29.931761  -94.771915   32.406456    0.000000    0.000000    0.000000    0.000000
  0.026200000   -4.562695  -30.169399  -94.343692   26.791965    0.000000    0.000000    0.000000    0.000000
  0.026400000   -4.565112  -30.388084  -94.594231   26.047302    0.000000    0.000000    0.000000    0.000000
  0.026600000   -4.568419  -30.626400  -95.353110   22.364168    0.000000    0.000000    0.000000    0.000000
  0.026800000   -4.569225  -30.876293  -95.034441   25.481743    0.000000    0.000000    0.000000    0.000000
  0.027000000   -4.571679  -31.124048  -94.494523   17.358046    0.000000    0.000000    0.000000    0.000000
  0.027200000   -4.574514  -31.373894  -94.479718   18.577782    0.000000    0.000000    0.000000    0.000000
  0.027400000   -4.574333  -31.652769  -94.952408   23.189409    0.000000    0.000000    0.000000    0.000000
  0.027600000   -4.576011  -31.896553  -94.376167   19.611233    0.000000    0.000000    0.000000    0.000000
  0.027800000   -4.579932  -32.167931  -94.456275   13.711948    0.000000    0.000000    0.000000    0.000000
  0.028000000   -4.582320  -32.418510  -96.133148   19.754534    0.000000    0.000000    0.000000    0.000000
  0.028200000   -4.582575  -32.677048  -96.366427   20.641773    0.000000    0.000000    0.000000    0.000000
  0.028400000   -4.580598  -32.951694  -95.600379   17.596989    0.000000    0.000000    0.000000    0.000000
  0.028600000   -4.576188  -33.207970  -96.339715   24.256319    0.000000    0.000000    0.000000    0.000000
  0.028800000   -4.574731  -33.425396  -95.667917   11.437641    0.000000    0.000000    0.000000    0.000000
  0.029000000   -4.573421  -33.618313  -96.242082   17.694708    0.000000    0.000000    0.000000    0.000000
  0.029200000   -4.569258  -33.832726  -97.024852   18.360468    0.000000    0.000000    0.000000    0.000000
  0.029400000   -4.571439  -34.016182  -97.248646   12.576358    0.000000    0.000000    0.000000    0.000000
  0.029600000   -4.570764  -34.229179  -96.329710   16.701618    0.000000    0.000000    0.000000    0.000000
  0.029800000   -4.574454  -34.452328  -96.655934   16.390530    0.000000    0.000000    0.000000    0.000000
  0.030000000   -4.579167  -34.665340  -97.422793   12.616671    0.000000    0.000000    0.000000    0.000000
  0.030200000   -4.586370  -34.930500  -96.972482   16.600294    0.000000    0.000000    0.000000    0.000000
  0.030400000   -4.588726  -35.176651  -97.731511   26.778059    0.000000    0.000000    0.000000    0.000000
  0.030600000   -4.589296  -35.445717  -96.374069   25.515133    0.000000    0.000000    0.000000    0.000000
  0.030800000   -4.587609  -35.718296  -96.568592   16.310844    0.000000    0.000000    0.000000    0.000000
  0.031000000   -4.587009  -35.990673  -97.249737    5.449109    0.000000    0.000000    0.000000    0.000000
  0.031200000   -4.578470  -36.211124  -99.484840    4.570428    0.000000    0.000000    0.000000    0.000000
  0.031400000   -4.580488  -36.487518  -96.617209   12.293788    0.000000    0.000000    0.000000    0.000000
  0.031600000   -4.577970  -36.726215  -96.972690   15.166761    0.000000    0.000000    0.000000    0.000000
  0.031800000   -4.576730  -36.960323  -97.978239   15.375847    0.000000    0.000000    0.000000    0.000000
  0.032000000   -4.567090  -37.178364  -97.442884    6.718981    0.000000    0.000000    0.000000    0.000000
  0.032200000   -4.562193  -37.406151  -97.489022   18.354643    0.000000    0.000000    0.000000    0.000000
  0.032400000   -4.554870  -37.615551  -97.800742   17.427444    0.000000    0.000000    0.000000    0.000000
  0.032600000   -4.550843  -37.805904  -98.537398   15.924859    0.000000    0.000000    0.000000    0.000000
  0.032800000   -4.548443  -37.997585  -97.943551   11.924479    0.000000    0.000000    0.000000    0.000000
  0.033000000   -4.543597  -38.191490  -97.110742   10.130426    0.000000    0.000000    0.000000    0.000000
  0.033200000   -4.544389  -38.404663  -96.053502   10.522853    0.000000    0.000000    0.000000    0.000000
  0.033400000   -4.548258  -38.602779  -98.390218   12.382573    0.000000    0.000000    0.000000    0.000000
  0.033600000   -4.553577  -38.801617  -97.610406    6.983571    0.000000    0.000000    0.000000    0.000000
  0.033800000   -4.555057  -39.027443  -99.157668   16.823067    0.000000    0.000000    0.000000    0.000000
  0.034000000   -4.557970  -39.239288  -96.716549   16.959053    0.000000    0.000000    0.000000    0.000000
  0.034200000   -4.560297  -39.501808  -98.922221    4.009514    0.000000    0.000000    0.000000    0.000000
  0.034400000   -4.566729  -39.719540  -98.308622   12.805616    0.000000    0.000000    0.000000    0.000000
  0.034600000   -4.571776  -39.963253  -97.598325    9.243403    0.000000    0.000000    0.000000    0.000000
  0.034800000   -4.575314  -40.203377  -99.065584    4.397582    0.000000    0.000000    0.000000    0.000000
  0.035000000   -4.584150  -40.473076  -97.019532   21.272316    0.000000    0.000000    0.000000    0.000000
  0.035200000   -4.585439  -40.706501  -98.030618   10.883750    0.000000    0.000000    0.000000    0.000000
  0.035400000   -4.590764  -40.976406  -98.786463   -3.441996    0.000000    0.000000    0.000000    0.000000
  0.035600000   -4.589092  -41.220726  -99.210898    6.371045    0.000000    0.000000    0.000000    0.000000
  0.035800000   -4.594219  -41.463219  -97.440665    8.367341    0.000000    0.000000    0.000000    0.000000
  0.036000000   -4.590740  -41.732880  -97.176449    0.323732    0.000000    0.000000    0.000000    0.000000
  0.036200000   -4.588083  -41.995777 -100.335121   -0.643256    0.000000    0.000000    0.000000    0.000000
  0.036400000   -4.588501  -42.257687  -98.404233   18.408155    0.000000    0.000000    0.000000    0.000000
  0.036600000   -4.584140  -42.502232  -99.637310   13.154804    0.000000    0.000000    0.000000    0.000000
  0.036800000   -4.576439  -42.750240  -99.474847    9.128930    0.000000    0.000000    0.000000    0.000000
  0.037000000   -4.572422  -42.945717  -97.889046    7.833912    0.000000    0.000000    0.000000    0.000000
  0.037200000   -4.571009  -43.157860  -99.381768    6.050135    0.000000    0.000000    0.000000    0.000000
  0.037400000   -4.575235  -43.354435 -101.036923   26.365801    0.000000    0.000000    0.000000    0.000000
  0.037600000   -4.580661  -43.581337 -100.571486   20.477057    0.000000    0.000000    0.000000    0.000000
  0.037800000   -4.588062  -43.802872  -98.724449   11.216940    0.000000    0.000000    0.000000    0.000000
  0.038000000   -4.594846  -44.077652 -100.539297    2.520555    0.000000    0.000000    0.000000    0.000000
  0.038200000   -4.598885  -44.326351 -101.059218   11.856149    0.000000    0.000000    0.000000    0.000000
  0.038400000   -4.604519  -44.597363  -98.606798   15.547661    0.000000    0.000000    0.000000    0.000000
  0.038600000   -4.608526  -44.854889 -100.940255   -0.325282    0.000000    0.000000    0.000000    0.000000
  0.038800000   -4.607714  -45.136280  -99.275376   16.477909    0.000000    0.000000    0.000000    0.000000
  0.039000000   -4.605347  -45.398891  -99.302446    2.105756    0.000000    0.000000    0.000000    0.000000
  0.039200000   -4.604839  -45.657726  -97.942447    0.482092    0.000000    0.000000    0.000000    0.000000
  0.039400000   -4.600544  -45.916416  -98.379376   -2.383289    0.000000    0.000000    0.000000    0.000000
  0.039600000   -4.596976  -46.173180 -100.562504   -4.752714    0.000000    0.000000    0.000000    0.000000
  0.039800000   -4.588058  -46.406948 -101.066491   -1.846680    0.000000    0.000000    0.000000    0.000000
  0.040000000   -4.582865  -46.652782 -101.676594    8.886374    0.000000    0.000000    0.000000    0.000000
  0.040200000   -4.577789  -46.840904  -98.517838   -3.405103    0.000000    0.000000    0.000000    0.000000
  0.040400000   -4.574820  -47.055332  -99.101608    3.746056    0.000000    0.000000    0.000000    0.000000
  0.040600000   -4.571197  -47.249367 -100.130935   -3.320416    0.000000    0.000000    0.000000    0.000000
  0.040800000   -4.570312  -47.427494  -98.864683    8.822943    0.000000    0.000000    0.000000    0.000000
  0.041000000   -4.572309  -47.614780 -102.957396    7.321683    0.000000    0.000000    0.000000    0.000000
  0.041200000   -4.575307  -47.842487 -101.981004  -10.758739    0.000000    0.000000    0.000000    0.000000
  0.041400000   -4.580217  -48.046455 -100.546509   20.377745    0.000000    0.000000    0.000000    0.000000
  0.041600000   -4.585622  -48.266640 -102.416733    5.538561    0.000000    0.000000    0.000000    0.000000
  0.041800000   -4.588518  -48.512291 -103.035716   15.079861    0.000000    0.000000    0.000000    0.000000
  0.042000000   -4.596553  -48.750477 -102.582648   20.373026    0.000000    0.000000    0.000000    0.000000
  0.042200000   -4.594835  -48.971649  -99.788417   10.965536    0.000000    0.000000    0.000000    0.000000
  0.042400000   -4.598813  -49.175339 -102.000454    2.086804    0.000000    0.000000    0.000000    0.000000
  0.042600000   -4.602534  -49.434017 -102.105213    3.924846    0.000000    0.000000    0.000000    0.000000
  0.042800000   -4.600075  -49.655556 -103.358289   11.445946    0.000000    0.000000    0.000000    0.000000
