! Anritsu VNA Master:                     Model: MS2036C/10/77
! SN:                                  1601066
! /card0/usr/256.ns.n.r50.11.s2p
! Existing Calibration Information:
! TYPE:                         Current Settings,       Active Cal Settings
! TIME:             	   12/19/2017 04:02:54 PM,    12/19/2017 03:58:02 PM
! INTERNAL TEMP:    	                   47.0 C,                    47.0 C
! # POINTS:         	                      501,                       501
! START FREQ:       	               10.000 MHz,                10.000 MHz
! STOP FREQ:        	              110.000 MHz,               110.000 MHz
! SOURCE POWER:     	                     High,                      High
! IFBW:             	                   100 Hz,                    100 Hz
! AVG FACTOR:       	                       1 ,                        1 
! REF PLANE 1:      	                     0 mm,                      0 mm
! REF PLANE 2:      	                     0 mm,                      0 mm
! CAL TYPE:         	                 Full S11,                  Full S11
! CAL METHOD:       	                     SOLT,                      SOLT
! CAL LINE TYPE:    	                     Coax,                      Coax
! DUT PORT 1:       	                N-Conn(F),                 N-Conn(F)
! DUT PORT 2:       	                K-Conn(F),                 K-Conn(F)
! CAL STATUS:       	        OK: Accuracy High,                        --
# GHZ S DB R 50.0
! FREQ.GHZ       S11DB        S11A       S21DB        S21A       S12DB        S12A       S22DB        S22A
  0.010000000  -43.576014   59.748856  -83.544200   75.665344    0.000000    0.000000    0.000000    0.000000
  0.010200000  -43.640290   60.105869  -83.586499   78.173233    0.000000    0.000000    0.000000    0.000000
  0.010400000  -43.567448   61.981056  -82.971215   77.010414    0.000000    0.000000    0.000000    0.000000
  0.010600000  -43.649252   59.467731  -83.581001   72.540230    0.000000    0.000000    0.000000    0.000000
  0.010800000  -43.556178   60.542286  -84.170358   70.313065    0.000000    0.000000    0.000000    0.000000
  0.011000000  -43.458521   60.476536  -84.331768   72.152756    0.000000    0.000000    0.000000    0.000000
  0.011200000  -43.116546   59.972538  -84.420106   70.643150    0.000000    0.000000    0.000000    0.000000
  0.011400000  -43.075286   59.574802  -84.803392   69.296707    0.000000    0.000000    0.000000    0.000000
  0.011600000  -42.951450   60.875584  -84.863266   70.072746    0.000000    0.000000    0.000000    0.000000
  0.011800000  -43.031354   61.499474  -84.714247   66.467712    0.000000    0.000000    0.000000    0.000000
  0.012000000  -42.720610   58.963425  -85.134992   67.789589    0.000000    0.000000    0.000000    0.000000
  0.012200000  -42.668013   59.652203  -85.696187   63.882870    0.000000    0.000000    0.000000    0.000000
  0.012400000  -42.710215   59.448696  -85.422904   62.780113    0.000000    0.000000    0.000000    0.000000
  0.012600000  -42.526659   59.594570  -85.394204   64.804436    0.000000    0.000000    0.000000    0.000000
  0.012800000  -42.526015   59.177750  -85.363595   60.529388    0.000000    0.000000    0.000000    0.000000
  0.013000000  -42.244277   58.506935  -85.682937   61.417664    0.000000    0.000000    0.000000    0.000000
  0.013200000  -42.104644   57.011791  -85.992196   61.951176    0.000000    0.000000    0.000000    0.000000
  0.013400000  -41.977140   57.746517  -86.056776   58.223122    0.000000    0.000000    0.000000    0.000000
  0.013600000  -41.872816   58.062317  -86.146137   57.067898    0.000000    0.000000    0.000000    0.000000
  0.013800000  -41.965109   57.055698  -87.164284   60.361332    0.000000    0.000000    0.000000    0.000000
  0.014000000  -41.667743   57.731949  -86.743627   57.322102    0.000000    0.000000    0.000000    0.000000
  0.014200000  -41.620295   56.963665  -86.905546   56.130814    0.000000    0.000000    0.000000    0.000000
  0.014400000  -41.508564   56.493576  -86.684095   52.501038    0.000000    0.000000    0.000000    0.000000
  0.014600000  -41.509396   57.768154  -87.204325   52.384327    0.000000    0.000000    0.000000    0.000000
  0.014800000  -41.288915   58.803238  -88.106650   53.333324    0.000000    0.000000    0.000000    0.000000
  0.015000000  -41.235698   57.428703  -87.733036   53.933266    0.000000    0.000000    0.000000    0.000000
  0.015200000  -41.234066   56.866814  -87.490867   51.274609    0.000000    0.000000    0.000000    0.000000
  0.015400000  -40.958582   57.506271  -87.812315   52.212746    0.000000    0.000000    0.000000    0.000000
  0.015600000  -40.830122   57.433498  -88.064609   49.586109    0.000000    0.000000    0.000000    0.000000
  0.015800000  -40.872576   58.000053  -88.591155   51.651764    0.000000    0.000000    0.000000    0.000000
  0.016000000  -40.826499   57.609573  -88.522434   50.377541    0.000000    0.000000    0.000000    0.000000
  0.016200000  -40.703122   56.629929  -88.724448   51.615440    0.000000    0.000000    0.000000    0.000000
  0.016400000  -40.592480   57.448380  -89.240363   48.308556    0.000000    0.000000    0.000000    0.000000
  0.016600000  -40.541762   58.161835  -88.836563   49.202957    0.000000    0.000000    0.000000    0.000000
  0.016800000  -40.402892   56.971519  -89.184472   45.406242    0.000000    0.000000    0.000000    0.000000
  0.017000000  -40.437218   57.563217  -88.797549   45.388767    0.000000    0.000000    0.000000    0.000000
  0.017200000  -40.384755   57.529503  -89.271087   46.506775    0.000000    0.000000    0.000000    0.000000
  0.017400000  -40.260706   58.245926  -89.246783   44.420719    0.000000    0.000000    0.000000    0.000000
  0.017600000  -40.172452   57.263676  -89.543453   46.749599    0.000000    0.000000    0.000000    0.000000
  0.017800000  -40.052340   58.140358  -90.112690   45.572254    0.000000    0.000000    0.000000    0.000000
  0.018000000  -40.048863   57.839893  -90.469370   40.584808    0.000000    0.000000    0.000000    0.000000
  0.018200000  -40.002855   57.041817  -89.910232   39.101376    0.000000    0.000000    0.000000    0.000000
  0.018400000  -40.079544   57.813221  -89.837633   39.199432    0.000000    0.000000    0.000000    0.000000
  0.018600000  -39.953728   57.575558  -90.247171   44.889801    0.000000    0.000000    0.000000    0.000000
  0.018800000  -39.799325   57.351952  -89.977515   37.322018    0.000000    0.000000    0.000000    0.000000
  0.019000000  -39.817170   56.886456  -90.486311   43.929661    0.000000    0.000000    0.000000    0.000000
  0.019200000  -39.801042   57.019257  -90.092119   40.932236    0.000000    0.000000    0.000000    0.000000
  0.019400000  -39.716276   56.681335  -91.030912   38.703846    0.000000    0.000000    0.000000    0.000000
  0.019600000  -39.624670   56.747253  -90.869447   40.177029    0.000000    0.000000    0.000000    0.000000
  0.019800000  -39.568322   56.473824  -90.324701   36.439739    0.000000    0.000000    0.000000    0.000000
  0.020000000  -39.522802   57.081661  -91.049260   39.395580    0.000000    0.000000    0.000000    0.000000
  0.020200000  -39.539429   56.070328  -91.412311   40.124371    0.000000    0.000000    0.000000    0.000000
  0.020400000  -39.389163   56.179989  -91.311941   36.456238    0.000000    0.000000    0.000000    0.000000
  0.020600000  -39.494855   56.926601  -91.422452   43.136032    0.000000    0.000000    0.000000    0.000000
  0.020800000  -39.375313   56.893394  -92.085451   38.733559    0.000000    0.000000    0.000000    0.000000
  0.021000000  -39.302347   55.586895  -91.802607   32.243439    0.000000    0.000000    0.000000    0.000000
  0.021200000  -39.301926   55.928596  -92.383223   35.994263    0.000000    0.000000    0.000000    0.000000
  0.021400000  -39.246627   54.814442  -92.573221   31.621294    0.000000    0.000000    0.000000    0.000000
  0.021600000  -39.221410   55.249638  -93.048023   31.723343    0.000000    0.000000    0.000000    0.000000
  0.021800000  -39.135800   55.199837  -92.345631   29.537943    0.000000    0.000000    0.000000    0.000000
  0.022000000  -38.985498   55.094280  -92.462396   29.391523    0.000000    0.000000    0.000000    0.000000
  0.022200000  -39.014869   54.660877  -92.258965   35.411930    0.000000    0.000000    0.000000    0.000000
  0.022400000  -38.830561   54.529793  -92.326723   32.974113    0.000000    0.000000    0.000000    0.000000
  0.022600000  -38.831807   54.444740  -91.456804   26.057940    0.000000    0.000000    0.000000    0.000000
  0.022800000  -38.673725   53.601746  -93.160322   32.293583    0.000000    0.000000    0.000000    0.000000
  0.023000000  -38.752050   53.490711  -92.974981   35.193642    0.000000    0.000000    0.000000    0.000000
  0.023200000  -38.543614   52.884949  -92.648559   31.182945    0.000000    0.000000    0.000000    0.000000
  0.023400000  -38.636244   52.562260  -93.116043   27.657793    0.000000    0.000000    0.000000    0.000000
  0.023600000  -38.430442   51.948166  -93.159694   26.704317    0.000000    0.000000    0.000000    0.000000
  0.023800000  -38.243142   52.734749  -93.048464   28.151737    0.000000    0.000000    0.000000    0.000000
  0.024000000  -38.308994   53.172264  -93.235912   25.787668    0.000000    0.000000    0.000000    0.000000
  0.024200000  -38.160884   52.760452  -93.278903   24.098976    0.000000    0.000000    0.000000    0.000000
  0.024400000  -38.187760   52.259232  -93.509194   20.856747    0.000000    0.000000    0.000000    0.000000
  0.024600000  -37.952252   52.556675  -95.667141   20.856585    0.000000    0.000000    0.000000    0.000000
  0.024800000  -37.950508   52.320480  -94.975284   34.699886    0.000000    0.000000    0.000000    0.000000
  0.025000000  -37.944192   52.240730  -95.264672   26.293114    0.000000    0.000000    0.000000    0.000000
  0.025200000  -37.951614   52.046368  -94.433059   19.919132    0.000000    0.000000    0.000000    0.000000
  0.025400000  -37.801462   52.276596  -93.655995   22.422281    0.000000    0.000000    0.000000    0.000000
  0.025600000  -37.772327   52.300297  -94.231106   29.916639    0.000000    0.000000    0.000000    0.000000
  0.025800000  -37.555151   51.845886  -95.285839   25.833546    0.000000    0.000000    0.000000    0.000000
  0.026000000  -37.558798   52.139347  -93.700005   20.767111    0.000000    0.000000    0.000000    0.000000
  0.026200000  -37.501386   52.551922  -94.320894   20.714285    0.000000    0.000000    0.000000    0.000000
  0.026400000  -37.495377   52.348106  -94.573373   25.819677    0.000000    0.000000    0.000000    0.000000
  0.026600000  -37.435385   52.324982  -96.537308   19.687943    0.000000    0.000000    0.000000    0.000000
  0.026800000  -37.394508   52.321087  -94.219009   27.027641    0.000000    0.000000    0.000000    0.000000
  0.027000000  -37.331106   52.188469  -95.068983   23.160391    0.000000    0.000000    0.000000    0.000000
  0.027200000  -37.273539   52.544052  -94.994207   19.767199    0.000000    0.000000    0.000000    0.000000
  0.027400000  -37.235129   52.040142  -95.526242   24.706230    0.000000    0.000000    0.000000    0.000000
  0.027600000  -37.177981   52.043152  -95.880955   23.299746    0.000000    0.000000    0.000000    0.000000
  0.027800000  -37.264365   52.020592  -95.121491   22.856459    0.000000    0.000000    0.000000    0.000000
  0.028000000  -37.121483   51.960922  -96.350896   24.374474    0.000000    0.000000    0.000000    0.000000
  0.028200000  -37.074598   52.232124  -96.278016   25.386097    0.000000    0.000000    0.000000    0.000000
  0.028400000  -37.003029   52.089943  -95.189554   29.860125    0.000000    0.000000    0.000000    0.000000
  0.028600000  -36.940260   52.690628  -97.007275   20.922077    0.000000    0.000000    0.000000    0.000000
  0.028800000  -37.003765   51.962296  -96.356509   26.763617    0.000000    0.000000    0.000000    0.000000
  0.029000000  -36.932791   51.686581  -96.621768   20.766895    0.000000    0.000000    0.000000    0.000000
  0.029200000  -36.982007   52.116989  -96.600493   16.775719    0.000000    0.000000    0.000000    0.000000
  0.029400000  -36.834650   52.065506  -95.847193   16.257828    0.000000    0.000000    0.000000    0.000000
  0.029600000  -36.869570   51.159874  -97.124662    7.448461    0.000000    0.000000    0.000000    0.000000
  0.029800000  -36.878474   51.433300  -97.114511   13.818514    0.000000    0.000000    0.000000    0.000000
  0.030000000  -36.820194   51.859089  -97.332596   18.141912    0.000000    0.000000    0.000000    0.000000
  0.030200000  -36.771559   51.710999  -97.286077   18.199396    0.000000    0.000000    0.000000    0.000000
  0.030400000  -36.740890   51.552685  -96.034150   22.567684    0.000000    0.000000    0.000000    0.000000
  0.030600000  -36.705000   50.904701  -97.313223   15.682044    0.000000    0.000000    0.000000    0.000000
  0.030800000  -36.709737   50.599525  -96.894351   18.556181    0.000000    0.000000    0.000000    0.000000
  0.031000000  -36.647438   50.117001  -97.070397   18.547619    0.000000    0.000000    0.000000    0.000000
  0.031200000  -36.594961   50.184029  -96.864990   15.472626    0.000000    0.000000    0.000000    0.000000
  0.031400000  -36.601308   50.085533  -96.900442   16.208334    0.000000    0.000000    0.000000    0.000000
  0.031600000  -36.547503   49.760296  -97.257386   17.267380    0.000000    0.000000    0.000000    0.000000
  0.031800000  -36.445409   50.475998  -97.766295   14.124526    0.000000    0.000000    0.000000    0.000000
  0.032000000  -36.411034   49.513432  -95.510829   16.949404    0.000000    0.000000    0.000000    0.000000
  0.032200000  -36.398174   50.132721  -97.529189   10.036304    0.000000    0.000000    0.000000    0.000000
  0.032400000  -36.413533   48.603928  -98.802325   15.245737    0.000000    0.000000    0.000000    0.000000
  0.032600000  -36.319525   49.338921  -98.112265   19.231062    0.000000    0.000000    0.000000    0.000000
  0.032800000  -36.239171   49.903908  -98.219628   22.352510    0.000000    0.000000    0.000000    0.000000
  0.033000000  -36.159396   48.981274  -97.500147    8.068032    0.000000    0.000000    0.000000    0.000000
  0.033200000  -36.203619   48.978020  -98.357091    7.379858    0.000000    0.000000    0.000000    0.000000
  0.033400000  -35.993109   49.232151  -97.631856   20.238571    0.000000    0.000000    0.000000    0.000000
  0.033600000  -36.092734   48.807579  -98.554011   16.363731    0.000000    0.000000    0.000000    0.000000
  0.033800000  -36.038677   48.839767  -98.573155   10.616669    0.000000    0.000000    0.000000    0.000000
  0.034000000  -36.017916   48.796696  -98.034169    9.971523    0.000000    0.000000    0.000000    0.000000
  0.034200000  -35.903136   48.302036  -97.340952    9.806485    0.000000    0.000000    0.000000    0.000000
  0.034400000  -35.821632   48.578491  -98.546967    8.344065    0.000000    0.000000    0.000000    0.000000
  0.034600000  -35.694477   48.334316  -96.947796   -5.246209    0.000000    0.000000    0.000000    0.000000
  0.034800000  -35.717656   47.774029  -98.998708    9.035645    0.000000    0.000000    0.000000    0.000000
  0.035000000  -35.697860   48.104660  -97.277948    1.121317    0.000000    0.000000    0.000000    0.000000
  0.035200000  -35.642218   47.688133  -96.763025   11.009510    0.000000    0.000000    0.000000    0.000000
  0.035400000  -35.652442   48.587872 -101.554103   14.610839    0.000000    0.000000    0.000000    0.000000
  0.035600000  -35.558510   47.761326  -98.606243    4.458901    0.000000    0.000000    0.000000    0.000000
  0.035800000  -35.530400   48.240322  -97.663750   18.797440    0.000000    0.000000    0.000000    0.000000
  0.036000000  -35.534873   48.271843  -98.361395   16.743780    0.000000    0.000000    0.000000    0.000000
  0.036200000  -35.441385   49.155331  -98.524636   -1.384585    0.000000    0.000000    0.000000    0.000000
  0.036400000  -35.424552   48.787308  -98.814081   12.667960    0.000000    0.000000    0.000000    0.000000
  0.036600000  -35.400265   49.355526  -98.890681    4.191603    0.000000    0.000000    0.000000    0.000000
  0.036800000  -35.423523   48.773914  -98.230182    8.617653    0.000000    0.000000    0.000000    0.000000
  0.037000000  -35.402921   48.199276  -98.330118   15.096362    0.000000    0.000000    0.000000    0.000000
  0.037200000  -35.364695   48.217339  -99.561689   -1.797068    0.000000    0.000000    0.000000    0.000000
  0.037400000  -35.326675   48.222466 -100.062120    4.381491    0.000000    0.000000    0.000000    0.000000
  0.037600000  -35.375817   48.694565  -98.929194   10.574845    0.000000    0.000000    0.000000    0.000000
  0.037800000  -35.357525   48.199699 -101.244424    5.872525    0.000000    0.000000    0.000000    0.000000
  0.038000000  -35.432763   48.493835  -99.244115    5.339337    0.000000    0.000000    0.000000    0.000000
  0.038200000  -35.338142   47.759209 -100.344512   17.403126    0.000000    0.000000    0.000000    0.000000
  0.038400000  -35.315248   48.600914 -100.114428    3.232677    0.000000    0.000000    0.000000    0.000000
  0.038600000  -35.360557   47.650085 -101.204431    8.541531    0.000000    0.000000    0.000000    0.000000
  0.038800000  -35.420197   47.365097 -100.105814   -0.717890    0.000000    0.000000    0.000000    0.000000
  0.039000000  -35.409654   47.673489 -100.909524    4.745443    0.000000    0.000000    0.000000    0.000000
  0.039200000  -35.204179   46.083733  -99.210125    2.049817    0.000000    0.000000    0.000000    0.000000
  0.039400000  -35.327363   47.201672 -101.519016   -4.805393    0.000000    0.000000    0.000000    0.000000
  0.039600000  -35.289867   47.285770 -100.331897   -4.617299    0.000000    0.000000    0.000000    0.000000
  0.039800000  -35.209617   46.762867  -99.445873   12.200834    0.000000    0.000000    0.000000    0.000000
  0.040000000  -35.302870   46.448895 -100.544214    0.731324    0.000000    0.000000    0.000000    0.000000
  0.040200000  -35.213585   46.098217  -98.589022   21.685009    0.000000    0.000000    0.000000    0.000000
  0.040400000  -35.141179   45.782936  -98.513804   -7.051327    0.000000    0.000000    0.000000    0.000000
  0.040600000  -35.169379   45.952534  -98.170990   17.001255    0.000000    0.000000    0.000000    0.000000
  0.040800000  -35.210236   45.648197 -101.493259  -10.039789    0.000000    0.000000    0.000000    0.000000
  0.041000000  -35.069550   44.835564 -101.335055   18.348236    0.000000    0.000000    0.000000    0.000000
  0.041200000  -35.122208   44.597263  -98.806098    9.205802    0.000000    0.000000    0.000000    0.000000
  0.041400000  -35.060078   44.108707  -99.162747    7.677351    0.000000    0.000000    0.000000    0.000000
  0.041600000  -35.026383   44.071022 -100.328190   28.177732    0.000000    0.000000    0.000000    0.000000
  0.041800000  -34.941816   43.763363 -101.332417  -14.124957    0.000000    0.000000    0.000000    0.000000
  0.042000000  -34.981096   43.643604 -101.578358   -0.263339    0.000000    0.000000    0.000000    0.000000
  0.042200000  -34.836484   42.957169 -100.922827    7.399253    0.000000    0.000000    0.000000    0.000000
  0.042400000  -34.746607   42.546608  -99.173343   14.234559    0.000000    0.000000    0.000000    0.000000
  0.042600000  -34.718705   42.846523 -100.479804    8.380213    0.000000    0.000000    0.000000    0.000000
  0.042800000  -34.697587   42.561520 -100.395361   23.206745    0.000000    0.000000    0.000000    0.000000
