! Anritsu VNA Master:                     Model: MS2036C/10/77
! SN:                                  1601066
! /card0/usr/256.ns.n.r50.21.s2p
! Existing Calibration Information:
! TYPE:                         Current Settings,       Active Cal Settings
! TIME:             	   12/19/2017 04:14:35 PM,    12/19/2017 03:58:02 PM
! INTERNAL TEMP:    	                   46.5 C,                    47.0 C
! # POINTS:         	                      501,                       501
! START FREQ:       	               10.000 MHz,                10.000 MHz
! STOP FREQ:        	              110.000 MHz,               110.000 MHz
! SOURCE POWER:     	                     High,                      High
! IFBW:             	                   100 Hz,                    100 Hz
! AVG FACTOR:       	                       1 ,                        1 
! REF PLANE 1:      	                     0 mm,                      0 mm
! REF PLANE 2:      	                     0 mm,                      0 mm
! CAL TYPE:         	                 Full S11,                  Full S11
! CAL METHOD:       	                     SOLT,                      SOLT
! CAL LINE TYPE:    	                     Coax,                      Coax
! DUT PORT 1:       	                N-Conn(F),                 N-Conn(F)
! DUT PORT 2:       	                K-Conn(F),                 K-Conn(F)
! CAL STATUS:       	        OK: Accuracy High,                        --
# GHZ S DB R 50.0
! FREQ.GHZ       S11DB        S11A       S21DB        S21A       S12DB        S12A       S22DB        S22A
  0.010000000  -43.714635   58.005367  -83.348895   76.550224    0.000000    0.000000    0.000000    0.000000
  0.010200000  -43.994664   57.546635  -83.105493   77.228134    0.000000    0.000000    0.000000    0.000000
  0.010400000  -43.452634   60.185925  -83.590336   76.220604    0.000000    0.000000    0.000000    0.000000
  0.010600000  -43.575056   57.763649  -84.240463   73.740105    0.000000    0.000000    0.000000    0.000000
  0.010800000  -43.506035   57.425671  -84.176937   73.851715    0.000000    0.000000    0.000000    0.000000
  0.011000000  -43.227615   57.146801  -83.761922   72.990059    0.000000    0.000000    0.000000    0.000000
  0.011200000  -42.897279   57.861359  -84.101688   69.144707    0.000000    0.000000    0.000000    0.000000
  0.011400000  -42.907237   58.262032  -84.186329   69.988754    0.000000    0.000000    0.000000    0.000000
  0.011600000  -42.737552   57.376335  -84.252889   67.771667    0.000000    0.000000    0.000000    0.000000
  0.011800000  -42.707516   59.634121  -84.770433   68.600388    0.000000    0.000000    0.000000    0.000000
  0.012000000  -42.427814   58.098293  -85.095282   65.181946    0.000000    0.000000    0.000000    0.000000
  0.012200000  -42.517544   57.994629  -84.741094   65.878288    0.000000    0.000000    0.000000    0.000000
  0.012400000  -42.289183   57.951565  -85.650427   64.885483    0.000000    0.000000    0.000000    0.000000
  0.012600000  -42.313136   59.101765  -85.790035   63.387638    0.000000    0.000000    0.000000    0.000000
  0.012800000  -42.331307   57.351822  -85.509801   58.583038    0.000000    0.000000    0.000000    0.000000
  0.013000000  -41.947006   58.044533  -85.758165   61.739193    0.000000    0.000000    0.000000    0.000000
  0.013200000  -42.155795   56.560436  -85.882890   60.235085    0.000000    0.000000    0.000000    0.000000
  0.013400000  -41.808130   57.803822  -86.506702   58.512386    0.000000    0.000000    0.000000    0.000000
  0.013600000  -41.810455   58.455696  -86.154502   62.562622    0.000000    0.000000    0.000000    0.000000
  0.013800000  -42.001677   57.327023  -87.394775   58.897198    0.000000    0.000000    0.000000    0.000000
  0.014000000  -41.698063   58.442657  -86.641700   61.267944    0.000000    0.000000    0.000000    0.000000
  0.014200000  -41.600744   57.260197  -86.688444   57.608788    0.000000    0.000000    0.000000    0.000000
  0.014400000  -41.633388   57.019371  -87.057414   54.581409    0.000000    0.000000    0.000000    0.000000
  0.014600000  -41.644007   57.139790  -86.990520   54.770050    0.000000    0.000000    0.000000    0.000000
  0.014800000  -41.490898   57.626888  -87.610180   54.090374    0.000000    0.000000    0.000000    0.000000
  0.015000000  -41.203711   56.635456  -87.495179   54.651043    0.000000    0.000000    0.000000    0.000000
  0.015200000  -41.315705   56.772572  -87.923340   55.503517    0.000000    0.000000    0.000000    0.000000
  0.015400000  -41.120922   57.069473  -87.844314   49.832867    0.000000    0.000000    0.000000    0.000000
  0.015600000  -41.012945   56.671066  -88.366856   53.270863    0.000000    0.000000    0.000000    0.000000
  0.015800000  -41.028615   56.817890  -88.256453   48.963871    0.000000    0.000000    0.000000    0.000000
  0.016000000  -40.916756   56.573380  -88.229003   51.221714    0.000000    0.000000    0.000000    0.000000
  0.016200000  -40.854653   55.370449  -88.564390   51.525169    0.000000    0.000000    0.000000    0.000000
  0.016400000  -40.656572   55.354588  -89.128960   48.103268    0.000000    0.000000    0.000000    0.000000
  0.016600000  -40.628588   56.391201  -88.792376   48.983871    0.000000    0.000000    0.000000    0.000000
  0.016800000  -40.594977   55.685982  -89.117661   47.140682    0.000000    0.000000    0.000000    0.000000
  0.017000000  -40.672326   56.448631  -89.456379   46.874218    0.000000    0.000000    0.000000    0.000000
  0.017200000  -40.381021   55.537327  -88.825426   43.589985    0.000000    0.000000    0.000000    0.000000
  0.017400000  -40.425400   56.219395  -89.681529   44.789551    0.000000    0.000000    0.000000    0.000000
  0.017600000  -40.321228   56.339760  -89.151894   49.485561    0.000000    0.000000    0.000000    0.000000
  0.017800000  -40.198094   56.001347  -90.009377   45.630772    0.000000    0.000000    0.000000    0.000000
  0.018000000  -40.128424   55.574005  -89.838640   43.301121    0.000000    0.000000    0.000000    0.000000
  0.018200000  -40.153733   54.685993  -90.783934   43.125229    0.000000    0.000000    0.000000    0.000000
  0.018400000  -40.116492   55.150303  -90.196620   42.133911    0.000000    0.000000    0.000000    0.000000
  0.018600000  -39.947811   56.396618  -90.682325   39.645645    0.000000    0.000000    0.000000    0.000000
  0.018800000  -39.998168   55.684391  -90.589754   39.942822    0.000000    0.000000    0.000000    0.000000
  0.019000000  -39.879574   55.397976  -90.360997   43.596340    0.000000    0.000000    0.000000    0.000000
  0.019200000  -39.875176   55.756382  -90.751818   40.160046    0.000000    0.000000    0.000000    0.000000
  0.019400000  -39.795274   55.025696  -91.042880   38.988922    0.000000    0.000000    0.000000    0.000000
  0.019600000  -39.758451   54.996326  -91.050795   34.355679    0.000000    0.000000    0.000000    0.000000
  0.019800000  -39.757520   54.165352  -91.196292   37.630272    0.000000    0.000000    0.000000    0.000000
  0.020000000  -39.720638   55.244160  -91.463074   37.186390    0.000000    0.000000    0.000000    0.000000
  0.020200000  -39.624047   54.421959  -91.894603   37.313118    0.000000    0.000000    0.000000    0.000000
  0.020400000  -39.588575   54.487045  -91.408169   40.857136    0.000000    0.000000    0.000000    0.000000
  0.020600000  -39.530123   54.344723  -91.329336   37.709034    0.000000    0.000000    0.000000    0.000000
  0.020800000  -39.554116   53.759769  -91.187241   35.902111    0.000000    0.000000    0.000000    0.000000
  0.021000000  -39.424522   52.560040  -91.408855   34.564438    0.000000    0.000000    0.000000    0.000000
  0.021200000  -39.314692   53.318306  -91.529726   38.559349    0.000000    0.000000    0.000000    0.000000
  0.021400000  -39.201438   51.838699  -91.149856   30.215719    0.000000    0.000000    0.000000    0.000000
  0.021600000  -39.077069   51.666084  -91.825434   31.713903    0.000000    0.000000    0.000000    0.000000
  0.021800000  -39.159385   50.991447  -92.135723   37.478931    0.000000    0.000000    0.000000    0.000000
  0.022000000  -38.986652   51.378597  -92.455885   28.851446    0.000000    0.000000    0.000000    0.000000
  0.022200000  -38.857090   51.227207  -92.689389   27.530298    0.000000    0.000000    0.000000    0.000000
  0.022400000  -38.762900   51.561863  -94.240416   30.449587    0.000000    0.000000    0.000000    0.000000
  0.022600000  -38.743253   51.332268  -93.302145   31.005341    0.000000    0.000000    0.000000    0.000000
  0.022800000  -38.568558   50.084080  -92.905463   29.434483    0.000000    0.000000    0.000000    0.000000
  0.023000000  -38.560907   50.554958  -93.043297   30.002531    0.000000    0.000000    0.000000    0.000000
  0.023200000  -38.361060   49.824566  -93.996330   35.530174    0.000000    0.000000    0.000000    0.000000
  0.023400000  -38.471214   50.346016  -93.061768   30.185638    0.000000    0.000000    0.000000    0.000000
  0.023600000  -38.251284   50.427860  -93.788674   35.213745    0.000000    0.000000    0.000000    0.000000
  0.023800000  -38.146184   50.520256  -94.119694   29.387545    0.000000    0.000000    0.000000    0.000000
  0.024000000  -38.042968   50.802380  -93.591540   21.057018    0.000000    0.000000    0.000000    0.000000
  0.024200000  -37.957165   50.615108  -94.374378   26.824705    0.000000    0.000000    0.000000    0.000000
  0.024400000  -37.840654   50.737953  -94.837354   33.053406    0.000000    0.000000    0.000000    0.000000
  0.024600000  -37.773580   51.096786  -93.127987   16.877392    0.000000    0.000000    0.000000    0.000000
  0.024800000  -37.749479   51.150043  -93.591069   24.876762    0.000000    0.000000    0.000000    0.000000
  0.025000000  -37.730016   51.325241  -94.358762   26.046185    0.000000    0.000000    0.000000    0.000000
  0.025200000  -37.651959   51.606506  -94.286173   22.571846    0.000000    0.000000    0.000000    0.000000
  0.025400000  -37.616702   51.312447  -94.806805   21.319216    0.000000    0.000000    0.000000    0.000000
  0.025600000  -37.578273   52.131020  -94.616534   31.115019    0.000000    0.000000    0.000000    0.000000
  0.025800000  -37.493666   51.321987  -95.519062   18.390766    0.000000    0.000000    0.000000    0.000000
  0.026000000  -37.443147   51.754547  -94.325611   19.891459    0.000000    0.000000    0.000000    0.000000
  0.026200000  -37.480014   52.212177  -96.481083   27.415552    0.000000    0.000000    0.000000    0.000000
  0.026400000  -37.514997   51.744408  -94.570838   21.649704    0.000000    0.000000    0.000000    0.000000
  0.026600000  -37.401699   51.951084  -94.153274   32.434811    0.000000    0.000000    0.000000    0.000000
  0.026800000  -37.382770   51.633965  -95.044676   21.518906    0.000000    0.000000    0.000000    0.000000
  0.027000000  -37.417032   51.753563  -94.883686   16.013422    0.000000    0.000000    0.000000    0.000000
  0.027200000  -37.405330   51.930664  -95.265426   20.062489    0.000000    0.000000    0.000000    0.000000
  0.027400000  -37.535662   51.889866  -95.959756   25.698593    0.000000    0.000000    0.000000    0.000000
  0.027600000  -37.446600   51.347927  -95.618734   19.276445    0.000000    0.000000    0.000000    0.000000
  0.027800000  -37.427972   51.107079  -95.488898   20.418125    0.000000    0.000000    0.000000    0.000000
  0.028000000  -37.271884   51.137959  -95.524758   13.513499    0.000000    0.000000    0.000000    0.000000
  0.028200000  -37.276018   50.812592  -95.493863   28.814650    0.000000    0.000000    0.000000    0.000000
  0.028400000  -37.259675   50.823345  -96.444893   26.600887    0.000000    0.000000    0.000000    0.000000
  0.028600000  -37.215611   50.493736  -95.986773   22.451067    0.000000    0.000000    0.000000    0.000000
  0.028800000  -37.182134   49.812000  -96.166510   24.647779    0.000000    0.000000    0.000000    0.000000
  0.029000000  -37.171794   49.664215  -96.412095   17.473557    0.000000    0.000000    0.000000    0.000000
  0.029200000  -37.182529   48.816803  -95.057974   15.912741    0.000000    0.000000    0.000000    0.000000
  0.029400000  -37.035080   49.327061  -96.002348   25.216694    0.000000    0.000000    0.000000    0.000000
  0.029600000  -37.052156   48.482471  -96.648040    8.747599    0.000000    0.000000    0.000000    0.000000
  0.029800000  -36.928623   48.237331  -96.862227    8.654700    0.000000    0.000000    0.000000    0.000000
  0.030000000  -36.836509   48.308754  -96.947221    9.133080    0.000000    0.000000    0.000000    0.000000
  0.030200000  -36.865016   48.022049  -96.600062   18.881186    0.000000    0.000000    0.000000    0.000000
  0.030400000  -36.746515   47.461391  -97.427969   25.388897    0.000000    0.000000    0.000000    0.000000
  0.030600000  -36.706762   47.722141  -97.199958   12.859320    0.000000    0.000000    0.000000    0.000000
  0.030800000  -36.622120   47.064953  -97.369728   13.313874    0.000000    0.000000    0.000000    0.000000
  0.031000000  -36.487008   46.548595  -97.682201   10.306462    0.000000    0.000000    0.000000    0.000000
  0.031200000  -36.437111   47.527199  -96.183792   16.995834    0.000000    0.000000    0.000000    0.000000
  0.031400000  -36.405544   47.030430  -97.235889   10.260138    0.000000    0.000000    0.000000    0.000000
  0.031600000  -36.363753   46.472641  -96.031692   24.616014    0.000000    0.000000    0.000000    0.000000
  0.031800000  -36.291124   46.944595  -96.235757    6.512610    0.000000    0.000000    0.000000    0.000000
  0.032000000  -36.268737   46.857811  -96.608944    4.020361    0.000000    0.000000    0.000000    0.000000
  0.032200000  -36.115141   47.146122  -97.299268    2.908631    0.000000    0.000000    0.000000    0.000000
  0.032400000  -36.130909   46.493385  -96.920894   14.344536    0.000000    0.000000    0.000000    0.000000
  0.032600000  -36.095891   47.390465  -97.875227    8.938605    0.000000    0.000000    0.000000    0.000000
  0.032800000  -35.938259   47.700089  -96.976138    6.485113    0.000000    0.000000    0.000000    0.000000
  0.033000000  -35.900782   47.399055  -99.254031   15.609324    0.000000    0.000000    0.000000    0.000000
  0.033200000  -35.931024   47.253613  -98.719020    7.714234    0.000000    0.000000    0.000000    0.000000
  0.033400000  -35.846307   47.584396  -98.440283   12.661559    0.000000    0.000000    0.000000    0.000000
  0.033600000  -35.847025   48.206791  -97.691338   14.551931    0.000000    0.000000    0.000000    0.000000
  0.033800000  -35.753547   47.488777  -97.466161   15.824650    0.000000    0.000000    0.000000    0.000000
  0.034000000  -35.871311   47.504364  -98.011903   12.789528    0.000000    0.000000    0.000000    0.000000
  0.034200000  -35.794575   47.125534  -98.193113   21.000767    0.000000    0.000000    0.000000    0.000000
  0.034400000  -35.701184   47.224392  -96.527515   12.380316    0.000000    0.000000    0.000000    0.000000
  0.034600000  -35.689497   47.732693  -99.241947   20.097818    0.000000    0.000000    0.000000    0.000000
  0.034800000  -35.697786   46.885071  -98.251018   23.110783    0.000000    0.000000    0.000000    0.000000
  0.035000000  -35.744929   47.674408  -98.912068   10.866881    0.000000    0.000000    0.000000    0.000000
  0.035200000  -35.603360   47.057484  -98.008482   17.102739    0.000000    0.000000    0.000000    0.000000
  0.035400000  -35.667101   47.518044  -99.362147   17.279003    0.000000    0.000000    0.000000    0.000000
  0.035600000  -35.637804   46.849525  -98.254233    8.579451    0.000000    0.000000    0.000000    0.000000
  0.035800000  -35.600137   46.834923  -98.757328   10.398007    0.000000    0.000000    0.000000    0.000000
  0.036000000  -35.554068   47.344009  -98.137094    3.790735    0.000000    0.000000    0.000000    0.000000
  0.036200000  -35.559044   47.018562  -97.299083   18.415539    0.000000    0.000000    0.000000    0.000000
  0.036400000  -35.638531   46.677952  -97.504098    7.159460    0.000000    0.000000    0.000000    0.000000
  0.036600000  -35.632356   47.212711  -98.279147    4.572052    0.000000    0.000000    0.000000    0.000000
  0.036800000  -35.532209   46.423214 -100.592211    8.438883    0.000000    0.000000    0.000000    0.000000
  0.037000000  -35.510320   45.938717 -101.005210    9.747754    0.000000    0.000000    0.000000    0.000000
  0.037200000  -35.481014   45.477757  -97.926008   -1.882763    0.000000    0.000000    0.000000    0.000000
  0.037400000  -35.530545   45.559921  -99.266736   18.124174    0.000000    0.000000    0.000000    0.000000
  0.037600000  -35.498815   45.375942  -99.297782   13.104277    0.000000    0.000000    0.000000    0.000000
  0.037800000  -35.414990   44.851593  -99.594053   18.131989    0.000000    0.000000    0.000000    0.000000
  0.038000000  -35.477506   45.584438 -100.220809   -3.381989    0.000000    0.000000    0.000000    0.000000
  0.038200000  -35.480892   44.365005 -102.725543   -1.178890    0.000000    0.000000    0.000000    0.000000
  0.038400000  -35.396012   44.220699  -99.197949   -1.725329    0.000000    0.000000    0.000000    0.000000
  0.038600000  -35.280209   43.484978 -104.659963    9.072222    0.000000    0.000000    0.000000    0.000000
  0.038800000  -35.366771   43.378983 -100.813547    9.017163    0.000000    0.000000    0.000000    0.000000
  0.039000000  -35.305404   42.895042 -100.539396   12.057034    0.000000    0.000000    0.000000    0.000000
  0.039200000  -35.102214   42.426937  -99.820064   -0.113880    0.000000    0.000000    0.000000    0.000000
  0.039400000  -35.170078   42.696720  -98.156845   11.410267    0.000000    0.000000    0.000000    0.000000
  0.039600000  -35.078079   43.037773 -101.916996   16.249523    0.000000    0.000000    0.000000    0.000000
  0.039800000  -35.040336   42.210808 -100.163389    1.921817    0.000000    0.000000    0.000000    0.000000
  0.040000000  -35.067096   42.547867 -101.088106   26.676634    0.000000    0.000000    0.000000    0.000000
  0.040200000  -34.899656   42.420231  -99.363631    0.305217    0.000000    0.000000    0.000000    0.000000
  0.040400000  -34.927493   41.859745  -98.540305   24.695961    0.000000    0.000000    0.000000    0.000000
  0.040600000  -34.873193   41.611496  -99.995003    4.331201    0.000000    0.000000    0.000000    0.000000
  0.040800000  -34.854236   41.697662 -102.244537    3.043094    0.000000    0.000000    0.000000    0.000000
  0.041000000  -34.725081   41.249767 -100.421956   -5.638894    0.000000    0.000000    0.000000    0.000000
  0.041200000  -34.757508   40.784645  -99.974849    8.433575    0.000000    0.000000    0.000000    0.000000
  0.041400000  -34.674070   41.260983  -99.223909   13.500370    0.000000    0.000000    0.000000    0.000000
  0.041600000  -34.576001   40.769505 -102.499065   15.981473    0.000000    0.000000    0.000000    0.000000
  0.041800000  -34.532489   40.689583 -100.001082   22.373667    0.000000    0.000000    0.000000    0.000000
  0.042000000  -34.490754   41.286427 -102.456129   -0.939804    0.000000    0.000000    0.000000    0.000000
  0.042200000  -34.379505   40.599049 -103.962340   13.989689    0.000000    0.000000    0.000000    0.000000
  0.042400000  -34.352877   40.696957  -99.144164   -0.729572    0.000000    0.000000    0.000000    0.000000
  0.042600000  -34.361107   40.991474 -100.725501   -5.194552    0.000000    0.000000    0.000000    0.000000
  0.042800000  -34.261452   40.839245 -101.567700   -2.098032    0.000000    0.000000    0.000000    0.000000
