! Anritsu VNA Master:                     Model: MS2036C/10/77
! SN:                                  1601066
! /card0/usr/256.ew.sma.r200.22.s2p
! Existing Calibration Information:
! TYPE:                         Current Settings,       Active Cal Settings
! TIME:             	   12/19/2017 02:46:55 PM,    12/19/2017 02:22:10 PM
! INTERNAL TEMP:    	                   46.3 C,                    45.0 C
! # POINTS:         	                      501,                       501
! START FREQ:       	               10.000 MHz,                10.000 MHz
! STOP FREQ:        	              110.000 MHz,               110.000 MHz
! SOURCE POWER:     	                     High,                      High
! IFBW:             	                   100 Hz,                    100 Hz
! AVG FACTOR:       	                       1 ,                        1 
! REF PLANE 1:      	                     0 mm,                      0 mm
! REF PLANE 2:      	                     0 mm,                      0 mm
! CAL TYPE:         	                 Full S11,                  Full S11
! CAL METHOD:       	                     SOLT,                      SOLT
! CAL LINE TYPE:    	                     Coax,                      Coax
! DUT PORT 1:       	                N-Conn(F),                 N-Conn(F)
! DUT PORT 2:       	                K-Conn(F),                 K-Conn(F)
! CAL STATUS:       	        OK: Accuracy High,                        --
# GHZ S DB R 50.0
! FREQ.GHZ       S11DB        S11A       S21DB        S21A       S12DB        S12A       S22DB        S22A
  0.010000000   -4.562211  -10.686464  -84.457712   74.905052    0.000000    0.000000    0.000000    0.000000
  0.010200000   -4.554542  -10.902176  -84.682961   75.446945    0.000000    0.000000    0.000000    0.000000
  0.010400000   -4.554872  -11.151115  -84.503154   74.368851    0.000000    0.000000    0.000000    0.000000
  0.010600000   -4.555451  -11.335447  -84.684711   77.872627    0.000000    0.000000    0.000000    0.000000
  0.010800000   -4.555004  -11.584840  -85.022395   77.157784    0.000000    0.000000    0.000000    0.000000
  0.011000000   -4.559839  -11.802447  -84.816961   76.593521    0.000000    0.000000    0.000000    0.000000
  0.011200000   -4.556799  -12.034358  -85.023097   76.045097    0.000000    0.000000    0.000000    0.000000
  0.011400000   -4.560881  -12.279099  -84.930721   75.154732    0.000000    0.000000    0.000000    0.000000
  0.011600000   -4.561964  -12.503431  -85.160194   74.482231    0.000000    0.000000    0.000000    0.000000
  0.011800000   -4.555735  -12.738361  -84.990656   72.176712    0.000000    0.000000    0.000000    0.000000
  0.012000000   -4.555868  -12.955717  -85.942023   74.200386    0.000000    0.000000    0.000000    0.000000
  0.012200000   -4.554795  -13.181847  -85.378340   72.596474    0.000000    0.000000    0.000000    0.000000
  0.012400000   -4.554124  -13.423090  -84.788590   70.099838    0.000000    0.000000    0.000000    0.000000
  0.012600000   -4.555525  -13.634191  -85.015966   71.933327    0.000000    0.000000    0.000000    0.000000
  0.012800000   -4.554449  -13.860763  -84.809942   69.154671    0.000000    0.000000    0.000000    0.000000
  0.013000000   -4.557219  -14.061723  -85.366971   62.207531    0.000000    0.000000    0.000000    0.000000
  0.013200000   -4.554139  -14.283342  -86.107213   64.241554    0.000000    0.000000    0.000000    0.000000
  0.013400000   -4.554157  -14.496311  -84.809250   63.581692    0.000000    0.000000    0.000000    0.000000
  0.013600000   -4.549149  -14.731894  -85.234997   60.930847    0.000000    0.000000    0.000000    0.000000
  0.013800000   -4.548280  -14.924396  -85.626426   54.373657    0.000000    0.000000    0.000000    0.000000
  0.014000000   -4.548418  -15.139166  -85.916644   57.852993    0.000000    0.000000    0.000000    0.000000
  0.014200000   -4.546842  -15.363694  -86.380640   57.539303    0.000000    0.000000    0.000000    0.000000
  0.014400000   -4.545243  -15.573684  -86.365407   51.721066    0.000000    0.000000    0.000000    0.000000
  0.014600000   -4.546762  -15.777768  -86.735539   54.553272    0.000000    0.000000    0.000000    0.000000
  0.014800000   -4.547462  -15.998588  -87.171032   47.950138    0.000000    0.000000    0.000000    0.000000
  0.015000000   -4.547670  -16.204445  -87.148232   47.935558    0.000000    0.000000    0.000000    0.000000
  0.015200000   -4.550689  -16.399647  -87.517826   46.960285    0.000000    0.000000    0.000000    0.000000
  0.015400000   -4.551896  -16.639278  -88.283208   45.921173    0.000000    0.000000    0.000000    0.000000
  0.015600000   -4.548231  -16.910873  -88.150495   44.021339    0.000000    0.000000    0.000000    0.000000
  0.015800000   -4.553102  -17.072546  -88.425058   44.113789    0.000000    0.000000    0.000000    0.000000
  0.016000000   -4.556431  -17.282066  -88.969043   48.128525    0.000000    0.000000    0.000000    0.000000
  0.016200000   -4.556741  -17.485203  -89.197549   44.931782    0.000000    0.000000    0.000000    0.000000
  0.016400000   -4.559316  -17.698223  -89.160789   48.692623    0.000000    0.000000    0.000000    0.000000
  0.016600000   -4.560370  -17.906857  -89.663345   42.378990    0.000000    0.000000    0.000000    0.000000
  0.016800000   -4.564083  -18.121933  -89.570522   45.336788    0.000000    0.000000    0.000000    0.000000
  0.017000000   -4.564922  -18.366701  -89.797913   46.454517    0.000000    0.000000    0.000000    0.000000
  0.017200000   -4.562470  -18.593925  -90.175869   47.235924    0.000000    0.000000    0.000000    0.000000
  0.017400000   -4.563765  -18.820944  -90.071989   46.506840    0.000000    0.000000    0.000000    0.000000
  0.017600000   -4.563117  -19.048113  -89.670494   45.972275    0.000000    0.000000    0.000000    0.000000
  0.017800000   -4.563985  -19.285734  -89.942644   45.426880    0.000000    0.000000    0.000000    0.000000
  0.018000000   -4.565766  -19.499557  -90.679432   44.085865    0.000000    0.000000    0.000000    0.000000
  0.018200000   -4.568797  -19.700024  -90.267733   45.173218    0.000000    0.000000    0.000000    0.000000
  0.018400000   -4.570166  -19.932388  -90.345991   45.291710    0.000000    0.000000    0.000000    0.000000
  0.018600000   -4.574661  -20.159826  -90.151637   43.513054    0.000000    0.000000    0.000000    0.000000
  0.018800000   -4.573737  -20.397724  -90.413387   43.475483    0.000000    0.000000    0.000000    0.000000
  0.019000000   -4.573805  -20.630733  -90.155463   43.038326    0.000000    0.000000    0.000000    0.000000
  0.019200000   -4.571896  -20.824884  -90.279959   44.958324    0.000000    0.000000    0.000000    0.000000
  0.019400000   -4.573203  -21.041803  -90.484643   42.816933    0.000000    0.000000    0.000000    0.000000
  0.019600000   -4.574116  -21.266003  -90.558885   37.913570    0.000000    0.000000    0.000000    0.000000
  0.019800000   -4.569615  -21.482367  -90.585822   41.963741    0.000000    0.000000    0.000000    0.000000
  0.020000000   -4.571642  -21.693424  -90.647045   37.500793    0.000000    0.000000    0.000000    0.000000
  0.020200000   -4.567110  -21.924999  -90.746357   34.741531    0.000000    0.000000    0.000000    0.000000
  0.020400000   -4.565502  -22.117689  -90.530421   35.088959    0.000000    0.000000    0.000000    0.000000
  0.020600000   -4.562131  -22.360258  -90.968373   36.249340    0.000000    0.000000    0.000000    0.000000
  0.020800000   -4.562010  -22.566553  -91.626437   36.764149    0.000000    0.000000    0.000000    0.000000
  0.021000000   -4.560367  -22.783958  -91.914821   32.004402    0.000000    0.000000    0.000000    0.000000
  0.021200000   -4.563029  -23.010532  -91.627105   30.298529    0.000000    0.000000    0.000000    0.000000
  0.021400000   -4.563063  -23.250000  -91.445008   29.541920    0.000000    0.000000    0.000000    0.000000
  0.021600000   -4.561843  -23.437838  -92.616772   30.268055    0.000000    0.000000    0.000000    0.000000
  0.021800000   -4.561380  -23.649534  -91.575618   27.060884    0.000000    0.000000    0.000000    0.000000
  0.022000000   -4.566333  -23.841646  -91.969248   23.205887    0.000000    0.000000    0.000000    0.000000
  0.022200000   -4.562583  -24.071051  -92.143025   23.198698    0.000000    0.000000    0.000000    0.000000
  0.022400000   -4.564694  -24.263687  -92.360546   24.430681    0.000000    0.000000    0.000000    0.000000
  0.022600000   -4.567527  -24.458340  -93.257012   23.051241    0.000000    0.000000    0.000000    0.000000
  0.022800000   -4.571729  -24.656395  -93.723888   20.638639    0.000000    0.000000    0.000000    0.000000
  0.023000000   -4.570373  -24.882963  -93.521818   24.161501    0.000000    0.000000    0.000000    0.000000
  0.023200000   -4.575614  -25.081848  -93.170289   30.744829    0.000000    0.000000    0.000000    0.000000
  0.023400000   -4.571218  -25.308668  -93.577473   26.339460    0.000000    0.000000    0.000000    0.000000
  0.023600000   -4.572460  -25.531837  -94.005225   30.680807    0.000000    0.000000    0.000000    0.000000
  0.023800000   -4.573268  -25.743122  -93.928498   35.839985    0.000000    0.000000    0.000000    0.000000
  0.024000000   -4.571213  -25.956850  -94.113251   21.978313    0.000000    0.000000    0.000000    0.000000
  0.024200000   -4.567667  -26.192820  -94.258748   33.759483    0.000000    0.000000    0.000000    0.000000
  0.024400000   -4.567035  -26.422169  -93.532168   24.829521    0.000000    0.000000    0.000000    0.000000
  0.024600000   -4.572697  -26.660528  -94.514979   32.190548    0.000000    0.000000    0.000000    0.000000
  0.024800000   -4.569128  -26.860987  -93.901784   26.151989    0.000000    0.000000    0.000000    0.000000
  0.025000000   -4.571275  -27.078182  -94.198342   31.420250    0.000000    0.000000    0.000000    0.000000
  0.025200000   -4.572888  -27.300306  -93.862417   22.654839    0.000000    0.000000    0.000000    0.000000
  0.025400000   -4.573874  -27.478586  -93.773914   22.511225    0.000000    0.000000    0.000000    0.000000
  0.025600000   -4.577227  -27.687080  -94.415085   26.427891    0.000000    0.000000    0.000000    0.000000
  0.025800000   -4.577953  -27.899035  -93.901815   21.480709    0.000000    0.000000    0.000000    0.000000
  0.026000000   -4.581164  -28.097418  -94.557796   26.584467    0.000000    0.000000    0.000000    0.000000
  0.026200000   -4.584355  -28.312120  -94.796113   22.928459    0.000000    0.000000    0.000000    0.000000
  0.026400000   -4.586538  -28.538176  -94.066285   22.468836    0.000000    0.000000    0.000000    0.000000
  0.026600000   -4.588862  -28.752707  -94.427068   18.866385    0.000000    0.000000    0.000000    0.000000
  0.026800000   -4.590271  -28.982443  -95.472881   21.071049    0.000000    0.000000    0.000000    0.000000
  0.027000000   -4.591870  -29.231066  -95.188030   21.098465    0.000000    0.000000    0.000000    0.000000
  0.027200000   -4.589928  -29.468414  -95.273841   24.570883    0.000000    0.000000    0.000000    0.000000
  0.027400000   -4.591895  -29.720140  -95.172372   19.939489    0.000000    0.000000    0.000000    0.000000
  0.027600000   -4.592272  -29.937618  -95.524663   22.615524    0.000000    0.000000    0.000000    0.000000
  0.027800000   -4.591457  -30.195658  -95.364900   15.271495    0.000000    0.000000    0.000000    0.000000
  0.028000000   -4.595311  -30.440521  -95.841248   16.748953    0.000000    0.000000    0.000000    0.000000
  0.028200000   -4.598494  -30.693201  -95.582594   12.045844    0.000000    0.000000    0.000000    0.000000
  0.028400000   -4.593857  -30.938145  -95.137803   20.544590    0.000000    0.000000    0.000000    0.000000
  0.028600000   -4.590757  -31.154022  -95.148385   14.658256    0.000000    0.000000    0.000000    0.000000
  0.028800000   -4.586082  -31.355032  -97.220638   13.296863    0.000000    0.000000    0.000000    0.000000
  0.029000000   -4.585927  -31.549587  -96.133134   19.985928    0.000000    0.000000    0.000000    0.000000
  0.029200000   -4.582399  -31.741743  -97.528419   13.121904    0.000000    0.000000    0.000000    0.000000
  0.029400000   -4.584534  -31.920124  -97.599164   20.001953    0.000000    0.000000    0.000000    0.000000
  0.029600000   -4.587227  -32.081974  -96.772059    8.411040    0.000000    0.000000    0.000000    0.000000
  0.029800000   -4.592003  -32.314285  -97.255257   11.908668    0.000000    0.000000    0.000000    0.000000
  0.030000000   -4.596007  -32.507618  -96.327597   20.270191    0.000000    0.000000    0.000000    0.000000
  0.030200000   -4.602040  -32.730957  -97.784541   25.192636    0.000000    0.000000    0.000000    0.000000
  0.030400000   -4.604700  -32.972408  -97.120364   16.417301    0.000000    0.000000    0.000000    0.000000
  0.030600000   -4.605550  -33.231396  -96.284690   18.747744    0.000000    0.000000    0.000000    0.000000
  0.030800000   -4.605539  -33.478004  -98.558896   23.400295    0.000000    0.000000    0.000000    0.000000
  0.031000000   -4.605858  -33.738705  -97.140231   19.354031    0.000000    0.000000    0.000000    0.000000
  0.031200000   -4.600883  -33.927525  -96.425675   20.698145    0.000000    0.000000    0.000000    0.000000
  0.031400000   -4.601972  -34.223293  -96.071363   20.374601    0.000000    0.000000    0.000000    0.000000
  0.031600000   -4.597848  -34.446503  -95.927112   17.203939    0.000000    0.000000    0.000000    0.000000
  0.031800000   -4.596536  -34.667080  -97.377497   14.573111    0.000000    0.000000    0.000000    0.000000
  0.032000000   -4.588791  -34.881458  -95.667416    7.510011    0.000000    0.000000    0.000000    0.000000
  0.032200000   -4.586472  -35.078396  -98.189785   13.891765    0.000000    0.000000    0.000000    0.000000
  0.032400000   -4.578849  -35.301022  -96.726701    8.251125    0.000000    0.000000    0.000000    0.000000
  0.032600000   -4.574075  -35.501625  -98.012023    9.025015    0.000000    0.000000    0.000000    0.000000
  0.032800000   -4.570460  -35.673119  -97.282627   15.279988    0.000000    0.000000    0.000000    0.000000
  0.033000000   -4.567073  -35.877262  -99.316335    3.287477    0.000000    0.000000    0.000000    0.000000
  0.033200000   -4.568210  -36.069923  -98.160739   12.220155    0.000000    0.000000    0.000000    0.000000
  0.033400000   -4.571772  -36.275341  -97.710807    9.296882    0.000000    0.000000    0.000000    0.000000
  0.033600000   -4.572447  -36.499825  -99.054174    4.212469    0.000000    0.000000    0.000000    0.000000
  0.033800000   -4.577370  -36.692394  -97.282074    7.186614    0.000000    0.000000    0.000000    0.000000
  0.034000000   -4.576443  -36.922474  -98.164647    9.897896    0.000000    0.000000    0.000000    0.000000
  0.034200000   -4.576411  -37.139782  -99.255555    6.552801    0.000000    0.000000    0.000000    0.000000
  0.034400000   -4.586477  -37.366051  -97.886678   13.705685    0.000000    0.000000    0.000000    0.000000
  0.034600000   -4.585137  -37.601547  -98.209104   12.196616    0.000000    0.000000    0.000000    0.000000
  0.034800000   -4.591546  -37.853550  -98.430855   16.985964    0.000000    0.000000    0.000000    0.000000
  0.035000000   -4.597272  -38.086800  -98.273332   18.287809    0.000000    0.000000    0.000000    0.000000
  0.035200000   -4.596938  -38.304634  -98.115393    3.441972    0.000000    0.000000    0.000000    0.000000
  0.035400000   -4.599215  -38.533829  -98.751474   -3.411523    0.000000    0.000000    0.000000    0.000000
  0.035600000   -4.598058  -38.770153 -100.530335    7.595529    0.000000    0.000000    0.000000    0.000000
  0.035800000   -4.599711  -38.976135  -99.413217    2.229678    0.000000    0.000000    0.000000    0.000000
  0.036000000   -4.600248  -39.202785  -99.104282   22.146090    0.000000    0.000000    0.000000    0.000000
  0.036200000   -4.596309  -39.439922 -100.433405    2.940813    0.000000    0.000000    0.000000    0.000000
  0.036400000   -4.593376  -39.673302  -96.291415   10.524166    0.000000    0.000000    0.000000    0.000000
  0.036600000   -4.589501  -39.883739  -99.493136   15.430294    0.000000    0.000000    0.000000    0.000000
  0.036800000   -4.586683  -40.075737 -100.449876    4.668757    0.000000    0.000000    0.000000    0.000000
  0.037000000   -4.581502  -40.255070  -98.801822    9.082627    0.000000    0.000000    0.000000    0.000000
  0.037200000   -4.582755  -40.400928  -98.671564    3.519067    0.000000    0.000000    0.000000    0.000000
  0.037400000   -4.582700  -40.602013 -101.189003   10.621932    0.000000    0.000000    0.000000    0.000000
  0.037600000   -4.590553  -40.765305  -98.441289    0.485603    0.000000    0.000000    0.000000    0.000000
  0.037800000   -4.597575  -40.987103  -99.289207   12.303163    0.000000    0.000000    0.000000    0.000000
  0.038000000   -4.606522  -41.211266  -99.856891   12.537628    0.000000    0.000000    0.000000    0.000000
  0.038200000   -4.613536  -41.454990  -99.788949   17.601706    0.000000    0.000000    0.000000    0.000000
  0.038400000   -4.617623  -41.703957 -101.209690   18.099710    0.000000    0.000000    0.000000    0.000000
  0.038600000   -4.620819  -41.921162  -99.593701   11.030218    0.000000    0.000000    0.000000    0.000000
  0.038800000   -4.624582  -42.184647  -98.911552    0.116764    0.000000    0.000000    0.000000    0.000000
  0.039000000   -4.625775  -42.379494 -101.168158   11.700869    0.000000    0.000000    0.000000    0.000000
  0.039200000   -4.625180  -42.648895  -99.099112   15.683320    0.000000    0.000000    0.000000    0.000000
  0.039400000   -4.621127  -42.872528  -99.849860   10.060970    0.000000    0.000000    0.000000    0.000000
  0.039600000   -4.617082  -43.119503  -99.799996    7.593386    0.000000    0.000000    0.000000    0.000000
  0.039800000   -4.612134  -43.337227 -100.935594   -1.075238    0.000000    0.000000    0.000000    0.000000
  0.040000000   -4.608266  -43.536037 -101.309508    5.925792    0.000000    0.000000    0.000000    0.000000
  0.040200000   -4.604188  -43.736958 -100.716890    8.242329    0.000000    0.000000    0.000000    0.000000
  0.040400000   -4.603294  -43.934532  -97.927937    9.110422    0.000000    0.000000    0.000000    0.000000
  0.040600000   -4.602348  -44.122627  -98.770234   11.650273    0.000000    0.000000    0.000000    0.000000
  0.040800000   -4.607184  -44.321712 -102.984042    9.042061    0.000000    0.000000    0.000000    0.000000
  0.041000000   -4.611449  -44.531933 -100.070905    9.855008    0.000000    0.000000    0.000000    0.000000
  0.041200000   -4.611447  -44.750740 -101.387600   -3.150121    0.000000    0.000000    0.000000    0.000000
  0.041400000   -4.619700  -44.977932  -99.648685   12.528784    0.000000    0.000000    0.000000    0.000000
  0.041600000   -4.622616  -45.222881 -100.050087   16.176241    0.000000    0.000000    0.000000    0.000000
  0.041800000   -4.625597  -45.463657 -104.162036  -23.107468    0.000000    0.000000    0.000000    0.000000
  0.042000000   -4.628148  -45.708023 -101.800126   -3.969202    0.000000    0.000000    0.000000    0.000000
  0.042200000   -4.634938  -45.944714 -103.473085   18.240580    0.000000    0.000000    0.000000    0.000000
  0.042400000   -4.634191  -46.160183 -102.248435   -6.504988    0.000000    0.000000    0.000000    0.000000
  0.042600000   -4.634989  -46.386585 -100.092130   23.954098    0.000000    0.000000    0.000000    0.000000
  0.042800000   -4.633168  -46.639790 -101.245845   10.031693    0.000000    0.000000    0.000000    0.000000
