! Anritsu VNA Master:                     Model: MS2036C/10/77
! SN:                                  1601066
! /card0/usr/256.ns.sma.r20.11.s2p
! Existing Calibration Information:
! TYPE:                         Current Settings,       Active Cal Settings
! TIME:             	   12/19/2017 03:36:25 PM,    12/19/2017 03:30:41 PM
! INTERNAL TEMP:    	                   47.8 C,                    48.0 C
! # POINTS:         	                      501,                       501
! START FREQ:       	               10.000 MHz,                10.000 MHz
! STOP FREQ:        	              110.000 MHz,               110.000 MHz
! SOURCE POWER:     	                     High,                      High
! IFBW:             	                   100 Hz,                    100 Hz
! AVG FACTOR:       	                       1 ,                        1 
! REF PLANE 1:      	                     0 mm,                      0 mm
! REF PLANE 2:      	                     0 mm,                      0 mm
! CAL TYPE:         	                 Full S11,                  Full S11
! CAL METHOD:       	                     SOLT,                      SOLT
! CAL LINE TYPE:    	                     Coax,                      Coax
! DUT PORT 1:       	                N-Conn(F),                 N-Conn(F)
! DUT PORT 2:       	                K-Conn(F),                 K-Conn(F)
! CAL STATUS:       	        OK: Accuracy High,                        --
# GHZ S DB R 50.0
! FREQ.GHZ       S11DB        S11A       S21DB        S21A       S12DB        S12A       S22DB        S22A
  0.010000000  -63.758456   89.703011  -82.510314   79.236626    0.000000    0.000000    0.000000    0.000000
  0.010200000  -63.810026   87.667259  -82.199887   76.748817    0.000000    0.000000    0.000000    0.000000
  0.010400000  -64.143637   91.894150  -82.833723   72.950081    0.000000    0.000000    0.000000    0.000000
  0.010600000  -63.506041   91.381874  -83.070461   71.899239    0.000000    0.000000    0.000000    0.000000
  0.010800000  -63.172133   89.675407  -83.227163   70.472313    0.000000    0.000000    0.000000    0.000000
  0.011000000  -63.473577   89.533569  -83.376327   69.930916    0.000000    0.000000    0.000000    0.000000
  0.011200000  -62.848926   91.339523  -83.380143   66.327614    0.000000    0.000000    0.000000    0.000000
  0.011400000  -62.839965   89.779205  -84.015366   64.729973    0.000000    0.000000    0.000000    0.000000
  0.011600000  -63.041781   84.305695  -84.431324   61.901302    0.000000    0.000000    0.000000    0.000000
  0.011800000  -62.851305   89.096268  -84.598199   63.387352    0.000000    0.000000    0.000000    0.000000
  0.012000000  -62.913097   84.592468  -85.060595   61.171974    0.000000    0.000000    0.000000    0.000000
  0.012200000  -62.349216   85.490845  -85.342294   59.796860    0.000000    0.000000    0.000000    0.000000
  0.012400000  -62.342794   84.536385  -86.231257   60.792065    0.000000    0.000000    0.000000    0.000000
  0.012600000  -62.422051   83.280708  -85.888970   57.463058    0.000000    0.000000    0.000000    0.000000
  0.012800000  -62.077817   84.540092  -86.572808   58.459068    0.000000    0.000000    0.000000    0.000000
  0.013000000  -61.716906   83.706444  -86.507506   60.668015    0.000000    0.000000    0.000000    0.000000
  0.013200000  -61.851023   81.679932  -86.705469   57.388309    0.000000    0.000000    0.000000    0.000000
  0.013400000  -61.831593   81.538109  -86.697798   57.161690    0.000000    0.000000    0.000000    0.000000
  0.013600000  -61.720812   81.742126  -86.921685   57.212212    0.000000    0.000000    0.000000    0.000000
  0.013800000  -61.656799   83.219612  -87.057639   56.234585    0.000000    0.000000    0.000000    0.000000
  0.014000000  -61.483592   81.204117  -87.814196   57.754166    0.000000    0.000000    0.000000    0.000000
  0.014200000  -61.127635   81.806320  -88.003872   55.984627    0.000000    0.000000    0.000000    0.000000
  0.014400000  -60.971310   81.188515  -87.459038   58.334488    0.000000    0.000000    0.000000    0.000000
  0.014600000  -61.167297   82.668747  -87.888299   59.043282    0.000000    0.000000    0.000000    0.000000
  0.014800000  -60.819053   81.005760  -88.382696   56.033405    0.000000    0.000000    0.000000    0.000000
  0.015000000  -60.872240   81.132248  -88.012897   57.578148    0.000000    0.000000    0.000000    0.000000
  0.015200000  -60.786517   81.009689  -87.971655   58.156376    0.000000    0.000000    0.000000    0.000000
  0.015400000  -60.674283   80.344063  -88.054342   57.203602    0.000000    0.000000    0.000000    0.000000
  0.015600000  -60.346635   79.841553  -87.801457   52.390312    0.000000    0.000000    0.000000    0.000000
  0.015800000  -60.495407   79.185303  -88.223575   56.744286    0.000000    0.000000    0.000000    0.000000
  0.016000000  -60.437141   78.039787  -87.906831   51.292137    0.000000    0.000000    0.000000    0.000000
  0.016200000  -60.201650   78.329201  -88.463411   48.630341    0.000000    0.000000    0.000000    0.000000
  0.016400000  -60.183339   77.901993  -88.121001   48.937813    0.000000    0.000000    0.000000    0.000000
  0.016600000  -60.123565   78.476974  -88.197479   47.389748    0.000000    0.000000    0.000000    0.000000
  0.016800000  -59.832316   76.918716  -88.699177   47.395149    0.000000    0.000000    0.000000    0.000000
  0.017000000  -59.863334   76.938141  -88.661081   47.695305    0.000000    0.000000    0.000000    0.000000
  0.017200000  -59.725283   78.107559  -88.764783   46.436447    0.000000    0.000000    0.000000    0.000000
  0.017400000  -59.709323   77.089066  -88.866057   43.742287    0.000000    0.000000    0.000000    0.000000
  0.017600000  -59.621265   76.833801  -89.203265   40.875191    0.000000    0.000000    0.000000    0.000000
  0.017800000  -59.673522   77.448944  -89.130526   41.017021    0.000000    0.000000    0.000000    0.000000
  0.018000000  -59.487287   75.934364  -89.263080   37.368645    0.000000    0.000000    0.000000    0.000000
  0.018200000  -59.452331   75.513420  -89.085728   41.337456    0.000000    0.000000    0.000000    0.000000
  0.018400000  -59.211504   77.018288  -89.724799   36.092819    0.000000    0.000000    0.000000    0.000000
  0.018600000  -59.185522   76.834579  -90.811294   37.884979    0.000000    0.000000    0.000000    0.000000
  0.018800000  -58.897866   76.746155  -90.275655   38.317158    0.000000    0.000000    0.000000    0.000000
  0.019000000  -58.895928   74.576889  -90.181990   30.819857    0.000000    0.000000    0.000000    0.000000
  0.019200000  -58.971543   76.467941  -90.253205   32.308990    0.000000    0.000000    0.000000    0.000000
  0.019400000  -58.773584   76.899956  -91.093091   37.906124    0.000000    0.000000    0.000000    0.000000
  0.019600000  -58.744201   76.254684  -91.708640   34.447758    0.000000    0.000000    0.000000    0.000000
  0.019800000  -58.664369   76.249733  -91.836975   40.800735    0.000000    0.000000    0.000000    0.000000
  0.020000000  -58.359795   75.481117  -92.017983   37.486549    0.000000    0.000000    0.000000    0.000000
  0.020200000  -58.565354   75.206032  -91.786553   37.659168    0.000000    0.000000    0.000000    0.000000
  0.020400000  -58.285466   75.307861  -90.826841   32.094315    0.000000    0.000000    0.000000    0.000000
  0.020600000  -58.640013   74.881599  -91.974260   39.130852    0.000000    0.000000    0.000000    0.000000
  0.020800000  -58.114006   74.603874  -92.472097   35.363899    0.000000    0.000000    0.000000    0.000000
  0.021000000  -58.116404   73.397377  -92.713590   38.464043    0.000000    0.000000    0.000000    0.000000
  0.021200000  -57.931580   73.679245  -92.354155   37.938976    0.000000    0.000000    0.000000    0.000000
  0.021400000  -57.893849   73.410828  -91.970239   38.073318    0.000000    0.000000    0.000000    0.000000
  0.021600000  -57.797968   73.659149  -92.333579   35.242378    0.000000    0.000000    0.000000    0.000000
  0.021800000  -57.705152   72.543190  -93.907666   31.975962    0.000000    0.000000    0.000000    0.000000
  0.022000000  -57.511379   72.684525  -92.829244   39.808239    0.000000    0.000000    0.000000    0.000000
  0.022200000  -57.323733   72.828522  -92.269329   33.998207    0.000000    0.000000    0.000000    0.000000
  0.022400000  -57.298020   73.252388  -92.872484   38.545860    0.000000    0.000000    0.000000    0.000000
  0.022600000  -57.196803   72.226028  -91.965449   35.782536    0.000000    0.000000    0.000000    0.000000
  0.022800000  -57.261194   71.845512  -91.790614   32.782520    0.000000    0.000000    0.000000    0.000000
  0.023000000  -57.182476   72.903358  -93.329549   28.885303    0.000000    0.000000    0.000000    0.000000
  0.023200000  -56.963775   72.439484  -93.007347   26.867586    0.000000    0.000000    0.000000    0.000000
  0.023400000  -56.023508   71.538940  -92.323156   28.086872    0.000000    0.000000    0.000000    0.000000
  0.023600000  -56.803581   71.809990  -93.394598   33.250019    0.000000    0.000000    0.000000    0.000000
  0.023800000  -56.680426   70.389221  -93.019764   28.693188    0.000000    0.000000    0.000000    0.000000
  0.024000000  -56.773118   71.596916  -93.337970   24.436775    0.000000    0.000000    0.000000    0.000000
  0.024200000  -56.596841   71.413109  -93.903033   18.915796    0.000000    0.000000    0.000000    0.000000
  0.024400000  -56.543060   70.779892  -93.302184   21.111673    0.000000    0.000000    0.000000    0.000000
  0.024600000  -56.470813   71.066879  -93.213496   27.197121    0.000000    0.000000    0.000000    0.000000
  0.024800000  -56.537535   69.818756  -94.094466   21.459284    0.000000    0.000000    0.000000    0.000000
  0.025000000  -56.217665   69.996262  -94.878286   23.240641    0.000000    0.000000    0.000000    0.000000
  0.025200000  -56.176847   69.627251  -93.975559   14.307962    0.000000    0.000000    0.000000    0.000000
  0.025400000  -56.232251   69.442101  -93.624434   22.943254    0.000000    0.000000    0.000000    0.000000
  0.025600000  -56.128054   69.095261  -94.128191   19.733747    0.000000    0.000000    0.000000    0.000000
  0.025800000  -56.084154   69.049049  -94.933342   25.111319    0.000000    0.000000    0.000000    0.000000
  0.026000000  -56.171835   68.807281  -94.268403   18.860552    0.000000    0.000000    0.000000    0.000000
  0.026200000  -55.873668   68.627060  -95.180594   19.976046    0.000000    0.000000    0.000000    0.000000
  0.026400000  -55.946038   68.399040  -95.923213   24.987768    0.000000    0.000000    0.000000    0.000000
  0.026600000  -55.945081   67.905441  -95.337946   16.186226    0.000000    0.000000    0.000000    0.000000
  0.026800000  -55.961064   68.419868  -95.255607   14.388401    0.000000    0.000000    0.000000    0.000000
  0.027000000  -55.826391   67.270401  -96.484399   21.918175    0.000000    0.000000    0.000000    0.000000
  0.027200000  -55.700288   67.300323  -96.983333   23.527378    0.000000    0.000000    0.000000    0.000000
  0.027400000  -55.747483   67.525337  -94.552560   23.372124    0.000000    0.000000    0.000000    0.000000
  0.027600000  -55.725410   67.420532  -95.718022   19.672506    0.000000    0.000000    0.000000    0.000000
  0.027800000  -55.502088   67.807083  -95.476263   18.365032    0.000000    0.000000    0.000000    0.000000
  0.028000000  -55.562462   67.153198  -95.561435   22.507275    0.000000    0.000000    0.000000    0.000000
  0.028200000  -55.467063   66.388275  -95.226832   17.404974    0.000000    0.000000    0.000000    0.000000
  0.028400000  -55.393043   67.204987  -95.621753   19.302296    0.000000    0.000000    0.000000    0.000000
  0.028600000  -55.457877   65.999199  -96.568949   20.145617    0.000000    0.000000    0.000000    0.000000
  0.028800000  -55.418584   65.182877  -95.492027   20.347858    0.000000    0.000000    0.000000    0.000000
  0.029000000  -55.337014   65.935532  -95.594090   19.575356    0.000000    0.000000    0.000000    0.000000
  0.029200000  -55.211668   65.610207  -95.814409   24.706398    0.000000    0.000000    0.000000    0.000000
  0.029400000  -55.203703   65.373253  -97.459643   16.483614    0.000000    0.000000    0.000000    0.000000
  0.029600000  -55.167967   65.479088  -96.490993   16.592510    0.000000    0.000000    0.000000    0.000000
  0.029800000  -55.168238   65.671303  -97.741911   20.785019    0.000000    0.000000    0.000000    0.000000
  0.030000000  -54.981588   65.341621  -97.274374   19.061754    0.000000    0.000000    0.000000    0.000000
  0.030200000  -55.058109   65.282211  -97.498196   14.153452    0.000000    0.000000    0.000000    0.000000
  0.030400000  -54.996728   64.185837  -96.012574   13.339814    0.000000    0.000000    0.000000    0.000000
  0.030600000  -54.790153   65.020859  -96.353012   15.613039    0.000000    0.000000    0.000000    0.000000
  0.030800000  -54.869952   63.827667  -96.690876   15.367514    0.000000    0.000000    0.000000    0.000000
  0.031000000  -54.752500   64.162270  -97.955271   12.365303    0.000000    0.000000    0.000000    0.000000
  0.031200000  -54.553408   63.344810  -97.264629   -3.066047    0.000000    0.000000    0.000000    0.000000
  0.031400000  -54.449360   63.262489  -96.087026   13.122347    0.000000    0.000000    0.000000    0.000000
  0.031600000  -54.429331   63.687000  -96.171559   12.874863    0.000000    0.000000    0.000000    0.000000
  0.031800000  -54.259696   64.056381  -97.051816    3.511400    0.000000    0.000000    0.000000    0.000000
  0.032000000  -54.365373   63.772213  -98.676708   12.520990    0.000000    0.000000    0.000000    0.000000
  0.032200000  -54.289645   63.337704  -99.011916   12.189157    0.000000    0.000000    0.000000    0.000000
  0.032400000  -54.075966   64.478966  -96.776112    7.105198    0.000000    0.000000    0.000000    0.000000
  0.032600000  -53.982329   63.127007  -96.482596    9.529008    0.000000    0.000000    0.000000    0.000000
  0.032800000  -53.868766   62.920612  -97.097522   17.358984    0.000000    0.000000    0.000000    0.000000
  0.033000000  -53.966089   62.559368  -96.932691    8.675176    0.000000    0.000000    0.000000    0.000000
  0.033200000  -53.981060   62.880806  -98.906910   15.376871    0.000000    0.000000    0.000000    0.000000
  0.033400000  -53.721357   61.971931  -97.607938    7.786190    0.000000    0.000000    0.000000    0.000000
  0.033600000  -53.842420   62.211288  -99.358210    5.818507    0.000000    0.000000    0.000000    0.000000
  0.033800000  -53.716260   61.912987 -100.345307   11.565926    0.000000    0.000000    0.000000    0.000000
  0.034000000  -53.668135   61.584545  -98.510292   22.386549    0.000000    0.000000    0.000000    0.000000
  0.034200000  -53.395141   61.580986  -98.161685    6.998837    0.000000    0.000000    0.000000    0.000000
  0.034400000  -53.492321   61.925629  -99.667176   14.448110    0.000000    0.000000    0.000000    0.000000
  0.034600000  -53.511826   62.030590  -97.900471   18.605715    0.000000    0.000000    0.000000    0.000000
  0.034800000  -53.442969   61.654137  -98.334237   16.572397    0.000000    0.000000    0.000000    0.000000
  0.035000000  -53.326587   60.785038  -99.661161   20.626768    0.000000    0.000000    0.000000    0.000000
  0.035200000  -53.295577   60.335159 -100.407856   13.878002    0.000000    0.000000    0.000000    0.000000
  0.035400000  -53.248337   60.689140  -99.226038   11.394373    0.000000    0.000000    0.000000    0.000000
  0.035600000  -53.210785   59.936802  -97.068006    3.849028    0.000000    0.000000    0.000000    0.000000
  0.035800000  -53.237477   60.063187  -98.903550   -1.811465    0.000000    0.000000    0.000000    0.000000
  0.036000000  -53.180911   60.077141  -98.396576   13.879758    0.000000    0.000000    0.000000    0.000000
  0.036200000  -53.146894   60.377678  -97.158428   12.655407    0.000000    0.000000    0.000000    0.000000
  0.036400000  -53.020351   59.546368  -98.584870    9.195734    0.000000    0.000000    0.000000    0.000000
  0.036600000  -53.043066   59.227596 -100.891748   14.211311    0.000000    0.000000    0.000000    0.000000
  0.036800000  -52.932018   59.122166 -100.721560    9.282621    0.000000    0.000000    0.000000    0.000000
  0.037000000  -52.872015   59.186409  -99.630583   24.608007    0.000000    0.000000    0.000000    0.000000
  0.037200000  -52.872805   59.434353  -99.341310   11.125568    0.000000    0.000000    0.000000    0.000000
  0.037400000  -52.807052   60.408558  -98.368865   19.797125    0.000000    0.000000    0.000000    0.000000
  0.037600000  -52.974783   59.423870 -102.116289    3.984359    0.000000    0.000000    0.000000    0.000000
  0.037800000  -52.809999   59.195133 -100.357462   13.593525    0.000000    0.000000    0.000000    0.000000
  0.038000000  -52.747149   58.453068  -98.539688    1.381944    0.000000    0.000000    0.000000    0.000000
  0.038200000  -52.769502   58.539318 -100.375331   24.936632    0.000000    0.000000    0.000000    0.000000
  0.038400000  -52.763490   57.907101 -100.707018    0.047176    0.000000    0.000000    0.000000    0.000000
  0.038600000  -52.630196   58.013905 -101.239215   14.403061    0.000000    0.000000    0.000000    0.000000
  0.038800000  -52.486656   57.739586 -100.526003    2.169779    0.000000    0.000000    0.000000    0.000000
  0.039000000  -52.372500   57.441517 -101.473047  -11.438313    0.000000    0.000000    0.000000    0.000000
  0.039200000  -52.364429   57.910606  -99.272188   11.712992    0.000000    0.000000    0.000000    0.000000
  0.039400000  -52.387112   57.258911  -99.777725    2.593184    0.000000    0.000000    0.000000    0.000000
  0.039600000  -52.270339   56.994034 -102.101461   -6.638353    0.000000    0.000000    0.000000    0.000000
  0.039800000  -52.120541   57.419754  -98.442246    1.770505    0.000000    0.000000    0.000000    0.000000
  0.040000000  -52.198658   56.373238 -101.620604    4.742622    0.000000    0.000000    0.000000    0.000000
  0.040200000  -52.073577   56.999771 -101.885977   11.707185    0.000000    0.000000    0.000000    0.000000
  0.040400000  -51.927157   57.113281 -100.008415    6.325271    0.000000    0.000000    0.000000    0.000000
  0.040600000  -51.969321   56.727261  -99.592515    2.184133    0.000000    0.000000    0.000000    0.000000
  0.040800000  -51.787479   55.769073  -98.464032   17.169395    0.000000    0.000000    0.000000    0.000000
  0.041000000  -51.834186   56.017845  -99.496781    9.392614    0.000000    0.000000    0.000000    0.000000
  0.041200000  -51.783141   56.944748 -100.030097   -4.210800    0.000000    0.000000    0.000000    0.000000
  0.041400000  -51.633289   55.845852  -99.976213    0.125033    0.000000    0.000000    0.000000    0.000000
  0.041600000  -51.606703   55.432285  -99.526255    9.811679    0.000000    0.000000    0.000000    0.000000
  0.041800000  -51.630719   56.155025 -102.040152   26.193043    0.000000    0.000000    0.000000    0.000000
  0.042000000  -51.532625   55.081963 -100.496913   21.687624    0.000000    0.000000    0.000000    0.000000
  0.042200000  -51.468080   54.960648 -102.038473  -22.632767    0.000000    0.000000    0.000000    0.000000
  0.042400000  -51.498786   55.096478 -100.813793   -3.863827    0.000000    0.000000    0.000000    0.000000
  0.042600000  -51.342629   54.616287  -98.145892    2.873541    0.000000    0.000000    0.000000    0.000000
  0.042800000  -51.306012   53.776772 -100.135272   14.132561    0.000000    0.000000    0.000000    0.000000
