! Anritsu VNA Master:                     Model: MS2036C/10/77
! SN:                                  1601066
! /card0/usr/aa_1.s2p
! Existing Calibration Information:
! TYPE:                         Current Settings,       Active Cal Settings
! TIME:             	   12/17/2017 08:13:47 PM,    12/17/2017 06:38:14 PM
! INTERNAL TEMP:    	                   39.0 C,                    43.8 C
! # POINTS:         	                      501,                       501
! START FREQ:       	               10.000 MHz,                10.000 MHz
! STOP FREQ:        	          107.903 125 MHz,           107.903 125 MHz
! SOURCE POWER:     	                     High,                      High
! IFBW:             	                   100 Hz,                    100 Hz
! AVG FACTOR:       	                       1 ,                        1 
! REF PLANE 1:      	                     0 mm,                      0 mm
! REF PLANE 2:      	                     0 mm,                      0 mm
! CAL TYPE:         	                 Full S11,                  Full S11
! CAL METHOD:       	                     SOLT,                      SOLT
! CAL LINE TYPE:    	                     Coax,                      Coax
! DUT PORT 1:       	                N-Conn(F),                 N-Conn(F)
! DUT PORT 2:       	                K-Conn(F),                 K-Conn(F)
! CAL STATUS:       	        OK: Accuracy High,                        --
# GHZ S DB R 50.0
! FREQ.GHZ       S11DB        S11A       S21DB        S21A       S12DB        S12A       S22DB        S22A
  0.010000000    1.056862  158.108582  -81.512636   77.658974    0.000000    0.000000    0.000000    0.000000
  0.010195806    1.083991  168.072235  -81.575835   79.130493    0.000000    0.000000    0.000000    0.000000
  0.010391613    1.115124  178.064240  -81.820167   75.664902    0.000000    0.000000    0.000000    0.000000
  0.010587419    1.142508 -171.949966  -82.105540   76.621674    0.000000    0.000000    0.000000    0.000000
  0.010783225    1.170893 -161.990936  -82.008608   75.828270    0.000000    0.000000    0.000000    0.000000
  0.010979031    1.205104 -152.015381  -82.244194   71.669426    0.000000    0.000000    0.000000    0.000000
  0.011174837    1.227869 -142.028687  -82.649118   73.670021    0.000000    0.000000    0.000000    0.000000
  0.011370644    1.248989 -132.050430  -82.450052   71.227432    0.000000    0.000000    0.000000    0.000000
  0.011566450    1.269360 -122.015015  -82.394252   70.018196    0.000000    0.000000    0.000000    0.000000
  0.011762256    1.288105 -112.008263  -83.061725   69.589890    0.000000    0.000000    0.000000    0.000000
  0.011958062    1.303798 -102.005928  -83.452326   68.472237    0.000000    0.000000    0.000000    0.000000
  0.012153869    1.316825  -91.945190  -83.115449   66.756012    0.000000    0.000000    0.000000    0.000000
  0.012349675    1.323997  -81.905975  -83.817839   66.558731    0.000000    0.000000    0.000000    0.000000
  0.012545481    1.331266  -71.813766  -84.271279   62.080402    0.000000    0.000000    0.000000    0.000000
  0.012741288    1.335402  -61.711826  -84.023361   64.502075    0.000000    0.000000    0.000000    0.000000
  0.012937094    1.337166  -51.616539  -84.748065   66.447235    0.000000    0.000000    0.000000    0.000000
  0.013132900    1.330025  -41.500717  -84.382852   61.899315    0.000000    0.000000    0.000000    0.000000
  0.013328706    1.324822  -31.363775  -84.578139   63.584000    0.000000    0.000000    0.000000    0.000000
  0.013524512    1.315168  -21.220261  -84.752199   62.727715    0.000000    0.000000    0.000000    0.000000
  0.013720319    1.302448  -11.062088  -84.795764   60.937733    0.000000    0.000000    0.000000    0.000000
  0.013916125    1.291388   -0.914057  -85.179528   57.225399    0.000000    0.000000    0.000000    0.000000
  0.014111931    1.280682    9.228086  -85.492514   56.981575    0.000000    0.000000    0.000000    0.000000
  0.014307738    1.269349   19.382938  -85.632854   57.923424    0.000000    0.000000    0.000000    0.000000
  0.014503544    1.264417   29.534243  -85.852533   56.657734    0.000000    0.000000    0.000000    0.000000
  0.014699350    1.258636   39.700748  -85.720915   55.848385    0.000000    0.000000    0.000000    0.000000
  0.014895156    1.255692   49.863560  -85.871728   56.727486    0.000000    0.000000    0.000000    0.000000
  0.015090962    1.251503   59.981777  -86.041253   55.604683    0.000000    0.000000    0.000000    0.000000
  0.015286769    1.252391   70.084457  -86.274558   53.988216    0.000000    0.000000    0.000000    0.000000
  0.015482575    1.250799   80.192444  -86.483896   52.528450    0.000000    0.000000    0.000000    0.000000
  0.015678381    1.252187   90.268364  -86.171082   56.227703    0.000000    0.000000    0.000000    0.000000
  0.015874188    1.262761  100.328545  -87.125820   51.612846    0.000000    0.000000    0.000000    0.000000
  0.016069994    1.272824  110.367912  -86.924808   52.088524    0.000000    0.000000    0.000000    0.000000
  0.016265800    1.286934  120.383339  -87.322710   51.071850    0.000000    0.000000    0.000000    0.000000
  0.016461606    1.310774  130.393188  -87.075549   52.342583    0.000000    0.000000    0.000000    0.000000
  0.016657412    1.332879  140.394562  -87.457846   49.535080    0.000000    0.000000    0.000000    0.000000
  0.016853219    1.355854  150.389236  -87.309853   46.868931    0.000000    0.000000    0.000000    0.000000
  0.017049025    1.376549  160.348068  -87.424021   48.116093    0.000000    0.000000    0.000000    0.000000
  0.017244831    1.398376  170.295929  -87.618855   43.791103    0.000000    0.000000    0.000000    0.000000
  0.017440638    1.417657 -179.784363  -87.989369   44.528477    0.000000    0.000000    0.000000    0.000000
  0.017636444    1.438159 -169.882538  -88.011644   44.752064    0.000000    0.000000    0.000000    0.000000
  0.017832250    1.460759 -159.950119  -88.098748   42.716393    0.000000    0.000000    0.000000    0.000000
  0.018028056    1.480751 -150.013077  -88.403216   45.804340    0.000000    0.000000    0.000000    0.000000
  0.018223862    1.503475 -140.075714  -87.922097   42.699505    0.000000    0.000000    0.000000    0.000000
  0.018419669    1.525073 -130.122665  -89.126831   44.098656    0.000000    0.000000    0.000000    0.000000
  0.018615475    1.544520 -120.169571  -89.422873   43.717400    0.000000    0.000000    0.000000    0.000000
  0.018811281    1.563937 -110.186401  -88.586176   39.702251    0.000000    0.000000    0.000000    0.000000
  0.019007087    1.571393 -100.230385  -90.076138   43.614487    0.000000    0.000000    0.000000    0.000000
  0.019202894    1.575900  -90.268860  -89.881939   43.364193    0.000000    0.000000    0.000000    0.000000
  0.019398700    1.579259  -80.254814  -89.696224   40.650368    0.000000    0.000000    0.000000    0.000000
  0.019594506    1.586535  -70.237320  -88.654428   40.176792    0.000000    0.000000    0.000000    0.000000
  0.019790313    1.591509  -60.213043  -89.267136   37.571018    0.000000    0.000000    0.000000    0.000000
  0.019986119    1.589868  -50.154396  -89.820560   39.800526    0.000000    0.000000    0.000000    0.000000
  0.020181925    1.589794  -40.079323  -90.394189   38.098660    0.000000    0.000000    0.000000    0.000000
  0.020377731    1.583366  -29.967468  -89.911108   39.857052    0.000000    0.000000    0.000000    0.000000
  0.020573537    1.575859  -19.868723  -90.049402   37.376652    0.000000    0.000000    0.000000    0.000000
  0.020769344    1.568343   -9.752321  -90.203663   34.285233    0.000000    0.000000    0.000000    0.000000
  0.020965150    1.560047    0.385220  -90.416917   34.225471    0.000000    0.000000    0.000000    0.000000
  0.021160956    1.554707   10.501130  -90.316037   39.038506    0.000000    0.000000    0.000000    0.000000
  0.021356762    1.547429   20.638155  -90.215335   32.616009    0.000000    0.000000    0.000000    0.000000
  0.021552569    1.543811   30.804499  -91.090564   35.432728    0.000000    0.000000    0.000000    0.000000
  0.021748375    1.542053   40.981007  -90.919716   32.638916    0.000000    0.000000    0.000000    0.000000
  0.021944181    1.542409   51.135399  -91.740179   31.690517    0.000000    0.000000    0.000000    0.000000
  0.022139988    1.537097   61.285797  -91.903618   29.123489    0.000000    0.000000    0.000000    0.000000
  0.022335794    1.535261   71.426079  -90.790161   31.943016    0.000000    0.000000    0.000000    0.000000
  0.022531600    1.539586   81.523735  -90.900093   28.926125    0.000000    0.000000    0.000000    0.000000
  0.022727406    1.544908   91.629196  -91.218130   26.026749    0.000000    0.000000    0.000000    0.000000
  0.022923213    1.550549  101.707397  -91.608817   26.673391    0.000000    0.000000    0.000000    0.000000
  0.023119019    1.568739  111.752960  -91.755833   29.623764    0.000000    0.000000    0.000000    0.000000
  0.023314825    1.581236  121.799156  -91.855467   27.114943    0.000000    0.000000    0.000000    0.000000
  0.023510631    1.597873  131.842529  -92.204588   30.451736    0.000000    0.000000    0.000000    0.000000
  0.023706438    1.612390  141.864578  -91.585686   32.250404    0.000000    0.000000    0.000000    0.000000
  0.023902244    1.630264  151.874649  -92.269229   33.544613    0.000000    0.000000    0.000000    0.000000
  0.024098050    1.647595  161.890793  -92.562812   28.257175    0.000000    0.000000    0.000000    0.000000
  0.024293856    1.665201  171.866928  -92.471302   27.025028    0.000000    0.000000    0.000000    0.000000
  0.024489662    1.684990 -178.145096  -92.243182   24.287170    0.000000    0.000000    0.000000    0.000000
  0.024685469    1.706569 -168.152786  -93.535922   29.752512    0.000000    0.000000    0.000000    0.000000
  0.024881275    1.729434 -158.138824  -93.007097   21.702761    0.000000    0.000000    0.000000    0.000000
  0.025077081    1.752666 -148.125076  -92.680301   30.796564    0.000000    0.000000    0.000000    0.000000
  0.025272888    1.771034 -138.074707  -94.747226   17.693171    0.000000    0.000000    0.000000    0.000000
  0.025468694    1.789463 -128.035934  -93.457629   24.408617    0.000000    0.000000    0.000000    0.000000
  0.025664500    1.803497 -117.980194  -93.786758   26.135296    0.000000    0.000000    0.000000    0.000000
  0.025860306    1.813307 -107.919937  -93.370791   12.356646    0.000000    0.000000    0.000000    0.000000
  0.026056112    1.822323  -97.882645  -92.904194   23.728886    0.000000    0.000000    0.000000    0.000000
  0.026251919    1.830539  -87.822159  -94.168379   20.316645    0.000000    0.000000    0.000000    0.000000
  0.026447725    1.836929  -77.769875  -94.638784   18.169268    0.000000    0.000000    0.000000    0.000000
  0.026643531    1.837079  -67.715141  -93.787553   15.322043    0.000000    0.000000    0.000000    0.000000
  0.026839338    1.837799  -57.662308  -93.916306   13.601674    0.000000    0.000000    0.000000    0.000000
  0.027035144    1.839354  -47.541103  -94.706410   15.038171    0.000000    0.000000    0.000000    0.000000
  0.027230950    1.834647  -37.442574  -95.460888   18.213535    0.000000    0.000000    0.000000    0.000000
  0.027426756    1.831433  -27.311283  -93.936477   13.954563    0.000000    0.000000    0.000000    0.000000
  0.027622562    1.827845  -17.162706  -95.476162   14.171046    0.000000    0.000000    0.000000    0.000000
  0.027818369    1.824206   -7.013782  -95.023828   15.520500    0.000000    0.000000    0.000000    0.000000
  0.028014175    1.821224    3.120498  -95.095294   20.203131    0.000000    0.000000    0.000000    0.000000
  0.028209981    1.819371   13.266582  -94.674784   10.284986    0.000000    0.000000    0.000000    0.000000
  0.028405788    1.821483   23.429333  -95.719011   12.246725    0.000000    0.000000    0.000000    0.000000
  0.028601594    1.819752   33.597473  -96.256958   11.395629    0.000000    0.000000    0.000000    0.000000
  0.028797400    1.816048   43.755260  -96.030992   10.587973    0.000000    0.000000    0.000000    0.000000
  0.028993206    1.815862   53.915176  -96.440640    8.758224    0.000000    0.000000    0.000000    0.000000
  0.029189013    1.811404   64.044495  -95.505016   13.582552    0.000000    0.000000    0.000000    0.000000
  0.029384819    1.808403   74.160301  -95.646914   20.634916    0.000000    0.000000    0.000000    0.000000
  0.029580625    1.802455   84.243172  -94.934853   16.801977    0.000000    0.000000    0.000000    0.000000
  0.029776431    1.800882   94.300186  -97.409671   18.779352    0.000000    0.000000    0.000000    0.000000
  0.029972237    1.802617  104.312981  -95.931873   14.932481    0.000000    0.000000    0.000000    0.000000
  0.030168044    1.804528  114.328896  -97.296781   16.816875    0.000000    0.000000    0.000000    0.000000
  0.030363850    1.812071  124.321983  -95.313311   13.600443    0.000000    0.000000    0.000000    0.000000
  0.030559656    1.822764  134.304260  -97.182599   10.300685    0.000000    0.000000    0.000000    0.000000
  0.030755463    1.836039  144.307571  -96.274451   11.368289    0.000000    0.000000    0.000000    0.000000
  0.030951269    1.847903  154.270386  -98.011188   11.535192    0.000000    0.000000    0.000000    0.000000
  0.031147075    1.856960  164.173630  -95.663727   27.079065    0.000000    0.000000    0.000000    0.000000
  0.031342881    1.870574  174.075165  -96.699180   13.989984    0.000000    0.000000    0.000000    0.000000
  0.031538687    1.886619 -176.038528  -95.824517   15.045479    0.000000    0.000000    0.000000    0.000000
  0.031734494    1.911328 -166.133087  -95.332562   17.503088    0.000000    0.000000    0.000000    0.000000
  0.031930300    1.934977 -156.235794  -96.768664   11.020934    0.000000    0.000000    0.000000    0.000000
  0.032126106    1.959912 -146.282257  -98.894852   10.356884    0.000000    0.000000    0.000000    0.000000
  0.032321913    1.982589 -136.280991  -96.706532   15.065461    0.000000    0.000000    0.000000    0.000000
  0.032517719    2.007034 -126.294281  -98.036140   25.222542    0.000000    0.000000    0.000000    0.000000
  0.032713525    2.027625 -116.259506  -98.643937   13.527399    0.000000    0.000000    0.000000    0.000000
  0.032909331    2.041172 -106.206848  -97.487715   21.618837    0.000000    0.000000    0.000000    0.000000
  0.033105137    2.052940  -96.104347  -96.966096   14.969155    0.000000    0.000000    0.000000    0.000000
  0.033300944    2.059154  -86.005928  -98.586397    4.336578    0.000000    0.000000    0.000000    0.000000
  0.033496750    2.054474  -75.902222  -97.781183    8.827738    0.000000    0.000000    0.000000    0.000000
  0.033692556    2.058400  -65.848808  -97.202040    3.456221    0.000000    0.000000    0.000000    0.000000
  0.033888362    2.059456  -55.725716  -96.734007   13.419113    0.000000    0.000000    0.000000    0.000000
  0.034084169    2.057566  -45.608604  -98.012212   21.604301    0.000000    0.000000    0.000000    0.000000
  0.034279975    2.053747  -35.476810  -98.744122    7.168989    0.000000    0.000000    0.000000    0.000000
  0.034475781    2.046701  -25.358036  -97.830488    4.174443    0.000000    0.000000    0.000000    0.000000
  0.034671588    2.038615  -15.228817  -99.422823   13.689090    0.000000    0.000000    0.000000    0.000000
  0.034867394    2.029655   -5.145674  -98.588472    2.371931    0.000000    0.000000    0.000000    0.000000
  0.035063200    2.024704    4.946015  -98.171539    2.006035    0.000000    0.000000    0.000000    0.000000
  0.035259006    2.013721   15.007197  -99.800119    3.932242    0.000000    0.000000    0.000000    0.000000
  0.035454812    2.009599   25.076862  -97.186561    8.788416    0.000000    0.000000    0.000000    0.000000
  0.035650619    2.007862   35.149963  -98.798274   14.743744    0.000000    0.000000    0.000000    0.000000
  0.035846425    2.007795   45.225842  -98.414106   11.691599    0.000000    0.000000    0.000000    0.000000
  0.036042231    2.007518   55.272511 -101.015007    6.232340    0.000000    0.000000    0.000000    0.000000
  0.036238037    2.009508   65.311241 -100.115156    2.693993    0.000000    0.000000    0.000000    0.000000
  0.036433844    2.014629   75.350105  -98.106253   24.196613    0.000000    0.000000    0.000000    0.000000
  0.036629650    2.019352   85.400482  -98.999491    3.475941    0.000000    0.000000    0.000000    0.000000
  0.036825456    2.022980   95.423378  -99.282855    2.517910    0.000000    0.000000    0.000000    0.000000
  0.037021262    2.020705  105.408707  -97.061043   -2.698342    0.000000    0.000000    0.000000    0.000000
  0.037217069    2.021997  115.346558  -98.077685    2.768165    0.000000    0.000000    0.000000    0.000000
  0.037412875    2.026109  125.270889 -100.539426    9.432114    0.000000    0.000000    0.000000    0.000000
  0.037608681    2.036340  135.145370  -99.565150   -4.967130    0.000000    0.000000    0.000000    0.000000
  0.037804487    2.044081  145.006454  -99.961963   -0.349512    0.000000    0.000000    0.000000    0.000000
  0.038000294    2.052272  154.823853  -98.812424    1.696494    0.000000    0.000000    0.000000    0.000000
  0.038196100    2.062940  164.647537  -99.954452    8.336798    0.000000    0.000000    0.000000    0.000000
  0.038391906    2.073721  174.443466 -101.658939   -1.218740    0.000000    0.000000    0.000000    0.000000
  0.038587713    2.085631 -175.779312 -100.033592    1.895442    0.000000    0.000000    0.000000    0.000000
  0.038783519    2.097960 -165.973145 -100.644535   10.203268    0.000000    0.000000    0.000000    0.000000
  0.038979325    2.112527 -156.161545 -100.083093   12.426542    0.000000    0.000000    0.000000    0.000000
  0.039175131    2.129319 -146.322754 -100.309996   -6.415546    0.000000    0.000000    0.000000    0.000000
  0.039370938    2.146960 -136.482162 -100.942793    4.232125    0.000000    0.000000    0.000000    0.000000
  0.039566744    2.166764 -126.577477  -99.277320    0.954711    0.000000    0.000000    0.000000    0.000000
  0.039762550    2.184965 -116.667747 -104.335796   -8.059818    0.000000    0.000000    0.000000    0.000000
  0.039958356    2.202362 -106.723183  -98.276744    5.056941    0.000000    0.000000    0.000000    0.000000
  0.040154163    2.217496  -96.730919  -99.185246    8.049800    0.000000    0.000000    0.000000    0.000000
  0.040349969    2.229938  -86.681618 -101.484131   11.988758    0.000000    0.000000    0.000000    0.000000
  0.040545775    2.240965  -76.590012 -100.229848    4.515460    0.000000    0.000000    0.000000    0.000000
  0.040741581    2.242257  -66.517349  -99.847670    1.023133    0.000000    0.000000    0.000000    0.000000
  0.040937387    2.242627  -56.388073  -99.829260   11.535679    0.000000    0.000000    0.000000    0.000000
  0.041133194    2.242781  -46.253731 -101.989827    6.049792    0.000000    0.000000    0.000000    0.000000
  0.041329000    2.240064  -36.099613 -102.177177   -8.668000    0.000000    0.000000    0.000000    0.000000
  0.041524806    2.239822  -25.911150  -99.871843    5.154477    0.000000    0.000000    0.000000    0.000000
  0.041720612    2.239368  -15.696897  -99.723459  -13.671614    0.000000    0.000000    0.000000    0.000000
  0.041916419    2.234858   -5.465388 -101.134504   -0.081405    0.000000    0.000000    0.000000    0.000000
  0.042112225    2.229501    4.767632 -100.323428    3.288719    0.000000    0.000000    0.000000    0.000000
