! Anritsu VNA Master:                     Model: MS2036C/10/77
! SN:                                  1601066
! /card0/usr/18may12.lna.rl/252a.sw.out.cold.rl.s2p
! Existing Calibration Information:
! TYPE:                         Current Settings,       Active Cal Settings
! TIME:             	   05/12/2018 04:33:07 PM,    05/12/2018 04:14:26 PM
! INTERNAL TEMP:    	                   49.5 C,                    49.8 C
! # POINTS:         	                      500,                       500
! START FREQ:       	               20.000 MHz,                20.000 MHz
! STOP FREQ:        	              120.000 MHz,               120.000 MHz
! SOURCE POWER:     	                      Low,                       Low
! IFBW:             	                    10 Hz,                     10 Hz
! AVG FACTOR:       	                       1 ,                        1 
! REF PLANE 1:      	                     0 mm,                      0 mm
! REF PLANE 2:      	                     0 mm,                      0 mm
! CAL TYPE:         	                 Full S22,                  Full S22
! CAL METHOD:       	                     SOLT,                      SOLT
! CAL LINE TYPE:    	                     Coax,                      Coax
! DUT PORT 1:       	                K-Conn(M),                 K-Conn(M)
! DUT PORT 2:       	                K-Conn(M),                 K-Conn(M)
! CAL STATUS:       	        OK: Accuracy High,                        --
# GHZ S DB R 50.0
! FREQ.GHZ       S11DB        S11A       S21DB        S21A       S12DB        S12A       S22DB        S22A
  0.020000000    0.000000    0.000000    0.000000    0.000000  -82.463661   80.595573  -30.073906  -42.070396
  0.020200401    0.000000    0.000000    0.000000    0.000000  -82.506236   63.324295  -29.925927  -41.127739
  0.020400802    0.000000    0.000000    0.000000    0.000000  -83.741577   59.468060  -30.070580  -39.593632
  0.020601202    0.000000    0.000000    0.000000    0.000000  -82.977187   64.841148  -30.137242  -41.750172
  0.020801603    0.000000    0.000000    0.000000    0.000000  -82.896553   57.855392  -30.331303  -42.956108
  0.021002004    0.000000    0.000000    0.000000    0.000000  -82.646874   79.721924  -30.187788  -40.718029
  0.021202405    0.000000    0.000000    0.000000    0.000000  -82.643021   68.270729  -30.263078  -43.249577
  0.021402806    0.000000    0.000000    0.000000    0.000000  -82.339245   54.340847  -30.150985  -42.474297
  0.021603206    0.000000    0.000000    0.000000    0.000000  -83.740330   66.296753  -29.916446  -42.948883
  0.021803607    0.000000    0.000000    0.000000    0.000000  -83.399583   56.579754  -30.237479  -42.718239
  0.022004008    0.000000    0.000000    0.000000    0.000000  -85.469929   74.203873  -30.354087  -43.690098
  0.022204409    0.000000    0.000000    0.000000    0.000000  -80.414263   69.176857  -30.265258  -43.032925
  0.022404810    0.000000    0.000000    0.000000    0.000000  -81.369452   59.425789  -30.497271  -43.306236
  0.022605210    0.000000    0.000000    0.000000    0.000000  -81.882251   76.775307  -30.452224  -42.198105
  0.022805611    0.000000    0.000000    0.000000    0.000000  -81.784123   62.161880  -30.261130  -44.836151
  0.023006012    0.000000    0.000000    0.000000    0.000000  -84.767021   75.995514  -30.532313  -43.474216
  0.023206413    0.000000    0.000000    0.000000    0.000000  -84.192059   52.530952  -30.389629  -46.460567
  0.023406814    0.000000    0.000000    0.000000    0.000000  -85.284582   55.671524  -30.379980  -44.815960
  0.023607214    0.000000    0.000000    0.000000    0.000000  -83.640334   50.354839  -30.489675  -46.319130
  0.023807615    0.000000    0.000000    0.000000    0.000000  -84.097173   64.616257  -30.333573  -44.852623
  0.024008016    0.000000    0.000000    0.000000    0.000000  -83.718835   75.317093  -30.576163  -43.735317
  0.024208417    0.000000    0.000000    0.000000    0.000000  -86.701663   78.232758  -30.541232  -46.507439
  0.024408818    0.000000    0.000000    0.000000    0.000000  -84.940622   71.883774  -30.947169  -47.388042
  0.024609218    0.000000    0.000000    0.000000    0.000000  -82.236173   66.323891  -30.498261  -45.589817
  0.024809619    0.000000    0.000000    0.000000    0.000000  -82.646109   65.569382  -30.618796  -48.225697
  0.025010020    0.000000    0.000000    0.000000    0.000000  -83.949132   61.114914  -30.536637  -47.149403
  0.025210421    0.000000    0.000000    0.000000    0.000000  -82.138124   73.095558  -30.986251  -47.460304
  0.025410822    0.000000    0.000000    0.000000    0.000000  -84.031358   53.769962  -30.652335  -48.295040
  0.025611222    0.000000    0.000000    0.000000    0.000000  -83.656599   75.186653  -30.851913  -46.972507
  0.025811623    0.000000    0.000000    0.000000    0.000000  -87.541485   66.711655  -30.703282  -47.550621
  0.026012024    0.000000    0.000000    0.000000    0.000000  -83.669946   46.053230  -30.885011  -47.791477
  0.026212425    0.000000    0.000000    0.000000    0.000000  -85.651356   71.406998  -30.973500  -47.463432
  0.026412826    0.000000    0.000000    0.000000    0.000000  -85.151648   82.210159  -30.963705  -49.713387
  0.026613226    0.000000    0.000000    0.000000    0.000000  -84.472840   57.765690  -30.780478  -49.143314
  0.026813627    0.000000    0.000000    0.000000    0.000000  -83.245050   64.846954  -31.479478  -49.110977
  0.027014028    0.000000    0.000000    0.000000    0.000000  -82.563194   74.439194  -31.051910  -48.973930
  0.027214429    0.000000    0.000000    0.000000    0.000000  -86.984665   63.275932  -31.111216  -49.109070
  0.027414830    0.000000    0.000000    0.000000    0.000000  -84.583740   71.593056  -31.374972  -47.118275
  0.027615230    0.000000    0.000000    0.000000    0.000000  -85.199942   38.587513  -31.469988  -50.467381
  0.027815631    0.000000    0.000000    0.000000    0.000000  -83.376391   61.033497  -31.401122  -50.365101
  0.028016032    0.000000    0.000000    0.000000    0.000000  -85.098001   56.696098  -31.417296  -50.353916
  0.028216433    0.000000    0.000000    0.000000    0.000000  -83.549520   55.540901  -31.233729  -49.471870
  0.028416834    0.000000    0.000000    0.000000    0.000000  -84.596840   63.906139  -31.078116  -50.355011
  0.028617234    0.000000    0.000000    0.000000    0.000000  -83.683976   49.299988  -31.598886  -49.740788
  0.028817635    0.000000    0.000000    0.000000    0.000000  -86.582500   62.213871  -31.511165  -52.250526
  0.029018036    0.000000    0.000000    0.000000    0.000000  -84.625281   47.962193  -31.236070  -51.517143
  0.029218437    0.000000    0.000000    0.000000    0.000000  -84.972850   71.466698  -31.860884  -52.854763
  0.029418838    0.000000    0.000000    0.000000    0.000000  -84.768387   46.474014  -31.416069  -52.728256
  0.029619238    0.000000    0.000000    0.000000    0.000000  -85.811557   46.441223  -31.515064  -51.370346
  0.029819639    0.000000    0.000000    0.000000    0.000000  -86.686857   63.453098  -31.778321  -51.822254
  0.030020040    0.000000    0.000000    0.000000    0.000000  -86.054313   58.458065  -31.911488  -54.221348
  0.030220441    0.000000    0.000000    0.000000    0.000000  -85.924367   67.397713  -31.840107  -53.969006
  0.030420842    0.000000    0.000000    0.000000    0.000000  -86.074646   56.521385  -31.727136  -52.023972
  0.030621242    0.000000    0.000000    0.000000    0.000000  -84.708367   50.636707  -31.596088  -54.859787
  0.030821643    0.000000    0.000000    0.000000    0.000000  -87.020259   54.270866  -31.676232  -53.728809
  0.031022044    0.000000    0.000000    0.000000    0.000000  -85.477479   61.175121  -31.940240  -53.130013
  0.031222445    0.000000    0.000000    0.000000    0.000000  -87.829482   64.511955  -32.229906  -57.351883
  0.031422846    0.000000    0.000000    0.000000    0.000000  -88.224865   85.218620  -32.210466  -53.301727
  0.031623246    0.000000    0.000000    0.000000    0.000000  -85.850423   56.434845  -32.226258  -55.041237
  0.031823647    0.000000    0.000000    0.000000    0.000000  -82.442905   68.338600  -32.394260  -53.087757
  0.032024048    0.000000    0.000000    0.000000    0.000000  -83.453672   80.459152  -32.519784  -55.354271
  0.032224449    0.000000    0.000000    0.000000    0.000000  -84.416388   61.779274  -32.072204  -53.912594
  0.032424850    0.000000    0.000000    0.000000    0.000000  -87.189416   60.371849  -32.163864  -56.770046
  0.032625251    0.000000    0.000000    0.000000    0.000000  -86.038833   79.875572  -32.299855  -56.660347
  0.032825651    0.000000    0.000000    0.000000    0.000000  -83.963892   61.158844  -32.239645  -56.469200
  0.033026052    0.000000    0.000000    0.000000    0.000000  -84.237485   75.551399  -32.436125  -57.483574
  0.033226453    0.000000    0.000000    0.000000    0.000000  -85.704569   52.368736  -32.099274  -56.596165
  0.033426854    0.000000    0.000000    0.000000    0.000000  -86.188688   62.512829  -32.529989  -56.285385
  0.033627255    0.000000    0.000000    0.000000    0.000000  -86.020487   75.689728  -32.855854  -54.627800
  0.033827655    0.000000    0.000000    0.000000    0.000000  -84.319588   70.123199  -32.410240  -57.120491
  0.034028056    0.000000    0.000000    0.000000    0.000000  -85.580924   94.428612  -32.040129  -57.632084
  0.034228457    0.000000    0.000000    0.000000    0.000000  -84.208795   46.595139  -32.524329  -60.644211
  0.034428858    0.000000    0.000000    0.000000    0.000000  -87.812733   50.639889  -32.774670  -57.379490
  0.034629259    0.000000    0.000000    0.000000    0.000000  -83.980865   69.459778  -32.839066  -59.185623
  0.034829659    0.000000    0.000000    0.000000    0.000000  -84.560995   63.015175  -32.836119  -59.866821
  0.035030060    0.000000    0.000000    0.000000    0.000000  -85.586468   73.623512  -32.557811  -60.666531
  0.035230461    0.000000    0.000000    0.000000    0.000000  -86.785476   79.974525  -32.631546  -57.740711
  0.035430862    0.000000    0.000000    0.000000    0.000000  -82.577676   64.919632  -32.781155  -57.071266
  0.035631263    0.000000    0.000000    0.000000    0.000000  -86.275187   76.481567  -33.102799  -60.675663
  0.035831663    0.000000    0.000000    0.000000    0.000000  -84.862350   75.994499  -33.026841  -59.209091
  0.036032064    0.000000    0.000000    0.000000    0.000000  -88.843153   81.679581  -32.981035  -62.447472
  0.036232465    0.000000    0.000000    0.000000    0.000000  -83.964304   55.069366  -32.731386  -61.196220
  0.036432866    0.000000    0.000000    0.000000    0.000000  -84.690226   50.662907  -33.129734  -60.126682
  0.036633267    0.000000    0.000000    0.000000    0.000000  -87.209929   78.066498  -32.924329  -61.518543
  0.036833667    0.000000    0.000000    0.000000    0.000000  -84.653815   77.001396  -33.240260  -61.393135
  0.037034068    0.000000    0.000000    0.000000    0.000000  -84.246814   55.184940  -32.501277  -61.483921
  0.037234469    0.000000    0.000000    0.000000    0.000000  -84.745153   61.556896  -32.674320  -64.094765
  0.037434870    0.000000    0.000000    0.000000    0.000000  -82.774219   73.171616  -33.286313  -64.181366
  0.037635271    0.000000    0.000000    0.000000    0.000000  -85.096815   53.985119  -33.212784  -59.263802
  0.037835671    0.000000    0.000000    0.000000    0.000000  -84.482625   66.755096  -32.602559  -60.715599
  0.038036072    0.000000    0.000000    0.000000    0.000000  -90.104287   70.689980  -33.453888  -60.055710
  0.038236473    0.000000    0.000000    0.000000    0.000000  -85.233124   73.058723  -33.329971  -59.457466
  0.038436874    0.000000    0.000000    0.000000    0.000000  -83.397492   52.978077  -32.773224  -62.422977
  0.038637275    0.000000    0.000000    0.000000    0.000000  -86.276019   89.692986  -33.263336  -65.850006
  0.038837675    0.000000    0.000000    0.000000    0.000000  -85.256503   65.655968  -33.413686  -63.007751
  0.039038076    0.000000    0.000000    0.000000    0.000000  -87.044146   68.015755  -33.550843  -64.677246
  0.039238477    0.000000    0.000000    0.000000    0.000000  -84.050609   30.195536  -33.427663  -63.913815
  0.039438878    0.000000    0.000000    0.000000    0.000000  -83.586075   40.544815  -33.560895  -62.270855
  0.039639279    0.000000    0.000000    0.000000    0.000000  -86.432880   60.112022  -33.687014  -65.995804
  0.039839679    0.000000    0.000000    0.000000    0.000000  -93.651272   79.336250  -33.364167  -65.575722
  0.040040080    0.000000    0.000000    0.000000    0.000000  -87.744869   62.853001  -33.658546  -65.229294
  0.040240481    0.000000    0.000000    0.000000    0.000000  -89.878059   53.148899  -34.060376  -67.633133
  0.040440882    0.000000    0.000000    0.000000    0.000000  -84.241982   46.414658  -33.598771  -65.655342
  0.040641283    0.000000    0.000000    0.000000    0.000000  -83.402714   78.396530  -34.096131  -64.823418
  0.040841683    0.000000    0.000000    0.000000    0.000000  -88.495558   78.366455  -33.604191  -65.923462
  0.041042084    0.000000    0.000000    0.000000    0.000000  -85.308139   68.882828  -33.400934  -66.174858
  0.041242485    0.000000    0.000000    0.000000    0.000000  -83.881875   48.273026  -34.215390  -67.219177
  0.041442886    0.000000    0.000000    0.000000    0.000000  -82.148899   65.275772  -33.870535  -69.362167
  0.041643287    0.000000    0.000000    0.000000    0.000000  -83.364475   55.209572  -34.034251  -68.460617
  0.041843687    0.000000    0.000000    0.000000    0.000000  -85.848524   91.762466  -34.330576  -67.339722
  0.042044088    0.000000    0.000000    0.000000    0.000000  -86.834897   56.397511  -33.910480  -69.655746
  0.042244489    0.000000    0.000000    0.000000    0.000000  -85.236447   66.031563  -34.308330  -67.455444
  0.042444890    0.000000    0.000000    0.000000    0.000000  -85.040577   84.281555  -34.036395  -69.040344
  0.042645291    0.000000    0.000000    0.000000    0.000000  -86.083574   47.982201  -34.141656  -66.103775
  0.042845691    0.000000    0.000000    0.000000    0.000000  -83.452520   68.690071  -34.093772  -69.447945
  0.043046092    0.000000    0.000000    0.000000    0.000000  -84.605628   53.685307  -34.344759  -69.018333
  0.043246493    0.000000    0.000000    0.000000    0.000000  -85.955828   83.200027  -34.503413  -68.568878
  0.043446894    0.000000    0.000000    0.000000    0.000000  -84.634459   75.311424  -34.657471  -68.597130
  0.043647295    0.000000    0.000000    0.000000    0.000000  -85.195643   76.665215  -34.459757  -66.941154
  0.043847695    0.000000    0.000000    0.000000    0.000000  -87.428438   68.308968  -34.457125  -71.439194
  0.044048096    0.000000    0.000000    0.000000    0.000000  -87.222419   84.797523  -34.607899  -67.603996
  0.044248497    0.000000    0.000000    0.000000    0.000000  -83.819761   41.756878  -34.845977  -68.934883
  0.044448898    0.000000    0.000000    0.000000    0.000000  -83.549412   94.172798  -34.305611  -72.729355
  0.044649299    0.000000    0.000000    0.000000    0.000000  -85.575559   64.431236  -34.299789  -73.486015
  0.044849699    0.000000    0.000000    0.000000    0.000000  -84.104443   66.490829  -34.648490  -70.109894
  0.045050100    0.000000    0.000000    0.000000    0.000000  -89.165922   51.482597  -35.223680  -70.654793
  0.045250501    0.000000    0.000000    0.000000    0.000000  -89.294515   53.330627  -34.626021  -69.417511
  0.045450902    0.000000    0.000000    0.000000    0.000000  -89.198888   70.684273  -35.038170  -71.993874
  0.045651303    0.000000    0.000000    0.000000    0.000000  -86.160806   78.047890  -35.187678  -73.647484
  0.045851703    0.000000    0.000000    0.000000    0.000000  -86.009180   73.830994  -35.170627  -74.770309
  0.046052104    0.000000    0.000000    0.000000    0.000000  -85.503720   73.726746  -35.436661  -74.625175
  0.046252505    0.000000    0.000000    0.000000    0.000000  -87.173644   72.577744  -35.597795  -72.334572
  0.046452906    0.000000    0.000000    0.000000    0.000000  -87.218601   42.496449  -34.737928  -75.908409
  0.046653307    0.000000    0.000000    0.000000    0.000000  -85.965659   66.539558  -34.972287  -72.894684
  0.046853707    0.000000    0.000000    0.000000    0.000000  -85.373565   76.782570  -35.390532  -74.202126
  0.047054108    0.000000    0.000000    0.000000    0.000000  -86.443071   90.801178  -34.928211  -72.402435
  0.047254509    0.000000    0.000000    0.000000    0.000000  -86.481779   75.896614  -35.058280  -76.292854
  0.047454910    0.000000    0.000000    0.000000    0.000000  -85.340753   60.470787  -35.171781  -77.322235
  0.047655311    0.000000    0.000000    0.000000    0.000000  -84.717075   65.349396  -34.990976  -71.078857
  0.047855711    0.000000    0.000000    0.000000    0.000000  -87.903168   80.730278  -35.771610  -76.361603
  0.048056112    0.000000    0.000000    0.000000    0.000000  -83.410066   71.367874  -35.910797  -75.242165
  0.048256513    0.000000    0.000000    0.000000    0.000000  -83.649873   64.935837  -36.199885  -76.302917
  0.048456914    0.000000    0.000000    0.000000    0.000000  -87.786535   71.589737  -35.390263  -74.373779
  0.048657315    0.000000    0.000000    0.000000    0.000000  -86.836272   62.890591  -35.745544  -76.815285
  0.048857715    0.000000    0.000000    0.000000    0.000000  -86.475660   59.237888  -35.119687  -76.605064
  0.049058116    0.000000    0.000000    0.000000    0.000000  -87.147924   54.601601  -35.954395  -77.707649
  0.049258517    0.000000    0.000000    0.000000    0.000000  -87.953471   61.468334  -35.367324  -76.737473
  0.049458918    0.000000    0.000000    0.000000    0.000000  -87.051836   40.666389  -35.900549  -74.107849
  0.049659319    0.000000    0.000000    0.000000    0.000000  -81.906189   75.331711  -35.430584  -75.673897
  0.049859719    0.000000    0.000000    0.000000    0.000000  -88.404417   65.277077  -35.787471  -76.158813
  0.050060120    0.000000    0.000000    0.000000    0.000000  -84.975835   49.312931  -36.239943  -80.570740
  0.050260521    0.000000    0.000000    0.000000    0.000000  -84.133523   79.820091  -35.627569  -77.088448
  0.050460922    0.000000    0.000000    0.000000    0.000000  -84.882173   67.145607  -35.784049  -78.708290
  0.050661323    0.000000    0.000000    0.000000    0.000000  -85.721634   66.162910  -36.348514  -80.924660
  0.050861723    0.000000    0.000000    0.000000    0.000000  -85.442432   65.531120  -36.202000  -76.410591
  0.051062124    0.000000    0.000000    0.000000    0.000000  -83.554620   71.958084  -36.087232  -82.732376
  0.051262525    0.000000    0.000000    0.000000    0.000000  -84.645732   70.310806  -36.436277  -80.789543
  0.051462926    0.000000    0.000000    0.000000    0.000000  -87.003863   57.153511  -36.357097  -81.368896
  0.051663327    0.000000    0.000000    0.000000    0.000000  -87.101933   67.434250  -36.379846  -76.010361
  0.051863727    0.000000    0.000000    0.000000    0.000000  -82.491335   77.665604  -36.395378  -75.569565
  0.052064128    0.000000    0.000000    0.000000    0.000000  -85.949985   71.346443  -36.211938  -79.750999
  0.052264529    0.000000    0.000000    0.000000    0.000000  -88.951484   60.502419  -36.437980  -83.795319
  0.052464930    0.000000    0.000000    0.000000    0.000000  -86.447476   72.287766  -36.896650  -81.345734
  0.052665331    0.000000    0.000000    0.000000    0.000000  -88.522649   78.397507  -36.201920  -81.037941
  0.052865731    0.000000    0.000000    0.000000    0.000000  -87.738046   54.486851  -36.245999  -80.509666
