! Anritsu VNA Master:                     Model: MS2036C/10/77
! SN:                                  1601066
! /card0/usr/18may12.lna.rl/256a.swout.s2p
! Existing Calibration Information:
! TYPE:                         Current Settings,       Active Cal Settings
! TIME:             	   05/13/2018 01:40:57 PM,    05/13/2018 01:31:14 PM
! INTERNAL TEMP:    	                   51.0 C,                    49.8 C
! # POINTS:         	                      500,                       500
! START FREQ:       	               20.000 MHz,                20.000 MHz
! STOP FREQ:        	              120.000 MHz,               120.000 MHz
! SOURCE POWER:     	                      Low,                       Low
! IFBW:             	                    10 Hz,                     10 Hz
! AVG FACTOR:       	                       1 ,                        1 
! REF PLANE 1:      	                     0 mm,                      0 mm
! REF PLANE 2:      	                     0 mm,                      0 mm
! CAL TYPE:         	                 Full S22,                  Full S22
! CAL METHOD:       	                     SOLT,                      SOLT
! CAL LINE TYPE:    	                     Coax,                      Coax
! DUT PORT 1:       	                K-Conn(M),                 K-Conn(M)
! DUT PORT 2:       	                K-Conn(M),                 K-Conn(M)
! CAL STATUS:       	        OK: Accuracy High,                        --
# GHZ S DB R 50.0
! FREQ.GHZ       S11DB        S11A       S21DB        S21A       S12DB        S12A       S22DB        S22A
  0.020000000    0.000000    0.000000    0.000000    0.000000  -81.594668   66.995110  -32.256106  -39.751518
  0.020200401    0.000000    0.000000    0.000000    0.000000  -81.440287   59.026585  -31.994641  -43.802265
  0.020400802    0.000000    0.000000    0.000000    0.000000  -85.732468   66.255257  -32.210980  -40.751514
  0.020601202    0.000000    0.000000    0.000000    0.000000  -81.056202   57.626976  -32.108005  -45.521942
  0.020801603    0.000000    0.000000    0.000000    0.000000  -83.452998   71.747108  -31.715249  -41.996891
  0.021002004    0.000000    0.000000    0.000000    0.000000  -85.081292   66.907280  -32.042677  -43.426609
  0.021202405    0.000000    0.000000    0.000000    0.000000  -81.714516   50.105053  -32.412000  -43.212566
  0.021402806    0.000000    0.000000    0.000000    0.000000  -84.295234   66.437462  -32.213777  -44.139534
  0.021603206    0.000000    0.000000    0.000000    0.000000  -83.547342   73.999298  -32.268919  -44.260338
  0.021803607    0.000000    0.000000    0.000000    0.000000  -84.158428   77.229309  -32.654929  -45.043480
  0.022004008    0.000000    0.000000    0.000000    0.000000  -83.326574   66.193962  -32.055976  -44.272404
  0.022204409    0.000000    0.000000    0.000000    0.000000  -87.472175   75.978081  -32.348205  -46.841202
  0.022404810    0.000000    0.000000    0.000000    0.000000  -84.099300   64.899719  -32.410796  -45.772480
  0.022605210    0.000000    0.000000    0.000000    0.000000  -83.227834   48.089516  -32.620434  -47.605793
  0.022805611    0.000000    0.000000    0.000000    0.000000  -81.660533   67.416985  -32.477217  -48.433903
  0.023006012    0.000000    0.000000    0.000000    0.000000  -82.668395   67.938957  -32.464814  -44.942829
  0.023206413    0.000000    0.000000    0.000000    0.000000  -83.137293   74.605034  -32.463295  -45.790604
  0.023406814    0.000000    0.000000    0.000000    0.000000  -85.308685   65.460899  -32.768132  -46.591496
  0.023607214    0.000000    0.000000    0.000000    0.000000  -82.264387   47.233356  -32.888627  -46.457169
  0.023807615    0.000000    0.000000    0.000000    0.000000  -85.548971   61.841175  -32.535392  -47.090046
  0.024008016    0.000000    0.000000    0.000000    0.000000  -85.157466   57.207420  -32.719975  -46.034435
  0.024208417    0.000000    0.000000    0.000000    0.000000  -84.128763   56.513172  -32.752490  -47.643105
  0.024408818    0.000000    0.000000    0.000000    0.000000  -87.149257   69.765144  -32.939270  -47.324638
  0.024609218    0.000000    0.000000    0.000000    0.000000  -85.504762   72.158485  -32.934768  -50.299770
  0.024809619    0.000000    0.000000    0.000000    0.000000  -86.120854   37.250313  -32.644354  -47.061340
  0.025010020    0.000000    0.000000    0.000000    0.000000  -84.343593   65.566780  -32.862704  -49.595928
  0.025210421    0.000000    0.000000    0.000000    0.000000  -84.680955   56.806568  -33.175850  -48.633446
  0.025410822    0.000000    0.000000    0.000000    0.000000  -81.640908   66.042961  -33.225697  -49.395260
  0.025611222    0.000000    0.000000    0.000000    0.000000  -85.600227   52.193336  -33.241517  -48.538010
  0.025811623    0.000000    0.000000    0.000000    0.000000  -86.544386   62.418648  -33.490038  -50.429321
  0.026012024    0.000000    0.000000    0.000000    0.000000  -84.017038   55.156693  -33.231340  -52.279629
  0.026212425    0.000000    0.000000    0.000000    0.000000  -81.802517   64.716835  -33.142867  -51.286961
  0.026412826    0.000000    0.000000    0.000000    0.000000  -84.135331   45.329815  -32.964969  -50.382187
  0.026613226    0.000000    0.000000    0.000000    0.000000  -85.066112   55.346565  -33.512768  -51.542145
  0.026813627    0.000000    0.000000    0.000000    0.000000  -86.834795   71.556175  -33.455809  -51.329155
  0.027014028    0.000000    0.000000    0.000000    0.000000  -83.432049   78.794090  -33.407370  -53.080105
  0.027214429    0.000000    0.000000    0.000000    0.000000  -83.070732   52.765373  -33.755465  -50.879272
  0.027414830    0.000000    0.000000    0.000000    0.000000  -82.618384   55.023643  -33.576869  -52.859550
  0.027615230    0.000000    0.000000    0.000000    0.000000  -83.808005   50.579414  -33.538935  -52.060940
  0.027815631    0.000000    0.000000    0.000000    0.000000  -84.214405   69.190376  -33.513329  -54.015865
  0.028016032    0.000000    0.000000    0.000000    0.000000  -84.234360   59.936672  -33.785574  -52.046165
  0.028216433    0.000000    0.000000    0.000000    0.000000  -85.018497   58.026794  -33.730514  -51.886002
  0.028416834    0.000000    0.000000    0.000000    0.000000  -91.931440   49.753300  -33.521427  -50.846832
  0.028617234    0.000000    0.000000    0.000000    0.000000  -86.598847   54.684124  -33.854717  -51.232845
  0.028817635    0.000000    0.000000    0.000000    0.000000  -86.940871   68.148811  -33.566547  -53.877544
  0.029018036    0.000000    0.000000    0.000000    0.000000  -87.494567   74.284576  -34.096134  -53.918381
  0.029218437    0.000000    0.000000    0.000000    0.000000  -84.689234   71.147293  -34.296379  -54.783310
  0.029418838    0.000000    0.000000    0.000000    0.000000  -85.152700   63.922020  -33.540490  -56.261814
  0.029619238    0.000000    0.000000    0.000000    0.000000  -85.033528   73.767281  -33.858829  -53.128468
  0.029819639    0.000000    0.000000    0.000000    0.000000  -85.909044   61.654144  -34.003680  -55.681423
  0.030020040    0.000000    0.000000    0.000000    0.000000  -84.408546   65.012527  -33.867409  -53.125240
  0.030220441    0.000000    0.000000    0.000000    0.000000  -84.499647   73.726791  -34.148708  -57.495003
  0.030420842    0.000000    0.000000    0.000000    0.000000  -84.105244   63.094425  -34.282688  -54.748589
  0.030621242    0.000000    0.000000    0.000000    0.000000  -84.834553   57.927956  -34.404395  -56.604645
  0.030821643    0.000000    0.000000    0.000000    0.000000  -87.156652   75.132576  -34.187336  -54.728275
  0.031022044    0.000000    0.000000    0.000000    0.000000  -86.497883   53.969788  -34.509723  -55.731979
  0.031222445    0.000000    0.000000    0.000000    0.000000  -85.455857   68.050377  -34.229600  -54.814060
  0.031422846    0.000000    0.000000    0.000000    0.000000  -85.772186   50.115227  -34.212766  -59.381603
  0.031623246    0.000000    0.000000    0.000000    0.000000  -84.581919   88.550972  -34.664335  -57.491970
  0.031823647    0.000000    0.000000    0.000000    0.000000  -82.634258   61.393223  -35.129657  -57.523499
  0.032024048    0.000000    0.000000    0.000000    0.000000  -88.949163   56.859879  -34.562016  -57.646755
  0.032224449    0.000000    0.000000    0.000000    0.000000  -85.040387   81.171494  -34.511788  -59.516457
  0.032424850    0.000000    0.000000    0.000000    0.000000  -83.255467   43.396374  -35.161783  -57.940754
  0.032625251    0.000000    0.000000    0.000000    0.000000  -85.954287   50.650230  -35.033156  -57.192398
  0.032825651    0.000000    0.000000    0.000000    0.000000  -88.215246   46.826443  -35.243367  -57.884575
  0.033026052    0.000000    0.000000    0.000000    0.000000  -87.710190   69.026001  -35.126111  -55.375397
  0.033226453    0.000000    0.000000    0.000000    0.000000  -89.145893   68.577209  -34.627275  -58.098660
  0.033426854    0.000000    0.000000    0.000000    0.000000  -84.142810   78.836800  -34.565270  -61.063709
  0.033627255    0.000000    0.000000    0.000000    0.000000  -89.016579   55.762119  -35.042404  -58.200226
  0.033827655    0.000000    0.000000    0.000000    0.000000  -83.836090   71.692955  -34.690384  -58.297985
  0.034028056    0.000000    0.000000    0.000000    0.000000  -85.320830   60.527390  -34.906249  -59.125587
  0.034228457    0.000000    0.000000    0.000000    0.000000  -84.709685   49.757324  -34.445746  -62.799629
  0.034428858    0.000000    0.000000    0.000000    0.000000  -85.589037   62.904690  -34.828711  -59.160419
  0.034629259    0.000000    0.000000    0.000000    0.000000  -85.856816   44.535233  -35.155873  -61.415730
  0.034829659    0.000000    0.000000    0.000000    0.000000  -85.600367   57.648346  -35.221797  -58.186661
  0.035030060    0.000000    0.000000    0.000000    0.000000  -86.356772   85.508690  -35.323976  -61.525551
  0.035230461    0.000000    0.000000    0.000000    0.000000  -82.704592   59.246910  -35.682734  -60.521397
  0.035430862    0.000000    0.000000    0.000000    0.000000  -83.701186   59.500256  -35.174232  -62.993324
  0.035631263    0.000000    0.000000    0.000000    0.000000  -86.698434   66.089638  -35.106056  -61.340004
  0.035831663    0.000000    0.000000    0.000000    0.000000  -85.354739   50.280109  -35.006918  -63.783531
  0.036032064    0.000000    0.000000    0.000000    0.000000  -82.458004   67.991951  -35.661701  -63.504017
  0.036232465    0.000000    0.000000    0.000000    0.000000  -84.571726   57.781418  -35.971202  -57.964714
  0.036432866    0.000000    0.000000    0.000000    0.000000  -89.157012   43.308064  -35.407714  -61.164883
  0.036633267    0.000000    0.000000    0.000000    0.000000  -86.313632   82.255669  -35.492845  -62.690071
  0.036833667    0.000000    0.000000    0.000000    0.000000  -86.501356   48.345963  -35.638047  -58.392933
  0.037034068    0.000000    0.000000    0.000000    0.000000  -83.268858   49.740906  -35.909965  -60.834949
  0.037234469    0.000000    0.000000    0.000000    0.000000  -82.903012   73.988213  -35.649742  -60.705650
  0.037434870    0.000000    0.000000    0.000000    0.000000  -84.312017   59.510448  -36.164051  -62.704567
  0.037635271    0.000000    0.000000    0.000000    0.000000  -83.530551   80.476295  -35.634035  -63.910530
  0.037835671    0.000000    0.000000    0.000000    0.000000  -81.023979   73.549080  -36.327380  -65.826530
  0.038036072    0.000000    0.000000    0.000000    0.000000  -86.530075   93.924751  -35.891872  -65.586502
  0.038236473    0.000000    0.000000    0.000000    0.000000  -85.906068   69.934387  -36.040481  -61.346245
  0.038436874    0.000000    0.000000    0.000000    0.000000  -88.096987   67.114830  -35.538075  -62.664963
  0.038637275    0.000000    0.000000    0.000000    0.000000  -85.278124   73.056595  -36.045486  -62.086155
  0.038837675    0.000000    0.000000    0.000000    0.000000  -83.620465   58.911167  -35.849533  -66.339264
  0.039038076    0.000000    0.000000    0.000000    0.000000  -86.087649   83.614410  -36.404467  -63.861217
  0.039238477    0.000000    0.000000    0.000000    0.000000  -88.799893   28.674500  -36.308442  -64.723259
  0.039438878    0.000000    0.000000    0.000000    0.000000  -85.314912   64.084335  -36.507607  -65.771782
  0.039639279    0.000000    0.000000    0.000000    0.000000  -84.495486   50.517773  -36.566678  -63.838184
  0.039839679    0.000000    0.000000    0.000000    0.000000  -85.499104   72.371361  -36.268392  -65.349419
  0.040040080    0.000000    0.000000    0.000000    0.000000  -86.100110   85.392731  -36.364610  -69.012611
  0.040240481    0.000000    0.000000    0.000000    0.000000  -85.887338   59.939930  -36.066112  -67.405235
  0.040440882    0.000000    0.000000    0.000000    0.000000  -83.523214   62.448845  -36.816226  -62.104588
  0.040641283    0.000000    0.000000    0.000000    0.000000  -85.408972   66.259041  -37.146779  -67.800850
  0.040841683    0.000000    0.000000    0.000000    0.000000  -83.811354   52.789848  -37.397490  -65.955658
  0.041042084    0.000000    0.000000    0.000000    0.000000  -86.394530   80.360847  -37.246683  -67.155411
  0.041242485    0.000000    0.000000    0.000000    0.000000  -85.636455   41.791740  -37.056501  -66.572510
  0.041442886    0.000000    0.000000    0.000000    0.000000  -85.648816   57.954933  -37.656016  -65.904892
  0.041643287    0.000000    0.000000    0.000000    0.000000  -86.539765   68.537056  -37.236856  -67.288658
  0.041843687    0.000000    0.000000    0.000000    0.000000  -82.558846   59.555363  -37.136321  -67.631416
  0.042044088    0.000000    0.000000    0.000000    0.000000  -84.056241   84.044785  -37.492908  -70.467941
  0.042244489    0.000000    0.000000    0.000000    0.000000  -88.657763   69.339645  -36.694196  -71.354416
  0.042444890    0.000000    0.000000    0.000000    0.000000  -88.889463   61.156845  -36.358560  -64.206535
  0.042645291    0.000000    0.000000    0.000000    0.000000  -87.949577   54.968090  -37.522458  -64.635529
  0.042845691    0.000000    0.000000    0.000000    0.000000  -85.281673   77.338921  -37.682710  -70.814407
  0.043046092    0.000000    0.000000    0.000000    0.000000  -84.622895   85.034012  -37.618472  -68.986115
  0.043246493    0.000000    0.000000    0.000000    0.000000  -88.448675   78.355667  -37.850420  -72.320259
  0.043446894    0.000000    0.000000    0.000000    0.000000  -87.574986   62.459049  -37.346401  -70.306267
  0.043647295    0.000000    0.000000    0.000000    0.000000  -84.511924   71.280991  -37.293808  -70.138702
  0.043847695    0.000000    0.000000    0.000000    0.000000  -87.613593   69.261803  -37.949109  -69.672585
  0.044048096    0.000000    0.000000    0.000000    0.000000  -88.777963   80.694252  -37.745588  -69.943741
  0.044248497    0.000000    0.000000    0.000000    0.000000  -84.944136   67.568382  -37.644040  -69.207649
  0.044448898    0.000000    0.000000    0.000000    0.000000  -88.782225   38.756538  -37.764543  -73.913406
  0.044649299    0.000000    0.000000    0.000000    0.000000  -87.913147   79.490135  -37.516118  -72.035835
  0.044849699    0.000000    0.000000    0.000000    0.000000  -82.413176   70.996986  -37.345468  -72.612450
  0.045050100    0.000000    0.000000    0.000000    0.000000  -85.027241   48.314941  -38.136336  -66.301346
  0.045250501    0.000000    0.000000    0.000000    0.000000  -81.103433   75.192078  -37.810011  -74.507263
  0.045450902    0.000000    0.000000    0.000000    0.000000  -89.870717   77.028343  -38.138638  -70.534073
  0.045651303    0.000000    0.000000    0.000000    0.000000  -85.900819   93.496918  -38.112995  -72.807716
  0.045851703    0.000000    0.000000    0.000000    0.000000  -82.564967   54.580505  -37.870774  -72.612915
  0.046052104    0.000000    0.000000    0.000000    0.000000  -84.891071   78.748245  -39.257873  -72.506058
  0.046252505    0.000000    0.000000    0.000000    0.000000  -89.666680   87.252159  -38.622972  -77.323189
  0.046452906    0.000000    0.000000    0.000000    0.000000  -85.100477   58.735100  -38.902985  -70.711258
  0.046653307    0.000000    0.000000    0.000000    0.000000  -87.139801   53.323593  -38.498760  -68.349098
  0.046853707    0.000000    0.000000    0.000000    0.000000  -86.259631   74.957169  -39.096809  -73.051483
  0.047054108    0.000000    0.000000    0.000000    0.000000  -81.485964   74.903717  -38.684316  -69.199409
  0.047254509    0.000000    0.000000    0.000000    0.000000  -87.269194   57.814430  -39.118407  -75.312683
  0.047454910    0.000000    0.000000    0.000000    0.000000  -84.210198   57.245876  -39.740240  -80.544937
  0.047655311    0.000000    0.000000    0.000000    0.000000  -84.059379   81.103760  -39.099002  -79.421791
  0.047855711    0.000000    0.000000    0.000000    0.000000  -84.016193   81.755852  -38.970274  -76.450531
  0.048056112    0.000000    0.000000    0.000000    0.000000  -84.714602   73.943359  -39.527638  -64.401283
  0.048256513    0.000000    0.000000    0.000000    0.000000  -86.073655   45.088860  -38.715687  -75.262131
  0.048456914    0.000000    0.000000    0.000000    0.000000  -89.922986   77.345398  -38.935220  -76.198410
  0.048657315    0.000000    0.000000    0.000000    0.000000  -86.333624   70.023506  -39.335925  -79.210503
  0.048857715    0.000000    0.000000    0.000000    0.000000  -86.487281   74.891190  -39.180863  -72.431412
  0.049058116    0.000000    0.000000    0.000000    0.000000  -85.135153   59.871159  -39.807672  -77.560524
  0.049258517    0.000000    0.000000    0.000000    0.000000  -84.052282   80.197258  -39.396418  -73.303978
  0.049458918    0.000000    0.000000    0.000000    0.000000  -85.996660   71.363449  -39.881781  -77.281273
  0.049659319    0.000000    0.000000    0.000000    0.000000  -84.989295   64.206360  -40.048925  -81.475945
  0.049859719    0.000000    0.000000    0.000000    0.000000  -84.286179   69.006569  -39.937482  -73.168182
  0.050060120    0.000000    0.000000    0.000000    0.000000  -88.201767   70.040314  -38.845483  -75.583061
  0.050260521    0.000000    0.000000    0.000000    0.000000  -84.580976   74.185272  -39.477309  -76.711777
  0.050460922    0.000000    0.000000    0.000000    0.000000  -84.362732   78.795372  -39.405919  -71.873817
  0.050661323    0.000000    0.000000    0.000000    0.000000  -85.985335   54.452702  -39.550877  -80.186920
  0.050861723    0.000000    0.000000    0.000000    0.000000  -88.938388   61.834541  -39.262759  -84.024826
  0.051062124    0.000000    0.000000    0.000000    0.000000  -89.352196   82.616409  -39.229998  -76.362198
  0.051262525    0.000000    0.000000    0.000000    0.000000  -84.527451   77.653152  -40.477045  -75.088692
  0.051462926    0.000000    0.000000    0.000000    0.000000  -86.530367   56.023220  -40.278054  -80.713699
  0.051663327    0.000000    0.000000    0.000000    0.000000  -86.954828   83.732529  -40.222860  -78.374519
  0.051863727    0.000000    0.000000    0.000000    0.000000  -85.113724   61.226040  -40.428052  -81.008232
  0.052064128    0.000000    0.000000    0.000000    0.000000  -88.399517   50.550297  -40.562025  -81.055931
  0.052264529    0.000000    0.000000    0.000000    0.000000  -89.207112   70.909386  -41.122114  -77.026756
  0.052464930    0.000000    0.000000    0.000000    0.000000  -86.454939   83.574951  -40.592262  -77.071487
  0.052665331    0.000000    0.000000    0.000000    0.000000  -85.569312   71.510696  -40.193670  -88.994392
  0.052865731    0.000000    0.000000    0.000000    0.000000  -84.062962   39.434063  -40.664591  -83.714142
