! Anritsu VNA Master:                     Model: MS2036C/10/77
! SN:                                  1601066
! /card0/usr/18may12.lna.rl/256a.swout.hot.s2p
! Existing Calibration Information:
! TYPE:                         Current Settings,       Active Cal Settings
! TIME:             	   05/13/2018 01:44:52 PM,    05/13/2018 01:31:14 PM
! INTERNAL TEMP:    	                   51.8 C,                    49.8 C
! # POINTS:         	                      500,                       500
! START FREQ:       	               20.000 MHz,                20.000 MHz
! STOP FREQ:        	              120.000 MHz,               120.000 MHz
! SOURCE POWER:     	                      Low,                       Low
! IFBW:             	                    10 Hz,                     10 Hz
! AVG FACTOR:       	                       1 ,                        1 
! REF PLANE 1:      	                     0 mm,                      0 mm
! REF PLANE 2:      	                     0 mm,                      0 mm
! CAL TYPE:         	                 Full S22,                  Full S22
! CAL METHOD:       	                     SOLT,                      SOLT
! CAL LINE TYPE:    	                     Coax,                      Coax
! DUT PORT 1:       	                K-Conn(M),                 K-Conn(M)
! DUT PORT 2:       	                K-Conn(M),                 K-Conn(M)
! CAL STATUS:       	        OK: Accuracy High,                        --
# GHZ S DB R 50.0
! FREQ.GHZ       S11DB        S11A       S21DB        S21A       S12DB        S12A       S22DB        S22A
  0.020000000    0.000000    0.000000    0.000000    0.000000  -82.177935   65.453079  -35.148040  -47.066219
  0.020200401    0.000000    0.000000    0.000000    0.000000  -80.700364   69.844719  -35.054985  -50.471710
  0.020400802    0.000000    0.000000    0.000000    0.000000  -83.867482   74.809219  -35.093654  -49.753277
  0.020601202    0.000000    0.000000    0.000000    0.000000  -84.241932   54.064148  -35.302289  -50.944172
  0.020801603    0.000000    0.000000    0.000000    0.000000  -83.140457   62.478153  -34.694185  -48.024349
  0.021002004    0.000000    0.000000    0.000000    0.000000  -83.918299   54.262794  -34.947341  -47.970558
  0.021202405    0.000000    0.000000    0.000000    0.000000  -81.168354   64.166435  -35.818205  -46.369202
  0.021402806    0.000000    0.000000    0.000000    0.000000  -81.583909   70.599777  -35.827210  -50.776920
  0.021603206    0.000000    0.000000    0.000000    0.000000  -83.240411   71.901924  -36.021757  -51.621410
  0.021803607    0.000000    0.000000    0.000000    0.000000  -82.706298   60.029961  -36.058842  -49.333527
  0.022004008    0.000000    0.000000    0.000000    0.000000  -82.607615   63.070724  -35.251987  -52.517277
  0.022204409    0.000000    0.000000    0.000000    0.000000  -82.736690   52.220474  -35.580510  -52.253056
  0.022404810    0.000000    0.000000    0.000000    0.000000  -87.779993   67.993835  -35.673648  -49.546932
  0.022605210    0.000000    0.000000    0.000000    0.000000  -89.230376   69.815308  -35.397208  -50.211487
  0.022805611    0.000000    0.000000    0.000000    0.000000  -83.203843   73.964752  -35.476188  -53.771358
  0.023006012    0.000000    0.000000    0.000000    0.000000  -82.323040   37.355518  -35.184598  -52.650177
  0.023206413    0.000000    0.000000    0.000000    0.000000  -84.836928   56.969879  -36.364647  -55.696663
  0.023406814    0.000000    0.000000    0.000000    0.000000  -83.417704   45.007748  -36.014014  -51.316525
  0.023607214    0.000000    0.000000    0.000000    0.000000  -87.049162   62.407963  -36.499114  -53.531422
  0.023807615    0.000000    0.000000    0.000000    0.000000  -83.379619   70.819374  -35.742953  -51.841511
  0.024008016    0.000000    0.000000    0.000000    0.000000  -86.641867   62.247784  -35.929559  -51.973648
  0.024208417    0.000000    0.000000    0.000000    0.000000  -84.079916   55.944542  -36.789031  -57.238476
  0.024408818    0.000000    0.000000    0.000000    0.000000  -84.884256   59.639046  -36.767604  -55.994232
  0.024609218    0.000000    0.000000    0.000000    0.000000  -83.069765   55.821625  -36.143169  -51.337154
  0.024809619    0.000000    0.000000    0.000000    0.000000  -84.894552   73.618210  -36.461471  -54.856468
  0.025010020    0.000000    0.000000    0.000000    0.000000  -82.887230   45.657497  -35.957682  -52.568531
  0.025210421    0.000000    0.000000    0.000000    0.000000  -86.240546   70.499763  -36.283532  -56.131950
  0.025410822    0.000000    0.000000    0.000000    0.000000  -84.035934   45.853062  -36.730445  -54.161060
  0.025611222    0.000000    0.000000    0.000000    0.000000  -85.162755   58.086342  -36.506681  -53.345371
  0.025811623    0.000000    0.000000    0.000000    0.000000  -84.871447   64.951721  -37.623423  -58.826672
  0.026012024    0.000000    0.000000    0.000000    0.000000  -84.710906   65.293655  -36.644603  -57.054302
  0.026212425    0.000000    0.000000    0.000000    0.000000  -85.938971   40.773293  -36.678407  -57.935658
  0.026412826    0.000000    0.000000    0.000000    0.000000  -86.800242   46.545944  -37.052799  -57.456554
  0.026613226    0.000000    0.000000    0.000000    0.000000  -84.377233   60.108963  -37.005576  -60.871296
  0.026813627    0.000000    0.000000    0.000000    0.000000  -85.746763   60.879677  -37.480159  -59.079586
  0.027014028    0.000000    0.000000    0.000000    0.000000  -83.395917   59.026699  -37.335484  -59.607231
  0.027214429    0.000000    0.000000    0.000000    0.000000  -83.155081   74.198853  -37.707820  -58.809418
  0.027414830    0.000000    0.000000    0.000000    0.000000  -86.236292   54.348366  -37.004246  -57.668831
  0.027615230    0.000000    0.000000    0.000000    0.000000  -87.400566   47.840710  -36.962246  -59.461414
  0.027815631    0.000000    0.000000    0.000000    0.000000  -86.511524   56.343460  -37.124069  -59.734921
  0.028016032    0.000000    0.000000    0.000000    0.000000  -85.076642   56.747578  -37.578094  -59.250072
  0.028216433    0.000000    0.000000    0.000000    0.000000  -82.411642   69.627411  -37.761959  -60.763042
  0.028416834    0.000000    0.000000    0.000000    0.000000  -84.502967   58.810204  -37.569810  -57.505028
  0.028617234    0.000000    0.000000    0.000000    0.000000  -84.685200   64.978523  -37.285280  -59.597691
  0.028817635    0.000000    0.000000    0.000000    0.000000  -83.179005   51.236675  -38.012445  -58.671959
  0.029018036    0.000000    0.000000    0.000000    0.000000  -85.078042   44.834396  -38.918635  -61.706669
  0.029218437    0.000000    0.000000    0.000000    0.000000  -85.750703   65.813911  -38.268372  -63.812347
  0.029418838    0.000000    0.000000    0.000000    0.000000  -85.243536   54.896935  -37.802769  -65.043350
  0.029619238    0.000000    0.000000    0.000000    0.000000  -87.148745   48.679726  -37.653489  -61.124279
  0.029819639    0.000000    0.000000    0.000000    0.000000  -83.173876   56.070713  -38.154794  -60.564148
  0.030020040    0.000000    0.000000    0.000000    0.000000  -90.408507   61.999641  -38.092771  -62.706230
  0.030220441    0.000000    0.000000    0.000000    0.000000  -83.163244   60.725784  -38.083377  -61.050083
  0.030420842    0.000000    0.000000    0.000000    0.000000  -83.666692   59.378059  -37.992648  -61.705376
  0.030621242    0.000000    0.000000    0.000000    0.000000  -83.104121   67.026543  -39.037627  -66.042397
  0.030821643    0.000000    0.000000    0.000000    0.000000  -85.217314   56.004337  -38.281812  -64.817154
  0.031022044    0.000000    0.000000    0.000000    0.000000  -86.193343   59.652523  -38.705641  -61.209801
  0.031222445    0.000000    0.000000    0.000000    0.000000  -84.735236   48.524239  -38.243906  -61.748211
  0.031422846    0.000000    0.000000    0.000000    0.000000  -85.265664   58.039028  -37.676563  -65.826080
  0.031623246    0.000000    0.000000    0.000000    0.000000  -81.628394   49.223896  -38.365865  -64.024574
  0.031823647    0.000000    0.000000    0.000000    0.000000  -84.281875   77.806847  -39.535305  -70.401436
  0.032024048    0.000000    0.000000    0.000000    0.000000  -85.336204   78.189552  -38.595477  -69.189499
  0.032224449    0.000000    0.000000    0.000000    0.000000  -84.210842   87.077721  -38.346135  -71.069252
  0.032424850    0.000000    0.000000    0.000000    0.000000  -87.480129   54.812145  -38.925899  -66.657425
  0.032625251    0.000000    0.000000    0.000000    0.000000  -85.431733   68.726784  -39.261654  -65.943962
  0.032825651    0.000000    0.000000    0.000000    0.000000  -81.450515   68.274170  -38.853513  -70.100838
  0.033026052    0.000000    0.000000    0.000000    0.000000  -87.700157   69.159554  -40.001197  -68.529663
  0.033226453    0.000000    0.000000    0.000000    0.000000  -84.526499   88.014107  -39.354467  -62.210571
  0.033426854    0.000000    0.000000    0.000000    0.000000  -81.950387   68.571434  -38.702643  -73.104790
  0.033627255    0.000000    0.000000    0.000000    0.000000  -84.594157   64.511238  -38.765908  -62.907566
  0.033827655    0.000000    0.000000    0.000000    0.000000  -83.622553   77.977486  -39.518656  -63.559994
  0.034028056    0.000000    0.000000    0.000000    0.000000  -86.147429   76.966476  -40.137354  -65.752495
  0.034228457    0.000000    0.000000    0.000000    0.000000  -84.360338   66.877609  -39.127090  -66.936234
  0.034428858    0.000000    0.000000    0.000000    0.000000  -86.691215   69.794449  -39.241799  -65.004585
  0.034629259    0.000000    0.000000    0.000000    0.000000  -86.698865   77.737648  -39.667272  -73.957085
  0.034829659    0.000000    0.000000    0.000000    0.000000  -84.921448   66.021515  -40.344701  -65.889694
  0.035030060    0.000000    0.000000    0.000000    0.000000  -84.470104   49.493248  -40.049822  -72.998398
  0.035230461    0.000000    0.000000    0.000000    0.000000  -82.244064   52.111866  -41.122170  -71.265625
  0.035430862    0.000000    0.000000    0.000000    0.000000  -87.785852   72.657661  -40.873458  -75.935234
  0.035631263    0.000000    0.000000    0.000000    0.000000  -87.824802   61.813751  -39.633565  -64.716148
  0.035831663    0.000000    0.000000    0.000000    0.000000  -85.279314   67.351822  -39.635747  -72.819130
  0.036032064    0.000000    0.000000    0.000000    0.000000  -87.499123   56.304016  -41.411374  -73.529442
  0.036232465    0.000000    0.000000    0.000000    0.000000  -85.918103   48.866211  -40.996570  -68.536850
  0.036432866    0.000000    0.000000    0.000000    0.000000  -83.850446   54.009518  -39.800153  -70.753448
  0.036633267    0.000000    0.000000    0.000000    0.000000  -90.146024   66.074234  -40.517199  -72.671310
  0.036833667    0.000000    0.000000    0.000000    0.000000  -84.959527   60.887672  -40.858332  -68.865791
  0.037034068    0.000000    0.000000    0.000000    0.000000  -88.446913   81.679276  -41.600581  -77.830414
  0.037234469    0.000000    0.000000    0.000000    0.000000  -84.728912   60.631172  -40.311054  -73.423515
  0.037434870    0.000000    0.000000    0.000000    0.000000  -83.632193   83.843651  -41.205029  -71.533997
  0.037635271    0.000000    0.000000    0.000000    0.000000  -82.865688   62.857632  -40.438969  -69.990608
  0.037835671    0.000000    0.000000    0.000000    0.000000  -86.647425   69.395470  -41.633749  -78.542053
  0.038036072    0.000000    0.000000    0.000000    0.000000  -84.404144   86.651642  -40.018006  -71.130501
  0.038236473    0.000000    0.000000    0.000000    0.000000  -83.671901   73.709839  -41.060595  -66.927795
  0.038436874    0.000000    0.000000    0.000000    0.000000  -85.656610   71.789917  -41.274195  -70.080925
  0.038637275    0.000000    0.000000    0.000000    0.000000  -84.371466   68.813858  -41.323799  -68.337311
  0.038837675    0.000000    0.000000    0.000000    0.000000  -86.268012   80.976837  -42.074617  -74.397842
  0.039038076    0.000000    0.000000    0.000000    0.000000  -83.749263   41.396091  -41.807659  -69.679710
  0.039238477    0.000000    0.000000    0.000000    0.000000  -87.746567   54.231483  -41.724585  -72.740189
  0.039438878    0.000000    0.000000    0.000000    0.000000  -88.053683   67.953560  -42.796675  -68.367073
  0.039639279    0.000000    0.000000    0.000000    0.000000  -86.412827   41.934307  -41.965441  -75.482841
  0.039839679    0.000000    0.000000    0.000000    0.000000  -84.373817   59.344891  -42.314502  -74.484810
  0.040040080    0.000000    0.000000    0.000000    0.000000  -85.101256   85.654472  -41.200349  -76.393097
  0.040240481    0.000000    0.000000    0.000000    0.000000  -82.639088   66.234962  -41.779771  -77.762497
  0.040440882    0.000000    0.000000    0.000000    0.000000  -87.421768   70.156776  -42.037649  -72.407074
  0.040641283    0.000000    0.000000    0.000000    0.000000  -84.122668   48.581352  -43.477036  -70.813751
  0.040841683    0.000000    0.000000    0.000000    0.000000  -84.952733   41.405239  -43.125891  -88.397186
  0.041042084    0.000000    0.000000    0.000000    0.000000  -85.161531   73.646286  -41.214786  -72.639053
  0.041242485    0.000000    0.000000    0.000000    0.000000  -83.938895   48.295433  -43.989115  -74.950935
  0.041442886    0.000000    0.000000    0.000000    0.000000  -89.678669  102.873825  -44.183198  -71.979546
  0.041643287    0.000000    0.000000    0.000000    0.000000  -83.068581   72.464256  -42.385771  -84.524284
  0.041843687    0.000000    0.000000    0.000000    0.000000  -83.694459   62.849773  -42.885460  -81.106018
  0.042044088    0.000000    0.000000    0.000000    0.000000  -85.082940   63.550552  -43.391589  -76.778580
  0.042244489    0.000000    0.000000    0.000000    0.000000  -83.717042   55.234764  -42.173239  -94.100731
  0.042444890    0.000000    0.000000    0.000000    0.000000  -89.987346   62.806259  -43.237518  -71.818008
  0.042645291    0.000000    0.000000    0.000000    0.000000  -85.610924   80.020889  -44.379269  -80.957527
  0.042845691    0.000000    0.000000    0.000000    0.000000  -86.231142   64.075142  -43.876986  -87.239052
  0.043046092    0.000000    0.000000    0.000000    0.000000  -82.941753   53.277828  -44.356750  -79.282539
  0.043246493    0.000000    0.000000    0.000000    0.000000  -95.027441  110.225151  -44.562009  -75.484680
  0.043446894    0.000000    0.000000    0.000000    0.000000  -86.479125   56.860561  -43.269047  -88.555115
  0.043647295    0.000000    0.000000    0.000000    0.000000  -84.611294   71.704742  -43.022525  -80.876442
  0.043847695    0.000000    0.000000    0.000000    0.000000  -82.793167   74.049797  -44.816309  -80.505783
  0.044048096    0.000000    0.000000    0.000000    0.000000  -83.212256   50.723213  -43.988086  -80.870697
  0.044248497    0.000000    0.000000    0.000000    0.000000  -83.711989   63.371971  -43.643137  -77.635277
  0.044448898    0.000000    0.000000    0.000000    0.000000  -86.097267   54.826080  -44.263719  -82.023285
  0.044649299    0.000000    0.000000    0.000000    0.000000  -83.537432   50.464161  -43.988765  -82.683548
  0.044849699    0.000000    0.000000    0.000000    0.000000  -88.491291   88.225380  -44.300147  -81.451508
  0.045050100    0.000000    0.000000    0.000000    0.000000  -86.751655   55.682461  -45.722000  -70.600975
  0.045250501    0.000000    0.000000    0.000000    0.000000  -90.264533   76.090210  -43.317111  -79.006126
  0.045450902    0.000000    0.000000    0.000000    0.000000  -85.225355   64.419548  -46.582979  -81.840195
  0.045651303    0.000000    0.000000    0.000000    0.000000  -86.437120   68.499413  -45.210865  -86.191765
  0.045851703    0.000000    0.000000    0.000000    0.000000  -86.474969   80.346107  -45.694161  -77.975983
  0.046052104    0.000000    0.000000    0.000000    0.000000  -85.193326   82.744835  -47.300229  -84.309227
  0.046252505    0.000000    0.000000    0.000000    0.000000  -87.021328   56.129833  -45.523478  -85.066643
  0.046452906    0.000000    0.000000    0.000000    0.000000  -82.491631   60.330727  -45.836040  -73.801086
  0.046653307    0.000000    0.000000    0.000000    0.000000  -82.824820   49.219349  -46.425102  -77.856560
  0.046853707    0.000000    0.000000    0.000000    0.000000  -88.728848   45.917427  -49.969529  -92.390152
  0.047054108    0.000000    0.000000    0.000000    0.000000  -82.916125   63.273533  -46.342591  -75.286186
  0.047254509    0.000000    0.000000    0.000000    0.000000  -82.617455   55.565735  -49.568102  -88.287659
  0.047454910    0.000000    0.000000    0.000000    0.000000  -85.245871   66.691154  -49.758930 -101.045952
  0.047655311    0.000000    0.000000    0.000000    0.000000  -87.368059   63.065098  -47.491195  -89.642685
  0.047855711    0.000000    0.000000    0.000000    0.000000  -89.076316   78.754539  -47.578364  -89.177315
  0.048056112    0.000000    0.000000    0.000000    0.000000  -85.132443   53.477314  -47.495034  -75.270241
  0.048256513    0.000000    0.000000    0.000000    0.000000  -87.449167   79.749878  -47.666435  -90.604721
  0.048456914    0.000000    0.000000    0.000000    0.000000  -85.969111   60.442871  -45.015486  -80.848839
  0.048657315    0.000000    0.000000    0.000000    0.000000  -86.048417   69.708603  -47.420338  -92.055565
  0.048857715    0.000000    0.000000    0.000000    0.000000  -87.420935   72.648476  -48.481853  -71.799149
  0.049058116    0.000000    0.000000    0.000000    0.000000  -83.777915   73.268753  -48.393293  -91.839569
  0.049258517    0.000000    0.000000    0.000000    0.000000  -85.436623   66.271507  -47.155275  -80.804817
  0.049458918    0.000000    0.000000    0.000000    0.000000  -88.545312   78.285164  -47.526169 -104.592964
  0.049659319    0.000000    0.000000    0.000000    0.000000  -85.423031   83.153206  -49.741058 -106.895775
  0.049859719    0.000000    0.000000    0.000000    0.000000  -84.005332   89.955528  -50.071714  -71.178276
  0.050060120    0.000000    0.000000    0.000000    0.000000  -88.152736   88.478767  -48.080324  -94.022362
  0.050260521    0.000000    0.000000    0.000000    0.000000  -86.023737   68.424507  -49.817183  -89.647011
  0.050460922    0.000000    0.000000    0.000000    0.000000  -86.813608   70.738800  -49.337954  -98.142372
  0.050661323    0.000000    0.000000    0.000000    0.000000  -83.048174   81.046188  -49.821387  -88.464706
  0.050861723    0.000000    0.000000    0.000000    0.000000  -84.419934   62.490574  -48.490812 -107.655731
  0.051062124    0.000000    0.000000    0.000000    0.000000  -89.527909   67.430611  -49.930829  -89.309303
  0.051262525    0.000000    0.000000    0.000000    0.000000  -87.521437   84.750954  -51.990866  -88.425613
  0.051462926    0.000000    0.000000    0.000000    0.000000  -84.484179   55.107372  -48.548377 -104.031013
  0.051663327    0.000000    0.000000    0.000000    0.000000  -86.055633   80.401672  -53.443958  -86.377792
  0.051863727    0.000000    0.000000    0.000000    0.000000  -84.912137   70.795357  -51.483298 -108.198578
  0.052064128    0.000000    0.000000    0.000000    0.000000  -86.541894   61.080601  -53.714481 -121.710106
  0.052264529    0.000000    0.000000    0.000000    0.000000  -85.061055   63.498501  -51.468583  -98.707199
  0.052464930    0.000000    0.000000    0.000000    0.000000  -83.034507   74.940804  -54.035786  -87.589279
  0.052665331    0.000000    0.000000    0.000000    0.000000  -86.325621   59.550713  -49.243136 -106.772125
  0.052865731    0.000000    0.000000    0.000000    0.000000  -84.745572   81.157646  -52.167078  -90.366783
