! Anritsu VNA Master:                     Model: MS2036C/10/77
! SN:                                  1601066
! /card0/usr/18may12.lna.rl/256b.swout.cold.s2p
! Existing Calibration Information:
! TYPE:                         Current Settings,       Active Cal Settings
! TIME:             	   05/13/2018 02:02:55 PM,    05/13/2018 01:55:30 PM
! INTERNAL TEMP:    	                   51.3 C,                    51.5 C
! # POINTS:         	                      500,                       500
! START FREQ:       	               20.000 MHz,                20.000 MHz
! STOP FREQ:        	              120.000 MHz,               120.000 MHz
! SOURCE POWER:     	                      Low,                       Low
! IFBW:             	                    10 Hz,                     10 Hz
! AVG FACTOR:       	                       1 ,                        1 
! REF PLANE 1:      	                     0 mm,                      0 mm
! REF PLANE 2:      	                     0 mm,                      0 mm
! CAL TYPE:         	                 Full S22,                  Full S22
! CAL METHOD:       	                     SOLT,                      SOLT
! CAL LINE TYPE:    	                     Coax,                      Coax
! DUT PORT 1:       	                K-Conn(M),                 K-Conn(M)
! DUT PORT 2:       	                K-Conn(M),                 K-Conn(M)
! CAL STATUS:       	        OK: Accuracy High,                        --
# GHZ S DB R 50.0
! FREQ.GHZ       S11DB        S11A       S21DB        S21A       S12DB        S12A       S22DB        S22A
  0.020000000    0.000000    0.000000    0.000000    0.000000  -81.291872   73.017441  -33.201736  -38.633953
  0.020200401    0.000000    0.000000    0.000000    0.000000  -81.036238   75.236481  -33.917865  -38.523956
  0.020400802    0.000000    0.000000    0.000000    0.000000  -81.394479   58.199623  -33.569172  -40.182217
  0.020601202    0.000000    0.000000    0.000000    0.000000  -86.209082   51.698269  -33.810161  -36.107372
  0.020801603    0.000000    0.000000    0.000000    0.000000  -83.011110   53.959343  -34.221601  -39.104733
  0.021002004    0.000000    0.000000    0.000000    0.000000  -81.982204   55.885281  -33.549125  -37.480606
  0.021202405    0.000000    0.000000    0.000000    0.000000  -82.342294   50.975426  -33.613979  -37.575943
  0.021402806    0.000000    0.000000    0.000000    0.000000  -85.735276   71.902176  -34.095968  -38.343529
  0.021603206    0.000000    0.000000    0.000000    0.000000  -82.757691   68.207024  -33.913608  -42.012764
  0.021803607    0.000000    0.000000    0.000000    0.000000  -84.988209   72.737755  -33.787450  -39.565296
  0.022004008    0.000000    0.000000    0.000000    0.000000  -82.409381   57.435291  -34.440717  -39.852722
  0.022204409    0.000000    0.000000    0.000000    0.000000  -83.601856   47.089439  -34.044550  -41.206345
  0.022404810    0.000000    0.000000    0.000000    0.000000  -86.976515   44.843510  -34.481020  -41.975323
  0.022605210    0.000000    0.000000    0.000000    0.000000  -81.409717   74.755630  -34.422954  -42.893265
  0.022805611    0.000000    0.000000    0.000000    0.000000  -83.367220   62.266628  -34.276728  -41.779926
  0.023006012    0.000000    0.000000    0.000000    0.000000  -85.455019   83.716507  -34.251083  -40.680325
  0.023206413    0.000000    0.000000    0.000000    0.000000  -80.376908   60.033947  -34.682244  -41.997185
  0.023406814    0.000000    0.000000    0.000000    0.000000  -83.104629   68.629921  -34.431402  -44.903976
  0.023607214    0.000000    0.000000    0.000000    0.000000  -83.202010   63.340225  -34.552276  -41.307262
  0.023807615    0.000000    0.000000    0.000000    0.000000  -83.038190   64.955437  -34.786959  -44.397308
  0.024008016    0.000000    0.000000    0.000000    0.000000  -83.480300   57.156891  -34.360522  -42.724720
  0.024208417    0.000000    0.000000    0.000000    0.000000  -86.208602   55.359665  -34.661401  -46.130501
  0.024408818    0.000000    0.000000    0.000000    0.000000  -85.276029   56.943043  -34.851274  -44.471222
  0.024609218    0.000000    0.000000    0.000000    0.000000  -83.749578   52.962276  -34.958379  -43.088230
  0.024809619    0.000000    0.000000    0.000000    0.000000  -86.117421   72.936295  -35.083976  -42.164268
  0.025010020    0.000000    0.000000    0.000000    0.000000  -81.966955   49.277966  -35.051369  -42.833046
  0.025210421    0.000000    0.000000    0.000000    0.000000  -82.823043   61.940887  -34.859027  -44.112965
  0.025410822    0.000000    0.000000    0.000000    0.000000  -84.558009   60.652939  -34.880034  -45.684914
  0.025611222    0.000000    0.000000    0.000000    0.000000  -84.518479   53.844879  -35.303189  -45.711792
  0.025811623    0.000000    0.000000    0.000000    0.000000  -85.254719   68.540535  -34.729335  -38.029282
  0.026012024    0.000000    0.000000    0.000000    0.000000  -83.943239   70.098564  -34.688076  -45.574764
  0.026212425    0.000000    0.000000    0.000000    0.000000  -85.477956   54.241009  -34.868251  -41.503269
  0.026412826    0.000000    0.000000    0.000000    0.000000  -84.343642   74.486397  -35.267864  -47.539379
  0.026613226    0.000000    0.000000    0.000000    0.000000  -88.516949   66.824837  -34.884607  -43.435272
  0.026813627    0.000000    0.000000    0.000000    0.000000  -82.228339   56.199581  -35.307840  -46.302860
  0.027014028    0.000000    0.000000    0.000000    0.000000  -82.741370   50.213409  -35.644527  -43.876102
  0.027214429    0.000000    0.000000    0.000000    0.000000  -84.390768   64.245735  -35.396468  -46.974197
  0.027414830    0.000000    0.000000    0.000000    0.000000  -86.395807   56.165344  -35.704050  -47.116837
  0.027615230    0.000000    0.000000    0.000000    0.000000  -85.387270   63.203068  -35.456356  -46.622696
  0.027815631    0.000000    0.000000    0.000000    0.000000  -82.569036   74.656029  -36.149252  -44.919121
  0.028016032    0.000000    0.000000    0.000000    0.000000  -86.818834   70.741516  -35.921957  -47.006870
  0.028216433    0.000000    0.000000    0.000000    0.000000  -87.297290   61.107826  -35.550791  -44.035049
  0.028416834    0.000000    0.000000    0.000000    0.000000  -83.934657   50.011192  -35.644594  -44.932518
  0.028617234    0.000000    0.000000    0.000000    0.000000  -84.219198   63.795666  -35.973459  -48.854931
  0.028817635    0.000000    0.000000    0.000000    0.000000  -86.172327   34.985474  -35.742468  -47.210407
  0.029018036    0.000000    0.000000    0.000000    0.000000  -84.128242   57.126453  -35.469959  -47.082180
  0.029218437    0.000000    0.000000    0.000000    0.000000  -89.015704   45.371658  -36.099244  -46.023453
  0.029418838    0.000000    0.000000    0.000000    0.000000  -85.109551   44.384205  -35.568403  -48.779709
  0.029619238    0.000000    0.000000    0.000000    0.000000  -83.377292   71.058655  -35.686446  -50.252514
  0.029819639    0.000000    0.000000    0.000000    0.000000  -91.471813   19.723980  -35.963185  -47.377636
  0.030020040    0.000000    0.000000    0.000000    0.000000  -86.008447   57.445702  -36.313514  -45.421391
  0.030220441    0.000000    0.000000    0.000000    0.000000  -86.219389   63.057114  -36.255981  -46.606968
  0.030420842    0.000000    0.000000    0.000000    0.000000  -83.212611   70.274063  -36.052181  -46.630920
  0.030621242    0.000000    0.000000    0.000000    0.000000  -84.228481   58.690968  -36.294066  -46.491821
  0.030821643    0.000000    0.000000    0.000000    0.000000  -86.044055   52.581627  -35.978795  -48.361610
  0.031022044    0.000000    0.000000    0.000000    0.000000  -85.985812   29.635832  -36.465830  -47.653290
  0.031222445    0.000000    0.000000    0.000000    0.000000  -86.005583   52.217342  -36.450122  -48.667610
  0.031422846    0.000000    0.000000    0.000000    0.000000  -83.403409   63.404884  -35.969364  -50.455074
  0.031623246    0.000000    0.000000    0.000000    0.000000  -86.622400   59.815506  -36.629781  -48.596004
  0.031823647    0.000000    0.000000    0.000000    0.000000  -87.004922   71.441185  -37.071322  -52.178230
  0.032024048    0.000000    0.000000    0.000000    0.000000  -84.240245   58.063293  -36.744083  -47.121113
  0.032224449    0.000000    0.000000    0.000000    0.000000  -87.150076   34.772739  -36.293533  -49.056057
  0.032424850    0.000000    0.000000    0.000000    0.000000  -85.243752   66.807579  -37.103414  -46.675499
  0.032625251    0.000000    0.000000    0.000000    0.000000  -84.707062   40.549431  -36.409115  -45.730465
  0.032825651    0.000000    0.000000    0.000000    0.000000  -86.508131   59.855217  -37.193945  -45.915764
  0.033026052    0.000000    0.000000    0.000000    0.000000  -85.470242   79.521759  -37.336467  -53.620415
  0.033226453    0.000000    0.000000    0.000000    0.000000  -87.885521   65.804115  -36.125530  -47.970097
  0.033426854    0.000000    0.000000    0.000000    0.000000  -90.350942   37.287167  -37.044422  -50.455238
  0.033627255    0.000000    0.000000    0.000000    0.000000  -85.489873   65.912186  -36.824132  -49.971615
  0.033827655    0.000000    0.000000    0.000000    0.000000  -84.934168   77.044487  -37.103353  -49.868797
  0.034028056    0.000000    0.000000    0.000000    0.000000  -87.033516   59.643047  -37.388023  -49.219009
  0.034228457    0.000000    0.000000    0.000000    0.000000  -85.607220   76.479897  -37.151976  -47.450012
  0.034428858    0.000000    0.000000    0.000000    0.000000  -81.909878   41.001476  -37.277221  -51.200397
  0.034629259    0.000000    0.000000    0.000000    0.000000  -85.828540   59.715183  -37.776052  -51.279789
  0.034829659    0.000000    0.000000    0.000000    0.000000  -83.252988   70.759705  -37.387541  -49.075912
  0.035030060    0.000000    0.000000    0.000000    0.000000  -86.493231   53.473888  -36.892618  -49.278214
  0.035230461    0.000000    0.000000    0.000000    0.000000  -84.567831   48.362049  -37.079043  -47.465611
  0.035430862    0.000000    0.000000    0.000000    0.000000  -85.539748   56.723854  -37.264439  -53.876392
  0.035631263    0.000000    0.000000    0.000000    0.000000  -85.278218   66.930580  -37.824718  -48.960625
  0.035831663    0.000000    0.000000    0.000000    0.000000  -85.966640   68.609703  -37.833554  -47.449791
  0.036032064    0.000000    0.000000    0.000000    0.000000  -83.637252   53.954872  -37.858275  -49.117863
  0.036232465    0.000000    0.000000    0.000000    0.000000  -83.701062   56.397972  -38.086537  -47.358006
  0.036432866    0.000000    0.000000    0.000000    0.000000  -84.353133   80.615189  -38.108080  -54.022163
  0.036633267    0.000000    0.000000    0.000000    0.000000  -85.904240   63.919163  -37.166259  -48.935505
  0.036833667    0.000000    0.000000    0.000000    0.000000  -85.733552   83.471878  -37.595841  -47.778316
  0.037034068    0.000000    0.000000    0.000000    0.000000  -85.441224   62.927544  -37.550309  -46.293102
  0.037234469    0.000000    0.000000    0.000000    0.000000  -85.791366   85.361496  -37.618676  -47.535522
  0.037434870    0.000000    0.000000    0.000000    0.000000  -86.138899   65.944710  -38.172254  -47.221115
  0.037635271    0.000000    0.000000    0.000000    0.000000  -85.237119   56.188976  -38.379882  -47.736454
  0.037835671    0.000000    0.000000    0.000000    0.000000  -85.729409   72.151070  -37.894819  -49.508369
  0.038036072    0.000000    0.000000    0.000000    0.000000  -85.405876   65.353241  -38.734937  -50.762783
  0.038236473    0.000000    0.000000    0.000000    0.000000  -89.133783   74.024689  -38.161793  -53.100449
  0.038436874    0.000000    0.000000    0.000000    0.000000  -83.876277   41.736759  -38.924909  -51.641304
  0.038637275    0.000000    0.000000    0.000000    0.000000  -86.699908   71.457687  -38.482555  -45.272095
  0.038837675    0.000000    0.000000    0.000000    0.000000  -82.953962   78.672356  -38.463928  -53.289978
  0.039038076    0.000000    0.000000    0.000000    0.000000  -89.929313   48.112038  -39.020386  -50.991295
  0.039238477    0.000000    0.000000    0.000000    0.000000  -84.968071   60.717514  -39.049361  -51.633278
  0.039438878    0.000000    0.000000    0.000000    0.000000  -85.163240   72.859093  -39.026471  -49.564453
  0.039639279    0.000000    0.000000    0.000000    0.000000  -83.161497   60.699345  -40.053420  -52.989681
  0.039839679    0.000000    0.000000    0.000000    0.000000  -86.658791   70.163147  -39.194146  -49.626427
  0.040040080    0.000000    0.000000    0.000000    0.000000  -84.011658   58.057449  -38.835172  -46.727097
  0.040240481    0.000000    0.000000    0.000000    0.000000  -82.492224   76.432251  -39.453469  -53.446480
  0.040440882    0.000000    0.000000    0.000000    0.000000  -83.875893   62.073215  -39.490047  -51.524300
  0.040641283    0.000000    0.000000    0.000000    0.000000  -87.135542   74.769379  -38.519209  -54.783066
  0.040841683    0.000000    0.000000    0.000000    0.000000  -84.715982   52.885017  -39.000200  -53.422504
  0.041042084    0.000000    0.000000    0.000000    0.000000  -85.576189   55.200523  -39.605471  -52.732769
  0.041242485    0.000000    0.000000    0.000000    0.000000  -84.291802   89.697937  -39.181266  -56.582096
  0.041442886    0.000000    0.000000    0.000000    0.000000  -86.956784   53.220978  -39.369807  -51.440140
  0.041643287    0.000000    0.000000    0.000000    0.000000  -85.338512   72.790550  -38.914729  -53.558754
  0.041843687    0.000000    0.000000    0.000000    0.000000  -84.166807   76.907722  -39.489084  -54.942406
  0.042044088    0.000000    0.000000    0.000000    0.000000  -85.440575   86.268921  -40.492025  -60.883686
  0.042244489    0.000000    0.000000    0.000000    0.000000  -86.320320   61.916008  -39.845761  -53.894665
  0.042444890    0.000000    0.000000    0.000000    0.000000  -86.515496   71.477547  -38.799750  -60.755283
  0.042645291    0.000000    0.000000    0.000000    0.000000  -84.205882  100.278084  -40.574594  -54.705612
  0.042845691    0.000000    0.000000    0.000000    0.000000  -88.000849   71.747208  -40.080408  -49.486813
  0.043046092    0.000000    0.000000    0.000000    0.000000  -85.196410   62.679695  -40.617723  -50.005264
  0.043246493    0.000000    0.000000    0.000000    0.000000  -84.856384   54.222855  -40.405416  -52.509930
  0.043446894    0.000000    0.000000    0.000000    0.000000  -85.995668   77.574532  -39.867942  -56.424622
  0.043647295    0.000000    0.000000    0.000000    0.000000  -88.027365   69.607475  -40.560611  -47.929508
  0.043847695    0.000000    0.000000    0.000000    0.000000  -88.324354   97.816078  -39.172126  -55.266850
  0.044048096    0.000000    0.000000    0.000000    0.000000  -85.750435   91.774422  -40.355836  -48.704899
  0.044248497    0.000000    0.000000    0.000000    0.000000  -84.889129   44.990398  -39.401976  -51.641376
  0.044448898    0.000000    0.000000    0.000000    0.000000  -82.352512   62.982971  -41.281854  -47.738541
  0.044649299    0.000000    0.000000    0.000000    0.000000  -83.849376   54.280121  -41.460271  -47.164001
  0.044849699    0.000000    0.000000    0.000000    0.000000  -82.956750   65.623817  -40.672331  -52.759850
  0.045050100    0.000000    0.000000    0.000000    0.000000  -84.890932   42.931248  -40.406329  -51.179131
  0.045250501    0.000000    0.000000    0.000000    0.000000  -85.418652   64.210396  -40.991239  -46.962585
  0.045450902    0.000000    0.000000    0.000000    0.000000  -86.630522   70.979263  -41.348807  -54.350834
  0.045651303    0.000000    0.000000    0.000000    0.000000  -87.966866   59.268085  -41.750535  -52.584045
  0.045851703    0.000000    0.000000    0.000000    0.000000  -87.525003   35.742805  -41.150939  -54.360634
  0.046052104    0.000000    0.000000    0.000000    0.000000  -88.806236   68.423103  -42.335026  -46.337936
  0.046252505    0.000000    0.000000    0.000000    0.000000  -84.545607   70.787560  -41.886245  -47.742352
  0.046452906    0.000000    0.000000    0.000000    0.000000  -88.546322   73.207550  -40.307509  -47.113670
  0.046653307    0.000000    0.000000    0.000000    0.000000  -85.764693   70.067764  -40.644174  -47.982491
  0.046853707    0.000000    0.000000    0.000000    0.000000  -86.164721   63.446312  -41.674415  -49.578091
  0.047054108    0.000000    0.000000    0.000000    0.000000  -86.452174   68.003403  -40.759626  -49.947701
  0.047254509    0.000000    0.000000    0.000000    0.000000  -87.792761   74.980896  -41.616125  -57.014961
  0.047454910    0.000000    0.000000    0.000000    0.000000  -87.481369   94.828888  -42.399093  -57.107738
  0.047655311    0.000000    0.000000    0.000000    0.000000  -83.704328   77.054420  -41.957099  -50.135677
  0.047855711    0.000000    0.000000    0.000000    0.000000  -90.176423   61.993488  -40.664514  -52.476379
  0.048056112    0.000000    0.000000    0.000000    0.000000  -85.464684   70.462807  -41.881832  -58.587116
  0.048256513    0.000000    0.000000    0.000000    0.000000  -92.567278   74.381393  -41.588789  -53.863388
  0.048456914    0.000000    0.000000    0.000000    0.000000  -85.973396   79.415596  -42.299122  -46.939560
  0.048657315    0.000000    0.000000    0.000000    0.000000  -86.135418   63.458626  -41.439883  -59.861328
  0.048857715    0.000000    0.000000    0.000000    0.000000  -84.511563   81.992073  -43.817035  -59.991226
  0.049058116    0.000000    0.000000    0.000000    0.000000  -81.602025   71.582588  -41.319024  -53.325176
  0.049258517    0.000000    0.000000    0.000000    0.000000  -84.323764   70.180077  -43.033712  -55.546280
  0.049458918    0.000000    0.000000    0.000000    0.000000  -88.148262   61.443233  -42.962032  -49.767799
  0.049659319    0.000000    0.000000    0.000000    0.000000  -85.299932   53.140884  -43.281471  -52.548050
  0.049859719    0.000000    0.000000    0.000000    0.000000  -89.102565   69.976311  -43.340885  -50.348476
  0.050060120    0.000000    0.000000    0.000000    0.000000  -84.704178   37.104881  -42.393268  -47.442646
  0.050260521    0.000000    0.000000    0.000000    0.000000  -88.562583   90.728813  -42.925476  -52.932919
  0.050460922    0.000000    0.000000    0.000000    0.000000  -84.607276   60.235226  -42.511583  -51.764732
  0.050661323    0.000000    0.000000    0.000000    0.000000  -86.734645   64.035515  -42.678964  -51.420242
  0.050861723    0.000000    0.000000    0.000000    0.000000  -85.757140   59.516827  -42.801982  -58.142799
  0.051062124    0.000000    0.000000    0.000000    0.000000  -82.633396   71.703484  -43.375707  -54.626640
  0.051262525    0.000000    0.000000    0.000000    0.000000  -85.942244   85.129295  -44.586003  -54.700424
  0.051462926    0.000000    0.000000    0.000000    0.000000  -87.115236   59.646244  -43.141825  -52.215263
  0.051663327    0.000000    0.000000    0.000000    0.000000  -87.119154   67.858391  -45.970542  -42.450954
  0.051863727    0.000000    0.000000    0.000000    0.000000  -85.603207   80.641373  -44.353514  -46.259014
  0.052064128    0.000000    0.000000    0.000000    0.000000  -85.422063   76.034630  -45.230938  -50.710430
  0.052264529    0.000000    0.000000    0.000000    0.000000  -82.829249   58.102406  -44.404817  -49.577427
  0.052464930    0.000000    0.000000    0.000000    0.000000  -84.884320   59.511711  -43.414453  -44.993279
  0.052665331    0.000000    0.000000    0.000000    0.000000  -87.076741   83.212151  -46.450743  -51.335136
  0.052865731    0.000000    0.000000    0.000000    0.000000  -83.691382   92.549072  -45.310510  -44.740528
