! Anritsu VNA Master:                     Model: MS2036C/10/77
! SN:                                  1601066
! /card0/usr/18may12.lna.rl/256b.swout.hot.s2p
! Existing Calibration Information:
! TYPE:                         Current Settings,       Active Cal Settings
! TIME:             	   05/13/2018 02:00:10 PM,    05/13/2018 01:55:30 PM
! INTERNAL TEMP:    	                   51.3 C,                    51.5 C
! # POINTS:         	                      500,                       500
! START FREQ:       	               20.000 MHz,                20.000 MHz
! STOP FREQ:        	              120.000 MHz,               120.000 MHz
! SOURCE POWER:     	                      Low,                       Low
! IFBW:             	                    10 Hz,                     10 Hz
! AVG FACTOR:       	                       1 ,                        1 
! REF PLANE 1:      	                     0 mm,                      0 mm
! REF PLANE 2:      	                     0 mm,                      0 mm
! CAL TYPE:         	                 Full S22,                  Full S22
! CAL METHOD:       	                     SOLT,                      SOLT
! CAL LINE TYPE:    	                     Coax,                      Coax
! DUT PORT 1:       	                K-Conn(M),                 K-Conn(M)
! DUT PORT 2:       	                K-Conn(M),                 K-Conn(M)
! CAL STATUS:       	        OK: Accuracy High,                        --
# GHZ S DB R 50.0
! FREQ.GHZ       S11DB        S11A       S21DB        S21A       S12DB        S12A       S22DB        S22A
  0.020000000    0.000000    0.000000    0.000000    0.000000  -82.351000   52.111149  -38.046140  -45.005276
  0.020200401    0.000000    0.000000    0.000000    0.000000  -84.135869   69.936844  -38.323633  -46.110962
  0.020400802    0.000000    0.000000    0.000000    0.000000  -82.412552   49.238998  -38.841508  -41.093647
  0.020601202    0.000000    0.000000    0.000000    0.000000  -81.807707   73.299797  -39.207860  -41.749348
  0.020801603    0.000000    0.000000    0.000000    0.000000  -83.247017   35.096043  -40.308699  -43.116062
  0.021002004    0.000000    0.000000    0.000000    0.000000  -79.946789   46.882408  -39.095731  -40.920013
  0.021202405    0.000000    0.000000    0.000000    0.000000  -86.382872   66.445534  -38.775264  -44.568230
  0.021402806    0.000000    0.000000    0.000000    0.000000  -82.911656   57.643375  -40.064285  -47.719109
  0.021603206    0.000000    0.000000    0.000000    0.000000  -82.492389   70.355972  -40.258123  -44.760143
  0.021803607    0.000000    0.000000    0.000000    0.000000  -81.287438   60.916634  -38.687730  -45.170650
  0.022004008    0.000000    0.000000    0.000000    0.000000  -83.752172   56.340801  -40.238612  -40.980602
  0.022204409    0.000000    0.000000    0.000000    0.000000  -82.860881   62.685432  -40.007189  -43.318283
  0.022404810    0.000000    0.000000    0.000000    0.000000  -82.280876   49.738918  -39.993837  -50.158260
  0.022605210    0.000000    0.000000    0.000000    0.000000  -87.434213   62.895641  -39.373255  -49.772583
  0.022805611    0.000000    0.000000    0.000000    0.000000  -84.874340   85.194031  -39.816713  -47.923592
  0.023006012    0.000000    0.000000    0.000000    0.000000  -84.672927   47.291084  -39.644778  -45.806507
  0.023206413    0.000000    0.000000    0.000000    0.000000  -83.783172   55.769184  -40.759811  -48.438457
  0.023406814    0.000000    0.000000    0.000000    0.000000  -85.608314   70.657089  -41.080702  -49.705353
  0.023607214    0.000000    0.000000    0.000000    0.000000  -82.590393   81.756180  -40.277987  -47.677376
  0.023807615    0.000000    0.000000    0.000000    0.000000  -84.971684   72.563721  -40.746657  -50.698200
  0.024008016    0.000000    0.000000    0.000000    0.000000  -84.331847   57.221741  -40.559145  -45.642345
  0.024208417    0.000000    0.000000    0.000000    0.000000  -82.120695   53.052822  -39.340397  -50.464970
  0.024408818    0.000000    0.000000    0.000000    0.000000  -82.645904   55.516739  -41.649719  -48.684608
  0.024609218    0.000000    0.000000    0.000000    0.000000  -84.559302   51.754890  -41.305875  -46.371731
  0.024809619    0.000000    0.000000    0.000000    0.000000  -83.726724   58.072216  -42.300889  -50.005943
  0.025010020    0.000000    0.000000    0.000000    0.000000  -83.335764   52.664734  -41.717537  -48.294907
  0.025210421    0.000000    0.000000    0.000000    0.000000  -83.131823   72.243240  -41.056768  -48.684505
  0.025410822    0.000000    0.000000    0.000000    0.000000  -84.151112   67.571144  -41.397832  -58.537281
  0.025611222    0.000000    0.000000    0.000000    0.000000  -88.014188   76.011177  -41.230692  -48.078991
  0.025811623    0.000000    0.000000    0.000000    0.000000  -84.114253   61.068134  -41.212659  -45.477589
  0.026012024    0.000000    0.000000    0.000000    0.000000  -84.469332   63.331856  -41.264155  -47.498600
  0.026212425    0.000000    0.000000    0.000000    0.000000  -85.372738   40.876507  -41.467247  -44.608944
  0.026412826    0.000000    0.000000    0.000000    0.000000  -85.938926   72.652573  -42.081332  -50.880917
  0.026613226    0.000000    0.000000    0.000000    0.000000  -84.094152   74.392250  -41.573256  -46.343021
  0.026813627    0.000000    0.000000    0.000000    0.000000  -83.509830   59.017746  -42.821162  -49.721470
  0.027014028    0.000000    0.000000    0.000000    0.000000  -84.919033   53.357101  -42.023888  -48.498383
  0.027214429    0.000000    0.000000    0.000000    0.000000  -83.493976   70.556847  -42.423319  -48.433437
  0.027414830    0.000000    0.000000    0.000000    0.000000  -81.323617   66.716820  -43.429238  -54.813988
  0.027615230    0.000000    0.000000    0.000000    0.000000  -83.498137   68.320107  -42.133654  -53.981266
  0.027815631    0.000000    0.000000    0.000000    0.000000  -84.657406   56.725193  -43.284283  -50.530796
  0.028016032    0.000000    0.000000    0.000000    0.000000  -82.979895   68.976387  -42.849775  -55.129147
  0.028216433    0.000000    0.000000    0.000000    0.000000  -83.397291   58.000519  -43.415134  -51.328499
  0.028416834    0.000000    0.000000    0.000000    0.000000  -85.228321   68.159492  -43.277662  -48.811375
  0.028617234    0.000000    0.000000    0.000000    0.000000  -84.908075   35.325260  -43.501726  -53.024208
  0.028817635    0.000000    0.000000    0.000000    0.000000  -87.089901   70.483742  -43.702980  -51.043159
  0.029018036    0.000000    0.000000    0.000000    0.000000  -86.253211   40.276054  -43.161000  -49.495579
  0.029218437    0.000000    0.000000    0.000000    0.000000  -84.573560   59.983467  -43.404336  -46.309467
  0.029418838    0.000000    0.000000    0.000000    0.000000  -86.490327   51.013779  -43.403905  -50.498829
  0.029619238    0.000000    0.000000    0.000000    0.000000  -84.187199   65.411964  -43.016374  -51.056068
  0.029819639    0.000000    0.000000    0.000000    0.000000  -83.075193   75.938431  -43.789907  -44.005718
  0.030020040    0.000000    0.000000    0.000000    0.000000  -87.936413   42.510368  -44.455336  -52.813026
  0.030220441    0.000000    0.000000    0.000000    0.000000  -85.142135   49.726776  -43.275090  -45.358196
  0.030420842    0.000000    0.000000    0.000000    0.000000  -84.629122   81.362801  -44.151874  -42.210632
  0.030621242    0.000000    0.000000    0.000000    0.000000  -89.815715   71.916649  -44.913560  -46.793797
  0.030821643    0.000000    0.000000    0.000000    0.000000  -87.021292   33.886425  -42.997761  -43.389297
  0.031022044    0.000000    0.000000    0.000000    0.000000  -87.092704   90.566040  -45.142450  -52.816338
  0.031222445    0.000000    0.000000    0.000000    0.000000  -84.949819   71.020905  -46.305404  -38.601002
  0.031422846    0.000000    0.000000    0.000000    0.000000  -85.534448   54.657688  -43.917305  -59.067005
  0.031623246    0.000000    0.000000    0.000000    0.000000  -83.843243   66.262444  -45.765292  -49.540733
  0.031823647    0.000000    0.000000    0.000000    0.000000  -89.962053   72.053047  -45.085721  -52.058990
  0.032024048    0.000000    0.000000    0.000000    0.000000  -85.303975   71.435791  -45.389829  -42.209641
  0.032224449    0.000000    0.000000    0.000000    0.000000  -85.544791   41.125301  -44.804320  -50.260078
  0.032424850    0.000000    0.000000    0.000000    0.000000  -85.030701   87.332413  -45.918641  -47.962303
  0.032625251    0.000000    0.000000    0.000000    0.000000  -85.761738   62.270855  -44.795415  -42.584167
  0.032825651    0.000000    0.000000    0.000000    0.000000  -85.050569   50.461426  -46.215535  -42.412243
  0.033026052    0.000000    0.000000    0.000000    0.000000  -83.585500   55.934429  -46.501118  -65.840439
  0.033226453    0.000000    0.000000    0.000000    0.000000  -86.810154   72.487305  -46.186438  -49.685287
  0.033426854    0.000000    0.000000    0.000000    0.000000  -85.835859   62.335392  -45.916580  -39.945496
  0.033627255    0.000000    0.000000    0.000000    0.000000  -86.126615   25.469772  -45.738659  -44.456635
  0.033827655    0.000000    0.000000    0.000000    0.000000  -83.877306   58.744892  -46.914958  -45.232628
  0.034028056    0.000000    0.000000    0.000000    0.000000  -87.296142   50.182941  -48.013340  -34.932552
  0.034228457    0.000000    0.000000    0.000000    0.000000  -92.476240   68.241676  -45.548079  -36.566982
  0.034428858    0.000000    0.000000    0.000000    0.000000  -84.521277   79.341507  -47.632983  -54.735516
  0.034629259    0.000000    0.000000    0.000000    0.000000  -85.052747   60.247475  -48.061006  -40.740719
  0.034829659    0.000000    0.000000    0.000000    0.000000  -84.551565   69.504494  -46.342417  -44.513885
  0.035030060    0.000000    0.000000    0.000000    0.000000  -83.776218   61.740429  -47.791661  -40.174377
  0.035230461    0.000000    0.000000    0.000000    0.000000  -87.433223   64.791405  -47.683439  -41.028645
  0.035430862    0.000000    0.000000    0.000000    0.000000  -83.736898   55.246159  -46.390750  -37.792381
  0.035631263    0.000000    0.000000    0.000000    0.000000  -87.833552   65.417351  -48.144974  -40.896408
  0.035831663    0.000000    0.000000    0.000000    0.000000  -84.275579   75.730843  -49.641715  -39.515511
  0.036032064    0.000000    0.000000    0.000000    0.000000  -85.525410   82.554825  -49.275046  -48.124203
  0.036232465    0.000000    0.000000    0.000000    0.000000  -86.965494   46.713200  -47.559976  -37.817799
  0.036432866    0.000000    0.000000    0.000000    0.000000  -87.391354   66.801445  -48.957705  -43.946587
  0.036633267    0.000000    0.000000    0.000000    0.000000  -84.053129   89.041565  -47.159983  -33.343021
  0.036833667    0.000000    0.000000    0.000000    0.000000  -84.306883   81.473885  -46.632095  -30.218021
  0.037034068    0.000000    0.000000    0.000000    0.000000  -85.572004   89.094582  -49.722984  -24.188862
  0.037234469    0.000000    0.000000    0.000000    0.000000  -83.370821   86.082497  -47.136692  -25.233845
  0.037434870    0.000000    0.000000    0.000000    0.000000  -85.493735   60.803947  -49.899757  -42.488041
  0.037635271    0.000000    0.000000    0.000000    0.000000  -88.514560   91.335693  -51.271856  -32.314308
  0.037835671    0.000000    0.000000    0.000000    0.000000  -85.759433   50.778599  -47.119751  -35.681858
  0.038036072    0.000000    0.000000    0.000000    0.000000  -86.790810   59.823158  -50.206687  -30.452065
  0.038236473    0.000000    0.000000    0.000000    0.000000  -86.733643   72.079269  -50.997721  -36.067642
  0.038436874    0.000000    0.000000    0.000000    0.000000  -85.336636   62.608757  -52.139646  -37.366547
  0.038637275    0.000000    0.000000    0.000000    0.000000  -82.814629   44.319515  -49.482335  -40.282478
  0.038837675    0.000000    0.000000    0.000000    0.000000  -85.858374   70.817421  -47.758708  -45.112537
  0.039038076    0.000000    0.000000    0.000000    0.000000  -87.002614   87.836983  -56.144027   -9.830826
  0.039238477    0.000000    0.000000    0.000000    0.000000  -83.562126   67.136467  -54.257762  -26.460676
  0.039438878    0.000000    0.000000    0.000000    0.000000  -86.112938   58.811043  -53.922449    3.482086
  0.039639279    0.000000    0.000000    0.000000    0.000000  -82.468762   52.386147  -58.965610  -28.828913
  0.039839679    0.000000    0.000000    0.000000    0.000000  -82.042191   53.487198  -51.866981    5.193345
  0.040040080    0.000000    0.000000    0.000000    0.000000  -88.239988   65.929550  -50.661680  -17.117632
  0.040240481    0.000000    0.000000    0.000000    0.000000  -81.468285   64.585884  -54.035622  -21.122278
  0.040440882    0.000000    0.000000    0.000000    0.000000  -88.110045   45.717247  -50.391234   -7.676411
  0.040641283    0.000000    0.000000    0.000000    0.000000  -86.103071   63.111496  -53.494090  -35.582745
  0.040841683    0.000000    0.000000    0.000000    0.000000  -86.036610   58.433483  -49.455251  -43.493668
  0.041042084    0.000000    0.000000    0.000000    0.000000  -86.419320   45.648830  -57.210337  -49.534946
  0.041242485    0.000000    0.000000    0.000000    0.000000  -85.931265   78.842583  -51.994093  -36.152176
  0.041442886    0.000000    0.000000    0.000000    0.000000  -88.495606   78.148590  -53.099705  -18.773127
  0.041643287    0.000000    0.000000    0.000000    0.000000  -86.201706   48.810387  -52.647542  -25.079878
  0.041843687    0.000000    0.000000    0.000000    0.000000  -84.260555   46.670067  -55.793558  -40.781796
  0.042044088    0.000000    0.000000    0.000000    0.000000  -87.258196   49.894749  -56.992298   -5.142401
  0.042244489    0.000000    0.000000    0.000000    0.000000  -84.536729   63.318054  -52.588400  -39.598587
  0.042444890    0.000000    0.000000    0.000000    0.000000  -86.044489   78.419800  -57.843360  -11.038271
  0.042645291    0.000000    0.000000    0.000000    0.000000  -82.430241   65.515877  -53.572105   26.196812
  0.042845691    0.000000    0.000000    0.000000    0.000000  -85.094435   75.811241  -53.522109   31.163115
  0.043046092    0.000000    0.000000    0.000000    0.000000  -86.673631   79.586632  -51.006787   -5.189095
  0.043246493    0.000000    0.000000    0.000000    0.000000  -87.543961   75.152077  -51.870677   11.592284
  0.043446894    0.000000    0.000000    0.000000    0.000000  -84.029361   57.790585  -57.212732    4.936320
  0.043647295    0.000000    0.000000    0.000000    0.000000  -82.768976   58.925606  -51.697915   12.946578
  0.043847695    0.000000    0.000000    0.000000    0.000000  -86.570513   57.054585  -50.903792   -3.285471
  0.044048096    0.000000    0.000000    0.000000    0.000000  -85.590907   68.293678  -49.770404   10.489387
  0.044248497    0.000000    0.000000    0.000000    0.000000  -83.164960   61.541256  -50.503442    1.231948
  0.044448898    0.000000    0.000000    0.000000    0.000000  -88.333186   64.202820  -50.846483   34.935566
  0.044649299    0.000000    0.000000    0.000000    0.000000  -93.687274   57.090984  -52.233931   35.919338
  0.044849699    0.000000    0.000000    0.000000    0.000000  -86.327782   81.672859  -51.227505   19.382248
  0.045050100    0.000000    0.000000    0.000000    0.000000  -88.972856   54.101585  -50.644287   18.878067
  0.045250501    0.000000    0.000000    0.000000    0.000000  -85.311365   61.448158  -50.036757   37.809727
  0.045450902    0.000000    0.000000    0.000000    0.000000  -88.189554   67.966087  -53.809286   20.533333
  0.045651303    0.000000    0.000000    0.000000    0.000000  -85.386578   61.336437  -52.826274   24.792648
  0.045851703    0.000000    0.000000    0.000000    0.000000  -87.302736   38.358536  -49.004567   12.600984
  0.046052104    0.000000    0.000000    0.000000    0.000000  -85.674849   87.354645  -50.595901   48.353539
  0.046252505    0.000000    0.000000    0.000000    0.000000  -86.334549   39.360497  -52.005309   59.357643
  0.046452906    0.000000    0.000000    0.000000    0.000000  -83.574664   63.341637  -50.027579    8.635219
  0.046653307    0.000000    0.000000    0.000000    0.000000  -84.105587   43.524883  -50.216024   20.079973
  0.046853707    0.000000    0.000000    0.000000    0.000000  -84.882276   63.612194  -52.800750   33.127792
  0.047054108    0.000000    0.000000    0.000000    0.000000  -87.786854   87.100502  -49.065427   16.892517
  0.047254509    0.000000    0.000000    0.000000    0.000000  -88.764678   56.521824  -51.182972   48.569504
  0.047454910    0.000000    0.000000    0.000000    0.000000  -82.258040   71.582367  -52.106905   61.974724
  0.047655311    0.000000    0.000000    0.000000    0.000000  -84.664682   77.916924  -50.997219   41.224754
  0.047855711    0.000000    0.000000    0.000000    0.000000  -87.743331   58.305748  -50.535142   28.307659
  0.048056112    0.000000    0.000000    0.000000    0.000000  -85.962838   83.823128  -53.797284   16.582840
  0.048256513    0.000000    0.000000    0.000000    0.000000  -83.301641   71.290138  -49.971708   43.143036
  0.048456914    0.000000    0.000000    0.000000    0.000000  -83.787335   73.216469  -48.514868   40.068314
  0.048657315    0.000000    0.000000    0.000000    0.000000  -86.261761   41.979874  -50.795958   23.720181
  0.048857715    0.000000    0.000000    0.000000    0.000000  -84.736885   80.639236  -51.241508   72.011551
  0.049058116    0.000000    0.000000    0.000000    0.000000  -83.971084   77.175385  -50.016984   15.815759
  0.049258517    0.000000    0.000000    0.000000    0.000000  -85.291062   69.296288  -53.248817   41.225937
  0.049458918    0.000000    0.000000    0.000000    0.000000  -84.633613   76.493561  -51.356466   47.461815
  0.049659319    0.000000    0.000000    0.000000    0.000000  -87.104206   74.581947  -50.119434   48.421551
  0.049859719    0.000000    0.000000    0.000000    0.000000  -83.929028   67.100388  -51.623771   43.351761
  0.050060120    0.000000    0.000000    0.000000    0.000000  -87.487356   74.221413  -49.001503   58.868916
  0.050260521    0.000000    0.000000    0.000000    0.000000  -84.791398   82.262695  -49.479337   53.153545
  0.050460922    0.000000    0.000000    0.000000    0.000000  -83.585514   58.132572  -50.119032   39.371605
  0.050661323    0.000000    0.000000    0.000000    0.000000  -85.772269   71.538712  -49.500528   52.478146
  0.050861723    0.000000    0.000000    0.000000    0.000000  -85.799229   67.566605  -50.329480   63.646278
  0.051062124    0.000000    0.000000    0.000000    0.000000  -83.525996   50.567444  -48.047840   51.005745
  0.051262525    0.000000    0.000000    0.000000    0.000000  -86.287938   68.382133  -49.620465   80.850800
  0.051462926    0.000000    0.000000    0.000000    0.000000  -85.733430   53.451389  -48.264338   43.466530
  0.051663327    0.000000    0.000000    0.000000    0.000000  -87.540347   63.990417  -45.323612   60.938198
  0.051863727    0.000000    0.000000    0.000000    0.000000  -84.532206   82.462746  -47.312388   48.490353
  0.052064128    0.000000    0.000000    0.000000    0.000000  -83.417854   61.522751  -46.754673   58.545395
  0.052264529    0.000000    0.000000    0.000000    0.000000  -84.737615   47.019180  -47.857577   57.117802
  0.052464930    0.000000    0.000000    0.000000    0.000000  -83.907613   77.243065  -47.494230   49.616669
  0.052665331    0.000000    0.000000    0.000000    0.000000  -84.088610   65.217194  -46.456280   63.595734
  0.052865731    0.000000    0.000000    0.000000    0.000000  -83.641006   81.121231  -45.624422   63.686958
