! Anritsu VNA Master:                     Model: MS2036C/10/77
! SN:                                  1601066
! /bd0/18may10/255.ns.m3.s2p
! Existing Calibration Information:
! TYPE:                         Current Settings,       Active Cal Settings
! TIME:             	   05/10/2018 02:22:43 PM,    05/10/2018 02:13:17 PM
! INTERNAL TEMP:    	                   58.8 C,                    57.5 C
! # POINTS:         	                      492,                       492
! START FREQ:       	               20.000 MHz,                20.000 MHz
! STOP FREQ:        	          118.396 793 MHz,           118.396 793 MHz
! SOURCE POWER:     	                     High,                      High
! IFBW:             	                    50 Hz,                     50 Hz
! AVG FACTOR:       	                       1 ,                        1 
! REF PLANE 1:      	                     0 mm,                      0 mm
! REF PLANE 2:      	                     0 mm,                      0 mm
! CAL TYPE:         	                 Full S22,                  Full S22
! CAL METHOD:       	                     SOLT,                      SOLT
! CAL LINE TYPE:    	                     Coax,                      Coax
! DUT PORT 1:       	                K-Conn(M),                 K-Conn(M)
! DUT PORT 2:       	                K-Conn(M),                 K-Conn(M)
! CAL STATUS:       	        OK: Accuracy High,                        --
# GHZ S DB R 50.0
! FREQ.GHZ       S11DB        S11A       S21DB        S21A       S12DB        S12A       S22DB        S22A
  0.020000000    0.000000    0.000000    0.000000    0.000000  -89.035400   33.014069   -0.640742 -125.330048
  0.020200401    0.000000    0.000000    0.000000    0.000000  -89.673604   34.209969   -0.644958 -126.775780
  0.020400802    0.000000    0.000000    0.000000    0.000000  -89.972966   33.380322   -0.646598 -128.220398
  0.020601202    0.000000    0.000000    0.000000    0.000000  -90.387360   34.352077   -0.650760 -129.695877
  0.020801603    0.000000    0.000000    0.000000    0.000000  -90.498415   33.744408   -0.655615 -131.194061
  0.021002004    0.000000    0.000000    0.000000    0.000000  -90.927381   32.089325   -0.657742 -132.710007
  0.021202405    0.000000    0.000000    0.000000    0.000000  -90.792681   38.101238   -0.661740 -134.225098
  0.021402806    0.000000    0.000000    0.000000    0.000000  -91.645648   35.871559   -0.663513 -135.753311
  0.021603206    0.000000    0.000000    0.000000    0.000000  -91.018475   36.004684   -0.666927 -137.254150
  0.021803607    0.000000    0.000000    0.000000    0.000000  -92.344806   39.066978   -0.671075 -138.776886
  0.022004008    0.000000    0.000000    0.000000    0.000000  -91.131466   42.304913   -0.675387 -140.295029
  0.022204409    0.000000    0.000000    0.000000    0.000000  -91.480209   41.600445   -0.682422 -141.846649
  0.022404810    0.000000    0.000000    0.000000    0.000000  -92.119571   38.886444   -0.685533 -143.426407
  0.022605210    0.000000    0.000000    0.000000    0.000000  -91.333542   42.630203   -0.686012 -145.020523
  0.022805611    0.000000    0.000000    0.000000    0.000000  -91.605609   40.826160   -0.689108 -146.601791
  0.023006012    0.000000    0.000000    0.000000    0.000000  -91.513314   40.161182   -0.694706 -148.182022
  0.023206413    0.000000    0.000000    0.000000    0.000000  -91.224694   43.391853   -0.699213 -149.761322
  0.023406814    0.000000    0.000000    0.000000    0.000000  -91.446661   42.807526   -0.704103 -151.338470
  0.023607214    0.000000    0.000000    0.000000    0.000000  -91.692372   39.204517   -0.707645 -152.941742
  0.023807615    0.000000    0.000000    0.000000    0.000000  -90.640988   37.412411   -0.714882 -154.543991
  0.024008016    0.000000    0.000000    0.000000    0.000000  -90.988395   36.695992   -0.723243 -156.173950
  0.024208417    0.000000    0.000000    0.000000    0.000000  -91.087410   36.650295   -0.729784 -157.817688
  0.024408818    0.000000    0.000000    0.000000    0.000000  -91.340469   36.720802   -0.736232 -159.462662
  0.024609218    0.000000    0.000000    0.000000    0.000000  -91.230893   32.857113   -0.740743 -161.115662
  0.024809619    0.000000    0.000000    0.000000    0.000000  -90.954935   33.109398   -0.749113 -162.769958
  0.025010020    0.000000    0.000000    0.000000    0.000000  -91.944594   27.845436   -0.758233 -164.433548
  0.025210421    0.000000    0.000000    0.000000    0.000000  -92.072823   25.794035   -0.767529 -166.106079
  0.025410822    0.000000    0.000000    0.000000    0.000000  -92.088783   26.011524   -0.778480 -167.789261
  0.025611222    0.000000    0.000000    0.000000    0.000000  -91.745809   24.594324   -0.789128 -169.480652
  0.025811623    0.000000    0.000000    0.000000    0.000000  -92.880999   27.933847   -0.799660 -171.186798
  0.026012024    0.000000    0.000000    0.000000    0.000000  -91.963731   26.174358   -0.811363 -172.902374
  0.026212425    0.000000    0.000000    0.000000    0.000000  -93.219940   25.808210   -0.821336 -174.628342
  0.026412826    0.000000    0.000000    0.000000    0.000000  -93.756408   21.721872   -0.835842 -176.358093
  0.026613226    0.000000    0.000000    0.000000    0.000000  -94.151280   26.002422   -0.850396 -178.105423
  0.026813627    0.000000    0.000000    0.000000    0.000000  -93.890622   23.614424   -0.864726 -179.854034
  0.027014028    0.000000    0.000000    0.000000    0.000000  -93.916545   21.897690   -0.881520  178.395432
  0.027214429    0.000000    0.000000    0.000000    0.000000  -94.086998   27.514524   -0.898293  176.631058
  0.027414830    0.000000    0.000000    0.000000    0.000000  -95.344462   24.671515   -0.913675  174.856384
  0.027615230    0.000000    0.000000    0.000000    0.000000  -93.765448   31.158470   -0.932680  173.076630
  0.027815631    0.000000    0.000000    0.000000    0.000000  -94.154184   30.981403   -0.950615  171.291397
  0.028016032    0.000000    0.000000    0.000000    0.000000  -94.514780   32.363789   -0.969165  169.471802
  0.028216433    0.000000    0.000000    0.000000    0.000000  -95.021023   28.393167   -0.989906  167.669189
  0.028416834    0.000000    0.000000    0.000000    0.000000  -93.547483   32.370949   -1.008981  165.844376
  0.028617234    0.000000    0.000000    0.000000    0.000000  -94.378109   34.596931   -1.031825  164.011932
  0.028817635    0.000000    0.000000    0.000000    0.000000  -94.133485   32.793186   -1.054507  162.184433
  0.029018036    0.000000    0.000000    0.000000    0.000000  -95.349270   38.689510   -1.077671  160.358261
  0.029218437    0.000000    0.000000    0.000000    0.000000  -93.729513   32.579453   -1.102747  158.512054
  0.029418838    0.000000    0.000000    0.000000    0.000000  -93.744731   26.637478   -1.129410  156.649765
  0.029619238    0.000000    0.000000    0.000000    0.000000  -95.120715   31.109268   -1.155112  154.774078
  0.029819639    0.000000    0.000000    0.000000    0.000000  -93.734174   31.906549   -1.182711  152.896423
  0.030020040    0.000000    0.000000    0.000000    0.000000  -93.755642   25.391344   -1.211384  151.005005
  0.030220441    0.000000    0.000000    0.000000    0.000000  -93.489023   26.804558   -1.240929  149.118790
  0.030420842    0.000000    0.000000    0.000000    0.000000  -93.841274   26.034231   -1.268923  147.224533
  0.030621242    0.000000    0.000000    0.000000    0.000000  -94.644539   28.068195   -1.301064  145.336594
  0.030821643    0.000000    0.000000    0.000000    0.000000  -94.948488   28.189545   -1.335368  143.436096
  0.031022044    0.000000    0.000000    0.000000    0.000000  -94.682420   23.672243   -1.367955  141.511688
  0.031222445    0.000000    0.000000    0.000000    0.000000  -94.526333   22.447859   -1.398513  139.589386
  0.031422846    0.000000    0.000000    0.000000    0.000000  -94.502056   21.584120   -1.434549  137.630844
  0.031623246    0.000000    0.000000    0.000000    0.000000  -94.599524   21.893940   -1.468618  135.672424
  0.031823647    0.000000    0.000000    0.000000    0.000000  -94.572601   20.531145   -1.503018  133.702545
  0.032024048    0.000000    0.000000    0.000000    0.000000  -94.966102   19.447508   -1.540918  131.734360
  0.032224449    0.000000    0.000000    0.000000    0.000000  -95.915114   11.291327   -1.579279  129.758087
  0.032424850    0.000000    0.000000    0.000000    0.000000  -95.911985   18.027136   -1.617222  127.778770
  0.032625250    0.000000    0.000000    0.000000    0.000000  -96.068836   15.206244   -1.655798  125.790596
  0.032825651    0.000000    0.000000    0.000000    0.000000  -95.563984   19.763578   -1.690789  123.765556
  0.033026052    0.000000    0.000000    0.000000    0.000000  -95.923088   16.987888   -1.730407  121.744614
  0.033226453    0.000000    0.000000    0.000000    0.000000  -95.905586   17.111610   -1.769940  119.715446
  0.033426854    0.000000    0.000000    0.000000    0.000000  -95.957573   26.495195   -1.804556  117.693260
  0.033627254    0.000000    0.000000    0.000000    0.000000  -96.414300   27.345783   -1.848883  115.707939
  0.033827655    0.000000    0.000000    0.000000    0.000000  -96.385561   27.215353   -1.886004  113.684654
  0.034028056    0.000000    0.000000    0.000000    0.000000  -96.679631   20.908712   -1.924855  111.669815
  0.034228457    0.000000    0.000000    0.000000    0.000000  -97.151528   30.763708   -1.969299  109.643555
  0.034428858    0.000000    0.000000    0.000000    0.000000  -96.537194   22.055145   -2.013069  107.618126
  0.034629258    0.000000    0.000000    0.000000    0.000000  -97.356833   26.858431   -2.054985  105.570633
  0.034829659    0.000000    0.000000    0.000000    0.000000  -97.101324   24.124958   -2.098256  103.551437
  0.035030060    0.000000    0.000000    0.000000    0.000000  -96.076619   21.487261   -2.144651  101.504929
  0.035230461    0.000000    0.000000    0.000000    0.000000  -96.125415   31.089176   -2.192546   99.484169
  0.035430862    0.000000    0.000000    0.000000    0.000000  -96.709355   25.698744   -2.244944   97.448242
  0.035631262    0.000000    0.000000    0.000000    0.000000  -95.429407   26.400425   -2.292713   95.423019
  0.035831663    0.000000    0.000000    0.000000    0.000000  -96.880925   23.623362   -2.342794   93.365654
  0.036032064    0.000000    0.000000    0.000000    0.000000  -95.960985   18.760008   -2.395719   91.323799
  0.036232465    0.000000    0.000000    0.000000    0.000000  -96.448819   24.246578   -2.448646   89.277260
  0.036432866    0.000000    0.000000    0.000000    0.000000  -95.541759   27.201834   -2.500302   87.217293
  0.036633266    0.000000    0.000000    0.000000    0.000000  -95.812875   22.027254   -2.554729   85.158249
  0.036833667    0.000000    0.000000    0.000000    0.000000  -96.458645   26.706245   -2.613584   83.083817
  0.037034068    0.000000    0.000000    0.000000    0.000000  -96.399964   18.239574   -2.671424   81.010239
  0.037234469    0.000000    0.000000    0.000000    0.000000  -96.351596   21.317844   -2.729980   78.932037
  0.037434870    0.000000    0.000000    0.000000    0.000000  -96.992869   21.137598   -2.789395   76.849136
  0.037635270    0.000000    0.000000    0.000000    0.000000  -96.538012   19.400078   -2.848903   74.757378
  0.037835671    0.000000    0.000000    0.000000    0.000000  -96.867709   27.686739   -2.910530   72.660904
  0.038036072    0.000000    0.000000    0.000000    0.000000  -97.424862   16.027796   -2.970663   70.554466
  0.038236473    0.000000    0.000000    0.000000    0.000000  -97.399145   25.643051   -3.029754   68.420433
  0.038436874    0.000000    0.000000    0.000000    0.000000  -98.673812   32.915108   -3.093017   66.282593
  0.038637274    0.000000    0.000000    0.000000    0.000000  -97.337235   25.955015   -3.154729   64.152847
  0.038837675    0.000000    0.000000    0.000000    0.000000  -97.315484   21.163603   -3.213257   62.029362
  0.039038076    0.000000    0.000000    0.000000    0.000000  -98.015603   25.890982   -3.270865   59.920792
  0.039238477    0.000000    0.000000    0.000000    0.000000  -97.695067   28.701565   -3.325631   57.823479
  0.039438878    0.000000    0.000000    0.000000    0.000000  -98.572437   23.291401   -3.382289   55.710957
  0.039639278    0.000000    0.000000    0.000000    0.000000  -97.540051   17.220972   -3.439458   53.614700
  0.039839679    0.000000    0.000000    0.000000    0.000000  -97.672068   28.883774   -3.494354   51.495117
  0.040040080    0.000000    0.000000    0.000000    0.000000  -97.324488   28.469355   -3.546593   49.406151
  0.040240481    0.000000    0.000000    0.000000    0.000000  -98.195414   23.361425   -3.597945   47.323902
  0.040440882    0.000000    0.000000    0.000000    0.000000  -97.926349   21.768141   -3.649765   45.247002
  0.040641283    0.000000    0.000000    0.000000    0.000000  -98.667875   30.831125   -3.701587   43.206753
  0.040841683    0.000000    0.000000    0.000000    0.000000  -98.611074   32.383667   -3.751425   41.171894
  0.041042084    0.000000    0.000000    0.000000    0.000000  -97.024755   19.969471   -3.803488   39.160423
  0.041242485    0.000000    0.000000    0.000000    0.000000  -98.396132   24.997410   -3.856114   37.151104
  0.041442886    0.000000    0.000000    0.000000    0.000000  -97.638556   33.082176   -3.908781   35.132408
  0.041643287    0.000000    0.000000    0.000000    0.000000  -99.021339   25.669802   -3.960364   33.135616
  0.041843687    0.000000    0.000000    0.000000    0.000000  -96.349903   31.683058   -4.010373   31.126600
  0.042044088    0.000000    0.000000    0.000000    0.000000  -98.411725   21.902517   -4.059102   29.140083
  0.042244489    0.000000    0.000000    0.000000    0.000000  -97.671944   27.762955   -4.112704   27.175882
  0.042444890    0.000000    0.000000    0.000000    0.000000  -97.680631   26.053310   -4.165589   25.218359
  0.042645291    0.000000    0.000000    0.000000    0.000000  -97.832086   27.816198   -4.218363   23.259823
  0.042845691    0.000000    0.000000    0.000000    0.000000  -97.970149   28.450914   -4.271792   21.308624
  0.043046092    0.000000    0.000000    0.000000    0.000000  -98.986387   24.553392   -4.324092   19.330793
  0.043246493    0.000000    0.000000    0.000000    0.000000  -97.369715   17.975462   -4.379651   17.371517
  0.043446894    0.000000    0.000000    0.000000    0.000000  -98.763585   35.151646   -4.430439   15.420330
  0.043647295    0.000000    0.000000    0.000000    0.000000  -98.614635   28.200830   -4.481035   13.443989
  0.043847695    0.000000    0.000000    0.000000    0.000000  -99.387174   19.025974   -4.533725   11.482094
  0.044048096    0.000000    0.000000    0.000000    0.000000  -99.897899   30.553537   -4.586262    9.518414
  0.044248497    0.000000    0.000000    0.000000    0.000000  -98.291300   27.923168   -4.637419    7.551768
  0.044448898    0.000000    0.000000    0.000000    0.000000  -99.102381   28.923628   -4.688632    5.603841
  0.044649299    0.000000    0.000000    0.000000    0.000000 -100.099334   18.304333   -4.736644    3.630981
  0.044849699    0.000000    0.000000    0.000000    0.000000 -100.160570   32.041370   -4.781952    1.659647
  0.045050100    0.000000    0.000000    0.000000    0.000000  -97.901286   35.540665   -4.830976   -0.310751
  0.045250501    0.000000    0.000000    0.000000    0.000000  -99.090848   29.856262   -4.874910   -2.274478
  0.045450902    0.000000    0.000000    0.000000    0.000000  -99.660530   30.507795   -4.919632   -4.214323
  0.045651303    0.000000    0.000000    0.000000    0.000000  -98.740658   37.929165   -4.964706   -6.169330
  0.045851703    0.000000    0.000000    0.000000    0.000000  -98.912442   26.992704   -5.002171   -8.103707
  0.046052104    0.000000    0.000000    0.000000    0.000000  -98.546724   28.830669   -5.041479  -10.028730
  0.046252505    0.000000    0.000000    0.000000    0.000000  -98.264667   29.786404   -5.079554  -11.935000
  0.046452906    0.000000    0.000000    0.000000    0.000000  -97.614228   39.441410   -5.113542  -13.820177
  0.046653307    0.000000    0.000000    0.000000    0.000000  -98.996037   27.472099   -5.148039  -15.727101
  0.046853707    0.000000    0.000000    0.000000    0.000000  -98.444054   33.117023   -5.180538  -17.604546
  0.047054108    0.000000    0.000000    0.000000    0.000000  -98.960925   30.531509   -5.211440  -19.485373
  0.047254509    0.000000    0.000000    0.000000    0.000000  -99.496989   34.151482   -5.240393  -21.353836
  0.047454910    0.000000    0.000000    0.000000    0.000000  -98.886197   24.159723   -5.270627  -23.178385
  0.047655311    0.000000    0.000000    0.000000    0.000000  -97.028663   23.348919   -5.299748  -25.012547
  0.047855711    0.000000    0.000000    0.000000    0.000000  -98.474874   34.224262   -5.329360  -26.804289
  0.048056112    0.000000    0.000000    0.000000    0.000000  -99.606516   24.636948   -5.358765  -28.581249
  0.048256513    0.000000    0.000000    0.000000    0.000000  -99.932341   35.714603   -5.389395  -30.342289
  0.048456914    0.000000    0.000000    0.000000    0.000000 -100.536853   23.703226   -5.416350  -32.128113
  0.048657315    0.000000    0.000000    0.000000    0.000000  -98.524612   30.810123   -5.442797  -33.880024
  0.048857715    0.000000    0.000000    0.000000    0.000000  -98.928698   35.777630   -5.470145  -35.642990
  0.049058116    0.000000    0.000000    0.000000    0.000000  -99.816007   25.855967   -5.495833  -37.383965
  0.049258517    0.000000    0.000000    0.000000    0.000000  -99.110532   29.861048   -5.523429  -39.109470
  0.049458918    0.000000    0.000000    0.000000    0.000000  -99.072119   29.125504   -5.548837  -40.834148
  0.049659319    0.000000    0.000000    0.000000    0.000000 -100.229410   26.939354   -5.576687  -42.553085
  0.049859719    0.000000    0.000000    0.000000    0.000000 -100.061065   39.664700   -5.598687  -44.241776
  0.050060120    0.000000    0.000000    0.000000    0.000000 -100.632956   44.098797   -5.628670  -45.952103
  0.050260521    0.000000    0.000000    0.000000    0.000000  -99.521962   33.632118   -5.649918  -47.652618
  0.050460922    0.000000    0.000000    0.000000    0.000000  -98.801745   34.778049   -5.675005  -49.344669
  0.050661323    0.000000    0.000000    0.000000    0.000000  -98.099886   34.234173   -5.696556  -51.030666
  0.050861723    0.000000    0.000000    0.000000    0.000000  -99.334340   34.774673   -5.715667  -52.728680
  0.051062124    0.000000    0.000000    0.000000    0.000000  -99.439362   29.371056   -5.736422  -54.408279
  0.051262525    0.000000    0.000000    0.000000    0.000000  -98.290826   31.444548   -5.761386  -56.052601
  0.051462926    0.000000    0.000000    0.000000    0.000000  -99.029522   29.725393   -5.778985  -57.719975
  0.051663327    0.000000    0.000000    0.000000    0.000000  -98.380994   36.957573   -5.796282  -59.348408
  0.051863727    0.000000    0.000000    0.000000    0.000000  -98.689341   39.197460   -5.814956  -60.992626
  0.052064128    0.000000    0.000000    0.000000    0.000000  -98.478871   31.885628   -5.826573  -62.633034
  0.052264529    0.000000    0.000000    0.000000    0.000000  -98.733482   32.073544   -5.838883  -64.257477
  0.052464930    0.000000    0.000000    0.000000    0.000000  -98.336983   31.831944   -5.853493  -65.853218
  0.052665331    0.000000    0.000000    0.000000    0.000000  -99.047442   25.981300   -5.862381  -67.439095
  0.052865731    0.000000    0.000000    0.000000    0.000000 -100.328174   30.782299   -5.874330  -69.017136
