! Anritsu VNA Master:                     Model: MS2036C/10/77
! SN:                                  1601066
! /bd0/18may10/255.ns.m5.s2p
! Existing Calibration Information:
! TYPE:                         Current Settings,       Active Cal Settings
! TIME:             	   05/10/2018 02:35:28 PM,    05/10/2018 02:31:48 PM
! INTERNAL TEMP:    	                   60.0 C,                    59.5 C
! # POINTS:         	                      492,                       492
! START FREQ:       	               20.000 MHz,                20.000 MHz
! STOP FREQ:        	          118.396 793 MHz,           118.396 793 MHz
! SOURCE POWER:     	                     High,                      High
! IFBW:             	                    50 Hz,                     50 Hz
! AVG FACTOR:       	                       1 ,                        1 
! REF PLANE 1:      	                     0 mm,                      0 mm
! REF PLANE 2:      	                     0 mm,                      0 mm
! CAL TYPE:         	                 Full S22,                  Full S22
! CAL METHOD:       	                     SOLT,                      SOLT
! CAL LINE TYPE:    	                     Coax,                      Coax
! DUT PORT 1:       	                K-Conn(M),                 K-Conn(M)
! DUT PORT 2:       	                K-Conn(M),                 K-Conn(M)
! CAL STATUS:       	        OK: Accuracy High,                        --
# GHZ S DB R 50.0
! FREQ.GHZ       S11DB        S11A       S21DB        S21A       S12DB        S12A       S22DB        S22A
  0.020000000    0.000000    0.000000    0.000000    0.000000  -89.401220   34.003948   -0.627186 -125.643188
  0.020200401    0.000000    0.000000    0.000000    0.000000  -89.782036   34.589466   -0.630368 -127.094765
  0.020400802    0.000000    0.000000    0.000000    0.000000  -89.786042   32.295788   -0.633531 -128.552460
  0.020601202    0.000000    0.000000    0.000000    0.000000  -90.689109   32.489788   -0.636391 -130.031372
  0.020801603    0.000000    0.000000    0.000000    0.000000  -90.809699   33.044994   -0.640892 -131.549820
  0.021002004    0.000000    0.000000    0.000000    0.000000  -90.799185   35.218357   -0.642002 -133.076508
  0.021202405    0.000000    0.000000    0.000000    0.000000  -91.497723   33.792290   -0.645832 -134.599945
  0.021402806    0.000000    0.000000    0.000000    0.000000  -91.809097   34.230915   -0.647065 -136.141800
  0.021603206    0.000000    0.000000    0.000000    0.000000  -91.914308   43.153152   -0.650284 -137.652908
  0.021803607    0.000000    0.000000    0.000000    0.000000  -91.696087   39.566826   -0.652156 -139.171509
  0.022004008    0.000000    0.000000    0.000000    0.000000  -92.502665   37.364017   -0.657749 -140.701157
  0.022204409    0.000000    0.000000    0.000000    0.000000  -91.734492   38.934040   -0.663479 -142.258759
  0.022404810    0.000000    0.000000    0.000000    0.000000  -91.707313   40.580173   -0.670520 -143.827087
  0.022605210    0.000000    0.000000    0.000000    0.000000  -91.828076   40.759853   -0.673750 -145.405731
  0.022805611    0.000000    0.000000    0.000000    0.000000  -91.451610   44.272095   -0.675726 -146.993546
  0.023006012    0.000000    0.000000    0.000000    0.000000  -91.844835   40.472782   -0.678241 -148.567352
  0.023206413    0.000000    0.000000    0.000000    0.000000  -91.779492   41.062267   -0.682723 -150.158554
  0.023406814    0.000000    0.000000    0.000000    0.000000  -92.019842   41.808170   -0.689189 -151.712189
  0.023607214    0.000000    0.000000    0.000000    0.000000  -91.864872   40.690544   -0.696205 -153.308823
  0.023807615    0.000000    0.000000    0.000000    0.000000  -90.988520   39.223412   -0.703555 -154.900421
  0.024008016    0.000000    0.000000    0.000000    0.000000  -90.907753   39.308075   -0.711356 -156.520599
  0.024208417    0.000000    0.000000    0.000000    0.000000  -91.522000   36.351727   -0.718329 -158.160187
  0.024408818    0.000000    0.000000    0.000000    0.000000  -91.199440   30.607082   -0.723755 -159.799606
  0.024609218    0.000000    0.000000    0.000000    0.000000  -90.875908   31.867620   -0.729944 -161.440491
  0.024809619    0.000000    0.000000    0.000000    0.000000  -91.496235   29.929951   -0.738437 -163.111099
  0.025010020    0.000000    0.000000    0.000000    0.000000  -91.680155   28.230743   -0.747508 -164.764465
  0.025210421    0.000000    0.000000    0.000000    0.000000  -91.887615   22.958771   -0.758306 -166.423874
  0.025410822    0.000000    0.000000    0.000000    0.000000  -91.848915   28.148598   -0.769975 -168.103943
  0.025611222    0.000000    0.000000    0.000000    0.000000  -92.580826   22.858696   -0.780150 -169.795135
  0.025811623    0.000000    0.000000    0.000000    0.000000  -92.108786   23.082918   -0.792397 -171.501251
  0.026012024    0.000000    0.000000    0.000000    0.000000  -92.703383   23.797985   -0.803049 -173.221573
  0.026212425    0.000000    0.000000    0.000000    0.000000  -92.938951   23.225866   -0.815241 -174.948608
  0.026412826    0.000000    0.000000    0.000000    0.000000  -92.902281   24.973988   -0.828486 -176.679916
  0.026613226    0.000000    0.000000    0.000000    0.000000  -93.458265   26.119799   -0.843347 -178.436432
  0.026813627    0.000000    0.000000    0.000000    0.000000  -94.358353   27.959063   -0.858489  179.804520
  0.027014028    0.000000    0.000000    0.000000    0.000000  -94.274642   25.872129   -0.876463  178.035095
  0.027214429    0.000000    0.000000    0.000000    0.000000  -94.267870   24.125471   -0.892339  176.260101
  0.027414830    0.000000    0.000000    0.000000    0.000000  -94.636500   26.893244   -0.910423  174.476013
  0.027615230    0.000000    0.000000    0.000000    0.000000  -94.581828   29.515738   -0.927902  172.677261
  0.027815631    0.000000    0.000000    0.000000    0.000000  -94.480755   29.015696   -0.947324  170.864212
  0.028016032    0.000000    0.000000    0.000000    0.000000  -95.240158   28.345129   -0.965460  169.049393
  0.028216433    0.000000    0.000000    0.000000    0.000000  -94.201487   32.992302   -0.986866  167.212769
  0.028416834    0.000000    0.000000    0.000000    0.000000  -94.200491   32.120605   -1.008867  165.380692
  0.028617234    0.000000    0.000000    0.000000    0.000000  -94.814945   29.344252   -1.030066  163.536346
  0.028817635    0.000000    0.000000    0.000000    0.000000  -94.254728   31.507561   -1.053674  161.690201
  0.029018036    0.000000    0.000000    0.000000    0.000000  -94.841085   34.638073   -1.076961  159.849579
  0.029218437    0.000000    0.000000    0.000000    0.000000  -93.953490   32.808727   -1.102567  157.997772
  0.029418838    0.000000    0.000000    0.000000    0.000000  -94.214882   28.606138   -1.129473  156.111801
  0.029619238    0.000000    0.000000    0.000000    0.000000  -93.561430   27.640163   -1.156303  154.229385
  0.029819639    0.000000    0.000000    0.000000    0.000000  -94.074160   32.435829   -1.183723  152.342133
  0.030020040    0.000000    0.000000    0.000000    0.000000  -94.291054   27.003077   -1.212162  150.447144
  0.030220441    0.000000    0.000000    0.000000    0.000000  -94.159258   24.238800   -1.240302  148.560410
  0.030420842    0.000000    0.000000    0.000000    0.000000  -93.693076   25.265808   -1.269761  146.675064
  0.030621242    0.000000    0.000000    0.000000    0.000000  -94.622588   21.333460   -1.300018  144.784744
  0.030821643    0.000000    0.000000    0.000000    0.000000  -94.843856   26.563126   -1.333798  142.891815
  0.031022044    0.000000    0.000000    0.000000    0.000000  -94.216493   24.761871   -1.366276  140.982254
  0.031222445    0.000000    0.000000    0.000000    0.000000  -94.869933   24.105045   -1.393622  139.066193
  0.031422846    0.000000    0.000000    0.000000    0.000000  -94.161698   17.164942   -1.424572  137.132858
  0.031623246    0.000000    0.000000    0.000000    0.000000  -94.699389   21.806784   -1.460667  135.182388
  0.031823647    0.000000    0.000000    0.000000    0.000000  -94.815362   22.537361   -1.497461  133.224747
  0.032024048    0.000000    0.000000    0.000000    0.000000  -94.758115   19.222805   -1.531664  131.277390
  0.032224449    0.000000    0.000000    0.000000    0.000000  -96.151392   20.120024   -1.569716  129.327118
  0.032424850    0.000000    0.000000    0.000000    0.000000  -94.899056   19.059639   -1.608670  127.341499
  0.032625250    0.000000    0.000000    0.000000    0.000000  -95.356597   15.518455   -1.645358  125.360718
  0.032825651    0.000000    0.000000    0.000000    0.000000  -95.667202   19.875774   -1.684092  123.358902
  0.033026052    0.000000    0.000000    0.000000    0.000000  -96.650946   15.770128   -1.723675  121.338188
  0.033226453    0.000000    0.000000    0.000000    0.000000  -95.827660   28.479414   -1.761566  119.327515
  0.033426854    0.000000    0.000000    0.000000    0.000000  -95.694580   18.781832   -1.800306  117.314102
  0.033627254    0.000000    0.000000    0.000000    0.000000  -96.029721   22.383959   -1.840882  115.301376
  0.033827655    0.000000    0.000000    0.000000    0.000000  -95.942384   23.210619   -1.883812  113.286751
  0.034028056    0.000000    0.000000    0.000000    0.000000  -97.325948   23.402857   -1.922383  111.256760
  0.034228457    0.000000    0.000000    0.000000    0.000000  -96.717192   21.159466   -1.966982  109.221992
  0.034428858    0.000000    0.000000    0.000000    0.000000  -95.859260   27.624676   -2.013536  107.168961
  0.034629258    0.000000    0.000000    0.000000    0.000000  -97.016985   23.464430   -2.057284  105.100830
  0.034829659    0.000000    0.000000    0.000000    0.000000  -95.725570   27.853909   -2.104531  103.031136
  0.035030060    0.000000    0.000000    0.000000    0.000000  -95.192777   27.791834   -2.154675  100.973381
  0.035230461    0.000000    0.000000    0.000000    0.000000  -96.185208   29.906858   -2.202974   98.909760
  0.035430862    0.000000    0.000000    0.000000    0.000000  -96.485217   24.315508   -2.251271   96.854507
  0.035631262    0.000000    0.000000    0.000000    0.000000  -95.529929   20.834759   -2.302496   94.780838
  0.035831663    0.000000    0.000000    0.000000    0.000000  -96.202720   20.988848   -2.353279   92.705116
  0.036032064    0.000000    0.000000    0.000000    0.000000  -96.665156    9.905496   -2.406788   90.637726
  0.036232465    0.000000    0.000000    0.000000    0.000000  -96.012521   31.303846   -2.457985   88.555855
  0.036432866    0.000000    0.000000    0.000000    0.000000  -95.891138   23.275442   -2.512431   86.473671
  0.036633266    0.000000    0.000000    0.000000    0.000000  -95.740721   25.075853   -2.564971   84.392410
  0.036833667    0.000000    0.000000    0.000000    0.000000  -96.864248   21.269085   -2.620194   82.318512
  0.037034068    0.000000    0.000000    0.000000    0.000000  -97.827260   21.516325   -2.676025   80.225677
  0.037234469    0.000000    0.000000    0.000000    0.000000  -96.685190   22.643787   -2.734017   78.150925
  0.037434870    0.000000    0.000000    0.000000    0.000000  -96.632641   17.228956   -2.789107   76.072922
  0.037635270    0.000000    0.000000    0.000000    0.000000  -96.451603   17.421129   -2.848481   73.992645
  0.037835671    0.000000    0.000000    0.000000    0.000000  -97.277586   23.772448   -2.905211   71.922104
  0.038036072    0.000000    0.000000    0.000000    0.000000  -97.590445   21.268902   -2.963136   69.827568
  0.038236473    0.000000    0.000000    0.000000    0.000000  -98.203229   26.436289   -3.024368   67.729889
  0.038436874    0.000000    0.000000    0.000000    0.000000  -97.160654   20.233805   -3.085065   65.620491
  0.038637274    0.000000    0.000000    0.000000    0.000000  -97.188880   26.964085   -3.142089   63.517509
  0.038837675    0.000000    0.000000    0.000000    0.000000  -98.084999   24.363056   -3.202094   61.438015
  0.039038076    0.000000    0.000000    0.000000    0.000000  -97.061580   27.907257   -3.259553   59.355457
  0.039238477    0.000000    0.000000    0.000000    0.000000  -98.393442   24.129950   -3.313359   57.293705
  0.039438878    0.000000    0.000000    0.000000    0.000000  -98.017394   35.118145   -3.372917   55.216633
  0.039639278    0.000000    0.000000    0.000000    0.000000  -97.627674   23.248886   -3.427034   53.135967
  0.039839679    0.000000    0.000000    0.000000    0.000000  -99.556918   31.517843   -3.486130   51.045872
  0.040040080    0.000000    0.000000    0.000000    0.000000  -98.435616   25.649168   -3.540287   48.982883
  0.040240481    0.000000    0.000000    0.000000    0.000000  -97.540928   23.277119   -3.595191   46.881538
  0.040440882    0.000000    0.000000    0.000000    0.000000  -97.561368   29.991583   -3.648453   44.833012
  0.040641283    0.000000    0.000000    0.000000    0.000000  -99.401553   34.647331   -3.703720   42.778839
  0.040841683    0.000000    0.000000    0.000000    0.000000  -97.369201   30.276150   -3.758508   40.755695
  0.041042084    0.000000    0.000000    0.000000    0.000000  -99.297446   23.629719   -3.814610   38.720943
  0.041242485    0.000000    0.000000    0.000000    0.000000  -98.837847   26.449930   -3.869385   36.664513
  0.041442886    0.000000    0.000000    0.000000    0.000000  -97.575797   20.220932   -3.923336   34.627613
  0.041643287    0.000000    0.000000    0.000000    0.000000  -97.614024   25.901501   -3.977253   32.572823
  0.041843687    0.000000    0.000000    0.000000    0.000000  -97.780906   27.544760   -4.030041   30.541847
  0.042044088    0.000000    0.000000    0.000000    0.000000  -97.451216   31.374495   -4.081432   28.515915
  0.042244489    0.000000    0.000000    0.000000    0.000000  -97.764370   23.510925   -4.132296   26.487614
  0.042444890    0.000000    0.000000    0.000000    0.000000  -98.469754   14.486442   -4.182867   24.486891
  0.042645291    0.000000    0.000000    0.000000    0.000000  -97.836899   30.264919   -4.239829   22.476645
  0.042845691    0.000000    0.000000    0.000000    0.000000  -98.353326   18.277437   -4.290657   20.481951
  0.043046092    0.000000    0.000000    0.000000    0.000000  -98.568041   13.793724   -4.343506   18.474741
  0.043246493    0.000000    0.000000    0.000000    0.000000  -98.689257   24.373903   -4.394382   16.475830
  0.043446894    0.000000    0.000000    0.000000    0.000000  -98.718136   25.114893   -4.442514   14.482903
  0.043647295    0.000000    0.000000    0.000000    0.000000  -98.944459   24.662577   -4.489755   12.495961
  0.043847695    0.000000    0.000000    0.000000    0.000000  -98.932996   26.266102   -4.538823   10.524205
  0.044048096    0.000000    0.000000    0.000000    0.000000  -98.368531   24.065254   -4.587940    8.552314
  0.044248497    0.000000    0.000000    0.000000    0.000000  -98.419721   31.224129   -4.634891    6.588367
  0.044448898    0.000000    0.000000    0.000000    0.000000  -99.337282   36.508854   -4.680318    4.643228
  0.044649299    0.000000    0.000000    0.000000    0.000000  -98.844873   24.880878   -4.726066    2.701448
  0.044849699    0.000000    0.000000    0.000000    0.000000 -100.805893   29.633711   -4.771106    0.764251
  0.045050100    0.000000    0.000000    0.000000    0.000000 -100.063050   25.579414   -4.815578   -1.185113
  0.045250501    0.000000    0.000000    0.000000    0.000000  -99.441694   36.448154   -4.857823   -3.113639
  0.045450902    0.000000    0.000000    0.000000    0.000000  -97.311333   34.973869   -4.898458   -5.020633
  0.045651303    0.000000    0.000000    0.000000    0.000000  -99.206480   30.930420   -4.939607   -6.942576
  0.045851703    0.000000    0.000000    0.000000    0.000000  -97.628660   29.554211   -4.979373   -8.844314
  0.046052104    0.000000    0.000000    0.000000    0.000000  -98.428994   25.231003   -5.017143  -10.737492
  0.046252505    0.000000    0.000000    0.000000    0.000000  -98.137242   28.091444   -5.055806  -12.611103
  0.046452906    0.000000    0.000000    0.000000    0.000000  -98.235367   37.530075   -5.094288  -14.472993
  0.046653307    0.000000    0.000000    0.000000    0.000000  -99.052354   33.650089   -5.127365  -16.342875
  0.046853707    0.000000    0.000000    0.000000    0.000000  -99.582023   37.731537   -5.165969  -18.223549
  0.047054108    0.000000    0.000000    0.000000    0.000000  -98.891673   25.149424   -5.197326  -20.056475
  0.047254509    0.000000    0.000000    0.000000    0.000000  -98.962252   29.728453   -5.232217  -21.917461
  0.047454910    0.000000    0.000000    0.000000    0.000000  -98.141683   38.340725   -5.263756  -23.755606
  0.047655311    0.000000    0.000000    0.000000    0.000000  -99.203620   29.697334   -5.294574  -25.582659
  0.047855711    0.000000    0.000000    0.000000    0.000000  -98.723618   23.819981   -5.325979  -27.378071
  0.048056112    0.000000    0.000000    0.000000    0.000000  -98.740189   23.762278   -5.358318  -29.175383
  0.048256513    0.000000    0.000000    0.000000    0.000000 -100.002954   29.717937   -5.390063  -30.968126
  0.048456914    0.000000    0.000000    0.000000    0.000000  -98.150183   27.128494   -5.418452  -32.758141
  0.048657315    0.000000    0.000000    0.000000    0.000000 -100.076112   35.940926   -5.445646  -34.539978
  0.048857715    0.000000    0.000000    0.000000    0.000000  -99.710971   24.324379   -5.476011  -36.313648
  0.049058116    0.000000    0.000000    0.000000    0.000000  -99.309668   32.758091   -5.501203  -38.096798
  0.049258517    0.000000    0.000000    0.000000    0.000000 -101.025666   31.756376   -5.523066  -39.842258
  0.049458918    0.000000    0.000000    0.000000    0.000000 -100.118223   30.312038   -5.547443  -41.571693
  0.049659319    0.000000    0.000000    0.000000    0.000000  -98.133760   25.629930   -5.575440  -43.295250
  0.049859719    0.000000    0.000000    0.000000    0.000000  -99.879975   34.984730   -5.600289  -45.027252
  0.050060120    0.000000    0.000000    0.000000    0.000000 -101.549194   26.781000   -5.625308  -46.704578
  0.050260521    0.000000    0.000000    0.000000    0.000000 -100.360391   34.401569   -5.647465  -48.438824
  0.050460922    0.000000    0.000000    0.000000    0.000000  -99.045284   37.914879   -5.668257  -50.150543
  0.050661323    0.000000    0.000000    0.000000    0.000000  -99.533507   28.448654   -5.685777  -51.853031
  0.050861723    0.000000    0.000000    0.000000    0.000000  -99.782894   40.146290   -5.704183  -53.504055
  0.051062124    0.000000    0.000000    0.000000    0.000000 -100.490180   39.153774   -5.722394  -55.172600
  0.051262525    0.000000    0.000000    0.000000    0.000000  -98.919489   32.782990   -5.745428  -56.829041
  0.051462926    0.000000    0.000000    0.000000    0.000000  -99.767069   32.054180   -5.764171  -58.475586
  0.051663327    0.000000    0.000000    0.000000    0.000000  -98.305469   33.530899   -5.780622  -60.092426
  0.051863727    0.000000    0.000000    0.000000    0.000000  -98.107474   38.687225   -5.800596  -61.742485
  0.052064128    0.000000    0.000000    0.000000    0.000000  -99.182636   33.202457   -5.812732  -63.354443
  0.052264529    0.000000    0.000000    0.000000    0.000000  -98.733807   28.449715   -5.825864  -64.949074
  0.052464930    0.000000    0.000000    0.000000    0.000000  -98.340062   21.600983   -5.837952  -66.559135
  0.052665331    0.000000    0.000000    0.000000    0.000000  -99.880571   32.256325   -5.852473  -68.142136
  0.052865731    0.000000    0.000000    0.000000    0.000000  -98.968890   28.562208   -5.869949  -69.702614
