! Anritsu VNA Master:                     Model: MS2036C/10/77
! SN:                                  1601066
! /bd0/18may10/255.ns.m1.s2p
! Existing Calibration Information:
! TYPE:                         Current Settings,       Active Cal Settings
! TIME:             	   05/10/2018 02:17:43 PM,    05/10/2018 02:13:17 PM
! INTERNAL TEMP:    	                   58.0 C,                    57.5 C
! # POINTS:         	                      492,                       492
! START FREQ:       	               20.000 MHz,                20.000 MHz
! STOP FREQ:        	          118.396 793 MHz,           118.396 793 MHz
! SOURCE POWER:     	                     High,                      High
! IFBW:             	                    50 Hz,                     50 Hz
! AVG FACTOR:       	                       1 ,                        1 
! REF PLANE 1:      	                     0 mm,                      0 mm
! REF PLANE 2:      	                     0 mm,                      0 mm
! CAL TYPE:         	                 Full S22,                  Full S22
! CAL METHOD:       	                     SOLT,                      SOLT
! CAL LINE TYPE:    	                     Coax,                      Coax
! DUT PORT 1:       	                K-Conn(M),                 K-Conn(M)
! DUT PORT 2:       	                K-Conn(M),                 K-Conn(M)
! CAL STATUS:       	        OK: Accuracy High,                        --
# GHZ S DB R 50.0
! FREQ.GHZ       S11DB        S11A       S21DB        S21A       S12DB        S12A       S22DB        S22A
  0.020000000    0.000000    0.000000    0.000000    0.000000  -89.428683   34.035908   -0.634752 -125.414680
  0.020200401    0.000000    0.000000    0.000000    0.000000  -89.776600   35.461456   -0.638906 -126.867195
  0.020400802    0.000000    0.000000    0.000000    0.000000  -89.912174   33.373928   -0.640582 -128.309250
  0.020601202    0.000000    0.000000    0.000000    0.000000  -90.175986   33.525715   -0.644786 -129.788284
  0.020801603    0.000000    0.000000    0.000000    0.000000  -90.895701   29.954437   -0.648634 -131.288559
  0.021002004    0.000000    0.000000    0.000000    0.000000  -91.408854   34.083744   -0.650827 -132.798752
  0.021202405    0.000000    0.000000    0.000000    0.000000  -91.893374   34.877300   -0.653596 -134.306686
  0.021402806    0.000000    0.000000    0.000000    0.000000  -92.121714   33.691864   -0.656565 -135.827744
  0.021603206    0.000000    0.000000    0.000000    0.000000  -91.569653   38.507458   -0.658566 -137.327606
  0.021803607    0.000000    0.000000    0.000000    0.000000  -92.123402   37.363400   -0.661888 -138.840286
  0.022004008    0.000000    0.000000    0.000000    0.000000  -91.373106   44.400654   -0.664603 -140.356049
  0.022204409    0.000000    0.000000    0.000000    0.000000  -91.591546   40.206558   -0.671438 -141.894775
  0.022404810    0.000000    0.000000    0.000000    0.000000  -92.014113   41.775005   -0.677458 -143.452164
  0.022605210    0.000000    0.000000    0.000000    0.000000  -91.432714   42.453098   -0.678557 -145.038651
  0.022805611    0.000000    0.000000    0.000000    0.000000  -91.778375   43.154469   -0.680902 -146.615631
  0.023006012    0.000000    0.000000    0.000000    0.000000  -91.640558   43.647038   -0.684135 -148.194687
  0.023206413    0.000000    0.000000    0.000000    0.000000  -91.640635   42.067234   -0.688598 -149.762680
  0.023406814    0.000000    0.000000    0.000000    0.000000  -91.640794   41.750858   -0.694286 -151.326172
  0.023607214    0.000000    0.000000    0.000000    0.000000  -90.946140   45.247578   -0.700732 -152.925552
  0.023807615    0.000000    0.000000    0.000000    0.000000  -91.574208   38.404331   -0.708636 -154.525589
  0.024008016    0.000000    0.000000    0.000000    0.000000  -91.148853   37.391888   -0.716527 -156.151627
  0.024208417    0.000000    0.000000    0.000000    0.000000  -90.912301   37.017456   -0.722868 -157.796066
  0.024408818    0.000000    0.000000    0.000000    0.000000  -91.947104   32.745770   -0.729374 -159.445877
  0.024609218    0.000000    0.000000    0.000000    0.000000  -91.267661   31.972471   -0.736077 -161.097580
  0.024809619    0.000000    0.000000    0.000000    0.000000  -91.647984   28.574272   -0.744022 -162.756317
  0.025010020    0.000000    0.000000    0.000000    0.000000  -91.459310   27.860991   -0.753206 -164.429825
  0.025210421    0.000000    0.000000    0.000000    0.000000  -91.690225   25.143801   -0.763763 -166.099457
  0.025410822    0.000000    0.000000    0.000000    0.000000  -92.489043   27.575638   -0.774295 -167.794403
  0.025611222    0.000000    0.000000    0.000000    0.000000  -92.098953   22.881716   -0.786201 -169.490051
  0.025811623    0.000000    0.000000    0.000000    0.000000  -92.490601   25.238287   -0.797215 -171.204086
  0.026012024    0.000000    0.000000    0.000000    0.000000  -92.660639   23.584570   -0.809057 -172.928925
  0.026212425    0.000000    0.000000    0.000000    0.000000  -92.447519   24.935110   -0.818008 -174.668762
  0.026412826    0.000000    0.000000    0.000000    0.000000  -92.979858   25.520035   -0.832462 -176.407196
  0.026613226    0.000000    0.000000    0.000000    0.000000  -93.515171   25.999765   -0.847468 -178.158676
  0.026813627    0.000000    0.000000    0.000000    0.000000  -93.592618   24.218002   -0.862260 -179.915329
  0.027014028    0.000000    0.000000    0.000000    0.000000  -93.234738   23.786577   -0.877819  178.322540
  0.027214429    0.000000    0.000000    0.000000    0.000000  -94.381301   25.418852   -0.894641  176.556717
  0.027414830    0.000000    0.000000    0.000000    0.000000  -94.736084   29.086332   -0.909941  174.775772
  0.027615230    0.000000    0.000000    0.000000    0.000000  -94.791012   23.700552   -0.927372  172.991409
  0.027815631    0.000000    0.000000    0.000000    0.000000  -94.496993   31.696213   -0.945436  171.198837
  0.028016032    0.000000    0.000000    0.000000    0.000000  -95.174378   29.691902   -0.964604  169.385620
  0.028216433    0.000000    0.000000    0.000000    0.000000  -94.864881   25.850164   -0.984262  167.575897
  0.028416834    0.000000    0.000000    0.000000    0.000000  -94.592309   29.972517   -1.003755  165.753754
  0.028617234    0.000000    0.000000    0.000000    0.000000  -94.456242   30.977484   -1.025626  163.928909
  0.028817635    0.000000    0.000000    0.000000    0.000000  -94.527317   35.043064   -1.047056  162.103119
  0.029018036    0.000000    0.000000    0.000000    0.000000  -94.400897   34.494041   -1.070056  160.275772
  0.029218437    0.000000    0.000000    0.000000    0.000000  -94.102261   33.696754   -1.094599  158.431976
  0.029418838    0.000000    0.000000    0.000000    0.000000  -93.843648   33.697342   -1.121676  156.567291
  0.029619238    0.000000    0.000000    0.000000    0.000000  -94.354952   33.672977   -1.147306  154.708191
  0.029819639    0.000000    0.000000    0.000000    0.000000  -94.189808   29.678961   -1.174319  152.828415
  0.030020040    0.000000    0.000000    0.000000    0.000000  -94.323047   28.002150   -1.202589  150.950912
  0.030220441    0.000000    0.000000    0.000000    0.000000  -94.615369   22.357237   -1.231348  149.071472
  0.030420842    0.000000    0.000000    0.000000    0.000000  -93.834035   23.531336   -1.259502  147.180222
  0.030621242    0.000000    0.000000    0.000000    0.000000  -93.513480   28.670809   -1.292470  145.300018
  0.030821643    0.000000    0.000000    0.000000    0.000000  -94.870763   26.796507   -1.325269  143.405960
  0.031022044    0.000000    0.000000    0.000000    0.000000  -93.954292   23.423216   -1.357701  141.495331
  0.031222445    0.000000    0.000000    0.000000    0.000000  -94.175078   24.566423   -1.387384  139.582642
  0.031422846    0.000000    0.000000    0.000000    0.000000  -94.170102   20.738871   -1.421751  137.628693
  0.031623246    0.000000    0.000000    0.000000    0.000000  -94.681486   18.985466   -1.457874  135.676437
  0.031823647    0.000000    0.000000    0.000000    0.000000  -94.421147   17.895731   -1.492048  133.713501
  0.032024048    0.000000    0.000000    0.000000    0.000000  -94.644405   13.169411   -1.530831  131.754807
  0.032224449    0.000000    0.000000    0.000000    0.000000  -95.588257   14.600038   -1.569985  129.784180
  0.032424850    0.000000    0.000000    0.000000    0.000000  -95.966217   22.178493   -1.607096  127.805008
  0.032625250    0.000000    0.000000    0.000000    0.000000  -96.019989   11.915353   -1.645807  125.817291
  0.032825651    0.000000    0.000000    0.000000    0.000000  -95.523833   15.190102   -1.683112  123.793205
  0.033026052    0.000000    0.000000    0.000000    0.000000  -94.864098   23.631359   -1.722597  121.775772
  0.033226453    0.000000    0.000000    0.000000    0.000000  -97.427429   18.864473   -1.761505  119.745193
  0.033426854    0.000000    0.000000    0.000000    0.000000  -95.570499   27.515631   -1.798614  117.720131
  0.033627254    0.000000    0.000000    0.000000    0.000000  -96.106164   28.186331   -1.841198  115.724014
  0.033827655    0.000000    0.000000    0.000000    0.000000  -97.024968   13.565447   -1.880770  113.710541
  0.034028056    0.000000    0.000000    0.000000    0.000000  -96.852834   25.839815   -1.920292  111.669472
  0.034228457    0.000000    0.000000    0.000000    0.000000  -96.898800   22.263969   -1.964884  109.640717
  0.034428858    0.000000    0.000000    0.000000    0.000000  -96.162780   27.644567   -2.009333  107.613640
  0.034629258    0.000000    0.000000    0.000000    0.000000  -96.288929   30.801466   -2.051346  105.558907
  0.034829659    0.000000    0.000000    0.000000    0.000000  -96.130985   29.057619   -2.094424  103.513695
  0.035030060    0.000000    0.000000    0.000000    0.000000  -96.845893   20.853086   -2.141567  101.469894
  0.035230461    0.000000    0.000000    0.000000    0.000000  -96.016579   19.619797   -2.190180   99.420792
  0.035430862    0.000000    0.000000    0.000000    0.000000  -95.929346   23.565849   -2.242407   97.370407
  0.035631262    0.000000    0.000000    0.000000    0.000000  -95.443064   27.289293   -2.290584   95.328682
  0.035831663    0.000000    0.000000    0.000000    0.000000  -95.747360   27.164101   -2.340306   93.259743
  0.036032064    0.000000    0.000000    0.000000    0.000000  -96.064575   22.294964   -2.393566   91.196892
  0.036232465    0.000000    0.000000    0.000000    0.000000  -95.574466   19.805122   -2.444105   89.137733
  0.036432866    0.000000    0.000000    0.000000    0.000000  -96.234315   20.698807   -2.494728   87.070694
  0.036633266    0.000000    0.000000    0.000000    0.000000  -96.572162   23.189697   -2.550171   85.002579
  0.036833667    0.000000    0.000000    0.000000    0.000000  -96.838383   24.797350   -2.607299   82.923241
  0.037034068    0.000000    0.000000    0.000000    0.000000  -97.531691   23.233137   -2.664048   80.840446
  0.037234469    0.000000    0.000000    0.000000    0.000000  -96.704972   20.311867   -2.721218   78.762474
  0.037434870    0.000000    0.000000    0.000000    0.000000  -96.586278   18.703833   -2.778264   76.669754
  0.037635270    0.000000    0.000000    0.000000    0.000000  -97.462291   20.367290   -2.838516   74.579910
  0.037835671    0.000000    0.000000    0.000000    0.000000  -96.956675   12.907575   -2.899119   72.485268
  0.038036072    0.000000    0.000000    0.000000    0.000000  -97.884765   20.250912   -2.957948   70.385048
  0.038236473    0.000000    0.000000    0.000000    0.000000  -97.530589   16.074419   -3.015611   68.251526
  0.038436874    0.000000    0.000000    0.000000    0.000000  -98.137556   32.044888   -3.078757   66.131653
  0.038637274    0.000000    0.000000    0.000000    0.000000  -97.536636   24.207602   -3.139127   64.011124
  0.038837675    0.000000    0.000000    0.000000    0.000000  -98.082878   15.255424   -3.197840   61.907475
  0.039038076    0.000000    0.000000    0.000000    0.000000  -97.341304   24.276970   -3.255487   59.808853
  0.039238477    0.000000    0.000000    0.000000    0.000000  -97.759847   25.993542   -3.310552   57.723923
  0.039438878    0.000000    0.000000    0.000000    0.000000  -98.911011   22.482134   -3.367703   55.630745
  0.039639278    0.000000    0.000000    0.000000    0.000000  -97.654214   30.536259   -3.424811   53.540642
  0.039839679    0.000000    0.000000    0.000000    0.000000  -97.203723   25.336554   -3.479955   51.433975
  0.040040080    0.000000    0.000000    0.000000    0.000000  -98.318907   25.504910   -3.533035   49.351353
  0.040240481    0.000000    0.000000    0.000000    0.000000  -98.186866   26.905235   -3.585984   47.271866
  0.040440882    0.000000    0.000000    0.000000    0.000000  -97.311627   28.121876   -3.639028   45.217068
  0.040641283    0.000000    0.000000    0.000000    0.000000  -97.930241   26.968748   -3.690820   43.177479
  0.040841683    0.000000    0.000000    0.000000    0.000000  -97.928080   27.376095   -3.743366   41.140900
  0.041042084    0.000000    0.000000    0.000000    0.000000  -98.627257   28.837029   -3.796883   39.126217
  0.041242485    0.000000    0.000000    0.000000    0.000000  -98.276583   32.057457   -3.853016   37.112999
  0.041442886    0.000000    0.000000    0.000000    0.000000  -98.418881   22.369293   -3.904094   35.086403
  0.041643287    0.000000    0.000000    0.000000    0.000000  -97.091863   29.216236   -3.957537   33.070053
  0.041843687    0.000000    0.000000    0.000000    0.000000  -96.539528   25.335844   -4.009446   31.060169
  0.042044088    0.000000    0.000000    0.000000    0.000000  -98.362610   20.839535   -4.059976   29.055084
  0.042244489    0.000000    0.000000    0.000000    0.000000  -98.374302   31.193678   -4.113627   27.079868
  0.042444890    0.000000    0.000000    0.000000    0.000000  -99.710537   33.531403   -4.168227   25.097055
  0.042645291    0.000000    0.000000    0.000000    0.000000  -99.523554   22.588081   -4.220780   23.125416
  0.042845691    0.000000    0.000000    0.000000    0.000000  -98.108277   34.372082   -4.274854   21.150789
  0.043046092    0.000000    0.000000    0.000000    0.000000  -98.894171   23.573494   -4.325876   19.165257
  0.043246493    0.000000    0.000000    0.000000    0.000000  -98.406487   32.676437   -4.381208   17.170736
  0.043446894    0.000000    0.000000    0.000000    0.000000  -99.560002   23.058167   -4.431420   15.197215
  0.043647295    0.000000    0.000000    0.000000    0.000000  -98.077644   34.791622   -4.482367   13.211597
  0.043847695    0.000000    0.000000    0.000000    0.000000  -99.687414   30.231585   -4.534831   11.234949
  0.044048096    0.000000    0.000000    0.000000    0.000000  -99.524443   25.668089   -4.584086    9.249615
  0.044248497    0.000000    0.000000    0.000000    0.000000  -98.859268   22.188379   -4.635271    7.285257
  0.044448898    0.000000    0.000000    0.000000    0.000000  -99.020130   30.352842   -4.685852    5.313257
  0.044649299    0.000000    0.000000    0.000000    0.000000  -98.494291   32.537785   -4.732611    3.348054
  0.044849699    0.000000    0.000000    0.000000    0.000000  -99.654342   38.518688   -4.778679    1.379513
  0.045050100    0.000000    0.000000    0.000000    0.000000  -98.926961   22.916267   -4.823402   -0.582309
  0.045250501    0.000000    0.000000    0.000000    0.000000  -99.875142   34.712650   -4.865699   -2.553033
  0.045450902    0.000000    0.000000    0.000000    0.000000 -100.041428   33.226990   -4.907529   -4.490948
  0.045651303    0.000000    0.000000    0.000000    0.000000  -98.526163   37.213951   -4.949625   -6.446454
  0.045851703    0.000000    0.000000    0.000000    0.000000  -98.365403   29.587017   -4.985669   -8.373054
  0.046052104    0.000000    0.000000    0.000000    0.000000  -99.423512   32.534237   -5.027234  -10.292093
  0.046252505    0.000000    0.000000    0.000000    0.000000  -98.151623   38.400784   -5.062098  -12.186763
  0.046452906    0.000000    0.000000    0.000000    0.000000  -99.319207   41.065289   -5.098154  -14.062560
  0.046653307    0.000000    0.000000    0.000000    0.000000  -99.367907   27.281773   -5.132960  -15.946447
  0.046853707    0.000000    0.000000    0.000000    0.000000  -99.349469   29.667688   -5.166224  -17.825678
  0.047054108    0.000000    0.000000    0.000000    0.000000  -99.072734   24.828173   -5.195347  -19.677658
  0.047254509    0.000000    0.000000    0.000000    0.000000  -97.731764   33.127647   -5.227801  -21.546345
  0.047454910    0.000000    0.000000    0.000000    0.000000  -99.496490   20.572670   -5.256703  -23.368799
  0.047655311    0.000000    0.000000    0.000000    0.000000  -98.521872   26.422615   -5.285016  -25.194635
  0.047855711    0.000000    0.000000    0.000000    0.000000  -98.707232   35.542690   -5.314472  -26.977129
  0.048056112    0.000000    0.000000    0.000000    0.000000  -97.494419   29.381544   -5.345603  -28.742741
  0.048256513    0.000000    0.000000    0.000000    0.000000  -97.744356   31.097864   -5.375453  -30.516100
  0.048456914    0.000000    0.000000    0.000000    0.000000  -98.786037   31.792755   -5.405557  -32.290443
  0.048657315    0.000000    0.000000    0.000000    0.000000  -97.787683   34.731945   -5.432190  -34.039730
  0.048857715    0.000000    0.000000    0.000000    0.000000 -100.041881   34.231766   -5.458697  -35.792568
  0.049058116    0.000000    0.000000    0.000000    0.000000 -100.454465   23.878693   -5.486870  -37.547436
  0.049258517    0.000000    0.000000    0.000000    0.000000 -100.210071   33.507229   -5.511228  -39.271843
  0.049458918    0.000000    0.000000    0.000000    0.000000  -99.713582   38.769382   -5.540932  -41.001141
  0.049659319    0.000000    0.000000    0.000000    0.000000  -99.487527   20.746628   -5.569351  -42.708981
  0.049859719    0.000000    0.000000    0.000000    0.000000  -98.768344   33.322365   -5.594087  -44.411522
  0.050060120    0.000000    0.000000    0.000000    0.000000 -100.728540   38.053040   -5.621037  -46.108074
  0.050260521    0.000000    0.000000    0.000000    0.000000 -100.272783   26.687077   -5.642740  -47.814301
  0.050460922    0.000000    0.000000    0.000000    0.000000 -100.540351   36.032177   -5.668925  -49.509731
  0.050661323    0.000000    0.000000    0.000000    0.000000  -98.684870   34.205112   -5.688711  -51.220352
  0.050861723    0.000000    0.000000    0.000000    0.000000  -98.293485   37.659573   -5.709662  -52.902832
  0.051062124    0.000000    0.000000    0.000000    0.000000  -98.533782   41.683884   -5.729655  -54.593307
  0.051262525    0.000000    0.000000    0.000000    0.000000  -98.863783   38.856934   -5.752399  -56.231197
  0.051462926    0.000000    0.000000    0.000000    0.000000  -97.298280   38.139511   -5.773417  -57.898579
  0.051663327    0.000000    0.000000    0.000000    0.000000  -98.549197   34.701206   -5.789217  -59.538212
  0.051863727    0.000000    0.000000    0.000000    0.000000  -99.270520   33.776947   -5.806781  -61.180485
  0.052064128    0.000000    0.000000    0.000000    0.000000  -99.008813   35.360439   -5.819928  -62.811035
  0.052264529    0.000000    0.000000    0.000000    0.000000  -98.656244   37.237709   -5.831786  -64.431778
  0.052464930    0.000000    0.000000    0.000000    0.000000  -97.934569   35.183002   -5.844005  -66.034943
  0.052665331    0.000000    0.000000    0.000000    0.000000  -99.016332   35.613544   -5.855443  -67.623924
  0.052865731    0.000000    0.000000    0.000000    0.000000  -98.311751   27.310562   -5.867284  -69.203651
