! Anritsu VNA Master:                     Model: MS2036C/10/77
! SN:                                  1601066
! /bd0/18may12.cable.cal/bot.50.s2p
! Existing Calibration Information:
! TYPE:                         Current Settings,       Active Cal Settings
! TIME:             	   05/12/2018 01:51:55 PM,    05/12/2018 01:41:40 PM
! INTERNAL TEMP:    	                   49.0 C,                    49.0 C
! # POINTS:         	                      500,                       500
! START FREQ:       	               20.000 MHz,                20.000 MHz
! STOP FREQ:        	              120.000 MHz,               120.000 MHz
! SOURCE POWER:     	                     High,                      High
! IFBW:             	                    50 Hz,                     50 Hz
! AVG FACTOR:       	                       1 ,                        1 
! REF PLANE 1:      	                     0 mm,                      0 mm
! REF PLANE 2:      	                     0 mm,                      0 mm
! CAL TYPE:         	                 Full S22,                  Full S22
! CAL METHOD:       	                     SOLT,                      SOLT
! CAL LINE TYPE:    	                     Coax,                      Coax
! DUT PORT 1:       	                K-Conn(M),                 K-Conn(M)
! DUT PORT 2:       	                K-Conn(M),                 K-Conn(M)
! CAL STATUS:       	        OK: Accuracy High,                        --
# GHZ S DB R 50.0
! FREQ.GHZ       S11DB        S11A       S21DB        S21A       S12DB        S12A       S22DB        S22A
  0.020000000    0.000000    0.000000    0.000000    0.000000  -89.666107   41.038258  -39.230694   52.929798
  0.020200401    0.000000    0.000000    0.000000    0.000000  -89.268263   43.027615  -39.179140   52.768826
  0.020400802    0.000000    0.000000    0.000000    0.000000  -90.265935   42.327301  -39.145878   52.351322
  0.020601202    0.000000    0.000000    0.000000    0.000000  -90.236009   43.695934  -38.990546   52.355480
  0.020801603    0.000000    0.000000    0.000000    0.000000  -90.435731   42.513851  -38.967114   52.428055
  0.021002004    0.000000    0.000000    0.000000    0.000000  -90.063451   39.943840  -38.984062   52.210838
  0.021202405    0.000000    0.000000    0.000000    0.000000  -89.869594   40.304729  -38.903303   51.756508
  0.021402806    0.000000    0.000000    0.000000    0.000000  -90.511486   39.127235  -38.847942   51.946621
  0.021603206    0.000000    0.000000    0.000000    0.000000  -90.487132   39.862251  -38.704411   51.820595
  0.021803607    0.000000    0.000000    0.000000    0.000000  -90.258712   40.376499  -38.739882   51.520367
  0.022004008    0.000000    0.000000    0.000000    0.000000  -90.753770   39.680023  -38.630346   51.268082
  0.022204409    0.000000    0.000000    0.000000    0.000000  -90.630608   42.626328  -38.538343   51.694279
  0.022404810    0.000000    0.000000    0.000000    0.000000  -90.556873   37.646858  -38.524073   51.545589
  0.022605210    0.000000    0.000000    0.000000    0.000000  -90.890946   41.545528  -38.514761   51.135372
  0.022805611    0.000000    0.000000    0.000000    0.000000  -90.696848   38.130180  -38.400762   51.223198
  0.023006012    0.000000    0.000000    0.000000    0.000000  -91.829244   38.842594  -38.386117   51.081306
  0.023206413    0.000000    0.000000    0.000000    0.000000  -91.346643   39.439816  -38.252717   51.063843
  0.023406814    0.000000    0.000000    0.000000    0.000000  -91.876684   36.720169  -38.190513   50.653469
  0.023607214    0.000000    0.000000    0.000000    0.000000  -91.381411   36.392883  -38.244250   50.881962
  0.023807615    0.000000    0.000000    0.000000    0.000000  -91.716849   35.048798  -38.161222   50.483578
  0.024008016    0.000000    0.000000    0.000000    0.000000  -92.111351   33.712688  -38.087868   51.161560
  0.024208417    0.000000    0.000000    0.000000    0.000000  -92.333673   31.676014  -38.031765   50.636013
  0.024408818    0.000000    0.000000    0.000000    0.000000  -91.887385   31.084890  -37.916468   50.384487
  0.024609218    0.000000    0.000000    0.000000    0.000000  -91.822687   35.100117  -37.934473   50.138226
  0.024809619    0.000000    0.000000    0.000000    0.000000  -92.634269   31.415049  -37.881824   50.245762
  0.025010020    0.000000    0.000000    0.000000    0.000000  -92.799800   33.717606  -37.803411   50.526676
  0.025210421    0.000000    0.000000    0.000000    0.000000  -92.991312   29.801489  -37.758483   50.342793
  0.025410822    0.000000    0.000000    0.000000    0.000000  -92.170960   30.234116  -37.694254   50.288345
  0.025611222    0.000000    0.000000    0.000000    0.000000  -92.824704   31.402813  -37.657663   50.146477
  0.025811623    0.000000    0.000000    0.000000    0.000000  -92.560633   35.835594  -37.632513   50.174732
  0.026012024    0.000000    0.000000    0.000000    0.000000  -92.361133   27.889519  -37.565692   49.806431
  0.026212425    0.000000    0.000000    0.000000    0.000000  -93.361143   28.008080  -37.579712   49.855537
  0.026412826    0.000000    0.000000    0.000000    0.000000  -92.889221   30.077984  -37.527325   49.469307
  0.026613226    0.000000    0.000000    0.000000    0.000000  -93.167406   31.113701  -37.379153   49.809299
  0.026813627    0.000000    0.000000    0.000000    0.000000  -93.396411   35.666538  -37.377905   49.560574
  0.027014028    0.000000    0.000000    0.000000    0.000000  -93.801872   33.450607  -37.342039   49.257809
  0.027214429    0.000000    0.000000    0.000000    0.000000  -93.811249   31.832632  -37.292151   49.619946
  0.027414830    0.000000    0.000000    0.000000    0.000000  -93.493560   22.918051  -37.201516   49.327122
  0.027615230    0.000000    0.000000    0.000000    0.000000  -94.199655   29.820978  -37.229748   48.969711
  0.027815631    0.000000    0.000000    0.000000    0.000000  -93.324793   30.332590  -37.167267   49.544880
  0.028016032    0.000000    0.000000    0.000000    0.000000  -93.620411   30.235918  -37.151024   49.125355
  0.028216433    0.000000    0.000000    0.000000    0.000000  -93.523668   27.489183  -37.072570   49.086369
  0.028416834    0.000000    0.000000    0.000000    0.000000  -94.306036   28.158068  -37.053889   48.883049
  0.028617234    0.000000    0.000000    0.000000    0.000000  -93.784199   29.737135  -36.987622   48.560143
  0.028817635    0.000000    0.000000    0.000000    0.000000  -93.809403   29.352793  -36.942462   48.687679
  0.029018036    0.000000    0.000000    0.000000    0.000000  -94.487111   29.168272  -36.937605   48.594593
  0.029218437    0.000000    0.000000    0.000000    0.000000  -93.946586   25.657536  -36.865676   48.369629
  0.029418838    0.000000    0.000000    0.000000    0.000000  -93.984899   27.886688  -36.806449   48.403294
  0.029619238    0.000000    0.000000    0.000000    0.000000  -94.798718   28.873854  -36.792341   48.072926
  0.029819639    0.000000    0.000000    0.000000    0.000000  -94.676298   23.394001  -36.718536   48.155575
  0.030020040    0.000000    0.000000    0.000000    0.000000  -94.101835   23.139482  -36.712694   48.079674
  0.030220441    0.000000    0.000000    0.000000    0.000000  -94.599905   28.995932  -36.605593   48.077438
  0.030420842    0.000000    0.000000    0.000000    0.000000  -95.004442   24.403275  -36.578975   47.555164
  0.030621242    0.000000    0.000000    0.000000    0.000000  -94.895725   25.354202  -36.577459   47.693840
  0.030821643    0.000000    0.000000    0.000000    0.000000  -94.666301   28.356089  -36.497383   47.411503
  0.031022044    0.000000    0.000000    0.000000    0.000000  -94.707413   24.197163  -36.483191   47.523338
  0.031222445    0.000000    0.000000    0.000000    0.000000  -94.665528   25.304195  -36.389691   47.214806
  0.031422846    0.000000    0.000000    0.000000    0.000000  -95.439661   13.956738  -36.346815   47.333294
  0.031623246    0.000000    0.000000    0.000000    0.000000  -96.731820   28.238235  -36.323610   47.175968
  0.031823647    0.000000    0.000000    0.000000    0.000000  -94.788107   25.440451  -36.363399   47.451668
  0.032024048    0.000000    0.000000    0.000000    0.000000  -95.226832   22.917767  -36.272193   47.025875
  0.032224449    0.000000    0.000000    0.000000    0.000000  -95.983402   22.083460  -36.169695   46.798664
  0.032424850    0.000000    0.000000    0.000000    0.000000  -95.625902   19.857567  -36.204828   46.881638
  0.032625251    0.000000    0.000000    0.000000    0.000000  -95.712796   23.156832  -36.117972   46.570744
  0.032825651    0.000000    0.000000    0.000000    0.000000  -95.142950   27.831257  -36.082039   46.809254
  0.033026052    0.000000    0.000000    0.000000    0.000000  -95.121661   22.602612  -36.066082   46.692032
  0.033226453    0.000000    0.000000    0.000000    0.000000  -95.678510   23.317282  -36.002113   46.151192
  0.033426854    0.000000    0.000000    0.000000    0.000000  -95.091666   25.531675  -35.969517   46.155544
  0.033627255    0.000000    0.000000    0.000000    0.000000  -95.959545   24.658676  -35.933571   46.235519
  0.033827655    0.000000    0.000000    0.000000    0.000000  -96.311668   30.099567  -35.901525   46.133133
  0.034028056    0.000000    0.000000    0.000000    0.000000  -96.550870   22.043598  -35.859637   45.992836
  0.034228457    0.000000    0.000000    0.000000    0.000000  -96.739573   28.477325  -35.841306   46.065052
  0.034428858    0.000000    0.000000    0.000000    0.000000  -96.644171   20.235107  -35.817892   45.601292
  0.034629259    0.000000    0.000000    0.000000    0.000000  -97.029156   20.644873  -35.717146   45.671314
  0.034829659    0.000000    0.000000    0.000000    0.000000  -95.714462   26.823341  -35.757981   45.554893
  0.035030060    0.000000    0.000000    0.000000    0.000000  -95.758041   29.542597  -35.657175   45.343784
  0.035230461    0.000000    0.000000    0.000000    0.000000  -97.346328   28.383867  -35.685747   45.203648
  0.035430862    0.000000    0.000000    0.000000    0.000000  -95.799428   27.384850  -35.598208   45.262375
  0.035631263    0.000000    0.000000    0.000000    0.000000  -96.193272   21.913055  -35.615148   45.172894
  0.035831663    0.000000    0.000000    0.000000    0.000000  -95.786835   24.688393  -35.501128   45.230743
  0.036032064    0.000000    0.000000    0.000000    0.000000  -97.327646   22.870708  -35.513278   44.826221
  0.036232465    0.000000    0.000000    0.000000    0.000000  -96.685377   18.254759  -35.452840   44.697094
  0.036432866    0.000000    0.000000    0.000000    0.000000  -97.079229   25.212204  -35.399932   44.677933
  0.036633267    0.000000    0.000000    0.000000    0.000000  -97.686468   27.311672  -35.382342   44.367172
  0.036833667    0.000000    0.000000    0.000000    0.000000  -97.763603   24.501038  -35.353789   44.829620
  0.037034068    0.000000    0.000000    0.000000    0.000000  -97.316672   23.052351  -35.297909   44.123577
  0.037234469    0.000000    0.000000    0.000000    0.000000  -97.124416   24.888489  -35.302756   44.267719
  0.037434870    0.000000    0.000000    0.000000    0.000000  -95.874579   21.359529  -35.229621   44.470139
  0.037635271    0.000000    0.000000    0.000000    0.000000  -97.148491   39.789322  -35.227812   44.421833
  0.037835671    0.000000    0.000000    0.000000    0.000000  -97.740371   19.701817  -35.190496   43.830860
  0.038036072    0.000000    0.000000    0.000000    0.000000  -96.945529   25.967531  -35.172499   43.840023
  0.038236473    0.000000    0.000000    0.000000    0.000000  -96.424853   33.034309  -35.132435   43.674133
  0.038436874    0.000000    0.000000    0.000000    0.000000  -98.281827   20.784529  -35.114387   43.487305
  0.038637275    0.000000    0.000000    0.000000    0.000000  -97.302457   26.180714  -35.029820   43.375267
  0.038837675    0.000000    0.000000    0.000000    0.000000  -97.756433   32.230675  -35.062743   43.456329
  0.039038076    0.000000    0.000000    0.000000    0.000000  -97.200440   25.162514  -35.015316   43.276142
  0.039238477    0.000000    0.000000    0.000000    0.000000  -98.171691   31.352297  -34.974285   43.501060
  0.039438878    0.000000    0.000000    0.000000    0.000000  -98.000818   25.235523  -34.953358   42.950344
  0.039639279    0.000000    0.000000    0.000000    0.000000  -97.225029   23.709236  -34.859637   43.195755
  0.039839679    0.000000    0.000000    0.000000    0.000000  -98.411308   27.674566  -34.903844   43.104038
  0.040040080    0.000000    0.000000    0.000000    0.000000  -97.429279   23.076038  -34.825899   42.614391
  0.040240481    0.000000    0.000000    0.000000    0.000000  -97.885775   31.512005  -34.756762   42.764565
  0.040440882    0.000000    0.000000    0.000000    0.000000  -97.954933   19.315857  -34.762213   42.794003
  0.040641283    0.000000    0.000000    0.000000    0.000000  -99.167909   23.519358  -34.758254   42.389389
  0.040841683    0.000000    0.000000    0.000000    0.000000  -98.255758   30.879515  -34.736683   42.426842
  0.041042084    0.000000    0.000000    0.000000    0.000000  -98.429063   24.298561  -34.674875   42.305820
  0.041242485    0.000000    0.000000    0.000000    0.000000  -98.507776   36.972305  -34.634190   41.857803
  0.041442886    0.000000    0.000000    0.000000    0.000000  -97.613550   23.848677  -34.662301   42.010658
  0.041643287    0.000000    0.000000    0.000000    0.000000  -99.164059   26.196182  -34.594250   41.782951
  0.041843687    0.000000    0.000000    0.000000    0.000000  -98.731575   31.681217  -34.573681   41.950455
  0.042044088    0.000000    0.000000    0.000000    0.000000  -98.419445   32.131187  -34.528177   41.684380
  0.042244489    0.000000    0.000000    0.000000    0.000000  -99.720886   32.032761  -34.469441   41.753334
  0.042444890    0.000000    0.000000    0.000000    0.000000  -99.736263   34.151619  -34.492378   41.633663
  0.042645291    0.000000    0.000000    0.000000    0.000000  -97.870513   28.565912  -34.462962   41.442299
  0.042845691    0.000000    0.000000    0.000000    0.000000  -99.734542   25.375788  -34.424486   41.423866
  0.043046092    0.000000    0.000000    0.000000    0.000000  -98.720021   25.003092  -34.385319   41.392975
  0.043246493    0.000000    0.000000    0.000000    0.000000  -98.286988   29.196842  -34.351851   40.931740
  0.043446894    0.000000    0.000000    0.000000    0.000000  -98.026693   24.639246  -34.329749   41.143360
  0.043647295    0.000000    0.000000    0.000000    0.000000 -100.352985   25.184439  -34.347824   40.744392
  0.043847695    0.000000    0.000000    0.000000    0.000000  -98.591728   26.454977  -34.298446   40.738003
  0.044048096    0.000000    0.000000    0.000000    0.000000  -98.985023   22.358217  -34.264383   40.461426
  0.044248497    0.000000    0.000000    0.000000    0.000000  -99.173214   35.139935  -34.216259   40.391121
  0.044448898    0.000000    0.000000    0.000000    0.000000  -98.096061   28.245014  -34.143112   40.690937
  0.044649299    0.000000    0.000000    0.000000    0.000000  -97.864239   36.882263  -34.179805   40.314793
  0.044849699    0.000000    0.000000    0.000000    0.000000  -98.200725   39.149895  -34.180588   40.174358
  0.045050100    0.000000    0.000000    0.000000    0.000000  -99.466742   34.072010  -34.118855   39.870167
  0.045250501    0.000000    0.000000    0.000000    0.000000  -99.741531   28.335136  -34.072405   39.959061
  0.045450902    0.000000    0.000000    0.000000    0.000000  -98.864154   24.928907  -34.056768   39.675709
  0.045651303    0.000000    0.000000    0.000000    0.000000 -100.006084   26.134733  -34.061271   39.750366
  0.045851703    0.000000    0.000000    0.000000    0.000000  -99.846739   35.666588  -34.031327   39.729187
  0.046052104    0.000000    0.000000    0.000000    0.000000  -98.918868   29.231215  -33.969330   39.390980
  0.046252505    0.000000    0.000000    0.000000    0.000000  -99.062385   33.428947  -33.983670   39.374146
  0.046452906    0.000000    0.000000    0.000000    0.000000 -100.080267   28.788107  -33.965999   39.288258
  0.046653307    0.000000    0.000000    0.000000    0.000000  -99.799140   34.473110  -33.945055   39.054829
  0.046853707    0.000000    0.000000    0.000000    0.000000  -99.677312   30.296564  -33.943126   38.839096
  0.047054108    0.000000    0.000000    0.000000    0.000000  -99.144996   31.039476  -33.867406   38.832638
  0.047254509    0.000000    0.000000    0.000000    0.000000  -99.121908   34.590164  -33.857961   38.698498
  0.047454910    0.000000    0.000000    0.000000    0.000000  -98.944814   31.788263  -33.820328   38.762470
  0.047655311    0.000000    0.000000    0.000000    0.000000  -99.070754   25.631397  -33.799653   38.613663
  0.047855711    0.000000    0.000000    0.000000    0.000000  -98.662456   29.775373  -33.781009   38.150436
  0.048056112    0.000000    0.000000    0.000000    0.000000  -99.181641   28.940523  -33.784032   38.202095
  0.048256513    0.000000    0.000000    0.000000    0.000000 -101.455761   27.700998  -33.732124   38.101803
  0.048456914    0.000000    0.000000    0.000000    0.000000  -99.355574   34.876652  -33.718570   38.068848
  0.048657315    0.000000    0.000000    0.000000    0.000000  -98.399534   33.905102  -33.675015   37.818119
  0.048857715    0.000000    0.000000    0.000000    0.000000  -99.295551   30.339153  -33.653234   37.645809
  0.049058116    0.000000    0.000000    0.000000    0.000000  -98.654752   21.077772  -33.628900   37.725147
  0.049258517    0.000000    0.000000    0.000000    0.000000  -99.314498   32.462639  -33.628830   37.559048
  0.049458918    0.000000    0.000000    0.000000    0.000000 -100.435486   36.777149  -33.568546   37.572807
  0.049659319    0.000000    0.000000    0.000000    0.000000  -98.054435   25.397532  -33.540970   37.322159
  0.049859719    0.000000    0.000000    0.000000    0.000000  -99.500043   28.261662  -33.513234   37.210968
  0.050060120    0.000000    0.000000    0.000000    0.000000  -98.501336   33.742233  -33.526668   37.287910
  0.050260521    0.000000    0.000000    0.000000    0.000000  -97.850382   25.189636  -33.477418   36.921814
  0.050460922    0.000000    0.000000    0.000000    0.000000  -98.822936   24.245403  -33.445159   36.803413
  0.050661323    0.000000    0.000000    0.000000    0.000000 -100.660856   40.360577  -33.455736   36.994671
  0.050861723    0.000000    0.000000    0.000000    0.000000  -99.206275   25.377579  -33.365909   36.624310
  0.051062124    0.000000    0.000000    0.000000    0.000000  -99.739443   32.107296  -33.404388   36.729610
  0.051262525    0.000000    0.000000    0.000000    0.000000 -101.377219   26.401588  -33.398429   36.475056
  0.051462926    0.000000    0.000000    0.000000    0.000000 -100.146711   37.169521  -33.332758   36.403404
  0.051663327    0.000000    0.000000    0.000000    0.000000  -99.628842   28.586042  -33.326649   36.094666
  0.051863727    0.000000    0.000000    0.000000    0.000000  -98.849871   35.679047  -33.280834   36.164776
  0.052064128    0.000000    0.000000    0.000000    0.000000  -99.785753   34.446770  -33.277534   35.962566
  0.052264529    0.000000    0.000000    0.000000    0.000000  -98.826372   29.215614  -33.249676   35.961571
  0.052464930    0.000000    0.000000    0.000000    0.000000  -98.099585   30.642223  -33.218685   35.648125
  0.052665331    0.000000    0.000000    0.000000    0.000000 -100.790197   40.858582  -33.239991   35.496326
  0.052865731    0.000000    0.000000    0.000000    0.000000  -97.941110   31.950693  -33.164716   35.357845
