! Anritsu VNA Master:                     Model: MS2036C/10/77
! SN:                                  1601066
! /bd0/18may12.cable.cal/bot.20.s2p
! Existing Calibration Information:
! TYPE:                         Current Settings,       Active Cal Settings
! TIME:             	   05/12/2018 01:45:36 PM,    05/12/2018 01:41:40 PM
! INTERNAL TEMP:    	                   49.0 C,                    49.0 C
! # POINTS:         	                      500,                       500
! START FREQ:       	               20.000 MHz,                20.000 MHz
! STOP FREQ:        	              120.000 MHz,               120.000 MHz
! SOURCE POWER:     	                     High,                      High
! IFBW:             	                    50 Hz,                     50 Hz
! AVG FACTOR:       	                       1 ,                        1 
! REF PLANE 1:      	                     0 mm,                      0 mm
! REF PLANE 2:      	                     0 mm,                      0 mm
! CAL TYPE:         	                 Full S22,                  Full S22
! CAL METHOD:       	                     SOLT,                      SOLT
! CAL LINE TYPE:    	                     Coax,                      Coax
! DUT PORT 1:       	                K-Conn(M),                 K-Conn(M)
! DUT PORT 2:       	                K-Conn(M),                 K-Conn(M)
! CAL STATUS:       	        OK: Accuracy High,                        --
# GHZ S DB R 50.0
! FREQ.GHZ       S11DB        S11A       S21DB        S21A       S12DB        S12A       S22DB        S22A
  0.020000000    0.000000    0.000000    0.000000    0.000000  -89.718675   45.220531   -7.256990  154.665878
  0.020200401    0.000000    0.000000    0.000000    0.000000  -88.809829   45.743568   -7.256326  154.428864
  0.020400802    0.000000    0.000000    0.000000    0.000000  -89.865071   40.881439   -7.256772  154.171463
  0.020601202    0.000000    0.000000    0.000000    0.000000  -90.200620   45.938007   -7.256384  153.917786
  0.020801603    0.000000    0.000000    0.000000    0.000000  -89.395827   43.565269   -7.255951  153.678894
  0.021002004    0.000000    0.000000    0.000000    0.000000  -89.573276   43.331390   -7.255636  153.439438
  0.021202405    0.000000    0.000000    0.000000    0.000000  -90.220037   41.595020   -7.256281  153.189941
  0.021402806    0.000000    0.000000    0.000000    0.000000  -89.895586   42.759361   -7.256152  152.932220
  0.021603206    0.000000    0.000000    0.000000    0.000000  -90.376977   44.939922   -7.255640  152.678802
  0.021803607    0.000000    0.000000    0.000000    0.000000  -90.244951   39.863651   -7.256962  152.437576
  0.022004008    0.000000    0.000000    0.000000    0.000000  -90.617468   42.160225   -7.258293  152.186157
  0.022204409    0.000000    0.000000    0.000000    0.000000  -90.267496   40.344372   -7.260030  151.929977
  0.022404810    0.000000    0.000000    0.000000    0.000000  -90.660025   39.082409   -7.259053  151.686310
  0.022605210    0.000000    0.000000    0.000000    0.000000  -90.658689   40.931942   -7.257327  151.434158
  0.022805611    0.000000    0.000000    0.000000    0.000000  -90.811695   37.041656   -7.256668  151.175812
  0.023006012    0.000000    0.000000    0.000000    0.000000  -91.198910   37.885128   -7.257555  150.932510
  0.023206413    0.000000    0.000000    0.000000    0.000000  -90.762418   35.943005   -7.257165  150.683014
  0.023406814    0.000000    0.000000    0.000000    0.000000  -91.366167   39.705906   -7.258688  150.429855
  0.023607214    0.000000    0.000000    0.000000    0.000000  -91.390078   37.759750   -7.260244  150.188507
  0.023807615    0.000000    0.000000    0.000000    0.000000  -91.422187   31.994276   -7.258903  149.939835
  0.024008016    0.000000    0.000000    0.000000    0.000000  -91.362230   35.626797   -7.257043  149.684341
  0.024208417    0.000000    0.000000    0.000000    0.000000  -91.324285   37.624382   -7.259384  149.434952
  0.024408818    0.000000    0.000000    0.000000    0.000000  -91.291455   34.956783   -7.261069  149.189514
  0.024609218    0.000000    0.000000    0.000000    0.000000  -91.382577   39.155209   -7.261013  148.944870
  0.024809619    0.000000    0.000000    0.000000    0.000000  -91.938899   31.751585   -7.262897  148.705429
  0.025010020    0.000000    0.000000    0.000000    0.000000  -91.389823   33.481663   -7.261619  148.455276
  0.025210421    0.000000    0.000000    0.000000    0.000000  -91.872101   34.412964   -7.262857  148.211655
  0.025410822    0.000000    0.000000    0.000000    0.000000  -91.998497   28.471823   -7.262921  147.950027
  0.025611222    0.000000    0.000000    0.000000    0.000000  -92.310351   31.560177   -7.263725  147.696747
  0.025811623    0.000000    0.000000    0.000000    0.000000  -92.852991   28.458233   -7.263906  147.451309
  0.026012024    0.000000    0.000000    0.000000    0.000000  -91.754052   35.240223   -7.265516  147.204285
  0.026212425    0.000000    0.000000    0.000000    0.000000  -92.436253   30.103334   -7.266125  146.960815
  0.026412826    0.000000    0.000000    0.000000    0.000000  -92.441301   29.052132   -7.266573  146.705429
  0.026613226    0.000000    0.000000    0.000000    0.000000  -92.362591   27.000057   -7.264389  146.440170
  0.026813627    0.000000    0.000000    0.000000    0.000000  -93.260276   28.454985   -7.264684  146.216736
  0.027014028    0.000000    0.000000    0.000000    0.000000  -92.763273   27.504570   -7.265930  145.967728
  0.027214429    0.000000    0.000000    0.000000    0.000000  -93.931849   26.870140   -7.265341  145.702011
  0.027414830    0.000000    0.000000    0.000000    0.000000  -92.969541   30.607553   -7.267190  145.456345
  0.027615230    0.000000    0.000000    0.000000    0.000000  -93.010760   29.005573   -7.266713  145.224548
  0.027815631    0.000000    0.000000    0.000000    0.000000  -93.715068   28.322182   -7.266199  144.969360
  0.028016032    0.000000    0.000000    0.000000    0.000000  -93.401407   27.491776   -7.266260  144.720917
  0.028216433    0.000000    0.000000    0.000000    0.000000  -93.723453   28.276339   -7.266686  144.460068
  0.028416834    0.000000    0.000000    0.000000    0.000000  -93.466933   28.165674   -7.268697  144.234360
  0.028617234    0.000000    0.000000    0.000000    0.000000  -93.848118   23.296230   -7.269090  143.976410
  0.028817635    0.000000    0.000000    0.000000    0.000000  -93.708507   28.780088   -7.268385  143.732758
  0.029018036    0.000000    0.000000    0.000000    0.000000  -93.946498   27.278179   -7.266283  143.474274
  0.029218437    0.000000    0.000000    0.000000    0.000000  -94.053573   23.421200   -7.268140  143.225937
  0.029418838    0.000000    0.000000    0.000000    0.000000  -94.233146   23.743959   -7.267918  142.982040
  0.029619238    0.000000    0.000000    0.000000    0.000000  -94.454196   25.777138   -7.267082  142.725677
  0.029819639    0.000000    0.000000    0.000000    0.000000  -94.217540   27.145525   -7.268155  142.473831
  0.030020040    0.000000    0.000000    0.000000    0.000000  -94.153120   23.279249   -7.266350  142.229904
  0.030220441    0.000000    0.000000    0.000000    0.000000  -93.721656   23.076616   -7.268250  141.979614
  0.030420842    0.000000    0.000000    0.000000    0.000000  -94.147139   22.359011   -7.268788  141.720261
  0.030621242    0.000000    0.000000    0.000000    0.000000  -93.956847   27.028688   -7.267710  141.479782
  0.030821643    0.000000    0.000000    0.000000    0.000000  -94.468861   25.571707   -7.269207  141.218460
  0.031022044    0.000000    0.000000    0.000000    0.000000  -94.067790   25.819061   -7.268873  140.980194
  0.031222445    0.000000    0.000000    0.000000    0.000000  -94.795083   25.534729   -7.252022  140.806351
  0.031422846    0.000000    0.000000    0.000000    0.000000  -94.727286   19.173326   -7.252628  140.563629
  0.031623246    0.000000    0.000000    0.000000    0.000000  -95.244771   23.560148   -7.254954  140.323807
  0.031823647    0.000000    0.000000    0.000000    0.000000  -95.281449   26.170839   -7.252931  140.064148
  0.032024048    0.000000    0.000000    0.000000    0.000000  -94.895901   23.470543   -7.254362  139.809433
  0.032224449    0.000000    0.000000    0.000000    0.000000  -94.734197   20.787617   -7.255111  139.566376
  0.032424850    0.000000    0.000000    0.000000    0.000000  -95.214699   20.137377   -7.254920  139.325989
  0.032625251    0.000000    0.000000    0.000000    0.000000  -94.758749   20.171532   -7.256145  139.063858
  0.032825651    0.000000    0.000000    0.000000    0.000000  -95.971117   16.658899   -7.256956  138.820389
  0.033026052    0.000000    0.000000    0.000000    0.000000  -95.548947   25.595428   -7.256139  138.564468
  0.033226453    0.000000    0.000000    0.000000    0.000000  -94.957138   24.556404   -7.256810  138.310013
  0.033426854    0.000000    0.000000    0.000000    0.000000  -95.912480   28.046402   -7.256233  138.062408
  0.033627255    0.000000    0.000000    0.000000    0.000000  -96.405619   19.096872   -7.257724  137.820068
  0.033827655    0.000000    0.000000    0.000000    0.000000  -96.383281   20.140110   -7.256483  137.560425
  0.034028056    0.000000    0.000000    0.000000    0.000000  -96.493541   26.599209   -7.255825  137.319748
  0.034228457    0.000000    0.000000    0.000000    0.000000  -96.067157   19.127642   -7.255260  137.088806
  0.034428858    0.000000    0.000000    0.000000    0.000000  -95.559085   28.069231   -7.256622  136.831894
  0.034629259    0.000000    0.000000    0.000000    0.000000  -95.902343   24.988323   -7.257892  136.575302
  0.034829659    0.000000    0.000000    0.000000    0.000000  -95.603575   27.756641   -7.256803  136.327637
  0.035030060    0.000000    0.000000    0.000000    0.000000  -96.140698   25.982714   -7.258213  136.095612
  0.035230461    0.000000    0.000000    0.000000    0.000000  -95.598648   21.942045   -7.257421  135.834534
  0.035430862    0.000000    0.000000    0.000000    0.000000  -96.234827   20.694084   -7.256042  135.597580
  0.035631263    0.000000    0.000000    0.000000    0.000000  -96.390264   18.669157   -7.257089  135.350067
  0.035831663    0.000000    0.000000    0.000000    0.000000  -96.502790   19.835835   -7.255481  135.105652
  0.036032064    0.000000    0.000000    0.000000    0.000000  -96.915231   19.214581   -7.256249  134.860626
  0.036232465    0.000000    0.000000    0.000000    0.000000  -95.674774   19.799879   -7.256254  134.593826
  0.036432866    0.000000    0.000000    0.000000    0.000000  -97.310216   22.777220   -7.254486  134.359482
  0.036633267    0.000000    0.000000    0.000000    0.000000  -96.471910   18.210550   -7.257746  134.127594
  0.036833667    0.000000    0.000000    0.000000    0.000000  -97.481058   24.924767   -7.253721  133.889069
  0.037034068    0.000000    0.000000    0.000000    0.000000  -97.141163   17.260382   -7.255560  133.629852
  0.037234469    0.000000    0.000000    0.000000    0.000000  -96.951301   17.141689   -7.255059  133.394470
  0.037434870    0.000000    0.000000    0.000000    0.000000  -97.555579   25.630239   -7.253577  133.148193
  0.037635271    0.000000    0.000000    0.000000    0.000000  -97.342911   27.264673   -7.253219  132.910934
  0.037835671    0.000000    0.000000    0.000000    0.000000  -97.210905   25.262590   -7.252869  132.657959
  0.038036072    0.000000    0.000000    0.000000    0.000000  -97.901507   22.067966   -7.254025  132.420120
  0.038236473    0.000000    0.000000    0.000000    0.000000  -97.628454   20.488298   -7.252888  132.170273
  0.038436874    0.000000    0.000000    0.000000    0.000000  -97.941176   23.703857   -7.254519  131.923889
  0.038637275    0.000000    0.000000    0.000000    0.000000  -97.328061   17.217388   -7.253033  131.666931
  0.038837675    0.000000    0.000000    0.000000    0.000000  -98.557614   22.660973   -7.252764  131.431198
  0.039038076    0.000000    0.000000    0.000000    0.000000  -98.130121   21.933224   -7.254890  131.191376
  0.039238477    0.000000    0.000000    0.000000    0.000000  -98.934278   37.143734   -7.252344  130.953552
  0.039438878    0.000000    0.000000    0.000000    0.000000  -97.371787   14.652091   -7.254513  130.712997
  0.039639279    0.000000    0.000000    0.000000    0.000000  -98.556611   22.004059   -7.251967  130.466095
  0.039839679    0.000000    0.000000    0.000000    0.000000  -98.013122   30.298162   -7.250329  130.230835
  0.040040080    0.000000    0.000000    0.000000    0.000000  -96.911855   26.372124   -7.253275  129.968918
  0.040240481    0.000000    0.000000    0.000000    0.000000  -97.879554   17.790789   -7.250208  129.722794
  0.040440882    0.000000    0.000000    0.000000    0.000000  -99.292137   27.101450   -7.250069  129.488647
  0.040641283    0.000000    0.000000    0.000000    0.000000  -99.972734   24.339787   -7.249044  129.258209
  0.040841683    0.000000    0.000000    0.000000    0.000000  -97.678960   31.424969   -7.249783  129.004364
  0.041042084    0.000000    0.000000    0.000000    0.000000  -98.585976   24.803350   -7.248891  128.759506
  0.041242485    0.000000    0.000000    0.000000    0.000000  -99.539033   22.983908   -7.250368  128.514969
  0.041442886    0.000000    0.000000    0.000000    0.000000  -99.999040   24.828501   -7.249856  128.272446
  0.041643287    0.000000    0.000000    0.000000    0.000000  -98.747652   27.144569   -7.250061  128.031586
  0.041843687    0.000000    0.000000    0.000000    0.000000  -99.569812   22.199980   -7.247997  127.788261
  0.042044088    0.000000    0.000000    0.000000    0.000000  -99.709387   20.161823   -7.248884  127.550652
  0.042244489    0.000000    0.000000    0.000000    0.000000  -99.037818   31.618151   -7.247959  127.300835
  0.042444890    0.000000    0.000000    0.000000    0.000000  -98.261143   28.496763   -7.246645  127.065491
  0.042645291    0.000000    0.000000    0.000000    0.000000  -98.905577   25.796019   -7.248660  126.817902
  0.042845691    0.000000    0.000000    0.000000    0.000000  -98.554551   28.104734   -7.246014  126.566559
  0.043046092    0.000000    0.000000    0.000000    0.000000  -98.437995   19.693762   -7.247387  126.311455
  0.043246493    0.000000    0.000000    0.000000    0.000000  -99.138866   24.608631   -7.247074  126.056992
  0.043446894    0.000000    0.000000    0.000000    0.000000  -97.601566   29.026480   -7.246857  125.821075
  0.043647295    0.000000    0.000000    0.000000    0.000000  -98.886158   30.452908   -7.248594  125.582588
  0.043847695    0.000000    0.000000    0.000000    0.000000  -98.230851   31.671976   -7.245979  125.326965
  0.044048096    0.000000    0.000000    0.000000    0.000000  -98.364315   32.472958   -7.246188  125.081009
  0.044248497    0.000000    0.000000    0.000000    0.000000  -99.599494   17.565643   -7.247843  124.837608
  0.044448898    0.000000    0.000000    0.000000    0.000000  -98.553544   29.864655   -7.245960  124.592529
  0.044649299    0.000000    0.000000    0.000000    0.000000  -98.867942   38.874645   -7.245472  124.360611
  0.044849699    0.000000    0.000000    0.000000    0.000000  -98.184925   32.130428   -7.247939  124.107529
  0.045050100    0.000000    0.000000    0.000000    0.000000  -99.300470   34.754734   -7.245626  123.855812
  0.045250501    0.000000    0.000000    0.000000    0.000000  -99.402281   26.575504   -7.242915  123.595322
  0.045450902    0.000000    0.000000    0.000000    0.000000  -99.006472   31.383654   -7.244574  123.358978
  0.045651303    0.000000    0.000000    0.000000    0.000000  -99.941009   33.172615   -7.243008  123.105865
  0.045851703    0.000000    0.000000    0.000000    0.000000  -99.628923   34.307533   -7.243005  122.861160
  0.046052104    0.000000    0.000000    0.000000    0.000000  -99.836486   31.877449   -7.246277  122.619530
  0.046252505    0.000000    0.000000    0.000000    0.000000  -99.451586   28.095194   -7.244007  122.367226
  0.046452906    0.000000    0.000000    0.000000    0.000000  -99.982406   31.606218   -7.242592  122.132828
  0.046653307    0.000000    0.000000    0.000000    0.000000  -99.229830   29.165977   -7.243593  121.879356
  0.046853707    0.000000    0.000000    0.000000    0.000000  -97.928126   18.962259   -7.244019  121.633934
  0.047054108    0.000000    0.000000    0.000000    0.000000  -98.046347   26.570658   -7.241682  121.375877
  0.047254509    0.000000    0.000000    0.000000    0.000000  -98.545830   31.821482   -7.240164  121.150711
  0.047454910    0.000000    0.000000    0.000000    0.000000 -100.414103   47.082424   -7.239332  120.890923
  0.047655311    0.000000    0.000000    0.000000    0.000000 -100.806655   36.798462   -7.240764  120.643326
  0.047855711    0.000000    0.000000    0.000000    0.000000 -100.323814   37.228573   -7.239618  120.397781
  0.048056112    0.000000    0.000000    0.000000    0.000000 -100.139758   36.159264   -7.239728  120.159859
  0.048256513    0.000000    0.000000    0.000000    0.000000  -99.739874   37.012268   -7.240242  119.922211
  0.048456914    0.000000    0.000000    0.000000    0.000000  -98.830185   38.774136   -7.238105  119.659966
  0.048657315    0.000000    0.000000    0.000000    0.000000  -98.633400   30.569450   -7.237271  119.432281
  0.048857715    0.000000    0.000000    0.000000    0.000000  -99.902081   33.656174   -7.237514  119.170296
  0.049058116    0.000000    0.000000    0.000000    0.000000  -99.278181   34.433414   -7.235298  118.924866
  0.049258517    0.000000    0.000000    0.000000    0.000000  -99.532958   28.894489   -7.235788  118.704620
  0.049458918    0.000000    0.000000    0.000000    0.000000  -99.503562   33.589752   -7.235597  118.451805
  0.049659319    0.000000    0.000000    0.000000    0.000000 -100.755824   42.141880   -7.236078  118.184471
  0.049859719    0.000000    0.000000    0.000000    0.000000  -99.704732   43.853867   -7.233829  117.954620
  0.050060120    0.000000    0.000000    0.000000    0.000000 -100.108006   27.424196   -7.234843  117.716736
  0.050260521    0.000000    0.000000    0.000000    0.000000 -100.168263   32.410469   -7.234287  117.467697
  0.050460922    0.000000    0.000000    0.000000    0.000000 -101.511290   35.062740   -7.234518  117.226357
  0.050661323    0.000000    0.000000    0.000000    0.000000 -100.012166   38.993172   -7.231152  116.964302
  0.050861723    0.000000    0.000000    0.000000    0.000000  -99.074275   28.901318   -7.231207  116.716743
  0.051062124    0.000000    0.000000    0.000000    0.000000  -99.005034   41.048225   -7.232938  116.495689
  0.051262525    0.000000    0.000000    0.000000    0.000000  -98.596569   33.929588   -7.231319  116.258354
  0.051462926    0.000000    0.000000    0.000000    0.000000  -99.877173   29.303434   -7.229943  115.995979
  0.051663327    0.000000    0.000000    0.000000    0.000000  -99.544733   28.898821   -7.229535  115.753143
  0.051863727    0.000000    0.000000    0.000000    0.000000  -99.529226   42.155071   -7.228130  115.506378
  0.052064128    0.000000    0.000000    0.000000    0.000000  -98.657211   33.832821   -7.227845  115.281883
  0.052264529    0.000000    0.000000    0.000000    0.000000 -100.286834   33.985840   -7.229293  115.037285
  0.052464930    0.000000    0.000000    0.000000    0.000000  -99.237752   40.007687   -7.227552  114.788162
  0.052665331    0.000000    0.000000    0.000000    0.000000  -99.497527   35.479088   -7.228208  114.545555
  0.052865731    0.000000    0.000000    0.000000    0.000000  -98.563007   40.168705   -7.226772  114.300186
