! Anritsu VNA Master:                     Model: MS2036C/10/77
! SN:                                  1601066
! /bd0/18may12.cable.cal/top.50.s2p
! Existing Calibration Information:
! TYPE:                         Current Settings,       Active Cal Settings
! TIME:             	   05/12/2018 01:31:31 PM,    05/12/2018 01:24:18 PM
! INTERNAL TEMP:    	                   49.3 C,                    49.3 C
! # POINTS:         	                      500,                       500
! START FREQ:       	               20.000 MHz,                20.000 MHz
! STOP FREQ:        	              120.000 MHz,               120.000 MHz
! SOURCE POWER:     	                     High,                      High
! IFBW:             	                    50 Hz,                     50 Hz
! AVG FACTOR:       	                       1 ,                        1 
! REF PLANE 1:      	                     0 mm,                      0 mm
! REF PLANE 2:      	                     0 mm,                      0 mm
! CAL TYPE:         	                 Full S22,                  Full S22
! CAL METHOD:       	                     SOLT,                      SOLT
! CAL LINE TYPE:    	                     Coax,                      Coax
! DUT PORT 1:       	                K-Conn(M),                 K-Conn(M)
! DUT PORT 2:       	                K-Conn(M),                 K-Conn(M)
! CAL STATUS:       	        OK: Accuracy High,                        --
# GHZ S DB R 50.0
! FREQ.GHZ       S11DB        S11A       S21DB        S21A       S12DB        S12A       S22DB        S22A
  0.020000000    0.000000    0.000000    0.000000    0.000000  -89.900107   43.981030  -39.153841   48.521080
  0.020200401    0.000000    0.000000    0.000000    0.000000  -89.780557   42.757973  -39.157305   48.404572
  0.020400802    0.000000    0.000000    0.000000    0.000000  -89.976216   39.641315  -39.010733   48.702076
  0.020601202    0.000000    0.000000    0.000000    0.000000  -90.429228   42.391754  -39.025431   48.853344
  0.020801603    0.000000    0.000000    0.000000    0.000000  -89.624762   38.555202  -38.885138   48.614010
  0.021002004    0.000000    0.000000    0.000000    0.000000  -90.347283   39.967144  -38.961503   48.342354
  0.021202405    0.000000    0.000000    0.000000    0.000000  -90.116225   40.945641  -38.847141   48.228367
  0.021402806    0.000000    0.000000    0.000000    0.000000  -90.852169   36.351089  -38.763108   48.279602
  0.021603206    0.000000    0.000000    0.000000    0.000000  -90.516648   39.978355  -38.712548   48.339451
  0.021803607    0.000000    0.000000    0.000000    0.000000  -90.818316   39.420181  -38.669329   47.794941
  0.022004008    0.000000    0.000000    0.000000    0.000000  -91.006626   40.127068  -38.667478   48.185177
  0.022204409    0.000000    0.000000    0.000000    0.000000  -90.858845   35.277283  -38.529950   48.253220
  0.022404810    0.000000    0.000000    0.000000    0.000000  -91.178266   38.628895  -38.491804   48.020081
  0.022605210    0.000000    0.000000    0.000000    0.000000  -91.284208   37.039875  -38.485373   47.720692
  0.022805611    0.000000    0.000000    0.000000    0.000000  -91.164507   36.045498  -38.355009   47.489151
  0.023006012    0.000000    0.000000    0.000000    0.000000  -91.701700   37.953171  -38.318216   47.712803
  0.023206413    0.000000    0.000000    0.000000    0.000000  -91.354766   35.464291  -38.296784   47.456909
  0.023406814    0.000000    0.000000    0.000000    0.000000  -91.543069   32.691746  -38.187464   47.441502
  0.023607214    0.000000    0.000000    0.000000    0.000000  -91.553017   33.782726  -38.186746   47.588978
  0.023807615    0.000000    0.000000    0.000000    0.000000  -91.987277   37.687965  -38.135158   47.168106
  0.024008016    0.000000    0.000000    0.000000    0.000000  -91.521212   36.620140  -38.103426   47.348228
  0.024208417    0.000000    0.000000    0.000000    0.000000  -92.292617   32.719421  -38.063409   47.325485
  0.024408818    0.000000    0.000000    0.000000    0.000000  -92.211394   31.195393  -38.005594   47.216331
  0.024609218    0.000000    0.000000    0.000000    0.000000  -92.463549   27.751650  -37.906864   47.399311
  0.024809619    0.000000    0.000000    0.000000    0.000000  -92.518492   36.053169  -37.880598   47.052097
  0.025010020    0.000000    0.000000    0.000000    0.000000  -92.515311   30.494568  -37.836184   46.622402
  0.025210421    0.000000    0.000000    0.000000    0.000000  -92.688214   30.916584  -37.783957   47.501434
  0.025410822    0.000000    0.000000    0.000000    0.000000  -93.183447   35.940025  -37.758219   46.470047
  0.025611222    0.000000    0.000000    0.000000    0.000000  -92.843509   34.108437  -37.694440   46.541187
  0.025811623    0.000000    0.000000    0.000000    0.000000  -93.478844   32.240131  -37.631387   47.009125
  0.026012024    0.000000    0.000000    0.000000    0.000000  -92.461598   31.274025  -37.588251   46.739315
  0.026212425    0.000000    0.000000    0.000000    0.000000  -93.813581   34.439445  -37.500987   46.550056
  0.026412826    0.000000    0.000000    0.000000    0.000000  -93.138397   32.723507  -37.491890   46.107803
  0.026613226    0.000000    0.000000    0.000000    0.000000  -93.026452   31.139950  -37.441751   45.940216
  0.026813627    0.000000    0.000000    0.000000    0.000000  -93.499011   27.663988  -37.359156   46.428246
  0.027014028    0.000000    0.000000    0.000000    0.000000  -93.054708   35.402950  -37.358553   46.134453
  0.027214429    0.000000    0.000000    0.000000    0.000000  -93.314740   28.704620  -37.271466   45.573421
  0.027414830    0.000000    0.000000    0.000000    0.000000  -93.913491   30.445292  -37.272528   46.260391
  0.027615230    0.000000    0.000000    0.000000    0.000000  -93.940386   24.537483  -37.222390   45.871716
  0.027815631    0.000000    0.000000    0.000000    0.000000  -93.706537   31.251041  -37.130151   45.968437
  0.028016032    0.000000    0.000000    0.000000    0.000000  -94.307792   26.119501  -37.145634   45.969200
  0.028216433    0.000000    0.000000    0.000000    0.000000  -94.370427   34.038898  -37.093094   45.927315
  0.028416834    0.000000    0.000000    0.000000    0.000000  -93.842661   29.962971  -37.110128   45.717705
  0.028617234    0.000000    0.000000    0.000000    0.000000  -94.239790   31.630108  -37.012622   45.550438
  0.028817635    0.000000    0.000000    0.000000    0.000000  -94.219843   32.177898  -36.961675   45.689976
  0.029018036    0.000000    0.000000    0.000000    0.000000  -94.507826   26.428543  -36.912982   45.102795
  0.029218437    0.000000    0.000000    0.000000    0.000000  -94.174202   23.517879  -36.897548   45.195019
  0.029418838    0.000000    0.000000    0.000000    0.000000  -94.407108   29.407097  -36.827610   45.272469
  0.029619238    0.000000    0.000000    0.000000    0.000000  -94.478011   30.662273  -36.771960   44.981281
  0.029819639    0.000000    0.000000    0.000000    0.000000  -94.638632   23.319332  -36.750973   44.936172
  0.030020040    0.000000    0.000000    0.000000    0.000000  -94.593820   25.422668  -36.682474   45.234215
  0.030220441    0.000000    0.000000    0.000000    0.000000  -94.604621   27.934401  -36.688134   44.844219
  0.030420842    0.000000    0.000000    0.000000    0.000000  -96.207970   30.883871  -36.625593   44.954395
  0.030621242    0.000000    0.000000    0.000000    0.000000  -95.363707   25.328373  -36.581771   44.533138
  0.030821643    0.000000    0.000000    0.000000    0.000000  -95.044728   30.974447  -36.501128   44.081100
  0.031022044    0.000000    0.000000    0.000000    0.000000  -94.946217   24.875368  -36.490039   44.285412
  0.031222445    0.000000    0.000000    0.000000    0.000000  -95.183966   24.339458  -36.382725   44.107704
  0.031422846    0.000000    0.000000    0.000000    0.000000  -94.792216   25.351101  -36.393161   44.406490
  0.031623246    0.000000    0.000000    0.000000    0.000000  -94.909819   26.254717  -36.384089   44.271366
  0.031823647    0.000000    0.000000    0.000000    0.000000  -95.148632   21.913033  -36.348686   44.177727
  0.032024048    0.000000    0.000000    0.000000    0.000000  -94.972230   19.927288  -36.281897   43.883217
  0.032224449    0.000000    0.000000    0.000000    0.000000  -95.025509   22.684893  -36.286225   43.805504
  0.032424850    0.000000    0.000000    0.000000    0.000000  -95.013643   23.473246  -36.199165   44.173450
  0.032625251    0.000000    0.000000    0.000000    0.000000  -94.526523   23.700628  -36.170788   43.806934
  0.032825651    0.000000    0.000000    0.000000    0.000000  -94.894220   20.390100  -36.137490   43.968395
  0.033026052    0.000000    0.000000    0.000000    0.000000  -95.472081   25.429743  -36.061313   43.634933
  0.033226453    0.000000    0.000000    0.000000    0.000000  -95.874701   19.191704  -36.069245   43.048256
  0.033426854    0.000000    0.000000    0.000000    0.000000  -94.621830   19.287687  -36.059724   43.274960
  0.033627255    0.000000    0.000000    0.000000    0.000000  -95.394809   28.358894  -35.985951   43.226231
  0.033827655    0.000000    0.000000    0.000000    0.000000  -95.325742   27.277782  -35.904414   43.239773
  0.034028056    0.000000    0.000000    0.000000    0.000000  -95.699697   29.016712  -35.922890   42.617905
  0.034228457    0.000000    0.000000    0.000000    0.000000  -96.639534   31.223360  -35.848659   43.154530
  0.034428858    0.000000    0.000000    0.000000    0.000000  -95.642277   25.247061  -35.838876   42.991150
  0.034629259    0.000000    0.000000    0.000000    0.000000  -95.737919   19.134308  -35.790641   42.364681
  0.034829659    0.000000    0.000000    0.000000    0.000000  -96.910846   22.597216  -35.755368   42.406467
  0.035030060    0.000000    0.000000    0.000000    0.000000  -96.990860   21.600773  -35.777871   42.478302
  0.035230461    0.000000    0.000000    0.000000    0.000000  -96.182529   24.655407  -35.664135   42.332645
  0.035430862    0.000000    0.000000    0.000000    0.000000  -95.719764   20.873791  -35.701247   42.344460
  0.035631263    0.000000    0.000000    0.000000    0.000000  -97.369738   20.633247  -35.597122   42.346077
  0.035831663    0.000000    0.000000    0.000000    0.000000  -96.564812   28.320183  -35.640711   42.232040
  0.036032064    0.000000    0.000000    0.000000    0.000000  -96.216643   23.788244  -35.582270   42.107677
  0.036232465    0.000000    0.000000    0.000000    0.000000  -96.767070   30.742945  -35.516059   42.463440
  0.036432866    0.000000    0.000000    0.000000    0.000000  -97.212521   20.189741  -35.501411   41.896431
  0.036633267    0.000000    0.000000    0.000000    0.000000  -98.051161   21.806129  -35.433769   41.761745
  0.036833667    0.000000    0.000000    0.000000    0.000000  -95.835270   18.705532  -35.409908   42.072247
  0.037034068    0.000000    0.000000    0.000000    0.000000  -96.565404   20.555992  -35.380507   41.673794
  0.037234469    0.000000    0.000000    0.000000    0.000000  -97.427988   26.296776  -35.308723   41.805714
  0.037434870    0.000000    0.000000    0.000000    0.000000  -97.109228   23.133032  -35.323746   41.520420
  0.037635271    0.000000    0.000000    0.000000    0.000000  -97.213864   20.397120  -35.264634   41.003628
  0.037835671    0.000000    0.000000    0.000000    0.000000  -96.863864   21.263472  -35.196834   41.252213
  0.038036072    0.000000    0.000000    0.000000    0.000000  -97.580892   22.783062  -35.236081   41.053371
  0.038236473    0.000000    0.000000    0.000000    0.000000  -98.145980   19.282185  -35.177097   41.191990
  0.038436874    0.000000    0.000000    0.000000    0.000000  -98.383697   35.818707  -35.181605   41.197468
  0.038637275    0.000000    0.000000    0.000000    0.000000  -97.012682   20.951595  -35.059445   40.921852
  0.038837675    0.000000    0.000000    0.000000    0.000000  -98.203657   23.020452  -35.069208   40.813183
  0.039038076    0.000000    0.000000    0.000000    0.000000  -98.519325   34.364742  -35.070739   40.649139
  0.039238477    0.000000    0.000000    0.000000    0.000000  -97.294798   31.769253  -35.029435   40.447182
  0.039438878    0.000000    0.000000    0.000000    0.000000  -97.660283   20.240276  -35.022828   40.441025
  0.039639279    0.000000    0.000000    0.000000    0.000000  -98.965953   21.375561  -34.965710   40.424988
  0.039839679    0.000000    0.000000    0.000000    0.000000  -97.713240   26.279314  -34.971380   40.343849
  0.040040080    0.000000    0.000000    0.000000    0.000000  -97.566922   25.017914  -34.919027   40.203163
  0.040240481    0.000000    0.000000    0.000000    0.000000  -98.344951   20.021015  -34.897512   39.981163
  0.040440882    0.000000    0.000000    0.000000    0.000000  -97.827667   29.483648  -34.911546   40.109753
  0.040641283    0.000000    0.000000    0.000000    0.000000  -98.795201   19.652643  -34.787981   40.017212
  0.040841683    0.000000    0.000000    0.000000    0.000000  -98.842133   33.595730  -34.728949   40.110226
  0.041042084    0.000000    0.000000    0.000000    0.000000  -97.053975   27.717922  -34.727603   39.500404
  0.041242485    0.000000    0.000000    0.000000    0.000000  -97.847519   24.706394  -34.713097   39.209702
  0.041442886    0.000000    0.000000    0.000000    0.000000  -99.387101   35.202854  -34.678190   39.540298
  0.041643287    0.000000    0.000000    0.000000    0.000000  -98.886885   30.987883  -34.691618   39.467548
  0.041843687    0.000000    0.000000    0.000000    0.000000  -98.884946   30.843166  -34.637098   39.225616
  0.042044088    0.000000    0.000000    0.000000    0.000000  -98.935758   31.603073  -34.637642   39.127289
  0.042244489    0.000000    0.000000    0.000000    0.000000  -98.475419   28.944763  -34.563278   39.334961
  0.042444890    0.000000    0.000000    0.000000    0.000000  -98.901061   26.900703  -34.554646   39.165054
  0.042645291    0.000000    0.000000    0.000000    0.000000  -98.295616   24.798168  -34.513237   39.044559
  0.042845691    0.000000    0.000000    0.000000    0.000000  -99.667160   29.336281  -34.499626   38.759327
  0.043046092    0.000000    0.000000    0.000000    0.000000  -98.618041   22.235676  -34.440244   38.857018
  0.043246493    0.000000    0.000000    0.000000    0.000000  -98.980005   29.596886  -34.391272   38.483509
  0.043446894    0.000000    0.000000    0.000000    0.000000  -98.298723   35.134026  -34.368824   38.167221
  0.043647295    0.000000    0.000000    0.000000    0.000000  -97.975302   38.085983  -34.357624   38.111500
  0.043847695    0.000000    0.000000    0.000000    0.000000  -99.086280   31.149616  -34.326850   38.204987
  0.044048096    0.000000    0.000000    0.000000    0.000000  -99.446397   32.566650  -34.295209   38.273178
  0.044248497    0.000000    0.000000    0.000000    0.000000  -97.327504   29.893471  -34.264265   38.007317
  0.044448898    0.000000    0.000000    0.000000    0.000000  -98.917015   38.089733  -34.322915   38.000893
  0.044649299    0.000000    0.000000    0.000000    0.000000  -97.873379   24.462729  -34.247223   37.539700
  0.044849699    0.000000    0.000000    0.000000    0.000000  -98.041074   29.765776  -34.249920   37.574249
  0.045050100    0.000000    0.000000    0.000000    0.000000  -99.558763   33.356361  -34.237080   37.211395
  0.045250501    0.000000    0.000000    0.000000    0.000000  -99.294089   28.744360  -34.142095   37.729210
  0.045450902    0.000000    0.000000    0.000000    0.000000  -99.534536   39.029171  -34.130573   37.703991
  0.045651303    0.000000    0.000000    0.000000    0.000000  -99.077939   34.704121  -34.104671   37.332428
  0.045851703    0.000000    0.000000    0.000000    0.000000  -99.430421   31.460052  -34.120895   37.006870
  0.046052104    0.000000    0.000000    0.000000    0.000000  -97.817135   19.937748  -34.084169   37.022182
  0.046252505    0.000000    0.000000    0.000000    0.000000  -99.003683   27.562517  -34.038800   36.805691
  0.046452906    0.000000    0.000000    0.000000    0.000000  -98.567121   25.472567  -34.079615   36.803474
  0.046653307    0.000000    0.000000    0.000000    0.000000  -98.094254   36.446877  -33.998567   36.643597
  0.046853707    0.000000    0.000000    0.000000    0.000000  -99.701440   27.145308  -33.985052   36.468559
  0.047054108    0.000000    0.000000    0.000000    0.000000  -99.482620   31.467266  -33.970044   36.645824
  0.047254509    0.000000    0.000000    0.000000    0.000000 -100.840236   35.104599  -33.952329   36.368343
  0.047454910    0.000000    0.000000    0.000000    0.000000  -99.185048   30.448700  -33.889947   36.484104
  0.047655311    0.000000    0.000000    0.000000    0.000000  -99.178996   27.492531  -33.880308   36.331581
  0.047855711    0.000000    0.000000    0.000000    0.000000 -100.293462   37.220665  -33.868726   36.117378
  0.048056112    0.000000    0.000000    0.000000    0.000000 -100.116929   34.559746  -33.825502   35.905949
  0.048256513    0.000000    0.000000    0.000000    0.000000  -98.409715   33.391850  -33.849265   35.802597
  0.048456914    0.000000    0.000000    0.000000    0.000000  -98.968662   30.225218  -33.814313   35.737164
  0.048657315    0.000000    0.000000    0.000000    0.000000  -98.058962   36.914753  -33.780500   35.710480
  0.048857715    0.000000    0.000000    0.000000    0.000000  -98.072210   32.349072  -33.715227   35.562778
  0.049058116    0.000000    0.000000    0.000000    0.000000  -98.865768   18.790628  -33.722454   35.106174
  0.049258517    0.000000    0.000000    0.000000    0.000000  -99.628006   35.679344  -33.698106   35.313053
  0.049458918    0.000000    0.000000    0.000000    0.000000  -99.740085   25.511133  -33.662465   35.615894
  0.049659319    0.000000    0.000000    0.000000    0.000000  -99.513646   30.126478  -33.644289   34.994076
  0.049859719    0.000000    0.000000    0.000000    0.000000  -99.640112   33.686745  -33.611575   35.050804
  0.050060120    0.000000    0.000000    0.000000    0.000000  -99.595557   30.927996  -33.621506   35.000420
  0.050260521    0.000000    0.000000    0.000000    0.000000 -100.327102   29.296078  -33.585791   34.635727
  0.050460922    0.000000    0.000000    0.000000    0.000000  -98.965308   38.342945  -33.541015   34.413647
  0.050661323    0.000000    0.000000    0.000000    0.000000  -98.451104   34.420040  -33.574449   34.666500
  0.050861723    0.000000    0.000000    0.000000    0.000000  -99.536868   32.750835  -33.519672   34.356857
  0.051062124    0.000000    0.000000    0.000000    0.000000  -99.666180   32.037861  -33.513754   34.310463
  0.051262525    0.000000    0.000000    0.000000    0.000000  -99.851531   29.667559  -33.429415   33.937378
  0.051462926    0.000000    0.000000    0.000000    0.000000 -100.568167   37.142933  -33.485976   34.251503
  0.051663327    0.000000    0.000000    0.000000    0.000000  -98.743903   29.874104  -33.418049   33.952023
  0.051863727    0.000000    0.000000    0.000000    0.000000  -98.915860   36.633511  -33.382190   33.957844
  0.052064128    0.000000    0.000000    0.000000    0.000000  -98.269578   35.245995  -33.368989   33.830120
  0.052264529    0.000000    0.000000    0.000000    0.000000  -98.163912   31.416815  -33.346112   33.305580
  0.052464930    0.000000    0.000000    0.000000    0.000000  -99.529745   37.697269  -33.344429   33.260384
  0.052665331    0.000000    0.000000    0.000000    0.000000  -99.274894   27.971239  -33.305230   33.179974
  0.052865731    0.000000    0.000000    0.000000    0.000000  -99.924891   29.979841  -33.313318   33.199657
