! Anritsu VNA Master:                     Model: MS2036C/10/77
! SN:                                  1601066
! /bd0/18may12.cable.cal/top.20.s2p
! Existing Calibration Information:
! TYPE:                         Current Settings,       Active Cal Settings
! TIME:             	   05/12/2018 01:28:57 PM,    05/12/2018 01:24:18 PM
! INTERNAL TEMP:    	                   49.3 C,                    49.3 C
! # POINTS:         	                      500,                       500
! START FREQ:       	               20.000 MHz,                20.000 MHz
! STOP FREQ:        	              120.000 MHz,               120.000 MHz
! SOURCE POWER:     	                     High,                      High
! IFBW:             	                    50 Hz,                     50 Hz
! AVG FACTOR:       	                       1 ,                        1 
! REF PLANE 1:      	                     0 mm,                      0 mm
! REF PLANE 2:      	                     0 mm,                      0 mm
! CAL TYPE:         	                 Full S22,                  Full S22
! CAL METHOD:       	                     SOLT,                      SOLT
! CAL LINE TYPE:    	                     Coax,                      Coax
! DUT PORT 1:       	                K-Conn(M),                 K-Conn(M)
! DUT PORT 2:       	                K-Conn(M),                 K-Conn(M)
! CAL STATUS:       	        OK: Accuracy High,                        --
# GHZ S DB R 50.0
! FREQ.GHZ       S11DB        S11A       S21DB        S21A       S12DB        S12A       S22DB        S22A
  0.020000000    0.000000    0.000000    0.000000    0.000000  -89.256823   43.648407   -7.268406  154.582153
  0.020200401    0.000000    0.000000    0.000000    0.000000  -89.515615   43.606674   -7.269981  154.350067
  0.020400802    0.000000    0.000000    0.000000    0.000000  -89.481490   46.159698   -7.269812  154.095810
  0.020601202    0.000000    0.000000    0.000000    0.000000  -89.641723   40.875362   -7.266805  153.851974
  0.020801603    0.000000    0.000000    0.000000    0.000000  -90.041506   45.289902   -7.268923  153.588074
  0.021002004    0.000000    0.000000    0.000000    0.000000  -89.452889   43.682278   -7.270910  153.353333
  0.021202405    0.000000    0.000000    0.000000    0.000000  -89.818057   45.176147   -7.270760  153.098160
  0.021402806    0.000000    0.000000    0.000000    0.000000  -90.195810   40.634296   -7.270789  152.861725
  0.021603206    0.000000    0.000000    0.000000    0.000000  -90.893820   42.414234   -7.270489  152.599670
  0.021803607    0.000000    0.000000    0.000000    0.000000  -90.263206   42.178211   -7.272170  152.356033
  0.022004008    0.000000    0.000000    0.000000    0.000000  -90.779929   41.636486   -7.272268  152.118027
  0.022204409    0.000000    0.000000    0.000000    0.000000  -90.213099   40.390892   -7.273502  151.843964
  0.022404810    0.000000    0.000000    0.000000    0.000000  -90.458399   39.994514   -7.271868  151.611542
  0.022605210    0.000000    0.000000    0.000000    0.000000  -91.025140   37.842995   -7.272575  151.354004
  0.022805611    0.000000    0.000000    0.000000    0.000000  -91.282243   38.751610   -7.274107  151.114380
  0.023006012    0.000000    0.000000    0.000000    0.000000  -90.738270   37.735104   -7.275827  150.865128
  0.023206413    0.000000    0.000000    0.000000    0.000000  -91.367725   36.787945   -7.273932  150.627960
  0.023406814    0.000000    0.000000    0.000000    0.000000  -91.429378   40.850929   -7.274915  150.353973
  0.023607214    0.000000    0.000000    0.000000    0.000000  -91.261641   38.394516   -7.276098  150.120132
  0.023807615    0.000000    0.000000    0.000000    0.000000  -91.487369   38.013653   -7.277108  149.871597
  0.024008016    0.000000    0.000000    0.000000    0.000000  -91.361625   36.647915   -7.276558  149.630905
  0.024208417    0.000000    0.000000    0.000000    0.000000  -91.498525   35.405552   -7.276928  149.379578
  0.024408818    0.000000    0.000000    0.000000    0.000000  -91.208555   35.944134   -7.275996  149.127335
  0.024609218    0.000000    0.000000    0.000000    0.000000  -91.640146   33.104160   -7.278804  148.885544
  0.024809619    0.000000    0.000000    0.000000    0.000000  -91.703492   29.034389   -7.279806  148.638474
  0.025010020    0.000000    0.000000    0.000000    0.000000  -91.904170   34.570324   -7.281816  148.386429
  0.025210421    0.000000    0.000000    0.000000    0.000000  -92.539471   35.368923   -7.279901  148.137833
  0.025410822    0.000000    0.000000    0.000000    0.000000  -91.664630   34.192837   -7.283865  147.882309
  0.025611222    0.000000    0.000000    0.000000    0.000000  -91.813123   32.565468   -7.283482  147.633362
  0.025811623    0.000000    0.000000    0.000000    0.000000  -92.749116   30.121418   -7.284328  147.384064
  0.026012024    0.000000    0.000000    0.000000    0.000000  -92.101775   34.048264   -7.283957  147.142517
  0.026212425    0.000000    0.000000    0.000000    0.000000  -92.890162   32.043556   -7.284767  146.898743
  0.026412826    0.000000    0.000000    0.000000    0.000000  -92.888555   30.880514   -7.284916  146.637115
  0.026613226    0.000000    0.000000    0.000000    0.000000  -92.906590   29.587355   -7.285157  146.380341
  0.026813627    0.000000    0.000000    0.000000    0.000000  -92.905694   30.441822   -7.284822  146.134583
  0.027014028    0.000000    0.000000    0.000000    0.000000  -93.360849   28.166410   -7.286157  145.895081
  0.027214429    0.000000    0.000000    0.000000    0.000000  -92.846470   29.842405   -7.287259  145.638062
  0.027414830    0.000000    0.000000    0.000000    0.000000  -93.142985   28.136045   -7.287664  145.390915
  0.027615230    0.000000    0.000000    0.000000    0.000000  -93.578538   28.797935   -7.287362  145.145798
  0.027815631    0.000000    0.000000    0.000000    0.000000  -93.652419   26.704721   -7.286812  144.886017
  0.028016032    0.000000    0.000000    0.000000    0.000000  -92.813588   26.920845   -7.287700  144.639694
  0.028216433    0.000000    0.000000    0.000000    0.000000  -94.208117   29.780895   -7.289233  144.390503
  0.028416834    0.000000    0.000000    0.000000    0.000000  -93.870100   25.401890   -7.290487  144.147644
  0.028617234    0.000000    0.000000    0.000000    0.000000  -93.462639   28.264154   -7.290481  143.898560
  0.028817635    0.000000    0.000000    0.000000    0.000000  -93.796180   28.380640   -7.289019  143.658707
  0.029018036    0.000000    0.000000    0.000000    0.000000  -93.518073   28.039400   -7.289715  143.403000
  0.029218437    0.000000    0.000000    0.000000    0.000000  -93.693693   23.650635   -7.290666  143.156097
  0.029418838    0.000000    0.000000    0.000000    0.000000  -94.185733   29.387688   -7.290665  142.900269
  0.029619238    0.000000    0.000000    0.000000    0.000000  -94.042145   25.962420   -7.289859  142.655807
  0.029819639    0.000000    0.000000    0.000000    0.000000  -93.805096   25.129740   -7.289062  142.408707
  0.030020040    0.000000    0.000000    0.000000    0.000000  -93.791454   23.511204   -7.289312  142.151611
  0.030220441    0.000000    0.000000    0.000000    0.000000  -94.470605   19.710960   -7.290235  141.898193
  0.030420842    0.000000    0.000000    0.000000    0.000000  -94.321253   25.387909   -7.289511  141.647354
  0.030621242    0.000000    0.000000    0.000000    0.000000  -94.818929   24.372833   -7.290183  141.408203
  0.030821643    0.000000    0.000000    0.000000    0.000000  -95.268922   19.550318   -7.291357  141.145630
  0.031022044    0.000000    0.000000    0.000000    0.000000  -94.670164   29.470333   -7.290491  140.889359
  0.031222445    0.000000    0.000000    0.000000    0.000000  -94.851904   23.653858   -7.274381  140.730484
  0.031422846    0.000000    0.000000    0.000000    0.000000  -94.217876   23.454792   -7.273193  140.481689
  0.031623246    0.000000    0.000000    0.000000    0.000000  -94.582642   21.388639   -7.274240  140.233582
  0.031823647    0.000000    0.000000    0.000000    0.000000  -94.678722   17.797144   -7.274590  139.984924
  0.032024048    0.000000    0.000000    0.000000    0.000000  -94.576154   17.558704   -7.276851  139.740097
  0.032224449    0.000000    0.000000    0.000000    0.000000  -94.903254   23.152752   -7.274900  139.485077
  0.032424850    0.000000    0.000000    0.000000    0.000000  -95.629910   23.149940   -7.277165  139.236145
  0.032625251    0.000000    0.000000    0.000000    0.000000  -95.526705   20.467890   -7.279418  138.987640
  0.032825651    0.000000    0.000000    0.000000    0.000000  -96.116775   24.893923   -7.275953  138.746857
  0.033026052    0.000000    0.000000    0.000000    0.000000  -94.611862   17.138834   -7.277720  138.468079
  0.033226453    0.000000    0.000000    0.000000    0.000000  -95.026329   18.643105   -7.278337  138.235291
  0.033426854    0.000000    0.000000    0.000000    0.000000  -96.400302   17.161816   -7.278098  137.982819
  0.033627255    0.000000    0.000000    0.000000    0.000000  -95.710880   21.777157   -7.278826  137.734467
  0.033827655    0.000000    0.000000    0.000000    0.000000  -95.676146   18.073610   -7.277864  137.471970
  0.034028056    0.000000    0.000000    0.000000    0.000000  -95.241283   16.879154   -7.280540  137.243576
  0.034228457    0.000000    0.000000    0.000000    0.000000  -95.443297   25.225164   -7.277576  136.975571
  0.034428858    0.000000    0.000000    0.000000    0.000000  -96.046776   24.158175   -7.278021  136.743759
  0.034629259    0.000000    0.000000    0.000000    0.000000  -96.146544   19.182695   -7.279251  136.485855
  0.034829659    0.000000    0.000000    0.000000    0.000000  -95.614624   22.718510   -7.280754  136.233856
  0.035030060    0.000000    0.000000    0.000000    0.000000  -95.777642   22.885361   -7.276779  135.997559
  0.035230461    0.000000    0.000000    0.000000    0.000000  -96.093606   24.673262   -7.279676  135.745438
  0.035430862    0.000000    0.000000    0.000000    0.000000  -95.526422   24.076090   -7.277958  135.494095
  0.035631263    0.000000    0.000000    0.000000    0.000000  -97.030175   19.595953   -7.278197  135.252121
  0.035831663    0.000000    0.000000    0.000000    0.000000  -96.468387   24.764635   -7.277685  135.013107
  0.036032064    0.000000    0.000000    0.000000    0.000000  -97.157328   25.566168   -7.279398  134.760971
  0.036232465    0.000000    0.000000    0.000000    0.000000  -96.983916   22.106691   -7.276699  134.520386
  0.036432866    0.000000    0.000000    0.000000    0.000000  -96.350759   14.343060   -7.278112  134.253387
  0.036633267    0.000000    0.000000    0.000000    0.000000  -96.678077   24.770716   -7.277091  134.018600
  0.036833667    0.000000    0.000000    0.000000    0.000000  -97.154540   24.212420   -7.276169  133.775513
  0.037034068    0.000000    0.000000    0.000000    0.000000  -96.611489   20.221106   -7.275191  133.543503
  0.037234469    0.000000    0.000000    0.000000    0.000000  -96.478971   19.560863   -7.276618  133.287903
  0.037434870    0.000000    0.000000    0.000000    0.000000  -96.255724   22.149031   -7.275737  133.044998
  0.037635271    0.000000    0.000000    0.000000    0.000000  -97.768356   27.731527   -7.276801  132.799469
  0.037835671    0.000000    0.000000    0.000000    0.000000  -97.007259   20.292587   -7.274457  132.548035
  0.038036072    0.000000    0.000000    0.000000    0.000000  -98.546290   25.868237   -7.278585  132.312943
  0.038236473    0.000000    0.000000    0.000000    0.000000  -97.107713   24.115223   -7.275141  132.066101
  0.038436874    0.000000    0.000000    0.000000    0.000000  -97.800496   18.555670   -7.274728  131.813400
  0.038637275    0.000000    0.000000    0.000000    0.000000  -98.881147   21.061234   -7.274178  131.551895
  0.038837675    0.000000    0.000000    0.000000    0.000000  -97.856650   21.676176   -7.274668  131.320786
  0.039038076    0.000000    0.000000    0.000000    0.000000  -98.375030   21.771717   -7.272635  131.081894
  0.039238477    0.000000    0.000000    0.000000    0.000000  -98.555962   28.658064   -7.273892  130.839325
  0.039438878    0.000000    0.000000    0.000000    0.000000  -98.337949   29.678217   -7.274211  130.599030
  0.039639279    0.000000    0.000000    0.000000    0.000000  -98.220348   24.059214   -7.272259  130.354355
  0.039839679    0.000000    0.000000    0.000000    0.000000  -99.084040   19.409765   -7.272466  130.111740
  0.040040080    0.000000    0.000000    0.000000    0.000000  -97.256068   23.178398   -7.271394  129.865005
  0.040240481    0.000000    0.000000    0.000000    0.000000  -98.349672   29.711794   -7.272655  129.614456
  0.040440882    0.000000    0.000000    0.000000    0.000000  -98.856383   33.242332   -7.273235  129.382767
  0.040641283    0.000000    0.000000    0.000000    0.000000  -98.159599   25.746485   -7.269097  129.127350
  0.040841683    0.000000    0.000000    0.000000    0.000000  -98.700908   20.522945   -7.268499  128.872375
  0.041042084    0.000000    0.000000    0.000000    0.000000  -99.110574   27.357424   -7.271701  128.641251
  0.041242485    0.000000    0.000000    0.000000    0.000000  -98.727874   22.110197   -7.274733  128.395279
  0.041442886    0.000000    0.000000    0.000000    0.000000  -99.107867   33.616993   -7.272252  128.146317
  0.041643287    0.000000    0.000000    0.000000    0.000000  -98.306782   32.115414   -7.269658  127.905472
  0.041843687    0.000000    0.000000    0.000000    0.000000  -99.176491   31.012794   -7.271056  127.675690
  0.042044088    0.000000    0.000000    0.000000    0.000000  -98.914615   23.964008   -7.271227  127.438011
  0.042244489    0.000000    0.000000    0.000000    0.000000  -98.305629   24.621941   -7.267525  127.173386
  0.042444890    0.000000    0.000000    0.000000    0.000000  -98.861730   13.705956   -7.270786  126.937614
  0.042645291    0.000000    0.000000    0.000000    0.000000  -99.515670   21.809822   -7.268706  126.671707
  0.042845691    0.000000    0.000000    0.000000    0.000000 -100.359643   26.824694   -7.269356  126.426872
  0.043046092    0.000000    0.000000    0.000000    0.000000  -98.975319   43.413486   -7.268556  126.181328
  0.043246493    0.000000    0.000000    0.000000    0.000000  -99.665895   24.383825   -7.269632  125.943459
  0.043446894    0.000000    0.000000    0.000000    0.000000  -97.938862   25.440496   -7.268164  125.695313
  0.043647295    0.000000    0.000000    0.000000    0.000000  -99.902374   29.038132   -7.270413  125.438675
  0.043847695    0.000000    0.000000    0.000000    0.000000  -98.800413   33.794571   -7.268798  125.197136
  0.044048096    0.000000    0.000000    0.000000    0.000000  -98.908350   27.300114   -7.268059  124.944145
  0.044248497    0.000000    0.000000    0.000000    0.000000  -98.765516   29.425957   -7.270523  124.719948
  0.044448898    0.000000    0.000000    0.000000    0.000000  -99.305515   24.793308   -7.267360  124.453735
  0.044649299    0.000000    0.000000    0.000000    0.000000  -99.146173   24.586906   -7.267872  124.207916
  0.044849699    0.000000    0.000000    0.000000    0.000000  -99.070752   28.339104   -7.268863  123.977348
  0.045050100    0.000000    0.000000    0.000000    0.000000  -99.709977   33.182045   -7.268953  123.728264
  0.045250501    0.000000    0.000000    0.000000    0.000000  -99.389034   28.052917   -7.267512  123.469574
  0.045450902    0.000000    0.000000    0.000000    0.000000  -99.148216   29.756222   -7.269168  123.219261
  0.045651303    0.000000    0.000000    0.000000    0.000000 -100.873816   31.608793   -7.267272  122.972191
  0.045851703    0.000000    0.000000    0.000000    0.000000 -100.344631   35.194386   -7.267520  122.734840
  0.046052104    0.000000    0.000000    0.000000    0.000000 -100.142916   28.565178   -7.265859  122.477547
  0.046252505    0.000000    0.000000    0.000000    0.000000 -100.741928   33.330196   -7.267320  122.222824
  0.046452906    0.000000    0.000000    0.000000    0.000000  -99.302614   31.436035   -7.266298  122.000893
  0.046653307    0.000000    0.000000    0.000000    0.000000 -101.122961   24.056269   -7.266270  121.736649
  0.046853707    0.000000    0.000000    0.000000    0.000000  -99.434309   28.285303   -7.264747  121.490845
  0.047054108    0.000000    0.000000    0.000000    0.000000  -99.552356   39.679852   -7.264367  121.245232
  0.047254509    0.000000    0.000000    0.000000    0.000000 -101.199258   36.834076   -7.264580  121.001404
  0.047454910    0.000000    0.000000    0.000000    0.000000  -99.755787   35.266132   -7.263437  120.747322
  0.047655311    0.000000    0.000000    0.000000    0.000000  -98.767778   37.637722   -7.263876  120.501038
  0.047855711    0.000000    0.000000    0.000000    0.000000 -100.442615   32.412552   -7.262043  120.263908
  0.048056112    0.000000    0.000000    0.000000    0.000000 -101.335865   42.406891   -7.264402  120.002953
  0.048256513    0.000000    0.000000    0.000000    0.000000  -99.863398   38.971638   -7.263007  119.775932
  0.048456914    0.000000    0.000000    0.000000    0.000000  -99.236590   30.026573   -7.260938  119.532967
  0.048657315    0.000000    0.000000    0.000000    0.000000 -100.088557   37.106953   -7.260453  119.275360
  0.048857715    0.000000    0.000000    0.000000    0.000000 -100.040330   34.509399   -7.259377  119.033051
  0.049058116    0.000000    0.000000    0.000000    0.000000 -100.337617   29.215246   -7.262216  118.777649
  0.049258517    0.000000    0.000000    0.000000    0.000000  -99.014797   36.871422   -7.256101  118.531212
  0.049458918    0.000000    0.000000    0.000000    0.000000 -100.376525   26.498743   -7.255910  118.293671
  0.049659319    0.000000    0.000000    0.000000    0.000000  -99.755342   40.510895   -7.260585  118.049957
  0.049859719    0.000000    0.000000    0.000000    0.000000  -99.433554   41.939068   -7.257139  117.802498
  0.050060120    0.000000    0.000000    0.000000    0.000000  -98.539865   45.246635   -7.258783  117.571381
  0.050260521    0.000000    0.000000    0.000000    0.000000 -100.488880   39.782909   -7.260314  117.318237
  0.050460922    0.000000    0.000000    0.000000    0.000000  -98.966294   31.503374   -7.255486  117.070274
  0.050661323    0.000000    0.000000    0.000000    0.000000  -98.893614   35.239143   -7.257071  116.834610
  0.050861723    0.000000    0.000000    0.000000    0.000000 -100.393322   17.989605   -7.255761  116.571014
  0.051062124    0.000000    0.000000    0.000000    0.000000  -99.640574   28.496181   -7.255791  116.337837
  0.051262525    0.000000    0.000000    0.000000    0.000000  -99.098795   30.957378   -7.257490  116.071526
  0.051462926    0.000000    0.000000    0.000000    0.000000 -100.395389   42.017262   -7.253636  115.856087
  0.051663327    0.000000    0.000000    0.000000    0.000000 -100.052732   38.972164   -7.254897  115.603668
  0.051863727    0.000000    0.000000    0.000000    0.000000 -100.094848   39.759232   -7.255526  115.349586
  0.052064128    0.000000    0.000000    0.000000    0.000000  -98.387469   28.371677   -7.253089  115.125023
  0.052264529    0.000000    0.000000    0.000000    0.000000  -99.379854   45.704712   -7.253937  114.869560
  0.052464930    0.000000    0.000000    0.000000    0.000000 -100.287523   37.857769   -7.253382  114.639687
  0.052665331    0.000000    0.000000    0.000000    0.000000  -98.913245   26.768675   -7.252733  114.389679
  0.052865731    0.000000    0.000000    0.000000    0.000000  -99.034756   37.189423   -7.252691  114.149963
