! Anritsu VNA Master:                     Model: MS2036C/10/77
! SN:                                  1601066
! /bd0/18may12.cable.cal/top.200.s2p
! Existing Calibration Information:
! TYPE:                         Current Settings,       Active Cal Settings
! TIME:             	   05/12/2018 01:33:12 PM,    05/12/2018 01:24:18 PM
! INTERNAL TEMP:    	                   49.3 C,                    49.3 C
! # POINTS:         	                      500,                       500
! START FREQ:       	               20.000 MHz,                20.000 MHz
! STOP FREQ:        	              120.000 MHz,               120.000 MHz
! SOURCE POWER:     	                     High,                      High
! IFBW:             	                    50 Hz,                     50 Hz
! AVG FACTOR:       	                       1 ,                        1 
! REF PLANE 1:      	                     0 mm,                      0 mm
! REF PLANE 2:      	                     0 mm,                      0 mm
! CAL TYPE:         	                 Full S22,                  Full S22
! CAL METHOD:       	                     SOLT,                      SOLT
! CAL LINE TYPE:    	                     Coax,                      Coax
! DUT PORT 1:       	                K-Conn(M),                 K-Conn(M)
! DUT PORT 2:       	                K-Conn(M),                 K-Conn(M)
! CAL STATUS:       	        OK: Accuracy High,                        --
# GHZ S DB R 50.0
! FREQ.GHZ       S11DB        S11A       S21DB        S21A       S12DB        S12A       S22DB        S22A
  0.020000000    0.000000    0.000000    0.000000    0.000000  -89.991370   34.884052   -4.535342  -22.532892
  0.020200401    0.000000    0.000000    0.000000    0.000000  -90.559088   35.674946   -4.535560  -22.761211
  0.020400802    0.000000    0.000000    0.000000    0.000000  -90.272494   39.134083   -4.537017  -22.987415
  0.020601202    0.000000    0.000000    0.000000    0.000000  -90.701958   41.759655   -4.537755  -23.215080
  0.020801603    0.000000    0.000000    0.000000    0.000000  -90.901737   36.732609   -4.538057  -23.440773
  0.021002004    0.000000    0.000000    0.000000    0.000000  -90.999934   36.898808   -4.538559  -23.675146
  0.021202405    0.000000    0.000000    0.000000    0.000000  -91.582348   35.375084   -4.539827  -23.893818
  0.021402806    0.000000    0.000000    0.000000    0.000000  -90.899176   38.232967   -4.538787  -24.116802
  0.021603206    0.000000    0.000000    0.000000    0.000000  -90.699610   36.325283   -4.540383  -24.358700
  0.021803607    0.000000    0.000000    0.000000    0.000000  -91.071275   34.416378   -4.540415  -24.579420
  0.022004008    0.000000    0.000000    0.000000    0.000000  -91.385844   37.983356   -4.541121  -24.808020
  0.022204409    0.000000    0.000000    0.000000    0.000000  -92.204066   36.862427   -4.541004  -25.035820
  0.022404810    0.000000    0.000000    0.000000    0.000000  -91.874559   35.557777   -4.541800  -25.269983
  0.022605210    0.000000    0.000000    0.000000    0.000000  -91.413891   32.083336   -4.544380  -25.474804
  0.022805611    0.000000    0.000000    0.000000    0.000000  -92.189926   33.181110   -4.544272  -25.707722
  0.023006012    0.000000    0.000000    0.000000    0.000000  -91.802954   35.363747   -4.544681  -25.939203
  0.023206413    0.000000    0.000000    0.000000    0.000000  -92.791385   34.739571   -4.542834  -26.168158
  0.023406814    0.000000    0.000000    0.000000    0.000000  -92.334334   41.588772   -4.544283  -26.396601
  0.023607214    0.000000    0.000000    0.000000    0.000000  -92.173461   35.983696   -4.546531  -26.624645
  0.023807615    0.000000    0.000000    0.000000    0.000000  -92.657637   29.886360   -4.546927  -26.857809
  0.024008016    0.000000    0.000000    0.000000    0.000000  -92.690293   35.575489   -4.548232  -27.074444
  0.024208417    0.000000    0.000000    0.000000    0.000000  -92.868916   36.249474   -4.547133  -27.296442
  0.024408818    0.000000    0.000000    0.000000    0.000000  -92.726037   31.552622   -4.549421  -27.527853
  0.024609218    0.000000    0.000000    0.000000    0.000000  -92.343758   33.291214   -4.550250  -27.746824
  0.024809619    0.000000    0.000000    0.000000    0.000000  -93.196839   34.756981   -4.549918  -27.979086
  0.025010020    0.000000    0.000000    0.000000    0.000000  -92.728094   33.930435   -4.550725  -28.203342
  0.025210421    0.000000    0.000000    0.000000    0.000000  -93.098158   30.828939   -4.553743  -28.427317
  0.025410822    0.000000    0.000000    0.000000    0.000000  -93.986904   29.109751   -4.552063  -28.652077
  0.025611222    0.000000    0.000000    0.000000    0.000000  -93.590058   31.639065   -4.554697  -28.875250
  0.025811623    0.000000    0.000000    0.000000    0.000000  -92.969935   33.306389   -4.555240  -29.105864
  0.026012024    0.000000    0.000000    0.000000    0.000000  -93.720322   33.726856   -4.557774  -29.327866
  0.026212425    0.000000    0.000000    0.000000    0.000000  -93.895675   31.739605   -4.557206  -29.561024
  0.026412826    0.000000    0.000000    0.000000    0.000000  -93.320201   32.118000   -4.557925  -29.782148
  0.026613226    0.000000    0.000000    0.000000    0.000000  -93.936127   31.950874   -4.558578  -30.017866
  0.026813627    0.000000    0.000000    0.000000    0.000000  -94.199014   34.204273   -4.559270  -30.240759
  0.027014028    0.000000    0.000000    0.000000    0.000000  -93.756358   32.199863   -4.559842  -30.479580
  0.027214429    0.000000    0.000000    0.000000    0.000000  -94.341879   31.735888   -4.559641  -30.697285
  0.027414830    0.000000    0.000000    0.000000    0.000000  -94.431003   31.606331   -4.561427  -30.928637
  0.027615230    0.000000    0.000000    0.000000    0.000000  -94.585394   32.301735   -4.559798  -31.162865
  0.027815631    0.000000    0.000000    0.000000    0.000000  -94.064079   31.471540   -4.561974  -31.383287
  0.028016032    0.000000    0.000000    0.000000    0.000000  -94.701525   33.643787   -4.562660  -31.616945
  0.028216433    0.000000    0.000000    0.000000    0.000000  -95.573245   34.495647   -4.563125  -31.834929
  0.028416834    0.000000    0.000000    0.000000    0.000000  -94.785204   30.486410   -4.565506  -32.075775
  0.028617234    0.000000    0.000000    0.000000    0.000000  -94.259278   26.888878   -4.564538  -32.298599
  0.028817635    0.000000    0.000000    0.000000    0.000000  -95.182034   27.712282   -4.565204  -32.526722
  0.029018036    0.000000    0.000000    0.000000    0.000000  -94.829955   26.032097   -4.563401  -32.747070
  0.029218437    0.000000    0.000000    0.000000    0.000000  -95.190719   27.861317   -4.565446  -32.981903
  0.029418838    0.000000    0.000000    0.000000    0.000000  -95.011313   32.119953   -4.566965  -33.215202
  0.029619238    0.000000    0.000000    0.000000    0.000000  -95.553110   35.802757   -4.565976  -33.436306
  0.029819639    0.000000    0.000000    0.000000    0.000000  -95.158347   32.650024   -4.567291  -33.678883
  0.030020040    0.000000    0.000000    0.000000    0.000000  -95.608415   26.991695   -4.567753  -33.902660
  0.030220441    0.000000    0.000000    0.000000    0.000000  -95.758066   31.363310   -4.568073  -34.142460
  0.030420842    0.000000    0.000000    0.000000    0.000000  -95.234638   33.065693   -4.570042  -34.361977
  0.030621242    0.000000    0.000000    0.000000    0.000000  -95.694028   30.927906   -4.569111  -34.599720
  0.030821643    0.000000    0.000000    0.000000    0.000000  -95.443426   28.992292   -4.568825  -34.818020
  0.031022044    0.000000    0.000000    0.000000    0.000000  -95.772819   33.599621   -4.570248  -35.049763
  0.031222445    0.000000    0.000000    0.000000    0.000000  -95.651245   22.798429   -4.558685  -35.218269
  0.031422846    0.000000    0.000000    0.000000    0.000000  -95.437747   30.801825   -4.559029  -35.459686
  0.031623246    0.000000    0.000000    0.000000    0.000000  -95.641451   30.006372   -4.559878  -35.686592
  0.031823647    0.000000    0.000000    0.000000    0.000000  -96.088554   26.931240   -4.560991  -35.918320
  0.032024048    0.000000    0.000000    0.000000    0.000000  -94.918859   26.307613   -4.562538  -36.147362
  0.032224449    0.000000    0.000000    0.000000    0.000000  -96.678069   19.232828   -4.563499  -36.389473
  0.032424850    0.000000    0.000000    0.000000    0.000000  -95.046096   22.747564   -4.563736  -36.619785
  0.032625251    0.000000    0.000000    0.000000    0.000000  -94.483128   24.549040   -4.566642  -36.841709
  0.032825651    0.000000    0.000000    0.000000    0.000000  -95.836854   19.957451   -4.565138  -37.070759
  0.033026052    0.000000    0.000000    0.000000    0.000000  -95.730833   14.909372   -4.566856  -37.295895
  0.033226453    0.000000    0.000000    0.000000    0.000000  -95.817917   23.204605   -4.565120  -37.533394
  0.033426854    0.000000    0.000000    0.000000    0.000000  -96.822261   23.578829   -4.566045  -37.768230
  0.033627255    0.000000    0.000000    0.000000    0.000000  -96.411164   31.443039   -4.567213  -37.991341
  0.033827655    0.000000    0.000000    0.000000    0.000000  -95.918740   23.632896   -4.569087  -38.218609
  0.034028056    0.000000    0.000000    0.000000    0.000000  -96.719077   33.146423   -4.567356  -38.451088
  0.034228457    0.000000    0.000000    0.000000    0.000000  -96.348790   19.695473   -4.569891  -38.687626
  0.034428858    0.000000    0.000000    0.000000    0.000000  -96.302605   33.053085   -4.568894  -38.917854
  0.034629259    0.000000    0.000000    0.000000    0.000000  -96.578879   28.904753   -4.570239  -39.133110
  0.034829659    0.000000    0.000000    0.000000    0.000000  -97.332493   17.878187   -4.569528  -39.366436
  0.035030060    0.000000    0.000000    0.000000    0.000000  -96.552436   33.834282   -4.570402  -39.594299
  0.035230461    0.000000    0.000000    0.000000    0.000000  -96.153309   21.362373   -4.570865  -39.818314
  0.035430862    0.000000    0.000000    0.000000    0.000000  -97.211769   17.677874   -4.571193  -40.063610
  0.035631263    0.000000    0.000000    0.000000    0.000000  -97.308365   26.952019   -4.571969  -40.273918
  0.035831663    0.000000    0.000000    0.000000    0.000000  -96.764935   27.076084   -4.571567  -40.518719
  0.036032064    0.000000    0.000000    0.000000    0.000000  -96.644181   29.972448   -4.571714  -40.735504
  0.036232465    0.000000    0.000000    0.000000    0.000000  -95.819425   25.258102   -4.575083  -40.970951
  0.036432866    0.000000    0.000000    0.000000    0.000000  -96.518860   26.605452   -4.573767  -41.193645
  0.036633267    0.000000    0.000000    0.000000    0.000000  -97.336740   20.206863   -4.572970  -41.413319
  0.036833667    0.000000    0.000000    0.000000    0.000000  -96.826011   29.236935   -4.573437  -41.646568
  0.037034068    0.000000    0.000000    0.000000    0.000000  -98.129022   21.079613   -4.573810  -41.869579
  0.037234469    0.000000    0.000000    0.000000    0.000000  -97.129289   19.925215   -4.574075  -42.096920
  0.037434870    0.000000    0.000000    0.000000    0.000000  -97.204958   27.272223   -4.573370  -42.330170
  0.037635271    0.000000    0.000000    0.000000    0.000000  -97.627609   23.281881   -4.573688  -42.550690
  0.037835671    0.000000    0.000000    0.000000    0.000000  -97.252289   28.096067   -4.576606  -42.776768
  0.038036072    0.000000    0.000000    0.000000    0.000000  -97.647901   25.555309   -4.574335  -43.009583
  0.038236473    0.000000    0.000000    0.000000    0.000000  -97.688541   24.185402   -4.576067  -43.238960
  0.038436874    0.000000    0.000000    0.000000    0.000000  -97.289347   35.154179   -4.575925  -43.461452
  0.038637275    0.000000    0.000000    0.000000    0.000000  -98.870969   30.887611   -4.578376  -43.668209
  0.038837675    0.000000    0.000000    0.000000    0.000000  -96.164964   23.543264   -4.577789  -43.910820
  0.039038076    0.000000    0.000000    0.000000    0.000000  -97.771378   26.119349   -4.576529  -44.140053
  0.039238477    0.000000    0.000000    0.000000    0.000000  -96.739857   22.847305   -4.578703  -44.360245
  0.039438878    0.000000    0.000000    0.000000    0.000000  -97.479210   22.785646   -4.578706  -44.596699
  0.039639279    0.000000    0.000000    0.000000    0.000000  -96.997493   27.986746   -4.579161  -44.823257
  0.039839679    0.000000    0.000000    0.000000    0.000000  -97.678492   27.579569   -4.581383  -45.057045
  0.040040080    0.000000    0.000000    0.000000    0.000000  -98.674344   31.478636   -4.580854  -45.270832
  0.040240481    0.000000    0.000000    0.000000    0.000000  -96.849057   25.070223   -4.581311  -45.497139
  0.040440882    0.000000    0.000000    0.000000    0.000000  -98.757345   36.243500   -4.581762  -45.742290
  0.040641283    0.000000    0.000000    0.000000    0.000000  -96.373308   24.343103   -4.583657  -45.959557
  0.040841683    0.000000    0.000000    0.000000    0.000000  -98.366409   28.272779   -4.585913  -46.185150
  0.041042084    0.000000    0.000000    0.000000    0.000000  -97.601715   29.151688   -4.583917  -46.414177
  0.041242485    0.000000    0.000000    0.000000    0.000000  -98.045968   27.022165   -4.583798  -46.629601
  0.041442886    0.000000    0.000000    0.000000    0.000000  -97.592670   22.800928   -4.585874  -46.859314
  0.041643287    0.000000    0.000000    0.000000    0.000000  -97.560770   22.921778   -4.587479  -47.086655
  0.041843687    0.000000    0.000000    0.000000    0.000000  -98.816395   26.728186   -4.586753  -47.321880
  0.042044088    0.000000    0.000000    0.000000    0.000000  -98.020399   24.022175   -4.586548  -47.550652
  0.042244489    0.000000    0.000000    0.000000    0.000000  -98.553513   30.096037   -4.589127  -47.783585
  0.042444890    0.000000    0.000000    0.000000    0.000000  -97.774615   26.190540   -4.590664  -48.013996
  0.042645291    0.000000    0.000000    0.000000    0.000000  -98.310689   35.682766   -4.589668  -48.240215
  0.042845691    0.000000    0.000000    0.000000    0.000000 -101.073349   33.067493   -4.590805  -48.463642
  0.043046092    0.000000    0.000000    0.000000    0.000000  -98.248101   34.655750   -4.591489  -48.687809
  0.043246493    0.000000    0.000000    0.000000    0.000000  -98.851103   31.472715   -4.592070  -48.923321
  0.043446894    0.000000    0.000000    0.000000    0.000000  -97.973362   32.767406   -4.593345  -49.156509
  0.043647295    0.000000    0.000000    0.000000    0.000000  -98.260048   26.239689   -4.593445  -49.379452
  0.043847695    0.000000    0.000000    0.000000    0.000000  -98.502910   27.455189   -4.594815  -49.604237
  0.044048096    0.000000    0.000000    0.000000    0.000000  -98.338107   34.247990   -4.595711  -49.849056
  0.044248497    0.000000    0.000000    0.000000    0.000000  -99.226201   24.073938   -4.596118  -50.069492
  0.044448898    0.000000    0.000000    0.000000    0.000000  -98.419906   28.325521   -4.597969  -50.299538
  0.044649299    0.000000    0.000000    0.000000    0.000000  -99.048736   32.312664   -4.598073  -50.530594
  0.044849699    0.000000    0.000000    0.000000    0.000000  -98.589084   22.042353   -4.599255  -50.761486
  0.045050100    0.000000    0.000000    0.000000    0.000000  -98.918249   22.765860   -4.599660  -51.002106
  0.045250501    0.000000    0.000000    0.000000    0.000000  -98.840191   32.614464   -4.604185  -51.222973
  0.045450902    0.000000    0.000000    0.000000    0.000000  -97.167158   32.504974   -4.605144  -51.449196
  0.045651303    0.000000    0.000000    0.000000    0.000000  -98.174348   31.800783   -4.605372  -51.689495
  0.045851703    0.000000    0.000000    0.000000    0.000000  -98.642591   26.345057   -4.604116  -51.934696
  0.046052104    0.000000    0.000000    0.000000    0.000000  -98.433195   36.792789   -4.603532  -52.161644
  0.046252505    0.000000    0.000000    0.000000    0.000000  -98.002775   25.701717   -4.603857  -52.388893
  0.046452906    0.000000    0.000000    0.000000    0.000000  -98.050615   23.536963   -4.604107  -52.627117
  0.046653307    0.000000    0.000000    0.000000    0.000000  -99.075316   32.805576   -4.605577  -52.844707
  0.046853707    0.000000    0.000000    0.000000    0.000000  -98.521050   23.095541   -4.606222  -53.082157
  0.047054108    0.000000    0.000000    0.000000    0.000000  -98.077654   28.349319   -4.610103  -53.318794
  0.047254509    0.000000    0.000000    0.000000    0.000000  -99.405056   29.199947   -4.609836  -53.552719
  0.047454910    0.000000    0.000000    0.000000    0.000000  -97.853415   28.829775   -4.611349  -53.775761
  0.047655311    0.000000    0.000000    0.000000    0.000000  -99.275976   33.977940   -4.610790  -54.009262
  0.047855711    0.000000    0.000000    0.000000    0.000000  -98.460625   27.006828   -4.611505  -54.244392
  0.048056112    0.000000    0.000000    0.000000    0.000000  -97.568025   25.193230   -4.612037  -54.467644
  0.048256513    0.000000    0.000000    0.000000    0.000000  -99.571057   29.500700   -4.612054  -54.717541
  0.048456914    0.000000    0.000000    0.000000    0.000000  -98.674314   29.740553   -4.613232  -54.945461
  0.048657315    0.000000    0.000000    0.000000    0.000000  -98.535057   29.088781   -4.614804  -55.173859
  0.048857715    0.000000    0.000000    0.000000    0.000000 -100.158341   33.871696   -4.615146  -55.398769
  0.049058116    0.000000    0.000000    0.000000    0.000000 -100.030563   14.390302   -4.616698  -55.638897
  0.049258517    0.000000    0.000000    0.000000    0.000000  -98.937388   20.295874   -4.618155  -55.864716
  0.049458918    0.000000    0.000000    0.000000    0.000000 -100.398193   24.475260   -4.619118  -56.093021
  0.049659319    0.000000    0.000000    0.000000    0.000000 -100.123145   23.868208   -4.617458  -56.319992
  0.049859719    0.000000    0.000000    0.000000    0.000000 -100.398004   30.498417   -4.621470  -56.556393
  0.050060120    0.000000    0.000000    0.000000    0.000000  -99.377470   31.997581   -4.622707  -56.795376
  0.050260521    0.000000    0.000000    0.000000    0.000000  -98.362003   27.748343   -4.621634  -57.015518
  0.050460922    0.000000    0.000000    0.000000    0.000000  -99.231623   28.072809   -4.622074  -57.248474
  0.050661323    0.000000    0.000000    0.000000    0.000000  -99.449808   28.906368   -4.623446  -57.482948
  0.050861723    0.000000    0.000000    0.000000    0.000000 -100.461929   28.662209   -4.624428  -57.719315
  0.051062124    0.000000    0.000000    0.000000    0.000000  -99.460846   18.475153   -4.626556  -57.937374
  0.051262525    0.000000    0.000000    0.000000    0.000000  -98.354122   20.365757   -4.626780  -58.163288
  0.051462926    0.000000    0.000000    0.000000    0.000000  -99.007327   19.174225   -4.626507  -58.406368
  0.051663327    0.000000    0.000000    0.000000    0.000000  -99.436737   25.277283   -4.628911  -58.638279
  0.051863727    0.000000    0.000000    0.000000    0.000000  -99.620676   26.240219   -4.628836  -58.859894
  0.052064128    0.000000    0.000000    0.000000    0.000000  -99.251466   24.397165   -4.631451  -59.095848
  0.052264529    0.000000    0.000000    0.000000    0.000000 -100.641578   28.062963   -4.628843  -59.328300
  0.052464930    0.000000    0.000000    0.000000    0.000000  -99.305219   28.599197   -4.629272  -59.569920
  0.052665331    0.000000    0.000000    0.000000    0.000000  -99.154705   28.793287   -4.631331  -59.792950
  0.052865731    0.000000    0.000000    0.000000    0.000000  -98.444836   32.429405   -4.631487  -60.032970
