! Anritsu VNA Master:                     Model: MS2036C/10/77
! SN:                                  1601066
! /bd0/18may12.cable.cal/uu.20.s2p
! Existing Calibration Information:
! TYPE:                         Current Settings,       Active Cal Settings
! TIME:             	   05/12/2018 02:00:26 PM,    05/12/2018 01:41:40 PM
! INTERNAL TEMP:    	                   49.0 C,                    49.0 C
! # POINTS:         	                      500,                       500
! START FREQ:       	               20.000 MHz,                20.000 MHz
! STOP FREQ:        	              120.000 MHz,               120.000 MHz
! SOURCE POWER:     	                     High,                      High
! IFBW:             	                    50 Hz,                     50 Hz
! AVG FACTOR:       	                       1 ,                        1 
! REF PLANE 1:      	                     0 mm,                      0 mm
! REF PLANE 2:      	                     0 mm,                      0 mm
! CAL TYPE:         	                 Full S22,                  Full S22
! CAL METHOD:       	                     SOLT,                      SOLT
! CAL LINE TYPE:    	                     Coax,                      Coax
! DUT PORT 1:       	                K-Conn(M),                 K-Conn(M)
! DUT PORT 2:       	                K-Conn(M),                 K-Conn(M)
! CAL STATUS:       	        OK: Accuracy High,                        --
# GHZ S DB R 50.0
! FREQ.GHZ       S11DB        S11A       S21DB        S21A       S12DB        S12A       S22DB        S22A
  0.020000000    0.000000    0.000000    0.000000    0.000000  -89.442172   44.985703   -7.241836  154.734879
  0.020200401    0.000000    0.000000    0.000000    0.000000  -89.626855   46.050629   -7.244013  154.499573
  0.020400802    0.000000    0.000000    0.000000    0.000000  -89.189352   43.404137   -7.244719  154.263977
  0.020601202    0.000000    0.000000    0.000000    0.000000  -89.560283   41.882271   -7.243976  154.003174
  0.020801603    0.000000    0.000000    0.000000    0.000000  -90.105327   41.725609   -7.244800  153.760132
  0.021002004    0.000000    0.000000    0.000000    0.000000  -90.201664   45.475338   -7.244894  153.521561
  0.021202405    0.000000    0.000000    0.000000    0.000000  -89.674819   41.929214   -7.243493  153.277130
  0.021402806    0.000000    0.000000    0.000000    0.000000  -90.564275   41.825317   -7.245417  153.027008
  0.021603206    0.000000    0.000000    0.000000    0.000000  -90.436723   43.651562   -7.245812  152.754715
  0.021803607    0.000000    0.000000    0.000000    0.000000  -90.055884   41.114250   -7.245674  152.512421
  0.022004008    0.000000    0.000000    0.000000    0.000000  -90.442797   39.892403   -7.247843  152.267838
  0.022204409    0.000000    0.000000    0.000000    0.000000  -90.167864   37.808544   -7.248862  152.018417
  0.022404810    0.000000    0.000000    0.000000    0.000000  -90.494673   44.697556   -7.247076  151.779465
  0.022605210    0.000000    0.000000    0.000000    0.000000  -90.803922   41.647865   -7.247087  151.534424
  0.022805611    0.000000    0.000000    0.000000    0.000000  -90.724889   39.593948   -7.250431  151.284729
  0.023006012    0.000000    0.000000    0.000000    0.000000  -90.926410   38.226398   -7.250359  151.043259
  0.023206413    0.000000    0.000000    0.000000    0.000000  -91.161531   32.291397   -7.250246  150.789886
  0.023406814    0.000000    0.000000    0.000000    0.000000  -90.985612   38.802410   -7.251066  150.533005
  0.023607214    0.000000    0.000000    0.000000    0.000000  -91.415579   34.215061   -7.250131  150.297241
  0.023807615    0.000000    0.000000    0.000000    0.000000  -91.353847   35.799164   -7.251644  150.039948
  0.024008016    0.000000    0.000000    0.000000    0.000000  -91.936346   31.700438   -7.250795  149.806091
  0.024208417    0.000000    0.000000    0.000000    0.000000  -91.353415   32.745670   -7.251060  149.546265
  0.024408818    0.000000    0.000000    0.000000    0.000000  -91.454309   34.289474   -7.251254  149.303680
  0.024609218    0.000000    0.000000    0.000000    0.000000  -91.337837   34.972420   -7.253175  149.056854
  0.024809619    0.000000    0.000000    0.000000    0.000000  -91.620017   29.832569   -7.254393  148.822906
  0.025010020    0.000000    0.000000    0.000000    0.000000  -91.954963   35.167526   -7.253212  148.568115
  0.025210421    0.000000    0.000000    0.000000    0.000000  -91.478986   32.619293   -7.255116  148.321548
  0.025410822    0.000000    0.000000    0.000000    0.000000  -91.617626   31.221750   -7.254543  148.070084
  0.025611222    0.000000    0.000000    0.000000    0.000000  -92.450767   31.043730   -7.256133  147.822250
  0.025811623    0.000000    0.000000    0.000000    0.000000  -92.480894   31.486208   -7.257217  147.572479
  0.026012024    0.000000    0.000000    0.000000    0.000000  -92.460899   28.924894   -7.257564  147.324615
  0.026212425    0.000000    0.000000    0.000000    0.000000  -92.536002   30.732162   -7.258348  147.090378
  0.026412826    0.000000    0.000000    0.000000    0.000000  -92.301666   27.182060   -7.260800  146.831390
  0.026613226    0.000000    0.000000    0.000000    0.000000  -93.363604   32.251324   -7.258456  146.582245
  0.026813627    0.000000    0.000000    0.000000    0.000000  -92.274374   33.434441   -7.258636  146.344604
  0.027014028    0.000000    0.000000    0.000000    0.000000  -93.119579   29.176559   -7.258981  146.093948
  0.027214429    0.000000    0.000000    0.000000    0.000000  -93.368392   28.453934   -7.258548  145.842484
  0.027414830    0.000000    0.000000    0.000000    0.000000  -92.802565   31.659996   -7.260948  145.585358
  0.027615230    0.000000    0.000000    0.000000    0.000000  -92.964978   28.005417   -7.261054  145.352707
  0.027815631    0.000000    0.000000    0.000000    0.000000  -93.278795   28.814650   -7.260284  145.091202
  0.028016032    0.000000    0.000000    0.000000    0.000000  -93.841294   32.021793   -7.262028  144.849213
  0.028216433    0.000000    0.000000    0.000000    0.000000  -93.625931   33.355247   -7.260740  144.606689
  0.028416834    0.000000    0.000000    0.000000    0.000000  -93.906718   26.061039   -7.263418  144.363144
  0.028617234    0.000000    0.000000    0.000000    0.000000  -93.201783   30.594439   -7.262904  144.114334
  0.028817635    0.000000    0.000000    0.000000    0.000000  -94.062361   28.693762   -7.263688  143.865067
  0.029018036    0.000000    0.000000    0.000000    0.000000  -94.191592   30.575687   -7.261728  143.613846
  0.029218437    0.000000    0.000000    0.000000    0.000000  -94.195102   25.443584   -7.263074  143.359894
  0.029418838    0.000000    0.000000    0.000000    0.000000  -93.496404   28.541405   -7.262366  143.130035
  0.029619238    0.000000    0.000000    0.000000    0.000000  -93.721365   23.960526   -7.262774  142.869781
  0.029819639    0.000000    0.000000    0.000000    0.000000  -94.152972   24.969795   -7.262491  142.631210
  0.030020040    0.000000    0.000000    0.000000    0.000000  -94.707703   29.925272   -7.262813  142.372284
  0.030220441    0.000000    0.000000    0.000000    0.000000  -94.122012   28.907566   -7.263694  142.124313
  0.030420842    0.000000    0.000000    0.000000    0.000000  -93.759124   25.781775   -7.262621  141.871948
  0.030621242    0.000000    0.000000    0.000000    0.000000  -94.331708   26.278675   -7.261451  141.621307
  0.030821643    0.000000    0.000000    0.000000    0.000000  -94.460592   23.847225   -7.263188  141.370270
  0.031022044    0.000000    0.000000    0.000000    0.000000  -94.988850   27.854647   -7.261905  141.121078
  0.031222445    0.000000    0.000000    0.000000    0.000000  -95.303913   27.119419   -7.245909  140.945679
  0.031422846    0.000000    0.000000    0.000000    0.000000  -93.784661   27.221741   -7.245221  140.719284
  0.031623246    0.000000    0.000000    0.000000    0.000000  -94.533322   20.127588   -7.247528  140.487686
  0.031823647    0.000000    0.000000    0.000000    0.000000  -94.409911   23.035070   -7.247529  140.231796
  0.032024048    0.000000    0.000000    0.000000    0.000000  -94.568085   22.692827   -7.249590  139.962875
  0.032224449    0.000000    0.000000    0.000000    0.000000  -94.969971   22.358248   -7.247033  139.717346
  0.032424850    0.000000    0.000000    0.000000    0.000000  -94.856898   19.109394   -7.249413  139.474335
  0.032625251    0.000000    0.000000    0.000000    0.000000  -95.222907   21.373545   -7.248932  139.223038
  0.032825651    0.000000    0.000000    0.000000    0.000000  -95.257777   21.887077   -7.249594  138.975464
  0.033026052    0.000000    0.000000    0.000000    0.000000  -96.136506   25.565208   -7.249665  138.718018
  0.033226453    0.000000    0.000000    0.000000    0.000000  -95.411989   21.913458   -7.250173  138.469528
  0.033426854    0.000000    0.000000    0.000000    0.000000  -94.982584   18.935799   -7.249881  138.217682
  0.033627255    0.000000    0.000000    0.000000    0.000000  -95.190079   21.380909   -7.248837  137.969696
  0.033827655    0.000000    0.000000    0.000000    0.000000  -95.181136   20.473558   -7.249994  137.728119
  0.034028056    0.000000    0.000000    0.000000    0.000000  -95.748963   18.447321   -7.249430  137.491989
  0.034228457    0.000000    0.000000    0.000000    0.000000  -94.959312   22.976255   -7.248867  137.235794
  0.034428858    0.000000    0.000000    0.000000    0.000000  -95.870794   14.382320   -7.248938  136.990173
  0.034629259    0.000000    0.000000    0.000000    0.000000  -96.439936   27.213381   -7.250581  136.740494
  0.034829659    0.000000    0.000000    0.000000    0.000000  -96.948514   22.316273   -7.248926  136.488144
  0.035030060    0.000000    0.000000    0.000000    0.000000  -96.174503   25.335754   -7.249802  136.246277
  0.035230461    0.000000    0.000000    0.000000    0.000000  -95.976832   14.135354   -7.251876  136.006378
  0.035430862    0.000000    0.000000    0.000000    0.000000  -96.918490   20.798445   -7.248072  135.762970
  0.035631263    0.000000    0.000000    0.000000    0.000000  -96.536715   24.007919   -7.248517  135.517532
  0.035831663    0.000000    0.000000    0.000000    0.000000  -96.214513   20.830906   -7.248825  135.258163
  0.036032064    0.000000    0.000000    0.000000    0.000000  -96.801438   19.656876   -7.248798  135.040131
  0.036232465    0.000000    0.000000    0.000000    0.000000  -96.364302   25.045603   -7.248845  134.773193
  0.036432866    0.000000    0.000000    0.000000    0.000000  -96.456844   18.115856   -7.249618  134.524399
  0.036633267    0.000000    0.000000    0.000000    0.000000  -96.234607   24.950119   -7.250163  134.293030
  0.036833667    0.000000    0.000000    0.000000    0.000000  -96.730028   19.990244   -7.246023  134.050476
  0.037034068    0.000000    0.000000    0.000000    0.000000  -97.893388   23.648186   -7.249418  133.801392
  0.037234469    0.000000    0.000000    0.000000    0.000000  -96.499993   23.048294   -7.247867  133.567108
  0.037434870    0.000000    0.000000    0.000000    0.000000  -96.795235   28.063049   -7.247189  133.307526
  0.037635271    0.000000    0.000000    0.000000    0.000000  -97.560513   17.653643   -7.245488  133.087372
  0.037835671    0.000000    0.000000    0.000000    0.000000  -97.697439   30.543922   -7.246120  132.819916
  0.038036072    0.000000    0.000000    0.000000    0.000000  -98.043333   18.190100   -7.246387  132.591339
  0.038236473    0.000000    0.000000    0.000000    0.000000  -97.103727   23.466446   -7.245605  132.337616
  0.038436874    0.000000    0.000000    0.000000    0.000000  -97.484295   24.902206   -7.246171  132.099228
  0.038637275    0.000000    0.000000    0.000000    0.000000  -98.337006   25.457624   -7.244153  131.835632
  0.038837675    0.000000    0.000000    0.000000    0.000000  -98.413129   18.914265   -7.245096  131.608017
  0.039038076    0.000000    0.000000    0.000000    0.000000  -98.881302   33.489700   -7.243769  131.364990
  0.039238477    0.000000    0.000000    0.000000    0.000000  -97.665921   21.276131   -7.242875  131.128403
  0.039438878    0.000000    0.000000    0.000000    0.000000  -97.839794   20.834448   -7.243515  130.878281
  0.039639279    0.000000    0.000000    0.000000    0.000000  -98.129920   29.895899   -7.243051  130.626801
  0.039839679    0.000000    0.000000    0.000000    0.000000  -98.825524   13.954330   -7.241136  130.393265
  0.040040080    0.000000    0.000000    0.000000    0.000000  -97.735496   31.243963   -7.243838  130.143875
  0.040240481    0.000000    0.000000    0.000000    0.000000  -98.490564   22.956972   -7.242608  129.899185
  0.040440882    0.000000    0.000000    0.000000    0.000000  -98.021762   19.461119   -7.242814  129.658813
  0.040641283    0.000000    0.000000    0.000000    0.000000  -97.523011   26.305925   -7.241713  129.417328
  0.040841683    0.000000    0.000000    0.000000    0.000000  -98.825246   25.943848   -7.240510  129.177353
  0.041042084    0.000000    0.000000    0.000000    0.000000  -99.818857   23.071198   -7.240182  128.933273
  0.041242485    0.000000    0.000000    0.000000    0.000000  -97.779412   23.553993   -7.242803  128.683655
  0.041442886    0.000000    0.000000    0.000000    0.000000  -98.040378   29.951946   -7.241217  128.436310
  0.041643287    0.000000    0.000000    0.000000    0.000000  -99.046311   28.559191   -7.240235  128.207794
  0.041843687    0.000000    0.000000    0.000000    0.000000  -98.764460   29.876429   -7.240409  127.970779
  0.042044088    0.000000    0.000000    0.000000    0.000000  -98.716440   25.942341   -7.240948  127.728714
  0.042244489    0.000000    0.000000    0.000000    0.000000  -99.626246   17.729086   -7.239626  127.471176
  0.042444890    0.000000    0.000000    0.000000    0.000000  -98.978351   26.384314   -7.237953  127.235527
  0.042645291    0.000000    0.000000    0.000000    0.000000  -98.408220   25.914557   -7.240391  126.997520
  0.042845691    0.000000    0.000000    0.000000    0.000000  -98.438095   27.975615   -7.239734  126.749489
  0.043046092    0.000000    0.000000    0.000000    0.000000  -98.165632   26.002348   -7.238988  126.495949
  0.043246493    0.000000    0.000000    0.000000    0.000000 -100.352020   26.071112   -7.240212  126.247742
  0.043446894    0.000000    0.000000    0.000000    0.000000 -100.036480   30.813477   -7.238439  125.999413
  0.043647295    0.000000    0.000000    0.000000    0.000000 -100.519092   31.220181   -7.239672  125.761856
  0.043847695    0.000000    0.000000    0.000000    0.000000  -98.434826   35.811878   -7.239370  125.514793
  0.044048096    0.000000    0.000000    0.000000    0.000000 -100.237926   29.444735   -7.238408  125.267853
  0.044248497    0.000000    0.000000    0.000000    0.000000  -98.430226   34.818687   -7.237283  125.019821
  0.044448898    0.000000    0.000000    0.000000    0.000000  -98.738202   34.248539   -7.236317  124.773674
  0.044649299    0.000000    0.000000    0.000000    0.000000  -98.958808   30.666866   -7.236215  124.537979
  0.044849699    0.000000    0.000000    0.000000    0.000000  -98.793164   27.431511   -7.237240  124.293037
  0.045050100    0.000000    0.000000    0.000000    0.000000  -99.874799   37.156685   -7.237818  124.034828
  0.045250501    0.000000    0.000000    0.000000    0.000000  -98.070736   32.082169   -7.237219  123.795471
  0.045450902    0.000000    0.000000    0.000000    0.000000  -99.151814   32.005310   -7.237862  123.551346
  0.045651303    0.000000    0.000000    0.000000    0.000000  -98.378353   27.126270   -7.238138  123.302811
  0.045851703    0.000000    0.000000    0.000000    0.000000 -100.193223   38.068512   -7.238349  123.063660
  0.046052104    0.000000    0.000000    0.000000    0.000000  -99.537013   42.042248   -7.238767  122.804054
  0.046252505    0.000000    0.000000    0.000000    0.000000  -99.484107   27.180975   -7.236577  122.568291
  0.046452906    0.000000    0.000000    0.000000    0.000000  -99.713204   25.053381   -7.236612  122.324471
  0.046653307    0.000000    0.000000    0.000000    0.000000  -98.556162   29.447021   -7.232397  122.071342
  0.046853707    0.000000    0.000000    0.000000    0.000000 -100.315010   29.693445   -7.235411  121.839294
  0.047054108    0.000000    0.000000    0.000000    0.000000  -98.335632   24.499043   -7.233322  121.576271
  0.047254509    0.000000    0.000000    0.000000    0.000000  -99.163309   25.724684   -7.232803  121.359009
  0.047454910    0.000000    0.000000    0.000000    0.000000  -98.762878   30.992260   -7.231080  121.093132
  0.047655311    0.000000    0.000000    0.000000    0.000000  -99.074531   30.233049   -7.230847  120.857155
  0.047855711    0.000000    0.000000    0.000000    0.000000 -100.784650   32.582737   -7.232956  120.615448
  0.048056112    0.000000    0.000000    0.000000    0.000000 -100.157888   35.888561   -7.230578  120.363739
  0.048256513    0.000000    0.000000    0.000000    0.000000  -99.013385   38.103733   -7.231716  120.109673
  0.048456914    0.000000    0.000000    0.000000    0.000000  -98.681046   28.553669   -7.229244  119.869408
  0.048657315    0.000000    0.000000    0.000000    0.000000  -99.098023   36.910229   -7.229896  119.633087
  0.048857715    0.000000    0.000000    0.000000    0.000000 -100.294184   34.007530   -7.229729  119.387444
  0.049058116    0.000000    0.000000    0.000000    0.000000 -100.310247   30.874327   -7.227606  119.137909
  0.049258517    0.000000    0.000000    0.000000    0.000000  -98.554943   31.404688   -7.229176  118.906158
  0.049458918    0.000000    0.000000    0.000000    0.000000  -98.872708   28.457365   -7.225921  118.655357
  0.049659319    0.000000    0.000000    0.000000    0.000000  -98.541733   34.062515   -7.228239  118.399757
  0.049859719    0.000000    0.000000    0.000000    0.000000  -98.517262   28.805483   -7.226733  118.169830
  0.050060120    0.000000    0.000000    0.000000    0.000000 -100.345910   28.774887   -7.227424  117.937271
  0.050260521    0.000000    0.000000    0.000000    0.000000  -98.971486   28.317528   -7.227605  117.688095
  0.050460922    0.000000    0.000000    0.000000    0.000000 -100.018742   19.092123   -7.225677  117.445305
  0.050661323    0.000000    0.000000    0.000000    0.000000  -98.857770   38.859055   -7.226145  117.198395
  0.050861723    0.000000    0.000000    0.000000    0.000000  -99.588986   37.762329   -7.223854  116.942772
  0.051062124    0.000000    0.000000    0.000000    0.000000 -101.084504   29.207088   -7.226617  116.721855
  0.051262525    0.000000    0.000000    0.000000    0.000000 -100.350978   35.138386   -7.224139  116.475761
  0.051462926    0.000000    0.000000    0.000000    0.000000  -99.604449   40.370941   -7.222366  116.226883
  0.051663327    0.000000    0.000000    0.000000    0.000000 -102.245551   45.956776   -7.223326  115.970749
  0.051863727    0.000000    0.000000    0.000000    0.000000  -99.243998   35.889633   -7.221253  115.724907
  0.052064128    0.000000    0.000000    0.000000    0.000000  -99.946629   41.971672   -7.222023  115.508896
  0.052264529    0.000000    0.000000    0.000000    0.000000  -99.151223   43.416088   -7.221899  115.265984
  0.052464930    0.000000    0.000000    0.000000    0.000000  -99.739276   36.211193   -7.220693  115.014717
  0.052665331    0.000000    0.000000    0.000000    0.000000  -98.623135   38.112022   -7.221803  114.773270
  0.052865731    0.000000    0.000000    0.000000    0.000000  -99.934554   42.919231   -7.220840  114.530312
