! Anritsu VNA Master:                     Model: MS2036C/10/77
! SN:                                  1601066
! /bd0/18may12.cable.cal/uu.50.s2p
! Existing Calibration Information:
! TYPE:                         Current Settings,       Active Cal Settings
! TIME:             	   05/12/2018 01:59:09 PM,    05/12/2018 01:41:40 PM
! INTERNAL TEMP:    	                   49.0 C,                    49.0 C
! # POINTS:         	                      500,                       500
! START FREQ:       	               20.000 MHz,                20.000 MHz
! STOP FREQ:        	              120.000 MHz,               120.000 MHz
! SOURCE POWER:     	                     High,                      High
! IFBW:             	                    50 Hz,                     50 Hz
! AVG FACTOR:       	                       1 ,                        1 
! REF PLANE 1:      	                     0 mm,                      0 mm
! REF PLANE 2:      	                     0 mm,                      0 mm
! CAL TYPE:         	                 Full S22,                  Full S22
! CAL METHOD:       	                     SOLT,                      SOLT
! CAL LINE TYPE:    	                     Coax,                      Coax
! DUT PORT 1:       	                K-Conn(M),                 K-Conn(M)
! DUT PORT 2:       	                K-Conn(M),                 K-Conn(M)
! CAL STATUS:       	        OK: Accuracy High,                        --
# GHZ S DB R 50.0
! FREQ.GHZ       S11DB        S11A       S21DB        S21A       S12DB        S12A       S22DB        S22A
  0.020000000    0.000000    0.000000    0.000000    0.000000  -89.676696   40.471104  -39.092077   53.467609
  0.020200401    0.000000    0.000000    0.000000    0.000000  -89.790211   44.123924  -39.136740   53.316612
  0.020400802    0.000000    0.000000    0.000000    0.000000  -90.086795   44.121960  -39.131570   52.859932
  0.020601202    0.000000    0.000000    0.000000    0.000000  -90.521000   41.020710  -38.970069   52.853203
  0.020801603    0.000000    0.000000    0.000000    0.000000  -90.267124   41.466629  -38.992788   53.090633
  0.021002004    0.000000    0.000000    0.000000    0.000000  -90.306871   42.446991  -38.932655   52.692638
  0.021202405    0.000000    0.000000    0.000000    0.000000  -90.533758   38.104340  -38.902630   52.899895
  0.021402806    0.000000    0.000000    0.000000    0.000000  -90.650508   40.703598  -38.818261   52.790070
  0.021603206    0.000000    0.000000    0.000000    0.000000  -90.738454   37.667732  -38.759227   52.250679
  0.021803607    0.000000    0.000000    0.000000    0.000000  -90.787772   39.381474  -38.669787   52.082161
  0.022004008    0.000000    0.000000    0.000000    0.000000  -90.860618   36.395115  -38.610926   52.237297
  0.022204409    0.000000    0.000000    0.000000    0.000000  -90.908920   38.530369  -38.541118   51.797203
  0.022404810    0.000000    0.000000    0.000000    0.000000  -91.176684   41.199783  -38.553555   52.289867
  0.022605210    0.000000    0.000000    0.000000    0.000000  -91.285455   35.328823  -38.444406   51.905319
  0.022805611    0.000000    0.000000    0.000000    0.000000  -91.657695   33.542583  -38.408894   51.858288
  0.023006012    0.000000    0.000000    0.000000    0.000000  -91.239705   38.237770  -38.402392   51.934040
  0.023206413    0.000000    0.000000    0.000000    0.000000  -91.742546   37.369419  -38.245239   51.939522
  0.023406814    0.000000    0.000000    0.000000    0.000000  -91.469639   34.835052  -38.190387   51.456856
  0.023607214    0.000000    0.000000    0.000000    0.000000  -92.083155   34.321003  -38.164793   51.571438
  0.023807615    0.000000    0.000000    0.000000    0.000000  -91.884337   32.044846  -38.110115   51.358448
  0.024008016    0.000000    0.000000    0.000000    0.000000  -91.514331   33.119530  -38.075817   51.784695
  0.024208417    0.000000    0.000000    0.000000    0.000000  -92.363054   31.528194  -38.016564   51.526581
  0.024408818    0.000000    0.000000    0.000000    0.000000  -91.665677   32.141415  -37.910543   51.062008
  0.024609218    0.000000    0.000000    0.000000    0.000000  -92.642901   30.661938  -37.925316   50.980255
  0.024809619    0.000000    0.000000    0.000000    0.000000  -92.555770   31.986128  -37.822988   50.831955
  0.025010020    0.000000    0.000000    0.000000    0.000000  -91.988495   33.449730  -37.811975   51.197254
  0.025210421    0.000000    0.000000    0.000000    0.000000  -92.483059   31.599369  -37.770492   50.565910
  0.025410822    0.000000    0.000000    0.000000    0.000000  -92.790305   30.600901  -37.662968   51.118565
  0.025611222    0.000000    0.000000    0.000000    0.000000  -93.424306   28.460966  -37.618233   50.770813
  0.025811623    0.000000    0.000000    0.000000    0.000000  -93.478411   34.244038  -37.617635   50.539310
  0.026012024    0.000000    0.000000    0.000000    0.000000  -92.678827   31.962219  -37.559484   50.415390
  0.026212425    0.000000    0.000000    0.000000    0.000000  -93.314103   31.730770  -37.557691   50.525429
  0.026412826    0.000000    0.000000    0.000000    0.000000  -93.605095   31.172512  -37.475848   50.067299
  0.026613226    0.000000    0.000000    0.000000    0.000000  -92.798138   31.580050  -37.408470   50.522842
  0.026813627    0.000000    0.000000    0.000000    0.000000  -93.212727   30.580479  -37.402417   50.201492
  0.027014028    0.000000    0.000000    0.000000    0.000000  -93.833451   29.091696  -37.293527   50.179138
  0.027214429    0.000000    0.000000    0.000000    0.000000  -93.863893   29.519770  -37.257974   50.113815
  0.027414830    0.000000    0.000000    0.000000    0.000000  -93.063639   26.257044  -37.201684   49.557629
  0.027615230    0.000000    0.000000    0.000000    0.000000  -94.103369   31.258047  -37.187884   49.864662
  0.027815631    0.000000    0.000000    0.000000    0.000000  -93.171916   28.403496  -37.144333   49.803139
  0.028016032    0.000000    0.000000    0.000000    0.000000  -93.892125   27.900658  -37.113170   49.911880
  0.028216433    0.000000    0.000000    0.000000    0.000000  -93.900775   29.302803  -37.063820   49.709408
  0.028416834    0.000000    0.000000    0.000000    0.000000  -94.236969   27.928173  -37.025365   49.439289
  0.028617234    0.000000    0.000000    0.000000    0.000000  -93.925531   30.387005  -36.980095   49.237347
  0.028817635    0.000000    0.000000    0.000000    0.000000  -94.044295   30.204193  -36.940882   49.319351
  0.029018036    0.000000    0.000000    0.000000    0.000000  -94.183091   29.954529  -36.854023   49.381851
  0.029218437    0.000000    0.000000    0.000000    0.000000  -94.635385   34.627193  -36.802738   49.074188
  0.029418838    0.000000    0.000000    0.000000    0.000000  -94.882274   27.941265  -36.755361   48.836285
  0.029619238    0.000000    0.000000    0.000000    0.000000  -94.671901   25.409575  -36.751772   48.835567
  0.029819639    0.000000    0.000000    0.000000    0.000000  -94.469312   28.841908  -36.708440   48.924282
  0.030020040    0.000000    0.000000    0.000000    0.000000  -94.876867   28.428308  -36.666967   48.736282
  0.030220441    0.000000    0.000000    0.000000    0.000000  -94.898401   29.179968  -36.566138   48.851559
  0.030420842    0.000000    0.000000    0.000000    0.000000  -94.885783   23.385305  -36.558325   48.418343
  0.030621242    0.000000    0.000000    0.000000    0.000000  -94.758586   24.391047  -36.565625   48.380798
  0.030821643    0.000000    0.000000    0.000000    0.000000  -95.809518   26.957180  -36.464905   48.267357
  0.031022044    0.000000    0.000000    0.000000    0.000000  -95.274306   31.702251  -36.424613   48.119141
  0.031222445    0.000000    0.000000    0.000000    0.000000  -94.815702   17.600960  -36.366923   47.811165
  0.031422846    0.000000    0.000000    0.000000    0.000000  -94.575933   25.907206  -36.285026   48.269638
  0.031623246    0.000000    0.000000    0.000000    0.000000  -95.015531   25.724850  -36.339108   47.736176
  0.031823647    0.000000    0.000000    0.000000    0.000000  -94.328490   19.123505  -36.251698   47.972485
  0.032024048    0.000000    0.000000    0.000000    0.000000  -94.684107   21.945183  -36.203917   47.539322
  0.032224449    0.000000    0.000000    0.000000    0.000000  -95.477255   23.203802  -36.158247   47.356888
  0.032424850    0.000000    0.000000    0.000000    0.000000  -96.119632   24.239210  -36.187792   47.559448
  0.032625251    0.000000    0.000000    0.000000    0.000000  -95.140281   21.174713  -36.103989   47.356705
  0.032825651    0.000000    0.000000    0.000000    0.000000  -96.762233   27.186172  -36.057832   47.019985
  0.033026052    0.000000    0.000000    0.000000    0.000000  -95.737429   27.439447  -36.031407   47.105240
  0.033226453    0.000000    0.000000    0.000000    0.000000  -95.059849   24.117290  -35.967074   46.902409
  0.033426854    0.000000    0.000000    0.000000    0.000000  -95.443964   23.902281  -35.916350   46.999241
  0.033627255    0.000000    0.000000    0.000000    0.000000  -96.173696   24.199224  -35.868253   46.832512
  0.033827655    0.000000    0.000000    0.000000    0.000000  -95.369873   22.329290  -35.856551   46.538498
  0.034028056    0.000000    0.000000    0.000000    0.000000  -95.660873   21.090775  -35.841823   46.607956
  0.034228457    0.000000    0.000000    0.000000    0.000000  -96.185361   21.570126  -35.804837   46.604626
  0.034428858    0.000000    0.000000    0.000000    0.000000  -96.429978   17.631586  -35.761406   46.263004
  0.034629259    0.000000    0.000000    0.000000    0.000000  -95.844223   24.317812  -35.710183   46.277096
  0.034829659    0.000000    0.000000    0.000000    0.000000  -96.258814   23.678028  -35.717589   46.105179
  0.035030060    0.000000    0.000000    0.000000    0.000000  -96.635545   18.022739  -35.680667   45.813148
  0.035230461    0.000000    0.000000    0.000000    0.000000  -96.468596   21.661442  -35.611753   45.911846
  0.035430862    0.000000    0.000000    0.000000    0.000000  -96.536386   28.033161  -35.598015   45.796173
  0.035631263    0.000000    0.000000    0.000000    0.000000  -96.221315   21.243986  -35.566071   45.568542
  0.035831663    0.000000    0.000000    0.000000    0.000000  -96.421807   20.815817  -35.482204   45.773582
  0.036032064    0.000000    0.000000    0.000000    0.000000  -96.997441   24.336500  -35.489969   45.552975
  0.036232465    0.000000    0.000000    0.000000    0.000000  -96.638081   23.068640  -35.409019   45.317387
  0.036432866    0.000000    0.000000    0.000000    0.000000  -97.045072   22.453094  -35.323674   45.268875
  0.036633267    0.000000    0.000000    0.000000    0.000000  -96.413232   21.410887  -35.353441   44.726639
  0.036833667    0.000000    0.000000    0.000000    0.000000  -97.303380   25.702534  -35.293008   45.452209
  0.037034068    0.000000    0.000000    0.000000    0.000000  -97.568995   29.213345  -35.263318   45.060352
  0.037234469    0.000000    0.000000    0.000000    0.000000  -97.048154   34.139244  -35.293259   44.794983
  0.037434870    0.000000    0.000000    0.000000    0.000000  -98.052040   23.824436  -35.217415   44.637680
  0.037635271    0.000000    0.000000    0.000000    0.000000  -96.356275   18.545013  -35.194246   44.980198
  0.037835671    0.000000    0.000000    0.000000    0.000000  -97.840182   36.062698  -35.150202   44.666431
  0.038036072    0.000000    0.000000    0.000000    0.000000  -98.833489   21.150314  -35.121995   44.533962
  0.038236473    0.000000    0.000000    0.000000    0.000000  -97.147728   37.214619  -35.111164   44.614391
  0.038436874    0.000000    0.000000    0.000000    0.000000  -96.667408   29.165977  -35.051863   44.006630
  0.038637275    0.000000    0.000000    0.000000    0.000000  -97.432106   23.896244  -34.939476   44.044746
  0.038837675    0.000000    0.000000    0.000000    0.000000  -97.893894   24.018915  -34.995045   43.963234
  0.039038076    0.000000    0.000000    0.000000    0.000000  -97.564258   22.879541  -34.991986   44.006851
  0.039238477    0.000000    0.000000    0.000000    0.000000  -96.715318   26.418676  -34.904272   43.950123
  0.039438878    0.000000    0.000000    0.000000    0.000000  -97.239444   25.938087  -34.878165   43.476883
  0.039639279    0.000000    0.000000    0.000000    0.000000  -98.320946   21.079273  -34.842272   43.707188
  0.039839679    0.000000    0.000000    0.000000    0.000000  -96.869595   27.212950  -34.828717   43.759029
  0.040040080    0.000000    0.000000    0.000000    0.000000  -97.950686   30.153404  -34.793590   43.147770
  0.040240481    0.000000    0.000000    0.000000    0.000000  -97.385870   30.705587  -34.720883   43.262985
  0.040440882    0.000000    0.000000    0.000000    0.000000  -97.590848   29.803806  -34.687736   43.106880
  0.040641283    0.000000    0.000000    0.000000    0.000000  -97.724484   28.761459  -34.714946   43.174400
  0.040841683    0.000000    0.000000    0.000000    0.000000  -98.412035   21.611588  -34.662749   43.102673
  0.041042084    0.000000    0.000000    0.000000    0.000000  -98.147495   23.214054  -34.659835   42.781277
  0.041242485    0.000000    0.000000    0.000000    0.000000  -98.424894   27.693918  -34.585413   42.615005
  0.041442886    0.000000    0.000000    0.000000    0.000000  -98.510284   28.853065  -34.580917   42.426971
  0.041643287    0.000000    0.000000    0.000000    0.000000  -98.338101   33.374744  -34.549768   42.155960
  0.041843687    0.000000    0.000000    0.000000    0.000000  -98.500221   17.858120  -34.520992   42.553661
  0.042044088    0.000000    0.000000    0.000000    0.000000  -97.893559   26.062084  -34.464292   42.116707
  0.042244489    0.000000    0.000000    0.000000    0.000000  -99.674921   29.292772  -34.440110   42.261597
  0.042444890    0.000000    0.000000    0.000000    0.000000  -99.100826   29.142244  -34.435331   42.281914
  0.042645291    0.000000    0.000000    0.000000    0.000000  -98.138586   24.738712  -34.405224   41.912785
  0.042845691    0.000000    0.000000    0.000000    0.000000  -98.514016   29.144234  -34.378267   42.013474
  0.043046092    0.000000    0.000000    0.000000    0.000000  -97.559788   23.172405  -34.345286   41.696396
  0.043246493    0.000000    0.000000    0.000000    0.000000  -98.801377   23.084599  -34.295129   41.461010
  0.043446894    0.000000    0.000000    0.000000    0.000000  -99.026721   27.871475  -34.267633   41.498226
  0.043647295    0.000000    0.000000    0.000000    0.000000  -97.918941   24.150177  -34.251633   41.306553
  0.043847695    0.000000    0.000000    0.000000    0.000000  -97.845941   21.695219  -34.227624   41.341831
  0.044048096    0.000000    0.000000    0.000000    0.000000  -98.319105   21.850859  -34.156541   41.030632
  0.044248497    0.000000    0.000000    0.000000    0.000000  -98.303090   27.726387  -34.156231   40.921970
  0.044448898    0.000000    0.000000    0.000000    0.000000  -99.241392   35.578518  -34.129361   41.052971
  0.044649299    0.000000    0.000000    0.000000    0.000000  -99.581653   37.065304  -34.150228   40.959587
  0.044849699    0.000000    0.000000    0.000000    0.000000  -97.810346   33.456749  -34.094848   40.660309
  0.045050100    0.000000    0.000000    0.000000    0.000000  -99.693404   32.201523  -34.062645   40.509624
  0.045250501    0.000000    0.000000    0.000000    0.000000  -98.024653   33.775578  -34.020519   40.450748
  0.045450902    0.000000    0.000000    0.000000    0.000000  -98.082934   26.908915  -34.018503   40.358921
  0.045651303    0.000000    0.000000    0.000000    0.000000  -99.157019   26.369631  -33.988844   40.076859
  0.045851703    0.000000    0.000000    0.000000    0.000000  -99.184851   27.506525  -33.971075   40.183014
  0.046052104    0.000000    0.000000    0.000000    0.000000  -98.934660   28.434357  -33.935501   39.983669
  0.046252505    0.000000    0.000000    0.000000    0.000000  -99.832651   16.697199  -33.898581   39.962486
  0.046452906    0.000000    0.000000    0.000000    0.000000  -98.689267   31.540075  -33.886864   39.763439
  0.046653307    0.000000    0.000000    0.000000    0.000000  -99.090126   25.766396  -33.852985   39.468655
  0.046853707    0.000000    0.000000    0.000000    0.000000  -97.722560   29.768919  -33.845321   39.486973
  0.047054108    0.000000    0.000000    0.000000    0.000000  -99.910917   26.160803  -33.724149   39.560020
  0.047254509    0.000000    0.000000    0.000000    0.000000  -98.512030   30.599804  -33.793853   39.311844
  0.047454910    0.000000    0.000000    0.000000    0.000000 -100.300535   26.598843  -33.739003   39.472298
  0.047655311    0.000000    0.000000    0.000000    0.000000  -98.856286   31.056492  -33.718475   39.086117
  0.047855711    0.000000    0.000000    0.000000    0.000000  -99.088027   34.946548  -33.718557   38.895912
  0.048056112    0.000000    0.000000    0.000000    0.000000  -99.818717   36.021797  -33.710559   38.921890
  0.048256513    0.000000    0.000000    0.000000    0.000000  -98.309334   38.068153  -33.689583   38.612595
  0.048456914    0.000000    0.000000    0.000000    0.000000  -98.160763   40.437157  -33.652315   38.657135
  0.048657315    0.000000    0.000000    0.000000    0.000000  -99.397757   24.479994  -33.622372   38.502396
  0.048857715    0.000000    0.000000    0.000000    0.000000  -98.916775   37.030170  -33.588141   38.130909
  0.049058116    0.000000    0.000000    0.000000    0.000000  -99.542004   22.192167  -33.543281   38.254349
  0.049258517    0.000000    0.000000    0.000000    0.000000  -98.899974   40.625336  -33.557104   38.081867
  0.049458918    0.000000    0.000000    0.000000    0.000000  -98.797494   31.496796  -33.523672   38.067909
  0.049659319    0.000000    0.000000    0.000000    0.000000  -99.950487   35.328896  -33.467129   37.890499
  0.049859719    0.000000    0.000000    0.000000    0.000000  -97.813677   32.949020  -33.414068   37.535450
  0.050060120    0.000000    0.000000    0.000000    0.000000  -98.849250   28.642923  -33.456550   37.727711
  0.050260521    0.000000    0.000000    0.000000    0.000000  -98.671557   39.091690  -33.408847   37.439701
  0.050460922    0.000000    0.000000    0.000000    0.000000  -99.201755   28.829491  -33.393977   37.281517
  0.050661323    0.000000    0.000000    0.000000    0.000000  -99.209476   28.934195  -33.362194   37.388885
  0.050861723    0.000000    0.000000    0.000000    0.000000 -100.370422   38.224892  -33.321544   37.051823
  0.051062124    0.000000    0.000000    0.000000    0.000000  -99.601428   33.029282  -33.334662   37.084545
  0.051262525    0.000000    0.000000    0.000000    0.000000  -99.990961   37.777458  -33.297206   36.899082
  0.051462926    0.000000    0.000000    0.000000    0.000000  -98.463790   30.526114  -33.244956   36.742641
  0.051663327    0.000000    0.000000    0.000000    0.000000  -98.644914   26.494858  -33.247619   36.538151
  0.051863727    0.000000    0.000000    0.000000    0.000000  -98.063408   32.473034  -33.221073   36.636402
  0.052064128    0.000000    0.000000    0.000000    0.000000  -98.725532   37.477688  -33.227972   36.583511
  0.052264529    0.000000    0.000000    0.000000    0.000000  -99.838833   42.862495  -33.165613   36.112450
  0.052464930    0.000000    0.000000    0.000000    0.000000  -99.223614   24.252552  -33.188176   36.204063
  0.052665331    0.000000    0.000000    0.000000    0.000000  -96.917510   37.064526  -33.153226   36.043556
  0.052865731    0.000000    0.000000    0.000000    0.000000  -99.044921   30.097288  -33.084456   35.794086
