! Anritsu VNA Master:                     Model: MS2036C/10/77
! SN:                                  1601066
! /bd0/18may09/254.ns.m8.s2p
! Existing Calibration Information:
! TYPE:                         Current Settings,       Active Cal Settings
! TIME:             	   05/09/2018 01:01:12 PM,    05/09/2018 12:54:36 PM
! INTERNAL TEMP:    	                   58.5 C,                    58.3 C
! # POINTS:         	                      494,                       494
! START FREQ:       	               20.000 MHz,                20.000 MHz
! STOP FREQ:        	          118.797 594 MHz,           118.797 594 MHz
! SOURCE POWER:     	                     High,                      High
! IFBW:             	                    50 Hz,                     50 Hz
! AVG FACTOR:       	                       1 ,                        1 
! REF PLANE 1:      	                     0 mm,                      0 mm
! REF PLANE 2:      	                     0 mm,                      0 mm
! CAL TYPE:         	                 Full S22,                  Full S22
! CAL METHOD:       	                     SOLT,                      SOLT
! CAL LINE TYPE:    	                     Coax,                      Coax
! DUT PORT 1:       	                K-Conn(M),                 K-Conn(M)
! DUT PORT 2:       	                K-Conn(M),                 K-Conn(M)
! CAL STATUS:       	        OK: Accuracy High,                        --
# GHZ S DB R 50.0
! FREQ.GHZ       S11DB        S11A       S21DB        S21A       S12DB        S12A       S22DB        S22A
  0.020000000    0.000000    0.000000    0.000000    0.000000  -89.392624   33.869019   -0.629222 -126.749191
  0.020200401    0.000000    0.000000    0.000000    0.000000  -89.642684   33.833107   -0.632195 -128.216232
  0.020400802    0.000000    0.000000    0.000000    0.000000  -90.144892   34.792397   -0.637653 -129.706802
  0.020601202    0.000000    0.000000    0.000000    0.000000  -90.198689   30.132780   -0.640895 -131.206940
  0.020801603    0.000000    0.000000    0.000000    0.000000  -90.968707   34.083893   -0.644843 -132.746429
  0.021002004    0.000000    0.000000    0.000000    0.000000  -91.221337   30.768127   -0.645768 -134.297440
  0.021202405    0.000000    0.000000    0.000000    0.000000  -91.223722   34.380173   -0.650626 -135.844955
  0.021402806    0.000000    0.000000    0.000000    0.000000  -91.618930   35.509407   -0.653253 -137.385590
  0.021603206    0.000000    0.000000    0.000000    0.000000  -91.612234   38.246361   -0.656755 -138.929153
  0.021803607    0.000000    0.000000    0.000000    0.000000  -92.013680   37.009666   -0.661592 -140.488480
  0.022004008    0.000000    0.000000    0.000000    0.000000  -91.240974   39.160610   -0.666471 -142.035583
  0.022204409    0.000000    0.000000    0.000000    0.000000  -91.375245   38.652813   -0.673101 -143.612488
  0.022404810    0.000000    0.000000    0.000000    0.000000  -91.746526   42.987244   -0.681438 -145.198975
  0.022605210    0.000000    0.000000    0.000000    0.000000  -91.893197   41.266106   -0.686086 -146.808456
  0.022805611    0.000000    0.000000    0.000000    0.000000  -91.344303   39.058155   -0.688770 -148.428604
  0.023006012    0.000000    0.000000    0.000000    0.000000  -90.916705   41.141487   -0.693174 -150.034851
  0.023206413    0.000000    0.000000    0.000000    0.000000  -91.609444   42.136887   -0.699979 -151.631927
  0.023406814    0.000000    0.000000    0.000000    0.000000  -91.550927   40.723396   -0.705947 -153.226944
  0.023607214    0.000000    0.000000    0.000000    0.000000  -91.666279   42.408806   -0.715963 -154.832626
  0.023807615    0.000000    0.000000    0.000000    0.000000  -91.091403   41.714645   -0.724080 -156.464554
  0.024008016    0.000000    0.000000    0.000000    0.000000  -91.519638   37.566170   -0.732348 -158.117859
  0.024208417    0.000000    0.000000    0.000000    0.000000  -91.048535   34.829967   -0.741029 -159.758179
  0.024408818    0.000000    0.000000    0.000000    0.000000  -91.034362   34.015331   -0.748078 -161.437515
  0.024609218    0.000000    0.000000    0.000000    0.000000  -91.308574   31.218441   -0.754277 -163.100647
  0.024809619    0.000000    0.000000    0.000000    0.000000  -91.524796   30.930536   -0.764037 -164.770660
  0.025010020    0.000000    0.000000    0.000000    0.000000  -92.215036   25.828365   -0.773308 -166.449051
  0.025210421    0.000000    0.000000    0.000000    0.000000  -92.216793   29.989906   -0.783717 -168.141922
  0.025410822    0.000000    0.000000    0.000000    0.000000  -92.423683   25.831554   -0.792897 -169.839615
  0.025611222    0.000000    0.000000    0.000000    0.000000  -92.038887   23.869085   -0.804027 -171.566986
  0.025811623    0.000000    0.000000    0.000000    0.000000  -92.308370   25.048460   -0.814547 -173.287766
  0.026012024    0.000000    0.000000    0.000000    0.000000  -92.924240   25.470417   -0.824623 -175.041733
  0.026212425    0.000000    0.000000    0.000000    0.000000  -93.502047   23.523769   -0.836633 -176.793747
  0.026412826    0.000000    0.000000    0.000000    0.000000  -93.307014   21.618134   -0.849735 -178.564468
  0.026613226    0.000000    0.000000    0.000000    0.000000  -93.450574   24.858175   -0.862507  179.667816
  0.026813627    0.000000    0.000000    0.000000    0.000000  -93.719008   26.446934   -0.878068  177.885468
  0.027014028    0.000000    0.000000    0.000000    0.000000  -93.987442   26.171799   -0.894215  176.098450
  0.027214429    0.000000    0.000000    0.000000    0.000000  -93.596444   28.498903   -0.907904  174.305466
  0.027414830    0.000000    0.000000    0.000000    0.000000  -94.335672   27.516685   -0.923815  172.501129
  0.027615230    0.000000    0.000000    0.000000    0.000000  -94.104016   28.151964   -0.940467  170.670380
  0.027815631    0.000000    0.000000    0.000000    0.000000  -94.289028   26.942932   -0.958984  168.858307
  0.028016032    0.000000    0.000000    0.000000    0.000000  -94.779622   27.103863   -0.976045  167.008392
  0.028216433    0.000000    0.000000    0.000000    0.000000  -94.263097   27.407858   -0.994389  165.159286
  0.028416834    0.000000    0.000000    0.000000    0.000000  -95.160897   29.764168   -1.015374  163.305939
  0.028617234    0.000000    0.000000    0.000000    0.000000  -94.451222   29.578373   -1.034894  161.432632
  0.028817635    0.000000    0.000000    0.000000    0.000000  -94.960963   32.506638   -1.055324  159.573547
  0.029018036    0.000000    0.000000    0.000000    0.000000  -94.302805   30.761765   -1.077718  157.706528
  0.029218437    0.000000    0.000000    0.000000    0.000000  -94.117723   35.638950   -1.101355  155.832214
  0.029418838    0.000000    0.000000    0.000000    0.000000  -94.253202   30.978590   -1.126306  153.927368
  0.029619238    0.000000    0.000000    0.000000    0.000000  -94.500890   31.450491   -1.151306  152.021957
  0.029819639    0.000000    0.000000    0.000000    0.000000  -93.962648   28.098759   -1.176764  150.106186
  0.030020040    0.000000    0.000000    0.000000    0.000000  -94.172008   26.263067   -1.203517  148.191513
  0.030220441    0.000000    0.000000    0.000000    0.000000  -94.312030   28.436768   -1.229886  146.259476
  0.030420842    0.000000    0.000000    0.000000    0.000000  -94.319472   26.833597   -1.257236  144.356583
  0.030621242    0.000000    0.000000    0.000000    0.000000  -93.897675   24.094929   -1.285402  142.436615
  0.030821643    0.000000    0.000000    0.000000    0.000000  -94.554941   26.295042   -1.317665  140.506378
  0.031022044    0.000000    0.000000    0.000000    0.000000  -94.332713   19.590509   -1.348883  138.562424
  0.031222445    0.000000    0.000000    0.000000    0.000000  -94.328063   15.738178   -1.372425  136.622787
  0.031422846    0.000000    0.000000    0.000000    0.000000  -93.975289   17.997543   -1.406102  134.640656
  0.031623246    0.000000    0.000000    0.000000    0.000000  -93.597078   16.696959   -1.438665  132.655960
  0.031823647    0.000000    0.000000    0.000000    0.000000  -94.618289   20.623497   -1.472261  130.669067
  0.032024048    0.000000    0.000000    0.000000    0.000000  -94.710958   20.266102   -1.505806  128.678467
  0.032224449    0.000000    0.000000    0.000000    0.000000  -95.773350   16.306940   -1.543343  126.688904
  0.032424850    0.000000    0.000000    0.000000    0.000000  -94.632191   16.487085   -1.578604  124.680702
  0.032625250    0.000000    0.000000    0.000000    0.000000  -95.427557   14.835849   -1.614171  122.654526
  0.032825651    0.000000    0.000000    0.000000    0.000000  -96.185876   12.391043   -1.650870  120.625618
  0.033026052    0.000000    0.000000    0.000000    0.000000  -95.761434   23.335911   -1.683648  118.584351
  0.033226453    0.000000    0.000000    0.000000    0.000000  -96.363049   19.775711   -1.721801  116.529503
  0.033426854    0.000000    0.000000    0.000000    0.000000  -96.677683   23.128080   -1.758507  114.492569
  0.033627254    0.000000    0.000000    0.000000    0.000000  -96.115489   28.955374   -1.795132  112.441284
  0.033827655    0.000000    0.000000    0.000000    0.000000  -95.189893   18.343306   -1.834083  110.397324
  0.034028056    0.000000    0.000000    0.000000    0.000000  -96.977153   26.806440   -1.871188  108.358963
  0.034228457    0.000000    0.000000    0.000000    0.000000  -97.432380   22.475689   -1.911514  106.294403
  0.034428858    0.000000    0.000000    0.000000    0.000000  -96.621077   23.927143   -1.955191  104.234390
  0.034629258    0.000000    0.000000    0.000000    0.000000  -96.922257   16.796854   -1.994971  102.144508
  0.034829659    0.000000    0.000000    0.000000    0.000000  -96.788655   32.905556   -2.036244  100.069931
  0.035030060    0.000000    0.000000    0.000000    0.000000  -95.877600   25.864552   -2.082475   97.981812
  0.035230461    0.000000    0.000000    0.000000    0.000000  -97.192214   29.280523   -2.126017   95.907814
  0.035430862    0.000000    0.000000    0.000000    0.000000  -96.464331   24.638416   -2.171871   93.820953
  0.035631262    0.000000    0.000000    0.000000    0.000000  -96.835573   30.479042   -2.219780   91.728668
  0.035831663    0.000000    0.000000    0.000000    0.000000  -96.664373   25.801447   -2.265724   89.646500
  0.036032064    0.000000    0.000000    0.000000    0.000000  -96.686862   24.840149   -2.312406   87.555481
  0.036232465    0.000000    0.000000    0.000000    0.000000  -95.771760   28.082895   -2.358683   85.476097
  0.036432866    0.000000    0.000000    0.000000    0.000000  -96.600370   19.354361   -2.408853   83.370010
  0.036633266    0.000000    0.000000    0.000000    0.000000  -95.986218   27.865923   -2.459780   81.293846
  0.036833667    0.000000    0.000000    0.000000    0.000000  -95.703146    8.407716   -2.511497   79.177513
  0.037034068    0.000000    0.000000    0.000000    0.000000  -97.144054   22.541939   -2.563388   77.080467
  0.037234469    0.000000    0.000000    0.000000    0.000000  -96.797600   16.703760   -2.614208   74.963425
  0.037434870    0.000000    0.000000    0.000000    0.000000  -97.253036   26.067436   -2.666762   72.872215
  0.037635270    0.000000    0.000000    0.000000    0.000000  -96.399950   21.626904   -2.722667   70.742996
  0.037835671    0.000000    0.000000    0.000000    0.000000  -97.504029   25.251104   -2.785645   68.620789
  0.038036072    0.000000    0.000000    0.000000    0.000000  -97.825778   23.573858   -2.849496   66.564056
  0.038236473    0.000000    0.000000    0.000000    0.000000  -97.831899   26.919361   -2.903595   64.496468
  0.038436874    0.000000    0.000000    0.000000    0.000000  -97.279042   23.027845   -2.958843   62.391842
  0.038637274    0.000000    0.000000    0.000000    0.000000  -98.734728   13.868764   -3.012818   60.301929
  0.038837675    0.000000    0.000000    0.000000    0.000000  -98.062670   28.600842   -3.064613   58.214897
  0.039038076    0.000000    0.000000    0.000000    0.000000  -97.690968   22.576979   -3.117770   56.139099
  0.039238477    0.000000    0.000000    0.000000    0.000000  -97.853836   26.033318   -3.169134   54.050648
  0.039438878    0.000000    0.000000    0.000000    0.000000  -98.737637   28.038416   -3.224314   51.990520
  0.039639278    0.000000    0.000000    0.000000    0.000000  -97.371818   18.753262   -3.276732   49.929199
  0.039839679    0.000000    0.000000    0.000000    0.000000  -99.053812   28.741142   -3.330209   47.840454
  0.040040080    0.000000    0.000000    0.000000    0.000000  -98.004768   23.629471   -3.381596   45.761791
  0.040240481    0.000000    0.000000    0.000000    0.000000  -96.933652   29.020447   -3.430430   43.698441
  0.040440882    0.000000    0.000000    0.000000    0.000000  -98.333632   32.991116   -3.482521   41.650372
  0.040641283    0.000000    0.000000    0.000000    0.000000  -98.497437   26.781099   -3.531251   39.616375
  0.040841683    0.000000    0.000000    0.000000    0.000000  -98.834454   26.652794   -3.579684   37.583744
  0.041042084    0.000000    0.000000    0.000000    0.000000  -97.407003   24.849728   -3.634086   35.575214
  0.041242485    0.000000    0.000000    0.000000    0.000000  -98.520864   30.595207   -3.682641   33.542313
  0.041442886    0.000000    0.000000    0.000000    0.000000  -98.453446   25.230200   -3.733898   31.515541
  0.041643287    0.000000    0.000000    0.000000    0.000000  -98.036349   22.923553   -3.779336   29.499327
  0.041843687    0.000000    0.000000    0.000000    0.000000  -98.264310   18.429890   -3.829517   27.476156
  0.042044088    0.000000    0.000000    0.000000    0.000000  -98.136270   22.691359   -3.875796   25.474382
  0.042244489    0.000000    0.000000    0.000000    0.000000  -98.913808   31.221914   -3.923945   23.465126
  0.042444890    0.000000    0.000000    0.000000    0.000000  -98.702237   21.658834   -3.971585   21.493931
  0.042645291    0.000000    0.000000    0.000000    0.000000  -98.145572   23.068247   -4.020427   19.497667
  0.042845691    0.000000    0.000000    0.000000    0.000000  -98.559472   23.674763   -4.069566   17.533594
  0.043046092    0.000000    0.000000    0.000000    0.000000  -98.448344   25.297010   -4.115869   15.551516
  0.043246493    0.000000    0.000000    0.000000    0.000000  -98.646873   28.804028   -4.162904   13.570587
  0.043446894    0.000000    0.000000    0.000000    0.000000  -98.995105   24.100525   -4.205824   11.608492
  0.043647295    0.000000    0.000000    0.000000    0.000000  -98.404103   24.919434   -4.249674    9.643757
  0.043847695    0.000000    0.000000    0.000000    0.000000  -99.103921   29.357994   -4.293817    7.704145
  0.044048096    0.000000    0.000000    0.000000    0.000000  -98.740943   27.625616   -4.338726    5.744462
  0.044248497    0.000000    0.000000    0.000000    0.000000  -99.838819   33.444054   -4.381652    3.811809
  0.044448898    0.000000    0.000000    0.000000    0.000000  -98.460819   34.209076   -4.425728    1.906309
  0.044649299    0.000000    0.000000    0.000000    0.000000  -99.030433   38.806965   -4.467327   -0.019450
  0.044849699    0.000000    0.000000    0.000000    0.000000  -99.127873   30.781092   -4.507677   -1.925167
  0.045050100    0.000000    0.000000    0.000000    0.000000  -99.034633   23.704077   -4.546429   -3.833447
  0.045250501    0.000000    0.000000    0.000000    0.000000  -98.779233   32.000874   -4.582975   -5.723165
  0.045450902    0.000000    0.000000    0.000000    0.000000  -99.301277   24.343807   -4.620422   -7.614204
  0.045651303    0.000000    0.000000    0.000000    0.000000 -100.211414   31.160442   -4.658900   -9.507754
  0.045851703    0.000000    0.000000    0.000000    0.000000  -97.726182   43.282936   -4.692251  -11.373248
  0.046052104    0.000000    0.000000    0.000000    0.000000  -98.319311   28.317539   -4.725426  -13.230599
  0.046252505    0.000000    0.000000    0.000000    0.000000  -99.495917   27.522743   -4.762188  -15.052086
  0.046452906    0.000000    0.000000    0.000000    0.000000  -97.729936   30.308506   -4.798253  -16.859709
  0.046653307    0.000000    0.000000    0.000000    0.000000  -97.469129   33.790859   -4.831206  -18.682184
  0.046853707    0.000000    0.000000    0.000000    0.000000  -99.111276   27.057917   -4.863120  -20.505123
  0.047054108    0.000000    0.000000    0.000000    0.000000  -99.323869   24.293636   -4.896975  -22.297503
  0.047254509    0.000000    0.000000    0.000000    0.000000  -99.520248   34.780140   -4.927281  -24.116320
  0.047454910    0.000000    0.000000    0.000000    0.000000  -99.421057   28.396070   -4.954123  -25.906816
  0.047655311    0.000000    0.000000    0.000000    0.000000  -97.209340   26.807108   -4.984493  -27.675076
  0.047855711    0.000000    0.000000    0.000000    0.000000  -98.341598   30.429487   -5.013621  -29.418871
  0.048056112    0.000000    0.000000    0.000000    0.000000  -98.748748   23.910547   -5.046319  -31.170818
  0.048256513    0.000000    0.000000    0.000000    0.000000  -98.870879   35.280132   -5.072108  -32.896309
  0.048456914    0.000000    0.000000    0.000000    0.000000  -99.448175   36.359203   -5.101977  -34.628822
  0.048657315    0.000000    0.000000    0.000000    0.000000  -99.987016   29.462530   -5.128294  -36.346416
  0.048857715    0.000000    0.000000    0.000000    0.000000  -99.883258   24.254997   -5.152446  -38.081688
  0.049058116    0.000000    0.000000    0.000000    0.000000 -100.983824   28.845791   -5.176967  -39.803452
  0.049258517    0.000000    0.000000    0.000000    0.000000  -99.855721   35.369808   -5.202798  -41.493107
  0.049458918    0.000000    0.000000    0.000000    0.000000  -99.521781   35.384239   -5.225090  -43.185726
  0.049659319    0.000000    0.000000    0.000000    0.000000  -99.186431   25.862167   -5.255083  -44.865341
  0.049859719    0.000000    0.000000    0.000000    0.000000  -99.661894   30.830761   -5.274328  -46.566608
  0.050060120    0.000000    0.000000    0.000000    0.000000  -99.706072   33.060726   -5.301110  -48.212132
  0.050260521    0.000000    0.000000    0.000000    0.000000  -99.810048   22.735468   -5.321163  -49.892517
  0.050460922    0.000000    0.000000    0.000000    0.000000  -98.217100   39.056381   -5.341588  -51.554272
  0.050661323    0.000000    0.000000    0.000000    0.000000  -99.420596   31.050026   -5.357468  -53.207794
  0.050861723    0.000000    0.000000    0.000000    0.000000  -99.680493   35.955482   -5.374960  -54.857677
  0.051062124    0.000000    0.000000    0.000000    0.000000  -99.961947   23.967505   -5.392874  -56.491173
  0.051262525    0.000000    0.000000    0.000000    0.000000  -98.491154   28.914118   -5.410855  -58.106388
  0.051462926    0.000000    0.000000    0.000000    0.000000  -98.933241   34.417797   -5.428918  -59.696877
  0.051663327    0.000000    0.000000    0.000000    0.000000  -97.874003   30.748898   -5.446477  -61.302567
  0.051863727    0.000000    0.000000    0.000000    0.000000  -98.842658   28.538206   -5.461893  -62.878517
  0.052064128    0.000000    0.000000    0.000000    0.000000  -98.087041   34.765190   -5.473247  -64.489830
  0.052264529    0.000000    0.000000    0.000000    0.000000  -98.382928   37.682224   -5.482424  -66.054756
  0.052464930    0.000000    0.000000    0.000000    0.000000  -97.569272   23.682348   -5.497024  -67.606148
  0.052665331    0.000000    0.000000    0.000000    0.000000  -98.584518   32.954815   -5.507825  -69.147881
  0.052865731    0.000000    0.000000    0.000000    0.000000  -99.639117   40.175884   -5.518172  -70.681343
