! Anritsu VNA Master:                     Model: MS2036C/10/77
! SN:                                  1601066
! /bd0/18may09/254.ns.m9.s2p
! Existing Calibration Information:
! TYPE:                         Current Settings,       Active Cal Settings
! TIME:             	   05/09/2018 01:03:28 PM,    05/09/2018 12:54:36 PM
! INTERNAL TEMP:    	                   58.5 C,                    58.3 C
! # POINTS:         	                      494,                       494
! START FREQ:       	               20.000 MHz,                20.000 MHz
! STOP FREQ:        	          118.797 594 MHz,           118.797 594 MHz
! SOURCE POWER:     	                     High,                      High
! IFBW:             	                    50 Hz,                     50 Hz
! AVG FACTOR:       	                       1 ,                        1 
! REF PLANE 1:      	                     0 mm,                      0 mm
! REF PLANE 2:      	                     0 mm,                      0 mm
! CAL TYPE:         	                 Full S22,                  Full S22
! CAL METHOD:       	                     SOLT,                      SOLT
! CAL LINE TYPE:    	                     Coax,                      Coax
! DUT PORT 1:       	                K-Conn(M),                 K-Conn(M)
! DUT PORT 2:       	                K-Conn(M),                 K-Conn(M)
! CAL STATUS:       	        OK: Accuracy High,                        --
# GHZ S DB R 50.0
! FREQ.GHZ       S11DB        S11A       S21DB        S21A       S12DB        S12A       S22DB        S22A
  0.020000000    0.000000    0.000000    0.000000    0.000000  -89.752556   31.612772   -0.628320 -126.740677
  0.020200401    0.000000    0.000000    0.000000    0.000000  -89.539087   34.634865   -0.632569 -128.210403
  0.020400802    0.000000    0.000000    0.000000    0.000000  -89.923664   33.035275   -0.637505 -129.702377
  0.020601202    0.000000    0.000000    0.000000    0.000000  -90.398226   32.280521   -0.642461 -131.206467
  0.020801603    0.000000    0.000000    0.000000    0.000000  -90.383425   33.212605   -0.646137 -132.749100
  0.021002004    0.000000    0.000000    0.000000    0.000000  -90.891198   33.375187   -0.646435 -134.296387
  0.021202405    0.000000    0.000000    0.000000    0.000000  -91.522367   33.286003   -0.651943 -135.853989
  0.021402806    0.000000    0.000000    0.000000    0.000000  -91.945634   35.975628   -0.654547 -137.407288
  0.021603206    0.000000    0.000000    0.000000    0.000000  -91.531151   40.385658   -0.657601 -138.944214
  0.021803607    0.000000    0.000000    0.000000    0.000000  -91.825372   39.288132   -0.661709 -140.501953
  0.022004008    0.000000    0.000000    0.000000    0.000000  -92.217086   39.510349   -0.667496 -142.052612
  0.022204409    0.000000    0.000000    0.000000    0.000000  -91.744230   38.201595   -0.673558 -143.634033
  0.022404810    0.000000    0.000000    0.000000    0.000000  -92.336892   41.382153   -0.682026 -145.224655
  0.022605210    0.000000    0.000000    0.000000    0.000000  -92.082449   40.087963   -0.685810 -146.831940
  0.022805611    0.000000    0.000000    0.000000    0.000000  -91.646805   43.715149   -0.689233 -148.451706
  0.023006012    0.000000    0.000000    0.000000    0.000000  -91.659612   40.770844   -0.693218 -150.058960
  0.023206413    0.000000    0.000000    0.000000    0.000000  -91.158330   43.070454   -0.699983 -151.664017
  0.023406814    0.000000    0.000000    0.000000    0.000000  -91.072425   37.992157   -0.705708 -153.263855
  0.023607214    0.000000    0.000000    0.000000    0.000000  -91.352048   41.265587   -0.715890 -154.860138
  0.023807615    0.000000    0.000000    0.000000    0.000000  -91.292138   39.833511   -0.725458 -156.484634
  0.024008016    0.000000    0.000000    0.000000    0.000000  -91.308962   39.734768   -0.733276 -158.134949
  0.024208417    0.000000    0.000000    0.000000    0.000000  -91.545737   35.754978   -0.742791 -159.775635
  0.024408818    0.000000    0.000000    0.000000    0.000000  -91.364602   36.893600   -0.749030 -161.446014
  0.024609218    0.000000    0.000000    0.000000    0.000000  -90.967369   31.231173   -0.756246 -163.109436
  0.024809619    0.000000    0.000000    0.000000    0.000000  -91.820243   30.781559   -0.765504 -164.777878
  0.025010020    0.000000    0.000000    0.000000    0.000000  -92.050815   30.633980   -0.775142 -166.435883
  0.025210421    0.000000    0.000000    0.000000    0.000000  -91.752324   25.815422   -0.785878 -168.126495
  0.025410822    0.000000    0.000000    0.000000    0.000000  -92.126140   24.586651   -0.796427 -169.820450
  0.025611222    0.000000    0.000000    0.000000    0.000000  -92.183071   26.310328   -0.806556 -171.533386
  0.025811623    0.000000    0.000000    0.000000    0.000000  -93.055944   24.440361   -0.817278 -173.258316
  0.026012024    0.000000    0.000000    0.000000    0.000000  -92.877323   24.177683   -0.827589 -175.007111
  0.026212425    0.000000    0.000000    0.000000    0.000000  -93.423535   26.178301   -0.838469 -176.754196
  0.026412826    0.000000    0.000000    0.000000    0.000000  -93.385646   22.866074   -0.851768 -178.515274
  0.026613226    0.000000    0.000000    0.000000    0.000000  -93.812323   23.245110   -0.864925  179.715073
  0.026813627    0.000000    0.000000    0.000000    0.000000  -93.954245   23.773548   -0.879776  177.926285
  0.027014028    0.000000    0.000000    0.000000    0.000000  -94.094883   24.433134   -0.895998  176.137589
  0.027214429    0.000000    0.000000    0.000000    0.000000  -94.092208   27.624216   -0.910251  174.335220
  0.027414830    0.000000    0.000000    0.000000    0.000000  -94.893121   24.958744   -0.926834  172.528915
  0.027615230    0.000000    0.000000    0.000000    0.000000  -94.397194   30.046303   -0.943457  170.704224
  0.027815631    0.000000    0.000000    0.000000    0.000000  -95.376661   29.295921   -0.960919  168.877762
  0.028016032    0.000000    0.000000    0.000000    0.000000  -95.012077   32.121025   -0.978378  167.030899
  0.028216433    0.000000    0.000000    0.000000    0.000000  -94.872443   33.616001   -0.997380  165.170547
  0.028416834    0.000000    0.000000    0.000000    0.000000  -94.882296   32.822639   -1.017794  163.321274
  0.028617234    0.000000    0.000000    0.000000    0.000000  -94.451576   29.614065   -1.037867  161.451096
  0.028817635    0.000000    0.000000    0.000000    0.000000  -94.547331   33.759113   -1.058056  159.591339
  0.029018036    0.000000    0.000000    0.000000    0.000000  -94.558181   31.741966   -1.080320  157.714355
  0.029218437    0.000000    0.000000    0.000000    0.000000  -94.636265   26.414873   -1.104133  155.838898
  0.029418838    0.000000    0.000000    0.000000    0.000000  -94.805569   26.845953   -1.129227  153.936310
  0.029619238    0.000000    0.000000    0.000000    0.000000  -93.754326   31.985825   -1.154151  152.032730
  0.029819639    0.000000    0.000000    0.000000    0.000000  -93.972020   26.592880   -1.179647  150.115311
  0.030020040    0.000000    0.000000    0.000000    0.000000  -94.226128   30.072008   -1.207066  148.205032
  0.030220441    0.000000    0.000000    0.000000    0.000000  -93.415242   29.621075   -1.232818  146.278076
  0.030420842    0.000000    0.000000    0.000000    0.000000  -94.135813   29.447569   -1.260203  144.373764
  0.030621242    0.000000    0.000000    0.000000    0.000000  -93.716890   28.999020   -1.287739  142.460480
  0.030821643    0.000000    0.000000    0.000000    0.000000  -93.992124   25.671268   -1.320461  140.534119
  0.031022044    0.000000    0.000000    0.000000    0.000000  -95.151927   22.805536   -1.350689  138.590378
  0.031222445    0.000000    0.000000    0.000000    0.000000  -94.439904   24.491110   -1.374900  136.656311
  0.031422846    0.000000    0.000000    0.000000    0.000000  -95.156742   17.986027   -1.407372  134.671371
  0.031623246    0.000000    0.000000    0.000000    0.000000  -95.011007   24.045301   -1.441038  132.683258
  0.031823647    0.000000    0.000000    0.000000    0.000000  -95.044750   16.767864   -1.473536  130.704681
  0.032024048    0.000000    0.000000    0.000000    0.000000  -95.115726   18.292561   -1.506989  128.710907
  0.032224449    0.000000    0.000000    0.000000    0.000000  -95.923799   18.697243   -1.544919  126.716537
  0.032424850    0.000000    0.000000    0.000000    0.000000  -96.268659   16.696243   -1.579682  124.721481
  0.032625250    0.000000    0.000000    0.000000    0.000000  -95.524676   23.416298   -1.614274  122.690521
  0.032825651    0.000000    0.000000    0.000000    0.000000  -96.455043   20.336756   -1.652375  120.655907
  0.033026052    0.000000    0.000000    0.000000    0.000000  -95.965371   16.392845   -1.685243  118.616074
  0.033226453    0.000000    0.000000    0.000000    0.000000  -96.312994   25.912251   -1.723025  116.566498
  0.033426854    0.000000    0.000000    0.000000    0.000000  -96.238139   27.035942   -1.759991  114.521164
  0.033627254    0.000000    0.000000    0.000000    0.000000  -96.602467   21.687149   -1.797278  112.470314
  0.033827655    0.000000    0.000000    0.000000    0.000000  -96.079810   22.707682   -1.835836  110.426102
  0.034028056    0.000000    0.000000    0.000000    0.000000  -96.959166   22.418005   -1.873446  108.387650
  0.034228457    0.000000    0.000000    0.000000    0.000000  -96.405058   23.056089   -1.913333  106.322533
  0.034428858    0.000000    0.000000    0.000000    0.000000  -95.911476   24.335091   -1.955271  104.255928
  0.034629258    0.000000    0.000000    0.000000    0.000000  -96.722648   22.611422   -1.996858  102.174034
  0.034829659    0.000000    0.000000    0.000000    0.000000  -96.274425   31.216511   -2.038113  100.102806
  0.035030060    0.000000    0.000000    0.000000    0.000000  -96.538874   31.314272   -2.082959   98.019760
  0.035230461    0.000000    0.000000    0.000000    0.000000  -96.400973   31.321188   -2.125861   95.945442
  0.035430862    0.000000    0.000000    0.000000    0.000000  -96.744156   26.325333   -2.173159   93.867920
  0.035631262    0.000000    0.000000    0.000000    0.000000  -96.030258   20.821096   -2.220327   91.784760
  0.035831663    0.000000    0.000000    0.000000    0.000000  -95.436482   27.388031   -2.268787   89.693710
  0.036032064    0.000000    0.000000    0.000000    0.000000  -96.829531   28.399467   -2.315464   87.618752
  0.036232465    0.000000    0.000000    0.000000    0.000000  -97.330481   26.822491   -2.360345   85.540779
  0.036432866    0.000000    0.000000    0.000000    0.000000  -96.097899   23.917574   -2.411116   83.435257
  0.036633266    0.000000    0.000000    0.000000    0.000000  -97.040185   16.141432   -2.462220   81.364571
  0.036833667    0.000000    0.000000    0.000000    0.000000  -96.475915   21.641218   -2.514158   79.259071
  0.037034068    0.000000    0.000000    0.000000    0.000000  -96.300616   17.755863   -2.565848   77.166618
  0.037234469    0.000000    0.000000    0.000000    0.000000  -98.124759   14.193351   -2.617286   75.058426
  0.037434870    0.000000    0.000000    0.000000    0.000000  -96.349569   18.332500   -2.671107   72.953796
  0.037635270    0.000000    0.000000    0.000000    0.000000  -96.919288    8.897016   -2.726372   70.823822
  0.037835671    0.000000    0.000000    0.000000    0.000000  -97.131822   21.445381   -2.790366   68.701385
  0.038036072    0.000000    0.000000    0.000000    0.000000  -97.480911   20.688984   -2.854268   66.639214
  0.038236473    0.000000    0.000000    0.000000    0.000000  -97.272674   22.017447   -2.906831   64.559715
  0.038436874    0.000000    0.000000    0.000000    0.000000  -97.511007   14.103042   -2.964042   62.462566
  0.038637274    0.000000    0.000000    0.000000    0.000000  -97.776200   21.852884   -3.018021   60.371201
  0.038837675    0.000000    0.000000    0.000000    0.000000  -97.036678   23.757450   -3.071477   58.275803
  0.039038076    0.000000    0.000000    0.000000    0.000000  -98.637269   21.958384   -3.123772   56.198326
  0.039238477    0.000000    0.000000    0.000000    0.000000  -98.354401   19.407412   -3.175513   54.102531
  0.039438878    0.000000    0.000000    0.000000    0.000000  -99.801881   28.060469   -3.231589   52.043072
  0.039639278    0.000000    0.000000    0.000000    0.000000  -98.345355   24.756657   -3.283386   49.973755
  0.039839679    0.000000    0.000000    0.000000    0.000000  -99.706766   26.856308   -3.338677   47.888031
  0.040040080    0.000000    0.000000    0.000000    0.000000  -98.791839   32.120205   -3.386938   45.792778
  0.040240481    0.000000    0.000000    0.000000    0.000000  -98.490966   25.825924   -3.438304   43.722790
  0.040440882    0.000000    0.000000    0.000000    0.000000  -97.422721   16.339275   -3.489199   41.667683
  0.040641283    0.000000    0.000000    0.000000    0.000000  -98.075506   30.279314   -3.538589   39.633762
  0.040841683    0.000000    0.000000    0.000000    0.000000  -98.205883   21.786654   -3.587255   37.599472
  0.041042084    0.000000    0.000000    0.000000    0.000000  -98.814457   21.843225   -3.638588   35.586830
  0.041242485    0.000000    0.000000    0.000000    0.000000  -97.537748   30.200949   -3.688169   33.556091
  0.041442886    0.000000    0.000000    0.000000    0.000000  -98.262038   33.227268   -3.738424   31.531063
  0.041643287    0.000000    0.000000    0.000000    0.000000  -97.080121   32.886810   -3.785559   29.500877
  0.041843687    0.000000    0.000000    0.000000    0.000000  -96.488920   22.552519   -3.833894   27.489168
  0.042044088    0.000000    0.000000    0.000000    0.000000  -96.496609   21.380356   -3.880700   25.490595
  0.042244489    0.000000    0.000000    0.000000    0.000000  -98.601270   28.194822   -3.927900   23.486177
  0.042444890    0.000000    0.000000    0.000000    0.000000  -98.908750   22.311403   -3.976866   21.513693
  0.042645291    0.000000    0.000000    0.000000    0.000000  -98.062272   25.208857   -4.024442   19.525982
  0.042845691    0.000000    0.000000    0.000000    0.000000  -99.413615   27.704893   -4.074301   17.564501
  0.043046092    0.000000    0.000000    0.000000    0.000000  -98.196242   27.082108   -4.120798   15.578156
  0.043246493    0.000000    0.000000    0.000000    0.000000  -99.103860   25.277023   -4.168526   13.602689
  0.043446894    0.000000    0.000000    0.000000    0.000000  -98.136770   19.258301   -4.211555   11.650459
  0.043647295    0.000000    0.000000    0.000000    0.000000  -99.001040   29.131512   -4.257625    9.682183
  0.043847695    0.000000    0.000000    0.000000    0.000000  -99.573502   28.948486   -4.301348    7.733638
  0.044048096    0.000000    0.000000    0.000000    0.000000  -99.925263   21.774183   -4.346090    5.786108
  0.044248497    0.000000    0.000000    0.000000    0.000000  -97.688367   29.101530   -4.390954    3.857351
  0.044448898    0.000000    0.000000    0.000000    0.000000 -100.147496   29.416790   -4.434497    1.937818
  0.044649299    0.000000    0.000000    0.000000    0.000000  -99.138513   37.255245   -4.475989    0.025520
  0.044849699    0.000000    0.000000    0.000000    0.000000  -99.854953   27.597162   -4.516920   -1.870980
  0.045050100    0.000000    0.000000    0.000000    0.000000 -100.029439   30.182446   -4.555981   -3.793146
  0.045250501    0.000000    0.000000    0.000000    0.000000  -98.993043   29.897196   -4.592884   -5.708194
  0.045450902    0.000000    0.000000    0.000000    0.000000  -98.486408   31.780922   -4.630809   -7.595834
  0.045651303    0.000000    0.000000    0.000000    0.000000  -98.300934   30.622200   -4.667518   -9.488090
  0.045851703    0.000000    0.000000    0.000000    0.000000  -98.843706   26.385658   -4.702802  -11.349093
  0.046052104    0.000000    0.000000    0.000000    0.000000  -98.971067   28.900928   -4.737096  -13.201390
  0.046252505    0.000000    0.000000    0.000000    0.000000  -97.960842   27.763386   -4.772789  -15.024651
  0.046452906    0.000000    0.000000    0.000000    0.000000  -98.392877   32.501007   -4.808219  -16.844028
  0.046653307    0.000000    0.000000    0.000000    0.000000 -100.836962   36.569946   -4.842680  -18.662167
  0.046853707    0.000000    0.000000    0.000000    0.000000  -97.895196   26.028728   -4.873287  -20.489376
  0.047054108    0.000000    0.000000    0.000000    0.000000  -98.423281   32.793678   -4.905991  -22.291075
  0.047254509    0.000000    0.000000    0.000000    0.000000  -98.137636   22.127390   -4.936877  -24.097132
  0.047454910    0.000000    0.000000    0.000000    0.000000  -98.498351   30.375614   -4.961369  -25.898693
  0.047655311    0.000000    0.000000    0.000000    0.000000  -98.031544   33.287090   -4.994317  -27.661486
  0.047855711    0.000000    0.000000    0.000000    0.000000  -98.931804   31.143074   -5.022480  -29.421467
  0.048056112    0.000000    0.000000    0.000000    0.000000  -99.560843   28.994972   -5.053013  -31.156212
  0.048256513    0.000000    0.000000    0.000000    0.000000  -98.839087   32.628254   -5.082052  -32.881195
  0.048456914    0.000000    0.000000    0.000000    0.000000  -99.912207   29.582994   -5.109652  -34.614143
  0.048657315    0.000000    0.000000    0.000000    0.000000 -100.235330   24.654476   -5.138723  -36.328686
  0.048857715    0.000000    0.000000    0.000000    0.000000  -98.890104   38.742775   -5.163605  -38.066467
  0.049058116    0.000000    0.000000    0.000000    0.000000  -99.314895   32.131363   -5.186826  -39.789921
  0.049258517    0.000000    0.000000    0.000000    0.000000 -100.697153   22.171345   -5.211542  -41.492161
  0.049458918    0.000000    0.000000    0.000000    0.000000  -99.631914   35.522228   -5.236472  -43.179417
  0.049659319    0.000000    0.000000    0.000000    0.000000  -99.263737   25.413841   -5.265131  -44.858128
  0.049859719    0.000000    0.000000    0.000000    0.000000  -99.959382   34.392735   -5.286102  -46.554653
  0.050060120    0.000000    0.000000    0.000000    0.000000  -99.612076   29.790684   -5.313844  -48.209965
  0.050260521    0.000000    0.000000    0.000000    0.000000  -98.135939   28.315834   -5.333061  -49.889622
  0.050460922    0.000000    0.000000    0.000000    0.000000  -99.527595   37.066971   -5.352784  -51.565105
  0.050661323    0.000000    0.000000    0.000000    0.000000  -99.808836   20.841137   -5.369885  -53.213543
  0.050861723    0.000000    0.000000    0.000000    0.000000  -98.678186   35.041538   -5.387219  -54.872887
  0.051062124    0.000000    0.000000    0.000000    0.000000  -99.721101   31.000774   -5.406859  -56.512642
  0.051262525    0.000000    0.000000    0.000000    0.000000  -98.434056   34.296696   -5.426185  -58.134151
  0.051462926    0.000000    0.000000    0.000000    0.000000  -99.186481   34.857155   -5.442699  -59.737831
  0.051663327    0.000000    0.000000    0.000000    0.000000  -99.238484   36.233025   -5.459264  -61.365089
  0.051863727    0.000000    0.000000    0.000000    0.000000  -98.904334   36.161049   -5.474405  -62.926273
  0.052064128    0.000000    0.000000    0.000000    0.000000  -99.409324   30.794939   -5.485252  -64.539871
  0.052264529    0.000000    0.000000    0.000000    0.000000  -98.811250   29.691982   -5.495397  -66.123047
  0.052464930    0.000000    0.000000    0.000000    0.000000  -99.034373   32.978756   -5.508411  -67.671555
  0.052665331    0.000000    0.000000    0.000000    0.000000  -98.442724   36.048443   -5.517549  -69.219582
  0.052865731    0.000000    0.000000    0.000000    0.000000  -99.264402   24.612625   -5.529560  -70.754814
