! Anritsu VNA Master:                     Model: MS2036C/10/77
! SN:                                  1601066
! /bd0/18may09/254.ns.m10.s2p
! Existing Calibration Information:
! TYPE:                         Current Settings,       Active Cal Settings
! TIME:             	   05/09/2018 01:04:33 PM,    05/09/2018 12:54:36 PM
! INTERNAL TEMP:    	                   58.5 C,                    58.3 C
! # POINTS:         	                      494,                       494
! START FREQ:       	               20.000 MHz,                20.000 MHz
! STOP FREQ:        	          118.797 594 MHz,           118.797 594 MHz
! SOURCE POWER:     	                     High,                      High
! IFBW:             	                    50 Hz,                     50 Hz
! AVG FACTOR:       	                       1 ,                        1 
! REF PLANE 1:      	                     0 mm,                      0 mm
! REF PLANE 2:      	                     0 mm,                      0 mm
! CAL TYPE:         	                 Full S22,                  Full S22
! CAL METHOD:       	                     SOLT,                      SOLT
! CAL LINE TYPE:    	                     Coax,                      Coax
! DUT PORT 1:       	                K-Conn(M),                 K-Conn(M)
! DUT PORT 2:       	                K-Conn(M),                 K-Conn(M)
! CAL STATUS:       	        OK: Accuracy High,                        --
# GHZ S DB R 50.0
! FREQ.GHZ       S11DB        S11A       S21DB        S21A       S12DB        S12A       S22DB        S22A
  0.020000000    0.000000    0.000000    0.000000    0.000000  -89.530889   30.545774   -0.631929 -126.720619
  0.020200401    0.000000    0.000000    0.000000    0.000000  -89.821976   33.078690   -0.635631 -128.192413
  0.020400802    0.000000    0.000000    0.000000    0.000000  -89.694532   34.062714   -0.640782 -129.684250
  0.020601202    0.000000    0.000000    0.000000    0.000000  -90.931967   32.885075   -0.645003 -131.199585
  0.020801603    0.000000    0.000000    0.000000    0.000000  -91.043159   32.044994   -0.648510 -132.746170
  0.021002004    0.000000    0.000000    0.000000    0.000000  -91.365162   30.664827   -0.649986 -134.298279
  0.021202405    0.000000    0.000000    0.000000    0.000000  -91.874388   33.028965   -0.654174 -135.851074
  0.021402806    0.000000    0.000000    0.000000    0.000000  -91.533325   33.819984   -0.657504 -137.402008
  0.021603206    0.000000    0.000000    0.000000    0.000000  -91.697924   34.690586   -0.661760 -138.948517
  0.021803607    0.000000    0.000000    0.000000    0.000000  -92.122457   36.131638   -0.664142 -140.516357
  0.022004008    0.000000    0.000000    0.000000    0.000000  -91.977409   39.702045   -0.669469 -142.071716
  0.022204409    0.000000    0.000000    0.000000    0.000000  -91.811501   41.366268   -0.677224 -143.652145
  0.022404810    0.000000    0.000000    0.000000    0.000000  -92.013192   42.523540   -0.685230 -145.249451
  0.022605210    0.000000    0.000000    0.000000    0.000000  -91.962030   41.235874   -0.687738 -146.858215
  0.022805611    0.000000    0.000000    0.000000    0.000000  -91.044306   45.097237   -0.689434 -148.477219
  0.023006012    0.000000    0.000000    0.000000    0.000000  -91.423303   44.360195   -0.694460 -150.080521
  0.023206413    0.000000    0.000000    0.000000    0.000000  -91.568994   40.783733   -0.701550 -151.676529
  0.023406814    0.000000    0.000000    0.000000    0.000000  -91.529538   36.102215   -0.707087 -153.275009
  0.023607214    0.000000    0.000000    0.000000    0.000000  -91.270841   39.299026   -0.716994 -154.877289
  0.023807615    0.000000    0.000000    0.000000    0.000000  -91.290929   37.691628   -0.725446 -156.500702
  0.024008016    0.000000    0.000000    0.000000    0.000000  -91.150794   37.526505   -0.734020 -158.143311
  0.024208417    0.000000    0.000000    0.000000    0.000000  -91.018232   38.234299   -0.743396 -159.783417
  0.024408818    0.000000    0.000000    0.000000    0.000000  -91.359624   32.102455   -0.749768 -161.452866
  0.024609218    0.000000    0.000000    0.000000    0.000000  -91.431822   30.032175   -0.757125 -163.111526
  0.024809619    0.000000    0.000000    0.000000    0.000000  -91.491907   28.991205   -0.767092 -164.771790
  0.025010020    0.000000    0.000000    0.000000    0.000000  -91.808829   28.282864   -0.776528 -166.432114
  0.025210421    0.000000    0.000000    0.000000    0.000000  -92.201292   25.322901   -0.786728 -168.125137
  0.025410822    0.000000    0.000000    0.000000    0.000000  -92.582926   27.642704   -0.796113 -169.815353
  0.025611222    0.000000    0.000000    0.000000    0.000000  -92.386981   25.061558   -0.807254 -171.531479
  0.025811623    0.000000    0.000000    0.000000    0.000000  -93.577489   22.424620   -0.817899 -173.248520
  0.026012024    0.000000    0.000000    0.000000    0.000000  -93.095796   26.252060   -0.828211 -174.994720
  0.026212425    0.000000    0.000000    0.000000    0.000000  -94.036037   27.015318   -0.839783 -176.742081
  0.026412826    0.000000    0.000000    0.000000    0.000000  -93.396993   23.365847   -0.852572 -178.507584
  0.026613226    0.000000    0.000000    0.000000    0.000000  -93.926872   23.626478   -0.866770  179.717499
  0.026813627    0.000000    0.000000    0.000000    0.000000  -94.182806   25.469202   -0.880799  177.933975
  0.027014028    0.000000    0.000000    0.000000    0.000000  -94.199739   22.636715   -0.896563  176.141846
  0.027214429    0.000000    0.000000    0.000000    0.000000  -94.308587   29.649172   -0.911537  174.344040
  0.027414830    0.000000    0.000000    0.000000    0.000000  -94.648571   29.447845   -0.927346  172.533615
  0.027615230    0.000000    0.000000    0.000000    0.000000  -94.929798   26.067530   -0.943812  170.707062
  0.027815631    0.000000    0.000000    0.000000    0.000000  -94.709820   32.590771   -0.962221  168.880325
  0.028016032    0.000000    0.000000    0.000000    0.000000  -94.753684   34.820576   -0.980396  167.022446
  0.028216433    0.000000    0.000000    0.000000    0.000000  -95.191911   31.436226   -0.998474  165.166916
  0.028416834    0.000000    0.000000    0.000000    0.000000  -94.707641   32.075783   -1.018807  163.307892
  0.028617234    0.000000    0.000000    0.000000    0.000000  -95.017983   28.051537   -1.039547  161.438858
  0.028817635    0.000000    0.000000    0.000000    0.000000  -93.986466   31.324720   -1.059974  159.578201
  0.029018036    0.000000    0.000000    0.000000    0.000000  -94.029762   35.635620   -1.081759  157.697845
  0.029218437    0.000000    0.000000    0.000000    0.000000  -93.918386   35.690556   -1.104889  155.829025
  0.029418838    0.000000    0.000000    0.000000    0.000000  -94.261340   25.732473   -1.130535  153.923798
  0.029619238    0.000000    0.000000    0.000000    0.000000  -93.747130   28.631788   -1.155225  152.011627
  0.029819639    0.000000    0.000000    0.000000    0.000000  -94.068482   30.492296   -1.180868  150.100601
  0.030020040    0.000000    0.000000    0.000000    0.000000  -93.667078   28.375462   -1.207291  148.182831
  0.030220441    0.000000    0.000000    0.000000    0.000000  -93.608633   26.478798   -1.233484  146.256241
  0.030420842    0.000000    0.000000    0.000000    0.000000  -93.891126   24.978586   -1.260085  144.357437
  0.030621242    0.000000    0.000000    0.000000    0.000000  -94.258494   19.103355   -1.288967  142.437988
  0.030821643    0.000000    0.000000    0.000000    0.000000  -94.543997   25.195354   -1.321204  140.513321
  0.031022044    0.000000    0.000000    0.000000    0.000000  -94.509003   24.599079   -1.352490  138.574814
  0.031222445    0.000000    0.000000    0.000000    0.000000  -94.354167   29.171097   -1.375610  136.637100
  0.031422846    0.000000    0.000000    0.000000    0.000000  -95.167595   18.590622   -1.408863  134.658539
  0.031623246    0.000000    0.000000    0.000000    0.000000  -94.491142   15.366817   -1.442412  132.672867
  0.031823647    0.000000    0.000000    0.000000    0.000000  -95.845968   12.879809   -1.475943  130.691116
  0.032024048    0.000000    0.000000    0.000000    0.000000  -95.166384   18.767038   -1.510156  128.700226
  0.032224449    0.000000    0.000000    0.000000    0.000000  -95.362944   17.110159   -1.546921  126.717606
  0.032424850    0.000000    0.000000    0.000000    0.000000  -95.906627   23.060308   -1.582362  124.708656
  0.032625250    0.000000    0.000000    0.000000    0.000000  -95.630477   22.560392   -1.616837  122.675552
  0.032825651    0.000000    0.000000    0.000000    0.000000  -96.084134   18.434719   -1.654498  120.645592
  0.033026052    0.000000    0.000000    0.000000    0.000000  -96.817406   22.216913   -1.688831  118.614243
  0.033226453    0.000000    0.000000    0.000000    0.000000  -96.654709   20.396315   -1.724313  116.557617
  0.033426854    0.000000    0.000000    0.000000    0.000000  -97.257915   27.798845   -1.760965  114.513840
  0.033627254    0.000000    0.000000    0.000000    0.000000  -95.934336   21.792048   -1.798565  112.458267
  0.033827655    0.000000    0.000000    0.000000    0.000000  -97.272373   25.121750   -1.837467  110.429276
  0.034028056    0.000000    0.000000    0.000000    0.000000  -95.896568   24.212223   -1.875160  108.382492
  0.034228457    0.000000    0.000000    0.000000    0.000000  -96.335663   20.236658   -1.914303  106.321289
  0.034428858    0.000000    0.000000    0.000000    0.000000  -96.646785   22.724588   -1.957145  104.260620
  0.034629258    0.000000    0.000000    0.000000    0.000000  -96.787344   21.597370   -1.996031  102.163414
  0.034829659    0.000000    0.000000    0.000000    0.000000  -96.656503   28.785290   -2.037970  100.101898
  0.035030060    0.000000    0.000000    0.000000    0.000000  -95.334366   22.139662   -2.083317   98.016563
  0.035230461    0.000000    0.000000    0.000000    0.000000  -95.752262   31.302515   -2.126016   95.948318
  0.035430862    0.000000    0.000000    0.000000    0.000000  -96.936440   24.846746   -2.173553   93.866486
  0.035631262    0.000000    0.000000    0.000000    0.000000  -96.756480   27.267679   -2.221707   91.798866
  0.035831663    0.000000    0.000000    0.000000    0.000000  -95.704014   20.707012   -2.267761   89.708488
  0.036032064    0.000000    0.000000    0.000000    0.000000  -95.853881   27.985456   -2.314402   87.626648
  0.036232465    0.000000    0.000000    0.000000    0.000000  -96.721806   25.900429   -2.362092   85.555092
  0.036432866    0.000000    0.000000    0.000000    0.000000  -95.930846   17.423748   -2.412407   83.455711
  0.036633266    0.000000    0.000000    0.000000    0.000000  -96.347349   23.913256   -2.462262   81.381607
  0.036833667    0.000000    0.000000    0.000000    0.000000  -96.325746   22.854723   -2.514073   79.264709
  0.037034068    0.000000    0.000000    0.000000    0.000000  -97.081627   21.076715   -2.566698   77.177734
  0.037234469    0.000000    0.000000    0.000000    0.000000  -96.497504   23.834005   -2.618858   75.072968
  0.037434870    0.000000    0.000000    0.000000    0.000000  -96.570259   17.640553   -2.672881   72.974419
  0.037635270    0.000000    0.000000    0.000000    0.000000  -97.229404   14.694891   -2.727366   70.836494
  0.037835671    0.000000    0.000000    0.000000    0.000000  -97.690464   21.631575   -2.792006   68.720230
  0.038036072    0.000000    0.000000    0.000000    0.000000  -96.737195   24.775572   -2.855336   66.640862
  0.038236473    0.000000    0.000000    0.000000    0.000000  -97.028228   24.577789   -2.911362   64.559517
  0.038436874    0.000000    0.000000    0.000000    0.000000  -97.594147   14.288140   -2.967249   62.459896
  0.038637274    0.000000    0.000000    0.000000    0.000000  -98.198190   26.703733   -3.021395   60.370300
  0.038837675    0.000000    0.000000    0.000000    0.000000  -97.695697   18.181070   -3.075160   58.262028
  0.039038076    0.000000    0.000000    0.000000    0.000000  -97.802443   26.329445   -3.128310   56.181335
  0.039238477    0.000000    0.000000    0.000000    0.000000  -98.266462   25.751549   -3.178813   54.084011
  0.039438878    0.000000    0.000000    0.000000    0.000000  -98.761309   32.867641   -3.234780   52.022743
  0.039639278    0.000000    0.000000    0.000000    0.000000  -97.003522   25.111618   -3.286653   49.938171
  0.039839679    0.000000    0.000000    0.000000    0.000000  -97.754379   28.523884   -3.345030   48.175953
  0.040040080    0.000000    0.000000    0.000000    0.000000  -97.657800   33.405136   -3.390023   46.078850
  0.040240481    0.000000    0.000000    0.000000    0.000000  -98.067665   33.827152   -3.436748   44.003204
  0.040440882    0.000000    0.000000    0.000000    0.000000  -98.088408   27.087116   -3.485260   41.932671
  0.040641283    0.000000    0.000000    0.000000    0.000000  -97.525259   28.916098   -3.530528   39.875351
  0.040841683    0.000000    0.000000    0.000000    0.000000  -98.323461   27.728313   -3.576640   37.844868
  0.041042084    0.000000    0.000000    0.000000    0.000000  -97.094603   28.739292   -3.625532   35.823452
  0.041242485    0.000000    0.000000    0.000000    0.000000  -97.775145   19.923048   -3.670710   33.782017
  0.041442886    0.000000    0.000000    0.000000    0.000000  -98.122835   28.435049   -3.718901   31.756479
  0.041643287    0.000000    0.000000    0.000000    0.000000  -98.338000   27.429304   -3.763789   29.730587
  0.041843687    0.000000    0.000000    0.000000    0.000000  -97.236377   31.485018   -3.809023   27.715792
  0.042044088    0.000000    0.000000    0.000000    0.000000  -97.935432   31.713722   -3.853498   25.707178
  0.042244489    0.000000    0.000000    0.000000    0.000000  -97.119464   23.945412   -3.896440   23.712177
  0.042444890    0.000000    0.000000    0.000000    0.000000  -97.640538   22.672764   -3.942514   21.740435
  0.042645291    0.000000    0.000000    0.000000    0.000000  -98.962896   32.327328   -3.987831   19.743164
  0.042845691    0.000000    0.000000    0.000000    0.000000  -98.125428   17.766001   -4.035962   17.760569
  0.043046092    0.000000    0.000000    0.000000    0.000000  -97.761751   29.467949   -4.081158   15.783570
  0.043246493    0.000000    0.000000    0.000000    0.000000  -99.206441   31.758707   -4.124713   13.793937
  0.043446894    0.000000    0.000000    0.000000    0.000000 -100.126091   35.353542   -4.168367   11.828444
  0.043647295    0.000000    0.000000    0.000000    0.000000  -98.948300   29.976181   -4.210681    9.832637
  0.043847695    0.000000    0.000000    0.000000    0.000000  -98.985685   34.516735   -4.253480    7.890002
  0.044048096    0.000000    0.000000    0.000000    0.000000  -98.917870   36.293449   -4.297395    5.920922
  0.044248497    0.000000    0.000000    0.000000    0.000000  -98.199240   31.935652   -4.341554    3.970241
  0.044448898    0.000000    0.000000    0.000000    0.000000  -98.977758   25.740759   -4.383621    2.043341
  0.044649299    0.000000    0.000000    0.000000    0.000000 -100.095909   32.309628   -4.425659    0.110845
  0.044849699    0.000000    0.000000    0.000000    0.000000 -100.577571   35.191689   -4.465054   -1.804368
  0.045050100    0.000000    0.000000    0.000000    0.000000  -98.593550   31.124844   -4.504501   -3.732092
  0.045250501    0.000000    0.000000    0.000000    0.000000  -98.551101   35.977333   -4.541286   -5.650469
  0.045450902    0.000000    0.000000    0.000000    0.000000  -98.319406   31.596998   -4.576651   -7.561070
  0.045651303    0.000000    0.000000    0.000000    0.000000  -98.526012   32.997627   -4.612358   -9.467640
  0.045851703    0.000000    0.000000    0.000000    0.000000  -98.718703   30.885033   -4.650226  -11.343578
  0.046052104    0.000000    0.000000    0.000000    0.000000  -99.067293   32.180004   -4.682070  -13.210952
  0.046252505    0.000000    0.000000    0.000000    0.000000  -98.676106   31.960945   -4.717149  -15.055730
  0.046452906    0.000000    0.000000    0.000000    0.000000  -98.918489   28.921648   -4.751889  -16.881912
  0.046653307    0.000000    0.000000    0.000000    0.000000  -97.711269   31.858089   -4.787548  -18.718456
  0.046853707    0.000000    0.000000    0.000000    0.000000  -99.397679   30.490416   -4.819318  -20.555239
  0.047054108    0.000000    0.000000    0.000000    0.000000  -99.619228   37.607777   -4.852178  -22.365358
  0.047254509    0.000000    0.000000    0.000000    0.000000 -100.151343   23.252195   -4.884255  -24.183466
  0.047454910    0.000000    0.000000    0.000000    0.000000  -99.456714   30.969765   -4.909886  -25.977673
  0.047655311    0.000000    0.000000    0.000000    0.000000  -99.557630   27.745361   -4.941734  -27.756905
  0.047855711    0.000000    0.000000    0.000000    0.000000  -99.207703   24.072523   -4.971720  -29.527641
  0.048056112    0.000000    0.000000    0.000000    0.000000  -98.421669   30.739666   -5.002897  -31.266291
  0.048256513    0.000000    0.000000    0.000000    0.000000  -98.598736   26.858299   -5.032393  -33.006100
  0.048456914    0.000000    0.000000    0.000000    0.000000  -98.369252   27.345676   -5.059022  -34.732891
  0.048657315    0.000000    0.000000    0.000000    0.000000  -98.946410   24.016033   -5.089329  -36.448532
  0.048857715    0.000000    0.000000    0.000000    0.000000  -98.264390   30.415422   -5.115664  -38.203354
  0.049058116    0.000000    0.000000    0.000000    0.000000  -98.714762   30.825054   -5.141558  -39.931118
  0.049258517    0.000000    0.000000    0.000000    0.000000  -99.064351   36.600616   -5.168145  -41.639027
  0.049458918    0.000000    0.000000    0.000000    0.000000  -99.671005   40.972580   -5.192883  -43.340649
  0.049659319    0.000000    0.000000    0.000000    0.000000  -99.266355   37.518200   -5.222237  -45.025204
  0.049859719    0.000000    0.000000    0.000000    0.000000  -99.060420   30.498098   -5.247808  -46.720238
  0.050060120    0.000000    0.000000    0.000000    0.000000  -98.607628   33.533539   -5.274640  -48.367477
  0.050260521    0.000000    0.000000    0.000000    0.000000  -98.765815   31.486811   -5.295759  -50.068092
  0.050460922    0.000000    0.000000    0.000000    0.000000  -98.485979   36.754452   -5.316710  -51.740662
  0.050661323    0.000000    0.000000    0.000000    0.000000  -98.851260   22.992552   -5.333572  -53.406315
  0.050861723    0.000000    0.000000    0.000000    0.000000  -99.967031   34.105438   -5.351902  -55.066189
  0.051062124    0.000000    0.000000    0.000000    0.000000  -98.556020   35.855709   -5.370266  -56.714470
  0.051262525    0.000000    0.000000    0.000000    0.000000  -98.424787   31.633089   -5.390384  -58.349159
  0.051462926    0.000000    0.000000    0.000000    0.000000  -98.492572   35.341759   -5.407865  -59.962376
  0.051663327    0.000000    0.000000    0.000000    0.000000  -99.247582   32.924019   -5.422146  -61.621510
  0.051863727    0.000000    0.000000    0.000000    0.000000  -98.378184   37.936783   -5.435648  -63.208389
  0.052064128    0.000000    0.000000    0.000000    0.000000  -97.748411   36.265011   -5.448762  -64.839951
  0.052264529    0.000000    0.000000    0.000000    0.000000  -99.483272   25.305550   -5.455396  -66.441513
  0.052464930    0.000000    0.000000    0.000000    0.000000  -99.323129   34.639652   -5.468126  -68.035599
  0.052665331    0.000000    0.000000    0.000000    0.000000  -98.619415   41.157806   -5.478139  -69.596184
  0.052865731    0.000000    0.000000    0.000000    0.000000  -99.082375   34.637444   -5.491728  -71.147804
