! Anritsu VNA Master:                     Model: MS2036C/10/77
! SN:                                  1601066
! /bd0/18may09/b256.ns.m2.s2p
! Existing Calibration Information:
! TYPE:                         Current Settings,       Active Cal Settings
! TIME:             	   05/09/2018 07:40:11 PM,    05/09/2018 07:34:34 PM
! INTERNAL TEMP:    	                   53.0 C,                    52.0 C
! # POINTS:         	                      494,                       494
! START FREQ:       	               20.000 MHz,                20.000 MHz
! STOP FREQ:        	          118.797 594 MHz,           118.797 594 MHz
! SOURCE POWER:     	                     High,                      High
! IFBW:             	                    50 Hz,                     50 Hz
! AVG FACTOR:       	                       1 ,                        1 
! REF PLANE 1:      	                     0 mm,                      0 mm
! REF PLANE 2:      	                     0 mm,                      0 mm
! CAL TYPE:         	                 Full S22,                  Full S22
! CAL METHOD:       	                     SOLT,                      SOLT
! CAL LINE TYPE:    	                     Coax,                      Coax
! DUT PORT 1:       	                K-Conn(M),                 K-Conn(M)
! DUT PORT 2:       	                K-Conn(M),                 K-Conn(M)
! CAL STATUS:       	        OK: Accuracy High,                        --
# GHZ S DB R 50.0
! FREQ.GHZ       S11DB        S11A       S21DB        S21A       S12DB        S12A       S22DB        S22A
  0.020000000    0.000000    0.000000    0.000000    0.000000  -89.676276   34.926636   -0.632207 -126.910568
  0.020200401    0.000000    0.000000    0.000000    0.000000  -89.576419   34.426411   -0.632862 -128.385147
  0.020400802    0.000000    0.000000    0.000000    0.000000  -89.915236   30.542772   -0.637350 -129.883850
  0.020601202    0.000000    0.000000    0.000000    0.000000  -90.398888   34.706768   -0.642382 -131.380585
  0.020801603    0.000000    0.000000    0.000000    0.000000  -90.875545   32.133156   -0.645167 -132.927917
  0.021002004    0.000000    0.000000    0.000000    0.000000  -90.997458   35.788792   -0.647579 -134.474701
  0.021202405    0.000000    0.000000    0.000000    0.000000  -91.541307   36.442657   -0.652230 -136.025848
  0.021402806    0.000000    0.000000    0.000000    0.000000  -92.220180   41.572048   -0.655211 -137.574005
  0.021603206    0.000000    0.000000    0.000000    0.000000  -91.464110   41.342999   -0.660403 -139.106796
  0.021803607    0.000000    0.000000    0.000000    0.000000  -91.526006   41.060581   -0.663192 -140.647446
  0.022004008    0.000000    0.000000    0.000000    0.000000  -92.474205   41.371365   -0.670230 -142.204926
  0.022204409    0.000000    0.000000    0.000000    0.000000  -91.928633   45.336735   -0.677498 -143.783676
  0.022404810    0.000000    0.000000    0.000000    0.000000  -92.042099   43.666172   -0.684997 -145.377182
  0.022605210    0.000000    0.000000    0.000000    0.000000  -91.820664   40.878014   -0.687381 -146.985489
  0.022805611    0.000000    0.000000    0.000000    0.000000  -91.012973   40.913837   -0.691384 -148.599396
  0.023006012    0.000000    0.000000    0.000000    0.000000  -91.159638   44.407005   -0.695893 -150.198349
  0.023206413    0.000000    0.000000    0.000000    0.000000  -91.088762   45.055328   -0.701021 -151.797791
  0.023406814    0.000000    0.000000    0.000000    0.000000  -91.393314   41.250034   -0.710751 -153.389771
  0.023607214    0.000000    0.000000    0.000000    0.000000  -91.125296   40.222046   -0.718871 -155.001328
  0.023807615    0.000000    0.000000    0.000000    0.000000  -90.868565   40.670555   -0.730279 -156.641968
  0.024008016    0.000000    0.000000    0.000000    0.000000  -91.334317   37.564739   -0.739046 -158.299255
  0.024208417    0.000000    0.000000    0.000000    0.000000  -91.388028   36.981628   -0.747157 -159.961227
  0.024408818    0.000000    0.000000    0.000000    0.000000  -91.081185   35.040619   -0.755582 -161.640854
  0.024609218    0.000000    0.000000    0.000000    0.000000  -91.481332   37.370869   -0.764819 -163.318970
  0.024809619    0.000000    0.000000    0.000000    0.000000  -91.460069   28.668230   -0.775684 -164.991669
  0.025010020    0.000000    0.000000    0.000000    0.000000  -91.641263   30.902309   -0.787920 -166.685883
  0.025210421    0.000000    0.000000    0.000000    0.000000  -91.912790   30.368694   -0.799908 -168.392883
  0.025410822    0.000000    0.000000    0.000000    0.000000  -92.019290   28.366125   -0.814573 -170.099899
  0.025611222    0.000000    0.000000    0.000000    0.000000  -92.270462   24.685635   -0.826813 -171.831696
  0.025811623    0.000000    0.000000    0.000000    0.000000  -92.730383   25.349308   -0.840097 -173.582001
  0.026012024    0.000000    0.000000    0.000000    0.000000  -92.646129   24.666481   -0.853089 -175.323578
  0.026212425    0.000000    0.000000    0.000000    0.000000  -93.345823   23.169676   -0.868383 -177.088760
  0.026412826    0.000000    0.000000    0.000000    0.000000  -93.137156   27.353203   -0.884724 -178.862259
  0.026613226    0.000000    0.000000    0.000000    0.000000  -94.142142   26.056643   -0.901583  179.356476
  0.026813627    0.000000    0.000000    0.000000    0.000000  -94.287841   24.651312   -0.918794  177.557236
  0.027014028    0.000000    0.000000    0.000000    0.000000  -93.369687   25.692207   -0.936366  175.771988
  0.027214429    0.000000    0.000000    0.000000    0.000000  -95.458797   28.218758   -0.954744  173.966537
  0.027414830    0.000000    0.000000    0.000000    0.000000  -94.175105   29.786110   -0.975028  172.157944
  0.027615230    0.000000    0.000000    0.000000    0.000000  -94.620763   28.866735   -0.994284  170.333450
  0.027815631    0.000000    0.000000    0.000000    0.000000  -95.584523   32.913143   -1.015836  168.503571
  0.028016032    0.000000    0.000000    0.000000    0.000000  -94.236285   33.421303   -1.037228  166.658798
  0.028216433    0.000000    0.000000    0.000000    0.000000  -94.637416   30.567039   -1.058115  164.803833
  0.028416834    0.000000    0.000000    0.000000    0.000000  -94.680948   35.157429   -1.082156  162.954559
  0.028617234    0.000000    0.000000    0.000000    0.000000  -94.365867   34.883789   -1.106794  161.100266
  0.028817635    0.000000    0.000000    0.000000    0.000000  -94.255701   33.973625   -1.131058  159.244476
  0.029018036    0.000000    0.000000    0.000000    0.000000  -94.294902   27.895569   -1.157702  157.392578
  0.029218437    0.000000    0.000000    0.000000    0.000000  -93.791715   32.339855   -1.185108  155.530563
  0.029418838    0.000000    0.000000    0.000000    0.000000  -93.631684   30.672750   -1.213446  153.646774
  0.029619238    0.000000    0.000000    0.000000    0.000000  -94.394696   31.842543   -1.240566  151.753784
  0.029819639    0.000000    0.000000    0.000000    0.000000  -94.248304   28.194679   -1.269969  149.867523
  0.030020040    0.000000    0.000000    0.000000    0.000000  -93.868757   30.518393   -1.300361  147.978439
  0.030220441    0.000000    0.000000    0.000000    0.000000  -94.213732   30.865026   -1.327591  146.081589
  0.030420842    0.000000    0.000000    0.000000    0.000000  -93.245985   26.333401   -1.357626  144.201706
  0.030621242    0.000000    0.000000    0.000000    0.000000  -94.160990   27.687462   -1.390453  142.319916
  0.030821643    0.000000    0.000000    0.000000    0.000000  -94.480394   25.858290   -1.421873  140.416672
  0.031022044    0.000000    0.000000    0.000000    0.000000  -93.924527   24.936811   -1.453030  138.482758
  0.031222445    0.000000    0.000000    0.000000    0.000000  -94.642883   26.177208   -1.480779  136.559097
  0.031422846    0.000000    0.000000    0.000000    0.000000  -94.972070   16.749292   -1.514628  134.591568
  0.031623246    0.000000    0.000000    0.000000    0.000000  -94.524265   12.800675   -1.546189  132.612320
  0.031823647    0.000000    0.000000    0.000000    0.000000  -94.799594   18.797951   -1.581715  130.627060
  0.032024048    0.000000    0.000000    0.000000    0.000000  -95.743814   22.109810   -1.617803  128.641174
  0.032224449    0.000000    0.000000    0.000000    0.000000  -94.623764   19.817770   -1.653321  126.658875
  0.032424850    0.000000    0.000000    0.000000    0.000000  -95.434320   22.662775   -1.691567  124.640106
  0.032625250    0.000000    0.000000    0.000000    0.000000  -95.804106   13.797193   -1.727083  122.612686
  0.032825651    0.000000    0.000000    0.000000    0.000000  -95.890372   16.731966   -1.765239  120.569778
  0.033026052    0.000000    0.000000    0.000000    0.000000  -95.698591   19.754576   -1.804064  118.521446
  0.033226453    0.000000    0.000000    0.000000    0.000000  -96.759977   24.101990   -1.845349  116.467583
  0.033426854    0.000000    0.000000    0.000000    0.000000  -95.730847   26.589815   -1.885404  114.410126
  0.033627254    0.000000    0.000000    0.000000    0.000000  -96.755932   29.091015   -1.927991  112.357307
  0.033827655    0.000000    0.000000    0.000000    0.000000  -96.579046   28.255701   -1.969832  110.318581
  0.034028056    0.000000    0.000000    0.000000    0.000000  -96.326707   20.400528   -2.010830  108.248108
  0.034228457    0.000000    0.000000    0.000000    0.000000  -96.071905   25.741755   -2.056243  106.183357
  0.034428858    0.000000    0.000000    0.000000    0.000000  -96.849232   28.550726   -2.102855  104.090340
  0.034629258    0.000000    0.000000    0.000000    0.000000  -96.148079   32.800613   -2.146243  102.007439
  0.034829659    0.000000    0.000000    0.000000    0.000000  -96.387466   29.192171   -2.194904   99.925323
  0.035030060    0.000000    0.000000    0.000000    0.000000  -95.554350   26.218279   -2.243099   97.832466
  0.035230461    0.000000    0.000000    0.000000    0.000000  -95.966021   25.347193   -2.289860   95.756927
  0.035430862    0.000000    0.000000    0.000000    0.000000  -96.811460   27.581572   -2.341135   93.686073
  0.035631262    0.000000    0.000000    0.000000    0.000000  -96.073546   23.679255   -2.392472   91.592651
  0.035831663    0.000000    0.000000    0.000000    0.000000  -96.319594   23.596266   -2.439967   89.505440
  0.036032064    0.000000    0.000000    0.000000    0.000000  -95.601750   19.881252   -2.491243   87.420677
  0.036232465    0.000000    0.000000    0.000000    0.000000  -96.433727   26.471748   -2.540957   85.349205
  0.036432866    0.000000    0.000000    0.000000    0.000000  -95.949828   21.951986   -2.594952   83.221954
  0.036633266    0.000000    0.000000    0.000000    0.000000  -96.557670   17.234261   -2.648613   81.136688
  0.036833667    0.000000    0.000000    0.000000    0.000000  -96.278963   28.272165   -2.701750   79.049095
  0.037034068    0.000000    0.000000    0.000000    0.000000  -97.415710   22.771639   -2.756001   76.927650
  0.037234469    0.000000    0.000000    0.000000    0.000000  -96.735517   16.266109   -2.812705   74.830009
  0.037434870    0.000000    0.000000    0.000000    0.000000  -97.132201   16.361849   -2.873824   72.705833
  0.037635270    0.000000    0.000000    0.000000    0.000000  -96.793988   21.786072   -2.936519   70.598892
  0.037835671    0.000000    0.000000    0.000000    0.000000  -98.812016   27.585022   -3.008500   68.540070
  0.038036072    0.000000    0.000000    0.000000    0.000000  -98.281058   21.929600   -3.068881   66.547577
  0.038236473    0.000000    0.000000    0.000000    0.000000  -97.626470   24.176559   -3.119152   64.497559
  0.038436874    0.000000    0.000000    0.000000    0.000000  -97.954837   19.716106   -3.173048   62.392609
  0.038637274    0.000000    0.000000    0.000000    0.000000  -98.731151   36.014725   -3.225534   60.293255
  0.038837675    0.000000    0.000000    0.000000    0.000000  -98.124038   25.673845   -3.277893   58.162006
  0.039038076    0.000000    0.000000    0.000000    0.000000  -97.988330   25.816502   -3.330300   56.076302
  0.039238477    0.000000    0.000000    0.000000    0.000000  -96.822784   21.263390   -3.386412   53.993809
  0.039438878    0.000000    0.000000    0.000000    0.000000  -97.883829   31.793852   -3.439070   51.888878
  0.039639278    0.000000    0.000000    0.000000    0.000000  -97.595156   26.348833   -3.494516   49.794186
  0.039839679    0.000000    0.000000    0.000000    0.000000  -98.700047   33.766685   -3.548972   47.683899
  0.040040080    0.000000    0.000000    0.000000    0.000000  -97.979346   29.608753   -3.603273   45.578239
  0.040240481    0.000000    0.000000    0.000000    0.000000  -97.664530   28.698645   -3.658652   43.487038
  0.040440882    0.000000    0.000000    0.000000    0.000000  -97.908184   37.709328   -3.710529   41.404243
  0.040641283    0.000000    0.000000    0.000000    0.000000  -98.260319   35.959003   -3.764671   39.316811
  0.040841683    0.000000    0.000000    0.000000    0.000000  -98.113683   24.388294   -3.818656   37.262836
  0.041042084    0.000000    0.000000    0.000000    0.000000  -97.905046   26.311708   -3.875245   35.207035
  0.041242485    0.000000    0.000000    0.000000    0.000000  -97.538159   31.803431   -3.930675   33.139458
  0.041442886    0.000000    0.000000    0.000000    0.000000  -98.104424   28.069736   -3.986830   31.071518
  0.041643287    0.000000    0.000000    0.000000    0.000000  -97.493632   28.780453   -4.038571   28.998035
  0.041843687    0.000000    0.000000    0.000000    0.000000  -97.381520   26.932203   -4.092896   26.925200
  0.042044088    0.000000    0.000000    0.000000    0.000000  -99.368081   24.730080   -4.146360   24.883837
  0.042244489    0.000000    0.000000    0.000000    0.000000  -98.120201   22.842480   -4.200597   22.848421
  0.042444890    0.000000    0.000000    0.000000    0.000000  -99.213457   23.890656   -4.253041   20.819386
  0.042645291    0.000000    0.000000    0.000000    0.000000  -98.288156   28.663586   -4.310121   18.796116
  0.042845691    0.000000    0.000000    0.000000    0.000000  -98.221372   20.958578   -4.363415   16.777649
  0.043046092    0.000000    0.000000    0.000000    0.000000  -98.971404   25.195293   -4.415771   14.770832
  0.043246493    0.000000    0.000000    0.000000    0.000000  -98.065983   22.520752   -4.468907   12.758691
  0.043446894    0.000000    0.000000    0.000000    0.000000  -99.359355   21.543016   -4.520170   10.776929
  0.043647295    0.000000    0.000000    0.000000    0.000000  -98.285313   28.994219   -4.571586    8.783973
  0.043847695    0.000000    0.000000    0.000000    0.000000  -99.238179   33.913525   -4.624221    6.836391
  0.044048096    0.000000    0.000000    0.000000    0.000000 -100.330165   24.039740   -4.673957    4.877399
  0.044248497    0.000000    0.000000    0.000000    0.000000  -98.162334   22.799788   -4.725879    2.943030
  0.044448898    0.000000    0.000000    0.000000    0.000000  -99.347764   26.516539   -4.772300    1.022813
  0.044649299    0.000000    0.000000    0.000000    0.000000  -98.103398   34.904976   -4.821737   -0.892733
  0.044849699    0.000000    0.000000    0.000000    0.000000  -98.450176   32.954723   -4.866284   -2.778523
  0.045050100    0.000000    0.000000    0.000000    0.000000  -98.888922   29.890690   -4.910978   -4.654275
  0.045250501    0.000000    0.000000    0.000000    0.000000  -99.837936   38.730984   -4.950224   -6.529978
  0.045450902    0.000000    0.000000    0.000000    0.000000  -99.848162   32.341675   -4.987685   -8.399344
  0.045651303    0.000000    0.000000    0.000000    0.000000  -99.220169   28.567205   -5.029970  -10.240033
  0.045851703    0.000000    0.000000    0.000000    0.000000  -98.351430   35.932667   -5.068204  -12.075614
  0.046052104    0.000000    0.000000    0.000000    0.000000  -98.602833   27.224789   -5.101193  -13.882962
  0.046252505    0.000000    0.000000    0.000000    0.000000  -98.802824   43.588364   -5.137317  -15.675159
  0.046452906    0.000000    0.000000    0.000000    0.000000 -100.586180   28.138304   -5.170119  -17.489149
  0.046653307    0.000000    0.000000    0.000000    0.000000  -99.472598   28.958210   -5.201450  -19.295155
  0.046853707    0.000000    0.000000    0.000000    0.000000  -98.749791   35.496201   -5.234861  -21.116997
  0.047054108    0.000000    0.000000    0.000000    0.000000  -98.964484   30.038193   -5.265603  -22.935070
  0.047254509    0.000000    0.000000    0.000000    0.000000  -99.182037   25.810982   -5.299109  -24.737068
  0.047454910    0.000000    0.000000    0.000000    0.000000 -100.276900   29.717169   -5.328251  -26.553694
  0.047655311    0.000000    0.000000    0.000000    0.000000  -99.721967   37.550941   -5.359491  -28.314278
  0.047855711    0.000000    0.000000    0.000000    0.000000  -98.747478   26.238033   -5.394940  -30.073114
  0.048056112    0.000000    0.000000    0.000000    0.000000  -98.816276   33.316547   -5.422572  -31.828377
  0.048256513    0.000000    0.000000    0.000000    0.000000  -98.829227   24.766161   -5.457238  -33.575779
  0.048456914    0.000000    0.000000    0.000000    0.000000 -100.036569   28.700726   -5.486272  -35.304115
  0.048657315    0.000000    0.000000    0.000000    0.000000  -99.864826   24.154961   -5.514191  -37.068027
  0.048857715    0.000000    0.000000    0.000000    0.000000 -101.465934   25.560932   -5.541406  -38.804981
  0.049058116    0.000000    0.000000    0.000000    0.000000  -99.342542   40.566898   -5.567030  -40.542583
  0.049258517    0.000000    0.000000    0.000000    0.000000  -98.162517   34.442768   -5.591798  -42.267025
  0.049458918    0.000000    0.000000    0.000000    0.000000  -99.471963   30.309702   -5.614491  -43.987812
  0.049659319    0.000000    0.000000    0.000000    0.000000 -100.776009   32.866116   -5.639799  -45.692177
  0.049859719    0.000000    0.000000    0.000000    0.000000 -100.649641   24.849754   -5.667805  -47.382401
  0.050060120    0.000000    0.000000    0.000000    0.000000  -99.721863   36.106953   -5.686833  -49.071087
  0.050260521    0.000000    0.000000    0.000000    0.000000  -99.641807   40.269226   -5.707299  -50.754116
  0.050460922    0.000000    0.000000    0.000000    0.000000  -98.565686   31.513031   -5.726429  -52.420498
  0.050661323    0.000000    0.000000    0.000000    0.000000  -99.796263   40.883194   -5.740681  -54.108707
  0.050861723    0.000000    0.000000    0.000000    0.000000 -100.449800   38.663635   -5.756567  -55.756702
  0.051062124    0.000000    0.000000    0.000000    0.000000  -99.260415   41.729408   -5.774753  -57.408070
  0.051262525    0.000000    0.000000    0.000000    0.000000  -99.545231   37.141689   -5.789950  -59.015614
  0.051462926    0.000000    0.000000    0.000000    0.000000  -98.468798   39.284569   -5.808110  -60.608681
  0.051663327    0.000000    0.000000    0.000000    0.000000  -99.210494   33.471321   -5.820424  -62.235809
  0.051863727    0.000000    0.000000    0.000000    0.000000  -98.452567   33.407738   -5.834304  -63.826347
  0.052064128    0.000000    0.000000    0.000000    0.000000 -100.521813   35.141026   -5.845762  -65.404381
  0.052264529    0.000000    0.000000    0.000000    0.000000  -98.000513   29.138252   -5.856567  -66.968979
  0.052464930    0.000000    0.000000    0.000000    0.000000  -98.717498   31.734104   -5.866181  -68.497772
  0.052665331    0.000000    0.000000    0.000000    0.000000  -99.431511   35.955803   -5.876389  -70.031906
  0.052865731    0.000000    0.000000    0.000000    0.000000  -98.286693   25.641092   -5.891040  -71.563263
