! Anritsu VNA Master:                     Model: MS2036C/10/77
! SN:                                  1601066
! /bd0/18may09/254.ew.m13.s2p
! Existing Calibration Information:
! TYPE:                         Current Settings,       Active Cal Settings
! TIME:             	   05/09/2018 12:14:28 PM,    05/09/2018 12:08:51 PM
! INTERNAL TEMP:    	                   55.3 C,                    54.8 C
! # POINTS:         	                      494,                       494
! START FREQ:       	               20.000 MHz,                20.000 MHz
! STOP FREQ:        	          118.797 594 MHz,           118.797 594 MHz
! SOURCE POWER:     	                     High,                      High
! IFBW:             	                    50 Hz,                     50 Hz
! AVG FACTOR:       	                       1 ,                        1 
! REF PLANE 1:      	                     0 mm,                      0 mm
! REF PLANE 2:      	                     0 mm,                      0 mm
! CAL TYPE:         	                 Full S22,                  Full S22
! CAL METHOD:       	                     SOLT,                      SOLT
! CAL LINE TYPE:    	                     Coax,                      Coax
! DUT PORT 1:       	                K-Conn(M),                 K-Conn(M)
! DUT PORT 2:       	                K-Conn(M),                 K-Conn(M)
! CAL STATUS:       	        OK: Accuracy High,                        --
# GHZ S DB R 50.0
! FREQ.GHZ       S11DB        S11A       S21DB        S21A       S12DB        S12A       S22DB        S22A
  0.020000000    0.000000    0.000000    0.000000    0.000000  -89.699850   35.663567   -0.636309 -126.756416
  0.020200401    0.000000    0.000000    0.000000    0.000000  -89.853391   37.610748   -0.637971 -128.226944
  0.020400802    0.000000    0.000000    0.000000    0.000000  -90.462890   33.411858   -0.640875 -129.696472
  0.020601202    0.000000    0.000000    0.000000    0.000000  -91.082957   32.050133   -0.642978 -131.204544
  0.020801603    0.000000    0.000000    0.000000    0.000000  -91.302674   30.511480   -0.644238 -132.722824
  0.021002004    0.000000    0.000000    0.000000    0.000000  -91.017175   34.253784   -0.646969 -134.260864
  0.021202405    0.000000    0.000000    0.000000    0.000000  -91.314384   34.828972   -0.650543 -135.794678
  0.021402806    0.000000    0.000000    0.000000    0.000000  -91.606534   35.081600   -0.651540 -137.343781
  0.021603206    0.000000    0.000000    0.000000    0.000000  -91.752792   37.240135   -0.656110 -138.877289
  0.021803607    0.000000    0.000000    0.000000    0.000000  -91.845614   37.050503   -0.659601 -140.397339
  0.022004008    0.000000    0.000000    0.000000    0.000000  -91.270505   43.497429   -0.664930 -141.932587
  0.022204409    0.000000    0.000000    0.000000    0.000000  -91.173115   40.528549   -0.671227 -143.504562
  0.022404810    0.000000    0.000000    0.000000    0.000000  -92.219343   45.309486   -0.673921 -145.090393
  0.022605210    0.000000    0.000000    0.000000    0.000000  -91.336433   38.550865   -0.677799 -146.687775
  0.022805611    0.000000    0.000000    0.000000    0.000000  -91.707308   43.242527   -0.683504 -148.273453
  0.023006012    0.000000    0.000000    0.000000    0.000000  -91.852801   40.485802   -0.691258 -149.861084
  0.023206413    0.000000    0.000000    0.000000    0.000000  -91.694372   40.168560   -0.694821 -151.453842
  0.023406814    0.000000    0.000000    0.000000    0.000000  -91.290255   44.727406   -0.698901 -153.038727
  0.023607214    0.000000    0.000000    0.000000    0.000000  -91.443327   39.035255   -0.705110 -154.653198
  0.023807615    0.000000    0.000000    0.000000    0.000000  -90.964123   40.164848   -0.714249 -156.261108
  0.024008016    0.000000    0.000000    0.000000    0.000000  -91.457632   35.867352   -0.721414 -157.903305
  0.024208417    0.000000    0.000000    0.000000    0.000000  -91.360922   36.523323   -0.728101 -159.557571
  0.024408818    0.000000    0.000000    0.000000    0.000000  -91.349190   33.303963   -0.734149 -161.217087
  0.024609218    0.000000    0.000000    0.000000    0.000000  -91.463181   31.601137   -0.740212 -162.877426
  0.024809619    0.000000    0.000000    0.000000    0.000000  -91.516269   27.923370   -0.748868 -164.556137
  0.025010020    0.000000    0.000000    0.000000    0.000000  -91.342744   29.352604   -0.756889 -166.217865
  0.025210421    0.000000    0.000000    0.000000    0.000000  -92.176701   31.762554   -0.766063 -167.904221
  0.025410822    0.000000    0.000000    0.000000    0.000000  -92.273998   22.913876   -0.777227 -169.595200
  0.025611222    0.000000    0.000000    0.000000    0.000000  -91.736997   26.610971   -0.787547 -171.298492
  0.025811623    0.000000    0.000000    0.000000    0.000000  -92.870101   25.114416   -0.797685 -173.010239
  0.026012024    0.000000    0.000000    0.000000    0.000000  -92.825464   23.236494   -0.808233 -174.746979
  0.026212425    0.000000    0.000000    0.000000    0.000000  -93.262069   27.524008   -0.817956 -176.479568
  0.026412826    0.000000    0.000000    0.000000    0.000000  -93.414203   22.994446   -0.832441 -178.229172
  0.026613226    0.000000    0.000000    0.000000    0.000000  -93.399921   26.950706   -0.845527 -179.984329
  0.026813627    0.000000    0.000000    0.000000    0.000000  -93.877809   23.195501   -0.860838  178.243988
  0.027014028    0.000000    0.000000    0.000000    0.000000  -94.199210   25.176008   -0.876099  176.478027
  0.027214429    0.000000    0.000000    0.000000    0.000000  -94.206457   28.388464   -0.891835  174.701370
  0.027414830    0.000000    0.000000    0.000000    0.000000  -94.756091   27.033274   -0.907362  172.920654
  0.027615230    0.000000    0.000000    0.000000    0.000000  -94.558169   27.896276   -0.924153  171.120316
  0.027815631    0.000000    0.000000    0.000000    0.000000  -94.576067   28.933582   -0.939749  169.320480
  0.028016032    0.000000    0.000000    0.000000    0.000000  -95.123474   27.946722   -0.958124  167.502701
  0.028216433    0.000000    0.000000    0.000000    0.000000  -93.922085   29.578827   -0.976860  165.666794
  0.028416834    0.000000    0.000000    0.000000    0.000000  -94.162458   31.793715   -0.995646  163.825867
  0.028617234    0.000000    0.000000    0.000000    0.000000  -95.176352   32.052486   -1.016282  161.980286
  0.028817635    0.000000    0.000000    0.000000    0.000000  -95.274460   31.996176   -1.035254  160.145905
  0.029018036    0.000000    0.000000    0.000000    0.000000  -94.092911   30.761164   -1.058066  158.293915
  0.029218437    0.000000    0.000000    0.000000    0.000000  -94.364571   33.403351   -1.080578  156.430206
  0.029418838    0.000000    0.000000    0.000000    0.000000  -93.981475   33.117683   -1.104104  154.537354
  0.029619238    0.000000    0.000000    0.000000    0.000000  -94.246140   30.487898   -1.128939  152.654068
  0.029819639    0.000000    0.000000    0.000000    0.000000  -94.040738   31.069445   -1.153644  150.745087
  0.030020040    0.000000    0.000000    0.000000    0.000000  -94.060952   29.185125   -1.179389  148.837021
  0.030220441    0.000000    0.000000    0.000000    0.000000  -93.979408   27.780361   -1.202787  146.939117
  0.030420842    0.000000    0.000000    0.000000    0.000000  -94.249228   25.453625   -1.228430  145.028183
  0.030621242    0.000000    0.000000    0.000000    0.000000  -93.693348   20.314482   -1.257493  143.127670
  0.030821643    0.000000    0.000000    0.000000    0.000000  -93.770242   24.748243   -1.286820  141.211441
  0.031022044    0.000000    0.000000    0.000000    0.000000  -94.487006   24.207888   -1.315636  139.276505
  0.031222445    0.000000    0.000000    0.000000    0.000000  -94.593028   21.855391   -1.341243  137.341873
  0.031422846    0.000000    0.000000    0.000000    0.000000  -94.281257   17.504353   -1.370785  135.378281
  0.031623246    0.000000    0.000000    0.000000    0.000000  -94.398943   14.128109   -1.403096  133.410568
  0.031823647    0.000000    0.000000    0.000000    0.000000  -95.296649   15.792688   -1.435850  131.432434
  0.032024048    0.000000    0.000000    0.000000    0.000000  -95.142250   20.587563   -1.470495  129.461823
  0.032224449    0.000000    0.000000    0.000000    0.000000  -95.127916   21.720594   -1.506146  127.490410
  0.032424850    0.000000    0.000000    0.000000    0.000000  -95.453762   15.763488   -1.538395  125.505241
  0.032625250    0.000000    0.000000    0.000000    0.000000  -95.973215   15.091266   -1.577261  123.502266
  0.032825651    0.000000    0.000000    0.000000    0.000000  -95.652574   15.694773   -1.610527  121.467415
  0.033026052    0.000000    0.000000    0.000000    0.000000  -96.530512   18.068830   -1.649090  119.450363
  0.033226453    0.000000    0.000000    0.000000    0.000000  -95.958067   15.722226   -1.684867  117.412949
  0.033426854    0.000000    0.000000    0.000000    0.000000  -96.411036   18.950233   -1.724143  115.384544
  0.033627254    0.000000    0.000000    0.000000    0.000000  -96.494559   17.221624   -1.763722  113.373154
  0.033827655    0.000000    0.000000    0.000000    0.000000  -96.294537   21.068001   -1.803120  111.318649
  0.034028056    0.000000    0.000000    0.000000    0.000000  -97.118835   33.545383   -1.840926  109.293594
  0.034228457    0.000000    0.000000    0.000000    0.000000  -96.073057   26.120440   -1.885318  107.238152
  0.034428858    0.000000    0.000000    0.000000    0.000000  -95.423066   28.577713   -1.924640  105.165985
  0.034629258    0.000000    0.000000    0.000000    0.000000  -96.860483   24.922714   -1.970356  103.090324
  0.034829659    0.000000    0.000000    0.000000    0.000000  -96.695832   29.652754   -2.013985  101.032448
  0.035030060    0.000000    0.000000    0.000000    0.000000  -96.681521   25.329643   -2.059187   98.941734
  0.035230461    0.000000    0.000000    0.000000    0.000000  -96.680947   27.603554   -2.105630   96.859947
  0.035430862    0.000000    0.000000    0.000000    0.000000  -95.615274   26.178997   -2.154851   94.777916
  0.035631262    0.000000    0.000000    0.000000    0.000000  -95.968706   21.688398   -2.201377   92.699120
  0.035831663    0.000000    0.000000    0.000000    0.000000  -96.243018   17.943951   -2.248385   90.604988
  0.036032064    0.000000    0.000000    0.000000    0.000000  -97.395287   27.408302   -2.298447   88.523758
  0.036232465    0.000000    0.000000    0.000000    0.000000  -96.049528   24.883942   -2.348049   86.421074
  0.036432866    0.000000    0.000000    0.000000    0.000000  -96.979323   16.496687   -2.398155   84.312828
  0.036633266    0.000000    0.000000    0.000000    0.000000  -96.693772   28.317118   -2.448677   82.237518
  0.036833667    0.000000    0.000000    0.000000    0.000000  -96.415461   27.132896   -2.498191   80.140663
  0.037034068    0.000000    0.000000    0.000000    0.000000  -96.526093   20.508610   -2.553173   78.037582
  0.037234469    0.000000    0.000000    0.000000    0.000000  -96.466857   22.213797   -2.604831   75.949181
  0.037434870    0.000000    0.000000    0.000000    0.000000  -96.481208   27.339174   -2.655022   73.859116
  0.037635270    0.000000    0.000000    0.000000    0.000000  -96.247171   21.553865   -2.705995   71.775604
  0.037835671    0.000000    0.000000    0.000000    0.000000  -98.111361   19.248167   -2.761115   69.679794
  0.038036072    0.000000    0.000000    0.000000    0.000000  -96.522897   21.026642   -2.814573   67.549202
  0.038236473    0.000000    0.000000    0.000000    0.000000  -97.417844   18.743662   -2.870609   65.447456
  0.038436874    0.000000    0.000000    0.000000    0.000000  -97.831532   19.516985   -2.926755   63.318703
  0.038637274    0.000000    0.000000    0.000000    0.000000  -97.400724   26.580095   -2.983836   61.226982
  0.038837675    0.000000    0.000000    0.000000    0.000000  -98.640615   17.963705   -3.037614   59.118130
  0.039038076    0.000000    0.000000    0.000000    0.000000  -97.039442   28.338863   -3.090323   57.034527
  0.039238477    0.000000    0.000000    0.000000    0.000000 -100.180602   22.736536   -3.141882   54.967251
  0.039438878    0.000000    0.000000    0.000000    0.000000  -97.437869   30.748665   -3.196893   52.890163
  0.039639278    0.000000    0.000000    0.000000    0.000000  -97.912129   30.275223   -3.249277   50.784504
  0.039839679    0.000000    0.000000    0.000000    0.000000  -97.907030   28.971172   -3.306108   48.696938
  0.040040080    0.000000    0.000000    0.000000    0.000000  -98.319461   24.983479   -3.356940   46.605892
  0.040240481    0.000000    0.000000    0.000000    0.000000  -98.017538   27.322487   -3.407679   44.504158
  0.040440882    0.000000    0.000000    0.000000    0.000000  -97.662485   32.896835   -3.460733   42.430416
  0.040641283    0.000000    0.000000    0.000000    0.000000  -98.237579   31.488176   -3.514577   40.369263
  0.040841683    0.000000    0.000000    0.000000    0.000000  -97.970059   31.425875   -3.564611   38.297829
  0.041042084    0.000000    0.000000    0.000000    0.000000  -96.033344   25.616102   -3.619221   36.254112
  0.041242485    0.000000    0.000000    0.000000    0.000000  -98.560447   32.746738   -3.674062   34.194736
  0.041442886    0.000000    0.000000    0.000000    0.000000  -98.866747   24.870554   -3.724350   32.130013
  0.041643287    0.000000    0.000000    0.000000    0.000000  -98.229389   22.852831   -3.778455   30.055124
  0.041843687    0.000000    0.000000    0.000000    0.000000  -97.217203   24.810152   -3.827904   27.982246
  0.042044088    0.000000    0.000000    0.000000    0.000000  -98.718635   22.101192   -3.876908   25.933662
  0.042244489    0.000000    0.000000    0.000000    0.000000  -98.473627   21.540087   -3.928402   23.884640
  0.042444890    0.000000    0.000000    0.000000    0.000000  -97.330744   23.849771   -3.978161   21.852089
  0.042645291    0.000000    0.000000    0.000000    0.000000  -98.326109   21.746788   -4.031523   19.813473
  0.042845691    0.000000    0.000000    0.000000    0.000000  -98.954437    9.316930   -4.080586   17.792253
  0.043046092    0.000000    0.000000    0.000000    0.000000  -98.605460   27.320011   -4.131581   15.770750
  0.043246493    0.000000    0.000000    0.000000    0.000000  -97.584022   27.470953   -4.179000   13.742776
  0.043446894    0.000000    0.000000    0.000000    0.000000 -100.259691   17.530931   -4.225720   11.746171
  0.043647295    0.000000    0.000000    0.000000    0.000000  -99.799841   24.842056   -4.273114    9.739562
  0.043847695    0.000000    0.000000    0.000000    0.000000  -98.266846   26.055738   -4.319457    7.734541
  0.044048096    0.000000    0.000000    0.000000    0.000000 -100.232352   26.584526   -4.366985    5.750935
  0.044248497    0.000000    0.000000    0.000000    0.000000  -99.294898   20.170231   -4.414470    3.772700
  0.044448898    0.000000    0.000000    0.000000    0.000000  -99.388929   23.801632   -4.460731    1.833245
  0.044649299    0.000000    0.000000    0.000000    0.000000  -99.035417   30.511301   -4.506052   -0.118451
  0.044849699    0.000000    0.000000    0.000000    0.000000  -98.080946   25.468756   -4.548122   -2.055471
  0.045050100    0.000000    0.000000    0.000000    0.000000  -99.529309   35.856407   -4.594365   -4.006179
  0.045250501    0.000000    0.000000    0.000000    0.000000  -98.859875   34.551788   -4.637509   -5.935544
  0.045450902    0.000000    0.000000    0.000000    0.000000 -100.014221   32.900558   -4.682540   -7.841830
  0.045651303    0.000000    0.000000    0.000000    0.000000  -98.543448   26.244152   -4.723486   -9.774567
  0.045851703    0.000000    0.000000    0.000000    0.000000  -98.534978   30.044168   -4.764046  -11.667301
  0.046052104    0.000000    0.000000    0.000000    0.000000  -97.710669   32.015079   -4.804391  -13.554827
  0.046252505    0.000000    0.000000    0.000000    0.000000  -99.734860   31.800955   -4.843839  -15.430491
  0.046452906    0.000000    0.000000    0.000000    0.000000  -99.010206   29.524940   -4.880666  -17.293839
  0.046653307    0.000000    0.000000    0.000000    0.000000  -98.319167   28.787523   -4.920745  -19.169804
  0.046853707    0.000000    0.000000    0.000000    0.000000  -98.122143   23.687840   -4.957849  -21.028193
  0.047054108    0.000000    0.000000    0.000000    0.000000  -99.039522   36.941120   -4.990660  -22.875378
  0.047254509    0.000000    0.000000    0.000000    0.000000  -99.255305   26.146095   -5.029588  -24.740423
  0.047454910    0.000000    0.000000    0.000000    0.000000  -99.416342   31.617006   -5.064356  -26.587406
  0.047655311    0.000000    0.000000    0.000000    0.000000  -99.403504   30.362473   -5.097135  -28.384335
  0.047855711    0.000000    0.000000    0.000000    0.000000  -99.822679   34.696400   -5.130344  -30.186745
  0.048056112    0.000000    0.000000    0.000000    0.000000  -98.155775   28.269999   -5.164929  -31.975817
  0.048256513    0.000000    0.000000    0.000000    0.000000  -99.900644   29.232565   -5.195218  -33.743652
  0.048456914    0.000000    0.000000    0.000000    0.000000  -98.515032   32.139549   -5.227454  -35.534187
  0.048657315    0.000000    0.000000    0.000000    0.000000 -101.098062   25.188499   -5.256447  -37.319489
  0.048857715    0.000000    0.000000    0.000000    0.000000  -98.561417   29.880434   -5.283505  -39.067577
  0.049058116    0.000000    0.000000    0.000000    0.000000  -98.349521   22.060301   -5.308713  -40.828026
  0.049258517    0.000000    0.000000    0.000000    0.000000  -98.952086   36.594700   -5.334704  -42.572842
  0.049458918    0.000000    0.000000    0.000000    0.000000  -99.248308   33.689220   -5.357793  -44.292698
  0.049659319    0.000000    0.000000    0.000000    0.000000  -98.718425   31.889959   -5.386652  -45.990421
  0.049859719    0.000000    0.000000    0.000000    0.000000 -100.365214   32.052807   -5.410238  -47.675644
  0.050060120    0.000000    0.000000    0.000000    0.000000 -100.557753   27.184853   -5.435400  -49.350739
  0.050260521    0.000000    0.000000    0.000000    0.000000  -99.558230   34.511154   -5.454307  -51.045097
  0.050460922    0.000000    0.000000    0.000000    0.000000  -98.230200   34.836651   -5.481925  -52.723957
  0.050661323    0.000000    0.000000    0.000000    0.000000 -100.986308   33.715916   -5.499717  -54.360050
  0.050861723    0.000000    0.000000    0.000000    0.000000  -99.693792   34.856930   -5.519486  -56.012993
  0.051062124    0.000000    0.000000    0.000000    0.000000  -98.007966   35.349987   -5.541857  -57.632050
  0.051262525    0.000000    0.000000    0.000000    0.000000 -101.098086   42.332039   -5.563733  -59.228512
  0.051462926    0.000000    0.000000    0.000000    0.000000 -101.276739   31.083372   -5.583644  -60.815975
  0.051663327    0.000000    0.000000    0.000000    0.000000  -98.257399   30.500330   -5.603713  -62.404842
  0.051863727    0.000000    0.000000    0.000000    0.000000  -98.541707   27.973000   -5.617441  -63.991112
  0.052064128    0.000000    0.000000    0.000000    0.000000  -99.618986   38.941490   -5.635423  -65.559059
  0.052264529    0.000000    0.000000    0.000000    0.000000  -98.581607   36.808983   -5.646887  -67.117958
  0.052464930    0.000000    0.000000    0.000000    0.000000  -99.761860   37.674698   -5.659043  -68.651917
  0.052665331    0.000000    0.000000    0.000000    0.000000 -100.201959   14.249520   -5.677498  -70.197327
  0.052865731    0.000000    0.000000    0.000000    0.000000  -97.849759   29.304138   -5.690915  -71.702652
