! Anritsu VNA Master:                     Model: MS2036C/10/77
! SN:                                  1601066
! /bd0/18may09/254.ew.m16.s2p
! Existing Calibration Information:
! TYPE:                         Current Settings,       Active Cal Settings
! TIME:             	   05/09/2018 12:19:37 PM,    05/09/2018 12:08:51 PM
! INTERNAL TEMP:    	                   55.5 C,                    54.8 C
! # POINTS:         	                      494,                       494
! START FREQ:       	               20.000 MHz,                20.000 MHz
! STOP FREQ:        	          118.797 594 MHz,           118.797 594 MHz
! SOURCE POWER:     	                     High,                      High
! IFBW:             	                    50 Hz,                     50 Hz
! AVG FACTOR:       	                       1 ,                        1 
! REF PLANE 1:      	                     0 mm,                      0 mm
! REF PLANE 2:      	                     0 mm,                      0 mm
! CAL TYPE:         	                 Full S22,                  Full S22
! CAL METHOD:       	                     SOLT,                      SOLT
! CAL LINE TYPE:    	                     Coax,                      Coax
! DUT PORT 1:       	                K-Conn(M),                 K-Conn(M)
! DUT PORT 2:       	                K-Conn(M),                 K-Conn(M)
! CAL STATUS:       	        OK: Accuracy High,                        --
# GHZ S DB R 50.0
! FREQ.GHZ       S11DB        S11A       S21DB        S21A       S12DB        S12A       S22DB        S22A
  0.020000000    0.000000    0.000000    0.000000    0.000000  -89.641376   34.365005   -0.645965 -126.759789
  0.020200401    0.000000    0.000000    0.000000    0.000000  -90.038237   35.518829   -0.647239 -128.233078
  0.020400802    0.000000    0.000000    0.000000    0.000000  -90.407404   29.290808   -0.649078 -129.714371
  0.020601202    0.000000    0.000000    0.000000    0.000000  -90.254128   32.651672   -0.651385 -131.221527
  0.020801603    0.000000    0.000000    0.000000    0.000000  -91.134243   39.251389   -0.653471 -132.744873
  0.021002004    0.000000    0.000000    0.000000    0.000000  -91.382071   36.548523   -0.655521 -134.284119
  0.021202405    0.000000    0.000000    0.000000    0.000000  -91.446706   34.233803   -0.658637 -135.828262
  0.021402806    0.000000    0.000000    0.000000    0.000000  -92.129992   38.335743   -0.659769 -137.364685
  0.021603206    0.000000    0.000000    0.000000    0.000000  -91.560692   37.083279   -0.663857 -138.896439
  0.021803607    0.000000    0.000000    0.000000    0.000000  -91.912018   37.516018   -0.667220 -140.424133
  0.022004008    0.000000    0.000000    0.000000    0.000000  -91.752493   38.192886   -0.673371 -141.965485
  0.022204409    0.000000    0.000000    0.000000    0.000000  -92.173112   43.931103   -0.678299 -143.532761
  0.022404810    0.000000    0.000000    0.000000    0.000000  -92.123691   38.377819   -0.681324 -145.121201
  0.022605210    0.000000    0.000000    0.000000    0.000000  -92.119329   42.537922   -0.686614 -146.711487
  0.022805611    0.000000    0.000000    0.000000    0.000000  -92.092357   41.817142   -0.691176 -148.302032
  0.023006012    0.000000    0.000000    0.000000    0.000000  -91.540631   48.872768   -0.699260 -149.887497
  0.023206413    0.000000    0.000000    0.000000    0.000000  -90.957875   40.992641   -0.702695 -151.479172
  0.023406814    0.000000    0.000000    0.000000    0.000000  -91.239770   38.453148   -0.703929 -153.067215
  0.023607214    0.000000    0.000000    0.000000    0.000000  -90.683438   38.452744   -0.710851 -154.676666
  0.023807615    0.000000    0.000000    0.000000    0.000000  -90.740120   37.063019   -0.720027 -156.282562
  0.024008016    0.000000    0.000000    0.000000    0.000000  -91.517545   35.742535   -0.727828 -157.928879
  0.024208417    0.000000    0.000000    0.000000    0.000000  -91.588386   34.436310   -0.733002 -159.569733
  0.024408818    0.000000    0.000000    0.000000    0.000000  -91.469425   35.673904   -0.739791 -161.233551
  0.024609218    0.000000    0.000000    0.000000    0.000000  -91.375650   32.018772   -0.746101 -162.894135
  0.024809619    0.000000    0.000000    0.000000    0.000000  -91.155319   32.738148   -0.754629 -164.563019
  0.025010020    0.000000    0.000000    0.000000    0.000000  -91.716529   36.392311   -0.762984 -166.225327
  0.025210421    0.000000    0.000000    0.000000    0.000000  -92.062673   26.284037   -0.771784 -167.915726
  0.025410822    0.000000    0.000000    0.000000    0.000000  -91.850595   26.471100   -0.782453 -169.606659
  0.025611222    0.000000    0.000000    0.000000    0.000000  -93.166885   28.212513   -0.793257 -171.303223
  0.025811623    0.000000    0.000000    0.000000    0.000000  -92.496314   24.339605   -0.803620 -173.023422
  0.026012024    0.000000    0.000000    0.000000    0.000000  -92.264667   22.830965   -0.814508 -174.751877
  0.026212425    0.000000    0.000000    0.000000    0.000000  -93.815719   18.485605   -0.823959 -176.484375
  0.026412826    0.000000    0.000000    0.000000    0.000000  -93.339106   22.229738   -0.837948 -178.230515
  0.026613226    0.000000    0.000000    0.000000    0.000000  -93.753778   27.230797   -0.851494 -179.988876
  0.026813627    0.000000    0.000000    0.000000    0.000000  -94.414576   21.746149   -0.866312  178.246994
  0.027014028    0.000000    0.000000    0.000000    0.000000  -94.750072   24.998236   -0.881570  176.481339
  0.027214429    0.000000    0.000000    0.000000    0.000000  -94.078127   30.535505   -0.897884  174.707321
  0.027414830    0.000000    0.000000    0.000000    0.000000  -94.949480   25.816750   -0.913535  172.919174
  0.027615230    0.000000    0.000000    0.000000    0.000000  -95.012193   30.710907   -0.929513  171.122803
  0.027815631    0.000000    0.000000    0.000000    0.000000  -94.253924   29.638731   -0.946220  169.323486
  0.028016032    0.000000    0.000000    0.000000    0.000000  -94.194439   33.875851   -0.964447  167.503952
  0.028216433    0.000000    0.000000    0.000000    0.000000  -95.145287   32.171532   -0.983396  165.661682
  0.028416834    0.000000    0.000000    0.000000    0.000000  -94.996454   36.079136   -1.002147  163.822327
  0.028617234    0.000000    0.000000    0.000000    0.000000  -93.740117   35.073029   -1.022353  161.975525
  0.028817635    0.000000    0.000000    0.000000    0.000000  -94.585890   34.690979   -1.042988  160.125214
  0.029018036    0.000000    0.000000    0.000000    0.000000  -94.195999   30.628633   -1.064257  158.278687
  0.029218437    0.000000    0.000000    0.000000    0.000000  -94.103200   31.421356   -1.087449  156.416092
  0.029418838    0.000000    0.000000    0.000000    0.000000  -94.260570   31.122087   -1.110716  154.521896
  0.029619238    0.000000    0.000000    0.000000    0.000000  -93.853364   32.961998   -1.135975  152.630432
  0.029819639    0.000000    0.000000    0.000000    0.000000  -94.301650   29.220064   -1.159961  150.726913
  0.030020040    0.000000    0.000000    0.000000    0.000000  -94.637335   32.291340   -1.185298  148.820648
  0.030220441    0.000000    0.000000    0.000000    0.000000  -93.890854   28.664993   -1.208980  146.909943
  0.030420842    0.000000    0.000000    0.000000    0.000000  -94.640447   25.531895   -1.235565  145.000305
  0.030621242    0.000000    0.000000    0.000000    0.000000  -94.088804   28.978745   -1.263306  143.095657
  0.030821643    0.000000    0.000000    0.000000    0.000000  -94.246832   23.528839   -1.292506  141.184692
  0.031022044    0.000000    0.000000    0.000000    0.000000  -94.584644   23.252069   -1.321949  139.243088
  0.031222445    0.000000    0.000000    0.000000    0.000000  -94.617110   13.614989   -1.348927  137.312958
  0.031422846    0.000000    0.000000    0.000000    0.000000  -94.040485   26.143145   -1.378120  135.345230
  0.031623246    0.000000    0.000000    0.000000    0.000000  -94.626921   20.243563   -1.409981  133.378052
  0.031823647    0.000000    0.000000    0.000000    0.000000  -95.106985   22.692219   -1.442643  131.398193
  0.032024048    0.000000    0.000000    0.000000    0.000000  -94.892418   10.871309   -1.476052  129.434052
  0.032224449    0.000000    0.000000    0.000000    0.000000  -94.708819   15.726209   -1.511131  127.461769
  0.032424850    0.000000    0.000000    0.000000    0.000000  -95.638900   12.731480   -1.544716  125.470932
  0.032625250    0.000000    0.000000    0.000000    0.000000  -95.918995   20.277435   -1.582466  123.475533
  0.032825651    0.000000    0.000000    0.000000    0.000000  -95.866790   15.712319   -1.615929  121.439957
  0.033026052    0.000000    0.000000    0.000000    0.000000  -95.818055   19.005156   -1.654222  119.428726
  0.033226453    0.000000    0.000000    0.000000    0.000000  -96.947709   25.566799   -1.688687  117.398193
  0.033426854    0.000000    0.000000    0.000000    0.000000  -96.061934   21.593706   -1.728336  115.378250
  0.033627254    0.000000    0.000000    0.000000    0.000000  -96.997112   28.754322   -1.768267  113.376167
  0.033827655    0.000000    0.000000    0.000000    0.000000  -96.009205   25.196203   -1.807214  111.333054
  0.034028056    0.000000    0.000000    0.000000    0.000000  -96.755381   33.311581   -1.845714  109.301125
  0.034228457    0.000000    0.000000    0.000000    0.000000  -97.497943   22.026630   -1.889403  107.251511
  0.034428858    0.000000    0.000000    0.000000    0.000000  -96.370675   25.616150   -1.929506  105.186996
  0.034629258    0.000000    0.000000    0.000000    0.000000  -97.711780   31.123564   -1.974895  103.120926
  0.034829659    0.000000    0.000000    0.000000    0.000000  -95.956020   23.932867   -2.018247  101.062675
  0.035030060    0.000000    0.000000    0.000000    0.000000  -95.224799   23.287165   -2.063247   98.973824
  0.035230461    0.000000    0.000000    0.000000    0.000000  -97.105126   28.722782   -2.110826   96.900871
  0.035430862    0.000000    0.000000    0.000000    0.000000  -96.282879   28.454615   -2.158913   94.819633
  0.035631262    0.000000    0.000000    0.000000    0.000000  -96.741678   24.901909   -2.207030   92.740700
  0.035831663    0.000000    0.000000    0.000000    0.000000  -95.634562   25.080551   -2.255047   90.653687
  0.036032064    0.000000    0.000000    0.000000    0.000000  -96.564844   20.302853   -2.302931   88.561943
  0.036232465    0.000000    0.000000    0.000000    0.000000  -96.584747   23.358536   -2.355662   86.457756
  0.036432866    0.000000    0.000000    0.000000    0.000000  -95.987575   21.950897   -2.404530   84.343338
  0.036633266    0.000000    0.000000    0.000000    0.000000  -96.570961   26.527481   -2.456166   82.264153
  0.036833667    0.000000    0.000000    0.000000    0.000000  -95.493792   20.468149   -2.505738   80.155769
  0.037034068    0.000000    0.000000    0.000000    0.000000  -96.971966   22.521479   -2.560515   78.053902
  0.037234469    0.000000    0.000000    0.000000    0.000000  -97.302785   22.681103   -2.611079   75.956169
  0.037434870    0.000000    0.000000    0.000000    0.000000  -97.447398   18.308138   -2.663561   73.865906
  0.037635270    0.000000    0.000000    0.000000    0.000000  -98.226178   22.541431   -2.715634   71.772957
  0.037835671    0.000000    0.000000    0.000000    0.000000  -97.652049   23.442694   -2.769966   69.683884
  0.038036072    0.000000    0.000000    0.000000    0.000000  -97.757388   16.160610   -2.822579   67.547699
  0.038236473    0.000000    0.000000    0.000000    0.000000  -96.898866   21.514402   -2.878495   65.428680
  0.038436874    0.000000    0.000000    0.000000    0.000000  -97.641819   32.363712   -2.933946   63.302944
  0.038637274    0.000000    0.000000    0.000000    0.000000  -98.026558   13.240186   -2.989336   61.204567
  0.038837675    0.000000    0.000000    0.000000    0.000000  -98.354778   26.242146   -3.044322   59.094681
  0.039038076    0.000000    0.000000    0.000000    0.000000  -97.201487   31.880093   -3.096353   57.003254
  0.039238477    0.000000    0.000000    0.000000    0.000000  -97.221504   28.253614   -3.149575   54.927528
  0.039438878    0.000000    0.000000    0.000000    0.000000  -97.236521   25.829802   -3.204510   52.854309
  0.039639278    0.000000    0.000000    0.000000    0.000000  -98.759844   26.574871   -3.254611   50.750397
  0.039839679    0.000000    0.000000    0.000000    0.000000  -98.185950   29.315804   -3.311559   48.655155
  0.040040080    0.000000    0.000000    0.000000    0.000000  -97.027804   23.495079   -3.363037   46.571800
  0.040240481    0.000000    0.000000    0.000000    0.000000  -98.408112   21.317543   -3.413218   44.476532
  0.040440882    0.000000    0.000000    0.000000    0.000000  -96.902395   35.507187   -3.465885   42.405621
  0.040641283    0.000000    0.000000    0.000000    0.000000  -97.904080   23.784021   -3.518964   40.337723
  0.040841683    0.000000    0.000000    0.000000    0.000000  -98.189054   28.638559   -3.568206   38.286613
  0.041042084    0.000000    0.000000    0.000000    0.000000  -97.916046   26.835247   -3.623547   36.239140
  0.041242485    0.000000    0.000000    0.000000    0.000000  -97.666350   26.015488   -3.676340   34.176182
  0.041442886    0.000000    0.000000    0.000000    0.000000  -97.832584   35.972149   -3.727803   32.126652
  0.041643287    0.000000    0.000000    0.000000    0.000000  -97.213794   28.638256   -3.780202   30.049004
  0.041843687    0.000000    0.000000    0.000000    0.000000  -97.664702   27.666451   -3.829444   27.987038
  0.042044088    0.000000    0.000000    0.000000    0.000000  -98.346502   27.468197   -3.879230   25.942707
  0.042244489    0.000000    0.000000    0.000000    0.000000  -97.261887   23.584539   -3.931018   23.893959
  0.042444890    0.000000    0.000000    0.000000    0.000000  -97.271567   25.205906   -3.981399   21.873545
  0.042645291    0.000000    0.000000    0.000000    0.000000  -98.209280   31.211178   -4.035947   19.831161
  0.042845691    0.000000    0.000000    0.000000    0.000000  -98.040464   27.932611   -4.085676   17.824417
  0.043046092    0.000000    0.000000    0.000000    0.000000  -98.312840   26.732624   -4.136475   15.796551
  0.043246493    0.000000    0.000000    0.000000    0.000000  -98.858672   27.056980   -4.185017   13.773687
  0.043446894    0.000000    0.000000    0.000000    0.000000  -97.726418   26.659363   -4.231114   11.774241
  0.043647295    0.000000    0.000000    0.000000    0.000000 -100.371499   28.379986   -4.278919    9.764690
  0.043847695    0.000000    0.000000    0.000000    0.000000  -98.745807   29.179800   -4.325659    7.758947
  0.044048096    0.000000    0.000000    0.000000    0.000000  -99.526871   29.678869   -4.373296    5.782884
  0.044248497    0.000000    0.000000    0.000000    0.000000  -98.979108   27.997965   -4.419871    3.798584
  0.044448898    0.000000    0.000000    0.000000    0.000000 -100.021542   26.917711   -4.466137    1.847607
  0.044649299    0.000000    0.000000    0.000000    0.000000  -99.146534   33.409584   -4.510403   -0.114794
  0.044849699    0.000000    0.000000    0.000000    0.000000  -99.140451   32.306610   -4.555996   -2.046312
  0.045050100    0.000000    0.000000    0.000000    0.000000  -99.929044   34.049454   -4.600426   -3.997830
  0.045250501    0.000000    0.000000    0.000000    0.000000  -99.096783   32.192135   -4.646145   -5.931242
  0.045450902    0.000000    0.000000    0.000000    0.000000  -98.014812   43.909630   -4.689828   -7.855083
  0.045651303    0.000000    0.000000    0.000000    0.000000  -98.369132   30.097523   -4.730130   -9.788864
  0.045851703    0.000000    0.000000    0.000000    0.000000  -99.184038   26.697683   -4.771399  -11.678133
  0.046052104    0.000000    0.000000    0.000000    0.000000  -98.760400   18.277452   -4.809474  -13.573475
  0.046252505    0.000000    0.000000    0.000000    0.000000  -99.719529   33.976234   -4.849084  -15.453756
  0.046452906    0.000000    0.000000    0.000000    0.000000  -98.442037   29.375834   -4.886034  -17.325830
  0.046653307    0.000000    0.000000    0.000000    0.000000  -97.541552   24.894873   -4.924963  -19.203224
  0.046853707    0.000000    0.000000    0.000000    0.000000  -97.795982   29.161875   -4.961848  -21.090080
  0.047054108    0.000000    0.000000    0.000000    0.000000  -99.759367   36.236858   -4.997752  -22.949091
  0.047254509    0.000000    0.000000    0.000000    0.000000  -98.791606   28.016958   -5.035216  -24.803963
  0.047454910    0.000000    0.000000    0.000000    0.000000  -98.446036   36.179005   -5.067949  -26.635681
  0.047655311    0.000000    0.000000    0.000000    0.000000  -97.469581   32.083752   -5.101065  -28.444057
  0.047855711    0.000000    0.000000    0.000000    0.000000  -99.166406   35.187408   -5.132956  -30.255806
  0.048056112    0.000000    0.000000    0.000000    0.000000  -98.134741   27.762274   -5.168122  -32.033440
  0.048256513    0.000000    0.000000    0.000000    0.000000  -98.128021   30.641329   -5.198160  -33.810795
  0.048456914    0.000000    0.000000    0.000000    0.000000  -97.769232   30.764620   -5.229022  -35.574230
  0.048657315    0.000000    0.000000    0.000000    0.000000  -99.972453   29.912773   -5.257848  -37.361526
  0.048857715    0.000000    0.000000    0.000000    0.000000  -98.490374   19.976765   -5.285557  -39.099178
  0.049058116    0.000000    0.000000    0.000000    0.000000  -98.524556   34.376690   -5.308894  -40.868282
  0.049258517    0.000000    0.000000    0.000000    0.000000  -99.946841   24.580128   -5.335709  -42.591297
  0.049458918    0.000000    0.000000    0.000000    0.000000  -99.936821   27.245682   -5.358063  -44.303337
  0.049659319    0.000000    0.000000    0.000000    0.000000 -100.822141   39.840530   -5.388721  -45.998573
  0.049859719    0.000000    0.000000    0.000000    0.000000 -100.953705   37.238045   -5.410096  -47.692383
  0.050060120    0.000000    0.000000    0.000000    0.000000 -101.091488   31.624651   -5.434036  -49.358185
  0.050260521    0.000000    0.000000    0.000000    0.000000  -99.470824   26.145744   -5.454968  -51.047924
  0.050460922    0.000000    0.000000    0.000000    0.000000  -99.865351   27.379705   -5.477748  -52.711239
  0.050661323    0.000000    0.000000    0.000000    0.000000  -99.907001   32.388210   -5.496046  -54.344620
  0.050861723    0.000000    0.000000    0.000000    0.000000  -98.048822   36.247143   -5.516758  -55.986118
  0.051062124    0.000000    0.000000    0.000000    0.000000  -98.572104   39.814896   -5.541326  -57.618217
  0.051262525    0.000000    0.000000    0.000000    0.000000  -99.994006   31.390657   -5.561608  -59.216236
  0.051462926    0.000000    0.000000    0.000000    0.000000 -100.393293   35.142879   -5.580273  -60.804310
  0.051663327    0.000000    0.000000    0.000000    0.000000  -98.185147   31.731651   -5.601975  -62.392105
  0.051863727    0.000000    0.000000    0.000000    0.000000  -98.592302   29.400446   -5.616249  -63.984722
  0.052064128    0.000000    0.000000    0.000000    0.000000  -98.967835   33.674419   -5.636131  -65.566933
  0.052264529    0.000000    0.000000    0.000000    0.000000  -98.830282   28.480633   -5.648348  -67.136292
  0.052464930    0.000000    0.000000    0.000000    0.000000  -98.814824   36.334991   -5.661211  -68.674652
  0.052665331    0.000000    0.000000    0.000000    0.000000  -98.150921   29.511168   -5.677963  -70.222794
  0.052865731    0.000000    0.000000    0.000000    0.000000  -99.242744   28.653631   -5.692837  -71.745628
