! Anritsu VNA Master:                     Model: MS2036C/10/77
! SN:                                  1601066
! /bd0/18may09/254.ew.m9.s2p
! Existing Calibration Information:
! TYPE:                         Current Settings,       Active Cal Settings
! TIME:             	   05/09/2018 12:02:06 PM,    05/09/2018 11:52:33 AM
! INTERNAL TEMP:    	                   54.3 C,                    53.5 C
! # POINTS:         	                      494,                       494
! START FREQ:       	               20.000 MHz,                20.000 MHz
! STOP FREQ:        	          118.797 594 MHz,           118.797 594 MHz
! SOURCE POWER:     	                     High,                      High
! IFBW:             	                    50 Hz,                     50 Hz
! AVG FACTOR:       	                       1 ,                        1 
! REF PLANE 1:      	                     0 mm,                      0 mm
! REF PLANE 2:      	                     0 mm,                      0 mm
! CAL TYPE:         	                 Full S22,                  Full S22
! CAL METHOD:       	                     SOLT,                      SOLT
! CAL LINE TYPE:    	                     Coax,                      Coax
! DUT PORT 1:       	                K-Conn(M),                 K-Conn(M)
! DUT PORT 2:       	                K-Conn(M),                 K-Conn(M)
! CAL STATUS:       	        OK: Accuracy High,                        --
# GHZ S DB R 50.0
! FREQ.GHZ       S11DB        S11A       S21DB        S21A       S12DB        S12A       S22DB        S22A
  0.020000000    0.000000    0.000000    0.000000    0.000000  -89.390042   34.383137   -0.641390 -126.592758
  0.020200401    0.000000    0.000000    0.000000    0.000000  -89.945589   32.881943   -0.642423 -128.069931
  0.020400802    0.000000    0.000000    0.000000    0.000000  -90.009547   33.198158   -0.646114 -129.539566
  0.020601202    0.000000    0.000000    0.000000    0.000000  -90.683472   35.274101   -0.647810 -131.047363
  0.020801603    0.000000    0.000000    0.000000    0.000000  -90.422612   34.080685   -0.650010 -132.584747
  0.021002004    0.000000    0.000000    0.000000    0.000000  -90.899670   36.662788   -0.651851 -134.128891
  0.021202405    0.000000    0.000000    0.000000    0.000000  -91.976177   33.434803   -0.653611 -135.678024
  0.021402806    0.000000    0.000000    0.000000    0.000000  -91.409377   34.053917   -0.658570 -137.222504
  0.021603206    0.000000    0.000000    0.000000    0.000000  -92.002655   39.157299   -0.659800 -138.750031
  0.021803607    0.000000    0.000000    0.000000    0.000000  -92.167289   38.176620   -0.662510 -140.300644
  0.022004008    0.000000    0.000000    0.000000    0.000000  -91.469646   42.367054   -0.668320 -141.847427
  0.022204409    0.000000    0.000000    0.000000    0.000000  -91.819139   41.382378   -0.670612 -143.420914
  0.022404810    0.000000    0.000000    0.000000    0.000000  -91.949991   36.742035   -0.680455 -144.996475
  0.022605210    0.000000    0.000000    0.000000    0.000000  -92.032763   41.089516   -0.683601 -146.586441
  0.022805611    0.000000    0.000000    0.000000    0.000000  -92.496336   41.904903   -0.682516 -148.179947
  0.023006012    0.000000    0.000000    0.000000    0.000000  -91.639776   46.287682   -0.685947 -149.775192
  0.023206413    0.000000    0.000000    0.000000    0.000000  -91.669559   42.016705   -0.691033 -151.354446
  0.023406814    0.000000    0.000000    0.000000    0.000000  -91.335111   41.118347   -0.696438 -152.938202
  0.023607214    0.000000    0.000000    0.000000    0.000000  -91.192066   40.431339   -0.703855 -154.515900
  0.023807615    0.000000    0.000000    0.000000    0.000000  -90.965964   38.364464   -0.712781 -156.108536
  0.024008016    0.000000    0.000000    0.000000    0.000000  -91.168099   39.292645   -0.717868 -157.745804
  0.024208417    0.000000    0.000000    0.000000    0.000000  -91.003594   36.576832   -0.724279 -159.380844
  0.024408818    0.000000    0.000000    0.000000    0.000000  -92.030606   35.210941   -0.730736 -161.036972
  0.024609218    0.000000    0.000000    0.000000    0.000000  -90.928884   32.710739   -0.736723 -162.670288
  0.024809619    0.000000    0.000000    0.000000    0.000000  -91.207346   33.110237   -0.744592 -164.325867
  0.025010020    0.000000    0.000000    0.000000    0.000000  -92.075734   29.484827   -0.753619 -165.989609
  0.025210421    0.000000    0.000000    0.000000    0.000000  -91.627322   30.687111   -0.764141 -167.657913
  0.025410822    0.000000    0.000000    0.000000    0.000000  -92.179543   27.280193   -0.773438 -169.342865
  0.025611222    0.000000    0.000000    0.000000    0.000000  -92.309039   25.537556   -0.785186 -171.045364
  0.025811623    0.000000    0.000000    0.000000    0.000000  -92.261101   23.680069   -0.796173 -172.755478
  0.026012024    0.000000    0.000000    0.000000    0.000000  -92.547584   25.257589   -0.807117 -174.484573
  0.026212425    0.000000    0.000000    0.000000    0.000000  -93.243583   24.166840   -0.819155 -176.227524
  0.026412826    0.000000    0.000000    0.000000    0.000000  -94.085261   24.708706   -0.832114 -177.977417
  0.026613226    0.000000    0.000000    0.000000    0.000000  -93.407923   28.685217   -0.847334 -179.740585
  0.026813627    0.000000    0.000000    0.000000    0.000000  -94.135468   24.326704   -0.861660  178.494553
  0.027014028    0.000000    0.000000    0.000000    0.000000  -93.853805   26.797630   -0.876276  176.713394
  0.027214429    0.000000    0.000000    0.000000    0.000000  -94.695222   28.498167   -0.892027  174.928238
  0.027414830    0.000000    0.000000    0.000000    0.000000  -94.016855   28.088539   -0.908453  173.134644
  0.027615230    0.000000    0.000000    0.000000    0.000000  -94.834676   26.512346   -0.925228  171.319916
  0.027815631    0.000000    0.000000    0.000000    0.000000  -95.490162   30.059566   -0.941450  169.497543
  0.028016032    0.000000    0.000000    0.000000    0.000000  -94.593240   33.415058   -0.959886  167.672791
  0.028216433    0.000000    0.000000    0.000000    0.000000  -94.478372   27.974768   -0.978398  165.815811
  0.028416834    0.000000    0.000000    0.000000    0.000000  -95.220407   30.297285   -0.996726  163.978256
  0.028617234    0.000000    0.000000    0.000000    0.000000  -94.537222   32.334763   -1.016034  162.126785
  0.028817635    0.000000    0.000000    0.000000    0.000000  -94.616051   33.923306   -1.034782  160.281418
  0.029018036    0.000000    0.000000    0.000000    0.000000  -93.721457   34.845322   -1.056592  158.437347
  0.029218437    0.000000    0.000000    0.000000    0.000000  -93.965107   29.297710   -1.078281  156.576645
  0.029418838    0.000000    0.000000    0.000000    0.000000  -93.751222   32.027008   -1.102898  154.687958
  0.029619238    0.000000    0.000000    0.000000    0.000000  -94.195971   27.407993   -1.125140  152.813919
  0.029819639    0.000000    0.000000    0.000000    0.000000  -93.687009   30.819155   -1.150384  150.922150
  0.030020040    0.000000    0.000000    0.000000    0.000000  -94.169981   28.031221   -1.175762  149.022339
  0.030220441    0.000000    0.000000    0.000000    0.000000  -93.925056   31.220085   -1.200332  147.124908
  0.030420842    0.000000    0.000000    0.000000    0.000000  -94.300053   24.720732   -1.226613  145.240005
  0.030621242    0.000000    0.000000    0.000000    0.000000  -93.919604   21.753965   -1.254606  143.350983
  0.030821643    0.000000    0.000000    0.000000    0.000000  -94.449765   23.863585   -1.284762  141.440918
  0.031022044    0.000000    0.000000    0.000000    0.000000  -94.495600   23.330538   -1.314658  139.521988
  0.031222445    0.000000    0.000000    0.000000    0.000000  -93.743130   16.036051   -1.339566  137.602402
  0.031422846    0.000000    0.000000    0.000000    0.000000  -94.435436   20.151932   -1.372170  135.646484
  0.031623246    0.000000    0.000000    0.000000    0.000000  -94.409020   16.382706   -1.405679  133.675964
  0.031823647    0.000000    0.000000    0.000000    0.000000  -94.712245   19.961058   -1.439329  131.706528
  0.032024048    0.000000    0.000000    0.000000    0.000000  -95.367518   23.919340   -1.474110  129.727570
  0.032224449    0.000000    0.000000    0.000000    0.000000  -96.131387   17.463030   -1.508548  127.747322
  0.032424850    0.000000    0.000000    0.000000    0.000000  -95.892487   17.116598   -1.545943  125.763710
  0.032625250    0.000000    0.000000    0.000000    0.000000  -95.925792   13.971773   -1.582903  123.739601
  0.032825651    0.000000    0.000000    0.000000    0.000000  -95.678924   20.439034   -1.620280  121.716484
  0.033026052    0.000000    0.000000    0.000000    0.000000  -95.859604   14.960826   -1.655755  119.672333
  0.033226453    0.000000    0.000000    0.000000    0.000000  -96.363151   16.694262   -1.695112  117.627876
  0.033426854    0.000000    0.000000    0.000000    0.000000  -96.642351   20.334970   -1.731010  115.593941
  0.033627254    0.000000    0.000000    0.000000    0.000000  -96.255188   24.954514   -1.770955  113.541756
  0.033827655    0.000000    0.000000    0.000000    0.000000  -96.369602   19.034437   -1.812046  111.496094
  0.034028056    0.000000    0.000000    0.000000    0.000000  -96.726257   26.364285   -1.851580  109.433670
  0.034228457    0.000000    0.000000    0.000000    0.000000  -96.675895   29.935978   -1.892368  107.367355
  0.034428858    0.000000    0.000000    0.000000    0.000000  -97.389222   19.483118   -1.935112  105.275391
  0.034629258    0.000000    0.000000    0.000000    0.000000  -97.284874   28.025471   -1.976283  103.200554
  0.034829659    0.000000    0.000000    0.000000    0.000000  -95.824157   24.586622   -2.019172  101.116837
  0.035030060    0.000000    0.000000    0.000000    0.000000  -96.773073   26.984772   -2.065809   99.050529
  0.035230461    0.000000    0.000000    0.000000    0.000000  -96.003075   25.893240   -2.110163   96.968887
  0.035430862    0.000000    0.000000    0.000000    0.000000  -96.338082   21.234730   -2.156744   94.889961
  0.035631262    0.000000    0.000000    0.000000    0.000000  -96.560310   28.086651   -2.202296   92.806702
  0.035831663    0.000000    0.000000    0.000000    0.000000  -96.604962   21.927687   -2.252002   90.741783
  0.036032064    0.000000    0.000000    0.000000    0.000000  -96.167097   16.797413   -2.299519   88.650108
  0.036232465    0.000000    0.000000    0.000000    0.000000  -96.649908   20.836872   -2.349482   86.562973
  0.036432866    0.000000    0.000000    0.000000    0.000000  -96.417006   18.857473   -2.398307   84.478432
  0.036633266    0.000000    0.000000    0.000000    0.000000  -96.693185   21.667444   -2.449190   82.409370
  0.036833667    0.000000    0.000000    0.000000    0.000000  -96.535082   19.527473   -2.501460   80.323563
  0.037034068    0.000000    0.000000    0.000000    0.000000  -97.296160   20.693535   -2.554503   78.234886
  0.037234469    0.000000    0.000000    0.000000    0.000000  -96.898484   27.294001   -2.608204   76.165291
  0.037434870    0.000000    0.000000    0.000000    0.000000  -97.689133   20.777597   -2.662107   74.093750
  0.037635270    0.000000    0.000000    0.000000    0.000000  -96.458054   21.783434   -2.714451   72.018257
  0.037835671    0.000000    0.000000    0.000000    0.000000  -97.484355   29.964413   -2.767814   69.908195
  0.038036072    0.000000    0.000000    0.000000    0.000000  -97.716253   16.170496   -2.826962   67.781067
  0.038236473    0.000000    0.000000    0.000000    0.000000  -97.904354   20.461046   -2.881030   65.669662
  0.038436874    0.000000    0.000000    0.000000    0.000000  -98.005622   18.890181   -2.939831   63.560936
  0.038637274    0.000000    0.000000    0.000000    0.000000  -96.836476   15.245152   -2.998791   61.438248
  0.038837675    0.000000    0.000000    0.000000    0.000000  -97.253507   23.024242   -3.051184   59.342419
  0.039038076    0.000000    0.000000    0.000000    0.000000  -97.691089   19.606291   -3.104739   57.237835
  0.039238477    0.000000    0.000000    0.000000    0.000000  -97.156975   18.177258   -3.159298   55.137825
  0.039438878    0.000000    0.000000    0.000000    0.000000  -97.775139   30.817879   -3.213945   53.044895
  0.039639278    0.000000    0.000000    0.000000    0.000000  -97.359898   22.326641   -3.268040   50.935654
  0.039839679    0.000000    0.000000    0.000000    0.000000  -97.620316   17.623680   -3.322537   48.826797
  0.040040080    0.000000    0.000000    0.000000    0.000000  -97.622173   25.562235   -3.375093   46.710632
  0.040240481    0.000000    0.000000    0.000000    0.000000  -98.438625   38.131653   -3.427500   44.599033
  0.040440882    0.000000    0.000000    0.000000    0.000000  -98.514360   30.057199   -3.476862   42.499649
  0.040641283    0.000000    0.000000    0.000000    0.000000  -97.150939   27.120497   -3.527313   40.438404
  0.040841683    0.000000    0.000000    0.000000    0.000000  -97.481877   35.592049   -3.578863   38.358707
  0.041042084    0.000000    0.000000    0.000000    0.000000  -97.249174   28.688116   -3.629828   36.290897
  0.041242485    0.000000    0.000000    0.000000    0.000000  -97.767435   24.660887   -3.681946   34.224380
  0.041442886    0.000000    0.000000    0.000000    0.000000  -96.728062   25.907230   -3.732885   32.160507
  0.041643287    0.000000    0.000000    0.000000    0.000000  -97.382039   24.364210   -3.782129   30.104971
  0.041843687    0.000000    0.000000    0.000000    0.000000  -97.282298   26.651138   -3.831718   28.028809
  0.042044088    0.000000    0.000000    0.000000    0.000000  -97.395218   23.758556   -3.881150   25.981747
  0.042244489    0.000000    0.000000    0.000000    0.000000  -97.536339   27.704832   -3.928538   23.952137
  0.042444890    0.000000    0.000000    0.000000    0.000000  -97.794852   31.327261   -3.979866   21.937546
  0.042645291    0.000000    0.000000    0.000000    0.000000  -98.433854   23.128864   -4.029993   19.905264
  0.042845691    0.000000    0.000000    0.000000    0.000000  -97.592802   23.358324   -4.082153   17.901894
  0.043046092    0.000000    0.000000    0.000000    0.000000  -98.903193   25.684429   -4.130787   15.885212
  0.043246493    0.000000    0.000000    0.000000    0.000000  -98.724707   18.335686   -4.180262   13.866632
  0.043446894    0.000000    0.000000    0.000000    0.000000  -99.905856   24.802864   -4.229340   11.870205
  0.043647295    0.000000    0.000000    0.000000    0.000000  -98.109470   32.109268   -4.276149    9.854965
  0.043847695    0.000000    0.000000    0.000000    0.000000 -100.511177   31.683411   -4.321311    7.888021
  0.044048096    0.000000    0.000000    0.000000    0.000000  -99.105271   28.591120   -4.371306    5.902822
  0.044248497    0.000000    0.000000    0.000000    0.000000 -100.551996   24.013073   -4.419356    3.941941
  0.044448898    0.000000    0.000000    0.000000    0.000000  -99.074207   25.721880   -4.468756    1.962482
  0.044649299    0.000000    0.000000    0.000000    0.000000  -98.739804   22.732302   -4.513237    0.017806
  0.044849699    0.000000    0.000000    0.000000    0.000000 -101.510128   22.562241   -4.559695   -1.929380
  0.045050100    0.000000    0.000000    0.000000    0.000000  -99.245021   34.482449   -4.603275   -3.889368
  0.045250501    0.000000    0.000000    0.000000    0.000000  -98.551067   35.889553   -4.643132   -5.847545
  0.045450902    0.000000    0.000000    0.000000    0.000000  -99.059156   18.917475   -4.684644   -7.776075
  0.045651303    0.000000    0.000000    0.000000    0.000000  -98.327121   29.064669   -4.723293   -9.713182
  0.045851703    0.000000    0.000000    0.000000    0.000000  -98.463154   29.263912   -4.765229  -11.623044
  0.046052104    0.000000    0.000000    0.000000    0.000000  -97.887283   28.244377   -4.805268  -13.517178
  0.046252505    0.000000    0.000000    0.000000    0.000000  -98.948087   33.856728   -4.846135  -15.397396
  0.046452906    0.000000    0.000000    0.000000    0.000000  -99.348312   29.903170   -4.882264  -17.255857
  0.046653307    0.000000    0.000000    0.000000    0.000000  -98.964629   32.975590   -4.919824  -19.126976
  0.046853707    0.000000    0.000000    0.000000    0.000000  -98.635749   35.581593   -4.956728  -20.977024
  0.047054108    0.000000    0.000000    0.000000    0.000000  -99.038826   24.789043   -4.991127  -22.818798
  0.047254509    0.000000    0.000000    0.000000    0.000000  -98.928407   33.810181   -5.025384  -24.675238
  0.047454910    0.000000    0.000000    0.000000    0.000000  -97.783286   40.275120   -5.053959  -26.488024
  0.047655311    0.000000    0.000000    0.000000    0.000000  -98.901737   33.796703   -5.086828  -28.299110
  0.047855711    0.000000    0.000000    0.000000    0.000000  -99.934475   34.050751   -5.117581  -30.074429
  0.048056112    0.000000    0.000000    0.000000    0.000000  -98.561721   26.211298   -5.149554  -31.858013
  0.048256513    0.000000    0.000000    0.000000    0.000000  -99.558546   27.907038   -5.182906  -33.627819
  0.048456914    0.000000    0.000000    0.000000    0.000000  -98.630618   34.625057   -5.215322  -35.367634
  0.048657315    0.000000    0.000000    0.000000    0.000000  -98.576287   32.212788   -5.244880  -37.126408
  0.048857715    0.000000    0.000000    0.000000    0.000000  -98.903784   23.838377   -5.272032  -38.880638
  0.049058116    0.000000    0.000000    0.000000    0.000000  -98.370821   32.977036   -5.297670  -40.640820
  0.049258517    0.000000    0.000000    0.000000    0.000000  -99.802357   31.773979   -5.325320  -42.346066
  0.049458918    0.000000    0.000000    0.000000    0.000000  -99.428775   32.217770   -5.353507  -44.046070
  0.049659319    0.000000    0.000000    0.000000    0.000000  -99.730657   31.818348   -5.380800  -45.756378
  0.049859719    0.000000    0.000000    0.000000    0.000000  -99.202707   26.914993   -5.406565  -47.450207
  0.050060120    0.000000    0.000000    0.000000    0.000000 -100.820624   42.102268   -5.431457  -49.112118
  0.050260521    0.000000    0.000000    0.000000    0.000000 -100.274101   40.113651   -5.456467  -50.819874
  0.050460922    0.000000    0.000000    0.000000    0.000000  -99.320584   37.277534   -5.478113  -52.485394
  0.050661323    0.000000    0.000000    0.000000    0.000000  -99.413901   35.012009   -5.499227  -54.151234
  0.050861723    0.000000    0.000000    0.000000    0.000000  -99.320695   37.609501   -5.517378  -55.832409
  0.051062124    0.000000    0.000000    0.000000    0.000000  -98.200648   36.394257   -5.538515  -57.485592
  0.051262525    0.000000    0.000000    0.000000    0.000000  -98.350066   35.929657   -5.561350  -59.090023
  0.051462926    0.000000    0.000000    0.000000    0.000000  -99.433697   36.698704   -5.581710  -60.684380
  0.051663327    0.000000    0.000000    0.000000    0.000000  -98.807036   27.677950   -5.597258  -62.311535
  0.051863727    0.000000    0.000000    0.000000    0.000000  -99.370960   38.110966   -5.616392  -63.888065
  0.052064128    0.000000    0.000000    0.000000    0.000000  -99.200841   21.977446   -5.628873  -65.487946
  0.052264529    0.000000    0.000000    0.000000    0.000000  -98.311712   40.155861   -5.638890  -67.056282
  0.052464930    0.000000    0.000000    0.000000    0.000000  -98.564118   38.621754   -5.650176  -68.602249
  0.052665331    0.000000    0.000000    0.000000    0.000000  -99.238198   38.695717   -5.665937  -70.144547
  0.052865731    0.000000    0.000000    0.000000    0.000000  -97.686069   30.041861   -5.675201  -71.663116
