! Anritsu VNA Master:                     Model: MS2036C/10/77
! SN:                                  1601066
! /bd0/18may09/254.ew.m14.s2p
! Existing Calibration Information:
! TYPE:                         Current Settings,       Active Cal Settings
! TIME:             	   05/09/2018 12:16:04 PM,    05/09/2018 12:08:51 PM
! INTERNAL TEMP:    	                   55.3 C,                    54.8 C
! # POINTS:         	                      494,                       494
! START FREQ:       	               20.000 MHz,                20.000 MHz
! STOP FREQ:        	          118.797 594 MHz,           118.797 594 MHz
! SOURCE POWER:     	                     High,                      High
! IFBW:             	                    50 Hz,                     50 Hz
! AVG FACTOR:       	                       1 ,                        1 
! REF PLANE 1:      	                     0 mm,                      0 mm
! REF PLANE 2:      	                     0 mm,                      0 mm
! CAL TYPE:         	                 Full S22,                  Full S22
! CAL METHOD:       	                     SOLT,                      SOLT
! CAL LINE TYPE:    	                     Coax,                      Coax
! DUT PORT 1:       	                K-Conn(M),                 K-Conn(M)
! DUT PORT 2:       	                K-Conn(M),                 K-Conn(M)
! CAL STATUS:       	        OK: Accuracy High,                        --
# GHZ S DB R 50.0
! FREQ.GHZ       S11DB        S11A       S21DB        S21A       S12DB        S12A       S22DB        S22A
  0.020000000    0.000000    0.000000    0.000000    0.000000  -89.543303   34.271702   -0.632822 -126.795929
  0.020200401    0.000000    0.000000    0.000000    0.000000  -89.607554   34.503853   -0.634689 -128.264252
  0.020400802    0.000000    0.000000    0.000000    0.000000  -90.697657   36.329212   -0.636478 -129.737061
  0.020601202    0.000000    0.000000    0.000000    0.000000  -90.380426   32.770199   -0.638955 -131.236237
  0.020801603    0.000000    0.000000    0.000000    0.000000  -90.478476   32.420929   -0.641873 -132.761261
  0.021002004    0.000000    0.000000    0.000000    0.000000  -91.755496   35.847141   -0.644709 -134.297440
  0.021202405    0.000000    0.000000    0.000000    0.000000  -91.096841   37.336674   -0.648099 -135.841446
  0.021402806    0.000000    0.000000    0.000000    0.000000  -91.819823   36.621143   -0.648496 -137.375015
  0.021603206    0.000000    0.000000    0.000000    0.000000  -91.770667   38.663071   -0.653845 -138.909668
  0.021803607    0.000000    0.000000    0.000000    0.000000  -92.328502   39.700233   -0.657376 -140.426147
  0.022004008    0.000000    0.000000    0.000000    0.000000  -91.518407   40.378513   -0.662217 -141.964813
  0.022204409    0.000000    0.000000    0.000000    0.000000  -92.001750   40.457073   -0.668259 -143.538055
  0.022404810    0.000000    0.000000    0.000000    0.000000  -91.626816   39.059380   -0.674135 -145.116425
  0.022605210    0.000000    0.000000    0.000000    0.000000  -92.067099   39.803600   -0.676766 -146.707062
  0.022805611    0.000000    0.000000    0.000000    0.000000  -91.428276   42.840874   -0.681059 -148.298279
  0.023006012    0.000000    0.000000    0.000000    0.000000  -91.463706   41.880440   -0.687724 -149.890747
  0.023206413    0.000000    0.000000    0.000000    0.000000  -91.193328   41.090538   -0.692373 -151.474274
  0.023406814    0.000000    0.000000    0.000000    0.000000  -91.076635   44.301403   -0.696667 -153.060272
  0.023607214    0.000000    0.000000    0.000000    0.000000  -91.429035   40.492737   -0.703565 -154.669846
  0.023807615    0.000000    0.000000    0.000000    0.000000  -91.242299   38.444241   -0.711704 -156.281204
  0.024008016    0.000000    0.000000    0.000000    0.000000  -91.222314   36.485096   -0.719731 -157.923798
  0.024208417    0.000000    0.000000    0.000000    0.000000  -90.608186   31.518919   -0.725462 -159.574570
  0.024408818    0.000000    0.000000    0.000000    0.000000  -91.526121   37.165802   -0.732456 -161.242935
  0.024609218    0.000000    0.000000    0.000000    0.000000  -91.632742   32.506878   -0.738123 -162.894135
  0.024809619    0.000000    0.000000    0.000000    0.000000  -91.430987   29.729143   -0.745562 -164.570511
  0.025010020    0.000000    0.000000    0.000000    0.000000  -91.176551   27.754791   -0.755209 -166.235382
  0.025210421    0.000000    0.000000    0.000000    0.000000  -91.767897   29.268826   -0.765163 -167.918915
  0.025410822    0.000000    0.000000    0.000000    0.000000  -92.471972   27.625576   -0.775965 -169.609207
  0.025611222    0.000000    0.000000    0.000000    0.000000  -92.431292   25.354008   -0.786859 -171.309921
  0.025811623    0.000000    0.000000    0.000000    0.000000  -92.807706   27.335960   -0.797672 -173.018860
  0.026012024    0.000000    0.000000    0.000000    0.000000  -92.446108   25.509398   -0.807223 -174.756866
  0.026212425    0.000000    0.000000    0.000000    0.000000  -93.203181   24.703236   -0.818039 -176.491547
  0.026412826    0.000000    0.000000    0.000000    0.000000  -93.254134   23.158194   -0.831031 -178.236481
  0.026613226    0.000000    0.000000    0.000000    0.000000  -93.954215   24.934275   -0.845279 -179.991074
  0.026813627    0.000000    0.000000    0.000000    0.000000  -93.768575   28.243319   -0.860308  178.239700
  0.027014028    0.000000    0.000000    0.000000    0.000000  -94.807817   25.842470   -0.874568  176.469894
  0.027214429    0.000000    0.000000    0.000000    0.000000  -94.582141   29.781509   -0.890675  174.700012
  0.027414830    0.000000    0.000000    0.000000    0.000000  -94.804136   30.340168   -0.906289  172.914795
  0.027615230    0.000000    0.000000    0.000000    0.000000  -94.435237   24.583258   -0.922874  171.118744
  0.027815631    0.000000    0.000000    0.000000    0.000000  -94.502591   27.169275   -0.939347  169.316055
  0.028016032    0.000000    0.000000    0.000000    0.000000  -94.531684   31.183474   -0.957141  167.493866
  0.028216433    0.000000    0.000000    0.000000    0.000000  -94.192452   32.271526   -0.976014  165.661026
  0.028416834    0.000000    0.000000    0.000000    0.000000  -94.780532   29.381815   -0.996038  163.825317
  0.028617234    0.000000    0.000000    0.000000    0.000000  -94.936242   35.351624   -1.015631  161.976669
  0.028817635    0.000000    0.000000    0.000000    0.000000  -94.793077   36.603294   -1.035797  160.133972
  0.029018036    0.000000    0.000000    0.000000    0.000000  -93.917174   35.720192   -1.057717  158.283386
  0.029218437    0.000000    0.000000    0.000000    0.000000  -94.653099   31.276129   -1.081293  156.413284
  0.029418838    0.000000    0.000000    0.000000    0.000000  -94.401358   35.196049   -1.104159  154.522980
  0.029619238    0.000000    0.000000    0.000000    0.000000  -94.355400   28.911200   -1.129852  152.638016
  0.029819639    0.000000    0.000000    0.000000    0.000000  -94.537389   32.913273   -1.153789  150.731125
  0.030020040    0.000000    0.000000    0.000000    0.000000  -94.377253   27.272215   -1.179490  148.824417
  0.030220441    0.000000    0.000000    0.000000    0.000000  -93.866327   25.971741   -1.202816  146.917969
  0.030420842    0.000000    0.000000    0.000000    0.000000  -93.657718   27.459574   -1.228863  145.011185
  0.030621242    0.000000    0.000000    0.000000    0.000000  -93.548976   26.010609   -1.256802  143.109222
  0.030821643    0.000000    0.000000    0.000000    0.000000  -94.581763   27.924759   -1.286047  141.195755
  0.031022044    0.000000    0.000000    0.000000    0.000000  -94.839028   21.541491   -1.315045  139.261047
  0.031222445    0.000000    0.000000    0.000000    0.000000  -94.594024   22.088102   -1.340200  137.317841
  0.031422846    0.000000    0.000000    0.000000    0.000000  -94.188943   18.370913   -1.370423  135.358963
  0.031623246    0.000000    0.000000    0.000000    0.000000  -94.914523   17.276600   -1.403243  133.394073
  0.031823647    0.000000    0.000000    0.000000    0.000000  -96.370600   15.279499   -1.434360  131.416092
  0.032024048    0.000000    0.000000    0.000000    0.000000  -94.811233   18.632191   -1.468827  129.451706
  0.032224449    0.000000    0.000000    0.000000    0.000000  -94.065297   23.284401   -1.503768  127.477188
  0.032424850    0.000000    0.000000    0.000000    0.000000  -95.469562   17.753210   -1.537267  125.489769
  0.032625250    0.000000    0.000000    0.000000    0.000000  -95.254280   20.296213   -1.577125  123.490051
  0.032825651    0.000000    0.000000    0.000000    0.000000  -95.909244   21.075373   -1.607681  121.464653
  0.033026052    0.000000    0.000000    0.000000    0.000000  -97.669470   19.958714   -1.647196  119.447128
  0.033226453    0.000000    0.000000    0.000000    0.000000  -95.969949   22.539997   -1.683019  117.418930
  0.033426854    0.000000    0.000000    0.000000    0.000000  -96.812039   18.954485   -1.721606  115.385574
  0.033627254    0.000000    0.000000    0.000000    0.000000  -96.795806   22.135578   -1.762387  113.377609
  0.033827655    0.000000    0.000000    0.000000    0.000000  -96.037966   22.236103   -1.799440  111.336037
  0.034028056    0.000000    0.000000    0.000000    0.000000  -97.036984   18.091408   -1.839654  109.306412
  0.034228457    0.000000    0.000000    0.000000    0.000000  -97.148445   22.547483   -1.883733  107.260315
  0.034428858    0.000000    0.000000    0.000000    0.000000  -96.021138   24.862415   -1.924186  105.190140
  0.034629258    0.000000    0.000000    0.000000    0.000000  -97.624278   22.771910   -1.968195  103.108780
  0.034829659    0.000000    0.000000    0.000000    0.000000  -96.498297   36.242737   -2.013017  101.055344
  0.035030060    0.000000    0.000000    0.000000    0.000000  -96.207888   25.706505   -2.058063   98.963577
  0.035230461    0.000000    0.000000    0.000000    0.000000  -96.478910   28.068216   -2.105376   96.884254
  0.035430862    0.000000    0.000000    0.000000    0.000000  -96.259459   24.802572   -2.153699   94.797432
  0.035631262    0.000000    0.000000    0.000000    0.000000  -96.919662   29.210106   -2.201895   92.723717
  0.035831663    0.000000    0.000000    0.000000    0.000000  -96.231570   24.132114   -2.249543   90.626900
  0.036032064    0.000000    0.000000    0.000000    0.000000  -96.120454   22.813505   -2.298423   88.532204
  0.036232465    0.000000    0.000000    0.000000    0.000000  -96.711433   20.344725   -2.348563   86.436935
  0.036432866    0.000000    0.000000    0.000000    0.000000  -96.227440   17.982712   -2.398359   84.323265
  0.036633266    0.000000    0.000000    0.000000    0.000000  -96.821239   21.338755   -2.449537   82.245491
  0.036833667    0.000000    0.000000    0.000000    0.000000  -96.537067   16.987370   -2.499152   80.132980
  0.037034068    0.000000    0.000000    0.000000    0.000000  -96.434316   23.487009   -2.554100   78.030075
  0.037234469    0.000000    0.000000    0.000000    0.000000  -96.658378   22.937675   -2.605038   75.941269
  0.037434870    0.000000    0.000000    0.000000    0.000000  -96.922392   20.663448   -2.655369   73.845497
  0.037635270    0.000000    0.000000    0.000000    0.000000  -97.198155   23.632254   -2.706480   71.759308
  0.037835671    0.000000    0.000000    0.000000    0.000000  -97.106138   16.908516   -2.762210   69.663261
  0.038036072    0.000000    0.000000    0.000000    0.000000  -96.724488   21.321877   -2.814255   67.531898
  0.038236473    0.000000    0.000000    0.000000    0.000000  -97.128275   21.711666   -2.870572   65.425819
  0.038436874    0.000000    0.000000    0.000000    0.000000  -98.022567   22.638813   -2.924640   63.290958
  0.038637274    0.000000    0.000000    0.000000    0.000000  -97.112175   17.397882   -2.982262   61.201542
  0.038837675    0.000000    0.000000    0.000000    0.000000  -97.335750   19.669724   -3.037595   59.097652
  0.039038076    0.000000    0.000000    0.000000    0.000000  -97.281605   17.528559   -3.088332   57.010983
  0.039238477    0.000000    0.000000    0.000000    0.000000  -97.514330   23.019760   -3.139849   54.943405
  0.039438878    0.000000    0.000000    0.000000    0.000000  -96.704002   27.931540   -3.195462   52.869179
  0.039639278    0.000000    0.000000    0.000000    0.000000  -98.463755   32.107800   -3.247972   50.762497
  0.039839679    0.000000    0.000000    0.000000    0.000000  -96.706419   31.023949   -3.303736   48.676090
  0.040040080    0.000000    0.000000    0.000000    0.000000  -96.434421   27.561298   -3.355840   46.590355
  0.040240481    0.000000    0.000000    0.000000    0.000000  -97.760361   25.726707   -3.407009   44.499096
  0.040440882    0.000000    0.000000    0.000000    0.000000  -97.630724   31.842243   -3.458898   42.423168
  0.040641283    0.000000    0.000000    0.000000    0.000000  -97.235198   31.691801   -3.512622   40.365734
  0.040841683    0.000000    0.000000    0.000000    0.000000  -97.734325   26.210550   -3.561996   38.311165
  0.041042084    0.000000    0.000000    0.000000    0.000000  -98.822853   33.021889   -3.615609   36.269398
  0.041242485    0.000000    0.000000    0.000000    0.000000  -96.938675   31.659180   -3.669873   34.203339
  0.041442886    0.000000    0.000000    0.000000    0.000000  -97.346394   25.288525   -3.719372   32.144905
  0.041643287    0.000000    0.000000    0.000000    0.000000  -97.529123   30.166658   -3.770587   30.068327
  0.041843687    0.000000    0.000000    0.000000    0.000000  -98.556990   19.919392   -3.818822   28.006027
  0.042044088    0.000000    0.000000    0.000000    0.000000  -97.308217   25.651676   -3.866309   25.944431
  0.042244489    0.000000    0.000000    0.000000    0.000000  -97.615765   24.791039   -3.916401   23.867809
  0.042444890    0.000000    0.000000    0.000000    0.000000  -99.515712   26.057587   -3.965996   21.828217
  0.042645291    0.000000    0.000000    0.000000    0.000000  -97.840394   20.230219   -4.017799   19.793650
  0.042845691    0.000000    0.000000    0.000000    0.000000  -99.434085   27.872358   -4.066598   17.780064
  0.043046092    0.000000    0.000000    0.000000    0.000000  -97.866264   27.509415   -4.118752   15.739887
  0.043246493    0.000000    0.000000    0.000000    0.000000  -98.491297   32.719604   -4.168394   13.715289
  0.043446894    0.000000    0.000000    0.000000    0.000000  -98.695838   22.076555   -4.215569   11.705350
  0.043647295    0.000000    0.000000    0.000000    0.000000  -98.468229   31.691435   -4.262412    9.690705
  0.043847695    0.000000    0.000000    0.000000    0.000000  -98.450780   28.998480   -4.310016    7.687170
  0.044048096    0.000000    0.000000    0.000000    0.000000  -97.932899   30.209476   -4.357810    5.697854
  0.044248497    0.000000    0.000000    0.000000    0.000000  -99.470612   25.252211   -4.404492    3.723066
  0.044448898    0.000000    0.000000    0.000000    0.000000  -98.849569   34.822620   -4.450077    1.763243
  0.044649299    0.000000    0.000000    0.000000    0.000000  -99.463580   26.680727   -4.495609   -0.218212
  0.044849699    0.000000    0.000000    0.000000    0.000000  -98.672561   30.120411   -4.541767   -2.140673
  0.045050100    0.000000    0.000000    0.000000    0.000000  -99.536466   24.060881   -4.586474   -4.090520
  0.045250501    0.000000    0.000000    0.000000    0.000000  -98.638423   31.876835   -4.632496   -6.035475
  0.045450902    0.000000    0.000000    0.000000    0.000000  -98.241891   29.993256   -4.677253   -7.956040
  0.045651303    0.000000    0.000000    0.000000    0.000000 -100.177766   30.269598   -4.719462   -9.886172
  0.045851703    0.000000    0.000000    0.000000    0.000000  -99.907423   30.292923   -4.761578  -11.778441
  0.046052104    0.000000    0.000000    0.000000    0.000000  -98.111101   30.596180   -4.800901  -13.676529
  0.046252505    0.000000    0.000000    0.000000    0.000000  -98.171584   23.763729   -4.842503  -15.557431
  0.046452906    0.000000    0.000000    0.000000    0.000000  -99.444516   25.368546   -4.882014  -17.432777
  0.046653307    0.000000    0.000000    0.000000    0.000000  -97.951309   26.964748   -4.921757  -19.310303
  0.046853707    0.000000    0.000000    0.000000    0.000000  -97.399629   29.108440   -4.960815  -21.174118
  0.047054108    0.000000    0.000000    0.000000    0.000000 -100.046271   25.855566   -4.998068  -23.028427
  0.047254509    0.000000    0.000000    0.000000    0.000000  -99.448747   30.800861   -5.034517  -24.878706
  0.047454910    0.000000    0.000000    0.000000    0.000000  -99.132455   27.506264   -5.070835  -26.719955
  0.047655311    0.000000    0.000000    0.000000    0.000000  -99.213381   24.311775   -5.108220  -28.525511
  0.047855711    0.000000    0.000000    0.000000    0.000000  -98.555387   23.300869   -5.140690  -30.321562
  0.048056112    0.000000    0.000000    0.000000    0.000000  -98.567824   20.113327   -5.176020  -32.110977
  0.048256513    0.000000    0.000000    0.000000    0.000000  -98.358233   34.185196   -5.206819  -33.871693
  0.048456914    0.000000    0.000000    0.000000    0.000000  -98.436569   23.344280   -5.241553  -35.643093
  0.048657315    0.000000    0.000000    0.000000    0.000000 -100.508406   23.726734   -5.271180  -37.421341
  0.048857715    0.000000    0.000000    0.000000    0.000000  -98.659480   30.239456   -5.300323  -39.162128
  0.049058116    0.000000    0.000000    0.000000    0.000000 -100.318538   29.403210   -5.323078  -40.931019
  0.049258517    0.000000    0.000000    0.000000    0.000000  -99.059677   22.708973   -5.349385  -42.646652
  0.049458918    0.000000    0.000000    0.000000    0.000000 -101.104532   32.182613   -5.374311  -44.342503
  0.049659319    0.000000    0.000000    0.000000    0.000000  -99.654627   27.442730   -5.403562  -46.036438
  0.049859719    0.000000    0.000000    0.000000    0.000000  -99.049284   28.972136   -5.427491  -47.717937
  0.050060120    0.000000    0.000000    0.000000    0.000000  -98.926642   39.110073   -5.454330  -49.393673
  0.050260521    0.000000    0.000000    0.000000    0.000000  -98.720399   30.720968   -5.474443  -51.040813
  0.050460922    0.000000    0.000000    0.000000    0.000000  -98.334312   39.065994   -5.495847  -52.714870
  0.050661323    0.000000    0.000000    0.000000    0.000000 -101.387624   35.514774   -5.515263  -54.362556
  0.050861723    0.000000    0.000000    0.000000    0.000000 -100.251864   31.701845   -5.534172  -55.975193
  0.051062124    0.000000    0.000000    0.000000    0.000000  -98.723161   32.890388   -5.557228  -57.589458
  0.051262525    0.000000    0.000000    0.000000    0.000000  -97.832797   41.037899   -5.578263  -59.181267
  0.051462926    0.000000    0.000000    0.000000    0.000000  -99.202416   25.168703   -5.597569  -60.756111
  0.051663327    0.000000    0.000000    0.000000    0.000000  -98.558034   31.549795   -5.617778  -62.330360
  0.051863727    0.000000    0.000000    0.000000    0.000000  -98.939904   32.960232   -5.633419  -63.895088
  0.052064128    0.000000    0.000000    0.000000    0.000000  -98.902798   27.857933   -5.650673  -65.463326
  0.052264529    0.000000    0.000000    0.000000    0.000000  -98.999065   37.852943   -5.659633  -67.014763
  0.052464930    0.000000    0.000000    0.000000    0.000000  -99.827017   36.668736   -5.671325  -68.552353
  0.052665331    0.000000    0.000000    0.000000    0.000000  -98.338574   34.968948   -5.687840  -70.082207
  0.052865731    0.000000    0.000000    0.000000    0.000000 -100.565397   25.663853   -5.699901  -71.609962
