! Anritsu VNA Master:                     Model: MS2036C/10/77
! SN:                                  1601066
! /bd0/18may09/252.ew.m6.s2p
! Existing Calibration Information:
! TYPE:                         Current Settings,       Active Cal Settings
! TIME:             	   05/09/2018 08:20:32 AM,    05/09/2018 08:17:55 AM
! INTERNAL TEMP:    	                   41.3 C,                    41.3 C
! # POINTS:         	                      500,                       500
! START FREQ:       	               20.000 MHz,                20.000 MHz
! STOP FREQ:        	              120.000 MHz,               120.000 MHz
! SOURCE POWER:     	                     High,                      High
! IFBW:             	                    50 Hz,                     50 Hz
! AVG FACTOR:       	                       1 ,                        1 
! REF PLANE 1:      	                     0 mm,                      0 mm
! REF PLANE 2:      	                     0 mm,                      0 mm
! CAL TYPE:         	                 Full S11,                  Full S11
! CAL METHOD:       	                     SOLT,                      SOLT
! CAL LINE TYPE:    	                     Coax,                      Coax
! DUT PORT 1:       	                K-Conn(F),                 K-Conn(F)
! DUT PORT 2:       	                K-Conn(F),                 K-Conn(F)
! CAL STATUS:       	        OK: Accuracy High,                        --
# GHZ S DB R 50.0
! FREQ.GHZ       S11DB        S11A       S21DB        S21A       S12DB        S12A       S22DB        S22A
  0.020000000   -0.603430 -124.328598  -91.294014   31.723269    0.000000    0.000000    0.000000    0.000000
  0.020200401   -0.602255 -125.771568  -91.239287   28.765146    0.000000    0.000000    0.000000    0.000000
  0.020400802   -0.602957 -127.212585  -91.403242   30.568304    0.000000    0.000000    0.000000    0.000000
  0.020601202   -0.604709 -128.648605  -92.037405   30.828096    0.000000    0.000000    0.000000    0.000000
  0.020801603   -0.610371 -130.141815  -91.890057   32.426121    0.000000    0.000000    0.000000    0.000000
  0.021002004   -0.615395 -131.651932  -92.467953   30.078428    0.000000    0.000000    0.000000    0.000000
  0.021202405   -0.621221 -133.166183  -92.511011   31.999586    0.000000    0.000000    0.000000    0.000000
  0.021402806   -0.624958 -134.676910  -92.271220   30.580462    0.000000    0.000000    0.000000    0.000000
  0.021603206   -0.628084 -136.189285  -92.812962   33.205856    0.000000    0.000000    0.000000    0.000000
  0.021803607   -0.632462 -137.704483  -93.593151   37.489082    0.000000    0.000000    0.000000    0.000000
  0.022004008   -0.639341 -139.234528  -92.525190   40.502419    0.000000    0.000000    0.000000    0.000000
  0.022204409   -0.641992 -140.772171  -92.277818   40.971596    0.000000    0.000000    0.000000    0.000000
  0.022404810   -0.647776 -142.330872  -92.595469   35.121284    0.000000    0.000000    0.000000    0.000000
  0.022605210   -0.650913 -143.906296  -92.747081   36.230572    0.000000    0.000000    0.000000    0.000000
  0.022805611   -0.652403 -145.491272  -92.874533   40.561157    0.000000    0.000000    0.000000    0.000000
  0.023006012   -0.655081 -147.062408  -92.643063   38.157780    0.000000    0.000000    0.000000    0.000000
  0.023206413   -0.656322 -148.631409  -92.874972   35.134850    0.000000    0.000000    0.000000    0.000000
  0.023406814   -0.661455 -150.201218  -92.602652   34.891315    0.000000    0.000000    0.000000    0.000000
  0.023607214   -0.665756 -151.779434  -92.763124   32.244080    0.000000    0.000000    0.000000    0.000000
  0.023807615   -0.673793 -153.375961  -92.590089   30.011202    0.000000    0.000000    0.000000    0.000000
  0.024008016   -0.683177 -155.002975  -92.987391   34.245556    0.000000    0.000000    0.000000    0.000000
  0.024208417   -0.692691 -156.629395  -92.674648   28.832449    0.000000    0.000000    0.000000    0.000000
  0.024408818   -0.702382 -158.260025  -93.229394   26.425014    0.000000    0.000000    0.000000    0.000000
  0.024609218   -0.710410 -159.895157  -93.351769   29.742039    0.000000    0.000000    0.000000    0.000000
  0.024809619   -0.719455 -161.527115  -93.161882   25.419689    0.000000    0.000000    0.000000    0.000000
  0.025010020   -0.730259 -163.184448  -93.371789   25.609652    0.000000    0.000000    0.000000    0.000000
  0.025210421   -0.743797 -164.832703  -93.783776   20.469158    0.000000    0.000000    0.000000    0.000000
  0.025410822   -0.757659 -166.506058  -93.601525   19.640137    0.000000    0.000000    0.000000    0.000000
  0.025611222   -0.770679 -168.198990  -93.751708   22.050673    0.000000    0.000000    0.000000    0.000000
  0.025811623   -0.783320 -169.908768  -94.152886   17.076540    0.000000    0.000000    0.000000    0.000000
  0.026012024   -0.791284 -171.627594  -94.741905   23.547331    0.000000    0.000000    0.000000    0.000000
  0.026212425   -0.804449 -173.338638  -95.192260   13.534042    0.000000    0.000000    0.000000    0.000000
  0.026412826   -0.817711 -175.062729  -95.799151   15.065567    0.000000    0.000000    0.000000    0.000000
  0.026613226   -0.831164 -176.789185  -95.823770   21.580740    0.000000    0.000000    0.000000    0.000000
  0.026813627   -0.847952 -178.539124  -95.708758   22.263107    0.000000    0.000000    0.000000    0.000000
  0.027014028   -0.864787  179.710861  -95.171761   19.729811    0.000000    0.000000    0.000000    0.000000
  0.027214429   -0.880748  177.940567  -96.701043   22.625965    0.000000    0.000000    0.000000    0.000000
  0.027414830   -0.896154  176.163406  -95.672735   19.790968    0.000000    0.000000    0.000000    0.000000
  0.027615230   -0.912400  174.361450  -95.675293   23.030518    0.000000    0.000000    0.000000    0.000000
  0.027815631   -0.933693  172.569504  -95.987822   25.394838    0.000000    0.000000    0.000000    0.000000
  0.028016032   -0.954993  170.757004  -95.805135   24.401125    0.000000    0.000000    0.000000    0.000000
  0.028216433   -0.977304  168.950653  -97.584950   28.509600    0.000000    0.000000    0.000000    0.000000
  0.028416834   -0.998349  167.119308  -95.511517   21.629148    0.000000    0.000000    0.000000    0.000000
  0.028617234   -1.017150  165.296997  -96.076283   21.911055    0.000000    0.000000    0.000000    0.000000
  0.028817635   -1.038483  163.476089  -95.867532   20.945684    0.000000    0.000000    0.000000    0.000000
  0.029018036   -1.058922  161.670410  -96.262570   20.922539    0.000000    0.000000    0.000000    0.000000
  0.029218437   -1.080685  159.846100  -96.260988   22.576580    0.000000    0.000000    0.000000    0.000000
  0.029418838   -1.105501  158.010574  -95.853926   17.889992    0.000000    0.000000    0.000000    0.000000
  0.029619238   -1.132899  156.165466  -95.805065   19.311083    0.000000    0.000000    0.000000    0.000000
  0.029819639   -1.162538  154.293747  -95.964030   16.417789    0.000000    0.000000    0.000000    0.000000
  0.030020040   -1.193590  152.390793  -95.979751   16.880957    0.000000    0.000000    0.000000    0.000000
  0.030220441   -1.222474  150.460342  -95.126236   16.301821    0.000000    0.000000    0.000000    0.000000
  0.030420842   -1.253597  148.550049  -96.790551   17.726488    0.000000    0.000000    0.000000    0.000000
  0.030621242   -1.287077  146.642502  -96.589626    9.421550    0.000000    0.000000    0.000000    0.000000
  0.030821643   -1.319958  144.722794  -97.897064   15.720837    0.000000    0.000000    0.000000    0.000000
  0.031022044   -1.356253  142.789795  -97.364418   14.702395    0.000000    0.000000    0.000000    0.000000
  0.031222445   -1.391398  140.871307  -96.894059   14.412801    0.000000    0.000000    0.000000    0.000000
  0.031422846   -1.429821  138.876465  -97.832058   13.086535    0.000000    0.000000    0.000000    0.000000
  0.031623246   -1.465914  136.874329  -97.082800   15.536768    0.000000    0.000000    0.000000    0.000000
  0.031823647   -1.500999  134.882446  -97.181417   16.057344    0.000000    0.000000    0.000000    0.000000
  0.032024048   -1.535955  132.881516  -97.619225    3.832949    0.000000    0.000000    0.000000    0.000000
  0.032224449   -1.571258  130.899933  -98.147814    8.858236    0.000000    0.000000    0.000000    0.000000
  0.032424850   -1.607590  128.936005  -97.415569    2.281163    0.000000    0.000000    0.000000    0.000000
  0.032625251   -1.647519  126.965675  -98.330273    6.747526    0.000000    0.000000    0.000000    0.000000
  0.032825651   -1.689953  124.980728  -98.340226    6.568599    0.000000    0.000000    0.000000    0.000000
  0.033026052   -1.736310  122.999222  -98.666267    8.247229    0.000000    0.000000    0.000000    0.000000
  0.033226453   -1.786182  120.993988  -99.146102   13.150492    0.000000    0.000000    0.000000    0.000000
  0.033426854   -1.844267  118.996445  -98.270976   11.873129    0.000000    0.000000    0.000000    0.000000
  0.033627255   -1.896855  116.973175  -98.410260   20.551464    0.000000    0.000000    0.000000    0.000000
  0.033827655   -1.950610  114.893219  -97.592741    8.052572    0.000000    0.000000    0.000000    0.000000
  0.034028056   -2.004849  112.791481  -98.483280   12.684456    0.000000    0.000000    0.000000    0.000000
  0.034228457   -2.055323  110.675133  -98.398482    6.862350    0.000000    0.000000    0.000000    0.000000
  0.034428858   -2.105932  108.534279  -98.544452   12.225439    0.000000    0.000000    0.000000    0.000000
  0.034629259   -2.152507  106.430275  -98.501663   13.869411    0.000000    0.000000    0.000000    0.000000
  0.034829659   -2.197294  104.314621  -98.497117   18.899677    0.000000    0.000000    0.000000    0.000000
  0.035030060   -2.241592  102.223099  -96.792871   16.640823    0.000000    0.000000    0.000000    0.000000
  0.035230461   -2.287455  100.133003  -98.778844    5.445089    0.000000    0.000000    0.000000    0.000000
  0.035430862   -2.333854   98.063080  -98.339468    6.689516    0.000000    0.000000    0.000000    0.000000
  0.035631263   -2.379154   95.978134  -98.630182    0.590530    0.000000    0.000000    0.000000    0.000000
  0.035831663   -2.427564   93.921066  -98.363552    4.688496    0.000000    0.000000    0.000000    0.000000
  0.036032064   -2.477366   91.894257  -98.343587    6.424139    0.000000    0.000000    0.000000    0.000000
  0.036232465   -2.527451   89.866814  -99.042578   11.794111    0.000000    0.000000    0.000000    0.000000
  0.036432866   -2.582242   87.849152  -99.037962    5.215658    0.000000    0.000000    0.000000    0.000000
  0.036633267   -2.641585   85.832664  -99.696554   13.502501    0.000000    0.000000    0.000000    0.000000
  0.036833667   -2.704863   83.794594  -98.756556    0.060832    0.000000    0.000000    0.000000    0.000000
  0.037034068   -2.768380   81.721115  -98.689472   -2.798836    0.000000    0.000000    0.000000    0.000000
  0.037234469   -2.832204   79.627899 -100.869322   -7.072445    0.000000    0.000000    0.000000    0.000000
  0.037434870   -2.899336   77.547249  -99.231897    3.021817    0.000000    0.000000    0.000000    0.000000
  0.037635271   -2.958667   75.440506 -101.438693    4.776608    0.000000    0.000000    0.000000    0.000000
  0.037835671   -3.022846   73.307564 -100.449165   -1.177045    0.000000    0.000000    0.000000    0.000000
  0.038036072   -3.080216   71.143158 -100.570599   10.941159    0.000000    0.000000    0.000000    0.000000
  0.038236473   -3.138528   68.934441  -98.595086   12.276678    0.000000    0.000000    0.000000    0.000000
  0.038436874   -3.199277   66.774940  -99.913033    5.513317    0.000000    0.000000    0.000000    0.000000
  0.038637275   -3.254317   64.663330  -98.263294    7.623923    0.000000    0.000000    0.000000    0.000000
  0.038837675   -3.309692   62.566643 -100.198276   14.742369    0.000000    0.000000    0.000000    0.000000
  0.039038076   -3.362141   60.518845 -100.090177   14.636561    0.000000    0.000000    0.000000    0.000000
  0.039238477   -3.416721   58.483467  -99.200744    4.496319    0.000000    0.000000    0.000000    0.000000
  0.039438878   -3.477585   56.464603  -98.904277    7.986066    0.000000    0.000000    0.000000    0.000000
  0.039639279   -3.542095   54.426098 -100.558571   23.083267    0.000000    0.000000    0.000000    0.000000
  0.039839679   -3.606017   52.381351  -98.334132   10.932644    0.000000    0.000000    0.000000    0.000000
  0.040040080   -3.674498   50.327679 -100.803539   13.125411    0.000000    0.000000    0.000000    0.000000
  0.040240481   -3.740828   48.242344  -99.521652   14.430691    0.000000    0.000000    0.000000    0.000000
  0.040440882   -3.809377   46.186821  -98.768626   11.635241    0.000000    0.000000    0.000000    0.000000
  0.040641283   -3.874166   44.092300  -99.781717   11.537198    0.000000    0.000000    0.000000    0.000000
  0.040841683   -3.936143   42.023388  -99.724131   10.727501    0.000000    0.000000    0.000000    0.000000
  0.041042084   -3.999571   39.967106 -100.609531   11.218531    0.000000    0.000000    0.000000    0.000000
  0.041242485   -4.061594   37.880531  -99.886389   -0.653605    0.000000    0.000000    0.000000    0.000000
  0.041442886   -4.119962   35.804321  -98.972433    1.556157    0.000000    0.000000    0.000000    0.000000
  0.041643287   -4.178118   33.739529 -100.111247   10.173635    0.000000    0.000000    0.000000    0.000000
  0.041843687   -4.232624   31.666290 -101.561913   -0.752236    0.000000    0.000000    0.000000    0.000000
  0.042044088   -4.284413   29.648623 -101.683977    3.594810    0.000000    0.000000    0.000000    0.000000
  0.042244489   -4.341187   27.609049 -102.464849   10.770565    0.000000    0.000000    0.000000    0.000000
  0.042444890   -4.391919   25.607615  -99.776128   -8.265737    0.000000    0.000000    0.000000    0.000000
  0.042645291   -4.444556   23.602621 -101.826095    1.214944    0.000000    0.000000    0.000000    0.000000
  0.042845691   -4.498169   21.608471 -101.856837   -8.256562    0.000000    0.000000    0.000000    0.000000
  0.043046092   -4.549045   19.616253 -103.447502    5.241529    0.000000    0.000000    0.000000    0.000000
  0.043246493   -4.600115   17.626623 -102.471247    9.582347    0.000000    0.000000    0.000000    0.000000
  0.043446894   -4.651717   15.634282 -103.240740   -1.836259    0.000000    0.000000    0.000000    0.000000
  0.043647295   -4.703696   13.658895 -102.322504    8.055889    0.000000    0.000000    0.000000    0.000000
  0.043847695   -4.755806   11.701602 -102.288127    1.593458    0.000000    0.000000    0.000000    0.000000
  0.044048096   -4.805257    9.720665 -101.261442    3.838765    0.000000    0.000000    0.000000    0.000000
  0.044248497   -4.855210    7.778192 -102.126606    0.549612    0.000000    0.000000    0.000000    0.000000
  0.044448898   -4.904636    5.824767 -101.531641   16.117090    0.000000    0.000000    0.000000    0.000000
  0.044649299   -4.951067    3.881560 -102.580229   13.918882    0.000000    0.000000    0.000000    0.000000
  0.044849699   -4.995497    1.938282 -101.580057   12.734775    0.000000    0.000000    0.000000    0.000000
  0.045050100   -5.038908    0.002152 -101.344567    2.063285    0.000000    0.000000    0.000000    0.000000
  0.045250501   -5.080298   -1.910242 -101.670489   16.371531    0.000000    0.000000    0.000000    0.000000
  0.045450902   -5.124895   -3.793111 -101.233019   10.126327    0.000000    0.000000    0.000000    0.000000
  0.045651303   -5.167948   -5.681487 -103.318916   -3.550507    0.000000    0.000000    0.000000    0.000000
  0.045851703   -5.213686   -7.541222  -99.776249   15.029025    0.000000    0.000000    0.000000    0.000000
  0.046052104   -5.253101   -9.418146 -102.745389   -1.342289    0.000000    0.000000    0.000000    0.000000
  0.046252505   -5.294229  -11.309292 -100.415278   13.251915    0.000000    0.000000    0.000000    0.000000
  0.046452906   -5.329503  -13.149673 -101.212167   -6.674350    0.000000    0.000000    0.000000    0.000000
  0.046653307   -5.366083  -15.020262 -100.442928    0.566614    0.000000    0.000000    0.000000    0.000000
  0.046853707   -5.402437  -16.865147 -102.133892    5.924404    0.000000    0.000000    0.000000    0.000000
  0.047054108   -5.436308  -18.711407 -100.622952    4.227455    0.000000    0.000000    0.000000    0.000000
  0.047254509   -5.465755  -20.545099 -102.008085    0.047702    0.000000    0.000000    0.000000    0.000000
  0.047454910   -5.497604  -22.360193 -101.093899   -8.064878    0.000000    0.000000    0.000000    0.000000
  0.047655311   -5.528109  -24.125635 -102.178185   -9.240696    0.000000    0.000000    0.000000    0.000000
  0.047855711   -5.560382  -25.873083 -101.694887   -7.731342    0.000000    0.000000    0.000000    0.000000
  0.048056112   -5.591264  -27.648516 -102.108513    9.142780    0.000000    0.000000    0.000000    0.000000
  0.048256513   -5.621227  -29.413048 -101.510331   -5.703226    0.000000    0.000000    0.000000    0.000000
  0.048456914   -5.651577  -31.147135 -102.710196    4.067628    0.000000    0.000000    0.000000    0.000000
  0.048657315   -5.675823  -32.893517 -105.332233  -17.935144    0.000000    0.000000    0.000000    0.000000
  0.048857715   -5.702674  -34.638836 -104.158324   -3.037839    0.000000    0.000000    0.000000    0.000000
  0.049058116   -5.725945  -36.372826 -101.716988    1.820313    0.000000    0.000000    0.000000    0.000000
  0.049258517   -5.750192  -38.060661 -102.534383    7.661947    0.000000    0.000000    0.000000    0.000000
  0.049458918   -5.772895  -39.804260 -101.173139   11.043800    0.000000    0.000000    0.000000    0.000000
  0.049659319   -5.798087  -41.467636 -104.364097    5.385044    0.000000    0.000000    0.000000    0.000000
  0.049859719   -5.821209  -43.158443 -104.558301    4.325568    0.000000    0.000000    0.000000    0.000000
  0.050060120   -5.843246  -44.856384 -103.614522    9.260108    0.000000    0.000000    0.000000    0.000000
  0.050260521   -5.859272  -46.524593 -102.409861   15.846264    0.000000    0.000000    0.000000    0.000000
  0.050460922   -5.874916  -48.229179 -100.493247   -0.363772    0.000000    0.000000    0.000000    0.000000
  0.050661323   -5.887724  -49.852268 -104.321765   12.484386    0.000000    0.000000    0.000000    0.000000
  0.050861723   -5.903334  -51.512569 -104.178426   21.379423    0.000000    0.000000    0.000000    0.000000
  0.051062124   -5.915053  -53.128361 -103.755327    4.176579    0.000000    0.000000    0.000000    0.000000
  0.051262525   -5.927208  -54.680573 -102.500958    0.288673    0.000000    0.000000    0.000000    0.000000
  0.051462926   -5.940976  -56.261372 -102.844636   15.798055    0.000000    0.000000    0.000000    0.000000
  0.051663327   -5.953857  -57.818726 -103.864953    7.617254    0.000000    0.000000    0.000000    0.000000
  0.051863727   -5.968199  -59.366623 -103.806832   10.071022    0.000000    0.000000    0.000000    0.000000
  0.052064128   -5.981195  -60.934120 -101.978161    7.290491    0.000000    0.000000    0.000000    0.000000
  0.052264529   -5.996878  -62.495964 -101.926184   11.590069    0.000000    0.000000    0.000000    0.000000
  0.052464930   -6.010063  -64.066788 -103.806394   -5.485942    0.000000    0.000000    0.000000    0.000000
  0.052665331   -6.026228  -65.630020 -103.001892    0.226425    0.000000    0.000000    0.000000    0.000000
  0.052865731   -6.039365  -67.179893 -101.520250   -1.908745    0.000000    0.000000    0.000000    0.000000
