! Anritsu VNA Master:                     Model: MS2036C/10/77
! SN:                                  1601066
! /bd0/18may10/255.ew.m9.s2p
! Existing Calibration Information:
! TYPE:                         Current Settings,       Active Cal Settings
! TIME:             	   05/10/2018 01:57:57 PM,    05/10/2018 01:50:32 PM
! INTERNAL TEMP:    	                   56.5 C,                    56.0 C
! # POINTS:         	                      492,                       492
! START FREQ:       	               20.000 MHz,                20.000 MHz
! STOP FREQ:        	          118.396 793 MHz,           118.396 793 MHz
! SOURCE POWER:     	                     High,                      High
! IFBW:             	                    50 Hz,                     50 Hz
! AVG FACTOR:       	                       1 ,                        1 
! REF PLANE 1:      	                     0 mm,                      0 mm
! REF PLANE 2:      	                     0 mm,                      0 mm
! CAL TYPE:         	                 Full S22,                  Full S22
! CAL METHOD:       	                     SOLT,                      SOLT
! CAL LINE TYPE:    	                     Coax,                      Coax
! DUT PORT 1:       	                K-Conn(M),                 K-Conn(M)
! DUT PORT 2:       	                K-Conn(M),                 K-Conn(M)
! CAL STATUS:       	        OK: Accuracy High,                        --
# GHZ S DB R 50.0
! FREQ.GHZ       S11DB        S11A       S21DB        S21A       S12DB        S12A       S22DB        S22A
  0.020000000    0.000000    0.000000    0.000000    0.000000  -89.216427   36.552063   -0.916486 -125.571350
  0.020200401    0.000000    0.000000    0.000000    0.000000  -89.721324   35.404015   -0.927456 -127.012642
  0.020400802    0.000000    0.000000    0.000000    0.000000  -90.611960   36.117352   -0.936447 -128.439835
  0.020601202    0.000000    0.000000    0.000000    0.000000  -90.260716   32.602146   -0.945389 -129.909454
  0.020801603    0.000000    0.000000    0.000000    0.000000  -90.699906   36.906113   -0.956766 -131.394196
  0.021002004    0.000000    0.000000    0.000000    0.000000  -91.473844   35.732643   -0.965786 -132.900024
  0.021202405    0.000000    0.000000    0.000000    0.000000  -91.650623   35.220898   -0.974453 -134.401932
  0.021402806    0.000000    0.000000    0.000000    0.000000  -91.580301   41.614571   -0.984735 -135.889984
  0.021603206    0.000000    0.000000    0.000000    0.000000  -91.945415   39.310825   -0.993550 -137.379349
  0.021803607    0.000000    0.000000    0.000000    0.000000  -91.308310   36.752068   -1.004427 -138.875656
  0.022004008    0.000000    0.000000    0.000000    0.000000  -91.792985   41.943371   -1.012764 -140.372299
  0.022204409    0.000000    0.000000    0.000000    0.000000  -91.606439   39.530338   -1.024314 -141.881195
  0.022404810    0.000000    0.000000    0.000000    0.000000  -91.524424   42.225796   -1.034664 -143.430099
  0.022605210    0.000000    0.000000    0.000000    0.000000  -91.493668   44.022957   -1.045391 -144.976486
  0.022805611    0.000000    0.000000    0.000000    0.000000  -91.313093   39.160442   -1.056452 -146.525116
  0.023006012    0.000000    0.000000    0.000000    0.000000  -90.984737   44.390984   -1.065118 -148.078125
  0.023206413    0.000000    0.000000    0.000000    0.000000  -90.886960   40.608280   -1.072933 -149.622620
  0.023406814    0.000000    0.000000    0.000000    0.000000  -91.347241   42.081730   -1.081613 -151.173996
  0.023607214    0.000000    0.000000    0.000000    0.000000  -91.188794   37.536072   -1.093902 -152.745209
  0.023807615    0.000000    0.000000    0.000000    0.000000  -91.231884   35.654839   -1.108515 -154.317886
  0.024008016    0.000000    0.000000    0.000000    0.000000  -91.512863   38.462006   -1.120880 -155.910446
  0.024208417    0.000000    0.000000    0.000000    0.000000  -91.308337   37.813816   -1.131843 -157.526566
  0.024408818    0.000000    0.000000    0.000000    0.000000  -91.441852   36.285809   -1.142020 -159.154739
  0.024609218    0.000000    0.000000    0.000000    0.000000  -91.755114   31.715693   -1.153534 -160.777847
  0.024809619    0.000000    0.000000    0.000000    0.000000  -91.886480   33.155869   -1.166355 -162.418991
  0.025010020    0.000000    0.000000    0.000000    0.000000  -91.468492   29.290302   -1.181973 -164.055496
  0.025210421    0.000000    0.000000    0.000000    0.000000  -92.231910   27.273310   -1.196191 -165.692368
  0.025410822    0.000000    0.000000    0.000000    0.000000  -92.005677   29.247143   -1.212879 -167.356415
  0.025611222    0.000000    0.000000    0.000000    0.000000  -91.994578   24.878023   -1.229101 -169.014572
  0.025811623    0.000000    0.000000    0.000000    0.000000  -92.599112   27.273617   -1.245403 -170.698273
  0.026012024    0.000000    0.000000    0.000000    0.000000  -93.236765   26.025291   -1.262079 -172.393723
  0.026212425    0.000000    0.000000    0.000000    0.000000  -93.486789   23.693163   -1.278698 -174.100082
  0.026412826    0.000000    0.000000    0.000000    0.000000  -93.378887   20.242962   -1.296056 -175.808578
  0.026613226    0.000000    0.000000    0.000000    0.000000  -94.519208   26.797609   -1.314985 -177.531479
  0.026813627    0.000000    0.000000    0.000000    0.000000  -94.772695   25.632114   -1.335842 -179.261612
  0.027014028    0.000000    0.000000    0.000000    0.000000  -94.243749   27.472082   -1.356858  179.000793
  0.027214429    0.000000    0.000000    0.000000    0.000000  -94.267820   30.238514   -1.378970  177.260223
  0.027414830    0.000000    0.000000    0.000000    0.000000  -94.733667   26.827766   -1.401943  175.503082
  0.027615230    0.000000    0.000000    0.000000    0.000000  -95.593703   33.932556   -1.423921  173.735596
  0.027815631    0.000000    0.000000    0.000000    0.000000  -94.962196   34.246513   -1.447569  171.960464
  0.028016032    0.000000    0.000000    0.000000    0.000000  -94.154173   31.880608   -1.471837  170.160141
  0.028216433    0.000000    0.000000    0.000000    0.000000  -94.580207   33.607224   -1.497597  168.364197
  0.028416834    0.000000    0.000000    0.000000    0.000000  -94.307571   32.600731   -1.524945  166.556274
  0.028617234    0.000000    0.000000    0.000000    0.000000  -94.917061   27.995386   -1.551035  164.741745
  0.028817635    0.000000    0.000000    0.000000    0.000000  -94.070731   32.057617   -1.578046  162.919403
  0.029018036    0.000000    0.000000    0.000000    0.000000  -93.996533   35.133186   -1.607363  161.103241
  0.029218437    0.000000    0.000000    0.000000    0.000000  -94.574102   32.578014   -1.636813  159.258591
  0.029418838    0.000000    0.000000    0.000000    0.000000  -94.145875   29.277220   -1.666812  157.411240
  0.029619238    0.000000    0.000000    0.000000    0.000000  -93.507140   31.355087   -1.696688  155.535248
  0.029819639    0.000000    0.000000    0.000000    0.000000  -94.380063   29.590008   -1.727872  153.651001
  0.030020040    0.000000    0.000000    0.000000    0.000000  -94.027405   27.599281   -1.761148  151.775848
  0.030220441    0.000000    0.000000    0.000000    0.000000  -94.313655   27.373341   -1.792394  149.886032
  0.030420842    0.000000    0.000000    0.000000    0.000000  -94.096044   25.619160   -1.824170  147.991882
  0.030621242    0.000000    0.000000    0.000000    0.000000  -94.069189   25.451284   -1.859728  146.101669
  0.030821643    0.000000    0.000000    0.000000    0.000000  -94.510756   23.949738   -1.894860  144.212830
  0.031022044    0.000000    0.000000    0.000000    0.000000  -94.116633   20.300383   -1.929436  142.285400
  0.031222445    0.000000    0.000000    0.000000    0.000000  -93.940263   24.258968   -1.959291  140.367615
  0.031422846    0.000000    0.000000    0.000000    0.000000  -94.676492   16.734655   -1.996075  138.407196
  0.031623246    0.000000    0.000000    0.000000    0.000000  -94.908652   19.513575   -2.034616  136.441147
  0.031823647    0.000000    0.000000    0.000000    0.000000  -94.375205   21.396044   -2.070768  134.482758
  0.032024048    0.000000    0.000000    0.000000    0.000000  -95.211491   19.707369   -2.110546  132.506256
  0.032224449    0.000000    0.000000    0.000000    0.000000  -95.962887   16.300318   -2.151780  130.535461
  0.032424850    0.000000    0.000000    0.000000    0.000000  -96.056861   22.156738   -2.193621  128.540710
  0.032625250    0.000000    0.000000    0.000000    0.000000  -95.623325   25.642086   -2.233184  126.540497
  0.032825651    0.000000    0.000000    0.000000    0.000000  -96.150777   20.105417   -2.273077  124.530205
  0.033026052    0.000000    0.000000    0.000000    0.000000  -95.978180   22.227362   -2.314240  122.517952
  0.033226453    0.000000    0.000000    0.000000    0.000000  -96.251937   22.797598   -2.356213  120.494507
  0.033426854    0.000000    0.000000    0.000000    0.000000  -96.310184   22.652512   -2.400016  118.477638
  0.033627254    0.000000    0.000000    0.000000    0.000000  -96.740059   31.658951   -2.443178  116.458588
  0.033827655    0.000000    0.000000    0.000000    0.000000  -95.313054   25.451866   -2.486693  114.436813
  0.034028056    0.000000    0.000000    0.000000    0.000000  -96.367866   25.889828   -2.530368  112.433167
  0.034228457    0.000000    0.000000    0.000000    0.000000  -96.102940   24.479731   -2.575986  110.376198
  0.034428858    0.000000    0.000000    0.000000    0.000000  -97.101332   22.106197   -2.623246  108.337166
  0.034629258    0.000000    0.000000    0.000000    0.000000  -96.196130   21.808481   -2.668959  106.258865
  0.034829659    0.000000    0.000000    0.000000    0.000000  -97.488044   22.412415   -2.715139  104.204826
  0.035030060    0.000000    0.000000    0.000000    0.000000  -96.616170   22.328655   -2.764148  102.155159
  0.035230461    0.000000    0.000000    0.000000    0.000000  -96.430112   29.332766   -2.814494  100.095642
  0.035430862    0.000000    0.000000    0.000000    0.000000  -96.411277   24.625391   -2.861117   98.033531
  0.035631262    0.000000    0.000000    0.000000    0.000000  -95.211045   29.500851   -2.909921   95.973351
  0.035831663    0.000000    0.000000    0.000000    0.000000  -96.050602   22.893431   -2.959544   93.892654
  0.036032064    0.000000    0.000000    0.000000    0.000000  -95.672278   26.231413   -3.008293   91.831276
  0.036232465    0.000000    0.000000    0.000000    0.000000  -95.212764   24.855051   -3.055981   89.731712
  0.036432866    0.000000    0.000000    0.000000    0.000000  -96.903170   21.537500   -3.104454   87.654076
  0.036633266    0.000000    0.000000    0.000000    0.000000  -96.937278   20.001263   -3.147507   85.563255
  0.036833667    0.000000    0.000000    0.000000    0.000000  -95.909315   22.081032   -3.195737   83.454643
  0.037034068    0.000000    0.000000    0.000000    0.000000  -96.148353   18.287762   -3.238676   81.338371
  0.037234469    0.000000    0.000000    0.000000    0.000000  -97.334522   22.169405   -3.277229   79.211967
  0.037434870    0.000000    0.000000    0.000000    0.000000  -96.240889   16.804977   -3.315908   77.048332
  0.037635270    0.000000    0.000000    0.000000    0.000000  -96.953761   24.697271   -3.349250   74.822380
  0.037835671    0.000000    0.000000    0.000000    0.000000  -98.129329   21.124411   -3.390093   72.489983
  0.038036072    0.000000    0.000000    0.000000    0.000000  -96.696100   24.133059   -3.444781   70.115082
  0.038236473    0.000000    0.000000    0.000000    0.000000  -98.589474   17.625635   -3.519572   67.774033
  0.038436874    0.000000    0.000000    0.000000    0.000000  -97.595494   18.262053   -3.600388   65.488167
  0.038637274    0.000000    0.000000    0.000000    0.000000  -97.988667   22.767405   -3.679448   63.301682
  0.038837675    0.000000    0.000000    0.000000    0.000000  -97.385991   23.159142   -3.752262   61.176685
  0.039038076    0.000000    0.000000    0.000000    0.000000  -97.969833   21.325014   -3.818290   59.066273
  0.039238477    0.000000    0.000000    0.000000    0.000000  -97.260989   20.803476   -3.879202   56.960548
  0.039438878    0.000000    0.000000    0.000000    0.000000  -99.489211   29.529873   -3.941247   54.846203
  0.039639278    0.000000    0.000000    0.000000    0.000000  -97.940419   25.797493   -3.999210   52.764412
  0.039839679    0.000000    0.000000    0.000000    0.000000  -97.267449   23.553782   -4.055256   50.655590
  0.040040080    0.000000    0.000000    0.000000    0.000000  -98.431397   31.834375   -4.106853   48.525070
  0.040240481    0.000000    0.000000    0.000000    0.000000  -98.474195   33.249847   -4.158399   46.423805
  0.040440882    0.000000    0.000000    0.000000    0.000000  -97.268462   30.771868   -4.209729   44.322578
  0.040641283    0.000000    0.000000    0.000000    0.000000  -97.846460   28.997953   -4.260483   42.226978
  0.040841683    0.000000    0.000000    0.000000    0.000000  -97.426323   31.191204   -4.309932   40.130089
  0.041042084    0.000000    0.000000    0.000000    0.000000  -97.410407   33.027378   -4.360523   38.052917
  0.041242485    0.000000    0.000000    0.000000    0.000000  -97.703169   35.288994   -4.410415   35.954098
  0.041442886    0.000000    0.000000    0.000000    0.000000  -97.501138   32.172485   -4.464086   33.864323
  0.041643287    0.000000    0.000000    0.000000    0.000000  -97.322359   28.408649   -4.511737   31.770794
  0.041843687    0.000000    0.000000    0.000000    0.000000  -98.148834   31.182587   -4.558723   29.677439
  0.042044088    0.000000    0.000000    0.000000    0.000000  -98.208849   31.307507   -4.605269   27.600605
  0.042244489    0.000000    0.000000    0.000000    0.000000  -97.447020   22.785177   -4.652325   25.545105
  0.042444890    0.000000    0.000000    0.000000    0.000000  -97.421559   32.786030   -4.699040   23.484358
  0.042645291    0.000000    0.000000    0.000000    0.000000  -99.143900   16.494015   -4.749807   21.436525
  0.042845691    0.000000    0.000000    0.000000    0.000000  -97.853520   28.171068   -4.795490   19.382586
  0.043046092    0.000000    0.000000    0.000000    0.000000  -98.654383   24.378824   -4.839670   17.336607
  0.043246493    0.000000    0.000000    0.000000    0.000000  -98.621749   29.900768   -4.886569   15.285275
  0.043446894    0.000000    0.000000    0.000000    0.000000  -99.392244   34.822392   -4.929175   13.239815
  0.043647295    0.000000    0.000000    0.000000    0.000000  -97.552043   28.250864   -4.972527   11.215736
  0.043847695    0.000000    0.000000    0.000000    0.000000  -99.649038   28.945847   -5.012245    9.178590
  0.044048096    0.000000    0.000000    0.000000    0.000000  -98.304791   23.715462   -5.051986    7.177861
  0.044248497    0.000000    0.000000    0.000000    0.000000  -98.763850   22.510338   -5.091298    5.162715
  0.044448898    0.000000    0.000000    0.000000    0.000000  -99.420295   23.616169   -5.129514    3.160355
  0.044649299    0.000000    0.000000    0.000000    0.000000 -100.593107   26.045906   -5.168792    1.164500
  0.044849699    0.000000    0.000000    0.000000    0.000000  -99.144429   32.138515   -5.204521   -0.817646
  0.045050100    0.000000    0.000000    0.000000    0.000000  -99.153317   32.326618   -5.239352   -2.803701
  0.045250501    0.000000    0.000000    0.000000    0.000000 -100.624056   38.022144   -5.274501   -4.754142
  0.045450902    0.000000    0.000000    0.000000    0.000000  -98.472399   31.188665   -5.305469   -6.711421
  0.045651303    0.000000    0.000000    0.000000    0.000000  -99.056802   34.914303   -5.336955   -8.689991
  0.045851703    0.000000    0.000000    0.000000    0.000000  -99.324861   29.712204   -5.367696  -10.621042
  0.046052104    0.000000    0.000000    0.000000    0.000000  -99.018716   34.977814   -5.394921  -12.569587
  0.046252505    0.000000    0.000000    0.000000    0.000000  -97.541501   26.084379   -5.423225  -14.469510
  0.046452906    0.000000    0.000000    0.000000    0.000000  -99.605989   36.528641   -5.451994  -16.380377
  0.046653307    0.000000    0.000000    0.000000    0.000000  -98.070745   40.579918   -5.478564  -18.267279
  0.046853707    0.000000    0.000000    0.000000    0.000000  -97.260682   30.966122   -5.503844  -20.169937
  0.047054108    0.000000    0.000000    0.000000    0.000000  -99.075847   31.947060   -5.530333  -22.040594
  0.047254509    0.000000    0.000000    0.000000    0.000000  -97.390776   24.047771   -5.554913  -23.916172
  0.047454910    0.000000    0.000000    0.000000    0.000000  -98.108794   32.822014   -5.576436  -25.781132
  0.047655311    0.000000    0.000000    0.000000    0.000000  -99.011971   27.259235   -5.600139  -27.626328
  0.047855711    0.000000    0.000000    0.000000    0.000000  -98.117256   34.624538   -5.620490  -29.451273
  0.048056112    0.000000    0.000000    0.000000    0.000000  -97.688690   23.381809   -5.642977  -31.246115
  0.048256513    0.000000    0.000000    0.000000    0.000000  -99.129125   23.590181   -5.665450  -33.051968
  0.048456914    0.000000    0.000000    0.000000    0.000000  -99.610540   29.822256   -5.685662  -34.838627
  0.048657315    0.000000    0.000000    0.000000    0.000000  -99.798311   28.276194   -5.707589  -36.657246
  0.048857715    0.000000    0.000000    0.000000    0.000000 -100.002537   34.433418   -5.725949  -38.424847
  0.049058116    0.000000    0.000000    0.000000    0.000000  -98.767668   28.501040   -5.744300  -40.200436
  0.049258517    0.000000    0.000000    0.000000    0.000000  -99.231618   32.031315   -5.759587  -41.963707
  0.049458918    0.000000    0.000000    0.000000    0.000000  -98.847637   29.400854   -5.777126  -43.697193
  0.049659319    0.000000    0.000000    0.000000    0.000000  -98.738694   39.409683   -5.798178  -45.452953
  0.049859719    0.000000    0.000000    0.000000    0.000000  -99.821583   41.323166   -5.814824  -47.162781
  0.050060120    0.000000    0.000000    0.000000    0.000000  -99.124559   39.883331   -5.830958  -48.861885
  0.050260521    0.000000    0.000000    0.000000    0.000000  -99.369928   34.529415   -5.847725  -50.594048
  0.050460922    0.000000    0.000000    0.000000    0.000000  -98.569640   28.054319   -5.859093  -52.281677
  0.050661323    0.000000    0.000000    0.000000    0.000000  -99.092341   39.995571   -5.871724  -53.978050
  0.050861723    0.000000    0.000000    0.000000    0.000000  -99.562518   32.236572   -5.880886  -55.635658
  0.051062124    0.000000    0.000000    0.000000    0.000000  -99.727062   33.128197   -5.895822  -57.336315
  0.051262525    0.000000    0.000000    0.000000    0.000000  -96.860275   35.134560   -5.908981  -58.986229
  0.051462926    0.000000    0.000000    0.000000    0.000000  -99.391036   37.559467   -5.920291  -60.629627
  0.051663327    0.000000    0.000000    0.000000    0.000000  -99.772332   30.750916   -5.928779  -62.261841
  0.051863727    0.000000    0.000000    0.000000    0.000000  -98.162124   35.434307   -5.939000  -63.891510
  0.052064128    0.000000    0.000000    0.000000    0.000000  -99.277532   26.091663   -5.944658  -65.493431
  0.052264529    0.000000    0.000000    0.000000    0.000000  -99.846612   24.496254   -5.948990  -67.099220
  0.052464930    0.000000    0.000000    0.000000    0.000000  -99.229053   35.669754   -5.955565  -68.696655
  0.052665331    0.000000    0.000000    0.000000    0.000000  -98.414324   27.674652   -5.961422  -70.267464
  0.052865731    0.000000    0.000000    0.000000    0.000000  -99.048779   36.689865   -5.969429  -71.830475
