! Anritsu VNA Master:                     Model: MS2036C/10/77
! SN:                                  1601066
! /bd0/18may10/255.ew.m4.s2p
! Existing Calibration Information:
! TYPE:                         Current Settings,       Active Cal Settings
! TIME:             	   05/10/2018 01:45:27 PM,    05/10/2018 01:36:00 PM
! INTERNAL TEMP:    	                   55.8 C,                    54.5 C
! # POINTS:         	                      492,                       492
! START FREQ:       	               20.000 MHz,                20.000 MHz
! STOP FREQ:        	          118.396 793 MHz,           118.396 793 MHz
! SOURCE POWER:     	                     High,                      High
! IFBW:             	                    50 Hz,                     50 Hz
! AVG FACTOR:       	                       1 ,                        1 
! REF PLANE 1:      	                     0 mm,                      0 mm
! REF PLANE 2:      	                     0 mm,                      0 mm
! CAL TYPE:         	                 Full S22,                  Full S22
! CAL METHOD:       	                     SOLT,                      SOLT
! CAL LINE TYPE:    	                     Coax,                      Coax
! DUT PORT 1:       	                K-Conn(M),                 K-Conn(M)
! DUT PORT 2:       	                K-Conn(M),                 K-Conn(M)
! CAL STATUS:       	        OK: Accuracy High,                        --
# GHZ S DB R 50.0
! FREQ.GHZ       S11DB        S11A       S21DB        S21A       S12DB        S12A       S22DB        S22A
  0.020000000    0.000000    0.000000    0.000000    0.000000  -89.490896   37.278725   -0.917487 -125.566826
  0.020200401    0.000000    0.000000    0.000000    0.000000  -89.351192   32.943142   -0.927785 -127.010918
  0.020400802    0.000000    0.000000    0.000000    0.000000  -89.812565   34.331375   -0.937672 -128.437042
  0.020601202    0.000000    0.000000    0.000000    0.000000  -90.146638   33.578503   -0.945572 -129.898560
  0.020801603    0.000000    0.000000    0.000000    0.000000  -91.178266   34.688541   -0.958445 -131.398102
  0.021002004    0.000000    0.000000    0.000000    0.000000  -91.273368   36.245750   -0.966056 -132.896622
  0.021202405    0.000000    0.000000    0.000000    0.000000  -91.006923   35.310059   -0.976775 -134.405716
  0.021402806    0.000000    0.000000    0.000000    0.000000  -91.594101   37.049622   -0.986835 -135.903732
  0.021603206    0.000000    0.000000    0.000000    0.000000  -91.913208   41.459576   -0.993954 -137.395065
  0.021803607    0.000000    0.000000    0.000000    0.000000  -91.981332   38.836689   -1.005962 -138.891663
  0.022004008    0.000000    0.000000    0.000000    0.000000  -91.593493   44.605049   -1.016459 -140.401855
  0.022204409    0.000000    0.000000    0.000000    0.000000  -91.756896   37.345497   -1.030421 -141.915741
  0.022404810    0.000000    0.000000    0.000000    0.000000  -91.595776   39.321899   -1.042525 -143.455475
  0.022605210    0.000000    0.000000    0.000000    0.000000  -91.396113   38.199928   -1.047898 -145.025909
  0.022805611    0.000000    0.000000    0.000000    0.000000  -91.666130   46.270634   -1.055806 -146.589325
  0.023006012    0.000000    0.000000    0.000000    0.000000  -91.457518   41.976891   -1.064424 -148.143234
  0.023206413    0.000000    0.000000    0.000000    0.000000  -91.255616   42.191978   -1.075494 -149.691391
  0.023406814    0.000000    0.000000    0.000000    0.000000  -91.476471   41.251804   -1.085590 -151.237350
  0.023607214    0.000000    0.000000    0.000000    0.000000  -91.509014   40.966534   -1.097809 -152.796570
  0.023807615    0.000000    0.000000    0.000000    0.000000  -91.315450   39.167393   -1.110225 -154.379257
  0.024008016    0.000000    0.000000    0.000000    0.000000  -90.917279   35.246265   -1.121865 -155.983871
  0.024208417    0.000000    0.000000    0.000000    0.000000  -91.128161   35.029457   -1.133293 -157.599655
  0.024408818    0.000000    0.000000    0.000000    0.000000  -91.007503   33.494473   -1.144518 -159.221252
  0.024609218    0.000000    0.000000    0.000000    0.000000  -91.126513   31.777964   -1.155135 -160.828491
  0.024809619    0.000000    0.000000    0.000000    0.000000  -91.348179   31.500536   -1.168640 -162.467087
  0.025010020    0.000000    0.000000    0.000000    0.000000  -91.565314   29.666946   -1.183216 -164.099808
  0.025210421    0.000000    0.000000    0.000000    0.000000  -91.921526   30.308699   -1.198016 -165.731644
  0.025410822    0.000000    0.000000    0.000000    0.000000  -92.020928   28.859547   -1.214143 -167.390335
  0.025611222    0.000000    0.000000    0.000000    0.000000  -92.169991   28.418787   -1.229757 -169.051804
  0.025811623    0.000000    0.000000    0.000000    0.000000  -92.843516   23.752403   -1.246666 -170.738998
  0.026012024    0.000000    0.000000    0.000000    0.000000  -92.596669   26.891857   -1.262391 -172.426743
  0.026212425    0.000000    0.000000    0.000000    0.000000  -93.473963   23.512560   -1.279377 -174.135147
  0.026412826    0.000000    0.000000    0.000000    0.000000  -93.428979   26.112473   -1.298985 -175.851318
  0.026613226    0.000000    0.000000    0.000000    0.000000  -93.256510   27.209381   -1.318256 -177.570801
  0.026813627    0.000000    0.000000    0.000000    0.000000  -94.034829   30.511723   -1.339018 -179.306625
  0.027014028    0.000000    0.000000    0.000000    0.000000  -94.642433   22.871220   -1.360105  178.954163
  0.027214429    0.000000    0.000000    0.000000    0.000000  -94.293131   28.181028   -1.381768  177.201080
  0.027414830    0.000000    0.000000    0.000000    0.000000  -94.974558   28.649557   -1.405009  175.446991
  0.027615230    0.000000    0.000000    0.000000    0.000000  -94.053671   30.073507   -1.427821  173.666489
  0.027815631    0.000000    0.000000    0.000000    0.000000  -94.718979   31.547155   -1.451368  171.884079
  0.028016032    0.000000    0.000000    0.000000    0.000000  -94.397974   34.825409   -1.476675  170.081070
  0.028216433    0.000000    0.000000    0.000000    0.000000  -95.053300   29.047012   -1.502377  168.271866
  0.028416834    0.000000    0.000000    0.000000    0.000000  -94.958918   34.001713   -1.528664  166.451843
  0.028617234    0.000000    0.000000    0.000000    0.000000  -95.110847   31.562130   -1.555845  164.634232
  0.028817635    0.000000    0.000000    0.000000    0.000000  -94.029900   36.152390   -1.583638  162.801376
  0.029018036    0.000000    0.000000    0.000000    0.000000  -93.690871   33.962223   -1.611075  160.979050
  0.029218437    0.000000    0.000000    0.000000    0.000000  -94.833754   33.270073   -1.642199  159.133087
  0.029418838    0.000000    0.000000    0.000000    0.000000  -94.096437   30.933977   -1.671394  157.272751
  0.029619238    0.000000    0.000000    0.000000    0.000000  -93.730449   33.543060   -1.702926  155.398514
  0.029819639    0.000000    0.000000    0.000000    0.000000  -94.214935   31.201828   -1.733917  153.517349
  0.030020040    0.000000    0.000000    0.000000    0.000000  -94.155947   30.506655   -1.765422  151.651230
  0.030220441    0.000000    0.000000    0.000000    0.000000  -94.017830   25.549517   -1.797005  149.761749
  0.030420842    0.000000    0.000000    0.000000    0.000000  -94.043695   25.977673   -1.828354  147.875061
  0.030621242    0.000000    0.000000    0.000000    0.000000  -94.316162   23.555220   -1.862889  145.994095
  0.030821643    0.000000    0.000000    0.000000    0.000000  -94.493331   23.045849   -1.899121  144.099579
  0.031022044    0.000000    0.000000    0.000000    0.000000  -94.898680   26.685396   -1.933112  142.188385
  0.031222445    0.000000    0.000000    0.000000    0.000000  -93.997326   16.188437   -1.964918  140.286819
  0.031422846    0.000000    0.000000    0.000000    0.000000  -94.760725   21.974335   -2.002134  138.332214
  0.031623246    0.000000    0.000000    0.000000    0.000000  -94.846176   24.478449   -2.040227  136.381805
  0.031823647    0.000000    0.000000    0.000000    0.000000  -94.204143   18.919035   -2.076800  134.405411
  0.032024048    0.000000    0.000000    0.000000    0.000000  -95.702556   27.745831   -2.118972  132.461899
  0.032224449    0.000000    0.000000    0.000000    0.000000  -95.020639   19.401218   -2.157147  130.496857
  0.032424850    0.000000    0.000000    0.000000    0.000000  -94.436051   19.974470   -2.198000  128.513535
  0.032625250    0.000000    0.000000    0.000000    0.000000  -96.661425   22.109221   -2.239520  126.521553
  0.032825651    0.000000    0.000000    0.000000    0.000000  -95.772117   16.553665   -2.280991  124.518845
  0.033026052    0.000000    0.000000    0.000000    0.000000  -96.876263   22.042969   -2.323673  122.494514
  0.033226453    0.000000    0.000000    0.000000    0.000000  -96.801538   24.650751   -2.364814  120.476082
  0.033426854    0.000000    0.000000    0.000000    0.000000  -96.231074   19.772329   -2.407559  118.443237
  0.033627254    0.000000    0.000000    0.000000    0.000000  -96.478291   25.880640   -2.452707  116.421738
  0.033827655    0.000000    0.000000    0.000000    0.000000  -97.573996   18.741888   -2.497271  114.426422
  0.034028056    0.000000    0.000000    0.000000    0.000000  -96.455922   21.365131   -2.539359  112.377876
  0.034228457    0.000000    0.000000    0.000000    0.000000  -96.655728   27.751768   -2.587503  110.348373
  0.034428858    0.000000    0.000000    0.000000    0.000000  -96.386227   23.437294   -2.631491  108.291550
  0.034629258    0.000000    0.000000    0.000000    0.000000  -96.317322   25.350994   -2.679404  106.215767
  0.034829659    0.000000    0.000000    0.000000    0.000000  -96.593556   32.145504   -2.727105  104.172401
  0.035030060    0.000000    0.000000    0.000000    0.000000  -96.644361   26.050722   -2.774317  102.104843
  0.035230461    0.000000    0.000000    0.000000    0.000000  -96.162658   22.738941   -2.822964  100.033028
  0.035430862    0.000000    0.000000    0.000000    0.000000  -96.678289   32.010319   -2.870055   97.961548
  0.035631262    0.000000    0.000000    0.000000    0.000000  -95.916830   27.624836   -2.920399   95.903046
  0.035831663    0.000000    0.000000    0.000000    0.000000  -96.669959   27.303190   -2.969126   93.839607
  0.036032064    0.000000    0.000000    0.000000    0.000000  -95.689211   23.639521   -3.016462   91.757172
  0.036232465    0.000000    0.000000    0.000000    0.000000  -96.164062   26.894104   -3.065493   89.681404
  0.036432866    0.000000    0.000000    0.000000    0.000000  -96.126816   28.787216   -3.114091   87.596672
  0.036633266    0.000000    0.000000    0.000000    0.000000  -97.330302   23.070086   -3.158811   85.520447
  0.036833667    0.000000    0.000000    0.000000    0.000000  -96.263708   21.325998   -3.202574   83.438736
  0.037034068    0.000000    0.000000    0.000000    0.000000  -97.019720   27.869667   -3.247086   81.339439
  0.037234469    0.000000    0.000000    0.000000    0.000000  -96.113403   23.533903   -3.286327   79.233047
  0.037434870    0.000000    0.000000    0.000000    0.000000  -96.948795   16.885603   -3.321899   77.069221
  0.037635270    0.000000    0.000000    0.000000    0.000000  -97.562527   19.659630   -3.357005   74.859703
  0.037835671    0.000000    0.000000    0.000000    0.000000  -97.234571   24.646990   -3.400310   72.569817
  0.038036072    0.000000    0.000000    0.000000    0.000000  -98.317517   14.959591   -3.456549   70.199615
  0.038236473    0.000000    0.000000    0.000000    0.000000  -97.855753   18.310158   -3.529119   67.876846
  0.038436874    0.000000    0.000000    0.000000    0.000000  -98.425477   27.853790   -3.609543   65.615128
  0.038637274    0.000000    0.000000    0.000000    0.000000  -98.265742   23.897343   -3.687890   63.427151
  0.038837675    0.000000    0.000000    0.000000    0.000000  -97.513125   30.673031   -3.762008   61.306496
  0.039038076    0.000000    0.000000    0.000000    0.000000  -97.245604   26.101116   -3.828999   59.221634
  0.039238477    0.000000    0.000000    0.000000    0.000000  -97.789213   33.399105   -3.889792   57.099693
  0.039438878    0.000000    0.000000    0.000000    0.000000  -98.153911   21.801794   -3.949304   55.008896
  0.039639278    0.000000    0.000000    0.000000    0.000000  -97.342015   30.107080   -4.012494   52.920799
  0.039839679    0.000000    0.000000    0.000000    0.000000  -98.333062   25.340385   -4.067663   50.804382
  0.040040080    0.000000    0.000000    0.000000    0.000000  -97.966883   27.484890   -4.120947   48.696381
  0.040240481    0.000000    0.000000    0.000000    0.000000  -97.961140   23.671785   -4.172160   46.584419
  0.040440882    0.000000    0.000000    0.000000    0.000000  -97.159057   30.564165   -4.222354   44.473717
  0.040641283    0.000000    0.000000    0.000000    0.000000  -97.178734   30.274479   -4.273628   42.377415
  0.040841683    0.000000    0.000000    0.000000    0.000000  -99.235777   31.468294   -4.323014   40.279362
  0.041042084    0.000000    0.000000    0.000000    0.000000  -98.288718   33.915279   -4.374911   38.205574
  0.041242485    0.000000    0.000000    0.000000    0.000000  -98.112633   22.016819   -4.424993   36.098251
  0.041442886    0.000000    0.000000    0.000000    0.000000  -97.993060   29.064753   -4.474871   34.015953
  0.041643287    0.000000    0.000000    0.000000    0.000000  -98.578469   33.121761   -4.522682   31.906836
  0.041843687    0.000000    0.000000    0.000000    0.000000  -97.373369   25.869562   -4.570685   29.808907
  0.042044088    0.000000    0.000000    0.000000    0.000000  -99.488558   37.567589   -4.619043   27.734938
  0.042244489    0.000000    0.000000    0.000000    0.000000  -98.807905   31.448469   -4.662590   25.667383
  0.042444890    0.000000    0.000000    0.000000    0.000000  -98.193453   23.196003   -4.711970   23.617262
  0.042645291    0.000000    0.000000    0.000000    0.000000  -98.154863   31.818811   -4.758449   21.560429
  0.042845691    0.000000    0.000000    0.000000    0.000000  -99.704590   28.594679   -4.804258   19.516628
  0.043046092    0.000000    0.000000    0.000000    0.000000  -98.649813   27.692427   -4.847196   17.472979
  0.043246493    0.000000    0.000000    0.000000    0.000000  -98.381995   28.980001   -4.891583   15.422773
  0.043446894    0.000000    0.000000    0.000000    0.000000  -99.218831   23.643879   -4.935954   13.397618
  0.043647295    0.000000    0.000000    0.000000    0.000000  -98.173086   33.105751   -4.975833   11.365427
  0.043847695    0.000000    0.000000    0.000000    0.000000  -98.705664   33.366524   -5.019228    9.351415
  0.044048096    0.000000    0.000000    0.000000    0.000000  -98.344183   30.436922   -5.060997    7.353044
  0.044248497    0.000000    0.000000    0.000000    0.000000  -99.254416   36.920715   -5.100820    5.340368
  0.044448898    0.000000    0.000000    0.000000    0.000000  -98.936483   25.230223   -5.139140    3.350514
  0.044649299    0.000000    0.000000    0.000000    0.000000  -98.145147   22.152893   -5.179627    1.365393
  0.044849699    0.000000    0.000000    0.000000    0.000000 -100.463219   27.048138   -5.216562   -0.609419
  0.045050100    0.000000    0.000000    0.000000    0.000000  -99.151772   18.466534   -5.250076   -2.600818
  0.045250501    0.000000    0.000000    0.000000    0.000000  -99.166798   24.243151   -5.282908   -4.571075
  0.045450902    0.000000    0.000000    0.000000    0.000000  -99.023375   25.001350   -5.315129   -6.539946
  0.045651303    0.000000    0.000000    0.000000    0.000000  -99.392020   30.113806   -5.350400   -8.499749
  0.045851703    0.000000    0.000000    0.000000    0.000000  -99.728250   38.109955   -5.381470  -10.426633
  0.046052104    0.000000    0.000000    0.000000    0.000000  -98.347235   27.495855   -5.410736  -12.382691
  0.046252505    0.000000    0.000000    0.000000    0.000000  -99.353175   28.203299   -5.443123  -14.287010
  0.046452906    0.000000    0.000000    0.000000    0.000000  -98.543646   30.910410   -5.468812  -16.177961
  0.046653307    0.000000    0.000000    0.000000    0.000000  -98.277887   26.079973   -5.497586  -18.099075
  0.046853707    0.000000    0.000000    0.000000    0.000000  -99.097207   38.796375   -5.523779  -19.995995
  0.047054108    0.000000    0.000000    0.000000    0.000000  -98.904862   29.141510   -5.549167  -21.896643
  0.047254509    0.000000    0.000000    0.000000    0.000000  -98.430440   32.487732   -5.572901  -23.784376
  0.047454910    0.000000    0.000000    0.000000    0.000000  -99.141490   29.479782   -5.592233  -25.655445
  0.047655311    0.000000    0.000000    0.000000    0.000000  -99.118986   26.371662   -5.614094  -27.522289
  0.047855711    0.000000    0.000000    0.000000    0.000000  -99.500852   29.044416   -5.635589  -29.340311
  0.048056112    0.000000    0.000000    0.000000    0.000000  -98.715215   29.267771   -5.659651  -31.168415
  0.048256513    0.000000    0.000000    0.000000    0.000000  -97.774593   22.852436   -5.680482  -32.948193
  0.048456914    0.000000    0.000000    0.000000    0.000000  -98.775911   33.200195   -5.698567  -34.742592
  0.048657315    0.000000    0.000000    0.000000    0.000000  -97.925241   39.325726   -5.720113  -36.545273
  0.048857715    0.000000    0.000000    0.000000    0.000000  -99.041035   40.074165   -5.738255  -38.352551
  0.049058116    0.000000    0.000000    0.000000    0.000000  -99.032812   30.055595   -5.755435  -40.117527
  0.049258517    0.000000    0.000000    0.000000    0.000000  -98.280607   32.344250   -5.769438  -41.891361
  0.049458918    0.000000    0.000000    0.000000    0.000000  -99.493700   20.205252   -5.787130  -43.612217
  0.049659319    0.000000    0.000000    0.000000    0.000000  -99.659331   38.042164   -5.803940  -45.351303
  0.049859719    0.000000    0.000000    0.000000    0.000000  -98.803121   29.351967   -5.821738  -47.064648
  0.050060120    0.000000    0.000000    0.000000    0.000000 -100.311529   24.338223   -5.837444  -48.772141
  0.050260521    0.000000    0.000000    0.000000    0.000000  -98.160281   37.913651   -5.852391  -50.480801
  0.050460922    0.000000    0.000000    0.000000    0.000000  -99.648441   36.924248   -5.863659  -52.198006
  0.050661323    0.000000    0.000000    0.000000    0.000000  -99.667153   40.587425   -5.874980  -53.878769
  0.050861723    0.000000    0.000000    0.000000    0.000000  -98.822961   50.351513   -5.884790  -55.562672
  0.051062124    0.000000    0.000000    0.000000    0.000000 -100.549329   37.090351   -5.899843  -57.230648
  0.051262525    0.000000    0.000000    0.000000    0.000000  -98.358208   41.401608   -5.912873  -58.882786
  0.051462926    0.000000    0.000000    0.000000    0.000000 -100.224085   29.855263   -5.924111  -60.514725
  0.051663327    0.000000    0.000000    0.000000    0.000000  -99.313794   30.623184   -5.934667  -62.149689
  0.051863727    0.000000    0.000000    0.000000    0.000000  -98.957402   41.482018   -5.944300  -63.772358
  0.052064128    0.000000    0.000000    0.000000    0.000000 -100.260187   30.426132   -5.952328  -65.396599
  0.052264529    0.000000    0.000000    0.000000    0.000000  -97.731776   32.521862   -5.954499  -66.998146
  0.052464930    0.000000    0.000000    0.000000    0.000000  -99.301758   39.261635   -5.959557  -68.607460
  0.052665331    0.000000    0.000000    0.000000    0.000000  -99.340973   23.862059   -5.967562  -70.169167
  0.052865731    0.000000    0.000000    0.000000    0.000000  -99.300174   24.885027   -5.974525  -71.739403
