! Anritsu VNA Master:                     Model: MS2036C/10/77
! SN:                                  1601066
! /bd0/18may10/252.ew.m8.s2p
! Existing Calibration Information:
! TYPE:                         Current Settings,       Active Cal Settings
! TIME:             	   05/10/2018 06:43:46 PM,    05/10/2018 06:36:47 PM
! INTERNAL TEMP:    	                   61.3 C,                    61.0 C
! # POINTS:         	                      487,                       487
! START FREQ:       	           20.601 202 MHz,            20.601 202 MHz
! STOP FREQ:        	          117.995 991 MHz,           117.995 991 MHz
! SOURCE POWER:     	                     High,                      High
! IFBW:             	                    50 Hz,                     50 Hz
! AVG FACTOR:       	                       1 ,                        1 
! REF PLANE 1:      	                     0 mm,                      0 mm
! REF PLANE 2:      	                     0 mm,                      0 mm
! CAL TYPE:         	                 Full S22,                  Full S22
! CAL METHOD:       	                     SOLT,                      SOLT
! CAL LINE TYPE:    	                     Coax,                      Coax
! DUT PORT 1:       	                K-Conn(M),                 K-Conn(M)
! DUT PORT 2:       	                K-Conn(M),                 K-Conn(M)
! CAL STATUS:       	        OK: Accuracy High,                        --
# GHZ S DB R 50.0
! FREQ.GHZ       S11DB        S11A       S21DB        S21A       S12DB        S12A       S22DB        S22A
  0.020601202    0.000000    0.000000    0.000000    0.000000  -90.115943   32.523705   -0.637755 -129.993607
  0.020801603    0.000000    0.000000    0.000000    0.000000  -90.942672   32.524815   -0.641219 -131.501129
  0.021002004    0.000000    0.000000    0.000000    0.000000  -91.094079   30.737665   -0.643208 -133.034470
  0.021202405    0.000000    0.000000    0.000000    0.000000  -91.433560   37.282295   -0.644996 -134.551010
  0.021402806    0.000000    0.000000    0.000000    0.000000  -91.402338   34.213905   -0.647385 -136.080505
  0.021603206    0.000000    0.000000    0.000000    0.000000  -91.732546   34.996151   -0.648543 -137.609894
  0.021803607    0.000000    0.000000    0.000000    0.000000  -91.651464   37.655754   -0.651079 -139.129395
  0.022004008    0.000000    0.000000    0.000000    0.000000  -91.556653   34.766491   -0.657490 -140.644943
  0.022204409    0.000000    0.000000    0.000000    0.000000  -91.862358   39.546654   -0.660857 -142.203644
  0.022404810    0.000000    0.000000    0.000000    0.000000  -91.992201   43.578228   -0.668876 -143.779053
  0.022605210    0.000000    0.000000    0.000000    0.000000  -91.844281   41.410767   -0.671500 -145.366013
  0.022805611    0.000000    0.000000    0.000000    0.000000  -92.075132   41.235382   -0.674818 -146.962509
  0.023006012    0.000000    0.000000    0.000000    0.000000  -91.979575   41.713196   -0.679148 -148.556000
  0.023206413    0.000000    0.000000    0.000000    0.000000  -92.366553   40.287941   -0.682181 -150.143600
  0.023406814    0.000000    0.000000    0.000000    0.000000  -91.187582   35.917076   -0.687494 -151.741150
  0.023607214    0.000000    0.000000    0.000000    0.000000  -91.170091   37.379066   -0.696140 -153.345032
  0.023807615    0.000000    0.000000    0.000000    0.000000  -91.714560   40.247353   -0.705442 -154.971497
  0.024008016    0.000000    0.000000    0.000000    0.000000  -91.219942   36.582241   -0.713390 -156.608459
  0.024208417    0.000000    0.000000    0.000000    0.000000  -91.455197   36.544395   -0.721774 -158.274582
  0.024408818    0.000000    0.000000    0.000000    0.000000  -91.256059   34.768551   -0.727888 -159.946793
  0.024609218    0.000000    0.000000    0.000000    0.000000  -91.350403   32.781223   -0.735415 -161.609329
  0.024809619    0.000000    0.000000    0.000000    0.000000  -91.428341   32.960289   -0.745676 -163.287628
  0.025010020    0.000000    0.000000    0.000000    0.000000  -91.841232   28.987165   -0.755077 -164.976898
  0.025210421    0.000000    0.000000    0.000000    0.000000  -91.389264   25.553986   -0.766990 -166.664108
  0.025410822    0.000000    0.000000    0.000000    0.000000  -92.305504   27.733738   -0.779288 -168.368210
  0.025611222    0.000000    0.000000    0.000000    0.000000  -92.374365   26.237452   -0.789357 -170.076324
  0.025811623    0.000000    0.000000    0.000000    0.000000  -92.393478   20.330853   -0.801972 -171.798325
  0.026012024    0.000000    0.000000    0.000000    0.000000  -91.984417   24.216999   -0.813399 -173.538208
  0.026212425    0.000000    0.000000    0.000000    0.000000  -92.721350   21.229315   -0.825887 -175.273056
  0.026412826    0.000000    0.000000    0.000000    0.000000  -93.946528   21.337496   -0.839104 -177.023102
  0.026613226    0.000000    0.000000    0.000000    0.000000  -93.385181   23.039337   -0.855305 -178.780243
  0.026813627    0.000000    0.000000    0.000000    0.000000  -94.032410   24.748293   -0.869712  179.451126
  0.027014028    0.000000    0.000000    0.000000    0.000000  -93.796755   25.083128   -0.885865  177.685852
  0.027214429    0.000000    0.000000    0.000000    0.000000  -94.370746   28.680422   -0.902574  175.913055
  0.027414830    0.000000    0.000000    0.000000    0.000000  -95.041761   22.525021   -0.919290  174.129868
  0.027615230    0.000000    0.000000    0.000000    0.000000  -94.921172   26.598721   -0.938257  172.337555
  0.027815631    0.000000    0.000000    0.000000    0.000000  -94.929043   30.917141   -0.955222  170.535995
  0.028016032    0.000000    0.000000    0.000000    0.000000  -93.944091   30.730694   -0.974229  168.713226
  0.028216433    0.000000    0.000000    0.000000    0.000000  -94.461467   22.723064   -0.995100  166.890976
  0.028416834    0.000000    0.000000    0.000000    0.000000  -94.340315   33.923061   -1.016499  165.063202
  0.028617234    0.000000    0.000000    0.000000    0.000000  -94.243665   30.645079   -1.038112  163.215576
  0.028817635    0.000000    0.000000    0.000000    0.000000  -94.157191   33.153599   -1.058796  161.375687
  0.029018036    0.000000    0.000000    0.000000    0.000000  -93.373220   34.812958   -1.083042  159.523407
  0.029218437    0.000000    0.000000    0.000000    0.000000  -95.183643   31.477425   -1.108612  157.658844
  0.029418838    0.000000    0.000000    0.000000    0.000000  -94.615496   33.633816   -1.133680  155.763809
  0.029619238    0.000000    0.000000    0.000000    0.000000  -94.116519   30.779131   -1.160803  153.873230
  0.029819639    0.000000    0.000000    0.000000    0.000000  -94.340587   30.838940   -1.188075  151.967590
  0.030020040    0.000000    0.000000    0.000000    0.000000  -93.909263   25.312969   -1.216161  150.045975
  0.030220441    0.000000    0.000000    0.000000    0.000000  -94.095353   24.962111   -1.244382  148.119919
  0.030420842    0.000000    0.000000    0.000000    0.000000  -94.270177   28.940653   -1.273823  146.206207
  0.030621242    0.000000    0.000000    0.000000    0.000000  -93.860730   27.693104   -1.303869  144.285446
  0.030821643    0.000000    0.000000    0.000000    0.000000  -94.064154   19.646484   -1.337914  142.334518
  0.031022044    0.000000    0.000000    0.000000    0.000000  -94.200652   25.047020   -1.370152  140.395416
  0.031222445    0.000000    0.000000    0.000000    0.000000  -94.887666   18.324373   -1.396572  138.444351
  0.031422846    0.000000    0.000000    0.000000    0.000000  -94.851683   20.969818   -1.432866  136.459473
  0.031623246    0.000000    0.000000    0.000000    0.000000  -94.915319   15.054624   -1.468213  134.465012
  0.031823647    0.000000    0.000000    0.000000    0.000000  -95.737579   23.451952   -1.506843  132.471848
  0.032024048    0.000000    0.000000    0.000000    0.000000  -95.458015   17.720249   -1.545037  130.480621
  0.032224449    0.000000    0.000000    0.000000    0.000000  -94.524645   18.086767   -1.584925  128.469391
  0.032424850    0.000000    0.000000    0.000000    0.000000  -95.109055   14.946265   -1.626409  126.472839
  0.032625250    0.000000    0.000000    0.000000    0.000000  -95.782160   18.435808   -1.665873  124.445961
  0.032825651    0.000000    0.000000    0.000000    0.000000  -96.289260   19.519278   -1.704735  122.411850
  0.033026052    0.000000    0.000000    0.000000    0.000000  -95.867844   18.950804   -1.746980  120.370514
  0.033226453    0.000000    0.000000    0.000000    0.000000  -95.833279   23.922419   -1.788497  118.314148
  0.033426854    0.000000    0.000000    0.000000    0.000000  -96.075687   18.427685   -1.829911  116.282349
  0.033627254    0.000000    0.000000    0.000000    0.000000  -95.873798   23.107708   -1.874414  114.261238
  0.033827655    0.000000    0.000000    0.000000    0.000000  -96.302942   26.124084   -1.920218  112.218063
  0.034028056    0.000000    0.000000    0.000000    0.000000  -96.601667   23.329473   -1.965692  110.183952
  0.034228457    0.000000    0.000000    0.000000    0.000000  -96.606927   23.273396   -2.010998  108.127449
  0.034428858    0.000000    0.000000    0.000000    0.000000  -97.159718   27.561438   -2.060569  106.067940
  0.034629258    0.000000    0.000000    0.000000    0.000000  -96.342534   29.496262   -2.109163  103.993195
  0.034829659    0.000000    0.000000    0.000000    0.000000  -96.607779   30.491755   -2.156932  101.920044
  0.035030060    0.000000    0.000000    0.000000    0.000000  -97.120306   22.389452   -2.209643   99.846039
  0.035230461    0.000000    0.000000    0.000000    0.000000  -95.531205   24.208317   -2.262723   97.775627
  0.035430862    0.000000    0.000000    0.000000    0.000000  -96.293222   23.875568   -2.313775   95.698753
  0.035631262    0.000000    0.000000    0.000000    0.000000  -96.155520   27.171429   -2.369779   93.623161
  0.035831663    0.000000    0.000000    0.000000    0.000000  -96.868172   30.059172   -2.420405   91.546341
  0.036032064    0.000000    0.000000    0.000000    0.000000  -98.088958   26.030943   -2.475553   89.448280
  0.036232465    0.000000    0.000000    0.000000    0.000000  -95.705909   21.359915   -2.528621   87.364929
  0.036432866    0.000000    0.000000    0.000000    0.000000  -96.220723   25.245392   -2.584370   85.245552
  0.036633266    0.000000    0.000000    0.000000    0.000000  -95.980654   19.555843   -2.641064   83.152473
  0.036833667    0.000000    0.000000    0.000000    0.000000  -96.796151   18.766893   -2.696671   81.053802
  0.037034068    0.000000    0.000000    0.000000    0.000000  -97.124860   16.701490   -2.757158   78.942299
  0.037234469    0.000000    0.000000    0.000000    0.000000  -96.703387   20.469385   -2.813150   76.863068
  0.037434870    0.000000    0.000000    0.000000    0.000000  -97.754433   18.800684   -2.870598   74.747009
  0.037635270    0.000000    0.000000    0.000000    0.000000  -96.552576   18.602062   -2.929365   72.668999
  0.037835671    0.000000    0.000000    0.000000    0.000000  -98.060618   21.220686   -2.988339   70.570427
  0.038036072    0.000000    0.000000    0.000000    0.000000  -97.781252   22.929733   -3.045717   68.439384
  0.038236473    0.000000    0.000000    0.000000    0.000000  -98.166275   19.317675   -3.105997   66.319397
  0.038436874    0.000000    0.000000    0.000000    0.000000  -97.223181   24.394243   -3.166432   64.191048
  0.038637274    0.000000    0.000000    0.000000    0.000000  -98.084375   29.913664   -3.229145   62.081844
  0.038837675    0.000000    0.000000    0.000000    0.000000  -98.313554   26.516855   -3.285183   59.977081
  0.039038076    0.000000    0.000000    0.000000    0.000000  -98.741760   29.918585   -3.346061   57.894085
  0.039238477    0.000000    0.000000    0.000000    0.000000  -98.024578   31.158306   -3.400893   55.819969
  0.039438878    0.000000    0.000000    0.000000    0.000000  -97.685453   30.219370   -3.459529   53.732319
  0.039639278    0.000000    0.000000    0.000000    0.000000  -97.259160   25.102745   -3.517130   51.658005
  0.039839679    0.000000    0.000000    0.000000    0.000000  -97.937314   27.693001   -3.578943   49.569767
  0.040040080    0.000000    0.000000    0.000000    0.000000  -98.097492   19.745317   -3.633424   47.471855
  0.040240481    0.000000    0.000000    0.000000    0.000000  -96.964234   23.350313   -3.693560   45.396645
  0.040440882    0.000000    0.000000    0.000000    0.000000  -97.267110   27.114508   -3.749754   43.348820
  0.040641283    0.000000    0.000000    0.000000    0.000000  -97.708439   31.338192   -3.807283   41.293179
  0.040841683    0.000000    0.000000    0.000000    0.000000  -97.369931   25.105482   -3.864168   39.225521
  0.041042084    0.000000    0.000000    0.000000    0.000000  -97.012062   22.471706   -3.922221   37.204456
  0.041242485    0.000000    0.000000    0.000000    0.000000  -97.876516   28.244707   -3.982716   35.165333
  0.041442886    0.000000    0.000000    0.000000    0.000000  -97.404773   25.598049   -4.038815   33.118874
  0.041643287    0.000000    0.000000    0.000000    0.000000  -97.377787   26.477631   -4.094129   31.067772
  0.041843687    0.000000    0.000000    0.000000    0.000000  -97.597980   25.833656   -4.150898   29.011320
  0.042044088    0.000000    0.000000    0.000000    0.000000  -99.732183   31.753283   -4.204333   26.977501
  0.042244489    0.000000    0.000000    0.000000    0.000000  -97.408307   23.067358   -4.260366   24.944719
  0.042444890    0.000000    0.000000    0.000000    0.000000  -97.385848   25.817242   -4.315132   22.922535
  0.042645291    0.000000    0.000000    0.000000    0.000000  -98.186247   26.498384   -4.371122   20.904387
  0.042845691    0.000000    0.000000    0.000000    0.000000  -98.431603   24.067450   -4.424087   18.894152
  0.043046092    0.000000    0.000000    0.000000    0.000000  -97.757654   22.394978   -4.478830   16.885275
  0.043246493    0.000000    0.000000    0.000000    0.000000  -99.280876   24.948622   -4.531615   14.871152
  0.043446894    0.000000    0.000000    0.000000    0.000000 -100.218388   24.051035   -4.581927   12.871489
  0.043647295    0.000000    0.000000    0.000000    0.000000  -97.654515   28.366646   -4.634926   10.856942
  0.043847695    0.000000    0.000000    0.000000    0.000000  -99.269027   19.849564   -4.682674    8.889737
  0.044048096    0.000000    0.000000    0.000000    0.000000 -100.090165   25.613699   -4.731201    6.904171
  0.044248497    0.000000    0.000000    0.000000    0.000000  -98.966328   23.293121   -4.781113    4.926624
  0.044448898    0.000000    0.000000    0.000000    0.000000  -98.229757   35.717373   -4.829721    2.979598
  0.044649299    0.000000    0.000000    0.000000    0.000000  -99.695401   30.888220   -4.877465    1.038649
  0.044849699    0.000000    0.000000    0.000000    0.000000  -98.498640   39.691799   -4.922835   -0.896204
  0.045050100    0.000000    0.000000    0.000000    0.000000  -97.715808   31.690163   -4.969557   -2.826959
  0.045250501    0.000000    0.000000    0.000000    0.000000  -99.854917   29.807222   -5.013280   -4.750898
  0.045450902    0.000000    0.000000    0.000000    0.000000  -98.377266   28.683704   -5.057269   -6.662628
  0.045651303    0.000000    0.000000    0.000000    0.000000  -97.959845   20.783297   -5.100581   -8.585596
  0.045851703    0.000000    0.000000    0.000000    0.000000  -97.997829   30.720531   -5.139188  -10.478996
  0.046052104    0.000000    0.000000    0.000000    0.000000  -98.362177   40.399632   -5.183295  -12.350779
  0.046252505    0.000000    0.000000    0.000000    0.000000  -99.553655   32.501308   -5.222407  -14.217995
  0.046452906    0.000000    0.000000    0.000000    0.000000  -98.321433   38.790806   -5.266121  -16.074739
  0.046653307    0.000000    0.000000    0.000000    0.000000  -98.565784   37.010777   -5.306266  -17.923054
  0.046853707    0.000000    0.000000    0.000000    0.000000  -97.656269   29.014275   -5.348398  -19.759766
  0.047054108    0.000000    0.000000    0.000000    0.000000  -97.920687   31.321465   -5.386568  -21.620333
  0.047254509    0.000000    0.000000    0.000000    0.000000  -99.467466   31.666529   -5.426043  -23.454870
  0.047454910    0.000000    0.000000    0.000000    0.000000  -97.457390   28.985857   -5.462193  -25.266804
  0.047655311    0.000000    0.000000    0.000000    0.000000 -100.227101   27.891224   -5.499092  -27.095152
  0.047855711    0.000000    0.000000    0.000000    0.000000  -98.363157   28.037243   -5.535306  -28.887705
  0.048056112    0.000000    0.000000    0.000000    0.000000  -97.922024   20.093548   -5.572165  -30.670422
  0.048256513    0.000000    0.000000    0.000000    0.000000  -99.324869   33.428768   -5.609289  -32.445660
  0.048456914    0.000000    0.000000    0.000000    0.000000  -98.943808   20.436829   -5.643637  -34.227692
  0.048657315    0.000000    0.000000    0.000000    0.000000  -99.229335   27.690248   -5.676074  -35.979156
  0.048857715    0.000000    0.000000    0.000000    0.000000  -99.401306   32.874054   -5.708454  -37.740021
  0.049058116    0.000000    0.000000    0.000000    0.000000 -100.776974   29.669914   -5.737461  -39.490768
  0.049258517    0.000000    0.000000    0.000000    0.000000  -99.367586   34.754791   -5.764819  -41.204514
  0.049458918    0.000000    0.000000    0.000000    0.000000 -101.156855   33.783783   -5.794574  -42.945042
  0.049659319    0.000000    0.000000    0.000000    0.000000  -99.570897   28.853775   -5.826139  -44.654930
  0.049859719    0.000000    0.000000    0.000000    0.000000 -100.617856   34.405811   -5.854142  -46.344944
  0.050060120    0.000000    0.000000    0.000000    0.000000  -99.002789   34.416664   -5.880982  -48.007526
  0.050260521    0.000000    0.000000    0.000000    0.000000  -99.919710   35.669926   -5.902486  -49.689850
  0.050460922    0.000000    0.000000    0.000000    0.000000  -99.111271   29.235563   -5.928739  -51.361881
  0.050661323    0.000000    0.000000    0.000000    0.000000  -99.119155   30.475929   -5.949930  -53.009075
  0.050861723    0.000000    0.000000    0.000000    0.000000  -98.835374   30.048058   -5.969533  -54.630669
  0.051062124    0.000000    0.000000    0.000000    0.000000  -98.996476   40.393597   -5.995309  -56.262936
  0.051262525    0.000000    0.000000    0.000000    0.000000  -98.484874   35.475254   -6.016000  -57.880531
  0.051462926    0.000000    0.000000    0.000000    0.000000  -99.678460   22.039494   -6.037638  -59.449734
  0.051663327    0.000000    0.000000    0.000000    0.000000  -98.459849   28.666027   -6.057373  -61.046005
  0.051863727    0.000000    0.000000    0.000000    0.000000  -99.286096   34.621658   -6.078465  -62.612740
  0.052064128    0.000000    0.000000    0.000000    0.000000  -98.573630   35.820385   -6.092251  -64.169426
  0.052264529    0.000000    0.000000    0.000000    0.000000  -98.801644   22.846342   -6.109315  -65.735222
  0.052464930    0.000000    0.000000    0.000000    0.000000  -99.163066   24.479204   -6.126231  -67.260223
  0.052665331    0.000000    0.000000    0.000000    0.000000 -100.301965   36.883732   -6.140426  -68.791283
  0.052865731    0.000000    0.000000    0.000000    0.000000  -98.226678   33.695652   -6.157681  -70.315392
  0.053066132    0.000000    0.000000    0.000000    0.000000  -97.715007   33.193661   -6.172101  -71.836594
  0.053266533    0.000000    0.000000    0.000000    0.000000  -98.970973   22.566387   -6.188977  -73.324860
  0.053466934    0.000000    0.000000    0.000000    0.000000  -99.802515   31.422634   -6.205911  -74.818726
