! Anritsu VNA Master:                     Model: MS2036C/10/77
! SN:                                  1601066
! /bd0/18may10/252.ns.m10.s2p
! Existing Calibration Information:
! TYPE:                         Current Settings,       Active Cal Settings
! TIME:             	   05/10/2018 05:59:16 PM,    05/10/2018 05:49:06 PM
! INTERNAL TEMP:    	                   59.8 C,                    59.5 C
! # POINTS:         	                      490,                       490
! START FREQ:       	               20.000 MHz,                20.000 MHz
! STOP FREQ:        	          117.995 991 MHz,           117.995 991 MHz
! SOURCE POWER:     	                     High,                      High
! IFBW:             	                    50 Hz,                     50 Hz
! AVG FACTOR:       	                       1 ,                        1 
! REF PLANE 1:      	                     0 mm,                      0 mm
! REF PLANE 2:      	                     0 mm,                      0 mm
! CAL TYPE:         	                 Full S22,                  Full S22
! CAL METHOD:       	                     SOLT,                      SOLT
! CAL LINE TYPE:    	                     Coax,                      Coax
! DUT PORT 1:       	                K-Conn(M),                 K-Conn(M)
! DUT PORT 2:       	                K-Conn(M),                 K-Conn(M)
! CAL STATUS:       	        OK: Accuracy High,                        --
# GHZ S DB R 50.0
! FREQ.GHZ       S11DB        S11A       S21DB        S21A       S12DB        S12A       S22DB        S22A
  0.020000000    0.000000    0.000000    0.000000    0.000000  -89.395808   33.893505   -0.636812 -125.397476
  0.020200401    0.000000    0.000000    0.000000    0.000000  -90.008491   28.965487   -0.639843 -126.842079
  0.020400802    0.000000    0.000000    0.000000    0.000000  -89.784488   32.056492   -0.641738 -128.295624
  0.020601202    0.000000    0.000000    0.000000    0.000000  -90.720604   29.980289   -0.646469 -129.763550
  0.020801603    0.000000    0.000000    0.000000    0.000000  -91.205434   35.622345   -0.650461 -131.266693
  0.021002004    0.000000    0.000000    0.000000    0.000000  -91.408066   32.128925   -0.653241 -132.774185
  0.021202405    0.000000    0.000000    0.000000    0.000000  -91.484566   34.994926   -0.656524 -134.296005
  0.021402806    0.000000    0.000000    0.000000    0.000000  -91.819748   37.236481   -0.658972 -135.792496
  0.021603206    0.000000    0.000000    0.000000    0.000000  -91.865882   39.107613   -0.662054 -137.307236
  0.021803607    0.000000    0.000000    0.000000    0.000000  -92.141797   34.725361   -0.665991 -138.811111
  0.022004008    0.000000    0.000000    0.000000    0.000000  -91.993715   40.833542   -0.673501 -140.319595
  0.022204409    0.000000    0.000000    0.000000    0.000000  -91.839075   42.060276   -0.678246 -141.861832
  0.022404810    0.000000    0.000000    0.000000    0.000000  -91.482762   43.191151   -0.685764 -143.392990
  0.022605210    0.000000    0.000000    0.000000    0.000000  -92.051836   42.332203   -0.685868 -144.982727
  0.022805611    0.000000    0.000000    0.000000    0.000000  -91.454960   41.406654   -0.688027 -146.552017
  0.023006012    0.000000    0.000000    0.000000    0.000000  -91.739615   42.747627   -0.693270 -148.115128
  0.023206413    0.000000    0.000000    0.000000    0.000000  -91.817425   39.461914   -0.699061 -149.665909
  0.023406814    0.000000    0.000000    0.000000    0.000000  -91.520550   36.513699   -0.704038 -151.222870
  0.023607214    0.000000    0.000000    0.000000    0.000000  -91.384641   42.326077   -0.710832 -152.805511
  0.023807615    0.000000    0.000000    0.000000    0.000000  -91.044226   42.480839   -0.718965 -154.396790
  0.024008016    0.000000    0.000000    0.000000    0.000000  -91.559874   36.500332   -0.726326 -156.012817
  0.024208417    0.000000    0.000000    0.000000    0.000000  -91.253623   37.558361   -0.732850 -157.654709
  0.024408818    0.000000    0.000000    0.000000    0.000000  -91.128488   35.594303   -0.737914 -159.287613
  0.024609218    0.000000    0.000000    0.000000    0.000000  -91.241438   31.961006   -0.744388 -160.918304
  0.024809619    0.000000    0.000000    0.000000    0.000000  -91.292338   33.287064   -0.752460 -162.574158
  0.025010020    0.000000    0.000000    0.000000    0.000000  -92.083461   32.822815   -0.761456 -164.225739
  0.025210421    0.000000    0.000000    0.000000    0.000000  -92.006015   29.445314   -0.771788 -165.888855
  0.025410822    0.000000    0.000000    0.000000    0.000000  -91.880904   28.686396   -0.781431 -167.563278
  0.025611222    0.000000    0.000000    0.000000    0.000000  -92.620027   26.141394   -0.793176 -169.247101
  0.025811623    0.000000    0.000000    0.000000    0.000000  -92.748123   26.613304   -0.803836 -170.939667
  0.026012024    0.000000    0.000000    0.000000    0.000000  -92.983913   27.128740   -0.814544 -172.652130
  0.026212425    0.000000    0.000000    0.000000    0.000000  -92.852612   22.631424   -0.824384 -174.376343
  0.026412826    0.000000    0.000000    0.000000    0.000000  -94.264282   22.653364   -0.838669 -176.093414
  0.026613226    0.000000    0.000000    0.000000    0.000000  -93.185489   26.260317   -0.852440 -177.832993
  0.026813627    0.000000    0.000000    0.000000    0.000000  -93.639526   25.734871   -0.868278 -179.575806
  0.027014028    0.000000    0.000000    0.000000    0.000000  -94.119975   26.074266   -0.882551  178.665253
  0.027214429    0.000000    0.000000    0.000000    0.000000  -94.580225   27.831657   -0.901147  176.912918
  0.027414830    0.000000    0.000000    0.000000    0.000000  -94.912696   26.479977   -0.918591  175.143723
  0.027615230    0.000000    0.000000    0.000000    0.000000  -94.740691   31.115480   -0.934270  173.366470
  0.027815631    0.000000    0.000000    0.000000    0.000000  -94.628851   29.933069   -0.954707  171.576614
  0.028016032    0.000000    0.000000    0.000000    0.000000  -93.961161   28.766609   -0.973129  169.764572
  0.028216433    0.000000    0.000000    0.000000    0.000000  -94.088702   29.243517   -0.995550  167.951340
  0.028416834    0.000000    0.000000    0.000000    0.000000  -94.465243   29.601858   -1.017960  166.130081
  0.028617234    0.000000    0.000000    0.000000    0.000000  -94.533763   32.309124   -1.039738  164.299393
  0.028817635    0.000000    0.000000    0.000000    0.000000  -94.376985   29.583242   -1.062326  162.466064
  0.029018036    0.000000    0.000000    0.000000    0.000000  -94.516040   32.847301   -1.087267  160.634949
  0.029218437    0.000000    0.000000    0.000000    0.000000  -94.475282   35.299889   -1.115250  158.788132
  0.029418838    0.000000    0.000000    0.000000    0.000000  -94.341614   32.999016   -1.142413  156.916794
  0.029619238    0.000000    0.000000    0.000000    0.000000  -94.658656   30.442600   -1.169897  155.046646
  0.029819639    0.000000    0.000000    0.000000    0.000000  -95.111649   31.893032   -1.198627  153.158951
  0.030020040    0.000000    0.000000    0.000000    0.000000  -94.363595   34.346165   -1.227831  151.273148
  0.030220441    0.000000    0.000000    0.000000    0.000000  -94.065038   28.583565   -1.257434  149.390350
  0.030420842    0.000000    0.000000    0.000000    0.000000  -94.517838   25.391880   -1.287749  147.507217
  0.030621242    0.000000    0.000000    0.000000    0.000000  -94.500835   21.203545   -1.320803  145.633423
  0.030821643    0.000000    0.000000    0.000000    0.000000  -93.827462   23.582872   -1.354632  143.750641
  0.031022044    0.000000    0.000000    0.000000    0.000000  -94.516827   23.130085   -1.387202  141.841217
  0.031222445    0.000000    0.000000    0.000000    0.000000  -94.875088   22.587265   -1.416873  139.954041
  0.031422846    0.000000    0.000000    0.000000    0.000000  -95.042183   23.093809   -1.450691  138.043198
  0.031623246    0.000000    0.000000    0.000000    0.000000  -94.392875   18.567696   -1.487347  136.106171
  0.031823647    0.000000    0.000000    0.000000    0.000000  -94.759932   19.735865   -1.518874  134.162979
  0.032024048    0.000000    0.000000    0.000000    0.000000  -96.715451   22.399738   -1.554006  132.242920
  0.032224449    0.000000    0.000000    0.000000    0.000000  -95.379190   19.124947   -1.589372  130.301437
  0.032424850    0.000000    0.000000    0.000000    0.000000  -95.609659   13.020651   -1.624515  128.347656
  0.032625250    0.000000    0.000000    0.000000    0.000000  -96.289757   17.437380   -1.659107  126.380974
  0.032825651    0.000000    0.000000    0.000000    0.000000  -95.945077   18.350624   -1.694350  124.388168
  0.033026052    0.000000    0.000000    0.000000    0.000000  -95.583756   20.842508   -1.727037  122.379616
  0.033226453    0.000000    0.000000    0.000000    0.000000  -96.691322   19.826508   -1.767288  120.383179
  0.033426854    0.000000    0.000000    0.000000    0.000000  -96.477471   25.544106   -1.800969  118.377823
  0.033627254    0.000000    0.000000    0.000000    0.000000  -96.895097   23.197817   -1.838133  116.371872
  0.033827655    0.000000    0.000000    0.000000    0.000000  -96.829986   26.001400   -1.878638  114.366920
  0.034028056    0.000000    0.000000    0.000000    0.000000  -95.470431   27.012444   -1.918879  112.326729
  0.034228457    0.000000    0.000000    0.000000    0.000000  -96.589288   23.089602   -1.959017  110.305809
  0.034428858    0.000000    0.000000    0.000000    0.000000  -96.060173   25.052883   -2.004324  108.235786
  0.034629258    0.000000    0.000000    0.000000    0.000000  -95.795431   23.645678   -2.044703  106.173134
  0.034829659    0.000000    0.000000    0.000000    0.000000  -96.498242   24.797628   -2.090465  104.089989
  0.035030060    0.000000    0.000000    0.000000    0.000000  -97.053767   31.229778   -2.135939  102.015457
  0.035230461    0.000000    0.000000    0.000000    0.000000  -95.597193   32.929375   -2.183813   99.946495
  0.035430862    0.000000    0.000000    0.000000    0.000000  -95.999908   16.523273   -2.234185   97.852959
  0.035631262    0.000000    0.000000    0.000000    0.000000  -96.252686   18.384388   -2.282893   95.776543
  0.035831663    0.000000    0.000000    0.000000    0.000000  -96.239305   23.024364   -2.331581   93.673027
  0.036032064    0.000000    0.000000    0.000000    0.000000  -95.393154   27.574253   -2.384273   91.580948
  0.036232465    0.000000    0.000000    0.000000    0.000000  -95.898075   19.566309   -2.433711   89.471649
  0.036432866    0.000000    0.000000    0.000000    0.000000  -96.621801   17.135300   -2.485086   87.360519
  0.036633266    0.000000    0.000000    0.000000    0.000000  -96.105722   22.920465   -2.537433   85.241753
  0.036833667    0.000000    0.000000    0.000000    0.000000  -95.647771   24.449472   -2.589591   83.138885
  0.037034068    0.000000    0.000000    0.000000    0.000000  -96.552203   23.146402   -2.643040   81.009773
  0.037234469    0.000000    0.000000    0.000000    0.000000  -97.000078   23.888618   -2.697620   78.880363
  0.037434870    0.000000    0.000000    0.000000    0.000000  -96.426271   25.275272   -2.753501   76.771599
  0.037635270    0.000000    0.000000    0.000000    0.000000  -97.561722   19.839617   -2.809420   74.652458
  0.037835671    0.000000    0.000000    0.000000    0.000000  -97.157526   24.029976   -2.870010   72.508133
  0.038036072    0.000000    0.000000    0.000000    0.000000  -96.899208   19.447987   -2.935760   70.395340
  0.038236473    0.000000    0.000000    0.000000    0.000000  -98.681942   17.217600   -3.001212   68.321968
  0.038436874    0.000000    0.000000    0.000000    0.000000  -97.302170   23.896263   -3.058565   66.240189
  0.038637274    0.000000    0.000000    0.000000    0.000000  -97.711585   15.867651   -3.111802   64.148941
  0.038837675    0.000000    0.000000    0.000000    0.000000  -97.050925   17.607660   -3.166386   62.038334
  0.039038076    0.000000    0.000000    0.000000    0.000000  -99.759450   22.518238   -3.220347   59.938744
  0.039238477    0.000000    0.000000    0.000000    0.000000  -99.641416   28.823942   -3.275851   57.852310
  0.039438878    0.000000    0.000000    0.000000    0.000000  -97.523834   28.834105   -3.333517   55.763577
  0.039639278    0.000000    0.000000    0.000000    0.000000  -98.013645   27.903761   -3.388402   53.672356
  0.039839679    0.000000    0.000000    0.000000    0.000000  -97.749171   20.312265   -3.446326   51.557983
  0.040040080    0.000000    0.000000    0.000000    0.000000  -97.727978   25.841763   -3.502518   49.459034
  0.040240481    0.000000    0.000000    0.000000    0.000000  -98.245325   27.441362   -3.557596   47.362709
  0.040440882    0.000000    0.000000    0.000000    0.000000  -97.764092   30.032629   -3.615956   45.275345
  0.040641283    0.000000    0.000000    0.000000    0.000000  -97.667744   29.339352   -3.672491   43.206253
  0.040841683    0.000000    0.000000    0.000000    0.000000  -98.738298   22.556608   -3.729485   41.129227
  0.041042084    0.000000    0.000000    0.000000    0.000000  -97.843069   33.525055   -3.786552   39.074150
  0.041242485    0.000000    0.000000    0.000000    0.000000  -97.562141   19.554579   -3.844240   37.002190
  0.041442886    0.000000    0.000000    0.000000    0.000000  -97.423592   26.277561   -3.901082   34.936199
  0.041643287    0.000000    0.000000    0.000000    0.000000  -97.609090   24.012598   -3.959396   32.855145
  0.041843687    0.000000    0.000000    0.000000    0.000000  -98.069673   35.415569   -4.014806   30.747917
  0.042044088    0.000000    0.000000    0.000000    0.000000  -96.699531   20.604326   -4.070121   28.697884
  0.042244489    0.000000    0.000000    0.000000    0.000000  -98.212246   26.727859   -4.125688   26.625948
  0.042444890    0.000000    0.000000    0.000000    0.000000  -98.061678   20.870674   -4.180172   24.583660
  0.042645291    0.000000    0.000000    0.000000    0.000000  -98.164923   27.546934   -4.236991   22.542540
  0.042845691    0.000000    0.000000    0.000000    0.000000  -99.176748   29.302355   -4.289704   20.487522
  0.043046092    0.000000    0.000000    0.000000    0.000000  -98.649996   23.202726   -4.343259   18.457264
  0.043246493    0.000000    0.000000    0.000000    0.000000  -98.305299   24.329756   -4.398317   16.401634
  0.043446894    0.000000    0.000000    0.000000    0.000000  -97.194496   23.891991   -4.447930   14.387081
  0.043647295    0.000000    0.000000    0.000000    0.000000  -98.434240   26.107498   -4.497170   12.362453
  0.043847695    0.000000    0.000000    0.000000    0.000000  -98.898001   21.387781   -4.547280   10.353228
  0.044048096    0.000000    0.000000    0.000000    0.000000  -98.355776   26.692745   -4.598538    8.367839
  0.044248497    0.000000    0.000000    0.000000    0.000000  -98.511489   29.865780   -4.646459    6.380054
  0.044448898    0.000000    0.000000    0.000000    0.000000  -99.014970   25.302448   -4.695785    4.412001
  0.044649299    0.000000    0.000000    0.000000    0.000000  -99.558396   29.726469   -4.741922    2.452329
  0.044849699    0.000000    0.000000    0.000000    0.000000  -98.608824   27.689564   -4.785679    0.494605
  0.045050100    0.000000    0.000000    0.000000    0.000000 -100.209962   35.927464   -4.830941   -1.450551
  0.045250501    0.000000    0.000000    0.000000    0.000000  -99.263531   35.273636   -4.875576   -3.390894
  0.045450902    0.000000    0.000000    0.000000    0.000000  -98.631876   30.907179   -4.916808   -5.309720
  0.045651303    0.000000    0.000000    0.000000    0.000000  -97.876482   29.495970   -4.959092   -7.232998
  0.045851703    0.000000    0.000000    0.000000    0.000000  -98.870405   24.247770   -4.999375   -9.119654
  0.046052104    0.000000    0.000000    0.000000    0.000000  -97.741817   28.798079   -5.040294  -11.001964
  0.046252505    0.000000    0.000000    0.000000    0.000000  -99.812341   37.486580   -5.081575  -12.870749
  0.046452906    0.000000    0.000000    0.000000    0.000000  -98.551158   31.246063   -5.121373  -14.722705
  0.046653307    0.000000    0.000000    0.000000    0.000000  -99.073550   21.736668   -5.158574  -16.580404
  0.046853707    0.000000    0.000000    0.000000    0.000000  -97.993750   36.485035   -5.194687  -18.450500
  0.047054108    0.000000    0.000000    0.000000    0.000000  -98.844653   25.909706   -5.230329  -20.306273
  0.047254509    0.000000    0.000000    0.000000    0.000000  -98.782093   22.790348   -5.262673  -22.166529
  0.047454910    0.000000    0.000000    0.000000    0.000000  -98.761322   26.604242   -5.294836  -23.998707
  0.047655311    0.000000    0.000000    0.000000    0.000000  -98.698897   33.328701   -5.325950  -25.840414
  0.047855711    0.000000    0.000000    0.000000    0.000000  -99.286422   35.638573   -5.358142  -27.643185
  0.048056112    0.000000    0.000000    0.000000    0.000000  -98.778109   31.195667   -5.389941  -29.443750
  0.048256513    0.000000    0.000000    0.000000    0.000000 -100.300998   31.667517   -5.422723  -31.236879
  0.048456914    0.000000    0.000000    0.000000    0.000000  -99.224358   28.452126   -5.453364  -33.031361
  0.048657315    0.000000    0.000000    0.000000    0.000000  -99.202893   27.350203   -5.479662  -34.805344
  0.048857715    0.000000    0.000000    0.000000    0.000000  -98.651678   24.104158   -5.506554  -36.610657
  0.049058116    0.000000    0.000000    0.000000    0.000000  -99.214145   28.773012   -5.529849  -38.401463
  0.049258517    0.000000    0.000000    0.000000    0.000000  -99.709548   27.664148   -5.552999  -40.154526
  0.049458918    0.000000    0.000000    0.000000    0.000000  -99.330010   28.789787   -5.574672  -41.915798
  0.049659319    0.000000    0.000000    0.000000    0.000000 -100.513740   30.691038   -5.602286  -43.644920
  0.049859719    0.000000    0.000000    0.000000    0.000000  -99.285853   30.877153   -5.624257  -45.352390
  0.050060120    0.000000    0.000000    0.000000    0.000000  -99.634000   30.238543   -5.645446  -47.074089
  0.050260521    0.000000    0.000000    0.000000    0.000000  -99.422637   37.489140   -5.665916  -48.787533
  0.050460922    0.000000    0.000000    0.000000    0.000000  -99.919712   40.242104   -5.685598  -50.480564
  0.050661323    0.000000    0.000000    0.000000    0.000000  -98.134093   34.101330   -5.701265  -52.186710
  0.050861723    0.000000    0.000000    0.000000    0.000000 -101.097944   41.759827   -5.717840  -53.859436
  0.051062124    0.000000    0.000000    0.000000    0.000000  -98.373536   38.349480   -5.735456  -55.519581
  0.051262525    0.000000    0.000000    0.000000    0.000000  -99.387029   37.250637   -5.755270  -57.161465
  0.051462926    0.000000    0.000000    0.000000    0.000000  -98.426550   44.331459   -5.771125  -58.788380
  0.051663327    0.000000    0.000000    0.000000    0.000000 -100.019278   28.621157   -5.792719  -60.400150
  0.051863727    0.000000    0.000000    0.000000    0.000000  -98.635221   22.788862   -5.804990  -62.030575
  0.052064128    0.000000    0.000000    0.000000    0.000000  -98.108322   34.749382   -5.821604  -63.622974
  0.052264529    0.000000    0.000000    0.000000    0.000000 -100.326688   34.508976   -5.829019  -65.226700
  0.052464930    0.000000    0.000000    0.000000    0.000000  -97.214584   25.303659   -5.841801  -66.811432
  0.052665331    0.000000    0.000000    0.000000    0.000000  -98.474959   23.350624   -5.857289  -68.401299
  0.052865731    0.000000    0.000000    0.000000    0.000000  -99.294868   32.304802   -5.870023  -69.951157
