! Anritsu VNA Master:                     Model: MS2036C/10/77
! SN:                                  1601066
! /bd0/18may10/252.ns.m3.s2p
! Existing Calibration Information:
! TYPE:                         Current Settings,       Active Cal Settings
! TIME:             	   05/10/2018 05:38:38 PM,    05/10/2018 05:30:44 PM
! INTERNAL TEMP:    	                   58.8 C,                    57.8 C
! # POINTS:         	                      490,                       490
! START FREQ:       	               20.000 MHz,                20.000 MHz
! STOP FREQ:        	          117.995 991 MHz,           117.995 991 MHz
! SOURCE POWER:     	                     High,                      High
! IFBW:             	                    50 Hz,                     50 Hz
! AVG FACTOR:       	                       1 ,                        1 
! REF PLANE 1:      	                     0 mm,                      0 mm
! REF PLANE 2:      	                     0 mm,                      0 mm
! CAL TYPE:         	                 Full S22,                  Full S22
! CAL METHOD:       	                     SOLT,                      SOLT
! CAL LINE TYPE:    	                     Coax,                      Coax
! DUT PORT 1:       	                K-Conn(M),                 K-Conn(M)
! DUT PORT 2:       	                K-Conn(M),                 K-Conn(M)
! CAL STATUS:       	        OK: Accuracy High,                        --
# GHZ S DB R 50.0
! FREQ.GHZ       S11DB        S11A       S21DB        S21A       S12DB        S12A       S22DB        S22A
  0.020000000    0.000000    0.000000    0.000000    0.000000  -89.244391   35.851116   -0.639716 -125.356331
  0.020200401    0.000000    0.000000    0.000000    0.000000  -89.831238   33.153103   -0.644359 -126.810738
  0.020400802    0.000000    0.000000    0.000000    0.000000  -89.973722   32.891552   -0.647637 -128.261551
  0.020601202    0.000000    0.000000    0.000000    0.000000  -90.173590   34.186073   -0.650592 -129.733276
  0.020801603    0.000000    0.000000    0.000000    0.000000  -90.894449   32.576229   -0.654439 -131.236313
  0.021002004    0.000000    0.000000    0.000000    0.000000  -90.964905   30.967609   -0.656228 -132.741318
  0.021202405    0.000000    0.000000    0.000000    0.000000  -90.980282   34.739628   -0.659836 -134.250671
  0.021402806    0.000000    0.000000    0.000000    0.000000  -91.495459   35.350006   -0.663447 -135.749863
  0.021603206    0.000000    0.000000    0.000000    0.000000  -92.106869   37.500561   -0.666375 -137.261047
  0.021803607    0.000000    0.000000    0.000000    0.000000  -91.891081   36.816422   -0.670489 -138.746277
  0.022004008    0.000000    0.000000    0.000000    0.000000  -91.878779   42.697536   -0.676988 -140.269745
  0.022204409    0.000000    0.000000    0.000000    0.000000  -91.730205   43.186264   -0.682883 -141.786148
  0.022404810    0.000000    0.000000    0.000000    0.000000  -91.552797   40.210266   -0.690664 -143.332321
  0.022605210    0.000000    0.000000    0.000000    0.000000  -91.491438   42.796791   -0.690254 -144.910461
  0.022805611    0.000000    0.000000    0.000000    0.000000  -91.849818   41.216103   -0.693464 -146.480621
  0.023006012    0.000000    0.000000    0.000000    0.000000  -91.736049   42.815723   -0.698263 -148.030319
  0.023206413    0.000000    0.000000    0.000000    0.000000  -91.774678   40.311089   -0.703567 -149.594131
  0.023406814    0.000000    0.000000    0.000000    0.000000  -91.058950   44.299786   -0.709407 -151.147995
  0.023607214    0.000000    0.000000    0.000000    0.000000  -91.246304   40.699474   -0.717478 -152.713196
  0.023807615    0.000000    0.000000    0.000000    0.000000  -91.376546   40.095039   -0.722942 -154.311752
  0.024008016    0.000000    0.000000    0.000000    0.000000  -91.712423   40.239754   -0.730826 -155.909592
  0.024208417    0.000000    0.000000    0.000000    0.000000  -91.032086   35.998344   -0.738580 -157.548080
  0.024408818    0.000000    0.000000    0.000000    0.000000  -91.156035   36.785782   -0.743593 -159.186676
  0.024609218    0.000000    0.000000    0.000000    0.000000  -91.841337   32.816154   -0.750819 -160.819382
  0.024809619    0.000000    0.000000    0.000000    0.000000  -91.984543   34.495518   -0.757095 -162.466507
  0.025010020    0.000000    0.000000    0.000000    0.000000  -91.584118   30.311546   -0.766880 -164.126434
  0.025210421    0.000000    0.000000    0.000000    0.000000  -92.081168   28.335329   -0.776736 -165.787003
  0.025410822    0.000000    0.000000    0.000000    0.000000  -92.023943   30.257427   -0.787873 -167.459900
  0.025611222    0.000000    0.000000    0.000000    0.000000  -92.438461   23.959314   -0.798207 -169.146988
  0.025811623    0.000000    0.000000    0.000000    0.000000  -92.430622   26.026718   -0.808563 -170.851700
  0.026012024    0.000000    0.000000    0.000000    0.000000  -92.699527   24.806673   -0.820899 -172.556931
  0.026212425    0.000000    0.000000    0.000000    0.000000  -93.091570   26.431385   -0.829820 -174.279587
  0.026412826    0.000000    0.000000    0.000000    0.000000  -93.193739   26.262344   -0.842827 -176.014130
  0.026613226    0.000000    0.000000    0.000000    0.000000  -93.826345   24.871071   -0.858421 -177.748474
  0.026813627    0.000000    0.000000    0.000000    0.000000  -94.589668   24.278500   -0.873328 -179.496765
  0.027014028    0.000000    0.000000    0.000000    0.000000  -93.860835   24.685743   -0.889322  178.745972
  0.027214429    0.000000    0.000000    0.000000    0.000000  -94.534426   26.608891   -0.906815  176.984894
  0.027414830    0.000000    0.000000    0.000000    0.000000  -94.742059   28.849873   -0.923041  175.224365
  0.027615230    0.000000    0.000000    0.000000    0.000000  -94.728596   26.195709   -0.941316  173.432739
  0.027815631    0.000000    0.000000    0.000000    0.000000  -94.837504   29.008408   -0.960139  171.643753
  0.028016032    0.000000    0.000000    0.000000    0.000000  -94.187903   34.704506   -0.979497  169.836548
  0.028216433    0.000000    0.000000    0.000000    0.000000  -94.968239   32.631794   -1.000348  168.022278
  0.028416834    0.000000    0.000000    0.000000    0.000000  -94.818588   37.047733   -1.022255  166.203918
  0.028617234    0.000000    0.000000    0.000000    0.000000  -95.063096   33.910519   -1.043742  164.373978
  0.028817635    0.000000    0.000000    0.000000    0.000000  -94.089649   32.945381   -1.067166  162.542786
  0.029018036    0.000000    0.000000    0.000000    0.000000  -94.018627   27.660227   -1.092585  160.709641
  0.029218437    0.000000    0.000000    0.000000    0.000000  -94.772652   34.552185   -1.118679  158.860413
  0.029418838    0.000000    0.000000    0.000000    0.000000  -93.748149   29.179371   -1.145731  156.989456
  0.029619238    0.000000    0.000000    0.000000    0.000000  -95.372446   26.324255   -1.174469  155.112946
  0.029819639    0.000000    0.000000    0.000000    0.000000  -94.145925   30.239779   -1.203178  153.231644
  0.030020040    0.000000    0.000000    0.000000    0.000000  -94.734796   27.612597   -1.233158  151.342865
  0.030220441    0.000000    0.000000    0.000000    0.000000  -94.631240   29.702526   -1.262413  149.460663
  0.030420842    0.000000    0.000000    0.000000    0.000000  -94.282460   26.334318   -1.292486  147.578644
  0.030621242    0.000000    0.000000    0.000000    0.000000  -94.742980   25.118996   -1.325705  145.700836
  0.030821643    0.000000    0.000000    0.000000    0.000000  -94.685490   24.302299   -1.358801  143.813034
  0.031022044    0.000000    0.000000    0.000000    0.000000  -93.454177   25.206800   -1.393806  141.911652
  0.031222445    0.000000    0.000000    0.000000    0.000000  -94.545736   24.578484   -1.423461  140.007690
  0.031422846    0.000000    0.000000    0.000000    0.000000  -93.864121   16.391151   -1.457735  138.082153
  0.031623246    0.000000    0.000000    0.000000    0.000000  -94.308120   24.691860   -1.494322  136.132248
  0.031823647    0.000000    0.000000    0.000000    0.000000  -95.542747   19.511421   -1.525688  134.207336
  0.032024048    0.000000    0.000000    0.000000    0.000000  -94.718071   20.186565   -1.559109  132.264786
  0.032224449    0.000000    0.000000    0.000000    0.000000  -95.034872   18.526249   -1.596204  130.333542
  0.032424850    0.000000    0.000000    0.000000    0.000000  -95.420174   18.998522   -1.631908  128.367554
  0.032625250    0.000000    0.000000    0.000000    0.000000  -95.601748   11.816661   -1.665579  126.383377
  0.032825651    0.000000    0.000000    0.000000    0.000000  -96.120954   19.476473   -1.701394  124.401062
  0.033026052    0.000000    0.000000    0.000000    0.000000  -95.798809   17.537539   -1.735057  122.395447
  0.033226453    0.000000    0.000000    0.000000    0.000000  -96.924527   21.612640   -1.772441  120.372398
  0.033426854    0.000000    0.000000    0.000000    0.000000  -96.739157   17.857838   -1.805476  118.375610
  0.033627254    0.000000    0.000000    0.000000    0.000000  -95.758853   27.865118   -1.846355  116.372040
  0.033827655    0.000000    0.000000    0.000000    0.000000  -96.558498   22.350723   -1.885824  114.356438
  0.034028056    0.000000    0.000000    0.000000    0.000000  -96.989168   29.853825   -1.924359  112.319626
  0.034228457    0.000000    0.000000    0.000000    0.000000  -96.774206   21.273731   -1.966949  110.285263
  0.034428858    0.000000    0.000000    0.000000    0.000000  -95.841603   27.219566   -2.007790  108.232147
  0.034629258    0.000000    0.000000    0.000000    0.000000  -96.402293   24.063419   -2.052709  106.136551
  0.034829659    0.000000    0.000000    0.000000    0.000000  -96.490822   21.995119   -2.096450  104.084854
  0.035030060    0.000000    0.000000    0.000000    0.000000  -96.632158   30.323587   -2.143647  102.004700
  0.035230461    0.000000    0.000000    0.000000    0.000000  -95.899180   27.058733   -2.191221   99.928940
  0.035430862    0.000000    0.000000    0.000000    0.000000  -97.170621   22.240191   -2.239987   97.822235
  0.035631262    0.000000    0.000000    0.000000    0.000000  -96.640841   24.168243   -2.289148   95.749268
  0.035831663    0.000000    0.000000    0.000000    0.000000  -96.038894   24.707405   -2.339444   93.637199
  0.036032064    0.000000    0.000000    0.000000    0.000000  -96.036608   24.327478   -2.389705   91.525665
  0.036232465    0.000000    0.000000    0.000000    0.000000  -95.958357   19.317673   -2.439437   89.431702
  0.036432866    0.000000    0.000000    0.000000    0.000000  -95.700759   22.095411   -2.493173   87.298782
  0.036633266    0.000000    0.000000    0.000000    0.000000  -95.853897   17.576653   -2.544106   85.192413
  0.036833667    0.000000    0.000000    0.000000    0.000000  -95.988477   21.147535   -2.599238   83.068092
  0.037034068    0.000000    0.000000    0.000000    0.000000  -95.696223   23.865328   -2.653497   80.944130
  0.037234469    0.000000    0.000000    0.000000    0.000000  -96.872737   23.457973   -2.708964   78.823204
  0.037434870    0.000000    0.000000    0.000000    0.000000  -97.726299   30.524490   -2.761345   76.690666
  0.037635270    0.000000    0.000000    0.000000    0.000000  -96.712236   22.525005   -2.821110   74.555870
  0.037835671    0.000000    0.000000    0.000000    0.000000  -97.757466   20.143286   -2.881982   72.403511
  0.038036072    0.000000    0.000000    0.000000    0.000000  -96.751240   22.513367   -2.946227   70.259682
  0.038236473    0.000000    0.000000    0.000000    0.000000  -97.262631   23.635956   -3.012291   68.203888
  0.038436874    0.000000    0.000000    0.000000    0.000000  -99.374513   29.738882   -3.068290   66.109375
  0.038637274    0.000000    0.000000    0.000000    0.000000  -97.977213   29.561821   -3.123348   63.997711
  0.038837675    0.000000    0.000000    0.000000    0.000000  -97.744709   23.637768   -3.177706   61.884552
  0.039038076    0.000000    0.000000    0.000000    0.000000  -97.828535   16.160027   -3.230887   59.772823
  0.039238477    0.000000    0.000000    0.000000    0.000000  -97.641081   31.829020   -3.285492   57.677807
  0.039438878    0.000000    0.000000    0.000000    0.000000  -98.452479   22.342468   -3.339831   55.579159
  0.039639278    0.000000    0.000000    0.000000    0.000000  -97.460852   22.431551   -3.397121   53.486603
  0.039839679    0.000000    0.000000    0.000000    0.000000  -98.699841   23.753277   -3.454550   51.373661
  0.040040080    0.000000    0.000000    0.000000    0.000000  -97.867366   31.288954   -3.509104   49.253738
  0.040240481    0.000000    0.000000    0.000000    0.000000  -97.572731   26.346445   -3.563489   47.143402
  0.040440882    0.000000    0.000000    0.000000    0.000000  -97.627476   29.760910   -3.619152   45.072208
  0.040641283    0.000000    0.000000    0.000000    0.000000  -97.967676   30.985296   -3.674646   42.996765
  0.040841683    0.000000    0.000000    0.000000    0.000000  -97.484922   28.838623   -3.730823   40.929199
  0.041042084    0.000000    0.000000    0.000000    0.000000  -96.953844   29.219427   -3.787926   38.879955
  0.041242485    0.000000    0.000000    0.000000    0.000000  -97.634902   19.748209   -3.845337   36.812077
  0.041442886    0.000000    0.000000    0.000000    0.000000  -98.389716   24.216091   -3.901716   34.749317
  0.041643287    0.000000    0.000000    0.000000    0.000000  -97.421077   30.002962   -3.958261   32.682762
  0.041843687    0.000000    0.000000    0.000000    0.000000  -98.282286   26.295753   -4.012206   30.598906
  0.042044088    0.000000    0.000000    0.000000    0.000000  -97.862975   26.392391   -4.067949   28.548149
  0.042244489    0.000000    0.000000    0.000000    0.000000  -98.234799   24.635052   -4.122614   26.496967
  0.042444890    0.000000    0.000000    0.000000    0.000000  -97.955989   32.532906   -4.178628   24.448290
  0.042645291    0.000000    0.000000    0.000000    0.000000  -98.136913   25.574749   -4.233242   22.410740
  0.042845691    0.000000    0.000000    0.000000    0.000000  -97.825129   29.666807   -4.287551   20.387157
  0.043046092    0.000000    0.000000    0.000000    0.000000  -98.642238   16.027599   -4.340825   18.342726
  0.043246493    0.000000    0.000000    0.000000    0.000000  -98.430290   30.497164   -4.394729   16.313854
  0.043446894    0.000000    0.000000    0.000000    0.000000  -99.015571   25.031775   -4.445654   14.286348
  0.043647295    0.000000    0.000000    0.000000    0.000000  -99.451573   23.830238   -4.497146   12.273937
  0.043847695    0.000000    0.000000    0.000000    0.000000  -98.454566   30.677992   -4.546689   10.259530
  0.044048096    0.000000    0.000000    0.000000    0.000000  -99.301153   18.744549   -4.596465    8.270411
  0.044248497    0.000000    0.000000    0.000000    0.000000  -99.067858   20.538889   -4.645860    6.279935
  0.044448898    0.000000    0.000000    0.000000    0.000000 -100.087560   27.585104   -4.694423    4.328174
  0.044649299    0.000000    0.000000    0.000000    0.000000  -98.909884   27.383966   -4.743180    2.353540
  0.044849699    0.000000    0.000000    0.000000    0.000000  -98.678170   34.278706   -4.788254    0.393259
  0.045050100    0.000000    0.000000    0.000000    0.000000  -99.761874   37.731915   -4.831540   -1.551237
  0.045250501    0.000000    0.000000    0.000000    0.000000  -99.095562   29.101736   -4.874664   -3.497627
  0.045450902    0.000000    0.000000    0.000000    0.000000  -98.951769   35.003048   -4.916467   -5.416787
  0.045651303    0.000000    0.000000    0.000000    0.000000  -97.502482   33.188564   -4.961668   -7.351903
  0.045851703    0.000000    0.000000    0.000000    0.000000  -98.492951   27.287502   -4.999737   -9.251040
  0.046052104    0.000000    0.000000    0.000000    0.000000  -99.006231   26.972050   -5.039651  -11.126603
  0.046252505    0.000000    0.000000    0.000000    0.000000  -98.925486   30.535101   -5.078831  -12.998692
  0.046452906    0.000000    0.000000    0.000000    0.000000  -99.078333   29.044096   -5.118669  -14.869506
  0.046653307    0.000000    0.000000    0.000000    0.000000  -98.003488   39.670826   -5.155364  -16.733362
  0.046853707    0.000000    0.000000    0.000000    0.000000  -99.637640   35.006763   -5.191193  -18.596045
  0.047054108    0.000000    0.000000    0.000000    0.000000  -98.733365   27.565107   -5.223871  -20.463831
  0.047254509    0.000000    0.000000    0.000000    0.000000  -98.871245   23.520777   -5.255955  -22.317055
  0.047454910    0.000000    0.000000    0.000000    0.000000  -98.949721   23.725842   -5.285277  -24.151455
  0.047655311    0.000000    0.000000    0.000000    0.000000  -99.185396   27.222797   -5.316894  -25.993589
  0.047855711    0.000000    0.000000    0.000000    0.000000  -98.181502   28.591047   -5.346805  -27.779612
  0.048056112    0.000000    0.000000    0.000000    0.000000  -99.462781   30.261787   -5.378702  -29.569559
  0.048256513    0.000000    0.000000    0.000000    0.000000  -99.518619   34.934250   -5.406966  -31.373432
  0.048456914    0.000000    0.000000    0.000000    0.000000  -97.832635   27.116213   -5.437228  -33.150684
  0.048657315    0.000000    0.000000    0.000000    0.000000 -101.509567   16.649647   -5.463181  -34.936878
  0.048857715    0.000000    0.000000    0.000000    0.000000  -99.190738   37.216446   -5.489242  -36.708061
  0.049058116    0.000000    0.000000    0.000000    0.000000  -98.715442   35.715992   -5.510217  -38.491329
  0.049258517    0.000000    0.000000    0.000000    0.000000 -100.742799   35.504398   -5.534717  -40.228016
  0.049458918    0.000000    0.000000    0.000000    0.000000 -101.304261   37.381203   -5.559024  -41.954212
  0.049659319    0.000000    0.000000    0.000000    0.000000  -99.750700   34.551449   -5.582208  -43.685734
  0.049859719    0.000000    0.000000    0.000000    0.000000  -98.796774   33.549194   -5.604819  -45.400112
  0.050060120    0.000000    0.000000    0.000000    0.000000  -99.364252   20.110455   -5.629088  -47.090878
  0.050260521    0.000000    0.000000    0.000000    0.000000  -98.619114   29.510023   -5.646753  -48.772484
  0.050460922    0.000000    0.000000    0.000000    0.000000  -99.410568   39.705368   -5.668269  -50.488758
  0.050661323    0.000000    0.000000    0.000000    0.000000  -97.922727   38.729382   -5.683636  -52.163414
  0.050861723    0.000000    0.000000    0.000000    0.000000  -98.690303   44.505283   -5.699479  -53.824848
  0.051062124    0.000000    0.000000    0.000000    0.000000  -98.615229   23.531132   -5.718783  -55.481033
  0.051262525    0.000000    0.000000    0.000000    0.000000  -98.407272   34.639412   -5.740879  -57.109486
  0.051462926    0.000000    0.000000    0.000000    0.000000  -98.622475   44.908520   -5.758867  -58.736172
  0.051663327    0.000000    0.000000    0.000000    0.000000  -99.110057   33.816864   -5.775782  -60.354378
  0.051863727    0.000000    0.000000    0.000000    0.000000  -98.340693   32.683365   -5.791853  -61.968235
  0.052064128    0.000000    0.000000    0.000000    0.000000  -99.084989   27.045681   -5.806162  -63.577595
  0.052264529    0.000000    0.000000    0.000000    0.000000  -98.273086   32.437363   -5.817868  -65.157532
  0.052464930    0.000000    0.000000    0.000000    0.000000  -98.029579   32.991127   -5.830442  -66.756538
  0.052665331    0.000000    0.000000    0.000000    0.000000  -98.602305   40.696171   -5.845594  -68.340012
  0.052865731    0.000000    0.000000    0.000000    0.000000  -98.554425   35.304741   -5.862529  -69.905098
