! Anritsu VNA Master:                     Model: MS2036C/10/77
! SN:                                  1601066
! /bd0/18may10/252.ns.m9.s2p
! Existing Calibration Information:
! TYPE:                         Current Settings,       Active Cal Settings
! TIME:             	   05/10/2018 05:56:53 PM,    05/10/2018 05:49:06 PM
! INTERNAL TEMP:    	                   59.8 C,                    59.5 C
! # POINTS:         	                      490,                       490
! START FREQ:       	               20.000 MHz,                20.000 MHz
! STOP FREQ:        	          117.995 991 MHz,           117.995 991 MHz
! SOURCE POWER:     	                     High,                      High
! IFBW:             	                    50 Hz,                     50 Hz
! AVG FACTOR:       	                       1 ,                        1 
! REF PLANE 1:      	                     0 mm,                      0 mm
! REF PLANE 2:      	                     0 mm,                      0 mm
! CAL TYPE:         	                 Full S22,                  Full S22
! CAL METHOD:       	                     SOLT,                      SOLT
! CAL LINE TYPE:    	                     Coax,                      Coax
! DUT PORT 1:       	                K-Conn(M),                 K-Conn(M)
! DUT PORT 2:       	                K-Conn(M),                 K-Conn(M)
! CAL STATUS:       	        OK: Accuracy High,                        --
# GHZ S DB R 50.0
! FREQ.GHZ       S11DB        S11A       S21DB        S21A       S12DB        S12A       S22DB        S22A
  0.020000000    0.000000    0.000000    0.000000    0.000000  -89.628658   33.388798   -0.632711 -125.404800
  0.020200401    0.000000    0.000000    0.000000    0.000000  -89.954707   31.576893   -0.635522 -126.852158
  0.020400802    0.000000    0.000000    0.000000    0.000000  -89.876344   33.548775   -0.639513 -128.299286
  0.020601202    0.000000    0.000000    0.000000    0.000000  -90.428945   34.379543   -0.642869 -129.762665
  0.020801603    0.000000    0.000000    0.000000    0.000000  -90.936508   32.703724   -0.646983 -131.268402
  0.021002004    0.000000    0.000000    0.000000    0.000000  -91.024055   33.550190   -0.649550 -132.780762
  0.021202405    0.000000    0.000000    0.000000    0.000000  -91.548821   38.532475   -0.653469 -134.302322
  0.021402806    0.000000    0.000000    0.000000    0.000000  -91.286724   35.667694   -0.656100 -135.794373
  0.021603206    0.000000    0.000000    0.000000    0.000000  -91.864781   37.487808   -0.658721 -137.307846
  0.021803607    0.000000    0.000000    0.000000    0.000000  -92.026173   34.813534   -0.663443 -138.817352
  0.022004008    0.000000    0.000000    0.000000    0.000000  -91.911114   39.171581   -0.670464 -140.327530
  0.022204409    0.000000    0.000000    0.000000    0.000000  -92.089958   42.711952   -0.675608 -141.863831
  0.022404810    0.000000    0.000000    0.000000    0.000000  -92.270171   41.011341   -0.683201 -143.396439
  0.022605210    0.000000    0.000000    0.000000    0.000000  -91.968694   40.141384   -0.685856 -144.972321
  0.022805611    0.000000    0.000000    0.000000    0.000000  -91.696575   42.716526   -0.686107 -146.550049
  0.023006012    0.000000    0.000000    0.000000    0.000000  -91.101555   43.699215   -0.690653 -148.111115
  0.023206413    0.000000    0.000000    0.000000    0.000000  -90.968914   40.063843   -0.696094 -149.671173
  0.023406814    0.000000    0.000000    0.000000    0.000000  -90.950399   40.368126   -0.702471 -151.214371
  0.023607214    0.000000    0.000000    0.000000    0.000000  -91.284862   41.247955   -0.709712 -152.798615
  0.023807615    0.000000    0.000000    0.000000    0.000000  -91.412223   40.439926   -0.717209 -154.393646
  0.024008016    0.000000    0.000000    0.000000    0.000000  -91.374853   38.104614   -0.724554 -156.001724
  0.024208417    0.000000    0.000000    0.000000    0.000000  -91.332428   33.755974   -0.731281 -157.641510
  0.024408818    0.000000    0.000000    0.000000    0.000000  -90.699849   36.216579   -0.737323 -159.273636
  0.024609218    0.000000    0.000000    0.000000    0.000000  -91.621855   33.932823   -0.743722 -160.909790
  0.024809619    0.000000    0.000000    0.000000    0.000000  -91.706062   31.122095   -0.750912 -162.557053
  0.025010020    0.000000    0.000000    0.000000    0.000000  -91.968926   29.552111   -0.760081 -164.205612
  0.025210421    0.000000    0.000000    0.000000    0.000000  -92.360247   28.772659   -0.770843 -165.870987
  0.025410822    0.000000    0.000000    0.000000    0.000000  -92.053771   25.693893   -0.780465 -167.548645
  0.025611222    0.000000    0.000000    0.000000    0.000000  -92.302488   25.598862   -0.793060 -169.228592
  0.025811623    0.000000    0.000000    0.000000    0.000000  -93.028222   24.456074   -0.803697 -170.926315
  0.026012024    0.000000    0.000000    0.000000    0.000000  -92.906315   22.255135   -0.813728 -172.635498
  0.026212425    0.000000    0.000000    0.000000    0.000000  -93.336335   20.365253   -0.824760 -174.356598
  0.026412826    0.000000    0.000000    0.000000    0.000000  -93.363199   24.722528   -0.838169 -176.072983
  0.026613226    0.000000    0.000000    0.000000    0.000000  -94.044738   24.292723   -0.852182 -177.818176
  0.026813627    0.000000    0.000000    0.000000    0.000000  -93.869222   25.993885   -0.868284 -179.564224
  0.027014028    0.000000    0.000000    0.000000    0.000000  -94.305675   25.648094   -0.884014  178.681992
  0.027214429    0.000000    0.000000    0.000000    0.000000  -94.196179   22.860624   -0.900253  176.923981
  0.027414830    0.000000    0.000000    0.000000    0.000000  -94.551335   26.025547   -0.918263  175.155945
  0.027615230    0.000000    0.000000    0.000000    0.000000  -94.584516   33.695862   -0.935131  173.377182
  0.027815631    0.000000    0.000000    0.000000    0.000000  -94.479834   29.348995   -0.955539  171.583115
  0.028016032    0.000000    0.000000    0.000000    0.000000  -94.691647   36.506325   -0.973172  169.765045
  0.028216433    0.000000    0.000000    0.000000    0.000000  -93.703629   31.710262   -0.994929  167.960175
  0.028416834    0.000000    0.000000    0.000000    0.000000  -95.411586   29.538105   -1.017375  166.134079
  0.028617234    0.000000    0.000000    0.000000    0.000000  -94.396691   37.441185   -1.039152  164.298737
  0.028817635    0.000000    0.000000    0.000000    0.000000  -94.293367   34.010693   -1.062707  162.474228
  0.029018036    0.000000    0.000000    0.000000    0.000000  -93.907504   33.601967   -1.087920  160.637421
  0.029218437    0.000000    0.000000    0.000000    0.000000  -94.976845   33.432426   -1.114543  158.793228
  0.029418838    0.000000    0.000000    0.000000    0.000000  -94.364416   34.379616   -1.142578  156.917526
  0.029619238    0.000000    0.000000    0.000000    0.000000  -93.719339   30.897764   -1.169514  155.037338
  0.029819639    0.000000    0.000000    0.000000    0.000000  -94.612733   30.075863   -1.197613  153.162491
  0.030020040    0.000000    0.000000    0.000000    0.000000  -94.917296   27.368652   -1.228252  151.274780
  0.030220441    0.000000    0.000000    0.000000    0.000000  -94.662627   25.494818   -1.257501  149.394089
  0.030420842    0.000000    0.000000    0.000000    0.000000  -94.469176   26.927160   -1.287405  147.507233
  0.030621242    0.000000    0.000000    0.000000    0.000000  -94.336549   24.824648   -1.321171  145.636612
  0.030821643    0.000000    0.000000    0.000000    0.000000  -94.049293   26.838703   -1.354693  143.755493
  0.031022044    0.000000    0.000000    0.000000    0.000000  -94.567664   24.768213   -1.386354  141.844772
  0.031222445    0.000000    0.000000    0.000000    0.000000  -94.099555   19.875298   -1.415572  139.959763
  0.031422846    0.000000    0.000000    0.000000    0.000000  -94.051851   25.714949   -1.449567  138.049240
  0.031623246    0.000000    0.000000    0.000000    0.000000  -94.661406   18.182039   -1.485145  136.106369
  0.031823647    0.000000    0.000000    0.000000    0.000000  -94.840709   22.941753   -1.518070  134.177231
  0.032024048    0.000000    0.000000    0.000000    0.000000  -95.769982   15.690680   -1.553299  132.261917
  0.032224449    0.000000    0.000000    0.000000    0.000000  -94.888767   22.919456   -1.587985  130.316055
  0.032424850    0.000000    0.000000    0.000000    0.000000  -95.499484   11.090407   -1.623958  128.362091
  0.032625250    0.000000    0.000000    0.000000    0.000000  -95.765053   16.159929   -1.657864  126.397583
  0.032825651    0.000000    0.000000    0.000000    0.000000  -95.859893   19.484032   -1.693036  124.403168
  0.033026052    0.000000    0.000000    0.000000    0.000000  -95.614251   23.497028   -1.726597  122.396065
  0.033226453    0.000000    0.000000    0.000000    0.000000  -96.936125   20.133570   -1.765103  120.399559
  0.033426854    0.000000    0.000000    0.000000    0.000000  -96.676958   22.108065   -1.799071  118.393570
  0.033627254    0.000000    0.000000    0.000000    0.000000  -95.905992   17.569805   -1.837661  116.388504
  0.033827655    0.000000    0.000000    0.000000    0.000000  -96.351206   18.864523   -1.878173  114.386612
  0.034028056    0.000000    0.000000    0.000000    0.000000  -96.304723   20.604258   -1.917770  112.346985
  0.034228457    0.000000    0.000000    0.000000    0.000000  -96.736153   33.025387   -1.957964  110.324364
  0.034428858    0.000000    0.000000    0.000000    0.000000  -95.380318   24.794743   -2.002782  108.258118
  0.034629258    0.000000    0.000000    0.000000    0.000000  -96.285367   22.673672   -2.041874  106.186440
  0.034829659    0.000000    0.000000    0.000000    0.000000  -96.336365   29.002674   -2.088060  104.104408
  0.035030060    0.000000    0.000000    0.000000    0.000000  -95.517001   28.060217   -2.136604  102.025833
  0.035230461    0.000000    0.000000    0.000000    0.000000  -95.982777   25.443836   -2.184763   99.958511
  0.035430862    0.000000    0.000000    0.000000    0.000000  -97.712256   29.124016   -2.232770   97.866928
  0.035631262    0.000000    0.000000    0.000000    0.000000  -95.642334   26.013014   -2.281732   95.784790
  0.035831663    0.000000    0.000000    0.000000    0.000000  -96.730025   27.946405   -2.330825   93.692215
  0.036032064    0.000000    0.000000    0.000000    0.000000  -96.164360   22.589695   -2.382228   91.597061
  0.036232465    0.000000    0.000000    0.000000    0.000000  -97.122542   25.831953   -2.432693   89.483780
  0.036432866    0.000000    0.000000    0.000000    0.000000  -96.766557   23.981447   -2.484259   87.381424
  0.036633266    0.000000    0.000000    0.000000    0.000000  -96.039488   23.689581   -2.535635   85.258354
  0.036833667    0.000000    0.000000    0.000000    0.000000  -96.090055   18.461908   -2.588377   83.144714
  0.037034068    0.000000    0.000000    0.000000    0.000000  -96.472685   17.245581   -2.642835   81.027054
  0.037234469    0.000000    0.000000    0.000000    0.000000  -96.551142   20.132191   -2.695532   78.902260
  0.037434870    0.000000    0.000000    0.000000    0.000000  -96.448055   19.682076   -2.751336   76.791679
  0.037635270    0.000000    0.000000    0.000000    0.000000  -96.431015   25.129398   -2.807537   74.661041
  0.037835671    0.000000    0.000000    0.000000    0.000000  -97.423638   26.202782   -2.869945   72.522141
  0.038036072    0.000000    0.000000    0.000000    0.000000  -96.768455   21.700163   -2.934571   70.403252
  0.038236473    0.000000    0.000000    0.000000    0.000000  -98.644600   21.053766   -3.000201   68.327751
  0.038436874    0.000000    0.000000    0.000000    0.000000  -97.246500   24.607416   -3.058213   66.261421
  0.038637274    0.000000    0.000000    0.000000    0.000000  -97.850952   24.852625   -3.112317   64.161415
  0.038837675    0.000000    0.000000    0.000000    0.000000  -98.980604   24.753811   -3.165035   62.055672
  0.039038076    0.000000    0.000000    0.000000    0.000000  -97.325523   33.877911   -3.218650   59.951550
  0.039238477    0.000000    0.000000    0.000000    0.000000  -96.144689   22.179020   -3.275164   57.868176
  0.039438878    0.000000    0.000000    0.000000    0.000000  -97.231815   31.368032   -3.331135   55.771725
  0.039639278    0.000000    0.000000    0.000000    0.000000  -97.629872   30.227262   -3.386280   53.690319
  0.039839679    0.000000    0.000000    0.000000    0.000000  -97.795535   30.823750   -3.445232   51.573284
  0.040040080    0.000000    0.000000    0.000000    0.000000  -97.875459   25.489294   -3.499827   49.462818
  0.040240481    0.000000    0.000000    0.000000    0.000000  -98.339352   29.735525   -3.556749   47.376774
  0.040440882    0.000000    0.000000    0.000000    0.000000  -98.343841   23.976421   -3.612788   45.278313
  0.040641283    0.000000    0.000000    0.000000    0.000000  -97.734790   26.455132   -3.669158   43.227226
  0.040841683    0.000000    0.000000    0.000000    0.000000  -98.076717   26.012022   -3.727671   41.137707
  0.041042084    0.000000    0.000000    0.000000    0.000000  -97.686438   26.289774   -3.785534   39.092670
  0.041242485    0.000000    0.000000    0.000000    0.000000  -98.067163   24.767340   -3.842834   37.014187
  0.041442886    0.000000    0.000000    0.000000    0.000000  -97.317681   34.776978   -3.899121   34.953453
  0.041643287    0.000000    0.000000    0.000000    0.000000  -98.994005   29.199154   -3.956147   32.861847
  0.041843687    0.000000    0.000000    0.000000    0.000000  -97.531979   21.425993   -4.012115   30.761908
  0.042044088    0.000000    0.000000    0.000000    0.000000  -97.802254   20.820814   -4.065601   28.713070
  0.042244489    0.000000    0.000000    0.000000    0.000000  -98.170958   30.116070   -4.121805   26.652977
  0.042444890    0.000000    0.000000    0.000000    0.000000  -97.927095   27.749451   -4.178032   24.606050
  0.042645291    0.000000    0.000000    0.000000    0.000000  -97.221440   17.468189   -4.234988   22.565845
  0.042845691    0.000000    0.000000    0.000000    0.000000  -99.373420   29.187283   -4.287413   20.521759
  0.043046092    0.000000    0.000000    0.000000    0.000000  -98.834702   19.688511   -4.340570   18.494558
  0.043246493    0.000000    0.000000    0.000000    0.000000  -98.268471   29.288996   -4.395448   16.435595
  0.043446894    0.000000    0.000000    0.000000    0.000000  -98.800327   18.576963   -4.446341   14.405614
  0.043647295    0.000000    0.000000    0.000000    0.000000  -97.922429   31.737436   -4.495657   12.396291
  0.043847695    0.000000    0.000000    0.000000    0.000000  -99.262719   24.787939   -4.545858   10.375500
  0.044048096    0.000000    0.000000    0.000000    0.000000  -98.769649   38.181889   -4.595567    8.400759
  0.044248497    0.000000    0.000000    0.000000    0.000000  -99.369891   24.995642   -4.646161    6.412524
  0.044448898    0.000000    0.000000    0.000000    0.000000  -98.915499   34.681950   -4.693872    4.443721
  0.044649299    0.000000    0.000000    0.000000    0.000000  -99.408494   31.827248   -4.742225    2.483887
  0.044849699    0.000000    0.000000    0.000000    0.000000  -99.360940   36.011452   -4.786633    0.524990
  0.045050100    0.000000    0.000000    0.000000    0.000000  -98.943592   28.125004   -4.830895   -1.414870
  0.045250501    0.000000    0.000000    0.000000    0.000000  -98.761825   34.073780   -4.872496   -3.363570
  0.045450902    0.000000    0.000000    0.000000    0.000000  -99.507691   26.137035   -4.915865   -5.287232
  0.045651303    0.000000    0.000000    0.000000    0.000000  -99.202356   29.442650   -4.959929   -7.206343
  0.045851703    0.000000    0.000000    0.000000    0.000000  -97.651766   28.195450   -4.999035   -9.094368
  0.046052104    0.000000    0.000000    0.000000    0.000000  -98.217505   36.506119   -5.040693  -10.983078
  0.046252505    0.000000    0.000000    0.000000    0.000000 -100.667145   37.052353   -5.081094  -12.853675
  0.046452906    0.000000    0.000000    0.000000    0.000000  -98.338375   34.159534   -5.119681  -14.704180
  0.046653307    0.000000    0.000000    0.000000    0.000000  -97.950618   34.385490   -5.158406  -16.559395
  0.046853707    0.000000    0.000000    0.000000    0.000000  -98.215017   27.170481   -5.194698  -18.424603
  0.047054108    0.000000    0.000000    0.000000    0.000000  -97.689315   26.411715   -5.229239  -20.293129
  0.047254509    0.000000    0.000000    0.000000    0.000000  -98.776147   24.258673   -5.262689  -22.152626
  0.047454910    0.000000    0.000000    0.000000    0.000000  -97.420297   34.967815   -5.294917  -23.980139
  0.047655311    0.000000    0.000000    0.000000    0.000000  -97.953990   26.685028   -5.325506  -25.807381
  0.047855711    0.000000    0.000000    0.000000    0.000000  -98.765461   24.338659   -5.356259  -27.626856
  0.048056112    0.000000    0.000000    0.000000    0.000000  -98.725590   29.083307   -5.388892  -29.418926
  0.048256513    0.000000    0.000000    0.000000    0.000000  -99.304822   29.338856   -5.421598  -31.214245
  0.048456914    0.000000    0.000000    0.000000    0.000000  -98.832904   31.643263   -5.451833  -33.013020
  0.048657315    0.000000    0.000000    0.000000    0.000000  -98.688580   17.462357   -5.478089  -34.784237
  0.048857715    0.000000    0.000000    0.000000    0.000000  -99.637459   15.631620   -5.504729  -36.582485
  0.049058116    0.000000    0.000000    0.000000    0.000000  -98.368699   41.681168   -5.527910  -38.365639
  0.049258517    0.000000    0.000000    0.000000    0.000000  -98.111913   33.857540   -5.552080  -40.119591
  0.049458918    0.000000    0.000000    0.000000    0.000000  -99.342158   36.479477   -5.573275  -41.877991
  0.049659319    0.000000    0.000000    0.000000    0.000000  -98.918815   32.776997   -5.599705  -43.598526
  0.049859719    0.000000    0.000000    0.000000    0.000000  -99.553297   29.249895   -5.622291  -45.320580
  0.050060120    0.000000    0.000000    0.000000    0.000000  -99.352364   40.111019   -5.646206  -47.038391
  0.050260521    0.000000    0.000000    0.000000    0.000000 -100.173166   40.668659   -5.664669  -48.750275
  0.050460922    0.000000    0.000000    0.000000    0.000000  -99.097594   33.362427   -5.685551  -50.439651
  0.050661323    0.000000    0.000000    0.000000    0.000000  -99.864604   32.055000   -5.701564  -52.147831
  0.050861723    0.000000    0.000000    0.000000    0.000000  -98.847435   37.551441   -5.717625  -53.814552
  0.051062124    0.000000    0.000000    0.000000    0.000000  -99.424236   40.383884   -5.733693  -55.487202
  0.051262525    0.000000    0.000000    0.000000    0.000000  -99.112374   31.383450   -5.755343  -57.117359
  0.051462926    0.000000    0.000000    0.000000    0.000000  -98.469549   26.426348   -5.772813  -58.741901
  0.051663327    0.000000    0.000000    0.000000    0.000000  -99.518999   25.708344   -5.792415  -60.357113
  0.051863727    0.000000    0.000000    0.000000    0.000000  -99.288103   33.313438   -5.804266  -61.975639
  0.052064128    0.000000    0.000000    0.000000    0.000000  -97.517198   29.618858   -5.822628  -63.572601
  0.052264529    0.000000    0.000000    0.000000    0.000000  -97.494178   34.340240   -5.843746  -65.080833
  0.052464930    0.000000    0.000000    0.000000    0.000000  -98.763798   25.453190   -5.856405  -66.658600
  0.052665331    0.000000    0.000000    0.000000    0.000000  -99.232444   31.552034   -5.868916  -68.233597
  0.052865731    0.000000    0.000000    0.000000    0.000000  -99.745316   28.100616   -5.881879  -69.778801
