! Anritsu VNA Master:                     Model: MS2036C/10/77
! SN:                                  1601066
! /bd0/18may10/252.ns.m6.s2p
! Existing Calibration Information:
! TYPE:                         Current Settings,       Active Cal Settings
! TIME:             	   05/10/2018 05:45:19 PM,    05/10/2018 05:30:44 PM
! INTERNAL TEMP:    	                   59.3 C,                    57.8 C
! # POINTS:         	                      490,                       490
! START FREQ:       	               20.000 MHz,                20.000 MHz
! STOP FREQ:        	          117.995 991 MHz,           117.995 991 MHz
! SOURCE POWER:     	                     High,                      High
! IFBW:             	                    50 Hz,                     50 Hz
! AVG FACTOR:       	                       1 ,                        1 
! REF PLANE 1:      	                     0 mm,                      0 mm
! REF PLANE 2:      	                     0 mm,                      0 mm
! CAL TYPE:         	                 Full S22,                  Full S22
! CAL METHOD:       	                     SOLT,                      SOLT
! CAL LINE TYPE:    	                     Coax,                      Coax
! DUT PORT 1:       	                K-Conn(M),                 K-Conn(M)
! DUT PORT 2:       	                K-Conn(M),                 K-Conn(M)
! CAL STATUS:       	        OK: Accuracy High,                        --
# GHZ S DB R 50.0
! FREQ.GHZ       S11DB        S11A       S21DB        S21A       S12DB        S12A       S22DB        S22A
  0.020000000    0.000000    0.000000    0.000000    0.000000  -89.481499   35.207390   -0.655898 -125.362511
  0.020200401    0.000000    0.000000    0.000000    0.000000  -89.860722   34.753601   -0.659970 -126.813446
  0.020400802    0.000000    0.000000    0.000000    0.000000  -90.273095   30.981199   -0.662689 -128.274246
  0.020601202    0.000000    0.000000    0.000000    0.000000  -90.410030   31.425417   -0.664889 -129.747528
  0.020801603    0.000000    0.000000    0.000000    0.000000  -90.575730   32.997433   -0.668918 -131.256897
  0.021002004    0.000000    0.000000    0.000000    0.000000  -91.590024   32.777348   -0.669434 -132.764420
  0.021202405    0.000000    0.000000    0.000000    0.000000  -91.555787   34.997913   -0.672407 -134.280182
  0.021402806    0.000000    0.000000    0.000000    0.000000  -91.112558   34.012962   -0.676392 -135.782822
  0.021603206    0.000000    0.000000    0.000000    0.000000  -91.312693   34.979763   -0.679158 -137.295517
  0.021803607    0.000000    0.000000    0.000000    0.000000  -92.109498   40.672050   -0.683136 -138.783859
  0.022004008    0.000000    0.000000    0.000000    0.000000  -92.056416   42.731503   -0.687289 -140.310242
  0.022204409    0.000000    0.000000    0.000000    0.000000  -91.472658   39.718304   -0.692424 -141.836761
  0.022404810    0.000000    0.000000    0.000000    0.000000  -92.528103   45.787441   -0.702096 -143.372009
  0.022605210    0.000000    0.000000    0.000000    0.000000  -91.622233   38.286438   -0.703095 -144.944366
  0.022805611    0.000000    0.000000    0.000000    0.000000  -91.787577   43.479874   -0.703437 -146.515549
  0.023006012    0.000000    0.000000    0.000000    0.000000  -91.530889   43.312584   -0.707126 -148.075348
  0.023206413    0.000000    0.000000    0.000000    0.000000  -91.841261   40.382660   -0.711368 -149.629547
  0.023406814    0.000000    0.000000    0.000000    0.000000  -91.776594   43.019581   -0.717414 -151.176987
  0.023607214    0.000000    0.000000    0.000000    0.000000  -91.592217   38.918133   -0.725493 -152.739243
  0.023807615    0.000000    0.000000    0.000000    0.000000  -91.420530   40.541954   -0.731704 -154.332626
  0.024008016    0.000000    0.000000    0.000000    0.000000  -91.909035   34.123791   -0.738912 -155.935272
  0.024208417    0.000000    0.000000    0.000000    0.000000  -91.540315   34.847168   -0.746360 -157.566391
  0.024408818    0.000000    0.000000    0.000000    0.000000  -90.844220   32.761284   -0.749970 -159.206161
  0.024609218    0.000000    0.000000    0.000000    0.000000  -91.759038   31.684752   -0.756588 -160.835587
  0.024809619    0.000000    0.000000    0.000000    0.000000  -91.844243   29.005859   -0.763680 -162.488800
  0.025010020    0.000000    0.000000    0.000000    0.000000  -91.749809   30.234024   -0.772058 -164.134171
  0.025210421    0.000000    0.000000    0.000000    0.000000  -92.174283   28.453962   -0.781970 -165.802582
  0.025410822    0.000000    0.000000    0.000000    0.000000  -92.246180   30.370924   -0.792402 -167.470810
  0.025611222    0.000000    0.000000    0.000000    0.000000  -92.361554   25.311893   -0.802532 -169.156296
  0.025811623    0.000000    0.000000    0.000000    0.000000  -92.439925   26.224562   -0.812827 -170.857056
  0.026012024    0.000000    0.000000    0.000000    0.000000  -92.613902   23.897760   -0.824034 -172.570801
  0.026212425    0.000000    0.000000    0.000000    0.000000  -92.730991   21.601025   -0.834726 -174.291412
  0.026412826    0.000000    0.000000    0.000000    0.000000  -93.159327   24.567932   -0.847536 -176.016617
  0.026613226    0.000000    0.000000    0.000000    0.000000  -93.935406   25.743019   -0.862966 -177.751221
  0.026813627    0.000000    0.000000    0.000000    0.000000  -94.197239   23.941286   -0.877779 -179.506500
  0.027014028    0.000000    0.000000    0.000000    0.000000  -94.586869   27.331203   -0.894033  178.732574
  0.027214429    0.000000    0.000000    0.000000    0.000000  -94.073467   26.645607   -0.911154  176.974380
  0.027414830    0.000000    0.000000    0.000000    0.000000  -94.215051   27.245123   -0.928536  175.201187
  0.027615230    0.000000    0.000000    0.000000    0.000000  -94.976400   26.328318   -0.946427  173.417862
  0.027815631    0.000000    0.000000    0.000000    0.000000  -94.857373   31.557287   -0.965348  171.621750
  0.028016032    0.000000    0.000000    0.000000    0.000000  -94.603246   29.254824   -0.984341  169.808716
  0.028216433    0.000000    0.000000    0.000000    0.000000  -93.991370   34.576534   -1.005393  167.993256
  0.028416834    0.000000    0.000000    0.000000    0.000000  -95.028935   33.210739   -1.027058  166.168320
  0.028617234    0.000000    0.000000    0.000000    0.000000  -94.695366   29.318897   -1.048936  164.333115
  0.028817635    0.000000    0.000000    0.000000    0.000000  -94.022930   36.525490   -1.072026  162.492065
  0.029018036    0.000000    0.000000    0.000000    0.000000  -94.781041   33.487389   -1.098331  160.660202
  0.029218437    0.000000    0.000000    0.000000    0.000000  -94.342557   27.083643   -1.122186  158.802811
  0.029418838    0.000000    0.000000    0.000000    0.000000  -94.063692   32.128925   -1.150021  156.944366
  0.029619238    0.000000    0.000000    0.000000    0.000000  -94.019785   33.451229   -1.178668  155.050980
  0.029819639    0.000000    0.000000    0.000000    0.000000  -94.380007   32.285671   -1.206351  153.173218
  0.030020040    0.000000    0.000000    0.000000    0.000000  -94.588535   28.715977   -1.235949  151.284454
  0.030220441    0.000000    0.000000    0.000000    0.000000  -94.664401   26.962812   -1.265453  149.384766
  0.030420842    0.000000    0.000000    0.000000    0.000000  -94.430964   24.326618   -1.296195  147.505463
  0.030621242    0.000000    0.000000    0.000000    0.000000  -94.856387   27.483517   -1.329789  145.620758
  0.030821643    0.000000    0.000000    0.000000    0.000000  -94.059294   26.241642   -1.361340  143.738724
  0.031022044    0.000000    0.000000    0.000000    0.000000  -94.655635   26.508741   -1.396586  141.837051
  0.031222445    0.000000    0.000000    0.000000    0.000000  -94.408820   26.106133   -1.430288  139.931854
  0.031422846    0.000000    0.000000    0.000000    0.000000  -94.316667   20.946735   -1.464980  138.012115
  0.031623246    0.000000    0.000000    0.000000    0.000000  -94.140860   22.502207   -1.500503  136.065033
  0.031823647    0.000000    0.000000    0.000000    0.000000  -95.397822   24.161369   -1.532210  134.138626
  0.032024048    0.000000    0.000000    0.000000    0.000000  -94.964128   21.908628   -1.565718  132.211349
  0.032224449    0.000000    0.000000    0.000000    0.000000  -94.493195   21.385588   -1.603330  130.262772
  0.032424850    0.000000    0.000000    0.000000    0.000000  -95.107023   20.187305   -1.638739  128.302765
  0.032625250    0.000000    0.000000    0.000000    0.000000  -95.570569   17.300739   -1.671809  126.329666
  0.032825651    0.000000    0.000000    0.000000    0.000000  -95.860089   19.088268   -1.707801  124.348801
  0.033026052    0.000000    0.000000    0.000000    0.000000  -96.063886   19.650850   -1.743034  122.341446
  0.033226453    0.000000    0.000000    0.000000    0.000000  -96.491228   23.528225   -1.778709  120.333237
  0.033426854    0.000000    0.000000    0.000000    0.000000  -96.161591   21.132490   -1.813935  118.323601
  0.033627254    0.000000    0.000000    0.000000    0.000000  -97.038864   22.518988   -1.852892  116.330666
  0.033827655    0.000000    0.000000    0.000000    0.000000  -96.058497   15.534055   -1.891294  114.327118
  0.034028056    0.000000    0.000000    0.000000    0.000000  -97.021417   19.519175   -1.931434  112.294624
  0.034228457    0.000000    0.000000    0.000000    0.000000  -95.764698   21.387007   -1.973243  110.250244
  0.034428858    0.000000    0.000000    0.000000    0.000000  -96.076537   30.438129   -2.015649  108.205864
  0.034629258    0.000000    0.000000    0.000000    0.000000  -97.730119   22.473640   -2.060895  106.109764
  0.034829659    0.000000    0.000000    0.000000    0.000000  -96.585973   18.371647   -2.104267  104.055878
  0.035030060    0.000000    0.000000    0.000000    0.000000  -95.499805   32.333885   -2.152625  101.968140
  0.035230461    0.000000    0.000000    0.000000    0.000000  -96.168787   25.367098   -2.200420   99.878639
  0.035430862    0.000000    0.000000    0.000000    0.000000  -95.820147   22.990515   -2.248066   97.775391
  0.035631262    0.000000    0.000000    0.000000    0.000000  -96.258687   26.537170   -2.300099   95.699776
  0.035831663    0.000000    0.000000    0.000000    0.000000  -96.294852   35.099442   -2.350748   93.578239
  0.036032064    0.000000    0.000000    0.000000    0.000000  -96.038290   23.557230   -2.402440   91.457878
  0.036232465    0.000000    0.000000    0.000000    0.000000  -96.074896   19.177277   -2.453115   89.353867
  0.036432866    0.000000    0.000000    0.000000    0.000000  -96.511088   23.758999   -2.505327   87.231918
  0.036633266    0.000000    0.000000    0.000000    0.000000  -96.625393   27.199400   -2.556395   85.104279
  0.036833667    0.000000    0.000000    0.000000    0.000000  -96.472274   15.607892   -2.613005   82.977936
  0.037034068    0.000000    0.000000    0.000000    0.000000  -96.492797   23.253754   -2.666325   80.841652
  0.037234469    0.000000    0.000000    0.000000    0.000000  -97.520419   20.631119   -2.721499   78.708405
  0.037434870    0.000000    0.000000    0.000000    0.000000  -97.591141   17.727684   -2.775745   76.571617
  0.037635270    0.000000    0.000000    0.000000    0.000000  -96.838951   17.954081   -2.832036   74.427528
  0.037835671    0.000000    0.000000    0.000000    0.000000  -97.572512   27.300816   -2.894465   72.276337
  0.038036072    0.000000    0.000000    0.000000    0.000000  -98.122862   18.686810   -2.958536   70.121696
  0.038236473    0.000000    0.000000    0.000000    0.000000  -97.859349   26.768520   -3.023705   68.064003
  0.038436874    0.000000    0.000000    0.000000    0.000000  -97.076187   29.705740   -3.080199   65.976395
  0.038637274    0.000000    0.000000    0.000000    0.000000  -98.329854   22.143290   -3.135095   63.861313
  0.038837675    0.000000    0.000000    0.000000    0.000000  -97.093145   26.895571   -3.189182   61.749649
  0.039038076    0.000000    0.000000    0.000000    0.000000  -97.127477   19.612823   -3.241255   59.645714
  0.039238477    0.000000    0.000000    0.000000    0.000000  -97.690301   25.124388   -3.295936   57.548782
  0.039438878    0.000000    0.000000    0.000000    0.000000  -98.098037   31.359909   -3.347625   55.424290
  0.039639278    0.000000    0.000000    0.000000    0.000000  -98.902986   33.994591   -3.404166   53.340748
  0.039839679    0.000000    0.000000    0.000000    0.000000  -97.978209   23.565987   -3.459301   51.228321
  0.040040080    0.000000    0.000000    0.000000    0.000000  -97.148172   27.153387   -3.514093   49.120060
  0.040240481    0.000000    0.000000    0.000000    0.000000  -97.350183   23.880024   -3.567344   47.015369
  0.040440882    0.000000    0.000000    0.000000    0.000000  -97.971636   28.470886   -3.624252   44.942936
  0.040641283    0.000000    0.000000    0.000000    0.000000  -97.508454   26.172644   -3.679342   42.876911
  0.040841683    0.000000    0.000000    0.000000    0.000000  -98.413575   28.617865   -3.735599   40.816360
  0.041042084    0.000000    0.000000    0.000000    0.000000  -97.781146   36.184612   -3.791490   38.776234
  0.041242485    0.000000    0.000000    0.000000    0.000000  -97.828444   30.816294   -3.850834   36.720760
  0.041442886    0.000000    0.000000    0.000000    0.000000  -98.239394   28.470453   -3.907796   34.665539
  0.041643287    0.000000    0.000000    0.000000    0.000000  -96.895474   26.667713   -3.964265   32.597977
  0.041843687    0.000000    0.000000    0.000000    0.000000  -97.553666   23.091898   -4.018391   30.519781
  0.042044088    0.000000    0.000000    0.000000    0.000000  -97.428877   26.402065   -4.072722   28.476589
  0.042244489    0.000000    0.000000    0.000000    0.000000  -98.004515   25.446751   -4.129800   26.418671
  0.042444890    0.000000    0.000000    0.000000    0.000000  -98.279174   36.899376   -4.185357   24.390434
  0.042645291    0.000000    0.000000    0.000000    0.000000  -98.647982   26.073027   -4.240200   22.344864
  0.042845691    0.000000    0.000000    0.000000    0.000000  -97.800197   21.508831   -4.297358   20.313484
  0.043046092    0.000000    0.000000    0.000000    0.000000  -99.086867   34.512573   -4.349892   18.269054
  0.043246493    0.000000    0.000000    0.000000    0.000000  -99.521956   31.945038   -4.406508   16.240450
  0.043446894    0.000000    0.000000    0.000000    0.000000  -98.556162   25.366774   -4.457174   14.215644
  0.043647295    0.000000    0.000000    0.000000    0.000000  -98.956739   33.876129   -4.505965   12.186334
  0.043847695    0.000000    0.000000    0.000000    0.000000  -99.929101   24.174036   -4.556952   10.158753
  0.044048096    0.000000    0.000000    0.000000    0.000000  -97.636500   26.441845   -4.608102    8.163099
  0.044248497    0.000000    0.000000    0.000000    0.000000  -97.518075   28.108212   -4.657084    6.181709
  0.044448898    0.000000    0.000000    0.000000    0.000000 -100.908947   22.885307   -4.704536    4.217288
  0.044649299    0.000000    0.000000    0.000000    0.000000  -98.781685   39.900051   -4.752490    2.224811
  0.044849699    0.000000    0.000000    0.000000    0.000000  -99.853605   26.297478   -4.797104    0.277350
  0.045050100    0.000000    0.000000    0.000000    0.000000  -98.293545   36.757168   -4.842561   -1.669730
  0.045250501    0.000000    0.000000    0.000000    0.000000  -97.959282   27.701168   -4.887488   -3.628534
  0.045450902    0.000000    0.000000    0.000000    0.000000  -98.938057   23.096523   -4.928381   -5.546124
  0.045651303    0.000000    0.000000    0.000000    0.000000  -98.660396   20.711863   -4.970170   -7.482428
  0.045851703    0.000000    0.000000    0.000000    0.000000  -99.374011   40.036324   -5.007348   -9.395713
  0.046052104    0.000000    0.000000    0.000000    0.000000  -97.944192   33.283657   -5.047043  -11.284076
  0.046252505    0.000000    0.000000    0.000000    0.000000  -98.830241   38.749451   -5.085198  -13.161985
  0.046452906    0.000000    0.000000    0.000000    0.000000  -98.610432   30.821785   -5.122512  -15.039245
  0.046653307    0.000000    0.000000    0.000000    0.000000  -98.120343   35.948792   -5.160188  -16.904921
  0.046853707    0.000000    0.000000    0.000000    0.000000  -98.170028   33.671986   -5.193975  -18.763897
  0.047054108    0.000000    0.000000    0.000000    0.000000  -99.048859   29.114378   -5.229231  -20.614780
  0.047254509    0.000000    0.000000    0.000000    0.000000  -97.739335   37.431770   -5.261571  -22.479233
  0.047454910    0.000000    0.000000    0.000000    0.000000  -98.501434   31.091351   -5.291902  -24.313549
  0.047655311    0.000000    0.000000    0.000000    0.000000  -98.418698   34.909351   -5.321600  -26.158119
  0.047855711    0.000000    0.000000    0.000000    0.000000  -98.453875   24.182310   -5.350662  -27.928972
  0.048056112    0.000000    0.000000    0.000000    0.000000  -98.926859   36.689095   -5.381975  -29.726379
  0.048256513    0.000000    0.000000    0.000000    0.000000  -98.491289   24.222849   -5.410366  -31.506685
  0.048456914    0.000000    0.000000    0.000000    0.000000  -98.896210   27.759626   -5.439434  -33.299599
  0.048657315    0.000000    0.000000    0.000000    0.000000  -99.853628   30.775616   -5.466959  -35.063770
  0.048857715    0.000000    0.000000    0.000000    0.000000  -98.872882   24.747053   -5.492177  -36.843521
  0.049058116    0.000000    0.000000    0.000000    0.000000  -99.061806   29.981150   -5.514068  -38.618820
  0.049258517    0.000000    0.000000    0.000000    0.000000  -99.784346   22.099331   -5.539655  -40.362217
  0.049458918    0.000000    0.000000    0.000000    0.000000 -100.179454   34.954048   -5.563406  -42.098778
  0.049659319    0.000000    0.000000    0.000000    0.000000  -99.594979   20.941944   -5.584440  -43.805405
  0.049859719    0.000000    0.000000    0.000000    0.000000  -98.813795   26.506889   -5.610192  -45.510578
  0.050060120    0.000000    0.000000    0.000000    0.000000 -100.176714   37.642662   -5.631981  -47.218273
  0.050260521    0.000000    0.000000    0.000000    0.000000 -100.135259   42.410534   -5.654669  -48.915142
  0.050460922    0.000000    0.000000    0.000000    0.000000  -99.376465   31.426264   -5.672740  -50.618847
  0.050661323    0.000000    0.000000    0.000000    0.000000  -99.897111   43.258038   -5.690656  -52.286716
  0.050861723    0.000000    0.000000    0.000000    0.000000  -98.979677   30.743887   -5.705007  -53.945110
  0.051062124    0.000000    0.000000    0.000000    0.000000  -98.830578   33.268051   -5.724691  -55.601997
  0.051262525    0.000000    0.000000    0.000000    0.000000  -98.448318   37.012234   -5.745983  -57.238869
  0.051462926    0.000000    0.000000    0.000000    0.000000  -98.343223   25.892302   -5.765476  -58.862694
  0.051663327    0.000000    0.000000    0.000000    0.000000 -100.031726   36.241386   -5.781675  -60.486980
  0.051863727    0.000000    0.000000    0.000000    0.000000  -99.051046   44.464508   -5.799981  -62.104000
  0.052064128    0.000000    0.000000    0.000000    0.000000  -99.602029   30.037861   -5.811614  -63.714157
  0.052264529    0.000000    0.000000    0.000000    0.000000  -98.924236   32.304085   -5.824860  -65.308556
  0.052464930    0.000000    0.000000    0.000000    0.000000  -99.751091   31.530092   -5.837075  -66.905548
  0.052665331    0.000000    0.000000    0.000000    0.000000  -99.065144   20.256306   -5.852001  -68.485909
  0.052865731    0.000000    0.000000    0.000000    0.000000  -99.969235   36.873474   -5.868151  -70.056190
