! Anritsu VNA Master:                     Model: MS2036C/10/77
! SN:                                  1601066
! /bd0/18may10/252.ns.m8.s2p
! Existing Calibration Information:
! TYPE:                         Current Settings,       Active Cal Settings
! TIME:             	   05/10/2018 05:55:05 PM,    05/10/2018 05:49:06 PM
! INTERNAL TEMP:    	                   59.8 C,                    59.5 C
! # POINTS:         	                      490,                       490
! START FREQ:       	               20.000 MHz,                20.000 MHz
! STOP FREQ:        	          117.995 991 MHz,           117.995 991 MHz
! SOURCE POWER:     	                     High,                      High
! IFBW:             	                    50 Hz,                     50 Hz
! AVG FACTOR:       	                       1 ,                        1 
! REF PLANE 1:      	                     0 mm,                      0 mm
! REF PLANE 2:      	                     0 mm,                      0 mm
! CAL TYPE:         	                 Full S22,                  Full S22
! CAL METHOD:       	                     SOLT,                      SOLT
! CAL LINE TYPE:    	                     Coax,                      Coax
! DUT PORT 1:       	                K-Conn(M),                 K-Conn(M)
! DUT PORT 2:       	                K-Conn(M),                 K-Conn(M)
! CAL STATUS:       	        OK: Accuracy High,                        --
# GHZ S DB R 50.0
! FREQ.GHZ       S11DB        S11A       S21DB        S21A       S12DB        S12A       S22DB        S22A
  0.020000000    0.000000    0.000000    0.000000    0.000000  -89.471948   34.756466   -0.635001 -125.392998
  0.020200401    0.000000    0.000000    0.000000    0.000000  -89.815551   35.422764   -0.638222 -126.836296
  0.020400802    0.000000    0.000000    0.000000    0.000000  -89.833187   34.059788   -0.640605 -128.291840
  0.020601202    0.000000    0.000000    0.000000    0.000000  -90.642266   29.212809   -0.645781 -129.759460
  0.020801603    0.000000    0.000000    0.000000    0.000000  -90.652646   34.384369   -0.649022 -131.266739
  0.021002004    0.000000    0.000000    0.000000    0.000000  -91.517954   36.172077   -0.651089 -132.775620
  0.021202405    0.000000    0.000000    0.000000    0.000000  -91.810281   34.785206   -0.654422 -134.298462
  0.021402806    0.000000    0.000000    0.000000    0.000000  -91.274061   36.501339   -0.657532 -135.787415
  0.021603206    0.000000    0.000000    0.000000    0.000000  -91.984576   36.716339   -0.659768 -137.298279
  0.021803607    0.000000    0.000000    0.000000    0.000000  -91.681893   37.700382   -0.664154 -138.805435
  0.022004008    0.000000    0.000000    0.000000    0.000000  -91.733704   42.103428   -0.670898 -140.315582
  0.022204409    0.000000    0.000000    0.000000    0.000000  -92.274309   43.827839   -0.676773 -141.849762
  0.022404810    0.000000    0.000000    0.000000    0.000000  -92.107763   44.559727   -0.684170 -143.390076
  0.022605210    0.000000    0.000000    0.000000    0.000000  -91.448666   43.522766   -0.685005 -144.970062
  0.022805611    0.000000    0.000000    0.000000    0.000000  -91.658808   44.555702   -0.686142 -146.539734
  0.023006012    0.000000    0.000000    0.000000    0.000000  -91.993707   42.368568   -0.690527 -148.096863
  0.023206413    0.000000    0.000000    0.000000    0.000000  -91.336145   38.540707   -0.697905 -149.653610
  0.023406814    0.000000    0.000000    0.000000    0.000000  -91.649679   40.258701   -0.702750 -151.205994
  0.023607214    0.000000    0.000000    0.000000    0.000000  -91.337681   36.810760   -0.709835 -152.781967
  0.023807615    0.000000    0.000000    0.000000    0.000000  -91.098483   38.175888   -0.716894 -154.381531
  0.024008016    0.000000    0.000000    0.000000    0.000000  -91.087990   37.795425   -0.724218 -155.991531
  0.024208417    0.000000    0.000000    0.000000    0.000000  -91.699549   37.074905   -0.731387 -157.628952
  0.024408818    0.000000    0.000000    0.000000    0.000000  -91.145270   27.664427   -0.737482 -159.269165
  0.024609218    0.000000    0.000000    0.000000    0.000000  -91.237699   31.683277   -0.743313 -160.900681
  0.024809619    0.000000    0.000000    0.000000    0.000000  -91.179746   26.544540   -0.751952 -162.543045
  0.025010020    0.000000    0.000000    0.000000    0.000000  -91.862171   31.314825   -0.760624 -164.204468
  0.025210421    0.000000    0.000000    0.000000    0.000000  -91.746609   25.369810   -0.771675 -165.867157
  0.025410822    0.000000    0.000000    0.000000    0.000000  -92.063543   26.058243   -0.781309 -167.549164
  0.025611222    0.000000    0.000000    0.000000    0.000000  -92.059470   22.614689   -0.792607 -169.227692
  0.025811623    0.000000    0.000000    0.000000    0.000000  -92.152172   25.799105   -0.803572 -170.925110
  0.026012024    0.000000    0.000000    0.000000    0.000000  -92.752708   24.606659   -0.813527 -172.638977
  0.026212425    0.000000    0.000000    0.000000    0.000000  -93.129025   24.364485   -0.824501 -174.361115
  0.026412826    0.000000    0.000000    0.000000    0.000000  -93.037596   24.730860   -0.838430 -176.076874
  0.026613226    0.000000    0.000000    0.000000    0.000000  -93.068987   21.927946   -0.851868 -177.821960
  0.026813627    0.000000    0.000000    0.000000    0.000000  -93.913873   28.609697   -0.867748 -179.565613
  0.027014028    0.000000    0.000000    0.000000    0.000000  -93.268217   22.721495   -0.881670  178.663559
  0.027214429    0.000000    0.000000    0.000000    0.000000  -94.255754   26.450119   -0.897895  176.911774
  0.027414830    0.000000    0.000000    0.000000    0.000000  -94.311553   26.648060   -0.917014  175.143188
  0.027615230    0.000000    0.000000    0.000000    0.000000  -94.482816   28.862518   -0.933438  173.359009
  0.027815631    0.000000    0.000000    0.000000    0.000000  -94.661624   29.387190   -0.953326  171.575317
  0.028016032    0.000000    0.000000    0.000000    0.000000  -94.841674   32.750233   -0.972061  169.751907
  0.028216433    0.000000    0.000000    0.000000    0.000000  -95.224486   33.234180   -0.993749  167.944946
  0.028416834    0.000000    0.000000    0.000000    0.000000  -94.669978   35.175541   -1.015999  166.123123
  0.028617234    0.000000    0.000000    0.000000    0.000000  -95.145383   32.331387   -1.037979  164.284149
  0.028817635    0.000000    0.000000    0.000000    0.000000  -94.208093   34.189884   -1.060450  162.457214
  0.029018036    0.000000    0.000000    0.000000    0.000000  -94.504471   30.154749   -1.085811  160.629364
  0.029218437    0.000000    0.000000    0.000000    0.000000  -94.067771   33.459053   -1.112405  158.783539
  0.029418838    0.000000    0.000000    0.000000    0.000000  -93.556806   33.012848   -1.141133  156.907333
  0.029619238    0.000000    0.000000    0.000000    0.000000  -94.167472   29.308329   -1.167910  155.036194
  0.029819639    0.000000    0.000000    0.000000    0.000000  -93.819080   28.800726   -1.196496  153.159134
  0.030020040    0.000000    0.000000    0.000000    0.000000  -94.276360   28.883354   -1.226572  151.267456
  0.030220441    0.000000    0.000000    0.000000    0.000000  -94.433519   31.559145   -1.255557  149.382294
  0.030420842    0.000000    0.000000    0.000000    0.000000  -93.938556   24.802881   -1.285580  147.508148
  0.030621242    0.000000    0.000000    0.000000    0.000000  -94.037435   26.501904   -1.318605  145.632187
  0.030821643    0.000000    0.000000    0.000000    0.000000  -93.922201   23.560461   -1.353737  143.750076
  0.031022044    0.000000    0.000000    0.000000    0.000000  -94.876567   24.935654   -1.385462  141.840332
  0.031222445    0.000000    0.000000    0.000000    0.000000  -94.556417   23.253532   -1.413578  139.953537
  0.031422846    0.000000    0.000000    0.000000    0.000000  -94.316785   19.639336   -1.448520  138.040329
  0.031623246    0.000000    0.000000    0.000000    0.000000  -93.836759   19.635399   -1.484007  136.104080
  0.031823647    0.000000    0.000000    0.000000    0.000000  -95.513030   22.281765   -1.517052  134.166351
  0.032024048    0.000000    0.000000    0.000000    0.000000  -95.053510   22.888695   -1.551705  132.244949
  0.032224449    0.000000    0.000000    0.000000    0.000000  -94.776242   17.155563   -1.585758  130.308914
  0.032424850    0.000000    0.000000    0.000000    0.000000  -94.805409   20.448851   -1.621428  128.345459
  0.032625250    0.000000    0.000000    0.000000    0.000000  -96.114649   18.568396   -1.656862  126.378502
  0.032825651    0.000000    0.000000    0.000000    0.000000  -95.972580   16.249683   -1.692075  124.386421
  0.033026052    0.000000    0.000000    0.000000    0.000000  -95.723636   23.427086   -1.725393  122.379097
  0.033226453    0.000000    0.000000    0.000000    0.000000  -95.489279   24.432796   -1.764824  120.376335
  0.033426854    0.000000    0.000000    0.000000    0.000000  -96.556897   20.316719   -1.799920  118.365265
  0.033627254    0.000000    0.000000    0.000000    0.000000  -96.656233   24.817333   -1.835302  116.362549
  0.033827655    0.000000    0.000000    0.000000    0.000000  -96.613615   28.025587   -1.876723  114.362915
  0.034028056    0.000000    0.000000    0.000000    0.000000  -96.683061   28.410919   -1.916381  112.329620
  0.034228457    0.000000    0.000000    0.000000    0.000000  -95.623212   19.151724   -1.957077  110.295715
  0.034428858    0.000000    0.000000    0.000000    0.000000  -97.866892   30.296093   -2.001578  108.236359
  0.034629258    0.000000    0.000000    0.000000    0.000000  -95.858942   22.817966   -2.040487  106.165977
  0.034829659    0.000000    0.000000    0.000000    0.000000  -95.890647   29.824409   -2.087350  104.089859
  0.035030060    0.000000    0.000000    0.000000    0.000000  -96.320044   26.472626   -2.134440  102.011261
  0.035230461    0.000000    0.000000    0.000000    0.000000  -96.439372   25.185480   -2.182242   99.941162
  0.035430862    0.000000    0.000000    0.000000    0.000000  -96.959971   21.720396   -2.231344   97.848351
  0.035631262    0.000000    0.000000    0.000000    0.000000  -96.684242   24.964706   -2.280586   95.772919
  0.035831663    0.000000    0.000000    0.000000    0.000000  -96.227568   23.307266   -2.329131   93.679153
  0.036032064    0.000000    0.000000    0.000000    0.000000  -96.537335   24.449570   -2.380915   91.585953
  0.036232465    0.000000    0.000000    0.000000    0.000000  -96.537579   21.330835   -2.431482   89.472267
  0.036432866    0.000000    0.000000    0.000000    0.000000  -97.131672   25.330568   -2.482722   87.365067
  0.036633266    0.000000    0.000000    0.000000    0.000000  -96.283005   16.148148   -2.534209   85.245209
  0.036833667    0.000000    0.000000    0.000000    0.000000  -96.387139   21.144548   -2.586813   83.139725
  0.037034068    0.000000    0.000000    0.000000    0.000000  -97.054613   17.246723   -2.642070   81.015030
  0.037234469    0.000000    0.000000    0.000000    0.000000  -96.702692   20.199762   -2.695710   78.889610
  0.037434870    0.000000    0.000000    0.000000    0.000000  -96.735633   21.241472   -2.750098   76.773399
  0.037635270    0.000000    0.000000    0.000000    0.000000  -97.601499   17.722248   -2.808294   74.654991
  0.037835671    0.000000    0.000000    0.000000    0.000000  -96.979391   19.516922   -2.870080   72.509575
  0.038036072    0.000000    0.000000    0.000000    0.000000  -98.493952   19.560799   -2.933134   70.389320
  0.038236473    0.000000    0.000000    0.000000    0.000000  -98.024659   20.077139   -2.999806   68.322083
  0.038436874    0.000000    0.000000    0.000000    0.000000  -97.356340   27.273468   -3.056507   66.240295
  0.038637274    0.000000    0.000000    0.000000    0.000000  -98.883372   29.653118   -3.110222   64.135139
  0.038837675    0.000000    0.000000    0.000000    0.000000  -99.569298   13.300412   -3.163956   62.028725
  0.039038076    0.000000    0.000000    0.000000    0.000000  -97.903778   23.944283   -3.217531   59.926865
  0.039238477    0.000000    0.000000    0.000000    0.000000  -97.634350   20.225477   -3.273149   57.835098
  0.039438878    0.000000    0.000000    0.000000    0.000000  -97.352715   26.204329   -3.329065   55.754066
  0.039639278    0.000000    0.000000    0.000000    0.000000  -98.039631   18.782345   -3.386773   53.659885
  0.039839679    0.000000    0.000000    0.000000    0.000000  -97.686609   30.453159   -3.444200   51.547035
  0.040040080    0.000000    0.000000    0.000000    0.000000  -98.133384   31.403690   -3.498179   49.442333
  0.040240481    0.000000    0.000000    0.000000    0.000000  -98.085743   39.718777   -3.555398   47.347095
  0.040440882    0.000000    0.000000    0.000000    0.000000  -98.635012   22.970943   -3.612350   45.252449
  0.040641283    0.000000    0.000000    0.000000    0.000000  -97.685670   32.142426   -3.667111   43.184921
  0.040841683    0.000000    0.000000    0.000000    0.000000  -97.986549   34.463985   -3.724862   41.115456
  0.041042084    0.000000    0.000000    0.000000    0.000000  -98.060214   21.363815   -3.781037   39.071316
  0.041242485    0.000000    0.000000    0.000000    0.000000  -97.808615   21.066031   -3.841186   36.988018
  0.041442886    0.000000    0.000000    0.000000    0.000000  -97.629800   21.862232   -3.895721   34.928368
  0.041643287    0.000000    0.000000    0.000000    0.000000  -98.352673   29.713434   -3.952479   32.844189
  0.041843687    0.000000    0.000000    0.000000    0.000000  -97.214724   27.295073   -4.007908   30.753431
  0.042044088    0.000000    0.000000    0.000000    0.000000  -97.337470   21.008726   -4.063678   28.709768
  0.042244489    0.000000    0.000000    0.000000    0.000000  -98.358736   29.100760   -4.118144   26.636433
  0.042444890    0.000000    0.000000    0.000000    0.000000  -98.984868   31.251722   -4.174386   24.602478
  0.042645291    0.000000    0.000000    0.000000    0.000000  -98.636098   28.800066   -4.231526   22.553228
  0.042845691    0.000000    0.000000    0.000000    0.000000  -98.708659   30.343075   -4.282549   20.517265
  0.043046092    0.000000    0.000000    0.000000    0.000000  -98.291059   30.046350   -4.338882   18.482868
  0.043246493    0.000000    0.000000    0.000000    0.000000  -98.589523   22.589420   -4.392698   16.430246
  0.043446894    0.000000    0.000000    0.000000    0.000000  -99.126298   21.449888   -4.443078   14.407584
  0.043647295    0.000000    0.000000    0.000000    0.000000  -98.940901   33.197300   -4.492074   12.391883
  0.043847695    0.000000    0.000000    0.000000    0.000000  -98.907680   39.391941   -4.544383   10.392098
  0.044048096    0.000000    0.000000    0.000000    0.000000  -98.921230   21.309475   -4.593973    8.393359
  0.044248497    0.000000    0.000000    0.000000    0.000000 -100.105952   21.311697   -4.642842    6.406826
  0.044448898    0.000000    0.000000    0.000000    0.000000  -96.488891   28.963850   -4.692893    4.441711
  0.044649299    0.000000    0.000000    0.000000    0.000000  -99.526255   38.017803   -4.738759    2.477027
  0.044849699    0.000000    0.000000    0.000000    0.000000  -99.177470   28.032869   -4.784823    0.525976
  0.045050100    0.000000    0.000000    0.000000    0.000000  -99.747280   23.446955   -4.828960   -1.421840
  0.045250501    0.000000    0.000000    0.000000    0.000000 -100.101679   24.728275   -4.873134   -3.365648
  0.045450902    0.000000    0.000000    0.000000    0.000000  -99.800539   32.052242   -4.913785   -5.290916
  0.045651303    0.000000    0.000000    0.000000    0.000000  -98.930495   32.090057   -4.957726   -7.220204
  0.045851703    0.000000    0.000000    0.000000    0.000000  -98.636051   34.543331   -4.997788   -9.110310
  0.046052104    0.000000    0.000000    0.000000    0.000000  -99.353520   32.496845   -5.039194  -11.003368
  0.046252505    0.000000    0.000000    0.000000    0.000000  -97.733436   34.347565   -5.079991  -12.874904
  0.046452906    0.000000    0.000000    0.000000    0.000000  -98.463480   38.685898   -5.118665  -14.732965
  0.046653307    0.000000    0.000000    0.000000    0.000000  -97.937877   29.371984   -5.155740  -16.593023
  0.046853707    0.000000    0.000000    0.000000    0.000000  -98.943342   26.523214   -5.189889  -18.453886
  0.047054108    0.000000    0.000000    0.000000    0.000000  -97.071557   30.018551   -5.225923  -20.324514
  0.047254509    0.000000    0.000000    0.000000    0.000000  -99.093416   24.694878   -5.259682  -22.179348
  0.047454910    0.000000    0.000000    0.000000    0.000000  -98.588844   26.699877   -5.289758  -24.001667
  0.047655311    0.000000    0.000000    0.000000    0.000000  -99.774771   24.819073   -5.319866  -25.838133
  0.047855711    0.000000    0.000000    0.000000    0.000000  -98.408481   23.350328   -5.353656  -27.651173
  0.048056112    0.000000    0.000000    0.000000    0.000000  -98.574926   28.339088   -5.385428  -29.439058
  0.048256513    0.000000    0.000000    0.000000    0.000000  -98.684001   21.089779   -5.418059  -31.232735
  0.048456914    0.000000    0.000000    0.000000    0.000000  -98.220325   28.730440   -5.446322  -33.037640
  0.048657315    0.000000    0.000000    0.000000    0.000000  -98.469228   27.262457   -5.471432  -34.812164
  0.048857715    0.000000    0.000000    0.000000    0.000000 -100.703953   37.819637   -5.497009  -36.609066
  0.049058116    0.000000    0.000000    0.000000    0.000000  -99.562283   26.152023   -5.521431  -38.395710
  0.049258517    0.000000    0.000000    0.000000    0.000000  -99.757476   31.174603   -5.545644  -40.135612
  0.049458918    0.000000    0.000000    0.000000    0.000000  -99.947220   30.051203   -5.566542  -41.885799
  0.049659319    0.000000    0.000000    0.000000    0.000000 -101.956276   37.229218   -5.594460  -43.600990
  0.049859719    0.000000    0.000000    0.000000    0.000000  -98.115747   34.695713   -5.616146  -45.318653
  0.050060120    0.000000    0.000000    0.000000    0.000000  -98.446116   31.844070   -5.637899  -47.033649
  0.050260521    0.000000    0.000000    0.000000    0.000000  -98.180901   35.210537   -5.658106  -48.743931
  0.050460922    0.000000    0.000000    0.000000    0.000000 -101.253706   41.007946   -5.679296  -50.440422
  0.050661323    0.000000    0.000000    0.000000    0.000000  -98.500390   28.643070   -5.694629  -52.129826
  0.050861723    0.000000    0.000000    0.000000    0.000000  -98.813707   29.421164   -5.711250  -53.798851
  0.051062124    0.000000    0.000000    0.000000    0.000000 -100.074109   35.963970   -5.729021  -55.465488
  0.051262525    0.000000    0.000000    0.000000    0.000000  -98.340636   31.800278   -5.749202  -57.102798
  0.051462926    0.000000    0.000000    0.000000    0.000000  -98.221034   31.534779   -5.766544  -58.726116
  0.051663327    0.000000    0.000000    0.000000    0.000000  -98.859703   34.535023   -5.787031  -60.336895
  0.051863727    0.000000    0.000000    0.000000    0.000000  -99.122943   33.681450   -5.800401  -61.967690
  0.052064128    0.000000    0.000000    0.000000    0.000000  -98.476386   24.776228   -5.817337  -63.570564
  0.052264529    0.000000    0.000000    0.000000    0.000000  -98.531717   38.199638   -5.826183  -65.181641
  0.052464930    0.000000    0.000000    0.000000    0.000000  -98.725267   32.422703   -5.838600  -66.766754
  0.052665331    0.000000    0.000000    0.000000    0.000000 -100.134127   33.101814   -5.852147  -68.362732
  0.052865731    0.000000    0.000000    0.000000    0.000000  -99.414151   34.536644   -5.869500  -69.894142
