! Anritsu VNA Master:                     Model: MS2036C/10/77
! SN:                                  1601066
! /bd0/18may10/bot200.s2p
! Existing Calibration Information:
! TYPE:                         Current Settings,       Active Cal Settings
! TIME:             	   05/10/2018 01:22:47 PM,    05/10/2018 01:17:32 PM
! INTERNAL TEMP:    	                   52.8 C,                    52.0 C
! # POINTS:         	                      492,                       492
! START FREQ:       	               20.000 MHz,                20.000 MHz
! STOP FREQ:        	          118.396 793 MHz,           118.396 793 MHz
! SOURCE POWER:     	                     High,                      High
! IFBW:             	                    50 Hz,                     50 Hz
! AVG FACTOR:       	                       1 ,                        1 
! REF PLANE 1:      	                     0 mm,                      0 mm
! REF PLANE 2:      	                     0 mm,                      0 mm
! CAL TYPE:         	                 Full S22,                  Full S22
! CAL METHOD:       	                     SOLT,                      SOLT
! CAL LINE TYPE:    	                     Coax,                      Coax
! DUT PORT 1:       	                K-Conn(M),                 K-Conn(M)
! DUT PORT 2:       	                K-Conn(M),                 K-Conn(M)
! CAL STATUS:       	        OK: Accuracy High,                        --
# GHZ S DB R 50.0
! FREQ.GHZ       S11DB        S11A       S21DB        S21A       S12DB        S12A       S22DB        S22A
  0.020000000    0.000000    0.000000    0.000000    0.000000  -89.813892   39.726078   -4.556401  -22.286320
  0.020200401    0.000000    0.000000    0.000000    0.000000  -90.327199   35.300686   -4.553877  -22.505083
  0.020400802    0.000000    0.000000    0.000000    0.000000  -90.829538   38.066082   -4.552312  -22.743187
  0.020601202    0.000000    0.000000    0.000000    0.000000  -90.416070   37.242599   -4.552540  -22.964876
  0.020801603    0.000000    0.000000    0.000000    0.000000  -90.518178   37.789124   -4.553014  -23.189848
  0.021002004    0.000000    0.000000    0.000000    0.000000  -90.499982   34.819824   -4.553963  -23.418478
  0.021202405    0.000000    0.000000    0.000000    0.000000  -91.390966   40.667976   -4.553505  -23.649620
  0.021402806    0.000000    0.000000    0.000000    0.000000  -91.406765   35.110893   -4.553694  -23.877848
  0.021603206    0.000000    0.000000    0.000000    0.000000  -91.042785   33.545185   -4.555327  -24.110012
  0.021803607    0.000000    0.000000    0.000000    0.000000  -92.145642   36.508278   -4.555466  -24.326960
  0.022004008    0.000000    0.000000    0.000000    0.000000  -91.607592   31.788099   -4.554391  -24.547548
  0.022204409    0.000000    0.000000    0.000000    0.000000  -91.899901   37.719917   -4.556716  -24.777225
  0.022404810    0.000000    0.000000    0.000000    0.000000  -91.467074   36.902935   -4.555639  -25.011501
  0.022605210    0.000000    0.000000    0.000000    0.000000  -92.040748   33.893784   -4.552168  -25.243332
  0.022805611    0.000000    0.000000    0.000000    0.000000  -91.816350   32.367290   -4.554142  -25.468298
  0.023006012    0.000000    0.000000    0.000000    0.000000  -92.131107   37.268845   -4.555489  -25.687393
  0.023206413    0.000000    0.000000    0.000000    0.000000  -92.288052   30.564796   -4.555612  -25.914557
  0.023406814    0.000000    0.000000    0.000000    0.000000  -92.100004   36.744560   -4.557438  -26.135273
  0.023607214    0.000000    0.000000    0.000000    0.000000  -92.482672   31.358316   -4.556508  -26.366402
  0.023807615    0.000000    0.000000    0.000000    0.000000  -92.243882   32.386642   -4.555219  -26.608559
  0.024008016    0.000000    0.000000    0.000000    0.000000  -92.942025   35.720200   -4.556880  -26.821295
  0.024208417    0.000000    0.000000    0.000000    0.000000  -92.405156   27.408150   -4.557314  -27.043104
  0.024408818    0.000000    0.000000    0.000000    0.000000  -93.134134   33.912170   -4.557847  -27.273224
  0.024609218    0.000000    0.000000    0.000000    0.000000  -93.279524   32.936337   -4.558953  -27.490534
  0.024809619    0.000000    0.000000    0.000000    0.000000  -92.785013   29.491531   -4.559753  -27.717665
  0.025010020    0.000000    0.000000    0.000000    0.000000  -93.335259   35.991310   -4.558459  -27.944780
  0.025210421    0.000000    0.000000    0.000000    0.000000  -93.318294   34.198059   -4.559622  -28.180105
  0.025410822    0.000000    0.000000    0.000000    0.000000  -93.768086   32.611351   -4.560802  -28.402306
  0.025611222    0.000000    0.000000    0.000000    0.000000  -93.628269   32.224434   -4.562279  -28.624447
  0.025811623    0.000000    0.000000    0.000000    0.000000  -94.081027   28.121651   -4.561514  -28.849831
  0.026012024    0.000000    0.000000    0.000000    0.000000  -93.615259   30.527527   -4.562467  -29.072765
  0.026212425    0.000000    0.000000    0.000000    0.000000  -93.973099   33.765255   -4.563953  -29.291872
  0.026412826    0.000000    0.000000    0.000000    0.000000  -93.934575   31.246172   -4.565043  -29.527973
  0.026613226    0.000000    0.000000    0.000000    0.000000  -93.860713   29.234371   -4.563361  -29.764725
  0.026813627    0.000000    0.000000    0.000000    0.000000  -94.297581   31.302261   -4.564585  -29.995554
  0.027014028    0.000000    0.000000    0.000000    0.000000  -93.646881   32.751579   -4.564569  -30.223679
  0.027214429    0.000000    0.000000    0.000000    0.000000  -93.889812   32.187878   -4.565682  -30.444466
  0.027414830    0.000000    0.000000    0.000000    0.000000  -94.415735   36.200413   -4.566635  -30.673065
  0.027615230    0.000000    0.000000    0.000000    0.000000  -94.739063   30.240631   -4.567195  -30.887150
  0.027815631    0.000000    0.000000    0.000000    0.000000  -94.533694   29.994637   -4.567134  -31.122484
  0.028016032    0.000000    0.000000    0.000000    0.000000  -95.074252   34.627266   -4.567650  -31.355951
  0.028216433    0.000000    0.000000    0.000000    0.000000  -94.796133   24.856899   -4.567065  -31.573040
  0.028416834    0.000000    0.000000    0.000000    0.000000  -94.750249   29.469763   -4.568259  -31.801302
  0.028617234    0.000000    0.000000    0.000000    0.000000  -94.934630   29.779846   -4.569218  -32.035404
  0.028817635    0.000000    0.000000    0.000000    0.000000  -94.927931   26.348700   -4.568525  -32.258232
  0.029018036    0.000000    0.000000    0.000000    0.000000  -94.686886   33.337086   -4.568986  -32.490093
  0.029218437    0.000000    0.000000    0.000000    0.000000  -94.281752   30.191435   -4.569423  -32.712337
  0.029418838    0.000000    0.000000    0.000000    0.000000  -95.168376   30.600910   -4.571665  -32.938248
  0.029619238    0.000000    0.000000    0.000000    0.000000  -95.540849   27.805922   -4.570465  -33.173889
  0.029819639    0.000000    0.000000    0.000000    0.000000  -94.396090   33.593121   -4.571640  -33.393589
  0.030020040    0.000000    0.000000    0.000000    0.000000  -96.050254   32.363316   -4.571629  -33.631535
  0.030220441    0.000000    0.000000    0.000000    0.000000  -94.934803   29.860157   -4.572278  -33.856129
  0.030420842    0.000000    0.000000    0.000000    0.000000  -95.067076   27.409788   -4.572810  -34.084572
  0.030621242    0.000000    0.000000    0.000000    0.000000  -95.328388   27.452232   -4.573055  -34.319641
  0.030821643    0.000000    0.000000    0.000000    0.000000  -96.005393   30.088562   -4.574315  -34.540337
  0.031022044    0.000000    0.000000    0.000000    0.000000  -95.524098   23.211546   -4.574023  -34.771221
  0.031222445    0.000000    0.000000    0.000000    0.000000  -95.255230   24.770510   -4.565240  -34.940254
  0.031422846    0.000000    0.000000    0.000000    0.000000  -96.104249   18.861031   -4.564985  -35.179180
  0.031623246    0.000000    0.000000    0.000000    0.000000  -95.371478   18.910168   -4.565707  -35.406128
  0.031823647    0.000000    0.000000    0.000000    0.000000  -95.118428   25.579792   -4.567214  -35.637596
  0.032024048    0.000000    0.000000    0.000000    0.000000  -96.703774   18.974106   -4.568708  -35.866158
  0.032224449    0.000000    0.000000    0.000000    0.000000  -95.285713   31.049044   -4.566789  -36.095127
  0.032424850    0.000000    0.000000    0.000000    0.000000  -95.373098   27.571531   -4.569831  -36.310810
  0.032625250    0.000000    0.000000    0.000000    0.000000  -95.272481   27.333853   -4.569872  -36.548183
  0.032825651    0.000000    0.000000    0.000000    0.000000  -96.151385   24.431911   -4.570287  -36.775429
  0.033026052    0.000000    0.000000    0.000000    0.000000  -96.110155   22.847427   -4.572876  -36.993282
  0.033226453    0.000000    0.000000    0.000000    0.000000  -95.706365   27.988361   -4.572576  -37.234447
  0.033426854    0.000000    0.000000    0.000000    0.000000  -95.642352   24.453461   -4.571214  -37.467949
  0.033627254    0.000000    0.000000    0.000000    0.000000  -96.889280   23.753805   -4.575564  -37.698494
  0.033827655    0.000000    0.000000    0.000000    0.000000  -96.569557   26.886042   -4.572657  -37.923553
  0.034028056    0.000000    0.000000    0.000000    0.000000  -96.545072   25.797956   -4.575258  -38.147228
  0.034228457    0.000000    0.000000    0.000000    0.000000  -96.809571   26.317024   -4.575942  -38.371849
  0.034428858    0.000000    0.000000    0.000000    0.000000  -96.717467   28.659620   -4.574455  -38.617062
  0.034629258    0.000000    0.000000    0.000000    0.000000  -96.181423   27.939552   -4.576915  -38.831810
  0.034829659    0.000000    0.000000    0.000000    0.000000  -96.549362   25.556944   -4.577056  -39.061775
  0.035030060    0.000000    0.000000    0.000000    0.000000  -96.192087   29.028208   -4.578400  -39.294865
  0.035230461    0.000000    0.000000    0.000000    0.000000  -96.464444   25.157673   -4.577226  -39.517864
  0.035430862    0.000000    0.000000    0.000000    0.000000  -96.403170   29.944984   -4.577276  -39.733849
  0.035631262    0.000000    0.000000    0.000000    0.000000  -97.150335   26.279673   -4.578198  -39.971920
  0.035831663    0.000000    0.000000    0.000000    0.000000  -96.751590   26.619312   -4.578391  -40.193344
  0.036032064    0.000000    0.000000    0.000000    0.000000  -96.627275   29.601969   -4.579547  -40.411858
  0.036232465    0.000000    0.000000    0.000000    0.000000  -96.592119   27.462776   -4.580224  -40.647743
  0.036432866    0.000000    0.000000    0.000000    0.000000  -96.148100   24.134722   -4.581405  -40.874542
  0.036633266    0.000000    0.000000    0.000000    0.000000  -95.422101   24.907818   -4.581506  -41.100861
  0.036833667    0.000000    0.000000    0.000000    0.000000  -96.512721   24.971437   -4.580989  -41.324772
  0.037034068    0.000000    0.000000    0.000000    0.000000  -96.741848   30.946941   -4.582120  -41.551792
  0.037234469    0.000000    0.000000    0.000000    0.000000  -97.422597   34.926781   -4.583022  -41.772995
  0.037434870    0.000000    0.000000    0.000000    0.000000  -97.280868   25.608637   -4.582784  -41.999470
  0.037635270    0.000000    0.000000    0.000000    0.000000  -96.571617   17.428955   -4.582848  -42.217400
  0.037835671    0.000000    0.000000    0.000000    0.000000  -97.702339   29.428768   -4.584963  -42.445961
  0.038036072    0.000000    0.000000    0.000000    0.000000  -97.607823   30.476500   -4.585657  -42.674496
  0.038236473    0.000000    0.000000    0.000000    0.000000  -97.964825   30.655804   -4.585903  -42.894135
  0.038436874    0.000000    0.000000    0.000000    0.000000  -97.864771   26.453114   -4.585958  -43.115646
  0.038637274    0.000000    0.000000    0.000000    0.000000  -97.132495   22.987776   -4.586641  -43.339081
  0.038837675    0.000000    0.000000    0.000000    0.000000  -97.491584   27.290535   -4.586157  -43.575085
  0.039038076    0.000000    0.000000    0.000000    0.000000  -96.781777   34.139141   -4.588860  -43.798363
  0.039238477    0.000000    0.000000    0.000000    0.000000  -97.416229   22.321720   -4.588590  -44.014614
  0.039438878    0.000000    0.000000    0.000000    0.000000  -97.568099   26.036619   -4.589345  -44.253281
  0.039639278    0.000000    0.000000    0.000000    0.000000  -97.614430   28.099020   -4.587743  -44.477692
  0.039839679    0.000000    0.000000    0.000000    0.000000  -97.649661   27.874584   -4.589489  -44.705738
  0.040040080    0.000000    0.000000    0.000000    0.000000  -97.258980   31.601912   -4.585733  -44.932343
  0.040240481    0.000000    0.000000    0.000000    0.000000  -99.066348   31.401686   -4.587991  -45.149784
  0.040440882    0.000000    0.000000    0.000000    0.000000  -99.087628   27.177023   -4.587393  -45.388798
  0.040641283    0.000000    0.000000    0.000000    0.000000  -98.054363   27.357168   -4.588360  -45.604324
  0.040841683    0.000000    0.000000    0.000000    0.000000  -96.859183   29.597425   -4.589511  -45.831882
  0.041042084    0.000000    0.000000    0.000000    0.000000  -98.762187   36.672546   -4.590144  -46.047222
  0.041242485    0.000000    0.000000    0.000000    0.000000  -97.589050   29.304554   -4.590732  -46.279167
  0.041442886    0.000000    0.000000    0.000000    0.000000  -98.544002   29.887592   -4.591013  -46.513241
  0.041643287    0.000000    0.000000    0.000000    0.000000  -98.082626   26.341900   -4.590155  -46.732552
  0.041843687    0.000000    0.000000    0.000000    0.000000  -98.522859   24.544075   -4.591667  -46.950516
  0.042044088    0.000000    0.000000    0.000000    0.000000  -98.206543   30.361712   -4.592244  -47.177090
  0.042244489    0.000000    0.000000    0.000000    0.000000  -97.510233   30.089664   -4.593144  -47.415031
  0.042444890    0.000000    0.000000    0.000000    0.000000  -98.325168   24.783308   -4.595084  -47.638241
  0.042645291    0.000000    0.000000    0.000000    0.000000  -97.817374   32.314362   -4.592137  -47.876152
  0.042845691    0.000000    0.000000    0.000000    0.000000  -97.938117   25.213188   -4.594931  -48.103207
  0.043046092    0.000000    0.000000    0.000000    0.000000  -97.976894   22.036869   -4.594564  -48.326553
  0.043246493    0.000000    0.000000    0.000000    0.000000  -98.195378   32.558037   -4.595961  -48.558163
  0.043446894    0.000000    0.000000    0.000000    0.000000  -97.327830   28.374643   -4.598985  -48.773933
  0.043647295    0.000000    0.000000    0.000000    0.000000  -99.353520   28.612497   -4.598066  -49.014847
  0.043847695    0.000000    0.000000    0.000000    0.000000  -97.857871   27.024305   -4.598834  -49.249367
  0.044048096    0.000000    0.000000    0.000000    0.000000  -98.838127   34.095200   -4.600929  -49.484066
  0.044248497    0.000000    0.000000    0.000000    0.000000  -97.563188   29.211767   -4.600616  -49.687881
  0.044448898    0.000000    0.000000    0.000000    0.000000  -96.783263   31.689322   -4.602607  -49.934769
  0.044649299    0.000000    0.000000    0.000000    0.000000  -99.455788   30.628727   -4.603002  -50.163284
  0.044849699    0.000000    0.000000    0.000000    0.000000  -98.645902   24.836689   -4.605459  -50.395603
  0.045050100    0.000000    0.000000    0.000000    0.000000  -98.802816   22.450626   -4.603134  -50.634655
  0.045250501    0.000000    0.000000    0.000000    0.000000  -97.816807   30.605865   -4.603177  -50.867462
  0.045450902    0.000000    0.000000    0.000000    0.000000  -98.681897   28.003971   -4.603183  -51.101452
  0.045651303    0.000000    0.000000    0.000000    0.000000  -98.161154   28.069225   -4.604959  -51.331436
  0.045851703    0.000000    0.000000    0.000000    0.000000  -97.342838   27.440102   -4.606954  -51.552425
  0.046052104    0.000000    0.000000    0.000000    0.000000  -99.044104   28.452511   -4.608630  -51.777592
  0.046252505    0.000000    0.000000    0.000000    0.000000  -98.940595   17.339369   -4.608659  -52.023132
  0.046452906    0.000000    0.000000    0.000000    0.000000  -99.452240   33.460602   -4.608762  -52.249977
  0.046653307    0.000000    0.000000    0.000000    0.000000  -99.607272   27.269987   -4.610120  -52.480465
  0.046853707    0.000000    0.000000    0.000000    0.000000  -98.515088   24.865902   -4.611602  -52.704784
  0.047054108    0.000000    0.000000    0.000000    0.000000  -99.162111   32.234592   -4.611368  -52.944286
  0.047254509    0.000000    0.000000    0.000000    0.000000  -99.361227   23.816635   -4.611234  -53.173145
  0.047454910    0.000000    0.000000    0.000000    0.000000  -98.314839   29.737530   -4.611710  -53.417145
  0.047655311    0.000000    0.000000    0.000000    0.000000  -98.134569   29.837845   -4.612284  -53.659187
  0.047855711    0.000000    0.000000    0.000000    0.000000  -98.493155   33.507023   -4.612434  -53.878319
  0.048056112    0.000000    0.000000    0.000000    0.000000  -99.457467   31.013123   -4.612695  -54.105942
  0.048256513    0.000000    0.000000    0.000000    0.000000  -99.106625   40.158688   -4.615287  -54.341557
  0.048456914    0.000000    0.000000    0.000000    0.000000  -98.856801   26.080912   -4.614955  -54.574917
  0.048657315    0.000000    0.000000    0.000000    0.000000  -99.146422   25.947693   -4.615566  -54.817745
  0.048857715    0.000000    0.000000    0.000000    0.000000  -99.460651   24.063879   -4.615809  -55.030540
  0.049058116    0.000000    0.000000    0.000000    0.000000  -98.875580   31.548176   -4.617343  -55.274380
  0.049258517    0.000000    0.000000    0.000000    0.000000  -98.650462   16.510233   -4.616725  -55.488304
  0.049458918    0.000000    0.000000    0.000000    0.000000  -98.473709   31.254147   -4.618375  -55.733452
  0.049659319    0.000000    0.000000    0.000000    0.000000  -97.812073   25.661940   -4.619865  -55.958111
  0.049859719    0.000000    0.000000    0.000000    0.000000  -97.976456   31.073822   -4.620476  -56.199863
  0.050060120    0.000000    0.000000    0.000000    0.000000  -99.218976   34.371494   -4.620225  -56.420513
  0.050260521    0.000000    0.000000    0.000000    0.000000  -99.774396   31.026073   -4.620353  -56.643379
  0.050460922    0.000000    0.000000    0.000000    0.000000  -99.274390   32.233799   -4.622718  -56.870029
  0.050661323    0.000000    0.000000    0.000000    0.000000  -98.546353   28.762678   -4.622773  -57.107128
  0.050861723    0.000000    0.000000    0.000000    0.000000  -98.886272   35.746231   -4.621339  -57.344910
  0.051062124    0.000000    0.000000    0.000000    0.000000  -98.726391   30.973131   -4.623243  -57.573883
  0.051262525    0.000000    0.000000    0.000000    0.000000  -99.741416   32.378822   -4.623787  -57.808834
  0.051462926    0.000000    0.000000    0.000000    0.000000  -99.377521   27.378029   -4.622635  -58.033871
  0.051663327    0.000000    0.000000    0.000000    0.000000  -97.635005   24.934982   -4.626996  -58.271027
  0.051863727    0.000000    0.000000    0.000000    0.000000  -98.673813   30.695150   -4.624562  -58.492348
  0.052064128    0.000000    0.000000    0.000000    0.000000  -97.611095   36.270893   -4.628476  -58.726532
  0.052264529    0.000000    0.000000    0.000000    0.000000  -99.023405   26.958979   -4.627679  -58.973351
  0.052464930    0.000000    0.000000    0.000000    0.000000  -99.870394   20.875412   -4.627870  -59.186504
  0.052665331    0.000000    0.000000    0.000000    0.000000  -98.455663   33.293568   -4.629836  -59.430042
  0.052865731    0.000000    0.000000    0.000000    0.000000  -98.159228   27.728622   -4.630418  -59.661572
