! Anritsu VNA Master:                     Model: MS2036C/10/77
! SN:                                  1601066
! /bd0/18may07/256.ns.m4.s2p
! Existing Calibration Information:
! TYPE:                         Current Settings,       Active Cal Settings
! TIME:             	   05/07/2018 03:05:25 PM,    05/07/2018 02:58:54 PM
! INTERNAL TEMP:    	                   59.5 C,                    58.8 C
! # POINTS:         	                      500,                       500
! START FREQ:       	               20.000 MHz,                20.000 MHz
! STOP FREQ:        	              120.000 MHz,               120.000 MHz
! SOURCE POWER:     	                     High,                      High
! IFBW:             	                    50 Hz,                     50 Hz
! AVG FACTOR:       	                       1 ,                        1 
! REF PLANE 1:      	                     0 mm,                      0 mm
! REF PLANE 2:      	                     0 mm,                      0 mm
! CAL TYPE:         	                 Full S11,                  Full S11
! CAL METHOD:       	                     SOLT,                      SOLT
! CAL LINE TYPE:    	                     Coax,                      Coax
! DUT PORT 1:       	                K-Conn(F),                 K-Conn(F)
! DUT PORT 2:       	                K-Conn(F),                 K-Conn(F)
! CAL STATUS:       	        OK: Accuracy High,                        --
# GHZ S DB R 50.0
! FREQ.GHZ       S11DB        S11A       S21DB        S21A       S12DB        S12A       S22DB        S22A
  0.020000000   -0.630821 -125.944641  -91.006037   31.940584    0.000000    0.000000    0.000000    0.000000
  0.020200401   -0.629901 -127.426674  -91.578256   25.682190    0.000000    0.000000    0.000000    0.000000
  0.020400802   -0.629975 -128.889374  -91.468867   26.193691    0.000000    0.000000    0.000000    0.000000
  0.020601202   -0.632798 -130.361420  -91.873286   29.141132    0.000000    0.000000    0.000000    0.000000
  0.020801603   -0.637669 -131.860382  -92.050144   27.463448    0.000000    0.000000    0.000000    0.000000
  0.021002004   -0.642616 -133.388779  -93.850268   30.910656    0.000000    0.000000    0.000000    0.000000
  0.021202405   -0.650925 -134.914505  -93.251927   25.628307    0.000000    0.000000    0.000000    0.000000
  0.021402806   -0.654892 -136.460968  -93.286925   30.118334    0.000000    0.000000    0.000000    0.000000
  0.021603206   -0.658862 -138.001297  -93.198565   31.621655    0.000000    0.000000    0.000000    0.000000
  0.021803607   -0.664120 -139.546051  -92.626347   36.695202    0.000000    0.000000    0.000000    0.000000
  0.022004008   -0.669130 -141.096527  -93.000909   34.913387    0.000000    0.000000    0.000000    0.000000
  0.022204409   -0.675956 -142.669418  -93.005994   31.256367    0.000000    0.000000    0.000000    0.000000
  0.022404810   -0.682809 -144.241058  -93.296720   33.910488    0.000000    0.000000    0.000000    0.000000
  0.022605210   -0.687907 -145.832123  -93.195851   30.315357    0.000000    0.000000    0.000000    0.000000
  0.022805611   -0.691183 -147.426163  -93.369383   35.460159    0.000000    0.000000    0.000000    0.000000
  0.023006012   -0.693585 -149.034195  -92.783334   33.991653    0.000000    0.000000    0.000000    0.000000
  0.023206413   -0.694005 -150.628571  -92.614371   32.438164    0.000000    0.000000    0.000000    0.000000
  0.023406814   -0.698188 -152.226715  -92.583522   29.671806    0.000000    0.000000    0.000000    0.000000
  0.023607214   -0.704380 -153.831467  -93.063413   31.333250    0.000000    0.000000    0.000000    0.000000
  0.023807615   -0.710962 -155.433746  -92.663591   34.341801    0.000000    0.000000    0.000000    0.000000
  0.024008016   -0.721095 -157.066452  -92.907266   28.942305    0.000000    0.000000    0.000000    0.000000
  0.024208417   -0.730228 -158.716721  -92.763080   27.779696    0.000000    0.000000    0.000000    0.000000
  0.024408818   -0.740734 -160.373978  -93.433664   21.131628    0.000000    0.000000    0.000000    0.000000
  0.024609218   -0.749347 -162.029770  -93.385325   25.996141    0.000000    0.000000    0.000000    0.000000
  0.024809619   -0.760822 -163.688614  -93.611150   24.287216    0.000000    0.000000    0.000000    0.000000
  0.025010020   -0.773312 -165.344162  -93.940980   18.914869    0.000000    0.000000    0.000000    0.000000
  0.025210421   -0.785247 -167.031891  -94.113116   17.547775    0.000000    0.000000    0.000000    0.000000
  0.025410822   -0.799888 -168.726089  -94.028901   18.282576    0.000000    0.000000    0.000000    0.000000
  0.025611222   -0.814776 -170.430023  -94.259584   17.343552    0.000000    0.000000    0.000000    0.000000
  0.025811623   -0.827424 -172.155334  -95.249409   18.490576    0.000000    0.000000    0.000000    0.000000
  0.026012024   -0.839335 -173.899719  -95.686384   14.600607    0.000000    0.000000    0.000000    0.000000
  0.026212425   -0.850451 -175.636841  -95.259746   12.832754    0.000000    0.000000    0.000000    0.000000
  0.026412826   -0.864149 -177.381699  -94.979128   13.662298    0.000000    0.000000    0.000000    0.000000
  0.026613226   -0.879656 -179.138260  -96.029294   10.316728    0.000000    0.000000    0.000000    0.000000
  0.026813627   -0.896065  179.090469  -96.078083   17.413910    0.000000    0.000000    0.000000    0.000000
  0.027014028   -0.911869  177.311462  -96.065633   21.453432    0.000000    0.000000    0.000000    0.000000
  0.027214429   -0.930430  175.509277  -97.707891   17.455111    0.000000    0.000000    0.000000    0.000000
  0.027414830   -0.946777  173.699753  -96.991746   17.351383    0.000000    0.000000    0.000000    0.000000
  0.027615230   -0.961788  171.895538  -95.823321   21.847652    0.000000    0.000000    0.000000    0.000000
  0.027815631   -0.981719  170.067429  -96.574617   22.132517    0.000000    0.000000    0.000000    0.000000
  0.028016032   -1.002743  168.228622  -97.007809   19.723770    0.000000    0.000000    0.000000    0.000000
  0.028216433   -1.023607  166.387131  -96.611935   25.275475    0.000000    0.000000    0.000000    0.000000
  0.028416834   -1.044021  164.540466  -96.875841   17.460869    0.000000    0.000000    0.000000    0.000000
  0.028617234   -1.063502  162.689972  -96.162318   19.294428    0.000000    0.000000    0.000000    0.000000
  0.028817635   -1.082174  160.843826  -96.374279   20.556532    0.000000    0.000000    0.000000    0.000000
  0.029018036   -1.100498  159.002197  -97.389098   19.459972    0.000000    0.000000    0.000000    0.000000
  0.029218437   -1.120111  157.165543  -96.630144   22.472939    0.000000    0.000000    0.000000    0.000000
  0.029418838   -1.142629  155.341278  -96.403880   19.960899    0.000000    0.000000    0.000000    0.000000
  0.029619238   -1.167664  153.484360  -96.240391   14.074769    0.000000    0.000000    0.000000    0.000000
  0.029819639   -1.196206  151.608612  -96.772796   16.762829    0.000000    0.000000    0.000000    0.000000
  0.030020040   -1.227383  149.705353  -96.593173   16.298954    0.000000    0.000000    0.000000    0.000000
  0.030220441   -1.256818  147.783463  -96.675517   15.887949    0.000000    0.000000    0.000000    0.000000
  0.030420842   -1.286688  145.849030  -96.679107   13.416214    0.000000    0.000000    0.000000    0.000000
  0.030621242   -1.318319  143.935028  -96.977124    8.195216    0.000000    0.000000    0.000000    0.000000
  0.030821643   -1.350760  142.027863  -97.253846   10.865370    0.000000    0.000000    0.000000    0.000000
  0.031022044   -1.385830  140.085068  -97.465086    7.606775    0.000000    0.000000    0.000000    0.000000
  0.031222445   -1.417545  138.163818  -97.152943    7.622142    0.000000    0.000000    0.000000    0.000000
  0.031422846   -1.453763  136.191101  -96.209462   10.840746    0.000000    0.000000    0.000000    0.000000
  0.031623246   -1.493183  134.184540  -96.977080   16.006739    0.000000    0.000000    0.000000    0.000000
  0.031823647   -1.531646  132.184692  -98.558055    6.324430    0.000000    0.000000    0.000000    0.000000
  0.032024048   -1.568798  130.170776  -98.443047   13.400403    0.000000    0.000000    0.000000    0.000000
  0.032224449   -1.606406  128.161896  -97.939795    1.973369    0.000000    0.000000    0.000000    0.000000
  0.032424850   -1.642225  126.146912  -96.965520    4.834778    0.000000    0.000000    0.000000    0.000000
  0.032625251   -1.678526  124.129860  -99.218429   15.346487    0.000000    0.000000    0.000000    0.000000
  0.032825651   -1.716211  122.134796  -97.956303   10.766910    0.000000    0.000000    0.000000    0.000000
  0.033026052   -1.753200  120.116730  -96.495289    7.470628    0.000000    0.000000    0.000000    0.000000
  0.033226453   -1.796201  118.131454  -99.070592   12.114893    0.000000    0.000000    0.000000    0.000000
  0.033426854   -1.842254  116.151779  -99.010852   10.667728    0.000000    0.000000    0.000000    0.000000
  0.033627255   -1.890423  114.133003  -98.688663    3.662783    0.000000    0.000000    0.000000    0.000000
  0.033827655   -1.941906  112.105095  -98.162205   18.275206    0.000000    0.000000    0.000000    0.000000
  0.034028056   -1.995512  110.076614  -98.815312   15.369865    0.000000    0.000000    0.000000    0.000000
  0.034228457   -2.044794  107.962242  -99.565814   13.588785    0.000000    0.000000    0.000000    0.000000
  0.034428858   -2.096715  105.842979  -97.743406   13.640016    0.000000    0.000000    0.000000    0.000000
  0.034629259   -2.143657  103.718925  -99.354813   14.786149    0.000000    0.000000    0.000000    0.000000
  0.034829659   -2.190981  101.583267  -98.049288   14.180113    0.000000    0.000000    0.000000    0.000000
  0.035030060   -2.238567   99.474129  -98.868352    4.671286    0.000000    0.000000    0.000000    0.000000
  0.035230461   -2.282691   97.364220  -97.444434   11.518619    0.000000    0.000000    0.000000    0.000000
  0.035430862   -2.326198   95.247665  -98.006271   13.193767    0.000000    0.000000    0.000000    0.000000
  0.035631263   -2.370934   93.165482  -99.776543    6.954979    0.000000    0.000000    0.000000    0.000000
  0.035831663   -2.415813   91.077255  -98.397290    2.622561    0.000000    0.000000    0.000000    0.000000
  0.036032064   -2.457996   89.006104 -100.022807   -3.890768    0.000000    0.000000    0.000000    0.000000
  0.036232465   -2.504003   86.960175  -97.529064   -6.558117    0.000000    0.000000    0.000000    0.000000
  0.036432866   -2.551292   84.905457  -99.579265   11.245218    0.000000    0.000000    0.000000    0.000000
  0.036633267   -2.603985   82.849815  -99.966424    4.635127    0.000000    0.000000    0.000000    0.000000
  0.036833667   -2.659682   80.778946 -100.077111   11.006093    0.000000    0.000000    0.000000    0.000000
  0.037034068   -2.719233   78.724411 -100.764185    5.420455    0.000000    0.000000    0.000000    0.000000
  0.037234469   -2.781201   76.649582 -101.366140    7.538639    0.000000    0.000000    0.000000    0.000000
  0.037434870   -2.847757   74.547745 -100.364371   12.344667    0.000000    0.000000    0.000000    0.000000
  0.037635271   -2.918026   72.452835  -99.045606    2.714810    0.000000    0.000000    0.000000    0.000000
  0.037835671   -2.990910   70.426788 -101.540716    8.830355    0.000000    0.000000    0.000000    0.000000
  0.038036072   -3.050074   68.401413  -99.756871   10.068152    0.000000    0.000000    0.000000    0.000000
  0.038236473   -3.099886   66.307213  -99.765323    9.175721    0.000000    0.000000    0.000000    0.000000
  0.038436874   -3.147456   64.157143 -100.582486   10.820623    0.000000    0.000000    0.000000    0.000000
  0.038637275   -3.196088   61.987370  -99.980648    9.601117    0.000000    0.000000    0.000000    0.000000
  0.038837675   -3.243155   59.863827 -100.197822    3.563950    0.000000    0.000000    0.000000    0.000000
  0.039038076   -3.286998   57.783318  -98.504322   12.930121    0.000000    0.000000    0.000000    0.000000
  0.039238477   -3.330090   55.694122 -101.154160    9.487055    0.000000    0.000000    0.000000    0.000000
  0.039438878   -3.374538   53.639805 -101.049477   10.825727    0.000000    0.000000    0.000000    0.000000
  0.039639279   -3.425047   51.615856 -100.426672   11.471802    0.000000    0.000000    0.000000    0.000000
  0.039839679   -3.481505   49.580151 -101.544761   12.191197    0.000000    0.000000    0.000000    0.000000
  0.040040080   -3.536299   47.536602 -100.490966    2.903647    0.000000    0.000000    0.000000    0.000000
  0.040240481   -3.591726   45.497028  -99.963647   -4.343493    0.000000    0.000000    0.000000    0.000000
  0.040440882   -3.649657   43.424564 -100.769463   10.211068    0.000000    0.000000    0.000000    0.000000
  0.040641283   -3.706064   41.364487 -100.938923    3.556973    0.000000    0.000000    0.000000    0.000000
  0.040841683   -3.763529   39.314991 -100.275602    9.607001    0.000000    0.000000    0.000000    0.000000
  0.041042084   -3.815207   37.269096  -98.768030    2.852067    0.000000    0.000000    0.000000    0.000000
  0.041242485   -3.868437   35.224731  -99.971828    9.546165    0.000000    0.000000    0.000000    0.000000
  0.041442886   -3.922830   33.193947 -100.777688   -1.411864    0.000000    0.000000    0.000000    0.000000
  0.041643287   -3.978080   31.134912 -100.875744   -4.411366    0.000000    0.000000    0.000000    0.000000
  0.041843687   -4.027869   29.103552 -101.528867    9.213225    0.000000    0.000000    0.000000    0.000000
  0.042044088   -4.077901   27.070869 -101.015603   -0.457570    0.000000    0.000000    0.000000    0.000000
  0.042244489   -4.127667   25.068815 -101.125096    7.718310    0.000000    0.000000    0.000000    0.000000
  0.042444890   -4.178200   23.067753 -101.750839    3.388503    0.000000    0.000000    0.000000    0.000000
  0.042645291   -4.227304   21.076168 -101.209069   -0.611762    0.000000    0.000000    0.000000    0.000000
  0.042845691   -4.279344   19.086973 -101.397177    6.130287    0.000000    0.000000    0.000000    0.000000
  0.043046092   -4.327550   17.111263 -101.549156    7.519525    0.000000    0.000000    0.000000    0.000000
  0.043246493   -4.379156   15.127843 -104.666349   -5.018142    0.000000    0.000000    0.000000    0.000000
  0.043446894   -4.426844   13.144808 -102.877950    6.439483    0.000000    0.000000    0.000000    0.000000
  0.043647295   -4.475115   11.160598 -102.586257    0.916869    0.000000    0.000000    0.000000    0.000000
  0.043847695   -4.521674    9.175441 -102.351531    7.532934    0.000000    0.000000    0.000000    0.000000
  0.044048096   -4.569849    7.193706 -101.892568    3.191007    0.000000    0.000000    0.000000    0.000000
  0.044248497   -4.617601    5.232261 -101.330458    9.785135    0.000000    0.000000    0.000000    0.000000
  0.044448898   -4.664167    3.268176 -102.456706   19.479626    0.000000    0.000000    0.000000    0.000000
  0.044649299   -4.710726    1.300792 -102.702775   21.794062    0.000000    0.000000    0.000000    0.000000
  0.044849699   -4.755152   -0.628810 -102.089314    8.695237    0.000000    0.000000    0.000000    0.000000
  0.045050100   -4.798439   -2.555380 -100.996316    8.865315    0.000000    0.000000    0.000000    0.000000
  0.045250501   -4.837089   -4.495825 -102.865831   12.802299    0.000000    0.000000    0.000000    0.000000
  0.045450902   -4.874343   -6.418088 -102.571238   18.229031    0.000000    0.000000    0.000000    0.000000
  0.045651303   -4.914303   -8.328270 -101.144037    7.523445    0.000000    0.000000    0.000000    0.000000
  0.045851703   -4.952559  -10.234858 -100.225484    0.045448    0.000000    0.000000    0.000000    0.000000
  0.046052104   -4.991728  -12.114003 -101.253637   -4.039832    0.000000    0.000000    0.000000    0.000000
  0.046252505   -5.029474  -13.973783 -101.297092    1.635990    0.000000    0.000000    0.000000    0.000000
  0.046452906   -5.067548  -15.829102 -101.547470    3.889436    0.000000    0.000000    0.000000    0.000000
  0.046653307   -5.104052  -17.694757 -101.594738    8.730262    0.000000    0.000000    0.000000    0.000000
  0.046853707   -5.138667  -19.537741 -101.516640   11.258566    0.000000    0.000000    0.000000    0.000000
  0.047054108   -5.175663  -21.366581 -100.785247    4.549337    0.000000    0.000000    0.000000    0.000000
  0.047254509   -5.207893  -23.179504 -103.918501   -8.781783    0.000000    0.000000    0.000000    0.000000
  0.047454910   -5.239928  -24.961540 -103.394201  -10.145970    0.000000    0.000000    0.000000    0.000000
  0.047655311   -5.270379  -26.763136 -101.320911   -4.594784    0.000000    0.000000    0.000000    0.000000
  0.047855711   -5.299875  -28.511835 -102.770062   -1.716709    0.000000    0.000000    0.000000    0.000000
  0.048056112   -5.328858  -30.227385 -103.645191  -15.706594    0.000000    0.000000    0.000000    0.000000
  0.048256513   -5.359641  -31.967089 -103.300229   -2.320058    0.000000    0.000000    0.000000    0.000000
  0.048456914   -5.392725  -33.663517 -102.337946   -9.940374    0.000000    0.000000    0.000000    0.000000
  0.048657315   -5.424892  -35.390923 -103.769540    8.015774    0.000000    0.000000    0.000000    0.000000
  0.048857715   -5.452049  -37.115280 -103.728993    7.550442    0.000000    0.000000    0.000000    0.000000
  0.049058116   -5.483884  -38.817837 -104.573798    3.196051    0.000000    0.000000    0.000000    0.000000
  0.049258517   -5.511082  -40.540909 -105.276752    0.705684    0.000000    0.000000    0.000000    0.000000
  0.049458918   -5.538645  -42.224159 -106.326587  -12.118535    0.000000    0.000000    0.000000    0.000000
  0.049659319   -5.567541  -43.919193 -105.470502   -6.534279    0.000000    0.000000    0.000000    0.000000
  0.049859719   -5.595426  -45.599991 -103.186462   14.987473    0.000000    0.000000    0.000000    0.000000
  0.050060120   -5.624654  -47.272808 -103.378580   10.548276    0.000000    0.000000    0.000000    0.000000
  0.050260521   -5.650285  -48.948498 -104.272404    1.059525    0.000000    0.000000    0.000000    0.000000
  0.050460922   -5.670934  -50.655533 -103.105981    7.411672    0.000000    0.000000    0.000000    0.000000
  0.050661323   -5.691765  -52.329578 -103.820454    8.364343    0.000000    0.000000    0.000000    0.000000
  0.050861723   -5.709180  -53.981255 -104.590686    1.877529    0.000000    0.000000    0.000000    0.000000
  0.051062124   -5.726375  -55.615875 -102.290690   13.613084    0.000000    0.000000    0.000000    0.000000
  0.051262525   -5.745504  -57.234570 -101.842796    3.958374    0.000000    0.000000    0.000000    0.000000
  0.051462926   -5.758480  -58.815605 -103.017999    7.257687    0.000000    0.000000    0.000000    0.000000
  0.051663327   -5.772451  -60.373413 -103.627982   11.763415    0.000000    0.000000    0.000000    0.000000
  0.051863727   -5.786619  -61.938080 -102.334405   19.201429    0.000000    0.000000    0.000000    0.000000
  0.052064128   -5.804777  -63.482239 -102.428046    3.189251    0.000000    0.000000    0.000000    0.000000
  0.052264529   -5.818428  -65.006325 -101.507848    9.835823    0.000000    0.000000    0.000000    0.000000
  0.052464930   -5.835412  -66.543045 -100.940720   15.595531    0.000000    0.000000    0.000000    0.000000
  0.052665331   -5.852655  -68.076363 -103.583353   -5.556024    0.000000    0.000000    0.000000    0.000000
  0.052865731   -5.867181  -69.592522 -103.612243    0.421520    0.000000    0.000000    0.000000    0.000000
