! Anritsu VNA Master:                     Model: MS2036C/10/77
! SN:                                  1601066
! /bd0/18may09/252.ns.m5.s2p
! Existing Calibration Information:
! TYPE:                         Current Settings,       Active Cal Settings
! TIME:             	   05/09/2018 08:59:09 AM,    05/09/2018 08:47:23 AM
! INTERNAL TEMP:    	                   40.0 C,                    40.0 C
! # POINTS:         	                      500,                       500
! START FREQ:       	               20.000 MHz,                20.000 MHz
! STOP FREQ:        	              120.000 MHz,               120.000 MHz
! SOURCE POWER:     	                     High,                      High
! IFBW:             	                    50 Hz,                     50 Hz
! AVG FACTOR:       	                       1 ,                        1 
! REF PLANE 1:      	                     0 mm,                      0 mm
! REF PLANE 2:      	                     0 mm,                      0 mm
! CAL TYPE:         	                 Full S11,                  Full S11
! CAL METHOD:       	                     SOLT,                      SOLT
! CAL LINE TYPE:    	                     Coax,                      Coax
! DUT PORT 1:       	                K-Conn(F),                 K-Conn(F)
! DUT PORT 2:       	                K-Conn(F),                 K-Conn(F)
! CAL STATUS:       	        OK: Accuracy High,                        --
# GHZ S DB R 50.0
! FREQ.GHZ       S11DB        S11A       S21DB        S21A       S12DB        S12A       S22DB        S22A
  0.020000000   -0.589793 -123.927185  -90.520160   32.653950    0.000000    0.000000    0.000000    0.000000
  0.020200401   -0.590546 -125.344696  -91.073461   31.210724    0.000000    0.000000    0.000000    0.000000
  0.020400802   -0.592729 -126.774078  -91.537432   29.126232    0.000000    0.000000    0.000000    0.000000
  0.020601202   -0.595491 -128.214600  -91.477986   28.810616    0.000000    0.000000    0.000000    0.000000
  0.020801603   -0.599050 -129.680771  -92.058760   31.593287    0.000000    0.000000    0.000000    0.000000
  0.021002004   -0.605797 -131.183212  -92.661357   33.137428    0.000000    0.000000    0.000000    0.000000
  0.021202405   -0.614705 -132.679688  -92.708343   32.847221    0.000000    0.000000    0.000000    0.000000
  0.021402806   -0.618402 -134.168304  -92.903640   31.253416    0.000000    0.000000    0.000000    0.000000
  0.021603206   -0.623284 -135.661041  -93.396094   31.044476    0.000000    0.000000    0.000000    0.000000
  0.021803607   -0.627621 -137.158539  -93.498414   37.054260    0.000000    0.000000    0.000000    0.000000
  0.022004008   -0.631044 -138.664063  -92.727016   36.050587    0.000000    0.000000    0.000000    0.000000
  0.022204409   -0.639280 -140.172684  -92.333498   36.236931    0.000000    0.000000    0.000000    0.000000
  0.022404810   -0.643507 -141.684311  -93.897382   40.098541    0.000000    0.000000    0.000000    0.000000
  0.022605210   -0.647137 -143.254074  -94.401827   39.664787    0.000000    0.000000    0.000000    0.000000
  0.022805611   -0.647475 -144.797394  -93.175665   37.841770    0.000000    0.000000    0.000000    0.000000
  0.023006012   -0.651859 -146.326172  -92.577377   36.587166    0.000000    0.000000    0.000000    0.000000
  0.023206413   -0.652740 -147.836319  -92.696855   38.011372    0.000000    0.000000    0.000000    0.000000
  0.023406814   -0.656244 -149.372787  -92.337327   36.950191    0.000000    0.000000    0.000000    0.000000
  0.023607214   -0.660653 -150.898315  -93.422644   38.025784    0.000000    0.000000    0.000000    0.000000
  0.023807615   -0.668458 -152.452606  -92.525906   32.016453    0.000000    0.000000    0.000000    0.000000
  0.024008016   -0.676195 -154.012512  -91.642901   31.891331    0.000000    0.000000    0.000000    0.000000
  0.024208417   -0.684119 -155.600266  -92.791286   29.313303    0.000000    0.000000    0.000000    0.000000
  0.024408818   -0.692886 -157.186310  -93.163476   27.051311    0.000000    0.000000    0.000000    0.000000
  0.024609218   -0.700623 -158.772263  -92.888626   28.639801    0.000000    0.000000    0.000000    0.000000
  0.024809619   -0.708635 -160.360229  -93.138642   29.134571    0.000000    0.000000    0.000000    0.000000
  0.025010020   -0.718468 -161.964188  -93.319507   22.124365    0.000000    0.000000    0.000000    0.000000
  0.025210421   -0.730882 -163.575821  -93.626863   23.765125    0.000000    0.000000    0.000000    0.000000
  0.025410822   -0.744389 -165.220306  -93.336465   20.467426    0.000000    0.000000    0.000000    0.000000
  0.025611222   -0.756640 -166.873550  -93.867756   27.313282    0.000000    0.000000    0.000000    0.000000
  0.025811623   -0.767150 -168.551514  -94.462318   16.556667    0.000000    0.000000    0.000000    0.000000
  0.026012024   -0.775319 -170.225403  -95.135735   25.366009    0.000000    0.000000    0.000000    0.000000
  0.026212425   -0.786295 -171.915100  -95.587548   17.472116    0.000000    0.000000    0.000000    0.000000
  0.026412826   -0.799783 -173.611404  -94.538730   15.654286    0.000000    0.000000    0.000000    0.000000
  0.026613226   -0.812032 -175.326324  -95.353588   21.750530    0.000000    0.000000    0.000000    0.000000
  0.026813627   -0.828371 -177.049774  -95.338553   19.056581    0.000000    0.000000    0.000000    0.000000
  0.027014028   -0.842699 -178.783813  -95.690307   22.193523    0.000000    0.000000    0.000000    0.000000
  0.027214429   -0.858202  179.460770  -95.747342   15.622898    0.000000    0.000000    0.000000    0.000000
  0.027414830   -0.874138  177.703049  -96.628266   27.387224    0.000000    0.000000    0.000000    0.000000
  0.027615230   -0.890828  175.924103  -96.093574   21.463236    0.000000    0.000000    0.000000    0.000000
  0.027815631   -0.909441  174.149643  -95.343072   25.197718    0.000000    0.000000    0.000000    0.000000
  0.028016032   -0.931037  172.359222  -95.956048   17.353188    0.000000    0.000000    0.000000    0.000000
  0.028216433   -0.952352  170.565979  -96.063365   22.271223    0.000000    0.000000    0.000000    0.000000
  0.028416834   -0.972868  168.780075  -95.956594   23.799829    0.000000    0.000000    0.000000    0.000000
  0.028617234   -0.992465  166.980347  -96.147643   18.909330    0.000000    0.000000    0.000000    0.000000
  0.028817635   -1.013677  165.198608  -95.777946   22.520838    0.000000    0.000000    0.000000    0.000000
  0.029018036   -1.032344  163.413712  -96.098169   24.042215    0.000000    0.000000    0.000000    0.000000
  0.029218437   -1.057226  161.640579  -96.166456   26.610670    0.000000    0.000000    0.000000    0.000000
  0.029418838   -1.082796  159.841461  -96.127283   18.422096    0.000000    0.000000    0.000000    0.000000
  0.029619238   -1.110431  158.040909  -95.859768   21.985243    0.000000    0.000000    0.000000    0.000000
  0.029819639   -1.140365  156.227753  -95.656811   21.056870    0.000000    0.000000    0.000000    0.000000
  0.030020040   -1.171509  154.376175  -95.838014   15.372110    0.000000    0.000000    0.000000    0.000000
  0.030220441   -1.201743  152.524216  -96.108999   15.580041    0.000000    0.000000    0.000000    0.000000
  0.030420842   -1.233225  150.675079  -96.360487   18.125858    0.000000    0.000000    0.000000    0.000000
  0.030621242   -1.265882  148.829865  -96.141005   17.870064    0.000000    0.000000    0.000000    0.000000
  0.030821643   -1.300128  146.983566  -96.836987   12.170300    0.000000    0.000000    0.000000    0.000000
  0.031022044   -1.336604  145.125702  -96.713894    7.598884    0.000000    0.000000    0.000000    0.000000
  0.031222445   -1.370297  143.271118  -96.874554   13.498260    0.000000    0.000000    0.000000    0.000000
  0.031422846   -1.407033  141.362823  -97.240725    8.803822    0.000000    0.000000    0.000000    0.000000
  0.031623246   -1.443049  139.431015  -96.888513   13.758683    0.000000    0.000000    0.000000    0.000000
  0.031823647   -1.473717  137.480652  -98.586568   14.326803    0.000000    0.000000    0.000000    0.000000
  0.032024048   -1.504620  135.554718  -97.011115    8.332270    0.000000    0.000000    0.000000    0.000000
  0.032224449   -1.537389  133.628403  -99.041440   17.709476    0.000000    0.000000    0.000000    0.000000
  0.032424850   -1.570037  131.708313  -98.504172    1.081025    0.000000    0.000000    0.000000    0.000000
  0.032625251   -1.602784  129.758179  -96.663218   14.614993    0.000000    0.000000    0.000000    0.000000
  0.032825651   -1.639712  127.832199  -97.213814   14.819009    0.000000    0.000000    0.000000    0.000000
  0.033026052   -1.679311  125.882835  -97.612151    7.155939    0.000000    0.000000    0.000000    0.000000
  0.033226453   -1.727561  123.904808  -97.262319   20.991451    0.000000    0.000000    0.000000    0.000000
  0.033426854   -1.774667  121.934914  -99.119816   15.123350    0.000000    0.000000    0.000000    0.000000
  0.033627255   -1.824168  119.898193  -97.844914   24.145187    0.000000    0.000000    0.000000    0.000000
  0.033827655   -1.871866  117.822693  -98.265748   12.716917    0.000000    0.000000    0.000000    0.000000
  0.034028056   -1.918269  115.731392  -97.728745    9.534175    0.000000    0.000000    0.000000    0.000000
  0.034228457   -1.963112  113.615372  -99.334927   22.091402    0.000000    0.000000    0.000000    0.000000
  0.034428858   -2.006488  111.487213  -97.401514   11.906630    0.000000    0.000000    0.000000    0.000000
  0.034629259   -2.048612  109.369827  -99.736381   13.584037    0.000000    0.000000    0.000000    0.000000
  0.034829659   -2.085965  107.259186  -98.323470   15.738846    0.000000    0.000000    0.000000    0.000000
  0.035030060   -2.124541  105.149780  -98.340839   16.715837    0.000000    0.000000    0.000000    0.000000
  0.035230461   -2.166417  103.051842  -99.431935    8.939125    0.000000    0.000000    0.000000    0.000000
  0.035430862   -2.204225  100.991730  -97.346053    7.827487    0.000000    0.000000    0.000000    0.000000
  0.035631263   -2.245638   98.919220  -97.927468    7.044158    0.000000    0.000000    0.000000    0.000000
  0.035831663   -2.290222   96.846306  -98.381108   13.063525    0.000000    0.000000    0.000000    0.000000
  0.036032064   -2.336477   94.794395  -98.563098    9.493567    0.000000    0.000000    0.000000    0.000000
  0.036232465   -2.382284   92.757889  -98.294730    5.505723    0.000000    0.000000    0.000000    0.000000
  0.036432866   -2.431629   90.741669  -99.444659   13.600876    0.000000    0.000000    0.000000    0.000000
  0.036633267   -2.488134   88.669769  -98.847891    5.486210    0.000000    0.000000    0.000000    0.000000
  0.036833667   -2.550429   86.627510  -98.633352    9.029785    0.000000    0.000000    0.000000    0.000000
  0.037034068   -2.612089   84.544502  -99.661749    7.214202    0.000000    0.000000    0.000000    0.000000
  0.037234469   -2.673028   82.430618 -100.050523    7.569284    0.000000    0.000000    0.000000    0.000000
  0.037434870   -2.739463   80.290550  -99.058843   10.828276    0.000000    0.000000    0.000000    0.000000
  0.037635271   -2.804751   78.119820 -100.457150    2.457680    0.000000    0.000000    0.000000    0.000000
  0.037835671   -2.870800   75.955956 -100.609606   13.007096    0.000000    0.000000    0.000000    0.000000
  0.038036072   -2.943744   73.786682  -99.474427    5.196839    0.000000    0.000000    0.000000    0.000000
  0.038236473   -3.000671   71.678902 -101.077019   15.965905    0.000000    0.000000    0.000000    0.000000
  0.038436874   -3.053281   69.537956 -100.094402   24.331141    0.000000    0.000000    0.000000    0.000000
  0.038637275   -3.098661   67.378944 -100.954526   15.858905    0.000000    0.000000    0.000000    0.000000
  0.038837675   -3.146328   65.237053  -99.881639   11.972193    0.000000    0.000000    0.000000    0.000000
  0.039038076   -3.193154   63.145290  -99.511516   11.032481    0.000000    0.000000    0.000000    0.000000
  0.039238477   -3.244328   61.036625 -100.433470   16.278681    0.000000    0.000000    0.000000    0.000000
  0.039438878   -3.297780   58.963993 -100.118810   12.401304    0.000000    0.000000    0.000000    0.000000
  0.039639279   -3.358625   56.877357  -98.775827   17.482645    0.000000    0.000000    0.000000    0.000000
  0.039839679   -3.423539   54.783398  -99.347479   18.546850    0.000000    0.000000    0.000000    0.000000
  0.040040080   -3.486657   52.683029  -99.185584    6.061032    0.000000    0.000000    0.000000    0.000000
  0.040240481   -3.551633   50.545292 -102.173828    3.569663    0.000000    0.000000    0.000000    0.000000
  0.040440882   -3.614338   48.432541  -99.753930    7.657892    0.000000    0.000000    0.000000    0.000000
  0.040641283   -3.675080   46.330830  -99.562550   15.851850    0.000000    0.000000    0.000000    0.000000
  0.040841683   -3.737940   44.214840 -101.829658   10.764211    0.000000    0.000000    0.000000    0.000000
  0.041042084   -3.797557   42.113445  -99.177015    6.870105    0.000000    0.000000    0.000000    0.000000
  0.041242485   -3.855477   39.990532 -100.732802   11.543653    0.000000    0.000000    0.000000    0.000000
  0.041442886   -3.913453   37.868103 -100.502338   -5.141779    0.000000    0.000000    0.000000    0.000000
  0.041643287   -3.969422   35.761520 -101.429373   10.725680    0.000000    0.000000    0.000000    0.000000
  0.041843687   -4.022732   33.674484  -99.771643   13.814380    0.000000    0.000000    0.000000    0.000000
  0.042044088   -4.077745   31.609385 -100.127771    5.192321    0.000000    0.000000    0.000000    0.000000
  0.042244489   -4.129418   29.549126 -101.481278    8.109375    0.000000    0.000000    0.000000    0.000000
  0.042444890   -4.182105   27.524771 -102.047985    1.219870    0.000000    0.000000    0.000000    0.000000
  0.042645291   -4.237471   25.489117 -100.233164   -3.445904    0.000000    0.000000    0.000000    0.000000
  0.042845691   -4.291136   23.450407 -101.537203   -2.763158    0.000000    0.000000    0.000000    0.000000
  0.043046092   -4.342389   21.427179 -101.598992    1.508656    0.000000    0.000000    0.000000    0.000000
  0.043246493   -4.397315   19.400730 -103.424814    5.167772    0.000000    0.000000    0.000000    0.000000
  0.043446894   -4.448867   17.350004 -102.687949    9.484259    0.000000    0.000000    0.000000    0.000000
  0.043647295   -4.503079   15.333773 -100.616631   16.126184    0.000000    0.000000    0.000000    0.000000
  0.043847695   -4.557002   13.326507 -102.769298    1.825858    0.000000    0.000000    0.000000    0.000000
  0.044048096   -4.608909   11.296390 -101.089869   13.816664    0.000000    0.000000    0.000000    0.000000
  0.044248497   -4.662615    9.296786 -101.970158   24.681807    0.000000    0.000000    0.000000    0.000000
  0.044448898   -4.711355    7.283418 -102.251053    9.072386    0.000000    0.000000    0.000000    0.000000
  0.044649299   -4.760324    5.280682 -100.970394   12.578981    0.000000    0.000000    0.000000    0.000000
  0.044849699   -4.803898    3.286064 -100.884962   14.132456    0.000000    0.000000    0.000000    0.000000
  0.045050100   -4.844711    1.291384 -101.777665    3.791202    0.000000    0.000000    0.000000    0.000000
  0.045250501   -4.885425   -0.672844 -101.585384    6.881786    0.000000    0.000000    0.000000    0.000000
  0.045450902   -4.927393   -2.613239 -100.827742   -2.965722    0.000000    0.000000    0.000000    0.000000
  0.045651303   -4.968050   -4.563931 -101.929849    5.814959    0.000000    0.000000    0.000000    0.000000
  0.045851703   -5.009798   -6.449855 -102.011622   11.846653    0.000000    0.000000    0.000000    0.000000
  0.046052104   -5.047469   -8.378047 -100.046901   -6.512373    0.000000    0.000000    0.000000    0.000000
  0.046252505   -5.082927  -10.263725 -100.666181   12.766020    0.000000    0.000000    0.000000    0.000000
  0.046452906   -5.118783  -12.156403 -100.888357   -4.142372    0.000000    0.000000    0.000000    0.000000
  0.046653307   -5.149736  -14.040115 -102.566444    0.843584    0.000000    0.000000    0.000000    0.000000
  0.046853707   -5.178962  -15.893092 -100.829318   -4.724744    0.000000    0.000000    0.000000    0.000000
  0.047054108   -5.209760  -17.744387 -101.436585   -1.310171    0.000000    0.000000    0.000000    0.000000
  0.047254509   -5.237393  -19.583500  -99.804638    7.019897    0.000000    0.000000    0.000000    0.000000
  0.047454910   -5.261951  -21.400829 -102.982728    9.134095    0.000000    0.000000    0.000000    0.000000
  0.047655311   -5.287771  -23.188246 -100.664950  -12.645418    0.000000    0.000000    0.000000    0.000000
  0.047855711   -5.315951  -24.954626 -101.442780    4.957443    0.000000    0.000000    0.000000    0.000000
  0.048056112   -5.343015  -26.726593 -102.020530    1.933153    0.000000    0.000000    0.000000    0.000000
  0.048256513   -5.371048  -28.480278 -105.102076    9.404190    0.000000    0.000000    0.000000    0.000000
  0.048456914   -5.399750  -30.224260 -103.278128    0.570780    0.000000    0.000000    0.000000    0.000000
  0.048657315   -5.424990  -31.982098 -102.474259   11.986876    0.000000    0.000000    0.000000    0.000000
  0.048857715   -5.446056  -33.743675 -102.396067   -6.964760    0.000000    0.000000    0.000000    0.000000
  0.049058116   -5.472232  -35.483173 -104.297016    2.634219    0.000000    0.000000    0.000000    0.000000
  0.049258517   -5.494937  -37.209969 -104.222161   16.847742    0.000000    0.000000    0.000000    0.000000
  0.049458918   -5.520095  -38.940536 -106.756158   25.012342    0.000000    0.000000    0.000000    0.000000
  0.049659319   -5.545972  -40.674892 -101.924314    2.442647    0.000000    0.000000    0.000000    0.000000
  0.049859719   -5.567662  -42.392651 -102.019769    7.960228    0.000000    0.000000    0.000000    0.000000
  0.050060120   -5.590029  -44.137108 -103.865504   -3.675968    0.000000    0.000000    0.000000    0.000000
  0.050260521   -5.605959  -45.882011 -100.658016   11.714690    0.000000    0.000000    0.000000    0.000000
  0.050460922   -5.621309  -47.608719 -104.599011   30.555479    0.000000    0.000000    0.000000    0.000000
  0.050661323   -5.633949  -49.326317 -104.150760    7.715190    0.000000    0.000000    0.000000    0.000000
  0.050861723   -5.648167  -51.029743 -103.987659   12.158115    0.000000    0.000000    0.000000    0.000000
  0.051062124   -5.659124  -52.708820 -102.610003   11.494205    0.000000    0.000000    0.000000    0.000000
  0.051262525   -5.670669  -54.349625 -102.215405   13.402671    0.000000    0.000000    0.000000    0.000000
  0.051462926   -5.682081  -55.965347 -101.121494   -0.613705    0.000000    0.000000    0.000000    0.000000
  0.051663327   -5.690280  -57.564228 -102.142955   19.615252    0.000000    0.000000    0.000000    0.000000
  0.051863727   -5.705508  -59.193752 -102.734401    8.533556    0.000000    0.000000    0.000000    0.000000
  0.052064128   -5.719686  -60.810478 -102.274352   -6.531750    0.000000    0.000000    0.000000    0.000000
  0.052264529   -5.726738  -62.425034 -103.042479    4.523088    0.000000    0.000000    0.000000    0.000000
  0.052464930   -5.740156  -64.015800 -102.093783    3.752715    0.000000    0.000000    0.000000    0.000000
  0.052665331   -5.751161  -65.599991 -102.508204   -2.620087    0.000000    0.000000    0.000000    0.000000
  0.052865731   -5.758842  -67.193214 -101.861397    2.208028    0.000000    0.000000    0.000000    0.000000
