! Anritsu VNA Master:                     Model: MS2036C/10/77
! SN:                                  1601066
! /bd0/18may09/252.ns.m2.s2p
! Existing Calibration Information:
! TYPE:                         Current Settings,       Active Cal Settings
! TIME:             	   05/09/2018 08:53:16 AM,    05/09/2018 08:47:23 AM
! INTERNAL TEMP:    	                   40.0 C,                    40.0 C
! # POINTS:         	                      500,                       500
! START FREQ:       	               20.000 MHz,                20.000 MHz
! STOP FREQ:        	              120.000 MHz,               120.000 MHz
! SOURCE POWER:     	                     High,                      High
! IFBW:             	                    50 Hz,                     50 Hz
! AVG FACTOR:       	                       1 ,                        1 
! REF PLANE 1:      	                     0 mm,                      0 mm
! REF PLANE 2:      	                     0 mm,                      0 mm
! CAL TYPE:         	                 Full S11,                  Full S11
! CAL METHOD:       	                     SOLT,                      SOLT
! CAL LINE TYPE:    	                     Coax,                      Coax
! DUT PORT 1:       	                K-Conn(F),                 K-Conn(F)
! DUT PORT 2:       	                K-Conn(F),                 K-Conn(F)
! CAL STATUS:       	        OK: Accuracy High,                        --
# GHZ S DB R 50.0
! FREQ.GHZ       S11DB        S11A       S21DB        S21A       S12DB        S12A       S22DB        S22A
  0.020000000   -0.584658 -124.148949  -91.027856   30.115475    0.000000    0.000000    0.000000    0.000000
  0.020200401   -0.585212 -125.553848  -91.652002   30.947296    0.000000    0.000000    0.000000    0.000000
  0.020400802   -0.587724 -126.994102  -91.676686   28.700909    0.000000    0.000000    0.000000    0.000000
  0.020601202   -0.589032 -128.415634  -91.912814   30.612764    0.000000    0.000000    0.000000    0.000000
  0.020801603   -0.594382 -129.884155  -91.859685   30.904058    0.000000    0.000000    0.000000    0.000000
  0.021002004   -0.601376 -131.369858  -92.367115   30.349388    0.000000    0.000000    0.000000    0.000000
  0.021202405   -0.610482 -132.862549  -92.455208   33.068520    0.000000    0.000000    0.000000    0.000000
  0.021402806   -0.614016 -134.353638  -92.960743   31.442427    0.000000    0.000000    0.000000    0.000000
  0.021603206   -0.619731 -135.847443  -92.195347   32.968945    0.000000    0.000000    0.000000    0.000000
  0.021803607   -0.623422 -137.336929  -92.615062   32.545856    0.000000    0.000000    0.000000    0.000000
  0.022004008   -0.628868 -138.850098  -93.000989   38.278332    0.000000    0.000000    0.000000    0.000000
  0.022204409   -0.636990 -140.355240  -92.683293   37.142326    0.000000    0.000000    0.000000    0.000000
  0.022404810   -0.642122 -141.871353  -92.506547   37.267414    0.000000    0.000000    0.000000    0.000000
  0.022605210   -0.646454 -143.443771  -93.469420   38.240952    0.000000    0.000000    0.000000    0.000000
  0.022805611   -0.647733 -145.004669  -93.458635   37.916325    0.000000    0.000000    0.000000    0.000000
  0.023006012   -0.652283 -146.531418  -93.016273   37.522427    0.000000    0.000000    0.000000    0.000000
  0.023206413   -0.653609 -148.066879  -92.361014   36.792526    0.000000    0.000000    0.000000    0.000000
  0.023406814   -0.657203 -149.617004  -92.980297   37.629436    0.000000    0.000000    0.000000    0.000000
  0.023607214   -0.663691 -151.157150  -92.803513   36.233109    0.000000    0.000000    0.000000    0.000000
  0.023807615   -0.671388 -152.731216  -92.590467   34.874596    0.000000    0.000000    0.000000    0.000000
  0.024008016   -0.678710 -154.313568  -92.262324   29.599871    0.000000    0.000000    0.000000    0.000000
  0.024208417   -0.687216 -155.916840  -92.142880   29.988693    0.000000    0.000000    0.000000    0.000000
  0.024408818   -0.695830 -157.520905  -92.776815   23.378258    0.000000    0.000000    0.000000    0.000000
  0.024609218   -0.704402 -159.121857  -93.359564   32.588402    0.000000    0.000000    0.000000    0.000000
  0.024809619   -0.712351 -160.729630  -93.085755   27.267401    0.000000    0.000000    0.000000    0.000000
  0.025010020   -0.721595 -162.353577  -93.658384   20.340588    0.000000    0.000000    0.000000    0.000000
  0.025210421   -0.733337 -163.974838  -93.437939   20.084145    0.000000    0.000000    0.000000    0.000000
  0.025410822   -0.746591 -165.633255  -93.925917   20.278114    0.000000    0.000000    0.000000    0.000000
  0.025611222   -0.757659 -167.301529  -93.764821   15.933918    0.000000    0.000000    0.000000    0.000000
  0.025811623   -0.768696 -168.979034  -95.020637   24.775423    0.000000    0.000000    0.000000    0.000000
  0.026012024   -0.777636 -170.662689  -94.597058   17.259623    0.000000    0.000000    0.000000    0.000000
  0.026212425   -0.786711 -172.361450  -95.278546   20.477802    0.000000    0.000000    0.000000    0.000000
  0.026412826   -0.799828 -174.057571  -94.964921   20.590101    0.000000    0.000000    0.000000    0.000000
  0.026613226   -0.812500 -175.772995  -95.388026   19.922869    0.000000    0.000000    0.000000    0.000000
  0.026813627   -0.828662 -177.492676  -95.380431   25.506794    0.000000    0.000000    0.000000    0.000000
  0.027014028   -0.843790 -179.227493  -95.849540   22.041142    0.000000    0.000000    0.000000    0.000000
  0.027214429   -0.860123  179.026291  -95.727535   20.049158    0.000000    0.000000    0.000000    0.000000
  0.027414830   -0.874098  177.274658  -95.826262   22.127953    0.000000    0.000000    0.000000    0.000000
  0.027615230   -0.891187  175.495697  -96.289195   23.136202    0.000000    0.000000    0.000000    0.000000
  0.027815631   -0.909820  173.723236  -96.307981   30.917923    0.000000    0.000000    0.000000    0.000000
  0.028016032   -0.932274  171.931076  -96.966305   30.448545    0.000000    0.000000    0.000000    0.000000
  0.028216433   -0.954138  170.140381  -95.942298   23.851460    0.000000    0.000000    0.000000    0.000000
  0.028416834   -0.974988  168.346252  -95.986671   26.121611    0.000000    0.000000    0.000000    0.000000
  0.028617234   -0.995701  166.539810  -95.911665   25.670185    0.000000    0.000000    0.000000    0.000000
  0.028817635   -1.016765  164.755249  -95.869232   25.570280    0.000000    0.000000    0.000000    0.000000
  0.029018036   -1.037146  162.961548  -96.179005   26.019028    0.000000    0.000000    0.000000    0.000000
  0.029218437   -1.061091  161.164139  -96.086061   19.166571    0.000000    0.000000    0.000000    0.000000
  0.029418838   -1.088816  159.358932  -96.431390   22.113028    0.000000    0.000000    0.000000    0.000000
  0.029619238   -1.116175  157.539597  -96.010416   21.733356    0.000000    0.000000    0.000000    0.000000
  0.029819639   -1.147841  155.706802  -95.731647   19.237228    0.000000    0.000000    0.000000    0.000000
  0.030020040   -1.178723  153.834488  -95.704180   17.380550    0.000000    0.000000    0.000000    0.000000
  0.030220441   -1.209459  151.957214  -96.113044   17.330488    0.000000    0.000000    0.000000    0.000000
  0.030420842   -1.240041  150.084518  -96.128998   13.361603    0.000000    0.000000    0.000000    0.000000
  0.030621242   -1.273558  148.218338  -96.916125    9.600167    0.000000    0.000000    0.000000    0.000000
  0.030821643   -1.308343  146.349777  -97.619046   15.825891    0.000000    0.000000    0.000000    0.000000
  0.031022044   -1.344662  144.464600  -96.803111   16.331625    0.000000    0.000000    0.000000    0.000000
  0.031222445   -1.377389  142.580658  -96.831264   15.732801    0.000000    0.000000    0.000000    0.000000
  0.031422846   -1.413476  140.657867  -97.054128   15.452306    0.000000    0.000000    0.000000    0.000000
  0.031623246   -1.447025  138.710663  -96.325029    6.532436    0.000000    0.000000    0.000000    0.000000
  0.031823647   -1.478547  136.754242  -96.547329   20.638783    0.000000    0.000000    0.000000    0.000000
  0.032024048   -1.509066  134.803818  -97.780594   19.765949    0.000000    0.000000    0.000000    0.000000
  0.032224449   -1.540206  132.875336  -96.858376   13.468810    0.000000    0.000000    0.000000    0.000000
  0.032424850   -1.572917  130.951767  -97.511979    5.262694    0.000000    0.000000    0.000000    0.000000
  0.032625251   -1.604378  129.011505  -97.269036    9.498749    0.000000    0.000000    0.000000    0.000000
  0.032825651   -1.638920  127.074471  -97.854106   11.194823    0.000000    0.000000    0.000000    0.000000
  0.033026052   -1.678987  125.121155  -98.122999    3.558935    0.000000    0.000000    0.000000    0.000000
  0.033226453   -1.727791  123.143585  -98.181490   12.674614    0.000000    0.000000    0.000000    0.000000
  0.033426854   -1.774804  121.180573  -98.984835   11.437196    0.000000    0.000000    0.000000    0.000000
  0.033627255   -1.824545  119.150192  -97.894199   11.061190    0.000000    0.000000    0.000000    0.000000
  0.033827655   -1.869450  117.079811  -97.644566   13.096030    0.000000    0.000000    0.000000    0.000000
  0.034028056   -1.917672  114.988136  -98.063512   11.266416    0.000000    0.000000    0.000000    0.000000
  0.034228457   -1.962385  112.879372  -99.430385    7.250247    0.000000    0.000000    0.000000    0.000000
  0.034428858   -2.005486  110.754349  -98.055702   16.298243    0.000000    0.000000    0.000000    0.000000
  0.034629259   -2.046107  108.646446  -97.813807   12.131433    0.000000    0.000000    0.000000    0.000000
  0.034829659   -2.085181  106.522049  -97.531237   16.459980    0.000000    0.000000    0.000000    0.000000
  0.035030060   -2.123647  104.415924  -97.305126   11.531529    0.000000    0.000000    0.000000    0.000000
  0.035230461   -2.165883  102.311966  -99.597055   12.250916    0.000000    0.000000    0.000000    0.000000
  0.035430862   -2.204182  100.241318  -98.532778   15.437083    0.000000    0.000000    0.000000    0.000000
  0.035631263   -2.246022   98.166023  -98.208757    9.085324    0.000000    0.000000    0.000000    0.000000
  0.035831663   -2.290542   96.092896  -97.827566   -5.739450    0.000000    0.000000    0.000000    0.000000
  0.036032064   -2.335880   94.029572  -97.661953    3.533021    0.000000    0.000000    0.000000    0.000000
  0.036232465   -2.381413   91.985909  -99.410887    5.825663    0.000000    0.000000    0.000000    0.000000
  0.036432866   -2.430596   89.956314  -97.456355   10.146105    0.000000    0.000000    0.000000    0.000000
  0.036633267   -2.487462   87.885269  -98.462812    4.452173    0.000000    0.000000    0.000000    0.000000
  0.036833667   -2.548909   85.829498  -98.266211   15.154115    0.000000    0.000000    0.000000    0.000000
  0.037034068   -2.609305   83.741409  -98.976924    2.616844    0.000000    0.000000    0.000000    0.000000
  0.037234469   -2.670478   81.628723 -100.770193   12.263292    0.000000    0.000000    0.000000    0.000000
  0.037434870   -2.734072   79.492561 -100.019960    5.819952    0.000000    0.000000    0.000000    0.000000
  0.037635271   -2.799540   77.337929 -100.646483   -0.513942    0.000000    0.000000    0.000000    0.000000
  0.037835671   -2.864679   75.163094  -98.007120    0.141493    0.000000    0.000000    0.000000    0.000000
  0.038036072   -2.936296   73.011673 -100.402437   16.838070    0.000000    0.000000    0.000000    0.000000
  0.038236473   -2.991906   70.916985 -100.680346    9.650556    0.000000    0.000000    0.000000    0.000000
  0.038436874   -3.043526   68.785507  -98.590840    7.819908    0.000000    0.000000    0.000000    0.000000
  0.038637275   -3.086873   66.629318  -99.699914    3.465063    0.000000    0.000000    0.000000    0.000000
  0.038837675   -3.134806   64.513374 -100.363593   16.563580    0.000000    0.000000    0.000000    0.000000
  0.039038076   -3.180925   62.430511  -99.130528   19.850401    0.000000    0.000000    0.000000    0.000000
  0.039238477   -3.231383   60.344524  -99.583822   18.402687    0.000000    0.000000    0.000000    0.000000
  0.039438878   -3.287030   58.288521  -99.018304   23.389675    0.000000    0.000000    0.000000    0.000000
  0.039639279   -3.349809   56.217392 -100.792041   22.222931    0.000000    0.000000    0.000000    0.000000
  0.039839679   -3.412367   54.139210 -100.002600    7.047360    0.000000    0.000000    0.000000    0.000000
  0.040040080   -3.477089   52.040398  -99.639393    9.065353    0.000000    0.000000    0.000000    0.000000
  0.040240481   -3.542405   49.910988  -98.975457   13.218837    0.000000    0.000000    0.000000    0.000000
  0.040440882   -3.606660   47.797333  -99.549429   -3.870938    0.000000    0.000000    0.000000    0.000000
  0.040641283   -3.669241   45.692986 -100.538930    5.347323    0.000000    0.000000    0.000000    0.000000
  0.040841683   -3.731733   43.569847  -99.429168    2.724581    0.000000    0.000000    0.000000    0.000000
  0.041042084   -3.793451   41.457848  -99.574288    8.094319    0.000000    0.000000    0.000000    0.000000
  0.041242485   -3.851941   39.319633 -100.492430   -1.981568    0.000000    0.000000    0.000000    0.000000
  0.041442886   -3.909280   37.193623 -100.158575   -9.445294    0.000000    0.000000    0.000000    0.000000
  0.041643287   -3.966869   35.065586 -100.053422   13.568666    0.000000    0.000000    0.000000    0.000000
  0.041843687   -4.020582   32.967049 -100.702292   12.628543    0.000000    0.000000    0.000000    0.000000
  0.042044088   -4.073967   30.880463  -99.654499    3.075811    0.000000    0.000000    0.000000    0.000000
  0.042244489   -4.124381   28.817001 -100.585206    2.206565    0.000000    0.000000    0.000000    0.000000
  0.042444890   -4.176711   26.771530 -103.087546    4.206689    0.000000    0.000000    0.000000    0.000000
  0.042645291   -4.230733   24.723433 -101.399054   -1.426203    0.000000    0.000000    0.000000    0.000000
  0.042845691   -4.282865   22.673820 -102.086573   -5.570125    0.000000    0.000000    0.000000    0.000000
  0.043046092   -4.334519   20.651138 -103.575246    2.228267    0.000000    0.000000    0.000000    0.000000
  0.043246493   -4.386273   18.614628 -101.707118   -1.639163    0.000000    0.000000    0.000000    0.000000
  0.043446894   -4.436806   16.577845 -102.946905   13.029176    0.000000    0.000000    0.000000    0.000000
  0.043647295   -4.488615   14.555621 -101.165729   14.684644    0.000000    0.000000    0.000000    0.000000
  0.043847695   -4.539851   12.561697 -101.895789    1.541062    0.000000    0.000000    0.000000    0.000000
  0.044048096   -4.591849   10.553197 -101.342582    8.268444    0.000000    0.000000    0.000000    0.000000
  0.044248497   -4.642698    8.557938 -101.362510   15.630695    0.000000    0.000000    0.000000    0.000000
  0.044448898   -4.691449    6.579433 -100.935700    0.343864    0.000000    0.000000    0.000000    0.000000
  0.044649299   -4.738659    4.593163 -102.741629   16.730268    0.000000    0.000000    0.000000    0.000000
  0.044849699   -4.783055    2.613385 -101.041144    7.460010    0.000000    0.000000    0.000000    0.000000
  0.045050100   -4.826732    0.656228 -102.483233   15.445742    0.000000    0.000000    0.000000    0.000000
  0.045250501   -4.869105   -1.290971 -101.755509   15.856984    0.000000    0.000000    0.000000    0.000000
  0.045450902   -4.910694   -3.218165 -101.560424   -2.045121    0.000000    0.000000    0.000000    0.000000
  0.045651303   -4.952520   -5.137680 -101.099978    9.467207    0.000000    0.000000    0.000000    0.000000
  0.045851703   -4.996016   -7.035595 -102.533158   11.966542    0.000000    0.000000    0.000000    0.000000
  0.046052104   -5.036929   -8.950510 -100.654601    5.796005    0.000000    0.000000    0.000000    0.000000
  0.046252505   -5.075545  -10.838428 -101.433573   -0.649342    0.000000    0.000000    0.000000    0.000000
  0.046452906   -5.110847  -12.716407 -103.177360    8.712281    0.000000    0.000000    0.000000    0.000000
  0.046653307   -5.144090  -14.629125 -100.746999    6.791093    0.000000    0.000000    0.000000    0.000000
  0.046853707   -5.177337  -16.485056 -100.523338    7.349216    0.000000    0.000000    0.000000    0.000000
  0.047054108   -5.210871  -18.365229 -103.478038   -0.096676    0.000000    0.000000    0.000000    0.000000
  0.047254509   -5.240725  -20.221781 -101.584940    2.493889    0.000000    0.000000    0.000000    0.000000
  0.047454910   -5.266446  -22.063150 -102.067009    4.298104    0.000000    0.000000    0.000000    0.000000
  0.047655311   -5.293617  -23.868986 -100.512869   -4.912793    0.000000    0.000000    0.000000    0.000000
  0.047855711   -5.322133  -25.654024 -101.113814    9.599675    0.000000    0.000000    0.000000    0.000000
  0.048056112   -5.351406  -27.472986 -102.160194   11.787119    0.000000    0.000000    0.000000    0.000000
  0.048256513   -5.378772  -29.243387 -101.092415    1.940323    0.000000    0.000000    0.000000    0.000000
  0.048456914   -5.405012  -31.016903 -105.328246   -4.289253    0.000000    0.000000    0.000000    0.000000
  0.048657315   -5.426959  -32.797836 -102.767985    5.296971    0.000000    0.000000    0.000000    0.000000
  0.048857715   -5.447093  -34.563747 -102.387298    1.050783    0.000000    0.000000    0.000000    0.000000
  0.049058116   -5.473954  -36.340271 -104.176351   -7.085821    0.000000    0.000000    0.000000    0.000000
  0.049258517   -5.491664  -38.075302 -103.207362    0.132653    0.000000    0.000000    0.000000    0.000000
  0.049458918   -5.514955  -39.816231 -103.669899   -1.320022    0.000000    0.000000    0.000000    0.000000
  0.049659319   -5.536651  -41.546547 -104.461675    3.042243    0.000000    0.000000    0.000000    0.000000
  0.049859719   -5.553137  -43.262901 -104.224561    1.813414    0.000000    0.000000    0.000000    0.000000
  0.050060120   -5.573205  -44.992996 -100.839538   16.686188    0.000000    0.000000    0.000000    0.000000
  0.050260521   -5.587658  -46.720722 -103.561295    2.987746    0.000000    0.000000    0.000000    0.000000
  0.050460922   -5.604207  -48.442299 -101.347864   14.555579    0.000000    0.000000    0.000000    0.000000
  0.050661323   -5.612944  -50.130100 -102.189134   10.004294    0.000000    0.000000    0.000000    0.000000
  0.050861723   -5.624770  -51.804760 -103.613263    4.113461    0.000000    0.000000    0.000000    0.000000
  0.051062124   -5.635553  -53.445332 -102.005022   12.655532    0.000000    0.000000    0.000000    0.000000
  0.051262525   -5.647737  -55.052692 -102.019837    4.747689    0.000000    0.000000    0.000000    0.000000
  0.051462926   -5.659662  -56.646709 -102.255739    8.152637    0.000000    0.000000    0.000000    0.000000
  0.051663327   -5.669902  -58.236591 -103.476236   13.633394    0.000000    0.000000    0.000000    0.000000
  0.051863727   -5.685664  -59.834549 -102.374392    4.287681    0.000000    0.000000    0.000000    0.000000
  0.052064128   -5.702268  -61.436546 -101.537174    2.714126    0.000000    0.000000    0.000000    0.000000
  0.052264529   -5.713687  -63.025009 -103.152513    7.170025    0.000000    0.000000    0.000000    0.000000
  0.052464930   -5.729839  -64.611580 -103.640112    6.181219    0.000000    0.000000    0.000000    0.000000
  0.052665331   -5.745170  -66.188156 -101.891129   12.606503    0.000000    0.000000    0.000000    0.000000
  0.052865731   -5.756946  -67.786537 -103.299329    8.824677    0.000000    0.000000    0.000000    0.000000
