! Anritsu VNA Master:                     Model: MS2036C/10/77
! SN:                                  1601066
! /bd0/18may8/255.ns.m1.s2p
! Existing Calibration Information:
! TYPE:                         Current Settings,       Active Cal Settings
! TIME:             	   05/08/2018 11:00:55 AM,    05/08/2018 10:55:57 AM
! INTERNAL TEMP:    	                   50.3 C,                    49.3 C
! # POINTS:         	                      500,                       500
! START FREQ:       	               20.000 MHz,                20.000 MHz
! STOP FREQ:        	              120.000 MHz,               120.000 MHz
! SOURCE POWER:     	                     High,                      High
! IFBW:             	                    50 Hz,                     50 Hz
! AVG FACTOR:       	                       1 ,                        1 
! REF PLANE 1:      	                     0 mm,                      0 mm
! REF PLANE 2:      	                     0 mm,                      0 mm
! CAL TYPE:         	                 Full S11,                  Full S11
! CAL METHOD:       	                     SOLT,                      SOLT
! CAL LINE TYPE:    	                     Coax,                      Coax
! DUT PORT 1:       	                K-Conn(F),                 K-Conn(F)
! DUT PORT 2:       	                K-Conn(F),                 K-Conn(F)
! CAL STATUS:       	        OK: Accuracy High,                        --
# GHZ S DB R 50.0
! FREQ.GHZ       S11DB        S11A       S21DB        S21A       S12DB        S12A       S22DB        S22A
  0.020000000   -0.618205 -124.309006  -90.995852   30.827154    0.000000    0.000000    0.000000    0.000000
  0.020200401   -0.613364 -125.750053  -91.464547   27.470482    0.000000    0.000000    0.000000    0.000000
  0.020400802   -0.612388 -127.182060  -91.293981   30.092939    0.000000    0.000000    0.000000    0.000000
  0.020601202   -0.612558 -128.631378  -92.127814   28.842697    0.000000    0.000000    0.000000    0.000000
  0.020801603   -0.615581 -130.120605  -92.358899   27.052498    0.000000    0.000000    0.000000    0.000000
  0.021002004   -0.620428 -131.620041  -92.499072   29.604284    0.000000    0.000000    0.000000    0.000000
  0.021202405   -0.626473 -133.145081  -92.098440   30.497009    0.000000    0.000000    0.000000    0.000000
  0.021402806   -0.630349 -134.665558  -92.747594   30.350960    0.000000    0.000000    0.000000    0.000000
  0.021603206   -0.633279 -136.184143  -93.231380   28.786163    0.000000    0.000000    0.000000    0.000000
  0.021803607   -0.636305 -137.704407  -92.954116   33.574909    0.000000    0.000000    0.000000    0.000000
  0.022004008   -0.638891 -139.234970  -93.367525   33.761005    0.000000    0.000000    0.000000    0.000000
  0.022204409   -0.642220 -140.782867  -93.023548   33.701885    0.000000    0.000000    0.000000    0.000000
  0.022404810   -0.645769 -142.342102  -93.283858   36.326267    0.000000    0.000000    0.000000    0.000000
  0.022605210   -0.653826 -143.914001  -93.207309   40.198296    0.000000    0.000000    0.000000    0.000000
  0.022805611   -0.658169 -145.503281  -93.024608   37.900894    0.000000    0.000000    0.000000    0.000000
  0.023006012   -0.658856 -147.085175  -92.801353   33.878567    0.000000    0.000000    0.000000    0.000000
  0.023206413   -0.658532 -148.645462  -93.475004   35.351837    0.000000    0.000000    0.000000    0.000000
  0.023406814   -0.659345 -150.217590  -93.048300   29.317545    0.000000    0.000000    0.000000    0.000000
  0.023607214   -0.665622 -151.777512  -93.480688   31.779818    0.000000    0.000000    0.000000    0.000000
  0.023807615   -0.674249 -153.366348  -93.076971   32.089710    0.000000    0.000000    0.000000    0.000000
  0.024008016   -0.683537 -154.968475  -93.413335   30.945759    0.000000    0.000000    0.000000    0.000000
  0.024208417   -0.692424 -156.578766  -92.705718   25.642139    0.000000    0.000000    0.000000    0.000000
  0.024408818   -0.701639 -158.194168  -92.813240   28.468864    0.000000    0.000000    0.000000    0.000000
  0.024609218   -0.709282 -159.830078  -93.213180   23.408846    0.000000    0.000000    0.000000    0.000000
  0.024809619   -0.718510 -161.446762  -93.264716   20.399866    0.000000    0.000000    0.000000    0.000000
  0.025010020   -0.729832 -163.077667  -93.425291   21.357578    0.000000    0.000000    0.000000    0.000000
  0.025210421   -0.741724 -164.722321  -94.221997   20.023252    0.000000    0.000000    0.000000    0.000000
  0.025410822   -0.754484 -166.373627  -94.373645   18.116819    0.000000    0.000000    0.000000    0.000000
  0.025611222   -0.766940 -168.060318  -94.316174   20.044472    0.000000    0.000000    0.000000    0.000000
  0.025811623   -0.779756 -169.755676  -94.014323   17.327015    0.000000    0.000000    0.000000    0.000000
  0.026012024   -0.790553 -171.468750  -95.076252   18.825529    0.000000    0.000000    0.000000    0.000000
  0.026212425   -0.799037 -173.183716  -95.347113   21.808603    0.000000    0.000000    0.000000    0.000000
  0.026412826   -0.811992 -174.903549  -96.129120   17.418789    0.000000    0.000000    0.000000    0.000000
  0.026613226   -0.825317 -176.635406  -95.953659   17.746521    0.000000    0.000000    0.000000    0.000000
  0.026813627   -0.839244 -178.383072  -95.389089   15.859875    0.000000    0.000000    0.000000    0.000000
  0.027014028   -0.854543  179.856461  -95.120638   17.806257    0.000000    0.000000    0.000000    0.000000
  0.027214429   -0.868612  178.081726  -96.980800   19.877583    0.000000    0.000000    0.000000    0.000000
  0.027414830   -0.884111  176.293823  -96.619421   20.140617    0.000000    0.000000    0.000000    0.000000
  0.027615230   -0.897604  174.500641  -96.046458   17.419632    0.000000    0.000000    0.000000    0.000000
  0.027815631   -0.916247  172.694839  -96.104661   21.342775    0.000000    0.000000    0.000000    0.000000
  0.028016032   -0.933255  170.864975  -96.525940   23.492903    0.000000    0.000000    0.000000    0.000000
  0.028216433   -0.952857  169.038116  -96.834721   18.528368    0.000000    0.000000    0.000000    0.000000
  0.028416834   -0.971743  167.200378  -96.396659   22.347857    0.000000    0.000000    0.000000    0.000000
  0.028617234   -0.990319  165.374146  -95.899923   25.771643    0.000000    0.000000    0.000000    0.000000
  0.028817635   -1.005642  163.536255  -96.258826   22.102678    0.000000    0.000000    0.000000    0.000000
  0.029018036   -1.023351  161.718994  -95.820689   20.444338    0.000000    0.000000    0.000000    0.000000
  0.029218437   -1.042366  159.905975  -97.034127   23.599089    0.000000    0.000000    0.000000    0.000000
  0.029418838   -1.063509  158.085480  -96.468486   30.190067    0.000000    0.000000    0.000000    0.000000
  0.029619238   -1.085818  156.250656  -95.787974   18.635363    0.000000    0.000000    0.000000    0.000000
  0.029819639   -1.113059  154.390091  -96.373000   18.228651    0.000000    0.000000    0.000000    0.000000
  0.030020040   -1.141437  152.514359  -96.275054   12.483410    0.000000    0.000000    0.000000    0.000000
  0.030220441   -1.168824  150.609222  -95.779666   17.758701    0.000000    0.000000    0.000000    0.000000
  0.030420842   -1.196009  148.717010  -96.085426   13.717228    0.000000    0.000000    0.000000    0.000000
  0.030621242   -1.225926  146.824936  -97.073877   10.396611    0.000000    0.000000    0.000000    0.000000
  0.030821643   -1.256495  144.947479  -96.891956   12.100605    0.000000    0.000000    0.000000    0.000000
  0.031022044   -1.290284  143.049744  -96.481961   11.501225    0.000000    0.000000    0.000000    0.000000
  0.031222445   -1.322135  141.153137  -98.103487   10.586587    0.000000    0.000000    0.000000    0.000000
  0.031422846   -1.358001  139.205215  -96.348840   13.433049    0.000000    0.000000    0.000000    0.000000
  0.031623246   -1.395599  137.241013  -97.026842   13.075327    0.000000    0.000000    0.000000    0.000000
  0.031823647   -1.432194  135.253601  -97.370837   16.379171    0.000000    0.000000    0.000000    0.000000
  0.032024048   -1.467231  133.289703  -96.474746   15.381883    0.000000    0.000000    0.000000    0.000000
  0.032224449   -1.501225  131.326401  -97.794464    2.810826    0.000000    0.000000    0.000000    0.000000
  0.032424850   -1.535678  129.354538  -98.583237    7.891243    0.000000    0.000000    0.000000    0.000000
  0.032625251   -1.571802  127.369682  -97.157788    8.883437    0.000000    0.000000    0.000000    0.000000
  0.032825651   -1.610083  125.415138  -97.972804   13.591052    0.000000    0.000000    0.000000    0.000000
  0.033026052   -1.650221  123.458344  -97.945766   10.276209    0.000000    0.000000    0.000000    0.000000
  0.033226453   -1.697852  121.478195  -97.286440   11.533150    0.000000    0.000000    0.000000    0.000000
  0.033426854   -1.743173  119.477142  -98.489645   10.146594    0.000000    0.000000    0.000000    0.000000
  0.033627255   -1.795087  117.471512  -98.114813   10.079176    0.000000    0.000000    0.000000    0.000000
  0.033827655   -1.850007  115.435089  -98.129588   14.880100    0.000000    0.000000    0.000000    0.000000
  0.034028056   -1.901181  113.354988  -98.302482   16.054447    0.000000    0.000000    0.000000    0.000000
  0.034228457   -1.950238  111.258621  -98.327599    9.978141    0.000000    0.000000    0.000000    0.000000
  0.034428858   -1.999247  109.126801  -97.839529   16.931915    0.000000    0.000000    0.000000    0.000000
  0.034629259   -2.044806  106.994904  -99.755079   15.065349    0.000000    0.000000    0.000000    0.000000
  0.034829659   -2.089410  104.853912  -98.965422    7.923289    0.000000    0.000000    0.000000    0.000000
  0.035030060   -2.134481  102.744080 -100.350832    9.879042    0.000000    0.000000    0.000000    0.000000
  0.035230461   -2.174456  100.622742  -97.390733   10.982668    0.000000    0.000000    0.000000    0.000000
  0.035430862   -2.214320   98.524994  -98.509304   10.753738    0.000000    0.000000    0.000000    0.000000
  0.035631263   -2.255063   96.454170  -98.670411   14.059662    0.000000    0.000000    0.000000    0.000000
  0.035831663   -2.297555   94.385643  -97.663323    9.361987    0.000000    0.000000    0.000000    0.000000
  0.036032064   -2.339633   92.332870  -99.112319    7.498843    0.000000    0.000000    0.000000    0.000000
  0.036232465   -2.387897   90.284500  -98.281898   -1.545329    0.000000    0.000000    0.000000    0.000000
  0.036432866   -2.432363   88.255135  -97.991227   12.378822    0.000000    0.000000    0.000000    0.000000
  0.036633267   -2.483236   86.239243  -98.914577    4.679851    0.000000    0.000000    0.000000    0.000000
  0.036833667   -2.538605   84.225319  -99.417158    4.633363    0.000000    0.000000    0.000000    0.000000
  0.037034068   -2.595396   82.200600  -99.699579   -2.311504    0.000000    0.000000    0.000000    0.000000
  0.037234469   -2.657093   80.122574 -100.890193   22.171125    0.000000    0.000000    0.000000    0.000000
  0.037434870   -2.719562   78.061203  -99.612659    6.677748    0.000000    0.000000    0.000000    0.000000
  0.037635271   -2.780514   75.988655  -98.459059    9.749942    0.000000    0.000000    0.000000    0.000000
  0.037835671   -2.845682   73.871361 -101.758804   12.479513    0.000000    0.000000    0.000000    0.000000
  0.038036072   -2.906841   71.760925 -100.392908    7.997043    0.000000    0.000000    0.000000    0.000000
  0.038236473   -2.965752   69.640678 -101.527570    6.471077    0.000000    0.000000    0.000000    0.000000
  0.038436874   -3.026547   67.512161  -99.900846    2.883875    0.000000    0.000000    0.000000    0.000000
  0.038637275   -3.081417   65.402664  -99.764985   12.608391    0.000000    0.000000    0.000000    0.000000
  0.038837675   -3.133585   63.303478 -100.658720    0.440180    0.000000    0.000000    0.000000    0.000000
  0.039038076   -3.180915   61.230099 -100.054246   17.622358    0.000000    0.000000    0.000000    0.000000
  0.039238477   -3.232160   59.186539  -99.652945    5.677342    0.000000    0.000000    0.000000    0.000000
  0.039438878   -3.286802   57.171825  -99.973831    2.891838    0.000000    0.000000    0.000000    0.000000
  0.039639279   -3.345916   55.158321 -102.787904   18.443939    0.000000    0.000000    0.000000    0.000000
  0.039839679   -3.408851   53.117023  -99.255044   15.453728    0.000000    0.000000    0.000000    0.000000
  0.040040080   -3.471659   51.082863 -100.491437   13.862928    0.000000    0.000000    0.000000    0.000000
  0.040240481   -3.537596   49.015091 -100.595563    4.667237    0.000000    0.000000    0.000000    0.000000
  0.040440882   -3.605898   46.942310  -99.801958   11.019312    0.000000    0.000000    0.000000    0.000000
  0.040641283   -3.673395   44.861538  -99.282909   17.569265    0.000000    0.000000    0.000000    0.000000
  0.040841683   -3.734661   42.776649 -101.491604    0.350571    0.000000    0.000000    0.000000    0.000000
  0.041042084   -3.796334   40.709965  -99.207591   12.207190    0.000000    0.000000    0.000000    0.000000
  0.041242485   -3.856196   38.638203 -100.067142    3.599739    0.000000    0.000000    0.000000    0.000000
  0.041442886   -3.917085   36.554440 -102.440329    5.056565    0.000000    0.000000    0.000000    0.000000
  0.041643287   -3.974566   34.466148 -100.217933    5.897607    0.000000    0.000000    0.000000    0.000000
  0.041843687   -4.030321   32.378986 -101.163485   -2.847321    0.000000    0.000000    0.000000    0.000000
  0.042044088   -4.080855   30.321465  -98.911854    2.434374    0.000000    0.000000    0.000000    0.000000
  0.042244489   -4.131897   28.282158 -101.282371   -4.449357    0.000000    0.000000    0.000000    0.000000
  0.042444890   -4.183549   26.271927 -102.582435    3.854039    0.000000    0.000000    0.000000    0.000000
  0.042645291   -4.235239   24.261988 -103.064112    1.511641    0.000000    0.000000    0.000000    0.000000
  0.042845691   -4.284190   22.263102 -103.382301   -0.171963    0.000000    0.000000    0.000000    0.000000
  0.043046092   -4.331945   20.266329 -100.685801   -0.668321    0.000000    0.000000    0.000000    0.000000
  0.043246493   -4.380933   18.279921 -103.270555   -4.075200    0.000000    0.000000    0.000000    0.000000
  0.043446894   -4.427443   16.309347 -102.662912    1.573075    0.000000    0.000000    0.000000    0.000000
  0.043647295   -4.470778   14.343459 -102.125886    2.812439    0.000000    0.000000    0.000000    0.000000
  0.043847695   -4.521044   12.378363 -102.712971   15.918530    0.000000    0.000000    0.000000    0.000000
  0.044048096   -4.569168   10.432873 -102.187996    8.135929    0.000000    0.000000    0.000000    0.000000
  0.044248497   -4.615280    8.509959 -101.292851    9.528116    0.000000    0.000000    0.000000    0.000000
  0.044448898   -4.659530    6.583831 -101.678637   14.447588    0.000000    0.000000    0.000000    0.000000
  0.044649299   -4.702654    4.656059 -102.764142   12.677365    0.000000    0.000000    0.000000    0.000000
  0.044849699   -4.745264    2.747478 -101.090196   12.256314    0.000000    0.000000    0.000000    0.000000
  0.045050100   -4.786437    0.855251 -101.676397   14.754655    0.000000    0.000000    0.000000    0.000000
  0.045250501   -4.828446   -1.045023 -102.428982   14.671730    0.000000    0.000000    0.000000    0.000000
  0.045450902   -4.866294   -2.908706 -102.193761   10.234902    0.000000    0.000000    0.000000    0.000000
  0.045651303   -4.903663   -4.775720 -100.994370    9.563959    0.000000    0.000000    0.000000    0.000000
  0.045851703   -4.942271   -6.619001  -99.174698    6.212033    0.000000    0.000000    0.000000    0.000000
  0.046052104   -4.983023   -8.441033 -102.097579   12.651160    0.000000    0.000000    0.000000    0.000000
  0.046252505   -5.022348  -10.269384  -99.708819    5.092398    0.000000    0.000000    0.000000    0.000000
  0.046452906   -5.062194  -12.097990 -102.014386   -0.149363    0.000000    0.000000    0.000000    0.000000
  0.046653307   -5.099867  -13.940155 -101.379836   15.885055    0.000000    0.000000    0.000000    0.000000
  0.046853707   -5.136797  -15.750432 -100.685644   -3.761329    0.000000    0.000000    0.000000    0.000000
  0.047054108   -5.173732  -17.542768 -101.985429    3.951993    0.000000    0.000000    0.000000    0.000000
  0.047254509   -5.211719  -19.348871 -101.596453   -1.348756    0.000000    0.000000    0.000000    0.000000
  0.047454910   -5.246541  -21.152731 -103.317538  -14.242937    0.000000    0.000000    0.000000    0.000000
  0.047655311   -5.277828  -22.932779 -101.458924   -4.523793    0.000000    0.000000    0.000000    0.000000
  0.047855711   -5.311930  -24.686071 -101.837410   -0.826408    0.000000    0.000000    0.000000    0.000000
  0.048056112   -5.343445  -26.438816 -102.893469    5.009063    0.000000    0.000000    0.000000    0.000000
  0.048256513   -5.379718  -28.206635 -103.814762    2.975276    0.000000    0.000000    0.000000    0.000000
  0.048456914   -5.413785  -29.948177 -102.043625    3.188699    0.000000    0.000000    0.000000    0.000000
  0.048657315   -5.443738  -31.711143 -103.498891   -6.766742    0.000000    0.000000    0.000000    0.000000
  0.048857715   -5.474438  -33.466408 -102.779223    8.736703    0.000000    0.000000    0.000000    0.000000
  0.049058116   -5.503610  -35.231876 -104.256004   -6.858702    0.000000    0.000000    0.000000    0.000000
  0.049258517   -5.529920  -36.975918 -104.162396    5.806421    0.000000    0.000000    0.000000    0.000000
  0.049458918   -5.558992  -38.683308 -105.189577   20.993494    0.000000    0.000000    0.000000    0.000000
  0.049659319   -5.586629  -40.436764 -104.096980    2.491388    0.000000    0.000000    0.000000    0.000000
  0.049859719   -5.613245  -42.147945 -102.327532   -1.473325    0.000000    0.000000    0.000000    0.000000
  0.050060120   -5.639044  -43.857052 -103.629799   -4.777587    0.000000    0.000000    0.000000    0.000000
  0.050260521   -5.658915  -45.587448 -103.715434    5.279644    0.000000    0.000000    0.000000    0.000000
  0.050460922   -5.676943  -47.310856 -105.456017    1.628594    0.000000    0.000000    0.000000    0.000000
  0.050661323   -5.695452  -49.019112 -103.653810    3.205031    0.000000    0.000000    0.000000    0.000000
  0.050861723   -5.712821  -50.704338 -103.797882   24.093042    0.000000    0.000000    0.000000    0.000000
  0.051062124   -5.725130  -52.370892 -101.334557   14.706526    0.000000    0.000000    0.000000    0.000000
  0.051262525   -5.737603  -54.008320 -102.631480    7.125447    0.000000    0.000000    0.000000    0.000000
  0.051462926   -5.747298  -55.617645 -102.401918   -2.910220    0.000000    0.000000    0.000000    0.000000
  0.051663327   -5.761187  -57.196751 -102.914950    9.148940    0.000000    0.000000    0.000000    0.000000
  0.051863727   -5.775631  -58.764366 -100.450207    4.562173    0.000000    0.000000    0.000000    0.000000
  0.052064128   -5.788771  -60.331123 -101.531621   23.154625    0.000000    0.000000    0.000000    0.000000
  0.052264529   -5.801679  -61.911537 -101.503904    7.076868    0.000000    0.000000    0.000000    0.000000
  0.052464930   -5.815737  -63.452770 -102.138692    2.938036    0.000000    0.000000    0.000000    0.000000
  0.052665331   -5.832670  -65.028076 -102.177355   -7.883541    0.000000    0.000000    0.000000    0.000000
  0.052865731   -5.849838  -66.565529 -100.977313    0.690555    0.000000    0.000000    0.000000    0.000000
