! Anritsu VNA Master:                     Model: MS2036C/10/77
! SN:                                  1601066
! /bd0/18may8/255.ns.m8.s2p
! Existing Calibration Information:
! TYPE:                         Current Settings,       Active Cal Settings
! TIME:             	   05/08/2018 01:05:07 PM,    05/08/2018 01:00:27 PM
! INTERNAL TEMP:    	                   60.0 C,                    60.0 C
! # POINTS:         	                      500,                       500
! START FREQ:       	               20.000 MHz,                20.000 MHz
! STOP FREQ:        	              120.000 MHz,               120.000 MHz
! SOURCE POWER:     	                     High,                      High
! IFBW:             	                    50 Hz,                     50 Hz
! AVG FACTOR:       	                       1 ,                        1 
! REF PLANE 1:      	                     0 mm,                      0 mm
! REF PLANE 2:      	                     0 mm,                      0 mm
! CAL TYPE:         	                 Full S11,                  Full S11
! CAL METHOD:       	                     SOLT,                      SOLT
! CAL LINE TYPE:    	                     Coax,                      Coax
! DUT PORT 1:       	                K-Conn(F),                 K-Conn(F)
! DUT PORT 2:       	                K-Conn(F),                 K-Conn(F)
! CAL STATUS:       	        OK: Accuracy High,                        --
# GHZ S DB R 50.0
! FREQ.GHZ       S11DB        S11A       S21DB        S21A       S12DB        S12A       S22DB        S22A
  0.020000000   -0.638685 -124.275444  -91.001093   29.202044    0.000000    0.000000    0.000000    0.000000
  0.020200401   -0.635572 -125.711189  -91.792642   29.077726    0.000000    0.000000    0.000000    0.000000
  0.020400802   -0.634071 -127.152443  -91.467939   27.263474    0.000000    0.000000    0.000000    0.000000
  0.020601202   -0.635007 -128.591766  -92.367849   28.120808    0.000000    0.000000    0.000000    0.000000
  0.020801603   -0.638533 -130.068619  -91.980202   26.700922    0.000000    0.000000    0.000000    0.000000
  0.021002004   -0.644739 -131.553177  -92.559498   24.605822    0.000000    0.000000    0.000000    0.000000
  0.021202405   -0.649487 -133.076202  -93.680720   26.249962    0.000000    0.000000    0.000000    0.000000
  0.021402806   -0.654001 -134.581863  -92.930951   29.519329    0.000000    0.000000    0.000000    0.000000
  0.021603206   -0.657085 -136.103622  -92.507493   29.626404    0.000000    0.000000    0.000000    0.000000
  0.021803607   -0.661412 -137.615479  -93.784402   29.785011    0.000000    0.000000    0.000000    0.000000
  0.022004008   -0.667655 -139.139008  -93.593210   32.045437    0.000000    0.000000    0.000000    0.000000
  0.022204409   -0.672137 -140.665649  -94.039950   33.479397    0.000000    0.000000    0.000000    0.000000
  0.022404810   -0.676208 -142.218292  -93.927909   31.395170    0.000000    0.000000    0.000000    0.000000
  0.022605210   -0.676217 -143.813354  -93.409054   35.892860    0.000000    0.000000    0.000000    0.000000
  0.022805611   -0.677948 -145.388260  -93.685947   32.818947    0.000000    0.000000    0.000000    0.000000
  0.023006012   -0.679845 -146.969757  -93.325680   33.648281    0.000000    0.000000    0.000000    0.000000
  0.023206413   -0.680939 -148.532196  -93.634690   30.477913    0.000000    0.000000    0.000000    0.000000
  0.023406814   -0.683267 -150.101807  -93.327499   26.049932    0.000000    0.000000    0.000000    0.000000
  0.023607214   -0.683811 -151.676010  -92.467137   31.726513    0.000000    0.000000    0.000000    0.000000
  0.023807615   -0.687600 -153.260773  -92.609691   28.112528    0.000000    0.000000    0.000000    0.000000
  0.024008016   -0.694397 -154.853378  -93.363353   27.988630    0.000000    0.000000    0.000000    0.000000
  0.024208417   -0.705437 -156.473999  -93.702517   20.320463    0.000000    0.000000    0.000000    0.000000
  0.024408818   -0.711936 -158.096527  -92.520163   25.675188    0.000000    0.000000    0.000000    0.000000
  0.024609218   -0.717909 -159.730835  -93.645549   18.958120    0.000000    0.000000    0.000000    0.000000
  0.024809619   -0.724346 -161.368073  -94.314468   21.094067    0.000000    0.000000    0.000000    0.000000
  0.025010020   -0.734919 -163.012238  -93.137225   24.424543    0.000000    0.000000    0.000000    0.000000
  0.025210421   -0.745715 -164.653961  -94.242072   22.920420    0.000000    0.000000    0.000000    0.000000
  0.025410822   -0.757251 -166.309509  -94.084215   17.832005    0.000000    0.000000    0.000000    0.000000
  0.025611222   -0.769111 -167.989960  -94.264300   17.003349    0.000000    0.000000    0.000000    0.000000
  0.025811623   -0.780892 -169.694748  -93.983716    8.059949    0.000000    0.000000    0.000000    0.000000
  0.026012024   -0.791769 -171.412399  -95.290006   11.360271    0.000000    0.000000    0.000000    0.000000
  0.026212425   -0.801243 -173.126801  -95.395537   12.523449    0.000000    0.000000    0.000000    0.000000
  0.026412826   -0.812756 -174.847733  -96.021096   10.954363    0.000000    0.000000    0.000000    0.000000
  0.026613226   -0.823902 -176.583374  -95.728819   18.730148    0.000000    0.000000    0.000000    0.000000
  0.026813627   -0.838953 -178.327011  -96.456812   19.263935    0.000000    0.000000    0.000000    0.000000
  0.027014028   -0.854139  179.918213  -96.710389   21.514881    0.000000    0.000000    0.000000    0.000000
  0.027214429   -0.870380  178.151489  -96.260287   17.904957    0.000000    0.000000    0.000000    0.000000
  0.027414830   -0.885787  176.374191  -97.402985   16.024763    0.000000    0.000000    0.000000    0.000000
  0.027615230   -0.901658  174.582779  -95.655737   22.468296    0.000000    0.000000    0.000000    0.000000
  0.027815631   -0.920424  172.778061  -96.322328   16.588024    0.000000    0.000000    0.000000    0.000000
  0.028016032   -0.939659  170.957367  -96.549317   25.889421    0.000000    0.000000    0.000000    0.000000
  0.028216433   -0.961399  169.137421  -96.601974   23.117430    0.000000    0.000000    0.000000    0.000000
  0.028416834   -0.981643  167.300446  -95.970137   25.085789    0.000000    0.000000    0.000000    0.000000
  0.028617234   -1.001153  165.462326  -95.883598   21.497774    0.000000    0.000000    0.000000    0.000000
  0.028817635   -1.019703  163.631226  -96.630558   17.762665    0.000000    0.000000    0.000000    0.000000
  0.029018036   -1.036497  161.808609  -96.434643   23.773157    0.000000    0.000000    0.000000    0.000000
  0.029218437   -1.056430  159.988358  -96.531022   21.488552    0.000000    0.000000    0.000000    0.000000
  0.029418838   -1.078535  158.178604  -97.304963   18.899302    0.000000    0.000000    0.000000    0.000000
  0.029619238   -1.101170  156.335144  -95.656472   16.653778    0.000000    0.000000    0.000000    0.000000
  0.029819639   -1.129033  154.475891  -96.606534   15.812038    0.000000    0.000000    0.000000    0.000000
  0.030020040   -1.159571  152.595810  -97.091081   16.120680    0.000000    0.000000    0.000000    0.000000
  0.030220441   -1.188141  150.683182  -96.213020   14.978682    0.000000    0.000000    0.000000    0.000000
  0.030420842   -1.216612  148.773453  -96.359501   17.366091    0.000000    0.000000    0.000000    0.000000
  0.030621242   -1.247286  146.866791  -97.015906   21.155342    0.000000    0.000000    0.000000    0.000000
  0.030821643   -1.275633  144.971649  -97.093737   14.676765    0.000000    0.000000    0.000000    0.000000
  0.031022044   -1.308707  143.063766  -97.004755   10.860109    0.000000    0.000000    0.000000    0.000000
  0.031222445   -1.338131  141.165146  -97.605869    9.167306    0.000000    0.000000    0.000000    0.000000
  0.031422846   -1.373949  139.218323  -98.096239    9.378890    0.000000    0.000000    0.000000    0.000000
  0.031623246   -1.411991  137.239899  -97.384414    2.254092    0.000000    0.000000    0.000000    0.000000
  0.031823647   -1.448228  135.266937  -97.530138    7.190933    0.000000    0.000000    0.000000    0.000000
  0.032024048   -1.484805  133.289856  -99.193638   12.274011    0.000000    0.000000    0.000000    0.000000
  0.032224449   -1.520855  131.310043  -98.797543    9.423447    0.000000    0.000000    0.000000    0.000000
  0.032424850   -1.554358  129.318970  -97.727008    6.684396    0.000000    0.000000    0.000000    0.000000
  0.032625251   -1.591837  127.335205  -98.179261    9.754786    0.000000    0.000000    0.000000    0.000000
  0.032825651   -1.626797  125.331619  -97.793909    6.619212    0.000000    0.000000    0.000000    0.000000
  0.033026052   -1.662511  123.366798  -98.805666    7.484166    0.000000    0.000000    0.000000    0.000000
  0.033226453   -1.704663  121.375793  -97.931060    8.373477    0.000000    0.000000    0.000000    0.000000
  0.033426854   -1.745752  119.410095  -98.256732    7.643293    0.000000    0.000000    0.000000    0.000000
  0.033627255   -1.796164  117.431854  -98.158325   15.625464    0.000000    0.000000    0.000000    0.000000
  0.033827655   -1.846138  115.427345  -97.604190   11.138732    0.000000    0.000000    0.000000    0.000000
  0.034028056   -1.897437  113.383385  -98.072905   10.760785    0.000000    0.000000    0.000000    0.000000
  0.034228457   -1.948212  111.321762  -96.882148    7.374583    0.000000    0.000000    0.000000    0.000000
  0.034428858   -1.996870  109.219994  -98.251720    8.802640    0.000000    0.000000    0.000000    0.000000
  0.034629259   -2.046542  107.085709  -99.241472   14.761144    0.000000    0.000000    0.000000    0.000000
  0.034829659   -2.094467  104.989777  -98.196641   11.206079    0.000000    0.000000    0.000000    0.000000
  0.035030060   -2.140132  102.867752  -98.341137   10.822564    0.000000    0.000000    0.000000    0.000000
  0.035230461   -2.183146  100.752998  -98.343501   10.809059    0.000000    0.000000    0.000000    0.000000
  0.035430862   -2.228462   98.661896  -97.873483    7.437402    0.000000    0.000000    0.000000    0.000000
  0.035631263   -2.271485   96.571838  -99.539574    4.767782    0.000000    0.000000    0.000000    0.000000
  0.035831663   -2.313260   94.507637  -97.649207    6.265533    0.000000    0.000000    0.000000    0.000000
  0.036032064   -2.360330   92.443779 -100.260140   11.087398    0.000000    0.000000    0.000000    0.000000
  0.036232465   -2.408340   90.389328  -99.374871    9.129784    0.000000    0.000000    0.000000    0.000000
  0.036432866   -2.454536   88.357681  -99.063336    4.362217    0.000000    0.000000    0.000000    0.000000
  0.036633267   -2.504288   86.319290  -99.436631   11.510599    0.000000    0.000000    0.000000    0.000000
  0.036833667   -2.557057   84.284660  -99.212853    2.634152    0.000000    0.000000    0.000000    0.000000
  0.037034068   -2.615339   82.236778  -99.604517    1.335068    0.000000    0.000000    0.000000    0.000000
  0.037234469   -2.677858   80.186157  -99.471517    7.358719    0.000000    0.000000    0.000000    0.000000
  0.037434870   -2.740708   78.102486 -102.163746    3.793488    0.000000    0.000000    0.000000    0.000000
  0.037635271   -2.800881   76.016396 -100.132638    8.901834    0.000000    0.000000    0.000000    0.000000
  0.037835671   -2.864803   73.936111 -101.398314    3.981101    0.000000    0.000000    0.000000    0.000000
  0.038036072   -2.931371   71.810158  -99.797834   15.304017    0.000000    0.000000    0.000000    0.000000
  0.038236473   -2.988161   69.662735  -99.686581    8.189643    0.000000    0.000000    0.000000    0.000000
  0.038436874   -3.049492   67.516724 -102.689840   -7.023969    0.000000    0.000000    0.000000    0.000000
  0.038637275   -3.105843   65.391785 -100.247938    6.312679    0.000000    0.000000    0.000000    0.000000
  0.038837675   -3.158305   63.277260 -101.488944   10.433993    0.000000    0.000000    0.000000    0.000000
  0.039038076   -3.211576   61.209015  -98.868349   14.461691    0.000000    0.000000    0.000000    0.000000
  0.039238477   -3.258281   59.144184  -99.716706    7.493369    0.000000    0.000000    0.000000    0.000000
  0.039438878   -3.306823   57.076096  -99.768261   11.855778    0.000000    0.000000    0.000000    0.000000
  0.039639279   -3.362779   55.064625 -100.625066   11.401257    0.000000    0.000000    0.000000    0.000000
  0.039839679   -3.421985   53.045769 -101.401719    4.775062    0.000000    0.000000    0.000000    0.000000
  0.040040080   -3.482677   51.010918 -100.861632   14.827941    0.000000    0.000000    0.000000    0.000000
  0.040240481   -3.542942   48.968899  -99.645146   11.349412    0.000000    0.000000    0.000000    0.000000
  0.040440882   -3.608272   46.903660  -99.381014    6.438954    0.000000    0.000000    0.000000    0.000000
  0.040641283   -3.670278   44.852188 -100.240883    9.216342    0.000000    0.000000    0.000000    0.000000
  0.040841683   -3.729573   42.799812 -101.038705   13.364740    0.000000    0.000000    0.000000    0.000000
  0.041042084   -3.786786   40.753075 -101.263339    5.849773    0.000000    0.000000    0.000000    0.000000
  0.041242485   -3.843772   38.720997 -100.871533   11.591776    0.000000    0.000000    0.000000    0.000000
  0.041442886   -3.902753   36.680912 -100.683265   -7.657768    0.000000    0.000000    0.000000    0.000000
  0.041643287   -3.956611   34.623669 -101.602443   -8.067319    0.000000    0.000000    0.000000    0.000000
  0.041843687   -4.012667   32.584785 -100.911494   -4.810680    0.000000    0.000000    0.000000    0.000000
  0.042044088   -4.065544   30.557505 -101.984372   -4.952362    0.000000    0.000000    0.000000    0.000000
  0.042244489   -4.115748   28.559135  -99.821604    2.550307    0.000000    0.000000    0.000000    0.000000
  0.042444890   -4.166664   26.552425 -101.038271    2.923200    0.000000    0.000000    0.000000    0.000000
  0.042645291   -4.219560   24.586655 -100.465092    9.201751    0.000000    0.000000    0.000000    0.000000
  0.042845691   -4.266632   22.599415 -103.142940   -0.463486    0.000000    0.000000    0.000000    0.000000
  0.043046092   -4.320332   20.626169 -102.989254    1.727690    0.000000    0.000000    0.000000    0.000000
  0.043246493   -4.369484   18.646254 -102.538253    9.874756    0.000000    0.000000    0.000000    0.000000
  0.043446894   -4.418793   16.685316 -102.317374    1.107442    0.000000    0.000000    0.000000    0.000000
  0.043647295   -4.466515   14.744201 -100.949336   17.448196    0.000000    0.000000    0.000000    0.000000
  0.043847695   -4.514420   12.775187 -104.306158    8.512980    0.000000    0.000000    0.000000    0.000000
  0.044048096   -4.565278   10.812111 -100.776994    6.743711    0.000000    0.000000    0.000000    0.000000
  0.044248497   -4.613682    8.864170 -102.690529    4.822511    0.000000    0.000000    0.000000    0.000000
  0.044448898   -4.661986    6.941396 -103.519796    9.695510    0.000000    0.000000    0.000000    0.000000
  0.044649299   -4.711480    5.004707 -103.372904    7.450208    0.000000    0.000000    0.000000    0.000000
  0.044849699   -4.755585    3.069709 -100.791529    6.210474    0.000000    0.000000    0.000000    0.000000
  0.045050100   -4.799020    1.139649 -101.784526    8.952525    0.000000    0.000000    0.000000    0.000000
  0.045250501   -4.840307   -0.784933 -101.482772   10.005739    0.000000    0.000000    0.000000    0.000000
  0.045450902   -4.878844   -2.698090 -101.654214    7.275043    0.000000    0.000000    0.000000    0.000000
  0.045651303   -4.920037   -4.581124 -100.367067   10.425322    0.000000    0.000000    0.000000    0.000000
  0.045851703   -4.960975   -6.475315 -100.602834   18.632204    0.000000    0.000000    0.000000    0.000000
  0.046052104   -5.000685   -8.339692 -101.577162   13.750637    0.000000    0.000000    0.000000    0.000000
  0.046252505   -5.040567  -10.223105 -100.823514    9.397679    0.000000    0.000000    0.000000    0.000000
  0.046452906   -5.078705  -12.087289 -100.225945   -4.198454    0.000000    0.000000    0.000000    0.000000
  0.046653307   -5.115448  -13.928562 -102.104231    3.567937    0.000000    0.000000    0.000000    0.000000
  0.046853707   -5.150662  -15.782928 -100.951036    5.970129    0.000000    0.000000    0.000000    0.000000
  0.047054108   -5.187472  -17.629005 -104.481399   -9.099336    0.000000    0.000000    0.000000    0.000000
  0.047254509   -5.217424  -19.475853 -102.239187   10.653942    0.000000    0.000000    0.000000    0.000000
  0.047454910   -5.250208  -21.296640 -101.981181    1.306935    0.000000    0.000000    0.000000    0.000000
  0.047655311   -5.280215  -23.097561 -101.385375   -5.274731    0.000000    0.000000    0.000000    0.000000
  0.047855711   -5.308980  -24.888655 -100.783969   -5.701258    0.000000    0.000000    0.000000    0.000000
  0.048056112   -5.338733  -26.632942 -100.947628   -7.507855    0.000000    0.000000    0.000000    0.000000
  0.048256513   -5.369341  -28.392326 -103.771107   -8.478390    0.000000    0.000000    0.000000    0.000000
  0.048456914   -5.400439  -30.145569 -103.654059   -1.209062    0.000000    0.000000    0.000000    0.000000
  0.048657315   -5.431438  -31.881472 -102.073470   -6.151163    0.000000    0.000000    0.000000    0.000000
  0.048857715   -5.459349  -33.623718 -103.197062    1.021587    0.000000    0.000000    0.000000    0.000000
  0.049058116   -5.485511  -35.354435 -106.649350   -9.041769    0.000000    0.000000    0.000000    0.000000
  0.049258517   -5.512611  -37.081284 -102.141537    8.959183    0.000000    0.000000    0.000000    0.000000
  0.049458918   -5.535630  -38.800636 -104.182184    6.672438    0.000000    0.000000    0.000000    0.000000
  0.049659319   -5.565050  -40.486221 -102.965860   14.395728    0.000000    0.000000    0.000000    0.000000
  0.049859719   -5.590374  -42.186337 -104.086010   12.924055    0.000000    0.000000    0.000000    0.000000
  0.050060120   -5.615807  -43.845558 -104.483629   -4.798723    0.000000    0.000000    0.000000    0.000000
  0.050260521   -5.636793  -45.545872 -103.357425   14.742340    0.000000    0.000000    0.000000    0.000000
  0.050460922   -5.660470  -47.233112 -103.711265   10.185137    0.000000    0.000000    0.000000    0.000000
  0.050661323   -5.678286  -48.929955 -102.847150    2.691955    0.000000    0.000000    0.000000    0.000000
  0.050861723   -5.695532  -50.600090 -103.397556   27.355558    0.000000    0.000000    0.000000    0.000000
  0.051062124   -5.713145  -52.245945 -105.666902   -0.546238    0.000000    0.000000    0.000000    0.000000
  0.051262525   -5.729003  -53.894394 -103.644204    0.612963    0.000000    0.000000    0.000000    0.000000
  0.051462926   -5.742568  -55.499325 -101.651526    0.746843    0.000000    0.000000    0.000000    0.000000
  0.051663327   -5.758213  -57.077034 -102.694777   25.382593    0.000000    0.000000    0.000000    0.000000
  0.051863727   -5.772353  -58.645596 -104.686354    7.690091    0.000000    0.000000    0.000000    0.000000
  0.052064128   -5.790448  -60.230759 -102.583486   10.972508    0.000000    0.000000    0.000000    0.000000
  0.052264529   -5.804440  -61.780487 -102.875338    1.872799    0.000000    0.000000    0.000000    0.000000
  0.052464930   -5.823742  -63.343166 -102.452496    0.898509    0.000000    0.000000    0.000000    0.000000
  0.052665331   -5.838496  -64.926071 -102.831175   -4.678805    0.000000    0.000000    0.000000    0.000000
  0.052865731   -5.858230  -66.471741 -102.113231  -15.790298    0.000000    0.000000    0.000000    0.000000
