! Anritsu VNA Master:                     Model: MS2036C/10/77
! SN:                                  1601066
! /bd0/18may8/255.ns.m55.s2p
! Existing Calibration Information:
! TYPE:                         Current Settings,       Active Cal Settings
! TIME:             	   05/08/2018 11:09:17 AM,    05/08/2018 10:55:57 AM
! INTERNAL TEMP:    	                   50.8 C,                    49.3 C
! # POINTS:         	                      500,                       500
! START FREQ:       	               20.000 MHz,                20.000 MHz
! STOP FREQ:        	              120.000 MHz,               120.000 MHz
! SOURCE POWER:     	                     High,                      High
! IFBW:             	                    50 Hz,                     50 Hz
! AVG FACTOR:       	                       1 ,                        1 
! REF PLANE 1:      	                     0 mm,                      0 mm
! REF PLANE 2:      	                     0 mm,                      0 mm
! CAL TYPE:         	                 Full S11,                  Full S11
! CAL METHOD:       	                     SOLT,                      SOLT
! CAL LINE TYPE:    	                     Coax,                      Coax
! DUT PORT 1:       	                K-Conn(F),                 K-Conn(F)
! DUT PORT 2:       	                K-Conn(F),                 K-Conn(F)
! CAL STATUS:       	        OK: Accuracy High,                        --
# GHZ S DB R 50.0
! FREQ.GHZ       S11DB        S11A       S21DB        S21A       S12DB        S12A       S22DB        S22A
  0.020000000   -0.636292 -124.200775  -91.045012   25.745367    0.000000    0.000000    0.000000    0.000000
  0.020200401   -0.633054 -125.626205  -91.531268   29.838623    0.000000    0.000000    0.000000    0.000000
  0.020400802   -0.633597 -127.055328  -91.225029   28.060472    0.000000    0.000000    0.000000    0.000000
  0.020601202   -0.635175 -128.500748  -91.844222   27.423759    0.000000    0.000000    0.000000    0.000000
  0.020801603   -0.638278 -129.989990  -92.588004   32.306198    0.000000    0.000000    0.000000    0.000000
  0.021002004   -0.644329 -131.489197  -93.007436   28.429743    0.000000    0.000000    0.000000    0.000000
  0.021202405   -0.652513 -133.020813  -92.167621   31.581800    0.000000    0.000000    0.000000    0.000000
  0.021402806   -0.657584 -134.536026  -93.142460   26.797352    0.000000    0.000000    0.000000    0.000000
  0.021603206   -0.660018 -136.053665  -93.125793   33.257236    0.000000    0.000000    0.000000    0.000000
  0.021803607   -0.664612 -137.573853  -93.021662   32.873199    0.000000    0.000000    0.000000    0.000000
  0.022004008   -0.668994 -139.099869  -93.538777   36.362198    0.000000    0.000000    0.000000    0.000000
  0.022204409   -0.671803 -140.663040  -92.935069   34.190788    0.000000    0.000000    0.000000    0.000000
  0.022404810   -0.674961 -142.227112  -93.887697   37.155807    0.000000    0.000000    0.000000    0.000000
  0.022605210   -0.681597 -143.804886  -92.619706   37.549355    0.000000    0.000000    0.000000    0.000000
  0.022805611   -0.682284 -145.411072  -92.869456   35.811264    0.000000    0.000000    0.000000    0.000000
  0.023006012   -0.683385 -146.991241  -93.294603   36.462006    0.000000    0.000000    0.000000    0.000000
  0.023206413   -0.683344 -148.554108  -93.060901   31.562420    0.000000    0.000000    0.000000    0.000000
  0.023406814   -0.682974 -150.122589  -92.853920   31.518669    0.000000    0.000000    0.000000    0.000000
  0.023607214   -0.688452 -151.696350  -93.736850   33.896679    0.000000    0.000000    0.000000    0.000000
  0.023807615   -0.694183 -153.281631  -93.311105   29.546251    0.000000    0.000000    0.000000    0.000000
  0.024008016   -0.700991 -154.891129  -92.511259   28.917727    0.000000    0.000000    0.000000    0.000000
  0.024208417   -0.709773 -156.498901  -93.542847   24.826412    0.000000    0.000000    0.000000    0.000000
  0.024408818   -0.715680 -158.113297  -93.374085   27.325432    0.000000    0.000000    0.000000    0.000000
  0.024609218   -0.722969 -159.747910  -93.105513   26.996613    0.000000    0.000000    0.000000    0.000000
  0.024809619   -0.731524 -161.374527  -93.173803   21.288885    0.000000    0.000000    0.000000    0.000000
  0.025010020   -0.740649 -163.000809  -94.164554   24.016233    0.000000    0.000000    0.000000    0.000000
  0.025210421   -0.750298 -164.638336  -93.355290   20.224483    0.000000    0.000000    0.000000    0.000000
  0.025410822   -0.761977 -166.289551  -94.240278   23.445299    0.000000    0.000000    0.000000    0.000000
  0.025611222   -0.774211 -167.968460  -95.230755   19.113005    0.000000    0.000000    0.000000    0.000000
  0.025811623   -0.785746 -169.656036  -94.035630   19.182016    0.000000    0.000000    0.000000    0.000000
  0.026012024   -0.795295 -171.373123  -95.885898   19.629051    0.000000    0.000000    0.000000    0.000000
  0.026212425   -0.803779 -173.074570  -96.034825   23.426762    0.000000    0.000000    0.000000    0.000000
  0.026412826   -0.817741 -174.792252  -95.217762   16.815096    0.000000    0.000000    0.000000    0.000000
  0.026613226   -0.830806 -176.519730  -95.203195   19.148230    0.000000    0.000000    0.000000    0.000000
  0.026813627   -0.846641 -178.269638  -97.344709   23.090183    0.000000    0.000000    0.000000    0.000000
  0.027014028   -0.861837  179.980759  -96.445231   18.032696    0.000000    0.000000    0.000000    0.000000
  0.027214429   -0.876835  178.208588  -95.885189   16.910427    0.000000    0.000000    0.000000    0.000000
  0.027414830   -0.892951  176.417587  -95.917467   21.690794    0.000000    0.000000    0.000000    0.000000
  0.027615230   -0.907869  174.619507  -96.372258   23.887524    0.000000    0.000000    0.000000    0.000000
  0.027815631   -0.927959  172.828842  -96.952101   19.518057    0.000000    0.000000    0.000000    0.000000
  0.028016032   -0.947380  171.000748  -95.817674   17.186939    0.000000    0.000000    0.000000    0.000000
  0.028216433   -0.966988  169.170975  -95.881157   22.430235    0.000000    0.000000    0.000000    0.000000
  0.028416834   -0.986965  167.334244  -96.470197   26.261673    0.000000    0.000000    0.000000    0.000000
  0.028617234   -1.007619  165.498459  -95.673673   16.954271    0.000000    0.000000    0.000000    0.000000
  0.028817635   -1.024208  163.662460  -96.187712   24.602097    0.000000    0.000000    0.000000    0.000000
  0.029018036   -1.043657  161.841492  -96.412974   21.833935    0.000000    0.000000    0.000000    0.000000
  0.029218437   -1.063816  160.020767  -95.379031   21.122622    0.000000    0.000000    0.000000    0.000000
  0.029418838   -1.084865  158.199997  -95.998249   24.680859    0.000000    0.000000    0.000000    0.000000
  0.029619238   -1.109110  156.357086  -95.641616   23.224121    0.000000    0.000000    0.000000    0.000000
  0.029819639   -1.135686  154.504364  -95.779546   19.346298    0.000000    0.000000    0.000000    0.000000
  0.030020040   -1.164998  152.622192  -95.678628   21.618879    0.000000    0.000000    0.000000    0.000000
  0.030220441   -1.192541  150.728073  -95.904053   18.843555    0.000000    0.000000    0.000000    0.000000
  0.030420842   -1.218910  148.831696  -97.142611   14.953343    0.000000    0.000000    0.000000    0.000000
  0.030621242   -1.248288  146.938843  -96.958451    8.657160    0.000000    0.000000    0.000000    0.000000
  0.030821643   -1.279153  145.068405  -97.174400   14.276898    0.000000    0.000000    0.000000    0.000000
  0.031022044   -1.313029  143.166489  -97.128810   12.538856    0.000000    0.000000    0.000000    0.000000
  0.031222445   -1.345255  141.270813  -97.683985   13.526057    0.000000    0.000000    0.000000    0.000000
  0.031422846   -1.379287  139.326111  -97.050265    8.704801    0.000000    0.000000    0.000000    0.000000
  0.031623246   -1.416074  137.367447  -97.291030    8.934207    0.000000    0.000000    0.000000    0.000000
  0.031823647   -1.452532  135.392456  -97.579711   10.226080    0.000000    0.000000    0.000000    0.000000
  0.032024048   -1.485939  133.432129  -97.762300   13.992723    0.000000    0.000000    0.000000    0.000000
  0.032224449   -1.519929  131.465424  -98.091606   12.113613    0.000000    0.000000    0.000000    0.000000
  0.032424850   -1.553428  129.498474  -97.463817    3.450932    0.000000    0.000000    0.000000    0.000000
  0.032625251   -1.588536  127.519562  -98.899488   10.202463    0.000000    0.000000    0.000000    0.000000
  0.032825651   -1.624797  125.565292  -98.615260    8.722733    0.000000    0.000000    0.000000    0.000000
  0.033026052   -1.663510  123.608353  -98.922355    7.903369    0.000000    0.000000    0.000000    0.000000
  0.033226453   -1.709792  121.619972  -97.146582    7.854328    0.000000    0.000000    0.000000    0.000000
  0.033426854   -1.755594  119.629303  -98.079386    5.807069    0.000000    0.000000    0.000000    0.000000
  0.033627255   -1.806386  117.633003  -97.805681    8.707146    0.000000    0.000000    0.000000    0.000000
  0.033827655   -1.859239  115.591553  -99.329178   16.753042    0.000000    0.000000    0.000000    0.000000
  0.034028056   -1.910580  113.504417  -99.496532    6.367300    0.000000    0.000000    0.000000    0.000000
  0.034228457   -1.959568  111.411324 -100.148097   17.182377    0.000000    0.000000    0.000000    0.000000
  0.034428858   -2.008463  109.266243  -97.844533   15.667766    0.000000    0.000000    0.000000    0.000000
  0.034629259   -2.052911  107.123840  -98.334659   19.318083    0.000000    0.000000    0.000000    0.000000
  0.034829659   -2.099892  104.983871 -101.127807   16.583397    0.000000    0.000000    0.000000    0.000000
  0.035030060   -2.144180  102.862801  -97.428254   13.297910    0.000000    0.000000    0.000000    0.000000
  0.035230461   -2.185144  100.724609  -97.759207   14.077987    0.000000    0.000000    0.000000    0.000000
  0.035430862   -2.226444   98.642570  -98.173211    9.957343    0.000000    0.000000    0.000000    0.000000
  0.035631263   -2.267924   96.552696  -97.599042    8.105949    0.000000    0.000000    0.000000    0.000000
  0.035831663   -2.310874   94.486526 -100.059791   13.566169    0.000000    0.000000    0.000000    0.000000
  0.036032064   -2.354119   92.430740  -97.706858    7.512865    0.000000    0.000000    0.000000    0.000000
  0.036232465   -2.403455   90.393295  -99.575105   -3.302550    0.000000    0.000000    0.000000    0.000000
  0.036432866   -2.448685   88.363846 -100.367805   12.384506    0.000000    0.000000    0.000000    0.000000
  0.036633267   -2.499908   86.357208 -100.504151   11.734782    0.000000    0.000000    0.000000    0.000000
  0.036833667   -2.557975   84.357193  -99.864145   11.582053    0.000000    0.000000    0.000000    0.000000
  0.037034068   -2.616593   82.341202  -99.566810    6.543445    0.000000    0.000000    0.000000    0.000000
  0.037234469   -2.678578   80.276665  -99.991650    7.918335    0.000000    0.000000    0.000000    0.000000
  0.037434870   -2.742223   78.222473 -101.171549  -10.598828    0.000000    0.000000    0.000000    0.000000
  0.037635271   -2.805259   76.162971 -100.629207   10.377409    0.000000    0.000000    0.000000    0.000000
  0.037835671   -2.871471   74.062317  -98.939606    3.945051    0.000000    0.000000    0.000000    0.000000
  0.038036072   -2.933905   71.956787  -99.592872    6.788936    0.000000    0.000000    0.000000    0.000000
  0.038236473   -2.995856   69.850594  -99.965665    4.156644    0.000000    0.000000    0.000000    0.000000
  0.038436874   -3.056988   67.719772  -99.800529    2.669860    0.000000    0.000000    0.000000    0.000000
  0.038637275   -3.113637   65.604790 -101.938432    4.928358    0.000000    0.000000    0.000000    0.000000
  0.038837675   -3.166988   63.521469 -100.564908    9.486860    0.000000    0.000000    0.000000    0.000000
  0.039038076   -3.215759   61.436802 -100.694372   18.198431    0.000000    0.000000    0.000000    0.000000
  0.039238477   -3.267681   59.397881 -100.303477    6.089175    0.000000    0.000000    0.000000    0.000000
  0.039438878   -3.322559   57.369373 -101.445447    9.949618    0.000000    0.000000    0.000000    0.000000
  0.039639279   -3.380668   55.348297 -101.887445    0.810076    0.000000    0.000000    0.000000    0.000000
  0.039839679   -3.443492   53.306496  -99.305640   17.328289    0.000000    0.000000    0.000000    0.000000
  0.040040080   -3.505930   51.245014  -99.875064    7.850408    0.000000    0.000000    0.000000    0.000000
  0.040240481   -3.572115   49.168808 -100.074425   17.604420    0.000000    0.000000    0.000000    0.000000
  0.040440882   -3.640004   47.085754 -102.335867    9.522102    0.000000    0.000000    0.000000    0.000000
  0.040641283   -3.704017   45.003910 -100.644032   -0.430782    0.000000    0.000000    0.000000    0.000000
  0.040841683   -3.765690   42.897846 -100.415157   -2.126459    0.000000    0.000000    0.000000    0.000000
  0.041042084   -3.825198   40.817326  -99.711353    8.468009    0.000000    0.000000    0.000000    0.000000
  0.041242485   -3.884100   38.719326  -99.375585   -2.691563    0.000000    0.000000    0.000000    0.000000
  0.041442886   -3.941639   36.620041 -100.078360   -1.447061    0.000000    0.000000    0.000000    0.000000
  0.041643287   -3.997639   34.512962  -99.144496   -1.261255    0.000000    0.000000    0.000000    0.000000
  0.041843687   -4.054125   32.421574  -99.547504   -9.012609    0.000000    0.000000    0.000000    0.000000
  0.042044088   -4.099462   30.362793 -100.906699   11.883725    0.000000    0.000000    0.000000    0.000000
  0.042244489   -4.149297   28.303169 -101.936140   -2.919848    0.000000    0.000000    0.000000    0.000000
  0.042444890   -4.199836   26.285835 -102.373324   13.307324    0.000000    0.000000    0.000000    0.000000
  0.042645291   -4.250451   24.269329 -101.993249   -8.349505    0.000000    0.000000    0.000000    0.000000
  0.042845691   -4.296541   22.280945 -103.535256   -1.304880    0.000000    0.000000    0.000000    0.000000
  0.043046092   -4.343584   20.290066 -103.668907    9.243059    0.000000    0.000000    0.000000    0.000000
  0.043246493   -4.389667   18.306465 -102.365129    1.017436    0.000000    0.000000    0.000000    0.000000
  0.043446894   -4.436939   16.362322 -101.340339    9.262594    0.000000    0.000000    0.000000    0.000000
  0.043647295   -4.482524   14.395490 -103.086383    6.637348    0.000000    0.000000    0.000000    0.000000
  0.043847695   -4.532739   12.446221 -104.297941    1.561492    0.000000    0.000000    0.000000    0.000000
  0.044048096   -4.578826   10.534342 -101.763211    8.393634    0.000000    0.000000    0.000000    0.000000
  0.044248497   -4.628037    8.629069 -102.390212   12.634624    0.000000    0.000000    0.000000    0.000000
  0.044448898   -4.676564    6.719995 -103.571343   13.024321    0.000000    0.000000    0.000000    0.000000
  0.044649299   -4.720003    4.821692 -104.135618    6.991015    0.000000    0.000000    0.000000    0.000000
  0.044849699   -4.766213    2.919230  -99.911485   -7.412592    0.000000    0.000000    0.000000    0.000000
  0.045050100   -4.808156    1.040521 -102.199691    4.209091    0.000000    0.000000    0.000000    0.000000
  0.045250501   -4.848192   -0.857481 -102.198736    6.796729    0.000000    0.000000    0.000000    0.000000
  0.045450902   -4.889312   -2.708637  -99.764518    5.195693    0.000000    0.000000    0.000000    0.000000
  0.045651303   -4.930266   -4.580065 -100.704907   17.885223    0.000000    0.000000    0.000000    0.000000
  0.045851703   -4.972273   -6.401410 -101.586770    7.065350    0.000000    0.000000    0.000000    0.000000
  0.046052104   -5.017163   -8.243094 -100.849970    7.314491    0.000000    0.000000    0.000000    0.000000
  0.046252505   -5.057653  -10.060273 -100.974170   10.996856    0.000000    0.000000    0.000000    0.000000
  0.046452906   -5.099797  -11.893525 -100.269746   -5.338902    0.000000    0.000000    0.000000    0.000000
  0.046653307   -5.140432  -13.720581 -100.964280    0.304660    0.000000    0.000000    0.000000    0.000000
  0.046853707   -5.177746  -15.540349 -100.786198   -6.075828    0.000000    0.000000    0.000000    0.000000
  0.047054108   -5.213693  -17.354561 -100.207015    5.785199    0.000000    0.000000    0.000000    0.000000
  0.047254509   -5.250280  -19.183064 -102.553942    7.710170    0.000000    0.000000    0.000000    0.000000
  0.047454910   -5.284039  -21.000496 -101.322052    0.310531    0.000000    0.000000    0.000000    0.000000
  0.047655311   -5.315641  -22.779116 -101.883208   -9.391947    0.000000    0.000000    0.000000    0.000000
  0.047855711   -5.348474  -24.549488 -101.910316   -2.092897    0.000000    0.000000    0.000000    0.000000
  0.048056112   -5.381228  -26.323145 -101.698440   -8.362235    0.000000    0.000000    0.000000    0.000000
  0.048256513   -5.413154  -28.098476 -102.968260   -4.184954    0.000000    0.000000    0.000000    0.000000
  0.048456914   -5.444631  -29.861692 -102.990208   11.249988    0.000000    0.000000    0.000000    0.000000
  0.048657315   -5.474407  -31.628078 -103.154237   -7.223328    0.000000    0.000000    0.000000    0.000000
  0.048857715   -5.502365  -33.398052 -105.775282  -11.129079    0.000000    0.000000    0.000000    0.000000
  0.049058116   -5.526827  -35.165001 -104.060193   10.467567    0.000000    0.000000    0.000000    0.000000
  0.049258517   -5.553335  -36.918133 -104.853167   14.022200    0.000000    0.000000    0.000000    0.000000
  0.049458918   -5.574534  -38.633152 -104.246263    8.188304    0.000000    0.000000    0.000000    0.000000
  0.049659319   -5.600119  -40.385593 -102.930672   16.710150    0.000000    0.000000    0.000000    0.000000
  0.049859719   -5.625063  -42.085220 -103.461921    3.179639    0.000000    0.000000    0.000000    0.000000
  0.050060120   -5.648827  -43.790924 -103.495255    2.411309    0.000000    0.000000    0.000000    0.000000
  0.050260521   -5.667577  -45.516762 -103.682000    7.534925    0.000000    0.000000    0.000000    0.000000
  0.050460922   -5.683972  -47.215061 -104.237826    3.737420    0.000000    0.000000    0.000000    0.000000
  0.050661323   -5.700154  -48.928612 -104.643650   13.138641    0.000000    0.000000    0.000000    0.000000
  0.050861723   -5.714808  -50.596458 -101.845368   11.580845    0.000000    0.000000    0.000000    0.000000
  0.051062124   -5.727710  -52.240009 -104.503182    3.633539    0.000000    0.000000    0.000000    0.000000
  0.051262525   -5.740995  -53.852303 -103.945168    6.806402    0.000000    0.000000    0.000000    0.000000
  0.051462926   -5.753369  -55.452606 -102.479237   21.056736    0.000000    0.000000    0.000000    0.000000
  0.051663327   -5.765632  -57.029018 -101.857746   18.388926    0.000000    0.000000    0.000000    0.000000
  0.051863727   -5.780347  -58.579494 -103.121597  -12.514850    0.000000    0.000000    0.000000    0.000000
  0.052064128   -5.794838  -60.140316 -101.855741    3.327914    0.000000    0.000000    0.000000    0.000000
  0.052264529   -5.809897  -61.698685 -100.863021   -3.582821    0.000000    0.000000    0.000000    0.000000
  0.052464930   -5.828049  -63.241821 -101.939448    7.465902    0.000000    0.000000    0.000000    0.000000
  0.052665331   -5.844749  -64.821304 -101.246846   16.444307    0.000000    0.000000    0.000000    0.000000
  0.052865731   -5.862978  -66.348938 -102.350901   -5.860169    0.000000    0.000000    0.000000    0.000000
