! Anritsu VNA Master:                     Model: MS2036C/10/77
! SN:                                  1601066
! /bd0/18may09/254.ew.m7.s2p
! Existing Calibration Information:
! TYPE:                         Current Settings,       Active Cal Settings
! TIME:             	   05/09/2018 11:58:33 AM,    05/09/2018 11:52:33 AM
! INTERNAL TEMP:    	                   54.0 C,                    53.5 C
! # POINTS:         	                      494,                       494
! START FREQ:       	               20.000 MHz,                20.000 MHz
! STOP FREQ:        	          118.797 594 MHz,           118.797 594 MHz
! SOURCE POWER:     	                     High,                      High
! IFBW:             	                    50 Hz,                     50 Hz
! AVG FACTOR:       	                       1 ,                        1 
! REF PLANE 1:      	                     0 mm,                      0 mm
! REF PLANE 2:      	                     0 mm,                      0 mm
! CAL TYPE:         	                 Full S22,                  Full S22
! CAL METHOD:       	                     SOLT,                      SOLT
! CAL LINE TYPE:    	                     Coax,                      Coax
! DUT PORT 1:       	                K-Conn(M),                 K-Conn(M)
! DUT PORT 2:       	                K-Conn(M),                 K-Conn(M)
! CAL STATUS:       	        OK: Accuracy High,                        --
# GHZ S DB R 50.0
! FREQ.GHZ       S11DB        S11A       S21DB        S21A       S12DB        S12A       S22DB        S22A
  0.020000000    0.000000    0.000000    0.000000    0.000000  -89.853153   36.969128   -0.633186 -126.627678
  0.020200401    0.000000    0.000000    0.000000    0.000000  -89.548140   34.659420   -0.633583 -128.105545
  0.020400802    0.000000    0.000000    0.000000    0.000000  -89.967823   33.685810   -0.637347 -129.570923
  0.020601202    0.000000    0.000000    0.000000    0.000000  -90.578085   31.140741   -0.640349 -131.070053
  0.020801603    0.000000    0.000000    0.000000    0.000000  -91.152357   35.867924   -0.642878 -132.604538
  0.021002004    0.000000    0.000000    0.000000    0.000000  -90.798479   35.984085   -0.644251 -134.139679
  0.021202405    0.000000    0.000000    0.000000    0.000000  -91.501300   36.457329   -0.646140 -135.694641
  0.021402806    0.000000    0.000000    0.000000    0.000000  -91.331122   38.464943   -0.651223 -137.234253
  0.021603206    0.000000    0.000000    0.000000    0.000000  -91.456510   42.434277   -0.651946 -138.760117
  0.021803607    0.000000    0.000000    0.000000    0.000000  -92.203534   35.689903   -0.655536 -140.298340
  0.022004008    0.000000    0.000000    0.000000    0.000000  -91.661849   41.688271   -0.661189 -141.842621
  0.022204409    0.000000    0.000000    0.000000    0.000000  -92.531530   42.630314   -0.663804 -143.417801
  0.022404810    0.000000    0.000000    0.000000    0.000000  -91.511396   39.724186   -0.671069 -144.990005
  0.022605210    0.000000    0.000000    0.000000    0.000000  -92.406011   40.931084   -0.676911 -146.582687
  0.022805611    0.000000    0.000000    0.000000    0.000000  -91.317792   42.491520   -0.678326 -148.172882
  0.023006012    0.000000    0.000000    0.000000    0.000000  -91.619329   42.805344   -0.681172 -149.759689
  0.023206413    0.000000    0.000000    0.000000    0.000000  -91.145129   40.248352   -0.685312 -151.347870
  0.023406814    0.000000    0.000000    0.000000    0.000000  -91.342223   42.029369   -0.690433 -152.933929
  0.023607214    0.000000    0.000000    0.000000    0.000000  -91.331585   41.288902   -0.697659 -154.517639
  0.023807615    0.000000    0.000000    0.000000    0.000000  -91.235511   37.417969   -0.706447 -156.117996
  0.024008016    0.000000    0.000000    0.000000    0.000000  -90.725460   40.655815   -0.712309 -157.755096
  0.024208417    0.000000    0.000000    0.000000    0.000000  -91.025545   33.270187   -0.717492 -159.399933
  0.024408818    0.000000    0.000000    0.000000    0.000000  -91.174027   36.598774   -0.725002 -161.054764
  0.024609218    0.000000    0.000000    0.000000    0.000000  -91.575031   33.459339   -0.732072 -162.706177
  0.024809619    0.000000    0.000000    0.000000    0.000000  -90.868849   32.046349   -0.739959 -164.363907
  0.025010020    0.000000    0.000000    0.000000    0.000000  -91.858132   27.091928   -0.749313 -166.018005
  0.025210421    0.000000    0.000000    0.000000    0.000000  -92.079434   31.101574   -0.759227 -167.698868
  0.025410822    0.000000    0.000000    0.000000    0.000000  -92.055903   29.258499   -0.769274 -169.389633
  0.025611222    0.000000    0.000000    0.000000    0.000000  -91.753776   24.020325   -0.780772 -171.086639
  0.025811623    0.000000    0.000000    0.000000    0.000000  -92.433660   23.169802   -0.791696 -172.807632
  0.026012024    0.000000    0.000000    0.000000    0.000000  -93.001802   21.428875   -0.801537 -174.535172
  0.026212425    0.000000    0.000000    0.000000    0.000000  -92.906255   23.105743   -0.813567 -176.264664
  0.026412826    0.000000    0.000000    0.000000    0.000000  -93.517322   23.169115   -0.826688 -178.017990
  0.026613226    0.000000    0.000000    0.000000    0.000000  -94.282667   28.427526   -0.840780 -179.775040
  0.026813627    0.000000    0.000000    0.000000    0.000000  -93.973002   27.685350   -0.855871  178.450806
  0.027014028    0.000000    0.000000    0.000000    0.000000  -95.067882   31.466978   -0.869690  176.679626
  0.027214429    0.000000    0.000000    0.000000    0.000000  -95.126926   28.528891   -0.886603  174.897125
  0.027414830    0.000000    0.000000    0.000000    0.000000  -94.847133   29.571669   -0.902127  173.106750
  0.027615230    0.000000    0.000000    0.000000    0.000000  -94.365763   30.250320   -0.919237  171.296234
  0.027815631    0.000000    0.000000    0.000000    0.000000  -94.040481   30.735220   -0.934872  169.480270
  0.028016032    0.000000    0.000000    0.000000    0.000000  -95.121705   29.066475   -0.953332  167.651138
  0.028216433    0.000000    0.000000    0.000000    0.000000  -94.977277   29.095455   -0.973260  165.811996
  0.028416834    0.000000    0.000000    0.000000    0.000000  -94.892231   33.281734   -0.991612  163.975967
  0.028617234    0.000000    0.000000    0.000000    0.000000  -94.764043   34.699020   -1.010841  162.127136
  0.028817635    0.000000    0.000000    0.000000    0.000000  -94.239588   36.755718   -1.030202  160.277420
  0.029018036    0.000000    0.000000    0.000000    0.000000  -94.197053   34.646664   -1.052129  158.437500
  0.029218437    0.000000    0.000000    0.000000    0.000000  -94.040894   33.061821   -1.074264  156.574707
  0.029418838    0.000000    0.000000    0.000000    0.000000  -94.215555   35.389267   -1.098763  154.687469
  0.029619238    0.000000    0.000000    0.000000    0.000000  -94.513159   30.975044   -1.121173  152.810196
  0.029819639    0.000000    0.000000    0.000000    0.000000  -94.086948   33.871227   -1.146083  150.915253
  0.030020040    0.000000    0.000000    0.000000    0.000000  -94.392890   30.504444   -1.171861  149.012085
  0.030220441    0.000000    0.000000    0.000000    0.000000  -93.685717   24.614559   -1.195593  147.116776
  0.030420842    0.000000    0.000000    0.000000    0.000000  -94.136438   28.114441   -1.222829  145.220245
  0.030621242    0.000000    0.000000    0.000000    0.000000  -93.754959   27.350851   -1.251091  143.324921
  0.030821643    0.000000    0.000000    0.000000    0.000000  -94.479819   23.818945   -1.280233  141.414124
  0.031022044    0.000000    0.000000    0.000000    0.000000  -94.256326   22.385149   -1.310555  139.489365
  0.031222445    0.000000    0.000000    0.000000    0.000000  -94.285476   27.217613   -1.333658  137.565598
  0.031422846    0.000000    0.000000    0.000000    0.000000  -94.737282   23.394600   -1.367325  135.596771
  0.031623246    0.000000    0.000000    0.000000    0.000000  -95.115381   16.319674   -1.399578  133.623245
  0.031823647    0.000000    0.000000    0.000000    0.000000  -94.293864   18.859781   -1.434621  131.655609
  0.032024048    0.000000    0.000000    0.000000    0.000000  -94.466190   14.119091   -1.467756  129.665436
  0.032224449    0.000000    0.000000    0.000000    0.000000  -95.307808   17.076061   -1.502414  127.690712
  0.032424850    0.000000    0.000000    0.000000    0.000000  -95.431795   21.102198   -1.539381  125.704826
  0.032625250    0.000000    0.000000    0.000000    0.000000  -95.836262   21.255146   -1.577521  123.683701
  0.032825651    0.000000    0.000000    0.000000    0.000000  -96.113117   17.714596   -1.613813  121.659317
  0.033026052    0.000000    0.000000    0.000000    0.000000  -97.133570   18.917492   -1.648629  119.613129
  0.033226453    0.000000    0.000000    0.000000    0.000000  -95.258295   27.283373   -1.687103  117.575836
  0.033426854    0.000000    0.000000    0.000000    0.000000  -96.123478   20.622242   -1.726670  115.541183
  0.033627254    0.000000    0.000000    0.000000    0.000000  -96.652180   28.141052   -1.762682  113.496635
  0.033827655    0.000000    0.000000    0.000000    0.000000  -96.490589   18.730547   -1.804875  111.454430
  0.034028056    0.000000    0.000000    0.000000    0.000000  -96.452095   29.345686   -1.843974  109.400955
  0.034228457    0.000000    0.000000    0.000000    0.000000  -97.296895   23.532829   -1.885354  107.327980
  0.034428858    0.000000    0.000000    0.000000    0.000000  -96.361023   24.903675   -1.928525  105.250557
  0.034629258    0.000000    0.000000    0.000000    0.000000  -96.433528   28.341829   -1.970684  103.172180
  0.034829659    0.000000    0.000000    0.000000    0.000000  -96.088883   31.218971   -2.012287  101.089737
  0.035030060    0.000000    0.000000    0.000000    0.000000  -97.001106   28.323864   -2.060373   99.019226
  0.035230461    0.000000    0.000000    0.000000    0.000000  -96.216839   29.848930   -2.105145   96.942299
  0.035430862    0.000000    0.000000    0.000000    0.000000  -97.023946   27.400005   -2.151132   94.861008
  0.035631262    0.000000    0.000000    0.000000    0.000000  -95.743760   26.697695   -2.197133   92.777847
  0.035831663    0.000000    0.000000    0.000000    0.000000  -95.869567   27.051414   -2.248174   90.713020
  0.036032064    0.000000    0.000000    0.000000    0.000000  -96.013049   23.756594   -2.294665   88.622437
  0.036232465    0.000000    0.000000    0.000000    0.000000  -96.482665   19.853167   -2.344526   86.534714
  0.036432866    0.000000    0.000000    0.000000    0.000000  -95.757423   25.512653   -2.392186   84.441406
  0.036633266    0.000000    0.000000    0.000000    0.000000  -96.680665   18.918964   -2.444051   82.367241
  0.036833667    0.000000    0.000000    0.000000    0.000000  -97.077105   22.785009   -2.495987   80.281448
  0.037034068    0.000000    0.000000    0.000000    0.000000  -96.426626   29.026525   -2.548922   78.196556
  0.037234469    0.000000    0.000000    0.000000    0.000000  -96.633513   23.442181   -2.601399   76.110893
  0.037434870    0.000000    0.000000    0.000000    0.000000  -97.473221   25.109518   -2.655819   74.038025
  0.037635270    0.000000    0.000000    0.000000    0.000000  -97.663853   26.745468   -2.706920   71.967491
  0.037835671    0.000000    0.000000    0.000000    0.000000  -96.606524   17.318823   -2.761282   69.850586
  0.038036072    0.000000    0.000000    0.000000    0.000000  -98.247864   20.303318   -2.818197   67.734810
  0.038236473    0.000000    0.000000    0.000000    0.000000  -96.889405   24.582466   -2.874452   65.610207
  0.038436874    0.000000    0.000000    0.000000    0.000000  -96.722846   12.660183   -2.932455   63.503582
  0.038637274    0.000000    0.000000    0.000000    0.000000  -97.098143   23.085806   -2.989962   61.404213
  0.038837675    0.000000    0.000000    0.000000    0.000000  -97.890119   29.738432   -3.043171   59.294300
  0.039038076    0.000000    0.000000    0.000000    0.000000  -98.639276   15.582110   -3.097037   57.200535
  0.039238477    0.000000    0.000000    0.000000    0.000000  -98.627398   26.045179   -3.151370   55.115524
  0.039438878    0.000000    0.000000    0.000000    0.000000  -97.674527   26.408878   -3.204188   53.021015
  0.039639278    0.000000    0.000000    0.000000    0.000000  -96.126763   21.653425   -3.259843   50.921734
  0.039839679    0.000000    0.000000    0.000000    0.000000  -98.332665   23.852007   -3.311878   48.814133
  0.040040080    0.000000    0.000000    0.000000    0.000000  -98.148055   26.470314   -3.365173   46.711132
  0.040240481    0.000000    0.000000    0.000000    0.000000  -98.838823   22.832348   -3.417274   44.600643
  0.040440882    0.000000    0.000000    0.000000    0.000000  -97.956973   29.905262   -3.467559   42.505772
  0.040641283    0.000000    0.000000    0.000000    0.000000  -98.567253   36.967716   -3.518652   40.445274
  0.040841683    0.000000    0.000000    0.000000    0.000000  -97.961519   24.557829   -3.570077   38.371605
  0.041042084    0.000000    0.000000    0.000000    0.000000  -97.887255   26.924278   -3.622962   36.304363
  0.041242485    0.000000    0.000000    0.000000    0.000000  -97.647557   31.921640   -3.674751   34.251354
  0.041442886    0.000000    0.000000    0.000000    0.000000  -97.426597   29.931286   -3.727077   32.180088
  0.041643287    0.000000    0.000000    0.000000    0.000000  -97.606046   29.230709   -3.776583   30.117220
  0.041843687    0.000000    0.000000    0.000000    0.000000  -97.740743   25.450172   -3.824232   28.039530
  0.042044088    0.000000    0.000000    0.000000    0.000000  -98.714187   28.487072   -3.873387   25.997721
  0.042244489    0.000000    0.000000    0.000000    0.000000  -98.606749   28.965790   -3.923284   23.961857
  0.042444890    0.000000    0.000000    0.000000    0.000000  -99.311128   28.155888   -3.974527   21.931660
  0.042645291    0.000000    0.000000    0.000000    0.000000  -97.607239   22.338703   -4.024298   19.908133
  0.042845691    0.000000    0.000000    0.000000    0.000000  -99.060888   26.249914   -4.075665   17.899338
  0.043046092    0.000000    0.000000    0.000000    0.000000  -99.443828   32.009457   -4.124506   15.893442
  0.043246493    0.000000    0.000000    0.000000    0.000000  -98.274973   23.549885   -4.173131   13.861513
  0.043446894    0.000000    0.000000    0.000000    0.000000  -98.933742   20.110245   -4.221683   11.850453
  0.043647295    0.000000    0.000000    0.000000    0.000000  -98.952403   24.387524   -4.268915    9.853714
  0.043847695    0.000000    0.000000    0.000000    0.000000 -100.072382   37.066753   -4.315733    7.873551
  0.044048096    0.000000    0.000000    0.000000    0.000000  -99.169282   25.936447   -4.363189    5.885457
  0.044248497    0.000000    0.000000    0.000000    0.000000  -98.778196   18.626329   -4.411449    3.918631
  0.044448898    0.000000    0.000000    0.000000    0.000000  -99.908411   33.209652   -4.459104    1.940789
  0.044649299    0.000000    0.000000    0.000000    0.000000  -98.551335   28.333015   -4.505355    0.014412
  0.044849699    0.000000    0.000000    0.000000    0.000000  -98.826103   31.840658   -4.550459   -1.935209
  0.045050100    0.000000    0.000000    0.000000    0.000000  -98.739871   31.004179   -4.593549   -3.877817
  0.045250501    0.000000    0.000000    0.000000    0.000000  -99.784938   26.068508   -4.634954   -5.841846
  0.045450902    0.000000    0.000000    0.000000    0.000000 -100.632229   24.792149   -4.676312   -7.774250
  0.045651303    0.000000    0.000000    0.000000    0.000000  -98.597089   33.017929   -4.715818   -9.695422
  0.045851703    0.000000    0.000000    0.000000    0.000000  -99.129465   24.395826   -4.755706  -11.603759
  0.046052104    0.000000    0.000000    0.000000    0.000000  -98.937000   25.692377   -4.795862  -13.491116
  0.046252505    0.000000    0.000000    0.000000    0.000000  -99.201072   35.270737   -4.835054  -15.355713
  0.046452906    0.000000    0.000000    0.000000    0.000000  -99.209282   36.004181   -4.872570  -17.222973
  0.046653307    0.000000    0.000000    0.000000    0.000000  -98.471293   31.043606   -4.910653  -19.094162
  0.046853707    0.000000    0.000000    0.000000    0.000000 -100.849931   30.290041   -4.947906  -20.949629
  0.047054108    0.000000    0.000000    0.000000    0.000000  -98.410243   27.938484   -4.983719  -22.784349
  0.047254509    0.000000    0.000000    0.000000    0.000000  -98.417470   28.141418   -5.015186  -24.643568
  0.047454910    0.000000    0.000000    0.000000    0.000000  -98.406251   37.724453   -5.047438  -26.468657
  0.047655311    0.000000    0.000000    0.000000    0.000000  -98.235856   24.860085   -5.079550  -28.273275
  0.047855711    0.000000    0.000000    0.000000    0.000000  -99.641098   37.552933   -5.109630  -30.061600
  0.048056112    0.000000    0.000000    0.000000    0.000000  -98.145514   25.279808   -5.143670  -31.837439
  0.048256513    0.000000    0.000000    0.000000    0.000000  -99.755827   21.699017   -5.174888  -33.596531
  0.048456914    0.000000    0.000000    0.000000    0.000000  -98.552675   33.010353   -5.206684  -35.359715
  0.048657315    0.000000    0.000000    0.000000    0.000000  -99.495845   27.093168   -5.236459  -37.114582
  0.048857715    0.000000    0.000000    0.000000    0.000000  -98.849382   38.487209   -5.264332  -38.862103
  0.049058116    0.000000    0.000000    0.000000    0.000000  -99.854283   24.919022   -5.286934  -40.624481
  0.049258517    0.000000    0.000000    0.000000    0.000000  -99.158254   36.546570   -5.313722  -42.330692
  0.049458918    0.000000    0.000000    0.000000    0.000000  -99.607527   31.346478   -5.341831  -44.037231
  0.049659319    0.000000    0.000000    0.000000    0.000000  -98.684282   29.431364   -5.368702  -45.732399
  0.049859719    0.000000    0.000000    0.000000    0.000000  -98.177387   25.005358   -5.394216  -47.426651
  0.050060120    0.000000    0.000000    0.000000    0.000000  -98.669505   36.258160   -5.418878  -49.098198
  0.050260521    0.000000    0.000000    0.000000    0.000000 -100.956560   26.983767   -5.442680  -50.789501
  0.050460922    0.000000    0.000000    0.000000    0.000000  -99.509421   28.316895   -5.464868  -52.461887
  0.050661323    0.000000    0.000000    0.000000    0.000000  -98.557978   36.273449   -5.485781  -54.122604
  0.050861723    0.000000    0.000000    0.000000    0.000000 -100.895763   30.626797   -5.503974  -55.777649
  0.051062124    0.000000    0.000000    0.000000    0.000000 -100.109430   36.738503   -5.523765  -57.416504
  0.051262525    0.000000    0.000000    0.000000    0.000000  -98.309806   42.408443   -5.545937  -59.024986
  0.051462926    0.000000    0.000000    0.000000    0.000000  -98.434313   39.371513   -5.564519  -60.634129
  0.051663327    0.000000    0.000000    0.000000    0.000000  -99.832473   39.307652   -5.583492  -62.242592
  0.051863727    0.000000    0.000000    0.000000    0.000000 -100.237894   28.141422   -5.601026  -63.813042
  0.052064128    0.000000    0.000000    0.000000    0.000000  -98.917526   25.953184   -5.615170  -65.396523
  0.052264529    0.000000    0.000000    0.000000    0.000000  -99.867218   39.811951   -5.625529  -66.977020
  0.052464930    0.000000    0.000000    0.000000    0.000000  -98.364187   32.397293   -5.637994  -68.501541
  0.052665331    0.000000    0.000000    0.000000    0.000000  -98.583659   39.346561   -5.650219  -70.048019
  0.052865731    0.000000    0.000000    0.000000    0.000000  -98.294461   21.013361   -5.662316  -71.559525
