! Anritsu VNA Master:                     Model: MS2036C/10/77
! SN:                                  1601066
! /bd0/18may09/254.ew.m33.s2p
! Existing Calibration Information:
! TYPE:                         Current Settings,       Active Cal Settings
! TIME:             	   05/09/2018 10:14:50 AM,    05/09/2018 10:08:40 AM
! INTERNAL TEMP:    	                   48.5 C,                    48.0 C
! # POINTS:         	                      500,                       500
! START FREQ:       	               20.000 MHz,                20.000 MHz
! STOP FREQ:        	              120.000 MHz,               120.000 MHz
! SOURCE POWER:     	                     High,                      High
! IFBW:             	                    50 Hz,                     50 Hz
! AVG FACTOR:       	                       1 ,                        1 
! REF PLANE 1:      	                     0 mm,                      0 mm
! REF PLANE 2:      	                     0 mm,                      0 mm
! CAL TYPE:         	                 Full S11,                  Full S11
! CAL METHOD:       	                     SOLT,                      SOLT
! CAL LINE TYPE:    	                     Coax,                      Coax
! DUT PORT 1:       	                K-Conn(F),                 K-Conn(F)
! DUT PORT 2:       	                K-Conn(F),                 K-Conn(F)
! CAL STATUS:       	        OK: Accuracy High,                        --
# GHZ S DB R 50.0
! FREQ.GHZ       S11DB        S11A       S21DB        S21A       S12DB        S12A       S22DB        S22A
  0.020000000   -0.612683 -125.073540  -90.682892   28.794355    0.000000    0.000000    0.000000    0.000000
  0.020200401   -0.610048 -126.524841  -91.670431   30.047098    0.000000    0.000000    0.000000    0.000000
  0.020400802   -0.610554 -127.968880  -91.330963   30.308077    0.000000    0.000000    0.000000    0.000000
  0.020601202   -0.610754 -129.435883  -91.414324   30.661085    0.000000    0.000000    0.000000    0.000000
  0.020801603   -0.614037 -130.915527  -91.761952   34.650951    0.000000    0.000000    0.000000    0.000000
  0.021002004   -0.619067 -132.434616  -92.655618   27.489037    0.000000    0.000000    0.000000    0.000000
  0.021202405   -0.624046 -133.959213  -93.146126   33.954418    0.000000    0.000000    0.000000    0.000000
  0.021402806   -0.629573 -135.483612  -93.365815   38.867924    0.000000    0.000000    0.000000    0.000000
  0.021603206   -0.630846 -137.026077  -92.703393   34.586357    0.000000    0.000000    0.000000    0.000000
  0.021803607   -0.635140 -138.554810  -93.113811   32.243774    0.000000    0.000000    0.000000    0.000000
  0.022004008   -0.639890 -140.091370  -92.903587   32.294659    0.000000    0.000000    0.000000    0.000000
  0.022204409   -0.649292 -141.641617  -93.015380   34.343285    0.000000    0.000000    0.000000    0.000000
  0.022404810   -0.652961 -143.204391  -93.256369   35.090752    0.000000    0.000000    0.000000    0.000000
  0.022605210   -0.653516 -144.815247  -93.237753   39.151733    0.000000    0.000000    0.000000    0.000000
  0.022805611   -0.656458 -146.411041  -93.326813   33.509712    0.000000    0.000000    0.000000    0.000000
  0.023006012   -0.663104 -147.993179  -93.143270   35.590034    0.000000    0.000000    0.000000    0.000000
  0.023206413   -0.663519 -149.570618  -92.977236   36.871891    0.000000    0.000000    0.000000    0.000000
  0.023406814   -0.665823 -151.150101  -92.721220   34.398594    0.000000    0.000000    0.000000    0.000000
  0.023607214   -0.670204 -152.749298  -92.295398   33.634369    0.000000    0.000000    0.000000    0.000000
  0.023807615   -0.675273 -154.353058  -92.607607   34.601768    0.000000    0.000000    0.000000    0.000000
  0.024008016   -0.682634 -155.971878  -92.468353   32.601414    0.000000    0.000000    0.000000    0.000000
  0.024208417   -0.692583 -157.611343  -92.673134   27.591778    0.000000    0.000000    0.000000    0.000000
  0.024408818   -0.699477 -159.260513  -93.115163   25.626379    0.000000    0.000000    0.000000    0.000000
  0.024609218   -0.706027 -160.891815  -92.856099   27.854033    0.000000    0.000000    0.000000    0.000000
  0.024809619   -0.714090 -162.560318  -93.776389   22.226702    0.000000    0.000000    0.000000    0.000000
  0.025010020   -0.720951 -164.202255  -92.882560   24.633642    0.000000    0.000000    0.000000    0.000000
  0.025210421   -0.732356 -165.861343  -93.713501   18.608854    0.000000    0.000000    0.000000    0.000000
  0.025410822   -0.743522 -167.534073  -93.703959   15.445506    0.000000    0.000000    0.000000    0.000000
  0.025611222   -0.755774 -169.232529  -94.651948    9.522238    0.000000    0.000000    0.000000    0.000000
  0.025811623   -0.765929 -170.938705  -94.020154   22.032814    0.000000    0.000000    0.000000    0.000000
  0.026012024   -0.775325 -172.670502  -95.090817   18.430513    0.000000    0.000000    0.000000    0.000000
  0.026212425   -0.784101 -174.385162  -95.293495   14.524609    0.000000    0.000000    0.000000    0.000000
  0.026412826   -0.796337 -176.107697  -96.377586   11.092971    0.000000    0.000000    0.000000    0.000000
  0.026613226   -0.809177 -177.844330  -95.985910   16.514465    0.000000    0.000000    0.000000    0.000000
  0.026813627   -0.822056 -179.602814  -95.428282   18.141342    0.000000    0.000000    0.000000    0.000000
  0.027014028   -0.837267  178.639053  -96.412287   19.320784    0.000000    0.000000    0.000000    0.000000
  0.027214429   -0.850993  176.870300  -96.272667   18.605837    0.000000    0.000000    0.000000    0.000000
  0.027414830   -0.865881  175.075150  -95.427585   23.720818    0.000000    0.000000    0.000000    0.000000
  0.027615230   -0.879342  173.284195  -97.059427   17.139957    0.000000    0.000000    0.000000    0.000000
  0.027815631   -0.898327  171.489288  -96.185313   27.865826    0.000000    0.000000    0.000000    0.000000
  0.028016032   -0.917926  169.660690  -97.870048   19.005537    0.000000    0.000000    0.000000    0.000000
  0.028216433   -0.938074  167.837280  -95.794545   24.685083    0.000000    0.000000    0.000000    0.000000
  0.028416834   -0.956414  166.001770  -95.267489   20.196243    0.000000    0.000000    0.000000    0.000000
  0.028617234   -0.974471  164.164978  -96.031602   20.648062    0.000000    0.000000    0.000000    0.000000
  0.028817635   -0.992317  162.324982  -95.853466   19.018703    0.000000    0.000000    0.000000    0.000000
  0.029018036   -1.010277  160.496582  -96.094529   21.243376    0.000000    0.000000    0.000000    0.000000
  0.029218437   -1.029499  158.669754  -96.612525   21.021307    0.000000    0.000000    0.000000    0.000000
  0.029418838   -1.050702  156.841339  -95.931837   21.292562    0.000000    0.000000    0.000000    0.000000
  0.029619238   -1.075383  154.995438  -95.783141   19.749420    0.000000    0.000000    0.000000    0.000000
  0.029819639   -1.101440  153.121155  -96.060153   15.352339    0.000000    0.000000    0.000000    0.000000
  0.030020040   -1.131087  151.222809  -96.181439   10.385808    0.000000    0.000000    0.000000    0.000000
  0.030220441   -1.158615  149.304642  -95.785044   12.100274    0.000000    0.000000    0.000000    0.000000
  0.030420842   -1.183883  147.370865  -97.381907   14.499752    0.000000    0.000000    0.000000    0.000000
  0.030621242   -1.213568  145.460999  -97.006042   13.251541    0.000000    0.000000    0.000000    0.000000
  0.030821643   -1.244308  143.555984  -96.423629    9.622984    0.000000    0.000000    0.000000    0.000000
  0.031022044   -1.275156  141.634644  -96.924528   13.844563    0.000000    0.000000    0.000000    0.000000
  0.031222445   -1.305680  139.701294  -96.782970   11.802068    0.000000    0.000000    0.000000    0.000000
  0.031422846   -1.340122  137.721970  -97.164743    5.982612    0.000000    0.000000    0.000000    0.000000
  0.031623246   -1.375225  135.745346  -98.228515   20.774654    0.000000    0.000000    0.000000    0.000000
  0.031823647   -1.408144  133.752853  -97.078412   15.558332    0.000000    0.000000    0.000000    0.000000
  0.032024048   -1.439565  131.763092  -98.018789   10.404403    0.000000    0.000000    0.000000    0.000000
  0.032224449   -1.470763  129.771637  -97.113520   12.976847    0.000000    0.000000    0.000000    0.000000
  0.032424850   -1.501335  127.791489  -97.198507    9.354854    0.000000    0.000000    0.000000    0.000000
  0.032625251   -1.532123  125.826744  -98.447773    9.946095    0.000000    0.000000    0.000000    0.000000
  0.032825651   -1.566090  123.852325  -99.029148   11.404537    0.000000    0.000000    0.000000    0.000000
  0.033026052   -1.606493  121.875366  -97.985087   17.758303    0.000000    0.000000    0.000000    0.000000
  0.033226453   -1.645754  119.895706  -97.781638   15.996069    0.000000    0.000000    0.000000    0.000000
  0.033426854   -1.693346  117.919884  -99.308576   19.418396    0.000000    0.000000    0.000000    0.000000
  0.033627255   -1.741732  115.911629  -96.160308    8.023358    0.000000    0.000000    0.000000    0.000000
  0.033827655   -1.789638  113.864616  -97.851958   14.119368    0.000000    0.000000    0.000000    0.000000
  0.034028056   -1.838547  111.793098  -98.497468    1.833510    0.000000    0.000000    0.000000    0.000000
  0.034228457   -1.880950  109.680840  -98.907407   21.587219    0.000000    0.000000    0.000000    0.000000
  0.034428858   -1.928932  107.559158  -98.714967   25.023104    0.000000    0.000000    0.000000    0.000000
  0.034629259   -1.972243  105.419022  -98.452235    4.853999    0.000000    0.000000    0.000000    0.000000
  0.034829659   -2.013389  103.301819  -97.853868   14.838363    0.000000    0.000000    0.000000    0.000000
  0.035030060   -2.054548  101.177284  -98.382836    9.950936    0.000000    0.000000    0.000000    0.000000
  0.035230461   -2.093971   99.075958  -98.887715   18.207203    0.000000    0.000000    0.000000    0.000000
  0.035430862   -2.134634   96.986198  -99.111623   16.266474    0.000000    0.000000    0.000000    0.000000
  0.035631263   -2.173497   94.897926  -99.137901   14.862237    0.000000    0.000000    0.000000    0.000000
  0.035831663   -2.212865   92.832840  -98.497968    9.044398    0.000000    0.000000    0.000000    0.000000
  0.036032064   -2.255590   90.766411  -98.485014    4.158581    0.000000    0.000000    0.000000    0.000000
  0.036232465   -2.296923   88.713921  -97.754669    2.487565    0.000000    0.000000    0.000000    0.000000
  0.036432866   -2.346382   86.694611  -98.298897    7.898889    0.000000    0.000000    0.000000    0.000000
  0.036633267   -2.397090   84.641899  -99.431742    6.750207    0.000000    0.000000    0.000000    0.000000
  0.036833667   -2.447914   82.626457  -99.578687    1.661033    0.000000    0.000000    0.000000    0.000000
  0.037034068   -2.504369   80.566956 -100.401849    7.562709    0.000000    0.000000    0.000000    0.000000
  0.037234469   -2.564937   78.504425  -97.919873    6.385542    0.000000    0.000000    0.000000    0.000000
  0.037434870   -2.622532   76.405632  -99.856722    8.175620    0.000000    0.000000    0.000000    0.000000
  0.037635271   -2.675585   74.285332  -99.934446   13.702729    0.000000    0.000000    0.000000    0.000000
  0.037835671   -2.735944   72.148117 -100.352391   -3.016470    0.000000    0.000000    0.000000    0.000000
  0.038036072   -2.795311   69.997765  -99.655999    4.387737    0.000000    0.000000    0.000000    0.000000
  0.038236473   -2.853518   67.870468 -101.155375    2.038064    0.000000    0.000000    0.000000    0.000000
  0.038436874   -2.905690   65.722771  -98.678854    7.480792    0.000000    0.000000    0.000000    0.000000
  0.038637275   -2.957810   63.613064  -98.677016    7.478605    0.000000    0.000000    0.000000    0.000000
  0.038837675   -3.000717   61.509918  -99.902063    6.627921    0.000000    0.000000    0.000000    0.000000
  0.039038076   -3.044641   59.460316  -99.107495    6.057638    0.000000    0.000000    0.000000    0.000000
  0.039238477   -3.090454   57.432518 -101.739336   14.370050    0.000000    0.000000    0.000000    0.000000
  0.039438878   -3.138835   55.412090  -99.158290   17.510988    0.000000    0.000000    0.000000    0.000000
  0.039639279   -3.188928   53.409786  -99.452517    0.017503    0.000000    0.000000    0.000000    0.000000
  0.039839679   -3.245150   51.409634 -101.258026   21.722828    0.000000    0.000000    0.000000    0.000000
  0.040040080   -3.303158   49.371330 -100.848063   19.621374    0.000000    0.000000    0.000000    0.000000
  0.040240481   -3.361027   47.327667 -100.210388    5.915248    0.000000    0.000000    0.000000    0.000000
  0.040440882   -3.423144   45.268520  -99.967651    6.961753    0.000000    0.000000    0.000000    0.000000
  0.040641283   -3.478719   43.221096  -98.477950   15.682133    0.000000    0.000000    0.000000    0.000000
  0.040841683   -3.534149   41.137608 -100.709901   10.628345    0.000000    0.000000    0.000000    0.000000
  0.041042084   -3.590050   39.108036 -100.058607    9.482588    0.000000    0.000000    0.000000    0.000000
  0.041242485   -3.643971   37.039791  -99.466791    2.993972    0.000000    0.000000    0.000000    0.000000
  0.041442886   -3.697217   34.980373 -100.470239   10.562694    0.000000    0.000000    0.000000    0.000000
  0.041643287   -3.749634   32.900276 -102.504363    0.465003    0.000000    0.000000    0.000000    0.000000
  0.041843687   -3.797913   30.859608 -101.815462    1.757935    0.000000    0.000000    0.000000    0.000000
  0.042044088   -3.845837   28.802631 -101.054458   10.402545    0.000000    0.000000    0.000000    0.000000
  0.042244489   -3.895174   26.777224 -101.946676    9.197661    0.000000    0.000000    0.000000    0.000000
  0.042444890   -3.940840   24.766510 -101.545651    4.544672    0.000000    0.000000    0.000000    0.000000
  0.042645291   -3.988962   22.770023 -101.577672    5.302597    0.000000    0.000000    0.000000    0.000000
  0.042845691   -4.036232   20.775551 -101.701424   -5.573049    0.000000    0.000000    0.000000    0.000000
  0.043046092   -4.083413   18.776314 -100.518655   11.943908    0.000000    0.000000    0.000000    0.000000
  0.043246493   -4.129356   16.769299 -101.467764   -5.674571    0.000000    0.000000    0.000000    0.000000
  0.043446894   -4.175425   14.777304 -103.790457   22.236897    0.000000    0.000000    0.000000    0.000000
  0.043647295   -4.219033   12.793728 -101.228958    3.898566    0.000000    0.000000    0.000000    0.000000
  0.043847695   -4.265496   10.825694 -101.827474   11.841273    0.000000    0.000000    0.000000    0.000000
  0.044048096   -4.312673    8.860393 -101.549193    4.906145    0.000000    0.000000    0.000000    0.000000
  0.044248497   -4.359662    6.891299 -102.208424    1.730460    0.000000    0.000000    0.000000    0.000000
  0.044448898   -4.402630    4.961577 -103.268667   15.811747    0.000000    0.000000    0.000000    0.000000
  0.044649299   -4.447213    3.016305 -101.904244    2.472294    0.000000    0.000000    0.000000    0.000000
  0.044849699   -4.487321    1.071392 -100.425158   10.994413    0.000000    0.000000    0.000000    0.000000
  0.045050100   -4.525765   -0.846214 -100.105262   11.948346    0.000000    0.000000    0.000000    0.000000
  0.045250501   -4.563845   -2.765904 -102.114908    5.052599    0.000000    0.000000    0.000000    0.000000
  0.045450902   -4.605645   -4.663412 -102.556492    3.633659    0.000000    0.000000    0.000000    0.000000
  0.045651303   -4.643541   -6.539629 -100.241239    2.255375    0.000000    0.000000    0.000000    0.000000
  0.045851703   -4.684706   -8.400273 -100.854953   11.166254    0.000000    0.000000    0.000000    0.000000
  0.046052104   -4.721669  -10.258882 -101.664348    3.805685    0.000000    0.000000    0.000000    0.000000
  0.046252505   -4.759119  -12.105174 -100.921221    9.707272    0.000000    0.000000    0.000000    0.000000
  0.046452906   -4.795473  -13.937331 -101.940115    2.388153    0.000000    0.000000    0.000000    0.000000
  0.046653307   -4.828938  -15.792651 -103.845817   -0.627099    0.000000    0.000000    0.000000    0.000000
  0.046853707   -4.861011  -17.617481 -100.333291    2.289546    0.000000    0.000000    0.000000    0.000000
  0.047054108   -4.892193  -19.439186 -102.455667   -2.213686    0.000000    0.000000    0.000000    0.000000
  0.047254509   -4.922831  -21.232910 -100.650163   -0.951678    0.000000    0.000000    0.000000    0.000000
  0.047454910   -4.954001  -23.027864 -102.510492    0.263797    0.000000    0.000000    0.000000    0.000000
  0.047655311   -4.981521  -24.805086 -101.643221    2.341766    0.000000    0.000000    0.000000    0.000000
  0.047855711   -5.011026  -26.538635 -100.712081   -7.981307    0.000000    0.000000    0.000000    0.000000
  0.048056112   -5.039175  -28.272722 -100.676546    4.624781    0.000000    0.000000    0.000000    0.000000
  0.048256513   -5.072589  -29.999567 -102.248582   -8.684165    0.000000    0.000000    0.000000    0.000000
  0.048456914   -5.100402  -31.737755 -101.905479   -9.547646    0.000000    0.000000    0.000000    0.000000
  0.048657315   -5.129500  -33.456871 -103.213947   -9.887282    0.000000    0.000000    0.000000    0.000000
  0.048857715   -5.154286  -35.181126 -102.710552   21.525412    0.000000    0.000000    0.000000    0.000000
  0.049058116   -5.179004  -36.894279 -104.134392    2.826870    0.000000    0.000000    0.000000    0.000000
  0.049258517   -5.202764  -38.586090 -101.773284    9.366931    0.000000    0.000000    0.000000    0.000000
  0.049458918   -5.228039  -40.278759 -104.199745   -3.533325    0.000000    0.000000    0.000000    0.000000
  0.049659319   -5.251012  -41.957199 -103.680292    7.095424    0.000000    0.000000    0.000000    0.000000
  0.049859719   -5.275310  -43.633774 -103.719690   17.742584    0.000000    0.000000    0.000000    0.000000
  0.050060120   -5.298826  -45.304756 -105.380659   18.507795    0.000000    0.000000    0.000000    0.000000
  0.050260521   -5.319069  -46.983284 -102.307920   29.108307    0.000000    0.000000    0.000000    0.000000
  0.050460922   -5.338727  -48.649647 -102.933244   10.061091    0.000000    0.000000    0.000000    0.000000
  0.050661323   -5.352527  -50.309879 -103.023115    0.109047    0.000000    0.000000    0.000000    0.000000
  0.050861723   -5.369170  -51.933647 -103.301943    6.140977    0.000000    0.000000    0.000000    0.000000
  0.051062124   -5.383067  -53.579185 -103.182386    4.828587    0.000000    0.000000    0.000000    0.000000
  0.051262525   -5.395283  -55.156723 -102.103829    5.209810    0.000000    0.000000    0.000000    0.000000
  0.051462926   -5.407399  -56.696121 -100.050850   14.378269    0.000000    0.000000    0.000000    0.000000
  0.051663327   -5.418208  -58.252872 -102.509236    3.081579    0.000000    0.000000    0.000000    0.000000
  0.051863727   -5.432878  -59.778198 -101.576933   13.943365    0.000000    0.000000    0.000000    0.000000
  0.052064128   -5.448940  -61.326214 -102.738854    7.727214    0.000000    0.000000    0.000000    0.000000
  0.052264529   -5.464398  -62.853745 -103.156096    5.718825    0.000000    0.000000    0.000000    0.000000
  0.052464930   -5.479361  -64.376877 -101.605539   15.138121    0.000000    0.000000    0.000000    0.000000
  0.052665331   -5.494701  -65.906563 -101.501862   -1.728341    0.000000    0.000000    0.000000    0.000000
  0.052865731   -5.509712  -67.439598 -101.006529   -4.300397    0.000000    0.000000    0.000000    0.000000
