! Anritsu VNA Master:                     Model: MS2036C/10/77
! SN:                                  1601066
! /bd0/18may09/254.ew.m5.s2p
! Existing Calibration Information:
! TYPE:                         Current Settings,       Active Cal Settings
! TIME:             	   05/09/2018 10:18:33 AM,    05/09/2018 10:08:40 AM
! INTERNAL TEMP:    	                   48.8 C,                    48.0 C
! # POINTS:         	                      500,                       500
! START FREQ:       	               20.000 MHz,                20.000 MHz
! STOP FREQ:        	              120.000 MHz,               120.000 MHz
! SOURCE POWER:     	                     High,                      High
! IFBW:             	                    50 Hz,                     50 Hz
! AVG FACTOR:       	                       1 ,                        1 
! REF PLANE 1:      	                     0 mm,                      0 mm
! REF PLANE 2:      	                     0 mm,                      0 mm
! CAL TYPE:         	                 Full S11,                  Full S11
! CAL METHOD:       	                     SOLT,                      SOLT
! CAL LINE TYPE:    	                     Coax,                      Coax
! DUT PORT 1:       	                K-Conn(F),                 K-Conn(F)
! DUT PORT 2:       	                K-Conn(F),                 K-Conn(F)
! CAL STATUS:       	        OK: Accuracy High,                        --
# GHZ S DB R 50.0
! FREQ.GHZ       S11DB        S11A       S21DB        S21A       S12DB        S12A       S22DB        S22A
  0.020000000   -0.614602 -125.128357  -90.962942   29.866003    0.000000    0.000000    0.000000    0.000000
  0.020200401   -0.611442 -126.577568  -91.472329   29.317553    0.000000    0.000000    0.000000    0.000000
  0.020400802   -0.611547 -128.024399  -91.915427   28.807972    0.000000    0.000000    0.000000    0.000000
  0.020601202   -0.610919 -129.493057  -92.257198   30.880548    0.000000    0.000000    0.000000    0.000000
  0.020801603   -0.614892 -130.981659  -92.085536   30.009689    0.000000    0.000000    0.000000    0.000000
  0.021002004   -0.619587 -132.499405  -92.392724   32.604702    0.000000    0.000000    0.000000    0.000000
  0.021202405   -0.625590 -134.030838  -92.924436   32.035988    0.000000    0.000000    0.000000    0.000000
  0.021402806   -0.630291 -135.557358  -92.540125   30.221336    0.000000    0.000000    0.000000    0.000000
  0.021603206   -0.632277 -137.087418  -92.992088   31.666147    0.000000    0.000000    0.000000    0.000000
  0.021803607   -0.636079 -138.615601  -93.047237   35.588203    0.000000    0.000000    0.000000    0.000000
  0.022004008   -0.640120 -140.164200  -93.077241   32.131069    0.000000    0.000000    0.000000    0.000000
  0.022204409   -0.648971 -141.707047  -93.132929   32.812206    0.000000    0.000000    0.000000    0.000000
  0.022404810   -0.652586 -143.268478  -93.705974   34.958706    0.000000    0.000000    0.000000    0.000000
  0.022605210   -0.653099 -144.886749  -93.246634   37.907890    0.000000    0.000000    0.000000    0.000000
  0.022805611   -0.656880 -146.462967  -92.694794   32.741688    0.000000    0.000000    0.000000    0.000000
  0.023006012   -0.663661 -148.040390  -93.124950   31.455793    0.000000    0.000000    0.000000    0.000000
  0.023206413   -0.663794 -149.619888  -92.938736   30.927452    0.000000    0.000000    0.000000    0.000000
  0.023406814   -0.665980 -151.192398  -93.144640   33.965702    0.000000    0.000000    0.000000    0.000000
  0.023607214   -0.667872 -152.792709  -92.330560   33.313175    0.000000    0.000000    0.000000    0.000000
  0.023807615   -0.673943 -154.390015  -93.166161   31.374201    0.000000    0.000000    0.000000    0.000000
  0.024008016   -0.683192 -156.011353  -92.027088   27.232344    0.000000    0.000000    0.000000    0.000000
  0.024208417   -0.690682 -157.645432  -92.663924   28.344412    0.000000    0.000000    0.000000    0.000000
  0.024408818   -0.698438 -159.292267  -92.659936   25.587109    0.000000    0.000000    0.000000    0.000000
  0.024609218   -0.704980 -160.928864  -92.694927   23.411333    0.000000    0.000000    0.000000    0.000000
  0.024809619   -0.713655 -162.590424  -93.153359   17.908554    0.000000    0.000000    0.000000    0.000000
  0.025010020   -0.720801 -164.238571  -94.148739   24.631062    0.000000    0.000000    0.000000    0.000000
  0.025210421   -0.732132 -165.893280  -93.760796   18.076891    0.000000    0.000000    0.000000    0.000000
  0.025410822   -0.744368 -167.574722  -94.486364   25.751747    0.000000    0.000000    0.000000    0.000000
  0.025611222   -0.755647 -169.269638  -94.072628   15.950440    0.000000    0.000000    0.000000    0.000000
  0.025811623   -0.765503 -170.978760  -94.550284   19.008862    0.000000    0.000000    0.000000    0.000000
  0.026012024   -0.775433 -172.718918  -94.756002   14.327034    0.000000    0.000000    0.000000    0.000000
  0.026212425   -0.784469 -174.438324  -95.430616   18.769993    0.000000    0.000000    0.000000    0.000000
  0.026412826   -0.796701 -176.161865  -95.915933   15.739988    0.000000    0.000000    0.000000    0.000000
  0.026613226   -0.810101 -177.906784  -96.108574   15.603697    0.000000    0.000000    0.000000    0.000000
  0.026813627   -0.823100 -179.664703  -96.383961   16.739744    0.000000    0.000000    0.000000    0.000000
  0.027014028   -0.838302  178.566925  -95.747872   21.320477    0.000000    0.000000    0.000000    0.000000
  0.027214429   -0.852946  176.795425  -97.690046   20.527529    0.000000    0.000000    0.000000    0.000000
  0.027414830   -0.866543  175.002472  -95.120035   24.885286    0.000000    0.000000    0.000000    0.000000
  0.027615230   -0.881476  173.201447  -96.687447   19.115671    0.000000    0.000000    0.000000    0.000000
  0.027815631   -0.900140  171.401764  -95.980225   22.924843    0.000000    0.000000    0.000000    0.000000
  0.028016032   -0.918456  169.574127  -96.250584   20.610144    0.000000    0.000000    0.000000    0.000000
  0.028216433   -0.938222  167.745834  -96.366699   22.789875    0.000000    0.000000    0.000000    0.000000
  0.028416834   -0.956782  165.909195  -96.604136   29.977175    0.000000    0.000000    0.000000    0.000000
  0.028617234   -0.974659  164.075394  -96.362758   16.888138    0.000000    0.000000    0.000000    0.000000
  0.028817635   -0.993353  162.236206  -96.312875   21.189117    0.000000    0.000000    0.000000    0.000000
  0.029018036   -1.010325  160.409378  -96.226052   24.035267    0.000000    0.000000    0.000000    0.000000
  0.029218437   -1.028546  158.584671  -95.974018   21.357956    0.000000    0.000000    0.000000    0.000000
  0.029418838   -1.050277  156.753891  -96.466451   17.296852    0.000000    0.000000    0.000000    0.000000
  0.029619238   -1.073925  154.916183  -96.258466   17.931215    0.000000    0.000000    0.000000    0.000000
  0.029819639   -1.101452  153.039841  -96.290014   18.376711    0.000000    0.000000    0.000000    0.000000
  0.030020040   -1.130393  151.147995  -95.341443   19.674294    0.000000    0.000000    0.000000    0.000000
  0.030220441   -1.157153  149.219894  -95.778910   11.711123    0.000000    0.000000    0.000000    0.000000
  0.030420842   -1.183251  147.296234  -96.828733   14.075771    0.000000    0.000000    0.000000    0.000000
  0.030621242   -1.212177  145.391708  -95.271586   13.686129    0.000000    0.000000    0.000000    0.000000
  0.030821643   -1.242837  143.486694  -96.926740    9.552382    0.000000    0.000000    0.000000    0.000000
  0.031022044   -1.274383  141.565277  -97.514044    8.849025    0.000000    0.000000    0.000000    0.000000
  0.031222445   -1.304110  139.634979  -96.876075   14.496188    0.000000    0.000000    0.000000    0.000000
  0.031422846   -1.339192  137.652069  -96.342054    9.202867    0.000000    0.000000    0.000000    0.000000
  0.031623246   -1.373020  135.666351  -97.978341   11.982371    0.000000    0.000000    0.000000    0.000000
  0.031823647   -1.405897  133.682190  -97.551466   17.007250    0.000000    0.000000    0.000000    0.000000
  0.032024048   -1.437729  131.677216  -96.727073    6.926027    0.000000    0.000000    0.000000    0.000000
  0.032224449   -1.469418  129.695251  -97.169460   18.407467    0.000000    0.000000    0.000000    0.000000
  0.032424850   -1.500517  127.709023  -97.882750   11.091501    0.000000    0.000000    0.000000    0.000000
  0.032625251   -1.530891  125.753059  -98.125810   11.090283    0.000000    0.000000    0.000000    0.000000
  0.032825651   -1.564740  123.770065  -97.937563    2.709539    0.000000    0.000000    0.000000    0.000000
  0.033026052   -1.604733  121.792137  -97.461517    8.975878    0.000000    0.000000    0.000000    0.000000
  0.033226453   -1.645190  119.813583  -97.965353   18.925362    0.000000    0.000000    0.000000    0.000000
  0.033426854   -1.693326  117.837494  -99.229950   10.667417    0.000000    0.000000    0.000000    0.000000
  0.033627255   -1.738518  115.816704  -99.243612   10.482080    0.000000    0.000000    0.000000    0.000000
  0.033827655   -1.788349  113.778595  -99.105435    7.257650    0.000000    0.000000    0.000000    0.000000
  0.034028056   -1.835964  111.694389  -98.028118   15.538913    0.000000    0.000000    0.000000    0.000000
  0.034228457   -1.879218  109.586647  -97.238461   14.470219    0.000000    0.000000    0.000000    0.000000
  0.034428858   -1.927341  107.470711  -98.351691   12.025248    0.000000    0.000000    0.000000    0.000000
  0.034629259   -1.971572  105.330193  -98.237680    3.444766    0.000000    0.000000    0.000000    0.000000
  0.034829659   -2.010894  103.212601  -97.250938   19.234226    0.000000    0.000000    0.000000    0.000000
  0.035030060   -2.052425  101.097008  -99.521908   21.601517    0.000000    0.000000    0.000000    0.000000
  0.035230461   -2.094427   99.004593  -97.949434   14.082422    0.000000    0.000000    0.000000    0.000000
  0.035430862   -2.132754   96.908714  -97.780930    9.552206    0.000000    0.000000    0.000000    0.000000
  0.035631263   -2.170675   94.832108  -97.012037   10.859692    0.000000    0.000000    0.000000    0.000000
  0.035831663   -2.211096   92.753578  -98.734936   15.456328    0.000000    0.000000    0.000000    0.000000
  0.036032064   -2.254234   90.705017  -99.267104    7.612739    0.000000    0.000000    0.000000    0.000000
  0.036232465   -2.297173   88.652641  -99.627540   10.745624    0.000000    0.000000    0.000000    0.000000
  0.036432866   -2.345654   86.627762 -100.490330   -4.728412    0.000000    0.000000    0.000000    0.000000
  0.036633267   -2.395610   84.584160  -99.972996    7.608228    0.000000    0.000000    0.000000    0.000000
  0.036833667   -2.449038   82.557365  -98.413640    8.383892    0.000000    0.000000    0.000000    0.000000
  0.037034068   -2.504472   80.507332 -100.086249   -4.657458    0.000000    0.000000    0.000000    0.000000
  0.037234469   -2.564672   78.447273 -100.240736   12.687160    0.000000    0.000000    0.000000    0.000000
  0.037434870   -2.622313   76.343071  -99.606439    8.664873    0.000000    0.000000    0.000000    0.000000
  0.037635271   -2.677160   74.231361  -99.617798    1.997654    0.000000    0.000000    0.000000    0.000000
  0.037835671   -2.736563   72.088394 -100.250396    2.100287    0.000000    0.000000    0.000000    0.000000
  0.038036072   -2.796451   69.926781 -101.100523   13.950595    0.000000    0.000000    0.000000    0.000000
  0.038236473   -2.856202   67.798111  -98.521872    5.582769    0.000000    0.000000    0.000000    0.000000
  0.038436874   -2.907134   65.636147 -100.069275    3.859757    0.000000    0.000000    0.000000    0.000000
  0.038637275   -2.959125   63.526272  -99.223821   11.326118    0.000000    0.000000    0.000000    0.000000
  0.038837675   -3.003263   61.420155  -99.439411   16.946665    0.000000    0.000000    0.000000    0.000000
  0.039038076   -3.047789   59.361931 -100.498326   10.129784    0.000000    0.000000    0.000000    0.000000
  0.039238477   -3.093154   57.312733 -100.487236    7.941066    0.000000    0.000000    0.000000    0.000000
  0.039438878   -3.141330   55.292248 -101.790326    1.540956    0.000000    0.000000    0.000000    0.000000
  0.039639279   -3.191791   53.291595  -99.900364    8.694446    0.000000    0.000000    0.000000    0.000000
  0.039839679   -3.249396   51.276009 -100.004693   17.311573    0.000000    0.000000    0.000000    0.000000
  0.040040080   -3.305143   49.240780 -100.259570    2.502940    0.000000    0.000000    0.000000    0.000000
  0.040240481   -3.361368   47.195095  -99.516284    2.172148    0.000000    0.000000    0.000000    0.000000
  0.040440882   -3.423122   45.140537 -100.201232   13.125729    0.000000    0.000000    0.000000    0.000000
  0.040641283   -3.478032   43.084274  -99.030742    4.862785    0.000000    0.000000    0.000000    0.000000
  0.040841683   -3.535024   41.006664  -99.538401   10.944462    0.000000    0.000000    0.000000    0.000000
  0.041042084   -3.589559   38.970921 -100.127310    7.030162    0.000000    0.000000    0.000000    0.000000
  0.041242485   -3.642117   36.916798 -100.061673    4.574344    0.000000    0.000000    0.000000    0.000000
  0.041442886   -3.693744   34.857876  -99.897017    2.032954    0.000000    0.000000    0.000000    0.000000
  0.041643287   -3.745710   32.773968 -102.773842   -4.177941    0.000000    0.000000    0.000000    0.000000
  0.041843687   -3.796017   30.741131  -99.379637   -0.385228    0.000000    0.000000    0.000000    0.000000
  0.042044088   -3.843708   28.682816 -100.082980    1.587028    0.000000    0.000000    0.000000    0.000000
  0.042244489   -3.892231   26.672344 -100.173686    5.829624    0.000000    0.000000    0.000000    0.000000
  0.042444890   -3.937329   24.667601 -102.369701    7.791905    0.000000    0.000000    0.000000    0.000000
  0.042645291   -3.987096   22.665579 -103.857278   -1.984009    0.000000    0.000000    0.000000    0.000000
  0.042845691   -4.033924   20.680784 -102.329596    7.245278    0.000000    0.000000    0.000000    0.000000
  0.043046092   -4.081237   18.681330 -104.184553   10.451653    0.000000    0.000000    0.000000    0.000000
  0.043246493   -4.128787   16.686073 -102.324092    5.842499    0.000000    0.000000    0.000000    0.000000
  0.043446894   -4.173004   14.701827 -103.109813   18.508350    0.000000    0.000000    0.000000    0.000000
  0.043647295   -4.219032   12.718294 -103.265893    8.555581    0.000000    0.000000    0.000000    0.000000
  0.043847695   -4.265249   10.757713 -101.287691    2.004730    0.000000    0.000000    0.000000    0.000000
  0.044048096   -4.314481    8.787226 -100.984076   10.182557    0.000000    0.000000    0.000000    0.000000
  0.044248497   -4.359983    6.813374 -102.876690   13.452605    0.000000    0.000000    0.000000    0.000000
  0.044448898   -4.405352    4.864899 -102.468290    9.758907    0.000000    0.000000    0.000000    0.000000
  0.044649299   -4.450281    2.913857 -100.924052    4.122305    0.000000    0.000000    0.000000    0.000000
  0.044849699   -4.489580    0.967992 -101.622485    9.229975    0.000000    0.000000    0.000000    0.000000
  0.045050100   -4.527662   -0.958762  -99.835713   11.913071    0.000000    0.000000    0.000000    0.000000
  0.045250501   -4.568506   -2.870592 -100.945660    0.091862    0.000000    0.000000    0.000000    0.000000
  0.045450902   -4.606535   -4.776850 -102.775007   16.116941    0.000000    0.000000    0.000000    0.000000
  0.045651303   -4.647889   -6.657741 -102.097728   -3.205750    0.000000    0.000000    0.000000    0.000000
  0.045851703   -4.686263   -8.516951 -100.972661   17.606186    0.000000    0.000000    0.000000    0.000000
  0.046052104   -4.723658  -10.396593 -100.566175   17.542519    0.000000    0.000000    0.000000    0.000000
  0.046252505   -4.761099  -12.246699  -99.265627    7.868184    0.000000    0.000000    0.000000    0.000000
  0.046452906   -4.796060  -14.088672 -102.164004    1.857756    0.000000    0.000000    0.000000    0.000000
  0.046653307   -4.829577  -15.950995 -101.373201    0.036241    0.000000    0.000000    0.000000    0.000000
  0.046853707   -4.859874  -17.782112 -101.369134    0.872019    0.000000    0.000000    0.000000    0.000000
  0.047054108   -4.890563  -19.610998 -101.450484    2.728644    0.000000    0.000000    0.000000    0.000000
  0.047254509   -4.919734  -21.406052 -102.602588    2.120481    0.000000    0.000000    0.000000    0.000000
  0.047454910   -4.950369  -23.192698 -101.929216  -16.599611    0.000000    0.000000    0.000000    0.000000
  0.047655311   -4.980024  -24.966251 -101.827404    0.617812    0.000000    0.000000    0.000000    0.000000
  0.047855711   -5.006145  -26.712103 -103.937333   -6.194857    0.000000    0.000000    0.000000    0.000000
  0.048056112   -5.034949  -28.419870 -102.418395   -2.497114    0.000000    0.000000    0.000000    0.000000
  0.048256513   -5.069409  -30.152420 -102.865376    2.181054    0.000000    0.000000    0.000000    0.000000
  0.048456914   -5.094760  -31.889036 -103.874335   -4.149664    0.000000    0.000000    0.000000    0.000000
  0.048657315   -5.125024  -33.603260 -102.753457   -0.289406    0.000000    0.000000    0.000000    0.000000
  0.048857715   -5.148747  -35.323532 -108.103375    3.181180    0.000000    0.000000    0.000000    0.000000
  0.049058116   -5.174382  -37.035435 -103.520327   -4.253655    0.000000    0.000000    0.000000    0.000000
  0.049258517   -5.196962  -38.730240 -104.855837   -2.187401    0.000000    0.000000    0.000000    0.000000
  0.049458918   -5.222259  -40.402634 -105.311904   -0.740450    0.000000    0.000000    0.000000    0.000000
  0.049659319   -5.245687  -42.081074 -102.653812   15.852340    0.000000    0.000000    0.000000    0.000000
  0.049859719   -5.270656  -43.752190 -106.235176   14.243891    0.000000    0.000000    0.000000    0.000000
  0.050060120   -5.294040  -45.416382 -102.501579    9.990914    0.000000    0.000000    0.000000    0.000000
  0.050260521   -5.313917  -47.095646 -101.606875   20.960526    0.000000    0.000000    0.000000    0.000000
  0.050460922   -5.335708  -48.753284 -103.547931    7.979210    0.000000    0.000000    0.000000    0.000000
  0.050661323   -5.350066  -50.415352 -105.847105   -5.967973    0.000000    0.000000    0.000000    0.000000
  0.050861723   -5.365065  -52.041557 -103.000284    9.561064    0.000000    0.000000    0.000000    0.000000
  0.051062124   -5.380371  -53.675323 -102.717836   -2.586792    0.000000    0.000000    0.000000    0.000000
  0.051262525   -5.392981  -55.254261 -101.999959   10.834295    0.000000    0.000000    0.000000    0.000000
  0.051462926   -5.406461  -56.817379 -103.783697   14.799773    0.000000    0.000000    0.000000    0.000000
  0.051663327   -5.417985  -58.350792 -103.030751    2.243709    0.000000    0.000000    0.000000    0.000000
  0.051863727   -5.433753  -59.892773 -102.040772   11.056690    0.000000    0.000000    0.000000    0.000000
  0.052064128   -5.448872  -61.446594 -101.711506    4.370878    0.000000    0.000000    0.000000    0.000000
  0.052264529   -5.463047  -62.967316 -102.292386   -8.468794    0.000000    0.000000    0.000000    0.000000
  0.052464930   -5.479111  -64.501183 -101.984745    6.117711    0.000000    0.000000    0.000000    0.000000
  0.052665331   -5.495390  -66.034088 -103.002832    2.854251    0.000000    0.000000    0.000000    0.000000
  0.052865731   -5.507708  -67.584213 -101.803465   -3.253337    0.000000    0.000000    0.000000    0.000000
