! Anritsu VNA Master:                     Model: MS2036C/10/77
! SN:                                  1601066
! /bd0/18may09/254.ew.m12.s2p
! Existing Calibration Information:
! TYPE:                         Current Settings,       Active Cal Settings
! TIME:             	   05/09/2018 12:13:18 PM,    05/09/2018 12:08:51 PM
! INTERNAL TEMP:    	                   55.3 C,                    54.8 C
! # POINTS:         	                      494,                       494
! START FREQ:       	               20.000 MHz,                20.000 MHz
! STOP FREQ:        	          118.797 594 MHz,           118.797 594 MHz
! SOURCE POWER:     	                     High,                      High
! IFBW:             	                    50 Hz,                     50 Hz
! AVG FACTOR:       	                       1 ,                        1 
! REF PLANE 1:      	                     0 mm,                      0 mm
! REF PLANE 2:      	                     0 mm,                      0 mm
! CAL TYPE:         	                 Full S22,                  Full S22
! CAL METHOD:       	                     SOLT,                      SOLT
! CAL LINE TYPE:    	                     Coax,                      Coax
! DUT PORT 1:       	                K-Conn(M),                 K-Conn(M)
! DUT PORT 2:       	                K-Conn(M),                 K-Conn(M)
! CAL STATUS:       	        OK: Accuracy High,                        --
# GHZ S DB R 50.0
! FREQ.GHZ       S11DB        S11A       S21DB        S21A       S12DB        S12A       S22DB        S22A
  0.020000000    0.000000    0.000000    0.000000    0.000000  -89.348477   34.499329   -0.641727 -126.747314
  0.020200401    0.000000    0.000000    0.000000    0.000000  -89.925135   35.845161   -0.642868 -128.220810
  0.020400802    0.000000    0.000000    0.000000    0.000000  -89.889628   33.183964   -0.644184 -129.699432
  0.020601202    0.000000    0.000000    0.000000    0.000000  -90.722716   35.601566   -0.646513 -131.198715
  0.020801603    0.000000    0.000000    0.000000    0.000000  -90.691514   30.615667   -0.648541 -132.728027
  0.021002004    0.000000    0.000000    0.000000    0.000000  -91.722134   34.316887   -0.650639 -134.265915
  0.021202405    0.000000    0.000000    0.000000    0.000000  -91.057561   37.113552   -0.652954 -135.803864
  0.021402806    0.000000    0.000000    0.000000    0.000000  -92.043588   35.095299   -0.654361 -137.352570
  0.021603206    0.000000    0.000000    0.000000    0.000000  -91.335607   39.050003   -0.658882 -138.878952
  0.021803607    0.000000    0.000000    0.000000    0.000000  -91.477932   41.120113   -0.660828 -140.405487
  0.022004008    0.000000    0.000000    0.000000    0.000000  -91.971064   41.307831   -0.667635 -141.943130
  0.022204409    0.000000    0.000000    0.000000    0.000000  -91.891658   42.030128   -0.673296 -143.518127
  0.022404810    0.000000    0.000000    0.000000    0.000000  -91.449612   41.180706   -0.675857 -145.104355
  0.022605210    0.000000    0.000000    0.000000    0.000000  -91.916446   42.200459   -0.679790 -146.699524
  0.022805611    0.000000    0.000000    0.000000    0.000000  -91.668709   38.371082   -0.686416 -148.287308
  0.023006012    0.000000    0.000000    0.000000    0.000000  -91.568213   42.040737   -0.692840 -149.868942
  0.023206413    0.000000    0.000000    0.000000    0.000000  -92.033224   42.924534   -0.695853 -151.459610
  0.023406814    0.000000    0.000000    0.000000    0.000000  -90.880433   41.018745   -0.700133 -153.053192
  0.023607214    0.000000    0.000000    0.000000    0.000000  -90.890161   40.233719   -0.705694 -154.659012
  0.023807615    0.000000    0.000000    0.000000    0.000000  -91.014497   34.399555   -0.714499 -156.271194
  0.024008016    0.000000    0.000000    0.000000    0.000000  -91.091892   37.149731   -0.722481 -157.905075
  0.024208417    0.000000    0.000000    0.000000    0.000000  -91.275833   31.239687   -0.728270 -159.563080
  0.024408818    0.000000    0.000000    0.000000    0.000000  -91.205429   35.920444   -0.735177 -161.227768
  0.024609218    0.000000    0.000000    0.000000    0.000000  -91.332660   32.638706   -0.740214 -162.876831
  0.024809619    0.000000    0.000000    0.000000    0.000000  -91.748291   31.323517   -0.749040 -164.556732
  0.025010020    0.000000    0.000000    0.000000    0.000000  -91.310619   27.618176   -0.756835 -166.222198
  0.025210421    0.000000    0.000000    0.000000    0.000000  -91.644469   28.636459   -0.766891 -167.909378
  0.025410822    0.000000    0.000000    0.000000    0.000000  -92.574758   25.884737   -0.777546 -169.601120
  0.025611222    0.000000    0.000000    0.000000    0.000000  -92.456749   26.438934   -0.788702 -171.300186
  0.025811623    0.000000    0.000000    0.000000    0.000000  -92.675605   27.834799   -0.798866 -173.020615
  0.026012024    0.000000    0.000000    0.000000    0.000000  -93.046895   29.127485   -0.809099 -174.749329
  0.026212425    0.000000    0.000000    0.000000    0.000000  -92.938074   22.297096   -0.819651 -176.491150
  0.026412826    0.000000    0.000000    0.000000    0.000000  -93.528040   25.169868   -0.832566 -178.239563
  0.026613226    0.000000    0.000000    0.000000    0.000000  -93.777776   24.429178   -0.846351 -179.997345
  0.026813627    0.000000    0.000000    0.000000    0.000000  -94.810086   26.221212   -0.860162  178.235031
  0.027014028    0.000000    0.000000    0.000000    0.000000  -94.111658   27.353092   -0.875594  176.466324
  0.027214429    0.000000    0.000000    0.000000    0.000000  -94.611087   27.138479   -0.891233  174.692337
  0.027414830    0.000000    0.000000    0.000000    0.000000  -94.564621   27.878073   -0.907144  172.904999
  0.027615230    0.000000    0.000000    0.000000    0.000000  -94.404134   32.850742   -0.923444  171.105255
  0.027815631    0.000000    0.000000    0.000000    0.000000  -94.781834   30.190905   -0.938784  169.301559
  0.028016032    0.000000    0.000000    0.000000    0.000000  -94.704635   30.200867   -0.957630  167.483582
  0.028216433    0.000000    0.000000    0.000000    0.000000  -94.982842   26.553288   -0.976421  165.640472
  0.028416834    0.000000    0.000000    0.000000    0.000000  -95.370020   33.544914   -0.994911  163.807556
  0.028617234    0.000000    0.000000    0.000000    0.000000  -94.421565   33.673092   -1.015232  161.962967
  0.028817635    0.000000    0.000000    0.000000    0.000000  -94.262892   35.741714   -1.035152  160.118210
  0.029018036    0.000000    0.000000    0.000000    0.000000  -94.329046   34.742558   -1.056707  158.269821
  0.029218437    0.000000    0.000000    0.000000    0.000000  -94.472048   32.324875   -1.080182  156.407211
  0.029418838    0.000000    0.000000    0.000000    0.000000  -93.558243   32.573887   -1.102660  154.522781
  0.029619238    0.000000    0.000000    0.000000    0.000000  -94.275986   29.970167   -1.127199  152.638412
  0.029819639    0.000000    0.000000    0.000000    0.000000  -94.152884   33.124916   -1.152830  150.733109
  0.030020040    0.000000    0.000000    0.000000    0.000000  -93.469190   26.371056   -1.177904  148.830826
  0.030220441    0.000000    0.000000    0.000000    0.000000  -94.651882   28.451866   -1.202054  146.925568
  0.030420842    0.000000    0.000000    0.000000    0.000000  -93.992722   25.892004   -1.228065  145.015762
  0.030621242    0.000000    0.000000    0.000000    0.000000  -94.597780   22.976231   -1.256689  143.109131
  0.030821643    0.000000    0.000000    0.000000    0.000000  -94.379902   21.139498   -1.286190  141.200546
  0.031022044    0.000000    0.000000    0.000000    0.000000  -94.524525   21.832026   -1.315513  139.265961
  0.031222445    0.000000    0.000000    0.000000    0.000000  -94.325770   24.196074   -1.342258  137.329697
  0.031422846    0.000000    0.000000    0.000000    0.000000  -95.463889   22.422989   -1.370411  135.371490
  0.031623246    0.000000    0.000000    0.000000    0.000000  -95.260603   20.289658   -1.404517  133.403229
  0.031823647    0.000000    0.000000    0.000000    0.000000  -94.467360   17.472939   -1.436513  131.426453
  0.032024048    0.000000    0.000000    0.000000    0.000000  -94.649626   11.098762   -1.470174  129.449966
  0.032224449    0.000000    0.000000    0.000000    0.000000  -96.197732   18.334135   -1.505514  127.468758
  0.032424850    0.000000    0.000000    0.000000    0.000000  -95.703696   16.269714   -1.540460  125.482269
  0.032625250    0.000000    0.000000    0.000000    0.000000  -95.752137   20.080381   -1.579246  123.479614
  0.032825651    0.000000    0.000000    0.000000    0.000000  -95.918387   20.269655   -1.611135  121.437447
  0.033026052    0.000000    0.000000    0.000000    0.000000  -95.752596   21.977966   -1.649689  119.416008
  0.033226453    0.000000    0.000000    0.000000    0.000000  -96.495534   27.170746   -1.684549  117.356949
  0.033426854    0.000000    0.000000    0.000000    0.000000  -96.845652   26.125380   -1.722662  115.324715
  0.033627254    0.000000    0.000000    0.000000    0.000000  -95.311809   24.751364   -1.763354  113.309341
  0.033827655    0.000000    0.000000    0.000000    0.000000  -96.560373   25.237743   -1.801960  111.263145
  0.034028056    0.000000    0.000000    0.000000    0.000000  -95.959856   20.224123   -1.839759  109.214470
  0.034228457    0.000000    0.000000    0.000000    0.000000  -96.810651   27.828197   -1.884336  107.164017
  0.034428858    0.000000    0.000000    0.000000    0.000000  -95.797146   30.548531   -1.923971  105.094353
  0.034629258    0.000000    0.000000    0.000000    0.000000  -96.034970   30.517395   -1.967721  103.024986
  0.034829659    0.000000    0.000000    0.000000    0.000000  -96.466506   26.948412   -2.012669  100.959671
  0.035030060    0.000000    0.000000    0.000000    0.000000  -95.542595   25.920691   -2.057683   98.874176
  0.035230461    0.000000    0.000000    0.000000    0.000000  -96.881037   31.272226   -2.103140   96.800072
  0.035430862    0.000000    0.000000    0.000000    0.000000  -96.845774   30.242825   -2.150394   94.718582
  0.035631262    0.000000    0.000000    0.000000    0.000000  -96.216449   26.230162   -2.199054   92.642609
  0.035831663    0.000000    0.000000    0.000000    0.000000  -96.297688   27.563339   -2.245800   90.551476
  0.036032064    0.000000    0.000000    0.000000    0.000000  -96.703644   31.630901   -2.294590   88.467659
  0.036232465    0.000000    0.000000    0.000000    0.000000  -96.385840   22.278711   -2.344976   86.368050
  0.036432866    0.000000    0.000000    0.000000    0.000000  -96.804174   22.844732   -2.394653   84.258583
  0.036633266    0.000000    0.000000    0.000000    0.000000  -96.663859   20.738388   -2.445565   82.188896
  0.036833667    0.000000    0.000000    0.000000    0.000000  -96.146967   26.587053   -2.495327   80.083412
  0.037034068    0.000000    0.000000    0.000000    0.000000  -96.951939   17.242725   -2.550140   77.991066
  0.037234469    0.000000    0.000000    0.000000    0.000000  -97.517126   20.221857   -2.602637   75.903862
  0.037434870    0.000000    0.000000    0.000000    0.000000  -96.555558   26.523754   -2.652444   73.823074
  0.037635270    0.000000    0.000000    0.000000    0.000000  -97.928279   21.736238   -2.704090   71.729744
  0.037835671    0.000000    0.000000    0.000000    0.000000  -98.547403   22.533756   -2.758658   69.634758
  0.038036072    0.000000    0.000000    0.000000    0.000000  -97.658213   17.307751   -2.812092   67.500946
  0.038236473    0.000000    0.000000    0.000000    0.000000  -97.517416   15.936681   -2.869713   65.396767
  0.038436874    0.000000    0.000000    0.000000    0.000000  -99.605543   25.168705   -2.925799   63.264381
  0.038637274    0.000000    0.000000    0.000000    0.000000  -98.587089   19.529844   -2.981146   61.166878
  0.038837675    0.000000    0.000000    0.000000    0.000000  -98.170492   29.869759   -3.036667   59.065125
  0.039038076    0.000000    0.000000    0.000000    0.000000  -97.824456   19.629623   -3.089019   56.970985
  0.039238477    0.000000    0.000000    0.000000    0.000000  -98.053380   24.246412   -3.142359   54.884121
  0.039438878    0.000000    0.000000    0.000000    0.000000  -98.905593   28.207279   -3.197625   52.819618
  0.039639278    0.000000    0.000000    0.000000    0.000000  -96.829865   25.744171   -3.247962   50.710712
  0.039839679    0.000000    0.000000    0.000000    0.000000  -97.828515   24.339727   -3.302908   48.607986
  0.040040080    0.000000    0.000000    0.000000    0.000000  -97.976583   26.390646   -3.355818   46.516396
  0.040240481    0.000000    0.000000    0.000000    0.000000  -98.472443   26.981810   -3.405561   44.427582
  0.040440882    0.000000    0.000000    0.000000    0.000000  -99.532163   28.330425   -3.458208   42.344746
  0.040641283    0.000000    0.000000    0.000000    0.000000  -97.561374   29.756969   -3.512418   40.282280
  0.040841683    0.000000    0.000000    0.000000    0.000000  -97.788790   33.874809   -3.560955   38.211960
  0.041042084    0.000000    0.000000    0.000000    0.000000  -98.801170   36.005066   -3.616082   36.172066
  0.041242485    0.000000    0.000000    0.000000    0.000000  -97.659725   32.430531   -3.668828   34.102013
  0.041442886    0.000000    0.000000    0.000000    0.000000  -98.183834   32.866817   -3.721232   32.043098
  0.041643287    0.000000    0.000000    0.000000    0.000000  -98.189122   19.211704   -3.773392   29.976549
  0.041843687    0.000000    0.000000    0.000000    0.000000  -98.426527   24.286814   -3.821578   27.906517
  0.042044088    0.000000    0.000000    0.000000    0.000000  -98.594255   23.496902   -3.872680   25.868574
  0.042244489    0.000000    0.000000    0.000000    0.000000  -98.118863   29.407171   -3.923118   23.826998
  0.042444890    0.000000    0.000000    0.000000    0.000000  -98.344913   26.216629   -3.973769   21.798737
  0.042645291    0.000000    0.000000    0.000000    0.000000  -98.252969   20.891459   -4.025699   19.760921
  0.042845691    0.000000    0.000000    0.000000    0.000000  -98.551333   26.497169   -4.076290   17.750648
  0.043046092    0.000000    0.000000    0.000000    0.000000  -98.557477   34.001602   -4.126623   15.729157
  0.043246493    0.000000    0.000000    0.000000    0.000000  -99.667601   22.972219   -4.174487   13.703739
  0.043446894    0.000000    0.000000    0.000000    0.000000  -98.308815   24.336828   -4.222644   11.709601
  0.043647295    0.000000    0.000000    0.000000    0.000000  -98.501943   24.570732   -4.268371    9.698084
  0.043847695    0.000000    0.000000    0.000000    0.000000  -98.355607   31.464739   -4.317205    7.700378
  0.044048096    0.000000    0.000000    0.000000    0.000000  -98.288653   27.287331   -4.365412    5.716794
  0.044248497    0.000000    0.000000    0.000000    0.000000  -99.770434   23.113970   -4.411598    3.735621
  0.044448898    0.000000    0.000000    0.000000    0.000000 -100.049071   28.633406   -4.456928    1.784390
  0.044649299    0.000000    0.000000    0.000000    0.000000 -100.379658   23.923613   -4.502261   -0.185315
  0.044849699    0.000000    0.000000    0.000000    0.000000  -98.259563   32.329166   -4.547074   -2.104665
  0.045050100    0.000000    0.000000    0.000000    0.000000  -99.640382   29.167183   -4.592932   -4.062855
  0.045250501    0.000000    0.000000    0.000000    0.000000  -99.567678   33.247398   -4.634037   -5.992084
  0.045450902    0.000000    0.000000    0.000000    0.000000  -98.842293   31.387403   -4.679154   -7.904426
  0.045651303    0.000000    0.000000    0.000000    0.000000  -98.221155   27.433916   -4.719868   -9.847146
  0.045851703    0.000000    0.000000    0.000000    0.000000  -99.012633   34.314636   -4.762651  -11.728373
  0.046052104    0.000000    0.000000    0.000000    0.000000  -98.206796   35.888588   -4.801572  -13.617760
  0.046252505    0.000000    0.000000    0.000000    0.000000  -99.047933   24.629015   -4.842081  -15.497569
  0.046452906    0.000000    0.000000    0.000000    0.000000  -98.413580   27.093630   -4.878533  -17.370291
  0.046653307    0.000000    0.000000    0.000000    0.000000  -98.518028   33.564724   -4.916333  -19.242928
  0.046853707    0.000000    0.000000    0.000000    0.000000  -99.715344   31.035933   -4.955124  -21.092644
  0.047054108    0.000000    0.000000    0.000000    0.000000  -98.992126   25.796530   -4.988552  -22.949596
  0.047254509    0.000000    0.000000    0.000000    0.000000  -98.198827   28.586468   -5.025010  -24.788067
  0.047454910    0.000000    0.000000    0.000000    0.000000  -98.941477   30.347811   -5.059713  -26.626575
  0.047655311    0.000000    0.000000    0.000000    0.000000  -98.475910   24.572311   -5.091726  -28.436003
  0.047855711    0.000000    0.000000    0.000000    0.000000  -99.957741   32.332767   -5.125509  -30.230633
  0.048056112    0.000000    0.000000    0.000000    0.000000  -99.005981   33.474560   -5.159497  -32.033730
  0.048256513    0.000000    0.000000    0.000000    0.000000  -98.732000   23.607952   -5.192712  -33.791626
  0.048456914    0.000000    0.000000    0.000000    0.000000  -98.361842   25.717777   -5.224269  -35.556580
  0.048657315    0.000000    0.000000    0.000000    0.000000  -99.056504   27.236944   -5.252639  -37.337021
  0.048857715    0.000000    0.000000    0.000000    0.000000  -99.606244   28.532249   -5.281053  -39.091999
  0.049058116    0.000000    0.000000    0.000000    0.000000 -100.300183   28.173388   -5.303570  -40.852421
  0.049258517    0.000000    0.000000    0.000000    0.000000  -99.164228   27.170086   -5.332092  -42.592377
  0.049458918    0.000000    0.000000    0.000000    0.000000  -99.049498   24.138552   -5.354951  -44.294880
  0.049659319    0.000000    0.000000    0.000000    0.000000  -99.353083   32.804268   -5.383005  -46.000931
  0.049859719    0.000000    0.000000    0.000000    0.000000  -99.496287   26.847687   -5.409842  -47.689430
  0.050060120    0.000000    0.000000    0.000000    0.000000  -99.929618   40.286064   -5.435595  -49.373631
  0.050260521    0.000000    0.000000    0.000000    0.000000  -98.961564   26.702785   -5.456170  -51.071064
  0.050460922    0.000000    0.000000    0.000000    0.000000  -99.200443   28.026985   -5.479092  -52.750618
  0.050661323    0.000000    0.000000    0.000000    0.000000  -99.971039   23.299967   -5.495930  -54.402630
  0.050861723    0.000000    0.000000    0.000000    0.000000 -100.143923   39.569309   -5.517030  -56.055721
  0.051062124    0.000000    0.000000    0.000000    0.000000  -99.172729   32.589607   -5.541340  -57.679779
  0.051262525    0.000000    0.000000    0.000000    0.000000  -97.950428   34.969517   -5.562117  -59.305679
  0.051462926    0.000000    0.000000    0.000000    0.000000  -99.205298   34.614059   -5.582589  -60.892094
  0.051663327    0.000000    0.000000    0.000000    0.000000  -99.933247   28.331663   -5.601239  -62.483566
  0.051863727    0.000000    0.000000    0.000000    0.000000  -97.766543   36.714333   -5.616758  -64.084557
  0.052064128    0.000000    0.000000    0.000000    0.000000  -98.901880   36.880684   -5.634350  -65.662888
  0.052264529    0.000000    0.000000    0.000000    0.000000  -99.695066   33.074028   -5.643828  -67.223625
  0.052464930    0.000000    0.000000    0.000000    0.000000  -99.635787   42.307133   -5.658593  -68.771156
  0.052665331    0.000000    0.000000    0.000000    0.000000  -99.169087   21.717726   -5.672930  -70.321388
  0.052865731    0.000000    0.000000    0.000000    0.000000  -98.871395   40.626427   -5.685854  -71.831856
