! Anritsu VNA Master:                     Model: MS2036C/10/77
! SN:                                  1601066
! /bd0/18may09/254.ew.m4.s2p
! Existing Calibration Information:
! TYPE:                         Current Settings,       Active Cal Settings
! TIME:             	   05/09/2018 10:17:02 AM,    05/09/2018 10:08:40 AM
! INTERNAL TEMP:    	                   48.8 C,                    48.0 C
! # POINTS:         	                      500,                       500
! START FREQ:       	               20.000 MHz,                20.000 MHz
! STOP FREQ:        	              120.000 MHz,               120.000 MHz
! SOURCE POWER:     	                     High,                      High
! IFBW:             	                    50 Hz,                     50 Hz
! AVG FACTOR:       	                       1 ,                        1 
! REF PLANE 1:      	                     0 mm,                      0 mm
! REF PLANE 2:      	                     0 mm,                      0 mm
! CAL TYPE:         	                 Full S11,                  Full S11
! CAL METHOD:       	                     SOLT,                      SOLT
! CAL LINE TYPE:    	                     Coax,                      Coax
! DUT PORT 1:       	                K-Conn(F),                 K-Conn(F)
! DUT PORT 2:       	                K-Conn(F),                 K-Conn(F)
! CAL STATUS:       	        OK: Accuracy High,                        --
# GHZ S DB R 50.0
! FREQ.GHZ       S11DB        S11A       S21DB        S21A       S12DB        S12A       S22DB        S22A
  0.020000000   -0.609475 -125.112320  -90.559086   33.945545    0.000000    0.000000    0.000000    0.000000
  0.020200401   -0.608052 -126.567490  -91.265816   27.163506    0.000000    0.000000    0.000000    0.000000
  0.020400802   -0.607793 -128.011658  -91.315369   30.101460    0.000000    0.000000    0.000000    0.000000
  0.020601202   -0.607536 -129.480331  -91.698153   27.643269    0.000000    0.000000    0.000000    0.000000
  0.020801603   -0.611642 -130.969391  -92.260823   28.532833    0.000000    0.000000    0.000000    0.000000
  0.021002004   -0.616419 -132.482498  -92.673536   28.576900    0.000000    0.000000    0.000000    0.000000
  0.021202405   -0.622826 -134.005951  -92.940617   31.496031    0.000000    0.000000    0.000000    0.000000
  0.021402806   -0.627402 -135.536621  -93.626382   28.734930    0.000000    0.000000    0.000000    0.000000
  0.021603206   -0.629104 -137.076660  -93.319460   33.267139    0.000000    0.000000    0.000000    0.000000
  0.021803607   -0.635293 -138.605713  -93.211688   34.425716    0.000000    0.000000    0.000000    0.000000
  0.022004008   -0.639389 -140.141479  -93.421300   38.423050    0.000000    0.000000    0.000000    0.000000
  0.022204409   -0.646526 -141.687622  -93.245860   33.432522    0.000000    0.000000    0.000000    0.000000
  0.022404810   -0.651497 -143.252548  -92.900768   34.663948    0.000000    0.000000    0.000000    0.000000
  0.022605210   -0.652411 -144.863663  -92.496411   35.034023    0.000000    0.000000    0.000000    0.000000
  0.022805611   -0.654292 -146.443817  -93.025163   34.882488    0.000000    0.000000    0.000000    0.000000
  0.023006012   -0.660033 -148.027039  -93.267604   39.437824    0.000000    0.000000    0.000000    0.000000
  0.023206413   -0.661906 -149.607330  -92.233905   35.661537    0.000000    0.000000    0.000000    0.000000
  0.023406814   -0.663415 -151.183075  -92.491175   34.673382    0.000000    0.000000    0.000000    0.000000
  0.023607214   -0.667865 -152.776520  -92.269084   33.871212    0.000000    0.000000    0.000000    0.000000
  0.023807615   -0.673043 -154.371918  -92.259217   33.175404    0.000000    0.000000    0.000000    0.000000
  0.024008016   -0.681366 -155.982803  -92.686333   32.408848    0.000000    0.000000    0.000000    0.000000
  0.024208417   -0.689210 -157.618561  -93.788660   27.765242    0.000000    0.000000    0.000000    0.000000
  0.024408818   -0.697826 -159.266312  -92.612312   23.813738    0.000000    0.000000    0.000000    0.000000
  0.024609218   -0.704479 -160.902786  -92.656227   25.417812    0.000000    0.000000    0.000000    0.000000
  0.024809619   -0.712369 -162.560104  -92.750182   23.897055    0.000000    0.000000    0.000000    0.000000
  0.025010020   -0.720065 -164.209473  -94.119611   22.770164    0.000000    0.000000    0.000000    0.000000
  0.025210421   -0.730563 -165.866699  -93.883025   16.345215    0.000000    0.000000    0.000000    0.000000
  0.025410822   -0.742945 -167.533066  -94.248485   18.495424    0.000000    0.000000    0.000000    0.000000
  0.025611222   -0.754487 -169.238083  -94.256564   18.869427    0.000000    0.000000    0.000000    0.000000
  0.025811623   -0.765041 -170.941666  -94.428336   21.523018    0.000000    0.000000    0.000000    0.000000
  0.026012024   -0.774052 -172.678848  -94.205622   17.709671    0.000000    0.000000    0.000000    0.000000
  0.026212425   -0.783661 -174.399277  -95.665796   15.327249    0.000000    0.000000    0.000000    0.000000
  0.026412826   -0.796240 -176.124268  -95.116409   18.758018    0.000000    0.000000    0.000000    0.000000
  0.026613226   -0.808450 -177.867538  -96.046790   16.821091    0.000000    0.000000    0.000000    0.000000
  0.026813627   -0.822000 -179.622833  -95.548955   20.145336    0.000000    0.000000    0.000000    0.000000
  0.027014028   -0.837118  178.613556  -95.339467   18.745253    0.000000    0.000000    0.000000    0.000000
  0.027214429   -0.852145  176.838196  -97.364170   14.628468    0.000000    0.000000    0.000000    0.000000
  0.027414830   -0.866376  175.047501  -95.975288   20.141357    0.000000    0.000000    0.000000    0.000000
  0.027615230   -0.879504  173.246719  -95.677928   25.980461    0.000000    0.000000    0.000000    0.000000
  0.027815631   -0.899186  171.452530  -96.097792   19.099562    0.000000    0.000000    0.000000    0.000000
  0.028016032   -0.917593  169.616806  -95.942432   21.249559    0.000000    0.000000    0.000000    0.000000
  0.028216433   -0.937077  167.789612  -95.896238   22.203861    0.000000    0.000000    0.000000    0.000000
  0.028416834   -0.957028  165.949860  -96.238022   23.121973    0.000000    0.000000    0.000000    0.000000
  0.028617234   -0.974338  164.126709  -95.720472   23.676491    0.000000    0.000000    0.000000    0.000000
  0.028817635   -0.991496  162.286865  -95.420937   23.438179    0.000000    0.000000    0.000000    0.000000
  0.029018036   -1.008660  160.457077  -96.097855   23.681768    0.000000    0.000000    0.000000    0.000000
  0.029218437   -1.029078  158.636765  -96.422775   26.635017    0.000000    0.000000    0.000000    0.000000
  0.029418838   -1.050114  156.800095  -96.034536   22.619184    0.000000    0.000000    0.000000    0.000000
  0.029619238   -1.074069  154.963058  -95.365942   18.544634    0.000000    0.000000    0.000000    0.000000
  0.029819639   -1.100561  153.089020  -96.391513   14.614836    0.000000    0.000000    0.000000    0.000000
  0.030020040   -1.129626  151.198074  -96.274737   13.907900    0.000000    0.000000    0.000000    0.000000
  0.030220441   -1.157317  149.271118  -96.345999   13.750708    0.000000    0.000000    0.000000    0.000000
  0.030420842   -1.183457  147.347244  -95.823975   10.764434    0.000000    0.000000    0.000000    0.000000
  0.030621242   -1.212722  145.437073  -96.557893   11.062185    0.000000    0.000000    0.000000    0.000000
  0.030821643   -1.242287  143.532715  -96.166543   12.976154    0.000000    0.000000    0.000000    0.000000
  0.031022044   -1.274603  141.611969  -97.103887    7.364458    0.000000    0.000000    0.000000    0.000000
  0.031222445   -1.305031  139.686172  -96.836956   13.209565    0.000000    0.000000    0.000000    0.000000
  0.031422846   -1.339059  137.711273  -96.981200    7.743353    0.000000    0.000000    0.000000    0.000000
  0.031623246   -1.373692  135.715851  -96.813911    4.297022    0.000000    0.000000    0.000000    0.000000
  0.031823647   -1.406818  133.738312  -97.817938    6.542340    0.000000    0.000000    0.000000    0.000000
  0.032024048   -1.438387  131.738495  -96.470942   15.472812    0.000000    0.000000    0.000000    0.000000
  0.032224449   -1.469846  129.754517  -98.249545    3.484265    0.000000    0.000000    0.000000    0.000000
  0.032424850   -1.501934  127.770943  -97.190479    7.916017    0.000000    0.000000    0.000000    0.000000
  0.032625251   -1.531036  125.810524  -98.526544    7.080441    0.000000    0.000000    0.000000    0.000000
  0.032825651   -1.566470  123.836983  -98.067538   15.950612    0.000000    0.000000    0.000000    0.000000
  0.033026052   -1.606571  121.854820  -98.742742   18.191692    0.000000    0.000000    0.000000    0.000000
  0.033226453   -1.645327  119.868225  -97.326495   18.390215    0.000000    0.000000    0.000000    0.000000
  0.033426854   -1.693388  117.896301  -99.314130    9.773203    0.000000    0.000000    0.000000    0.000000
  0.033627255   -1.741027  115.875824  -98.482033   14.319873    0.000000    0.000000    0.000000    0.000000
  0.033827655   -1.787932  113.841858  -98.650670   16.078959    0.000000    0.000000    0.000000    0.000000
  0.034028056   -1.836532  111.756691  -99.244687   13.414495    0.000000    0.000000    0.000000    0.000000
  0.034228457   -1.879991  109.654556  -98.594496   15.464359    0.000000    0.000000    0.000000    0.000000
  0.034428858   -1.927735  107.537155  -99.207896   16.496254    0.000000    0.000000    0.000000    0.000000
  0.034629259   -1.971240  105.393784  -98.888376   13.345454    0.000000    0.000000    0.000000    0.000000
  0.034829659   -2.012602  103.287376  -97.644075    8.844127    0.000000    0.000000    0.000000    0.000000
  0.035030060   -2.053287  101.156487  -98.208764   15.745598    0.000000    0.000000    0.000000    0.000000
  0.035230461   -2.092810   99.060043  -97.512798   13.501281    0.000000    0.000000    0.000000    0.000000
  0.035430862   -2.134744   96.970665  -97.904025   11.658974    0.000000    0.000000    0.000000    0.000000
  0.035631263   -2.172505   94.886360  -98.231384   13.596124    0.000000    0.000000    0.000000    0.000000
  0.035831663   -2.211278   92.823128  -99.605528   14.982010    0.000000    0.000000    0.000000    0.000000
  0.036032064   -2.255935   90.757126  -99.151862    4.593647    0.000000    0.000000    0.000000    0.000000
  0.036232465   -2.297717   88.714386 -100.312565    6.988284    0.000000    0.000000    0.000000    0.000000
  0.036432866   -2.346411   86.686234  -98.300440    5.905660    0.000000    0.000000    0.000000    0.000000
  0.036633267   -2.395787   84.636673  -99.156674   10.847753    0.000000    0.000000    0.000000    0.000000
  0.036833667   -2.449451   82.614815  -98.005325    3.460351    0.000000    0.000000    0.000000    0.000000
  0.037034068   -2.505055   80.557373  -98.900874    6.758603    0.000000    0.000000    0.000000    0.000000
  0.037234469   -2.564187   78.505974  -99.321381    7.414973    0.000000    0.000000    0.000000    0.000000
  0.037434870   -2.623033   76.394234 -100.128902    4.680846    0.000000    0.000000    0.000000    0.000000
  0.037635271   -2.677318   74.287376 -101.281722   -2.452739    0.000000    0.000000    0.000000    0.000000
  0.037835671   -2.737560   72.144852  -98.816666   -4.687410    0.000000    0.000000    0.000000    0.000000
  0.038036072   -2.797022   69.981377 -100.418565    2.787367    0.000000    0.000000    0.000000    0.000000
  0.038236473   -2.856864   67.844040 -100.657974    6.937331    0.000000    0.000000    0.000000    0.000000
  0.038436874   -2.908159   65.688011 -100.871370   18.660631    0.000000    0.000000    0.000000    0.000000
  0.038637275   -2.960232   63.581657 -100.523577    7.696608    0.000000    0.000000    0.000000    0.000000
  0.038837675   -3.004642   61.476505  -99.756937   10.860300    0.000000    0.000000    0.000000    0.000000
  0.039038076   -3.048048   59.419640 -101.873859    3.218332    0.000000    0.000000    0.000000    0.000000
  0.039238477   -3.093349   57.370216 -101.126432   17.140017    0.000000    0.000000    0.000000    0.000000
  0.039438878   -3.142870   55.354939 -101.471413    6.470215    0.000000    0.000000    0.000000    0.000000
  0.039639279   -3.191894   53.363297 -100.016670   12.681719    0.000000    0.000000    0.000000    0.000000
  0.039839679   -3.247832   51.345734 -101.641603   21.469517    0.000000    0.000000    0.000000    0.000000
  0.040040080   -3.307522   49.294983  -99.699836    7.124124    0.000000    0.000000    0.000000    0.000000
  0.040240481   -3.363204   47.256767  -99.006487    5.265198    0.000000    0.000000    0.000000    0.000000
  0.040440882   -3.423413   45.201771  -99.342918    6.528540    0.000000    0.000000    0.000000    0.000000
  0.040641283   -3.480567   43.138359  -98.624028    5.253583    0.000000    0.000000    0.000000    0.000000
  0.040841683   -3.536281   41.073566 -100.850343    1.224767    0.000000    0.000000    0.000000    0.000000
  0.041042084   -3.590932   39.039570 -101.617754   13.286501    0.000000    0.000000    0.000000    0.000000
  0.041242485   -3.642822   36.969036 -101.761644    7.852635    0.000000    0.000000    0.000000    0.000000
  0.041442886   -3.696867   34.920769 -100.341463    0.913833    0.000000    0.000000    0.000000    0.000000
  0.041643287   -3.748290   32.845074 -100.407237    3.967061    0.000000    0.000000    0.000000    0.000000
  0.041843687   -3.797730   30.798443 -100.423972   -2.609442    0.000000    0.000000    0.000000    0.000000
  0.042044088   -3.846257   28.750509 -100.434080   -1.010316    0.000000    0.000000    0.000000    0.000000
  0.042244489   -3.894331   26.722481 -101.235590   16.055637    0.000000    0.000000    0.000000    0.000000
  0.042444890   -3.939744   24.723362 -100.891538   -5.126507    0.000000    0.000000    0.000000    0.000000
  0.042645291   -3.988410   22.719133 -101.142274   16.098946    0.000000    0.000000    0.000000    0.000000
  0.042845691   -4.035564   20.739847 -100.324800   -0.647982    0.000000    0.000000    0.000000    0.000000
  0.043046092   -4.081073   18.737093 -102.662580   -4.591012    0.000000    0.000000    0.000000    0.000000
  0.043246493   -4.129724   16.741438 -101.600818   -7.148908    0.000000    0.000000    0.000000    0.000000
  0.043446894   -4.177294   14.750171 -101.311550    3.928752    0.000000    0.000000    0.000000    0.000000
  0.043647295   -4.221917   12.772637 -103.687449   -0.026882    0.000000    0.000000    0.000000    0.000000
  0.043847695   -4.268684   10.797485 -102.150702    8.652775    0.000000    0.000000    0.000000    0.000000
  0.044048096   -4.314736    8.826209 -101.138750    9.939811    0.000000    0.000000    0.000000    0.000000
  0.044248497   -4.362230    6.843339 -104.183548   -0.660424    0.000000    0.000000    0.000000    0.000000
  0.044448898   -4.408601    4.919178 -100.711026   12.875766    0.000000    0.000000    0.000000    0.000000
  0.044649299   -4.453218    2.963758  -99.726238    5.328610    0.000000    0.000000    0.000000    0.000000
  0.044849699   -4.494505    1.023649 -102.037143    8.403830    0.000000    0.000000    0.000000    0.000000
  0.045050100   -4.532836   -0.908382 -100.845729   11.086283    0.000000    0.000000    0.000000    0.000000
  0.045250501   -4.571164   -2.840215 -100.337077    4.563829    0.000000    0.000000    0.000000    0.000000
  0.045450902   -4.611879   -4.743230 -101.347028    7.561523    0.000000    0.000000    0.000000    0.000000
  0.045651303   -4.651199   -6.622530 -101.496044    8.428448    0.000000    0.000000    0.000000    0.000000
  0.045851703   -4.691972   -8.480444 -101.056739    4.437220    0.000000    0.000000    0.000000    0.000000
  0.046052104   -4.727918  -10.358784 -101.787405   14.952691    0.000000    0.000000    0.000000    0.000000
  0.046252505   -4.766873  -12.206251 -100.003821   -2.931580    0.000000    0.000000    0.000000    0.000000
  0.046452906   -4.800097  -14.056553 -101.611161   -8.776991    0.000000    0.000000    0.000000    0.000000
  0.046653307   -4.833438  -15.909109 -102.078139    7.948255    0.000000    0.000000    0.000000    0.000000
  0.046853707   -4.865693  -17.750395 -102.391324    2.142120    0.000000    0.000000    0.000000    0.000000
  0.047054108   -4.896769  -19.560503 -102.059606   -4.130303    0.000000    0.000000    0.000000    0.000000
  0.047254509   -4.925402  -21.368748 -101.127947   -6.562701    0.000000    0.000000    0.000000    0.000000
  0.047454910   -4.955364  -23.158739 -102.112628    5.480938    0.000000    0.000000    0.000000    0.000000
  0.047655311   -4.985019  -24.939306 -101.964481    0.837050    0.000000    0.000000    0.000000    0.000000
  0.047855711   -5.012355  -26.670824 -103.008179   -3.469697    0.000000    0.000000    0.000000    0.000000
  0.048056112   -5.040061  -28.387623 -103.386033    4.769628    0.000000    0.000000    0.000000    0.000000
  0.048256513   -5.071894  -30.129509 -102.785372   -1.647746    0.000000    0.000000    0.000000    0.000000
  0.048456914   -5.099803  -31.850754 -102.666970    3.645683    0.000000    0.000000    0.000000    0.000000
  0.048657315   -5.129660  -33.565983 -106.129688  -11.188067    0.000000    0.000000    0.000000    0.000000
  0.048857715   -5.153333  -35.283337 -101.831990    1.387338    0.000000    0.000000    0.000000    0.000000
  0.049058116   -5.178687  -36.997593 -101.774900   -3.660239    0.000000    0.000000    0.000000    0.000000
  0.049258517   -5.202660  -38.677662 -102.955414   14.045149    0.000000    0.000000    0.000000    0.000000
  0.049458918   -5.227088  -40.366314 -103.848104    7.946971    0.000000    0.000000    0.000000    0.000000
  0.049659319   -5.250269  -42.040848 -103.562936    4.558281    0.000000    0.000000    0.000000    0.000000
  0.049859719   -5.274299  -43.705925 -105.558576    6.662730    0.000000    0.000000    0.000000    0.000000
  0.050060120   -5.298687  -45.371941 -104.232235   -2.578425    0.000000    0.000000    0.000000    0.000000
  0.050260521   -5.320331  -47.058895 -103.778598   10.462963    0.000000    0.000000    0.000000    0.000000
  0.050460922   -5.340737  -48.717690 -104.139116   11.009639    0.000000    0.000000    0.000000    0.000000
  0.050661323   -5.356591  -50.373817 -102.078693    5.034730    0.000000    0.000000    0.000000    0.000000
  0.050861723   -5.370217  -52.010983 -101.561724   14.171357    0.000000    0.000000    0.000000    0.000000
  0.051062124   -5.385700  -53.646557 -101.737692   16.637613    0.000000    0.000000    0.000000    0.000000
  0.051262525   -5.399651  -55.221516 -101.288698   20.512703    0.000000    0.000000    0.000000    0.000000
  0.051462926   -5.412704  -56.779068 -102.858056   20.033546    0.000000    0.000000    0.000000    0.000000
  0.051663327   -5.424180  -58.333130 -103.237942   16.146009    0.000000    0.000000    0.000000    0.000000
  0.051863727   -5.438852  -59.863853 -101.203023   -3.488749    0.000000    0.000000    0.000000    0.000000
  0.052064128   -5.455819  -61.432892 -102.833684    6.438195    0.000000    0.000000    0.000000    0.000000
  0.052264529   -5.470093  -62.947453 -100.646947   18.460577    0.000000    0.000000    0.000000    0.000000
  0.052464930   -5.486028  -64.477264 -101.685773    2.015725    0.000000    0.000000    0.000000    0.000000
  0.052665331   -5.500727  -66.018440 -102.555090    4.554545    0.000000    0.000000    0.000000    0.000000
  0.052865731   -5.515364  -67.564651 -102.904986   -0.616425    0.000000    0.000000    0.000000    0.000000
