! Anritsu VNA Master:                     Model: MS2036C/10/77
! SN:                                  1601066
! /bd0/18may8/255.ew.m7.s2p
! Existing Calibration Information:
! TYPE:                         Current Settings,       Active Cal Settings
! TIME:             	   05/08/2018 10:26:30 AM,    05/08/2018 10:22:10 AM
! INTERNAL TEMP:    	                   47.8 C,                    47.5 C
! # POINTS:         	                      500,                       500
! START FREQ:       	               20.000 MHz,                20.000 MHz
! STOP FREQ:        	              120.000 MHz,               120.000 MHz
! SOURCE POWER:     	                     High,                      High
! IFBW:             	                    50 Hz,                     50 Hz
! AVG FACTOR:       	                       1 ,                        1 
! REF PLANE 1:      	                     0 mm,                      0 mm
! REF PLANE 2:      	                     0 mm,                      0 mm
! CAL TYPE:         	                 Full S11,                  Full S11
! CAL METHOD:       	                     SOLT,                      SOLT
! CAL LINE TYPE:    	                     Coax,                      Coax
! DUT PORT 1:       	                K-Conn(F),                 K-Conn(F)
! DUT PORT 2:       	                K-Conn(F),                 K-Conn(F)
! CAL STATUS:       	        OK: Accuracy High,                        --
# GHZ S DB R 50.0
! FREQ.GHZ       S11DB        S11A       S21DB        S21A       S12DB        S12A       S22DB        S22A
  0.020000000   -0.899437 -124.366669  -90.939330   31.136486    0.000000    0.000000    0.000000    0.000000
  0.020200401   -0.905930 -125.794746  -91.050987   30.012903    0.000000    0.000000    0.000000    0.000000
  0.020400802   -0.912282 -127.219429  -92.146160   28.947605    0.000000    0.000000    0.000000    0.000000
  0.020601202   -0.918440 -128.645828  -91.756071   25.083376    0.000000    0.000000    0.000000    0.000000
  0.020801603   -0.930034 -130.097183  -91.563786   31.976387    0.000000    0.000000    0.000000    0.000000
  0.021002004   -0.942888 -131.600037  -92.625120   28.429485    0.000000    0.000000    0.000000    0.000000
  0.021202405   -0.955588 -133.079849  -93.116983   33.226593    0.000000    0.000000    0.000000    0.000000
  0.021402806   -0.964447 -134.587021  -92.786048   30.605190    0.000000    0.000000    0.000000    0.000000
  0.021603206   -0.976261 -136.070480  -93.086316   34.201088    0.000000    0.000000    0.000000    0.000000
  0.021803607   -0.984978 -137.566010  -93.024899   32.946007    0.000000    0.000000    0.000000    0.000000
  0.022004008   -0.996026 -139.064835  -93.173880   31.317204    0.000000    0.000000    0.000000    0.000000
  0.022204409   -1.007789 -140.577271  -93.514242   36.369659    0.000000    0.000000    0.000000    0.000000
  0.022404810   -1.017672 -142.105499  -92.781296   29.769922    0.000000    0.000000    0.000000    0.000000
  0.022605210   -1.028121 -143.635056  -93.154090   38.197010    0.000000    0.000000    0.000000    0.000000
  0.022805611   -1.041393 -145.186691  -92.945535   37.013039    0.000000    0.000000    0.000000    0.000000
  0.023006012   -1.049759 -146.731949  -92.650042   29.492599    0.000000    0.000000    0.000000    0.000000
  0.023206413   -1.057046 -148.267090  -93.006153   34.505978    0.000000    0.000000    0.000000    0.000000
  0.023406814   -1.065181 -149.795380  -92.869552   34.207653    0.000000    0.000000    0.000000    0.000000
  0.023607214   -1.071713 -151.338013  -93.249849   31.233755    0.000000    0.000000    0.000000    0.000000
  0.023807615   -1.082910 -152.889633  -92.256587   31.533808    0.000000    0.000000    0.000000    0.000000
  0.024008016   -1.098524 -154.451416  -92.732622   30.000465    0.000000    0.000000    0.000000    0.000000
  0.024208417   -1.111470 -156.044540  -93.369609   27.405136    0.000000    0.000000    0.000000    0.000000
  0.024408818   -1.122787 -157.639557  -92.882919   24.323133    0.000000    0.000000    0.000000    0.000000
  0.024609218   -1.137237 -159.238708  -93.151741   21.228519    0.000000    0.000000    0.000000    0.000000
  0.024809619   -1.150105 -160.834076  -93.195838   19.006479    0.000000    0.000000    0.000000    0.000000
  0.025010020   -1.164396 -162.455032  -93.182376   19.182255    0.000000    0.000000    0.000000    0.000000
  0.025210421   -1.178673 -164.071075  -93.574566   23.081533    0.000000    0.000000    0.000000    0.000000
  0.025410822   -1.196340 -165.703171  -94.017192   17.710505    0.000000    0.000000    0.000000    0.000000
  0.025611222   -1.213626 -167.358200  -94.403625   16.998037    0.000000    0.000000    0.000000    0.000000
  0.025811623   -1.228556 -169.032761  -94.649106   13.700031    0.000000    0.000000    0.000000    0.000000
  0.026012024   -1.243206 -170.721893  -95.259322   16.289068    0.000000    0.000000    0.000000    0.000000
  0.026212425   -1.257559 -172.413208  -94.535200   17.254826    0.000000    0.000000    0.000000    0.000000
  0.026412826   -1.272781 -174.107147  -95.461896   18.444136    0.000000    0.000000    0.000000    0.000000
  0.026613226   -1.290377 -175.817810  -95.791668   17.049814    0.000000    0.000000    0.000000    0.000000
  0.026813627   -1.310267 -177.533615  -96.083308   13.032731    0.000000    0.000000    0.000000    0.000000
  0.027014028   -1.329984 -179.258896  -95.564762   17.142015    0.000000    0.000000    0.000000    0.000000
  0.027214429   -1.350585  179.001038  -96.119911   23.643444    0.000000    0.000000    0.000000    0.000000
  0.027414830   -1.372791  177.251144  -95.870357   20.911903    0.000000    0.000000    0.000000    0.000000
  0.027615230   -1.392760  175.484772  -96.374645   24.894617    0.000000    0.000000    0.000000    0.000000
  0.027815631   -1.416345  173.712631  -96.170680   20.497757    0.000000    0.000000    0.000000    0.000000
  0.028016032   -1.442102  171.923477  -96.343628   25.612741    0.000000    0.000000    0.000000    0.000000
  0.028216433   -1.470115  170.124100  -97.203805   19.997417    0.000000    0.000000    0.000000    0.000000
  0.028416834   -1.495406  168.321793  -95.861970   18.661583    0.000000    0.000000    0.000000    0.000000
  0.028617234   -1.520410  166.528351  -97.285062   22.933132    0.000000    0.000000    0.000000    0.000000
  0.028817635   -1.544857  164.728165  -95.851445   22.933323    0.000000    0.000000    0.000000    0.000000
  0.029018036   -1.569782  162.947784  -96.037358   27.412912    0.000000    0.000000    0.000000    0.000000
  0.029218437   -1.596085  161.150818  -95.817606   19.914639    0.000000    0.000000    0.000000    0.000000
  0.029418838   -1.624006  159.349686  -95.976143   22.823544    0.000000    0.000000    0.000000    0.000000
  0.029619238   -1.654712  157.537094  -95.977260   21.116806    0.000000    0.000000    0.000000    0.000000
  0.029819639   -1.687517  155.708038  -96.840311   14.269094    0.000000    0.000000    0.000000    0.000000
  0.030020040   -1.723140  153.844147  -97.324401   15.958963    0.000000    0.000000    0.000000    0.000000
  0.030220441   -1.754362  151.969757  -96.222884   13.487309    0.000000    0.000000    0.000000    0.000000
  0.030420842   -1.788729  150.082474  -96.225338   14.499305    0.000000    0.000000    0.000000    0.000000
  0.030621242   -1.823533  148.210373  -96.084033   14.725321    0.000000    0.000000    0.000000    0.000000
  0.030821643   -1.859215  146.329025  -96.868388   13.742504    0.000000    0.000000    0.000000    0.000000
  0.031022044   -1.896114  144.440170  -96.823473   14.427202    0.000000    0.000000    0.000000    0.000000
  0.031222445   -1.929855  142.551422  -96.514033    9.843230    0.000000    0.000000    0.000000    0.000000
  0.031422846   -1.971926  140.606094  -96.469912    5.474182    0.000000    0.000000    0.000000    0.000000
  0.031623246   -2.010080  138.657104  -97.465977   13.418227    0.000000    0.000000    0.000000    0.000000
  0.031823647   -2.047940  136.682816  -97.422768   13.127774    0.000000    0.000000    0.000000    0.000000
  0.032024048   -2.085929  134.699280  -98.738421    7.201767    0.000000    0.000000    0.000000    0.000000
  0.032224449   -2.121459  132.737122  -98.296137    8.336688    0.000000    0.000000    0.000000    0.000000
  0.032424850   -2.157678  130.766418  -97.877728   14.491828    0.000000    0.000000    0.000000    0.000000
  0.032625251   -2.192750  128.802124  -98.278318   20.379545    0.000000    0.000000    0.000000    0.000000
  0.032825651   -2.231091  126.831833  -98.747147   24.815310    0.000000    0.000000    0.000000    0.000000
  0.033026052   -2.273308  124.872139  -98.269316   10.472327    0.000000    0.000000    0.000000    0.000000
  0.033226453   -2.320913  122.901443  -98.924183   11.853378    0.000000    0.000000    0.000000    0.000000
  0.033426854   -2.368968  120.942978  -96.888919    9.851829    0.000000    0.000000    0.000000    0.000000
  0.033627255   -2.420184  118.948410  -97.507663    3.040451    0.000000    0.000000    0.000000    0.000000
  0.033827655   -2.472003  116.907555  -97.555058    9.845470    0.000000    0.000000    0.000000    0.000000
  0.034028056   -2.525788  114.851654  -97.470392   15.471077    0.000000    0.000000    0.000000    0.000000
  0.034228457   -2.576498  112.755638  -99.121472   14.912805    0.000000    0.000000    0.000000    0.000000
  0.034428858   -2.625416  110.656761  -98.625667   23.300787    0.000000    0.000000    0.000000    0.000000
  0.034629259   -2.670351  108.518425  -99.086870   20.951057    0.000000    0.000000    0.000000    0.000000
  0.034829659   -2.716772  106.420692  -97.501651   10.467493    0.000000    0.000000    0.000000    0.000000
  0.035030060   -2.760383  104.314949  -98.827351   12.928426    0.000000    0.000000    0.000000    0.000000
  0.035230461   -2.803135  102.214485  -99.687193   11.064425    0.000000    0.000000    0.000000    0.000000
  0.035430862   -2.845176  100.127953  -97.353979   12.619204    0.000000    0.000000    0.000000    0.000000
  0.035631263   -2.884850   98.063408  -99.124767    7.001018    0.000000    0.000000    0.000000    0.000000
  0.035831663   -2.928254   96.004807  -98.920959    9.234781    0.000000    0.000000    0.000000    0.000000
  0.036032064   -2.967456   93.967857  -99.647340    8.998294    0.000000    0.000000    0.000000    0.000000
  0.036232465   -3.013369   91.929962  -98.285719    7.151630    0.000000    0.000000    0.000000    0.000000
  0.036432866   -3.060608   89.898735  -98.241298    7.811919    0.000000    0.000000    0.000000    0.000000
  0.036633267   -3.102717   87.874985  -98.696260    9.243624    0.000000    0.000000    0.000000    0.000000
  0.036833667   -3.153146   85.848663  -99.491623    7.596715    0.000000    0.000000    0.000000    0.000000
  0.037034068   -3.197688   83.776688  -99.550650    0.769306    0.000000    0.000000    0.000000    0.000000
  0.037234469   -3.246533   81.677002  -98.776450   -1.549269    0.000000    0.000000    0.000000    0.000000
  0.037434870   -3.288740   79.517586  -99.181730    5.993839    0.000000    0.000000    0.000000    0.000000
  0.037635271   -3.331831   77.277878 -100.972177    2.144918    0.000000    0.000000    0.000000    0.000000
  0.037835671   -3.382574   74.916412 -100.295802   18.597254    0.000000    0.000000    0.000000    0.000000
  0.038036072   -3.448306   72.519348  -99.938249    1.155250    0.000000    0.000000    0.000000    0.000000
  0.038236473   -3.528981   70.158340  -99.747535    9.939676    0.000000    0.000000    0.000000    0.000000
  0.038436874   -3.611259   67.879837 -101.582508    3.872025    0.000000    0.000000    0.000000    0.000000
  0.038637275   -3.689320   65.708588  -98.608316    7.728896    0.000000    0.000000    0.000000    0.000000
  0.038837675   -3.753509   63.612347 -101.379475    5.415943    0.000000    0.000000    0.000000    0.000000
  0.039038076   -3.812003   61.528427 -101.069716   22.745132    0.000000    0.000000    0.000000    0.000000
  0.039238477   -3.865285   59.489464  -99.668584    7.235534    0.000000    0.000000    0.000000    0.000000
  0.039438878   -3.919642   57.473549 -100.224703   14.039110    0.000000    0.000000    0.000000    0.000000
  0.039639279   -3.976137   55.446949  -99.082241    8.950822    0.000000    0.000000    0.000000    0.000000
  0.039839679   -4.034567   53.375275 -100.331317   12.017319    0.000000    0.000000    0.000000    0.000000
  0.040040080   -4.094077   51.306660  -98.453255   11.271049    0.000000    0.000000    0.000000    0.000000
  0.040240481   -4.154020   49.238247  -98.853157   15.504760    0.000000    0.000000    0.000000    0.000000
  0.040440882   -4.213099   47.123703 -101.737011    2.946556    0.000000    0.000000    0.000000    0.000000
  0.040641283   -4.269274   45.029274 -100.073840   -1.000042    0.000000    0.000000    0.000000    0.000000
  0.040841683   -4.324862   42.892338  -98.423233   11.449939    0.000000    0.000000    0.000000    0.000000
  0.041042084   -4.378762   40.803669  -98.707256    3.082244    0.000000    0.000000    0.000000    0.000000
  0.041242485   -4.433304   38.688118  -99.772127    7.216493    0.000000    0.000000    0.000000    0.000000
  0.041442886   -4.483957   36.573914  -99.645140   -2.409347    0.000000    0.000000    0.000000    0.000000
  0.041643287   -4.535643   34.444103  -99.363757    7.949391    0.000000    0.000000    0.000000    0.000000
  0.041843687   -4.582608   32.328999 -100.448368    0.375737    0.000000    0.000000    0.000000    0.000000
  0.042044088   -4.628556   30.244293 -101.520202   -9.053324    0.000000    0.000000    0.000000    0.000000
  0.042244489   -4.670224   28.150824 -101.168841    8.525434    0.000000    0.000000    0.000000    0.000000
  0.042444890   -4.716805   26.090445 -101.905673    1.847881    0.000000    0.000000    0.000000    0.000000
  0.042645291   -4.764269   24.055660 -101.798646    5.433781    0.000000    0.000000    0.000000    0.000000
  0.042845691   -4.807459   21.995640 -102.612872   -4.509480    0.000000    0.000000    0.000000    0.000000
  0.043046092   -4.853880   19.967382 -101.650186   -1.198150    0.000000    0.000000    0.000000    0.000000
  0.043246493   -4.895960   17.920311 -103.388002   14.472235    0.000000    0.000000    0.000000    0.000000
  0.043446894   -4.938682   15.890531 -101.805643    2.128785    0.000000    0.000000    0.000000    0.000000
  0.043647295   -4.981983   13.868405 -103.046390   12.799509    0.000000    0.000000    0.000000    0.000000
  0.043847695   -5.024483   11.844481 -102.614631    4.778771    0.000000    0.000000    0.000000    0.000000
  0.044048096   -5.069564    9.841722 -102.294148   11.292782    0.000000    0.000000    0.000000    0.000000
  0.044248497   -5.110813    7.845312 -102.992225   -8.351903    0.000000    0.000000    0.000000    0.000000
  0.044448898   -5.151977    5.844748 -101.786150   12.908513    0.000000    0.000000    0.000000    0.000000
  0.044649299   -5.194775    3.860379 -101.711637   11.234149    0.000000    0.000000    0.000000    0.000000
  0.044849699   -5.231378    1.875017 -102.407425   28.124533    0.000000    0.000000    0.000000    0.000000
  0.045050100   -5.266623   -0.102228 -101.288595   12.920829    0.000000    0.000000    0.000000    0.000000
  0.045250501   -5.300315   -2.090935 -103.726458   13.534609    0.000000    0.000000    0.000000    0.000000
  0.045450902   -5.329651   -4.035053  -99.964017    2.373245    0.000000    0.000000    0.000000    0.000000
  0.045651303   -5.365253   -5.984494 -100.268666    3.727615    0.000000    0.000000    0.000000    0.000000
  0.045851703   -5.397909   -7.918720 -101.086115   16.290819    0.000000    0.000000    0.000000    0.000000
  0.046052104   -5.431617   -9.831167 -100.881967    9.459403    0.000000    0.000000    0.000000    0.000000
  0.046252505   -5.464224  -11.760160 -101.600802   11.219020    0.000000    0.000000    0.000000    0.000000
  0.046452906   -5.494448  -13.664470 -100.428222   12.962399    0.000000    0.000000    0.000000    0.000000
  0.046653307   -5.521462  -15.572256 -101.083375   -1.794238    0.000000    0.000000    0.000000    0.000000
  0.046853707   -5.547458  -17.478931 -101.321402    1.726617    0.000000    0.000000    0.000000    0.000000
  0.047054108   -5.573852  -19.377937 -101.268698    3.967756    0.000000    0.000000    0.000000    0.000000
  0.047254509   -5.596692  -21.256016 -102.041026   -4.090879    0.000000    0.000000    0.000000    0.000000
  0.047454910   -5.620851  -23.126684 -102.594972    6.143221    0.000000    0.000000    0.000000    0.000000
  0.047655311   -5.641827  -24.976917 -101.356632   -0.056629    0.000000    0.000000    0.000000    0.000000
  0.047855711   -5.661473  -26.790993 -103.821444   -6.445635    0.000000    0.000000    0.000000    0.000000
  0.048056112   -5.682411  -28.578566 -101.257495    0.525490    0.000000    0.000000    0.000000    0.000000
  0.048256513   -5.706359  -30.412148 -100.738279    3.966913    0.000000    0.000000    0.000000    0.000000
  0.048456914   -5.725887  -32.195347 -102.367046   -5.569730    0.000000    0.000000    0.000000    0.000000
  0.048657315   -5.746005  -33.980080 -104.576820   13.075208    0.000000    0.000000    0.000000    0.000000
  0.048857715   -5.764176  -35.758026 -101.954172   10.845535    0.000000    0.000000    0.000000    0.000000
  0.049058116   -5.781367  -37.549232  -99.651981   -2.247406    0.000000    0.000000    0.000000    0.000000
  0.049258517   -5.797644  -39.307835 -103.051569    9.974886    0.000000    0.000000    0.000000    0.000000
  0.049458918   -5.812010  -41.030781 -109.125487   -5.214180    0.000000    0.000000    0.000000    0.000000
  0.049659319   -5.830228  -42.793640 -102.106918   -4.007499    0.000000    0.000000    0.000000    0.000000
  0.049859719   -5.845643  -44.502953 -101.046276   12.450420    0.000000    0.000000    0.000000    0.000000
  0.050060120   -5.860321  -46.203716 -102.676461   10.429028    0.000000    0.000000    0.000000    0.000000
  0.050260521   -5.873045  -47.956993 -102.537310   27.063438    0.000000    0.000000    0.000000    0.000000
  0.050460922   -5.885183  -49.666012 -102.698456   13.181623    0.000000    0.000000    0.000000    0.000000
  0.050661323   -5.893706  -51.372890 -102.063514  -10.660979    0.000000    0.000000    0.000000    0.000000
  0.050861723   -5.897720  -53.029099 -105.259945   -1.349149    0.000000    0.000000    0.000000    0.000000
  0.051062124   -5.905915  -54.694042 -101.758115    6.763859    0.000000    0.000000    0.000000    0.000000
  0.051262525   -5.912696  -56.331841 -101.486497   10.382977    0.000000    0.000000    0.000000    0.000000
  0.051462926   -5.917673  -57.917709 -103.448592    8.380146    0.000000    0.000000    0.000000    0.000000
  0.051663327   -5.922669  -59.493893 -101.087285   -2.590363    0.000000    0.000000    0.000000    0.000000
  0.051863727   -5.931271  -61.089138 -101.355478    2.383221    0.000000    0.000000    0.000000    0.000000
  0.052064128   -5.939708  -62.642677 -101.703051    2.124021    0.000000    0.000000    0.000000    0.000000
  0.052264529   -5.948146  -64.214066 -101.387324    5.725990    0.000000    0.000000    0.000000    0.000000
  0.052464930   -5.958884  -65.742607 -102.143221   10.313419    0.000000    0.000000    0.000000    0.000000
  0.052665331   -5.970586  -67.350037 -101.672873   -1.577605    0.000000    0.000000    0.000000    0.000000
  0.052865731   -5.980115  -68.902489 -102.109718   -4.380837    0.000000    0.000000    0.000000    0.000000
