! Anritsu VNA Master:                     Model: MS2036C/10/77
! SN:                                  1601066
! /bd0/18may10/252.ns.m2.s2p
! Existing Calibration Information:
! TYPE:                         Current Settings,       Active Cal Settings
! TIME:             	   05/10/2018 05:36:08 PM,    05/10/2018 05:30:44 PM
! INTERNAL TEMP:    	                   58.5 C,                    57.8 C
! # POINTS:         	                      490,                       490
! START FREQ:       	               20.000 MHz,                20.000 MHz
! STOP FREQ:        	          117.995 991 MHz,           117.995 991 MHz
! SOURCE POWER:     	                     High,                      High
! IFBW:             	                    50 Hz,                     50 Hz
! AVG FACTOR:       	                       1 ,                        1 
! REF PLANE 1:      	                     0 mm,                      0 mm
! REF PLANE 2:      	                     0 mm,                      0 mm
! CAL TYPE:         	                 Full S22,                  Full S22
! CAL METHOD:       	                     SOLT,                      SOLT
! CAL LINE TYPE:    	                     Coax,                      Coax
! DUT PORT 1:       	                K-Conn(M),                 K-Conn(M)
! DUT PORT 2:       	                K-Conn(M),                 K-Conn(M)
! CAL STATUS:       	        OK: Accuracy High,                        --
# GHZ S DB R 50.0
! FREQ.GHZ       S11DB        S11A       S21DB        S21A       S12DB        S12A       S22DB        S22A
  0.020000000    0.000000    0.000000    0.000000    0.000000  -89.320552   33.133854   -0.645887 -125.280518
  0.020200401    0.000000    0.000000    0.000000    0.000000  -89.667772   31.651304   -0.648636 -126.730202
  0.020400802    0.000000    0.000000    0.000000    0.000000  -90.272687   33.011379   -0.651139 -128.184418
  0.020601202    0.000000    0.000000    0.000000    0.000000  -90.692049   33.628792   -0.654224 -129.654510
  0.020801603    0.000000    0.000000    0.000000    0.000000  -90.924479   31.275234   -0.658843 -131.152908
  0.021002004    0.000000    0.000000    0.000000    0.000000  -90.976554   33.969933   -0.659322 -132.663712
  0.021202405    0.000000    0.000000    0.000000    0.000000  -91.120199   37.977684   -0.662713 -134.174683
  0.021402806    0.000000    0.000000    0.000000    0.000000  -91.522535   36.642773   -0.666515 -135.666519
  0.021603206    0.000000    0.000000    0.000000    0.000000  -91.001908   38.228237   -0.669087 -137.183640
  0.021803607    0.000000    0.000000    0.000000    0.000000  -91.738121   40.414673   -0.673115 -138.667786
  0.022004008    0.000000    0.000000    0.000000    0.000000  -91.447393   42.381672   -0.678544 -140.199966
  0.022204409    0.000000    0.000000    0.000000    0.000000  -91.874315   37.366444   -0.685100 -141.714081
  0.022404810    0.000000    0.000000    0.000000    0.000000  -91.380536   43.417873   -0.690950 -143.270493
  0.022605210    0.000000    0.000000    0.000000    0.000000  -91.806605   39.675129   -0.693075 -144.835236
  0.022805611    0.000000    0.000000    0.000000    0.000000  -91.970513   42.455723   -0.696086 -146.408905
  0.023006012    0.000000    0.000000    0.000000    0.000000  -91.600839   42.630104   -0.700180 -147.960892
  0.023206413    0.000000    0.000000    0.000000    0.000000  -91.964271   43.553711   -0.705550 -149.519623
  0.023406814    0.000000    0.000000    0.000000    0.000000  -91.031624   40.627277   -0.711417 -151.075485
  0.023607214    0.000000    0.000000    0.000000    0.000000  -90.989286   42.557808   -0.717564 -152.640533
  0.023807615    0.000000    0.000000    0.000000    0.000000  -90.986333   40.541237   -0.724852 -154.234619
  0.024008016    0.000000    0.000000    0.000000    0.000000  -91.850530   38.946373   -0.733055 -155.840363
  0.024208417    0.000000    0.000000    0.000000    0.000000  -90.804866   38.255150   -0.739341 -157.477341
  0.024408818    0.000000    0.000000    0.000000    0.000000  -91.079526   33.044498   -0.744592 -159.111572
  0.024609218    0.000000    0.000000    0.000000    0.000000  -91.388553   33.560528   -0.751031 -160.752213
  0.024809619    0.000000    0.000000    0.000000    0.000000  -91.428466   32.278721   -0.759011 -162.397049
  0.025010020    0.000000    0.000000    0.000000    0.000000  -92.277618   27.581146   -0.766647 -164.054382
  0.025210421    0.000000    0.000000    0.000000    0.000000  -91.891961   28.297171   -0.777698 -165.717789
  0.025410822    0.000000    0.000000    0.000000    0.000000  -91.824901   25.883120   -0.788885 -167.388412
  0.025611222    0.000000    0.000000    0.000000    0.000000  -92.116475   30.151367   -0.798675 -169.075912
  0.025811623    0.000000    0.000000    0.000000    0.000000  -91.711691   24.129824   -0.808783 -170.783066
  0.026012024    0.000000    0.000000    0.000000    0.000000  -92.998273   30.568542   -0.820857 -172.489960
  0.026212425    0.000000    0.000000    0.000000    0.000000  -93.127333   22.614351   -0.830455 -174.213577
  0.026412826    0.000000    0.000000    0.000000    0.000000  -93.956698   27.956564   -0.843191 -175.939331
  0.026613226    0.000000    0.000000    0.000000    0.000000  -94.065915   27.348564   -0.858235 -177.673599
  0.026813627    0.000000    0.000000    0.000000    0.000000  -93.824339   24.353941   -0.872970 -179.421783
  0.027014028    0.000000    0.000000    0.000000    0.000000  -94.000331   23.735518   -0.889253  178.826477
  0.027214429    0.000000    0.000000    0.000000    0.000000  -95.172240   27.036060   -0.905824  177.068802
  0.027414830    0.000000    0.000000    0.000000    0.000000  -94.355133   25.503305   -0.922400  175.299789
  0.027615230    0.000000    0.000000    0.000000    0.000000  -94.587191   28.378004   -0.940465  173.521347
  0.027815631    0.000000    0.000000    0.000000    0.000000  -94.668311   26.229828   -0.959524  171.726166
  0.028016032    0.000000    0.000000    0.000000    0.000000  -94.844097   31.999949   -0.978642  169.917694
  0.028216433    0.000000    0.000000    0.000000    0.000000  -94.767021   32.757030   -0.999410  168.106430
  0.028416834    0.000000    0.000000    0.000000    0.000000  -93.947893   32.102718   -1.021097  166.284622
  0.028617234    0.000000    0.000000    0.000000    0.000000  -95.056890   31.784616   -1.042572  164.454269
  0.028817635    0.000000    0.000000    0.000000    0.000000  -94.742024   32.955761   -1.065715  162.621353
  0.029018036    0.000000    0.000000    0.000000    0.000000  -94.230334   31.948624   -1.091949  160.787292
  0.029218437    0.000000    0.000000    0.000000    0.000000  -94.097584   33.824974   -1.116113  158.939438
  0.029418838    0.000000    0.000000    0.000000    0.000000  -94.361016   31.372610   -1.141974  157.067825
  0.029619238    0.000000    0.000000    0.000000    0.000000  -94.572327   29.370169   -1.171012  155.191528
  0.029819639    0.000000    0.000000    0.000000    0.000000  -94.701955   31.737120   -1.201040  153.311752
  0.030020040    0.000000    0.000000    0.000000    0.000000  -94.646483   32.068306   -1.229928  151.419327
  0.030220441    0.000000    0.000000    0.000000    0.000000  -93.575675   27.173399   -1.260125  149.535675
  0.030420842    0.000000    0.000000    0.000000    0.000000  -93.948504   25.708277   -1.289957  147.659210
  0.030621242    0.000000    0.000000    0.000000    0.000000  -93.997705   26.380121   -1.323174  145.777481
  0.030821643    0.000000    0.000000    0.000000    0.000000  -94.961506   25.138309   -1.355310  143.887344
  0.031022044    0.000000    0.000000    0.000000    0.000000  -94.979339   22.520884   -1.390757  141.998016
  0.031222445    0.000000    0.000000    0.000000    0.000000  -94.716669   22.232094   -1.418076  140.095261
  0.031422846    0.000000    0.000000    0.000000    0.000000  -94.468189   18.655363   -1.453164  138.159958
  0.031623246    0.000000    0.000000    0.000000    0.000000  -94.611371   22.294104   -1.489639  136.221481
  0.031823647    0.000000    0.000000    0.000000    0.000000  -95.008713   19.955679   -1.520959  134.291901
  0.032024048    0.000000    0.000000    0.000000    0.000000  -95.929774   21.390476   -1.555288  132.351135
  0.032224449    0.000000    0.000000    0.000000    0.000000  -95.466394   18.473318   -1.591472  130.419235
  0.032424850    0.000000    0.000000    0.000000    0.000000  -96.433112   18.755131   -1.627926  128.454529
  0.032625250    0.000000    0.000000    0.000000    0.000000  -95.141204   16.680645   -1.661823  126.465912
  0.032825651    0.000000    0.000000    0.000000    0.000000  -94.969895   22.424370   -1.697327  124.483543
  0.033026052    0.000000    0.000000    0.000000    0.000000  -95.292433   22.522940   -1.732003  122.475143
  0.033226453    0.000000    0.000000    0.000000    0.000000  -96.536940   17.502485   -1.768693  120.451721
  0.033426854    0.000000    0.000000    0.000000    0.000000  -96.420859   15.939126   -1.803223  118.446953
  0.033627254    0.000000    0.000000    0.000000    0.000000  -96.437975   21.031462   -1.841529  116.443794
  0.033827655    0.000000    0.000000    0.000000    0.000000  -95.860792   28.378519   -1.881951  114.439644
  0.034028056    0.000000    0.000000    0.000000    0.000000  -97.032718   29.279966   -1.919555  112.398735
  0.034228457    0.000000    0.000000    0.000000    0.000000  -96.503227   21.169039   -1.961829  110.352264
  0.034428858    0.000000    0.000000    0.000000    0.000000  -96.967886   25.960604   -2.004036  108.303711
  0.034629258    0.000000    0.000000    0.000000    0.000000  -96.184207   25.311781   -2.047736  106.211868
  0.034829659    0.000000    0.000000    0.000000    0.000000  -96.244922   30.091003   -2.092684  104.152824
  0.035030060    0.000000    0.000000    0.000000    0.000000  -95.771032   25.257803   -2.138653  102.086052
  0.035230461    0.000000    0.000000    0.000000    0.000000  -96.661944   19.001953   -2.186470  100.001648
  0.035430862    0.000000    0.000000    0.000000    0.000000  -97.168814   20.805832   -2.233359   97.911224
  0.035631262    0.000000    0.000000    0.000000    0.000000  -96.406833   24.118919   -2.284468   95.829094
  0.035831663    0.000000    0.000000    0.000000    0.000000  -97.123249   28.261305   -2.333617   93.732391
  0.036032064    0.000000    0.000000    0.000000    0.000000  -96.169910   23.809362   -2.383653   91.624779
  0.036232465    0.000000    0.000000    0.000000    0.000000  -95.736097   20.986347   -2.433443   89.538490
  0.036432866    0.000000    0.000000    0.000000    0.000000  -96.808619   23.299217   -2.486809   87.425827
  0.036633266    0.000000    0.000000    0.000000    0.000000  -96.659455   27.231476   -2.537036   85.310577
  0.036833667    0.000000    0.000000    0.000000    0.000000  -95.995882   20.486519   -2.592599   83.203934
  0.037034068    0.000000    0.000000    0.000000    0.000000  -97.285075   24.685652   -2.646197   81.080025
  0.037234469    0.000000    0.000000    0.000000    0.000000  -98.313007   21.725142   -2.702392   78.972832
  0.037434870    0.000000    0.000000    0.000000    0.000000  -96.788697   22.845192   -2.755827   76.840889
  0.037635270    0.000000    0.000000    0.000000    0.000000  -96.678688   16.503916   -2.813521   74.707458
  0.037835671    0.000000    0.000000    0.000000    0.000000  -98.117630   20.254704   -2.876655   72.576790
  0.038036072    0.000000    0.000000    0.000000    0.000000  -99.747088   22.202805   -2.940930   70.418777
  0.038236473    0.000000    0.000000    0.000000    0.000000  -98.254461   25.915071   -3.006339   68.361504
  0.038436874    0.000000    0.000000    0.000000    0.000000  -98.315328   25.303745   -3.064239   66.284195
  0.038637274    0.000000    0.000000    0.000000    0.000000  -97.776035   29.671875   -3.118289   64.168045
  0.038837675    0.000000    0.000000    0.000000    0.000000  -97.503420   22.515511   -3.173910   62.044693
  0.039038076    0.000000    0.000000    0.000000    0.000000  -98.010500   19.168524   -3.228177   59.942436
  0.039238477    0.000000    0.000000    0.000000    0.000000  -97.769177   20.613249   -3.284695   57.836266
  0.039438878    0.000000    0.000000    0.000000    0.000000  -99.418258   28.414780   -3.339838   55.727955
  0.039639278    0.000000    0.000000    0.000000    0.000000  -97.814114   18.733587   -3.395998   53.637169
  0.039839679    0.000000    0.000000    0.000000    0.000000  -98.209552   33.314213   -3.454738   51.509979
  0.040040080    0.000000    0.000000    0.000000    0.000000  -97.824802   20.518709   -3.508939   49.394413
  0.040240481    0.000000    0.000000    0.000000    0.000000  -98.752733   24.611826   -3.562743   47.275753
  0.040440882    0.000000    0.000000    0.000000    0.000000  -97.764037   28.272947   -3.620319   45.195641
  0.040641283    0.000000    0.000000    0.000000    0.000000  -97.533780   32.961502   -3.674213   43.114998
  0.040841683    0.000000    0.000000    0.000000    0.000000  -97.376815   19.937817   -3.731482   41.038170
  0.041042084    0.000000    0.000000    0.000000    0.000000  -97.876984   22.394857   -3.787738   38.977383
  0.041242485    0.000000    0.000000    0.000000    0.000000  -97.605582   28.301802   -3.846945   36.901302
  0.041442886    0.000000    0.000000    0.000000    0.000000  -97.012343   23.335678   -3.901848   34.828312
  0.041643287    0.000000    0.000000    0.000000    0.000000  -99.473387   30.672596   -3.958435   32.762562
  0.041843687    0.000000    0.000000    0.000000    0.000000  -98.571758   27.673296   -4.012161   30.679157
  0.042044088    0.000000    0.000000    0.000000    0.000000  -98.418488   25.010719   -4.064903   28.627859
  0.042244489    0.000000    0.000000    0.000000    0.000000  -97.923856   23.767334   -4.120311   26.573782
  0.042444890    0.000000    0.000000    0.000000    0.000000  -98.199741   29.473820   -4.173678   24.531580
  0.042645291    0.000000    0.000000    0.000000    0.000000  -97.216341   20.744104   -4.229541   22.501057
  0.042845691    0.000000    0.000000    0.000000    0.000000  -97.679312   27.453363   -4.283588   20.476160
  0.043046092    0.000000    0.000000    0.000000    0.000000  -98.863334   33.039017   -4.336830   18.439037
  0.043246493    0.000000    0.000000    0.000000    0.000000  -97.202998   31.124083   -4.388729   16.417280
  0.043446894    0.000000    0.000000    0.000000    0.000000  -99.879762   25.391296   -4.439872   14.405801
  0.043647295    0.000000    0.000000    0.000000    0.000000  -99.106383   30.120113   -4.488872   12.399343
  0.043847695    0.000000    0.000000    0.000000    0.000000  -97.814732   25.076012   -4.541035   10.391391
  0.044048096    0.000000    0.000000    0.000000    0.000000 -100.593746   24.565283   -4.590934    8.414660
  0.044248497    0.000000    0.000000    0.000000    0.000000  -99.757480   21.752604   -4.640894    6.434386
  0.044448898    0.000000    0.000000    0.000000    0.000000  -99.241706   25.555983   -4.690253    4.487882
  0.044649299    0.000000    0.000000    0.000000    0.000000  -99.392290   33.194469   -4.739042    2.513607
  0.044849699    0.000000    0.000000    0.000000    0.000000  -99.730058   32.250546   -4.784326    0.567459
  0.045050100    0.000000    0.000000    0.000000    0.000000  -99.294012   29.453804   -4.828072   -1.379148
  0.045250501    0.000000    0.000000    0.000000    0.000000  -98.409631   40.294830   -4.872510   -3.325810
  0.045450902    0.000000    0.000000    0.000000    0.000000  -98.534711   27.761934   -4.914398   -5.251453
  0.045651303    0.000000    0.000000    0.000000    0.000000  -98.362354   32.731869   -4.957640   -7.168860
  0.045851703    0.000000    0.000000    0.000000    0.000000  -97.757040   23.225437   -4.999087   -9.070311
  0.046052104    0.000000    0.000000    0.000000    0.000000  -97.104909   29.356318   -5.040027  -10.963771
  0.046252505    0.000000    0.000000    0.000000    0.000000  -99.414236   29.632500   -5.081337  -12.852245
  0.046452906    0.000000    0.000000    0.000000    0.000000  -98.551168   34.319427   -5.118799  -14.713334
  0.046653307    0.000000    0.000000    0.000000    0.000000  -97.850630   36.785542   -5.159193  -16.576529
  0.046853707    0.000000    0.000000    0.000000    0.000000  -98.034050   19.560465   -5.195761  -18.454950
  0.047054108    0.000000    0.000000    0.000000    0.000000  -99.556136   27.111549   -5.228666  -20.320509
  0.047254509    0.000000    0.000000    0.000000    0.000000  -99.064758   23.486504   -5.261405  -22.190109
  0.047454910    0.000000    0.000000    0.000000    0.000000  -99.613021   32.597713   -5.290235  -24.046095
  0.047655311    0.000000    0.000000    0.000000    0.000000  -98.409674   33.371449   -5.320750  -25.897587
  0.047855711    0.000000    0.000000    0.000000    0.000000  -99.380392   27.347826   -5.351117  -27.682888
  0.048056112    0.000000    0.000000    0.000000    0.000000  -99.206488   43.258595   -5.382980  -29.482162
  0.048256513    0.000000    0.000000    0.000000    0.000000  -97.645687   34.038345   -5.409971  -31.281101
  0.048456914    0.000000    0.000000    0.000000    0.000000  -98.396600   28.611042   -5.438415  -33.084152
  0.048657315    0.000000    0.000000    0.000000    0.000000  -99.000511   28.779156   -5.464854  -34.870533
  0.048857715    0.000000    0.000000    0.000000    0.000000  -99.143192   35.590656   -5.489551  -36.630417
  0.049058116    0.000000    0.000000    0.000000    0.000000  -99.073751   26.046831   -5.509874  -38.423298
  0.049258517    0.000000    0.000000    0.000000    0.000000  -98.902705   35.627384   -5.533873  -40.165436
  0.049458918    0.000000    0.000000    0.000000    0.000000  -98.705312   34.717014   -5.556778  -41.877689
  0.049659319    0.000000    0.000000    0.000000    0.000000  -99.443137   34.795605   -5.579209  -43.592506
  0.049859719    0.000000    0.000000    0.000000    0.000000  -97.782684   28.956661   -5.600495  -45.318691
  0.050060120    0.000000    0.000000    0.000000    0.000000  -98.490163   33.196056   -5.623146  -47.001541
  0.050260521    0.000000    0.000000    0.000000    0.000000  -98.688358   44.051376   -5.643007  -48.698395
  0.050460922    0.000000    0.000000    0.000000    0.000000  -97.523342   32.357975   -5.663077  -50.403759
  0.050661323    0.000000    0.000000    0.000000    0.000000  -98.865860   28.861586   -5.679296  -52.047161
  0.050861723    0.000000    0.000000    0.000000    0.000000  -98.629752   44.314804   -5.693477  -53.705643
  0.051062124    0.000000    0.000000    0.000000    0.000000  -98.236924   36.650684   -5.712321  -55.352928
  0.051262525    0.000000    0.000000    0.000000    0.000000  -98.929872   30.886208   -5.731332  -56.967129
  0.051462926    0.000000    0.000000    0.000000    0.000000  -98.594262   35.491898   -5.752588  -58.584801
  0.051663327    0.000000    0.000000    0.000000    0.000000  -98.369274   33.798595   -5.768438  -60.204819
  0.051863727    0.000000    0.000000    0.000000    0.000000 -101.052978   31.966509   -5.787646  -61.792027
  0.052064128    0.000000    0.000000    0.000000    0.000000  -99.490788   29.224918   -5.798817  -63.410320
  0.052264529    0.000000    0.000000    0.000000    0.000000  -99.084052   29.634769   -5.812715  -64.980064
  0.052464930    0.000000    0.000000    0.000000    0.000000  -97.889341   31.167591   -5.825851  -66.566116
  0.052665331    0.000000    0.000000    0.000000    0.000000  -99.228303   26.050539   -5.842049  -68.147202
  0.052865731    0.000000    0.000000    0.000000    0.000000  -99.654528   32.713097   -5.859762  -69.699387
