! Anritsu VNA Master:                     Model: MS2036C/10/77
! SN:                                  1601066
! /card0/usr/18may12.lna.rl/256b.lna.rl.s2p
! Existing Calibration Information:
! TYPE:                         Current Settings,       Active Cal Settings
! TIME:             	   05/13/2018 01:19:05 PM,    05/13/2018 01:12:19 PM
! INTERNAL TEMP:    	                   49.3 C,                    49.5 C
! # POINTS:         	                      500,                       500
! START FREQ:       	               20.000 MHz,                20.000 MHz
! STOP FREQ:        	              120.000 MHz,               120.000 MHz
! SOURCE POWER:     	                      Low,                       Low
! IFBW:             	                    10 Hz,                     10 Hz
! AVG FACTOR:       	                       1 ,                        1 
! REF PLANE 1:      	                     0 mm,                      0 mm
! REF PLANE 2:      	                     0 mm,                      0 mm
! CAL TYPE:         	                 Full S22,                  Full S22
! CAL METHOD:       	                     SOLT,                      SOLT
! CAL LINE TYPE:    	                     Coax,                      Coax
! DUT PORT 1:       	                K-Conn(M),                 K-Conn(M)
! DUT PORT 2:       	                K-Conn(M),                 K-Conn(M)
! CAL STATUS:       	        OK: Accuracy High,                        --
# GHZ S DB R 50.0
! FREQ.GHZ       S11DB        S11A       S21DB        S21A       S12DB        S12A       S22DB        S22A
  0.020000000    0.000000    0.000000    0.000000    0.000000  -84.113948   88.030090  -20.496231   29.520245
  0.020200401    0.000000    0.000000    0.000000    0.000000  -82.581774   59.144573  -20.483817   26.617744
  0.020400802    0.000000    0.000000    0.000000    0.000000  -80.706569   63.078033  -20.342580   24.790579
  0.020601202    0.000000    0.000000    0.000000    0.000000  -82.230863   77.868149  -20.259336   21.900507
  0.020801603    0.000000    0.000000    0.000000    0.000000  -81.570498   63.880157  -20.276005   18.861784
  0.021002004    0.000000    0.000000    0.000000    0.000000  -81.550516   64.956451  -20.284570   17.023209
  0.021202405    0.000000    0.000000    0.000000    0.000000  -84.788935   67.799980  -20.265639   13.944102
  0.021402806    0.000000    0.000000    0.000000    0.000000  -83.537041   65.891777  -20.353985   11.567960
  0.021603206    0.000000    0.000000    0.000000    0.000000  -82.465334   64.348717  -20.108581    9.590588
  0.021803607    0.000000    0.000000    0.000000    0.000000  -82.615037   65.814476  -20.177684    6.077807
  0.022004008    0.000000    0.000000    0.000000    0.000000  -83.849821   84.413193  -20.173273    3.724980
  0.022204409    0.000000    0.000000    0.000000    0.000000  -87.655900   69.046562  -20.065883    0.874611
  0.022404810    0.000000    0.000000    0.000000    0.000000  -84.573148   66.603607  -19.974991   -2.550401
  0.022605210    0.000000    0.000000    0.000000    0.000000  -84.042647   66.193893  -19.905791   -5.057232
  0.022805611    0.000000    0.000000    0.000000    0.000000  -83.559457   52.838955  -19.872572   -8.393268
  0.023006012    0.000000    0.000000    0.000000    0.000000  -85.678492   74.302933  -19.943466  -11.366901
  0.023206413    0.000000    0.000000    0.000000    0.000000  -82.486856   77.289368  -19.914795  -14.434246
  0.023406814    0.000000    0.000000    0.000000    0.000000  -82.486053   50.822906  -19.843111  -17.831732
  0.023607214    0.000000    0.000000    0.000000    0.000000  -84.257201   55.755871  -19.793662  -20.987289
  0.023807615    0.000000    0.000000    0.000000    0.000000  -82.671766   66.847748  -19.736929  -25.233778
  0.024008016    0.000000    0.000000    0.000000    0.000000  -86.703454   53.854862  -19.795729  -28.679012
  0.024208417    0.000000    0.000000    0.000000    0.000000  -82.880128   53.374393  -19.735444  -31.808447
  0.024408818    0.000000    0.000000    0.000000    0.000000  -85.410025   63.726429  -19.794629  -36.299610
  0.024609218    0.000000    0.000000    0.000000    0.000000  -82.575936   55.632202  -19.577056  -40.472424
  0.024809619    0.000000    0.000000    0.000000    0.000000  -84.140935   75.794800  -19.684370  -44.611073
  0.025010020    0.000000    0.000000    0.000000    0.000000  -85.409655   57.287548  -19.695684  -49.316643
  0.025210421    0.000000    0.000000    0.000000    0.000000  -84.014250   68.175133  -19.711622  -53.301849
  0.025410822    0.000000    0.000000    0.000000    0.000000  -86.190698   58.811001  -19.774522  -58.600174
  0.025611222    0.000000    0.000000    0.000000    0.000000  -84.434121   63.073135  -19.882317  -64.029236
  0.025811623    0.000000    0.000000    0.000000    0.000000  -83.919848   59.508652  -19.872819  -69.833107
  0.026012024    0.000000    0.000000    0.000000    0.000000  -84.574719   48.603283  -19.824744  -74.754555
  0.026212425    0.000000    0.000000    0.000000    0.000000  -90.422972   58.565189  -20.074454  -81.347160
  0.026412826    0.000000    0.000000    0.000000    0.000000  -88.018882   50.693089  -20.188396  -87.162552
  0.026613226    0.000000    0.000000    0.000000    0.000000  -86.611935   59.933750  -20.312742  -94.115776
  0.026813627    0.000000    0.000000    0.000000    0.000000  -84.161457   52.082371  -20.772964 -101.514153
  0.027014028    0.000000    0.000000    0.000000    0.000000  -82.681825   69.058487  -21.099747 -108.535591
  0.027214429    0.000000    0.000000    0.000000    0.000000  -86.056321   71.754883  -21.554621 -116.690575
  0.027414830    0.000000    0.000000    0.000000    0.000000  -88.007466   50.344833  -22.025366 -125.343002
  0.027615230    0.000000    0.000000    0.000000    0.000000  -83.548259   64.851463  -22.708198 -132.224411
  0.027815631    0.000000    0.000000    0.000000    0.000000  -86.157733   57.180672  -23.338770 -140.628662
  0.028016032    0.000000    0.000000    0.000000    0.000000  -82.884557   47.535133  -24.158349 -149.467789
  0.028216433    0.000000    0.000000    0.000000    0.000000  -86.228844   65.575905  -25.057434 -157.732544
  0.028416834    0.000000    0.000000    0.000000    0.000000  -84.515737   61.152260  -25.934771 -165.487366
  0.028617234    0.000000    0.000000    0.000000    0.000000  -86.915931   66.489883  -26.975924 -173.106049
  0.028817635    0.000000    0.000000    0.000000    0.000000  -83.694104   63.214222  -28.135738  177.924301
  0.029018036    0.000000    0.000000    0.000000    0.000000  -88.175917   54.298405  -29.440066  170.952133
  0.029218437    0.000000    0.000000    0.000000    0.000000  -85.100007   56.114975  -30.738115  161.877258
  0.029418838    0.000000    0.000000    0.000000    0.000000  -83.020341   62.252823  -32.303829  156.714401
  0.029619238    0.000000    0.000000    0.000000    0.000000  -84.052542   63.876778  -33.146062  145.769608
  0.029819639    0.000000    0.000000    0.000000    0.000000  -88.308028   57.441830  -34.439167  140.139282
  0.030020040    0.000000    0.000000    0.000000    0.000000  -89.195552   33.788872  -36.133570  133.068817
  0.030220441    0.000000    0.000000    0.000000    0.000000  -85.089012   47.533619  -38.014002  120.342430
  0.030420842    0.000000    0.000000    0.000000    0.000000  -81.890770   62.128815  -39.526193  112.649696
  0.030621242    0.000000    0.000000    0.000000    0.000000  -87.114302   65.099731  -40.772553   95.377289
  0.030821643    0.000000    0.000000    0.000000    0.000000  -85.123422   54.714745  -42.140395   91.227272
  0.031022044    0.000000    0.000000    0.000000    0.000000  -87.094172   46.982525  -42.581358   81.329109
  0.031222445    0.000000    0.000000    0.000000    0.000000  -86.104047   54.668140  -43.082470   69.429237
  0.031422846    0.000000    0.000000    0.000000    0.000000  -83.622649   60.710838  -44.115718   53.012829
  0.031623246    0.000000    0.000000    0.000000    0.000000  -85.839604   64.351212  -46.309465   59.874687
  0.031823647    0.000000    0.000000    0.000000    0.000000  -89.070140   53.746407  -45.810363   34.415688
  0.032024048    0.000000    0.000000    0.000000    0.000000  -85.577437   42.151672  -44.913409   27.911457
  0.032224449    0.000000    0.000000    0.000000    0.000000  -83.834169   50.362148  -47.582720    2.084838
  0.032424850    0.000000    0.000000    0.000000    0.000000  -87.588563   66.471458  -47.538558    8.485397
  0.032625251    0.000000    0.000000    0.000000    0.000000  -83.373305   68.915382  -49.868549   19.930595
  0.032825651    0.000000    0.000000    0.000000    0.000000  -83.768697   66.572731  -48.609810   -9.932016
  0.033026052    0.000000    0.000000    0.000000    0.000000  -86.254887   49.379478  -48.997687   -1.095480
  0.033226453    0.000000    0.000000    0.000000    0.000000  -83.081190   63.905041  -48.128320    1.584717
  0.033426854    0.000000    0.000000    0.000000    0.000000  -85.276101   70.270576  -50.698244  -11.076382
  0.033627255    0.000000    0.000000    0.000000    0.000000  -85.437257   45.003712  -48.521339   -8.307686
  0.033827655    0.000000    0.000000    0.000000    0.000000  -84.177770   62.437027  -49.255915  -11.169765
  0.034028056    0.000000    0.000000    0.000000    0.000000  -85.732168   32.802853  -52.170498  -20.046190
  0.034228457    0.000000    0.000000    0.000000    0.000000  -84.743429   64.907356  -52.943821  -10.570510
  0.034428858    0.000000    0.000000    0.000000    0.000000  -83.605020   80.704651  -53.415399   -7.839326
  0.034629259    0.000000    0.000000    0.000000    0.000000  -82.543863   77.865044  -52.516821   -1.218986
  0.034829659    0.000000    0.000000    0.000000    0.000000  -85.359773   58.353275  -55.506706   54.166363
  0.035030060    0.000000    0.000000    0.000000    0.000000  -89.180909   55.416340  -65.001973  -47.341946
  0.035230461    0.000000    0.000000    0.000000    0.000000  -85.212568   61.067841  -54.222459   51.721851
  0.035430862    0.000000    0.000000    0.000000    0.000000  -83.157165   75.445854  -51.665524   70.279869
  0.035631263    0.000000    0.000000    0.000000    0.000000  -87.484131   52.885521  -52.654085   48.305332
  0.035831663    0.000000    0.000000    0.000000    0.000000  -85.506937   50.156963  -51.705368   50.034756
  0.036032064    0.000000    0.000000    0.000000    0.000000  -84.977177   72.144745  -55.515460   66.064278
  0.036232465    0.000000    0.000000    0.000000    0.000000  -83.772039   57.502132  -52.516003   52.858364
  0.036432866    0.000000    0.000000    0.000000    0.000000  -86.153585   73.183479  -52.044312   57.141487
  0.036633267    0.000000    0.000000    0.000000    0.000000  -84.322577   92.946266  -53.342827   44.928463
  0.036833667    0.000000    0.000000    0.000000    0.000000  -86.748012   40.833115  -49.738134   61.523449
  0.037034068    0.000000    0.000000    0.000000    0.000000  -88.651786   63.988811  -49.994138   47.248417
  0.037234469    0.000000    0.000000    0.000000    0.000000  -87.425925   60.247814  -50.146604   46.444248
  0.037434870    0.000000    0.000000    0.000000    0.000000  -85.268335   72.278297  -46.807349   47.714405
  0.037635271    0.000000    0.000000    0.000000    0.000000  -86.589052   87.976234  -48.736310   75.717377
  0.037835671    0.000000    0.000000    0.000000    0.000000  -85.592270   71.371025  -49.196345   55.144608
  0.038036072    0.000000    0.000000    0.000000    0.000000  -82.810213   73.010986  -49.437743   60.409691
  0.038236473    0.000000    0.000000    0.000000    0.000000  -83.135385   69.521271  -47.490811   51.966255
  0.038436874    0.000000    0.000000    0.000000    0.000000  -84.477577   51.394852  -46.469249   61.801090
  0.038637275    0.000000    0.000000    0.000000    0.000000  -84.737307   56.538315  -48.797969   67.884117
  0.038837675    0.000000    0.000000    0.000000    0.000000  -85.637779   56.142849  -49.165346   78.392899
  0.039038076    0.000000    0.000000    0.000000    0.000000  -82.998543   61.019661  -47.595554   54.349213
  0.039238477    0.000000    0.000000    0.000000    0.000000  -85.895568   83.978752  -46.592969   54.669434
  0.039438878    0.000000    0.000000    0.000000    0.000000  -84.058971   69.920975  -49.703860   49.576031
  0.039639279    0.000000    0.000000    0.000000    0.000000  -88.101323   65.828682  -49.482084   62.111965
  0.039839679    0.000000    0.000000    0.000000    0.000000  -87.551053   58.439316  -47.652929   71.232361
  0.040040080    0.000000    0.000000    0.000000    0.000000  -85.922394   39.791443  -48.422545   70.895729
  0.040240481    0.000000    0.000000    0.000000    0.000000  -90.593060   60.536472  -46.542352   61.688301
  0.040440882    0.000000    0.000000    0.000000    0.000000  -85.078809   80.056343  -45.717593   60.714455
  0.040641283    0.000000    0.000000    0.000000    0.000000  -84.030787   69.294098  -47.217918   52.300686
  0.040841683    0.000000    0.000000    0.000000    0.000000  -84.539727   68.753876  -44.745026   57.631615
  0.041042084    0.000000    0.000000    0.000000    0.000000  -89.027994   56.129395  -47.100879   77.806580
  0.041242485    0.000000    0.000000    0.000000    0.000000  -84.395077   76.494278  -49.283996   78.498268
  0.041442886    0.000000    0.000000    0.000000    0.000000  -84.347892   74.023430  -47.455502   78.993019
  0.041643287    0.000000    0.000000    0.000000    0.000000  -86.373192   49.855354  -46.780019   73.680832
  0.041843687    0.000000    0.000000    0.000000    0.000000  -89.743618   65.789070  -46.865350   72.840782
  0.042044088    0.000000    0.000000    0.000000    0.000000  -83.773764   71.649651  -46.968351   72.762955
  0.042244489    0.000000    0.000000    0.000000    0.000000  -89.623107   99.395561  -45.905667   84.536186
  0.042444890    0.000000    0.000000    0.000000    0.000000  -86.698028   56.823589  -45.200246   76.771149
  0.042645291    0.000000    0.000000    0.000000    0.000000  -83.449520   75.010712  -44.710055   86.901962
  0.042845691    0.000000    0.000000    0.000000    0.000000  -84.287235   50.066624  -46.677543   77.861855
  0.043046092    0.000000    0.000000    0.000000    0.000000  -85.350188   74.197807  -44.840194   79.188988
  0.043246493    0.000000    0.000000    0.000000    0.000000  -89.783300   89.405754  -45.227304   91.819336
  0.043446894    0.000000    0.000000    0.000000    0.000000  -82.773763   73.193527  -44.299019   86.433350
  0.043647295    0.000000    0.000000    0.000000    0.000000  -82.091543   68.115288  -44.106343   84.895851
  0.043847695    0.000000    0.000000    0.000000    0.000000  -86.077258   70.840324  -44.743000   99.281624
  0.044048096    0.000000    0.000000    0.000000    0.000000  -83.042650   68.068764  -43.347324   89.475075
  0.044248497    0.000000    0.000000    0.000000    0.000000  -83.624396   85.584618  -43.173161   97.794060
  0.044448898    0.000000    0.000000    0.000000    0.000000  -87.493345   72.043716  -42.517896   92.237854
  0.044649299    0.000000    0.000000    0.000000    0.000000  -87.255024   45.376698  -42.378690   98.238678
  0.044849699    0.000000    0.000000    0.000000    0.000000  -83.112731   80.765427  -42.125834   91.254387
  0.045050100    0.000000    0.000000    0.000000    0.000000  -86.554610   85.518120  -42.069660  105.608658
  0.045250501    0.000000    0.000000    0.000000    0.000000  -83.895217   68.916672  -42.875331  102.802887
  0.045450902    0.000000    0.000000    0.000000    0.000000  -85.014544   85.777931  -41.159843   94.002960
  0.045651303    0.000000    0.000000    0.000000    0.000000  -84.234773   81.119797  -40.572617   94.437347
  0.045851703    0.000000    0.000000    0.000000    0.000000  -86.306624   76.843292  -40.348687   95.069664
  0.046052104    0.000000    0.000000    0.000000    0.000000  -84.116994   53.360126  -40.604859   95.023293
  0.046252505    0.000000    0.000000    0.000000    0.000000  -83.315441   86.155937  -40.095301   89.981575
  0.046452906    0.000000    0.000000    0.000000    0.000000  -83.956637   73.427559  -40.252617   86.059486
  0.046653307    0.000000    0.000000    0.000000    0.000000  -86.160843   82.302094  -39.782573   96.630508
  0.046853707    0.000000    0.000000    0.000000    0.000000  -82.910644   81.563179  -39.145421   96.042206
  0.047054108    0.000000    0.000000    0.000000    0.000000  -90.739323   49.452991  -38.925202   95.174637
  0.047254509    0.000000    0.000000    0.000000    0.000000  -83.582851   76.190552  -39.026135   91.343491
  0.047454910    0.000000    0.000000    0.000000    0.000000  -86.861906   42.318886  -37.326640   97.693016
  0.047655311    0.000000    0.000000    0.000000    0.000000  -86.197369   84.682854  -37.364006   87.654823
  0.047855711    0.000000    0.000000    0.000000    0.000000  -86.133127   76.619392  -37.360237   90.990349
  0.048056112    0.000000    0.000000    0.000000    0.000000  -83.338889   72.252815  -36.691395   92.027695
  0.048256513    0.000000    0.000000    0.000000    0.000000  -82.059356   63.824211  -36.725127   89.019814
  0.048456914    0.000000    0.000000    0.000000    0.000000  -84.189171   60.662025  -36.223831   90.475082
  0.048657315    0.000000    0.000000    0.000000    0.000000  -88.160813   55.167736  -36.551455   91.184944
  0.048857715    0.000000    0.000000    0.000000    0.000000  -85.053229   75.445969  -36.140989   84.610008
  0.049058116    0.000000    0.000000    0.000000    0.000000  -87.213686   65.071075  -35.640023   85.116226
  0.049258517    0.000000    0.000000    0.000000    0.000000  -85.139835   56.303612  -35.794636   85.107887
  0.049458918    0.000000    0.000000    0.000000    0.000000  -86.176619   54.679741  -35.505243   85.944603
  0.049659319    0.000000    0.000000    0.000000    0.000000  -83.751867   69.645912  -35.458231   85.381912
  0.049859719    0.000000    0.000000    0.000000    0.000000  -84.422865   66.786255  -34.865593   83.687210
  0.050060120    0.000000    0.000000    0.000000    0.000000  -86.833890   58.528172  -35.068541   81.971581
  0.050260521    0.000000    0.000000    0.000000    0.000000  -85.821222   91.732353  -35.305103   83.708862
  0.050460922    0.000000    0.000000    0.000000    0.000000  -85.776754   69.913658  -34.460354   76.781357
  0.050661323    0.000000    0.000000    0.000000    0.000000  -86.316521   54.260956  -34.715875   77.980690
  0.050861723    0.000000    0.000000    0.000000    0.000000  -82.683305   80.311378  -34.197749   79.133728
  0.051062124    0.000000    0.000000    0.000000    0.000000  -86.066841   69.646408  -34.144130   78.937164
  0.051262525    0.000000    0.000000    0.000000    0.000000  -86.649152   63.047699  -33.808323   78.632751
  0.051462926    0.000000    0.000000    0.000000    0.000000  -88.863069   64.981277  -33.933001   75.583725
  0.051663327    0.000000    0.000000    0.000000    0.000000  -86.306586   75.855217  -33.943997   72.728745
  0.051863727    0.000000    0.000000    0.000000    0.000000  -86.035809   49.981049  -33.604834   75.920021
  0.052064128    0.000000    0.000000    0.000000    0.000000  -84.022138   71.594444  -33.612218   71.168465
  0.052264529    0.000000    0.000000    0.000000    0.000000  -87.866544   75.205620  -33.989519   73.271606
  0.052464930    0.000000    0.000000    0.000000    0.000000  -83.005476   67.983757  -33.050497   69.814545
  0.052665331    0.000000    0.000000    0.000000    0.000000  -90.047916   42.611778  -33.026802   69.329353
  0.052865731    0.000000    0.000000    0.000000    0.000000  -88.217668   63.961674  -33.590697   69.704124
