! Anritsu VNA Master:                     Model: MS2036C/10/77
! SN:                                  1601066
! /card0/usr/bot.s11.194p65.s2p
! Existing Calibration Information:
! TYPE:                         Current Settings,       Active Cal Settings
! TIME:             	   05/23/2018 11:51:14 AM,    05/23/2018 11:36:58 AM
! INTERNAL TEMP:    	                   48.3 C,                    48.8 C
! # POINTS:         	                      500,                       500
! START FREQ:       	               20.000 MHz,                20.000 MHz
! STOP FREQ:        	              120.000 MHz,               120.000 MHz
! SOURCE POWER:     	                     High,                      High
! IFBW:             	                    50 Hz,                     50 Hz
! AVG FACTOR:       	                       1 ,                        1 
! REF PLANE 1:      	                     0 mm,                      0 mm
! REF PLANE 2:      	                     0 mm,                      0 mm
! CAL TYPE:         	                 Full S11,                  Full S11
! CAL METHOD:       	                     SOLT,                      SOLT
! CAL LINE TYPE:    	                     Coax,                      Coax
! DUT PORT 1:       	                K-Conn(M),                 K-Conn(M)
! DUT PORT 2:       	                K-Conn(M),                 K-Conn(M)
! CAL STATUS:       	        OK: Accuracy High,                        --
# GHZ S DB R 50.0
! FREQ.GHZ       S11DB        S11A       S21DB        S21A       S12DB        S12A       S22DB        S22A
  0.020000000   -4.541423  -21.431534  -93.381936  -68.293793    0.000000    0.000000    0.000000    0.000000
  0.020200401   -4.542165  -21.650534  -94.001389  -69.839111    0.000000    0.000000    0.000000    0.000000
  0.020400802   -4.542784  -21.848959  -93.828721  -78.862259    0.000000    0.000000    0.000000    0.000000
  0.020601202   -4.543738  -22.075804  -94.533082  -71.457863    0.000000    0.000000    0.000000    0.000000
  0.020801603   -4.545547  -22.292107  -93.797935  -75.342415    0.000000    0.000000    0.000000    0.000000
  0.021002004   -4.546071  -22.506264  -93.639687  -77.781548    0.000000    0.000000    0.000000    0.000000
  0.021202405   -4.547672  -22.727631  -94.727826  -78.517502    0.000000    0.000000    0.000000    0.000000
  0.021402806   -4.548112  -22.947989  -94.936917  -84.671219    0.000000    0.000000    0.000000    0.000000
  0.021603206   -4.547673  -23.159298  -95.402443  -75.696991    0.000000    0.000000    0.000000    0.000000
  0.021803607   -4.549587  -23.376781  -94.869787  -82.841904    0.000000    0.000000    0.000000    0.000000
  0.022004008   -4.550324  -23.587740  -95.917809  -84.004486    0.000000    0.000000    0.000000    0.000000
  0.022204409   -4.552130  -23.816467  -95.110068  -84.512436    0.000000    0.000000    0.000000    0.000000
  0.022404810   -4.552835  -24.036724  -95.702017  -86.755737    0.000000    0.000000    0.000000    0.000000
  0.022605210   -4.553146  -24.246040  -95.985849  -91.926552    0.000000    0.000000    0.000000    0.000000
  0.022805611   -4.553469  -24.466167  -96.454557  -89.179352    0.000000    0.000000    0.000000    0.000000
  0.023006012   -4.553678  -24.697430  -95.733484  -92.642181    0.000000    0.000000    0.000000    0.000000
  0.023206413   -4.555577  -24.915104  -95.717629  -90.967651    0.000000    0.000000    0.000000    0.000000
  0.023406814   -4.555825  -25.123117  -95.098934  -91.706024    0.000000    0.000000    0.000000    0.000000
  0.023607214   -4.557358  -25.339691  -96.181640  -94.661469    0.000000    0.000000    0.000000    0.000000
  0.023807615   -4.556299  -25.571951  -97.005279  -95.521271    0.000000    0.000000    0.000000    0.000000
  0.024008016   -4.556471  -25.788532  -97.434736  -95.859108    0.000000    0.000000    0.000000    0.000000
  0.024208417   -4.559927  -26.009621  -97.819470  -95.192619    0.000000    0.000000    0.000000    0.000000
  0.024408818   -4.561202  -26.227015  -97.282111  -96.565048    0.000000    0.000000    0.000000    0.000000
  0.024609218   -4.559084  -26.433649  -98.191016  -96.369400    0.000000    0.000000    0.000000    0.000000
  0.024809619   -4.561113  -26.654163  -97.275250  -91.397163    0.000000    0.000000    0.000000    0.000000
  0.025010020   -4.561746  -26.872389  -98.579603 -106.208580    0.000000    0.000000    0.000000    0.000000
  0.025210421   -4.562477  -27.091616  -98.420102  -97.788536    0.000000    0.000000    0.000000    0.000000
  0.025410822   -4.562991  -27.315805  -98.927289 -102.457954    0.000000    0.000000    0.000000    0.000000
  0.025611222   -4.562870  -27.533810  -97.800033 -102.971703    0.000000    0.000000    0.000000    0.000000
  0.025811623   -4.563453  -27.755558  -98.638529  -97.417198    0.000000    0.000000    0.000000    0.000000
  0.026012024   -4.565741  -27.969393 -100.725499 -111.309776    0.000000    0.000000    0.000000    0.000000
  0.026212425   -4.565689  -28.193417  -98.911544 -107.612495    0.000000    0.000000    0.000000    0.000000
  0.026412826   -4.567097  -28.420033  -99.383883 -113.959900    0.000000    0.000000    0.000000    0.000000
  0.026613226   -4.567578  -28.621887  -99.364476 -111.949051    0.000000    0.000000    0.000000    0.000000
  0.026813627   -4.566188  -28.840261 -100.884293 -100.394234    0.000000    0.000000    0.000000    0.000000
  0.027014028   -4.567435  -29.065262 -100.270159 -103.249741    0.000000    0.000000    0.000000    0.000000
  0.027214429   -4.568096  -29.288530  -99.902381 -100.632492    0.000000    0.000000    0.000000    0.000000
  0.027414830   -4.568020  -29.515924  -99.777008 -102.557877    0.000000    0.000000    0.000000    0.000000
  0.027615230   -4.569195  -29.737041  -99.780656 -112.574387    0.000000    0.000000    0.000000    0.000000
  0.027815631   -4.569767  -29.947906 -100.686069  -96.541145    0.000000    0.000000    0.000000    0.000000
  0.028016032   -4.570709  -30.177603 -101.071204 -101.410774    0.000000    0.000000    0.000000    0.000000
  0.028216433   -4.572812  -30.392136 -100.705952 -101.783745    0.000000    0.000000    0.000000    0.000000
  0.028416834   -4.572891  -30.613882 -100.422161 -108.308601    0.000000    0.000000    0.000000    0.000000
  0.028617234   -4.572737  -30.833538 -100.570279 -108.695602    0.000000    0.000000    0.000000    0.000000
  0.028817635   -4.573858  -31.053997 -101.040695 -102.836212    0.000000    0.000000    0.000000    0.000000
  0.029018036   -4.573795  -31.277195 -101.592131 -111.014992    0.000000    0.000000    0.000000    0.000000
  0.029218437   -4.576142  -31.498838 -102.407009 -108.429787    0.000000    0.000000    0.000000    0.000000
  0.029418838   -4.576344  -31.711458 -101.273397 -105.278198    0.000000    0.000000    0.000000    0.000000
  0.029619238   -4.576465  -31.937630 -100.196718 -113.349472    0.000000    0.000000    0.000000    0.000000
  0.029819639   -4.577079  -32.149906 -101.735752 -118.458870    0.000000    0.000000    0.000000    0.000000
  0.030020040   -4.578913  -32.380901 -102.278727 -116.413086    0.000000    0.000000    0.000000    0.000000
  0.030220441   -4.579965  -32.590508 -102.284226 -104.978256    0.000000    0.000000    0.000000    0.000000
  0.030420842   -4.580211  -32.812939 -101.559816 -116.173378    0.000000    0.000000    0.000000    0.000000
  0.030621242   -4.580284  -33.040985 -102.513601 -106.058968    0.000000    0.000000    0.000000    0.000000
  0.030821643   -4.582022  -33.256744 -102.015412  -99.348923    0.000000    0.000000    0.000000    0.000000
  0.031022044   -4.583082  -33.472492 -101.036542 -106.484627    0.000000    0.000000    0.000000    0.000000
  0.031222445   -4.572816  -33.636047 -103.314874 -136.714615    0.000000    0.000000    0.000000    0.000000
  0.031422846   -4.572089  -33.840225 -101.837047 -122.593498    0.000000    0.000000    0.000000    0.000000
  0.031623246   -4.574552  -34.064465 -103.407642 -122.712997    0.000000    0.000000    0.000000    0.000000
  0.031823647   -4.575064  -34.282997 -102.857871 -125.844635    0.000000    0.000000    0.000000    0.000000
  0.032024048   -4.577687  -34.491211 -103.112953 -114.807259    0.000000    0.000000    0.000000    0.000000
  0.032224449   -4.574734  -34.710487 -101.614305 -124.804138    0.000000    0.000000    0.000000    0.000000
  0.032424850   -4.577777  -34.927872 -103.505720 -119.420624    0.000000    0.000000    0.000000    0.000000
  0.032625251   -4.579630  -35.132137 -103.808678 -123.033020    0.000000    0.000000    0.000000    0.000000
  0.032825651   -4.579525  -35.345943 -102.456222 -117.554153    0.000000    0.000000    0.000000    0.000000
  0.033026052   -4.581541  -35.570435 -101.777988 -137.671875    0.000000    0.000000    0.000000    0.000000
  0.033226453   -4.581047  -35.792210 -102.426851 -110.004112    0.000000    0.000000    0.000000    0.000000
  0.033426854   -4.581594  -36.009262 -103.402258 -141.033066    0.000000    0.000000    0.000000    0.000000
  0.033627255   -4.584528  -36.226074 -103.010469 -143.109924    0.000000    0.000000    0.000000    0.000000
  0.033827655   -4.582965  -36.437302 -104.407500 -151.987976    0.000000    0.000000    0.000000    0.000000
  0.034028056   -4.584060  -36.657352 -103.856242 -136.579681    0.000000    0.000000    0.000000    0.000000
  0.034228457   -4.584147  -36.862534 -105.012867 -140.608551    0.000000    0.000000    0.000000    0.000000
  0.034428858   -4.583913  -37.091766 -104.270330 -126.184479    0.000000    0.000000    0.000000    0.000000
  0.034629259   -4.584757  -37.299244 -104.946758 -136.450882    0.000000    0.000000    0.000000    0.000000
  0.034829659   -4.585805  -37.505928 -104.368182 -120.424553    0.000000    0.000000    0.000000    0.000000
  0.035030060   -4.585291  -37.746773 -103.649098 -130.849289    0.000000    0.000000    0.000000    0.000000
  0.035230461   -4.585771  -37.949142 -105.487701 -139.681931    0.000000    0.000000    0.000000    0.000000
  0.035430862   -4.586022  -38.174873 -102.629140 -141.749664    0.000000    0.000000    0.000000    0.000000
  0.035631263   -4.586303  -38.390804 -101.876154 -141.519424    0.000000    0.000000    0.000000    0.000000
  0.035831663   -4.584995  -38.584747 -103.811956 -135.651611    0.000000    0.000000    0.000000    0.000000
  0.036032064   -4.586692  -38.817028 -104.924309 -128.300919    0.000000    0.000000    0.000000    0.000000
  0.036232465   -4.586365  -39.044956 -106.458501 -131.972229    0.000000    0.000000    0.000000    0.000000
  0.036432866   -4.587351  -39.253334 -105.428427 -135.859024    0.000000    0.000000    0.000000    0.000000
  0.036633267   -4.587276  -39.469948 -103.455204 -132.571503    0.000000    0.000000    0.000000    0.000000
  0.036833667   -4.587833  -39.696514 -104.894961 -144.998520    0.000000    0.000000    0.000000    0.000000
  0.037034068   -4.589712  -39.909351 -103.937434 -160.355942    0.000000    0.000000    0.000000    0.000000
  0.037234469   -4.589359  -40.131256 -105.550643 -148.253021    0.000000    0.000000    0.000000    0.000000
  0.037434870   -4.590126  -40.340889 -102.865421 -151.080704    0.000000    0.000000    0.000000    0.000000
  0.037635271   -4.591633  -40.563835 -104.324105 -170.541565    0.000000    0.000000    0.000000    0.000000
  0.037835671   -4.592122  -40.785145 -106.387027 -158.397675    0.000000    0.000000    0.000000    0.000000
  0.038036072   -4.593213  -41.004353 -103.986513 -152.543686    0.000000    0.000000    0.000000    0.000000
  0.038236473   -4.590453  -41.225368 -104.379864 -168.770355    0.000000    0.000000    0.000000    0.000000
  0.038436874   -4.593028  -41.445381 -104.602435 -147.845184    0.000000    0.000000    0.000000    0.000000
  0.038637275   -4.593595  -41.657085 -106.245878 -141.711761    0.000000    0.000000    0.000000    0.000000
  0.038837675   -4.595970  -41.875900 -106.861608 -146.518433    0.000000    0.000000    0.000000    0.000000
  0.039038076   -4.595129  -42.105782 -104.465975 -132.937668    0.000000    0.000000    0.000000    0.000000
  0.039238477   -4.594918  -42.316032 -107.292891 -145.482803    0.000000    0.000000    0.000000    0.000000
  0.039438878   -4.597824  -42.535675 -107.482045 -171.963348    0.000000    0.000000    0.000000    0.000000
  0.039639279   -4.595607  -42.741962 -105.585543 -164.680130    0.000000    0.000000    0.000000    0.000000
  0.039839679   -4.599285  -42.970951 -105.536665 -162.893631    0.000000    0.000000    0.000000    0.000000
  0.040040080   -4.598027  -43.176140 -104.595748 -178.208344    0.000000    0.000000    0.000000    0.000000
  0.040240481   -4.598414  -43.412457 -103.157089 -151.464096    0.000000    0.000000    0.000000    0.000000
  0.040440882   -4.599580  -43.630135 -105.501367 -166.811081    0.000000    0.000000    0.000000    0.000000
  0.040641283   -4.598973  -43.848640 -105.834043 -161.472046    0.000000    0.000000    0.000000    0.000000
  0.040841683   -4.601746  -44.071346 -105.368572 -164.164993    0.000000    0.000000    0.000000    0.000000
  0.041042084   -4.600410  -44.282192 -102.602128 -160.282181    0.000000    0.000000    0.000000    0.000000
  0.041242485   -4.601737  -44.504307 -105.756786  176.774887    0.000000    0.000000    0.000000    0.000000
  0.041442886   -4.603255  -44.723789 -103.403517  178.636642    0.000000    0.000000    0.000000    0.000000
  0.041643287   -4.604730  -44.947613 -107.206353 -168.475052    0.000000    0.000000    0.000000    0.000000
  0.041843687   -4.604097  -45.155773 -103.775995 -176.855133    0.000000    0.000000    0.000000    0.000000
  0.042044088   -4.604190  -45.377846 -106.249548 -168.718994    0.000000    0.000000    0.000000    0.000000
  0.042244489   -4.604173  -45.593517 -107.221899 -171.217987    0.000000    0.000000    0.000000    0.000000
  0.042444890   -4.604891  -45.818764 -103.002456 -176.726608    0.000000    0.000000    0.000000    0.000000
  0.042645291   -4.606199  -46.038212 -104.983132  177.693527    0.000000    0.000000    0.000000    0.000000
  0.042845691   -4.604424  -46.251717 -105.232272 -158.028015    0.000000    0.000000    0.000000    0.000000
  0.043046092   -4.605259  -46.480118 -104.486403 -152.696671    0.000000    0.000000    0.000000    0.000000
  0.043246493   -4.607458  -46.687847 -103.532862 -176.812485    0.000000    0.000000    0.000000    0.000000
  0.043446894   -4.609173  -46.913036 -105.692126 -160.114899    0.000000    0.000000    0.000000    0.000000
  0.043647295   -4.606421  -47.125111 -104.992836  158.897400    0.000000    0.000000    0.000000    0.000000
  0.043847695   -4.607712  -47.359955 -103.956044 -175.041306    0.000000    0.000000    0.000000    0.000000
  0.044048096   -4.605667  -47.561584 -107.633723 -166.203781    0.000000    0.000000    0.000000    0.000000
  0.044248497   -4.607416  -47.803658 -104.836636  154.462280    0.000000    0.000000    0.000000    0.000000
  0.044448898   -4.609095  -48.004055 -103.340230  174.506744    0.000000    0.000000    0.000000    0.000000
  0.044649299   -4.609623  -48.226498 -105.681783  179.127838    0.000000    0.000000    0.000000    0.000000
  0.044849699   -4.609900  -48.444977 -104.564154 -172.768890    0.000000    0.000000    0.000000    0.000000
  0.045050100   -4.608886  -48.665947 -103.656696  171.621933    0.000000    0.000000    0.000000    0.000000
  0.045250501   -4.610014  -48.882702 -104.631283  164.962891    0.000000    0.000000    0.000000    0.000000
  0.045450902   -4.611791  -49.115074 -106.447083  158.945648    0.000000    0.000000    0.000000    0.000000
  0.045651303   -4.611137  -49.333397 -104.034445  144.838455    0.000000    0.000000    0.000000    0.000000
  0.045851703   -4.612570  -49.546421 -105.236746  174.036011    0.000000    0.000000    0.000000    0.000000
  0.046052104   -4.614089  -49.769581 -108.828840  169.520111    0.000000    0.000000    0.000000    0.000000
  0.046252505   -4.613499  -49.996521 -105.176299  141.699142    0.000000    0.000000    0.000000    0.000000
  0.046452906   -4.614382  -50.215469 -108.212820  176.867798    0.000000    0.000000    0.000000    0.000000
  0.046653307   -4.615688  -50.445122 -104.704896  160.241577    0.000000    0.000000    0.000000    0.000000
  0.046853707   -4.614670  -50.665089 -109.274616  161.813446    0.000000    0.000000    0.000000    0.000000
  0.047054108   -4.614690  -50.889057 -109.108086  155.118515    0.000000    0.000000    0.000000    0.000000
  0.047254509   -4.615299  -51.111938 -106.111165  138.241058    0.000000    0.000000    0.000000    0.000000
  0.047454910   -4.615589  -51.322849 -106.738856  156.691925    0.000000    0.000000    0.000000    0.000000
  0.047655311   -4.614061  -51.551773 -103.437208  156.691254    0.000000    0.000000    0.000000    0.000000
  0.047855711   -4.613844  -51.777172 -103.694397  145.041519    0.000000    0.000000    0.000000    0.000000
  0.048056112   -4.615862  -52.000854 -105.049391  149.332581    0.000000    0.000000    0.000000    0.000000
  0.048256513   -4.617446  -52.218906 -106.786780  145.890152    0.000000    0.000000    0.000000    0.000000
  0.048456914   -4.614898  -52.455269 -104.933727  148.019058    0.000000    0.000000    0.000000    0.000000
  0.048657315   -4.616595  -52.661179 -103.919595  157.599243    0.000000    0.000000    0.000000    0.000000
  0.048857715   -4.617096  -52.879192 -104.205877  139.719208    0.000000    0.000000    0.000000    0.000000
  0.049058116   -4.617526  -53.091705 -109.276948  148.847519    0.000000    0.000000    0.000000    0.000000
  0.049258517   -4.616393  -53.318390 -108.804021  106.799911    0.000000    0.000000    0.000000    0.000000
  0.049458918   -4.616909  -53.539940 -104.875836  149.336792    0.000000    0.000000    0.000000    0.000000
  0.049659319   -4.617890  -53.745106 -107.583932  122.946411    0.000000    0.000000    0.000000    0.000000
  0.049859719   -4.618674  -53.986656 -109.280055  133.895798    0.000000    0.000000    0.000000    0.000000
  0.050060120   -4.620636  -54.196419 -108.289913  139.956100    0.000000    0.000000    0.000000    0.000000
  0.050260521   -4.620180  -54.423264 -106.046674  117.452942    0.000000    0.000000    0.000000    0.000000
  0.050460922   -4.618630  -54.654675 -105.126914  138.345993    0.000000    0.000000    0.000000    0.000000
  0.050661323   -4.621762  -54.858494 -105.971103  133.759079    0.000000    0.000000    0.000000    0.000000
  0.050861723   -4.621194  -55.075069 -108.976637  143.764709    0.000000    0.000000    0.000000    0.000000
  0.051062124   -4.622047  -55.303421 -103.677268  132.056793    0.000000    0.000000    0.000000    0.000000
  0.051262525   -4.621235  -55.529030 -105.852003  119.722534    0.000000    0.000000    0.000000    0.000000
  0.051462926   -4.622477  -55.742165 -107.150238  122.620270    0.000000    0.000000    0.000000    0.000000
  0.051663327   -4.624419  -55.973133 -106.221531  136.402405    0.000000    0.000000    0.000000    0.000000
  0.051863727   -4.624535  -56.180408 -106.623979  113.323074    0.000000    0.000000    0.000000    0.000000
  0.052064128   -4.623331  -56.406559 -107.663980  103.801216    0.000000    0.000000    0.000000    0.000000
  0.052264529   -4.623156  -56.627468 -105.415999  115.414215    0.000000    0.000000    0.000000    0.000000
  0.052464930   -4.624453  -56.839016 -104.578815  103.075180    0.000000    0.000000    0.000000    0.000000
  0.052665331   -4.625799  -57.067940 -106.295310  107.952843    0.000000    0.000000    0.000000    0.000000
  0.052865731   -4.627374  -57.277042 -107.276932  132.026108    0.000000    0.000000    0.000000    0.000000
