! Anritsu VNA Master:                     Model: MS2036C/10/77
! SN:                                  1601066
! /bd0/18may23.rg316.s11.pre.field/sma.m-m.barrel.s2p
! Existing Calibration Information:
! TYPE:                         Current Settings,       Active Cal Settings
! TIME:             	   05/23/2018 12:33:08 PM,    05/23/2018 12:26:34 PM
! INTERNAL TEMP:    	                   48.3 C,                    48.0 C
! # POINTS:         	                      500,                       500
! START FREQ:       	               20.000 MHz,                20.000 MHz
! STOP FREQ:        	              120.000 MHz,               120.000 MHz
! SOURCE POWER:     	                     High,                      High
! IFBW:             	                    50 Hz,                     50 Hz
! AVG FACTOR:       	                       1 ,                        1 
! REF PLANE 1:      	                     0 mm,                      0 mm
! REF PLANE 2:      	                     0 mm,                      0 mm
! CAL TYPE:         	              Full 2 Port,               Full 2 Port
! CAL METHOD:       	                     SOLT,                      SOLT
! CAL LINE TYPE:    	                     Coax,                      Coax
! DUT PORT 1:       	                K-Conn(M),                 K-Conn(M)
! DUT PORT 2:       	                K-Conn(M),                 K-Conn(M)
! CAL STATUS:       	        OK: Accuracy High,                        --
# GHZ S DB R 50.0
! FREQ.GHZ       S11DB        S11A       S21DB        S21A       S12DB        S12A       S22DB        S22A
  0.020000000  -65.566155  -95.657539    0.009054   -0.141327    0.000990   -0.162033  -71.321515 -174.840302
  0.020200401  -70.148388 -102.630814    0.004547   -0.156476    0.001079   -0.165676  -70.548584 -149.806931
  0.020400802  -68.980638 -137.292999    0.002293   -0.163193    0.000471   -0.168949  -72.127374  174.195908
  0.020601202  -73.448872 -133.933716    0.000995   -0.173343    0.000735   -0.175654  -72.944690 -171.487137
  0.020801603  -70.670168 -128.315933    0.001431   -0.177175    0.000214   -0.176372  -70.691583 -152.447433
  0.021002004  -72.101213 -123.119705    0.000474   -0.175715    0.000910   -0.177593  -70.498498 -175.414154
  0.021202405  -69.775012 -151.846054    0.000999   -0.182449    0.000734   -0.173301  -71.561074 -158.913254
  0.021402806  -77.535090 -169.381088    0.000825   -0.182743    0.000740   -0.185917  -71.279117 -162.188736
  0.021603206  -75.425358 -131.198914   -0.000269   -0.181052    0.000216   -0.180386  -72.410645 -168.552124
  0.021803607  -73.468121 -142.399902    0.000392   -0.183140    0.000827   -0.186581  -72.339458 -165.648651
  0.022004008  -73.567199 -166.560394    0.000481   -0.190763    0.001435   -0.185071  -72.225786 -176.665970
  0.022204409  -73.351330 -122.717628   -0.000484   -0.186896    0.000222   -0.189820  -71.100254 -158.231125
  0.022404810  -84.950940 -149.364502   -0.000560   -0.190338    0.000567   -0.187615  -69.318013 -156.848801
  0.022605210  -72.245882 -128.851608   -0.000318   -0.189394    0.000917   -0.193292  -70.860565 -167.338898
  0.022805611  -77.069458 -174.296524   -0.000367   -0.193814    0.000741   -0.188476  -73.757711 -169.548111
  0.023006012  -73.930018 -166.872604    0.000918   -0.193356    0.001181   -0.197496  -71.041494 -161.302002
  0.023206413  -72.033726 -145.304840   -0.000530   -0.198640    0.000398   -0.194809  -69.858154 -156.983627
  0.023406814  -74.371313 -174.266388    0.001706   -0.205357    0.001179   -0.194097  -71.326504 -163.936234
  0.023607214  -73.100680 -153.014984    0.000137   -0.194527    0.000573   -0.198679  -69.854118 -157.827408
  0.023807615  -71.512082 -147.894913   -0.000319   -0.202344    0.001269   -0.201902  -69.500752 -156.787445
  0.024008016  -75.427231 -157.894943   -0.000276   -0.202291    0.000748   -0.200423  -69.598271 -167.735291
  0.024208417  -76.035640 -167.543869   -0.001073   -0.206896    0.000056   -0.205293  -68.249627 -154.248657
  0.024408818  -71.178637 -141.520676   -0.000830   -0.205707    0.000925   -0.206271  -69.490047 -166.754303
  0.024609218  -71.847880 -160.669785    0.000661   -0.200896    0.002140   -0.205076  -70.552005 -163.087158
  0.024809619  -73.731506 -147.878845    0.000143   -0.205370    0.001183   -0.202709  -67.816261 -159.907410
  0.025010020  -69.744922 -146.562958    0.000060   -0.213808    0.000842   -0.213560  -68.291106 -161.438599
  0.025210421  -74.386571 -132.708740   -0.000512   -0.215052    0.001535   -0.212110  -68.993538 -168.290497
  0.025410822  -69.651538 -145.923477    0.000148   -0.214783    0.001800   -0.218888  -68.556769 -158.043350
  0.025611222  -71.447051 -150.325867    0.000493   -0.212260    0.001191   -0.215708  -68.378712 -169.432266
  0.025811623  -71.443255 -145.194656    0.000584   -0.219751    0.000845   -0.219817  -68.133403 -145.926743
  0.026012024  -70.919934 -153.301804    0.000416   -0.227744    0.001453   -0.219758  -67.941075 -163.185654
  0.026212425  -70.409493 -148.490585    0.000586   -0.221958    0.001456   -0.223530  -66.372188 -161.776917
  0.026412826  -74.661388 -137.867035    0.000154   -0.225496    0.001454   -0.221515  -68.502578 -158.553741
  0.026613226  -70.899351 -146.506500    0.000242   -0.227244    0.001369   -0.223712  -68.592940 -161.730042
  0.026813627  -70.276672 -136.669800    0.000330   -0.229649    0.002064   -0.225785  -69.937169 -160.966339
  0.027014028  -71.498172 -175.986938   -0.000235   -0.228854    0.001980   -0.228570  -68.867043 -165.789642
  0.027214429  -71.977228 -136.588608    0.000853   -0.233394    0.002066   -0.228529  -69.637257 -166.172058
  0.027414830  -70.937598 -140.596130    0.000070   -0.231609    0.000850   -0.228019  -68.186109 -158.126831
  0.027615230  -75.009589 -124.308159   -0.000510   -0.233065    0.001289   -0.236028  -69.791525 -168.709518
  0.027815631  -71.476658 -144.298706   -0.000016   -0.232876    0.001290   -0.237020  -68.358295 -156.052063
  0.028016032  -71.021760 -147.478653    0.000042   -0.242638    0.001376   -0.236396  -68.331257 -160.576797
  0.028216433  -69.372232 -151.791550   -0.000364   -0.245026    0.001727   -0.241265  -66.781954 -161.242310
  0.028416834  -72.984368 -144.349350   -0.000035   -0.243592    0.001727   -0.241171  -66.664690 -164.781219
  0.028617234  -71.043765 -157.827988    0.000338   -0.240496    0.000777   -0.248583  -69.617914 -161.425018
  0.028817635  -71.905486 -144.559525    0.000079   -0.244945    0.001988   -0.242657  -68.399934 -164.306137
  0.029018036  -72.635979 -157.373840    0.000339   -0.242169    0.001731   -0.247277  -67.810909 -156.065445
  0.029218437  -72.809016 -125.131699    0.000255   -0.247111    0.002254   -0.249945  -68.728812 -159.277771
  0.029418838  -70.952155 -155.052612   -0.000239   -0.249855    0.001559   -0.249828  -67.959857 -164.584778
  0.029619238  -73.496774 -139.201447    0.000867   -0.253686    0.001558   -0.248657  -69.514526 -163.713806
  0.029819639  -71.366453 -147.277634    0.000172   -0.254337    0.001820   -0.251250  -69.190905 -168.579773
  0.030020040  -71.376859 -142.696274    0.000087   -0.257029    0.001131   -0.258733  -67.455295 -157.917236
  0.030220441  -72.526251 -124.823578    0.000524   -0.261008    0.001132   -0.259762  -66.242131 -154.986237
  0.030420842  -71.388588 -135.126572    0.000520   -0.255627    0.001390   -0.257561  -68.304920 -161.995941
  0.030621242  -72.476125 -145.019638    0.000176   -0.259601    0.001825   -0.258206  -67.413590 -168.726028
  0.030821643  -68.225450 -142.383865    0.000091   -0.263238    0.001830   -0.265364  -67.316595 -166.382965
  0.031022044  -70.913694 -143.692291    0.000787   -0.264871    0.001915   -0.262075  -65.642491 -162.949524
  0.031222445  -69.767961 -153.781998    0.000177   -0.261509    0.001658   -0.266861  -66.324218 -156.981750
  0.031422846  -71.852266 -158.164505    0.000446   -0.273714    0.001220   -0.261788  -68.918830 -150.486923
  0.031623246  -73.414409 -150.040268    0.000360   -0.273814    0.001222   -0.264410  -66.003512 -144.740311
  0.031823647  -71.756387 -114.432228    0.001839   -0.276663    0.002100   -0.278495  -67.465892 -156.927383
  0.032024048  -70.180469 -126.056290    0.001056   -0.275990    0.001835   -0.271038  -66.307340 -171.040619
  0.032224449  -72.597211 -150.644318    0.001667   -0.280105    0.001404   -0.277347  -66.931574 -146.349243
  0.032424850  -70.200338 -122.708435    0.000886   -0.281003    0.001835   -0.271098  -66.423684 -163.963043
  0.032625251  -67.782160 -137.958069    0.000622   -0.277828    0.001671   -0.286135  -66.373851 -164.690887
  0.032825651  -71.754147 -112.475967    0.000627   -0.283706    0.002102   -0.281657  -67.755085 -169.574478
  0.033026052  -69.800300 -135.197571    0.000625   -0.281828    0.001584   -0.285809  -65.647119 -160.613800
  0.033226453  -69.368736 -145.751175    0.000372   -0.289596    0.001930   -0.282813  -65.586163 -162.986954
  0.033426854  -72.043607 -133.958435    0.001061   -0.282566    0.001413   -0.289632  -66.601251 -163.490906
  0.033627255  -67.570852 -132.764832   -0.000265   -0.286593    0.001851   -0.293864  -67.521332 -155.067978
  0.033827655  -69.251534 -133.164078    0.000109   -0.287554    0.001935   -0.289884  -67.721594 -171.082108
  0.034028056  -69.828507 -132.155334    0.001158   -0.295584    0.002106   -0.286847  -65.177976 -162.379318
  0.034228457  -70.733973 -117.609436    0.001326   -0.289292    0.001680   -0.297758  -65.765216 -165.154770
  0.034428858  -70.971418 -139.906372    0.000809   -0.293940    0.002372   -0.292485  -64.363218 -162.135269
  0.034629259  -71.899142 -150.244217    0.000466   -0.299398    0.001849   -0.291171  -65.887472 -151.578339
  0.034829659  -68.574323 -123.912338    0.001856   -0.300089    0.002204   -0.301854  -65.173349 -156.879639
  0.035030060  -73.593665 -137.474258    0.000990   -0.302379    0.001600   -0.305659  -65.724627 -161.861725
  0.035230461  -68.808760 -129.429550    0.001338   -0.304648    0.002027   -0.297770  -65.552778 -167.953308
  0.035430862  -68.425926 -139.094925    0.000992   -0.305717    0.001772   -0.304218  -64.460302 -175.964279
  0.035631263  -68.820973 -152.924606    0.000299   -0.308497    0.002645   -0.308095  -65.947453 -177.885101
  0.035831663  -69.204227 -133.403030    0.001166   -0.305455    0.002205   -0.303412  -65.150424 -164.115356
  0.036032064  -67.128884 -133.399765    0.000297   -0.305600    0.002299   -0.310619  -65.384402 -167.286087
  0.036232465  -70.575049 -139.969864    0.000737   -0.313129    0.001428   -0.308396  -64.625133 -168.577011
  0.036432866  -68.005434 -129.905823    0.001347   -0.315224    0.002477   -0.316418  -65.042914 -160.310486
  0.036633267  -67.868759 -129.060913    0.000916   -0.319216    0.002392   -0.317290  -64.832945 -162.014877
  0.036833667  -68.623486 -128.313416    0.000485   -0.321161    0.001700   -0.321629  -65.343694 -160.082367
  0.037034068  -70.009648 -143.230484    0.001094   -0.323571    0.000915   -0.318256  -65.311028 -171.615463
  0.037234469  -67.702890 -127.423660    0.000399   -0.323123    0.002220   -0.319864  -66.199218 -156.195877
  0.037434870  -68.837165 -122.864952    0.001013   -0.330307    0.001878   -0.327087  -64.488000 -165.984741
  0.037635271  -69.654512 -124.083267    0.001266   -0.321618    0.001176   -0.317762  -64.750322 -169.252731
  0.037835671  -69.263672 -132.866364    0.001183   -0.326145    0.001876   -0.324180  -64.154262 -162.664658
  0.038036072  -70.830368 -136.923904    0.001184   -0.327234    0.002574   -0.326468  -64.800710 -163.062103
  0.038236473  -67.411697 -139.913208    0.001097   -0.327507    0.002226   -0.327238  -64.826905 -164.477402
  0.038436874  -68.540245 -122.220085    0.000929   -0.333249    0.001537   -0.335294  -65.279715 -159.752899
  0.038637275  -68.373042 -124.716110    0.001622   -0.332112    0.001883   -0.331985  -65.419804 -162.991425
  0.038837675  -68.354696 -136.111572    0.000933   -0.338261    0.001360   -0.331047  -64.348003 -153.154861
  0.039038076  -68.982659 -120.568054    0.001282   -0.339658    0.002052   -0.327622  -65.939635 -165.862106
  0.039238477  -68.834170 -124.347076    0.001107   -0.337728    0.001800   -0.337282  -64.258694 -166.599060
  0.039438878  -68.467579 -125.346786    0.000672   -0.338283    0.002417   -0.346663  -65.016493 -168.648529
  0.039639279  -67.882960 -114.882576    0.000590   -0.343835    0.002416   -0.345722  -66.617752 -159.188553
  0.039839679  -67.626297 -122.274605    0.001114   -0.346430    0.001459   -0.344104  -64.058897 -160.940475
  0.040040080  -66.664987 -131.398331    0.001294   -0.352464    0.001116   -0.348632  -64.756412 -167.206726
  0.040240481  -67.809886 -116.422867    0.001808   -0.344916    0.002853   -0.348809  -65.103703 -170.640533
  0.040440882  -68.992765 -132.741577    0.000766   -0.346684    0.001549   -0.347933  -64.369417 -158.062012
  0.040641283  -65.245450 -117.314835    0.000685   -0.352528    0.002594   -0.349711  -63.608766 -162.847458
  0.040841683  -66.866656 -127.486557    0.001468   -0.354068    0.001551   -0.349431  -65.159321 -164.921371
  0.041042084  -66.784760 -126.471527    0.000689   -0.356863    0.002251   -0.355058  -64.366071 -169.348007
  0.041242485  -66.868064 -123.999641    0.001815   -0.353464    0.002343   -0.360054  -64.782557 -172.927933
  0.041442886  -69.933413 -135.046402    0.001911   -0.363289    0.001906   -0.357054  -64.199753 -164.792114
  0.041643287  -67.257179 -131.022568    0.001734   -0.359226    0.003819   -0.360662  -64.199380 -166.249847
  0.041843687  -67.350971 -137.786697    0.001904   -0.354863    0.002607   -0.363392  -63.624047 -161.274399
  0.042044088  -68.515966 -113.934959    0.001910   -0.361797    0.002515   -0.357886  -65.051920 -165.509094
  0.042244489  -67.512389 -111.690971    0.000262   -0.363731    0.003047   -0.370067  -63.968062 -165.396255
  0.042444890  -67.958654 -115.514702    0.001657   -0.368890    0.001752   -0.377117  -64.524558 -169.939911
  0.042645291  -71.264335 -124.569199    0.002266   -0.371422    0.002614   -0.371174  -63.086169 -161.958801
  0.042845691  -67.416922 -119.313705    0.001745   -0.369886    0.002439   -0.369579  -64.273895 -165.403397
  0.043046092  -68.800301 -135.966751    0.001393   -0.365778    0.003225   -0.374760  -63.482933 -160.524643
  0.043246493  -68.368385 -114.360992    0.001138   -0.371798    0.002185   -0.376736  -64.260687 -166.512802
  0.043446894  -67.620931 -130.474747    0.000968   -0.375961    0.001577   -0.376670  -65.272563 -170.929321
  0.043647295  -67.702955 -127.537392    0.001398   -0.370946    0.001498   -0.385110  -66.511484 -159.521118
  0.043847695  -68.068755 -136.271637    0.002183   -0.375749    0.002543   -0.386067  -63.416901 -164.065659
  0.044048096  -70.160367 -139.475113    0.000711   -0.380102    0.002271   -0.376224  -64.364903 -168.390915
  0.044248497  -65.900944 -124.246330    0.001328   -0.387818    0.003234   -0.383623  -65.035867 -157.042007
  0.044448898  -67.642549 -122.680786    0.000806   -0.386522    0.002540   -0.383377  -63.228615 -159.219376
  0.044649299  -67.853764 -117.759964    0.001067   -0.387769    0.001942   -0.393553  -63.472772 -151.473297
  0.044849699  -66.141960 -131.939163    0.001240   -0.387005    0.002895   -0.391246  -64.502833 -165.976959
  0.045050100  -66.291768 -125.871902    0.000899   -0.392438    0.002641   -0.396916  -64.333625 -165.582169
  0.045250501  -67.076218 -133.403503    0.001501   -0.387593    0.003413   -0.389198  -63.930226 -168.509766
  0.045450902  -65.984044 -128.350250    0.001950   -0.400330    0.002206   -0.398008  -64.528294 -169.066162
  0.045651303  -69.283001 -128.005646    0.001165   -0.398221    0.002208   -0.399590  -63.390651 -172.183701
  0.045851703  -67.803591 -113.331741    0.001862   -0.399719    0.002647   -0.403366  -64.584003 -168.884293
  0.046052104  -66.540611 -119.779945    0.001596   -0.395446    0.002993   -0.401921  -63.657381 -168.576508
  0.046252505  -68.774020 -111.085419    0.001946   -0.397546    0.001959   -0.409623  -63.857202 -161.753601
  0.046452906  -68.279463 -133.973694    0.002131   -0.408133    0.001775   -0.399909  -64.271734 -166.814148
  0.046653307  -66.833624 -116.658180    0.001088   -0.407349    0.002469   -0.399195  -64.419345 -168.107300
  0.046853707  -67.824775 -129.966095    0.001520   -0.405837    0.002923   -0.417255  -64.620751 -172.306702
  0.047054108  -66.956127 -136.961105    0.001520   -0.405466    0.002049   -0.411978  -65.533320 -164.699631
  0.047254509  -66.105715 -124.402809    0.002301   -0.405686    0.002743   -0.412025  -64.163482 -165.622055
  0.047454910  -66.744100 -124.272079    0.001784   -0.408805    0.002663   -0.417560  -64.361945 -173.936996
  0.047655311  -68.372765 -110.470451    0.001097   -0.416219    0.001181   -0.413305  -63.322172 -166.869156
  0.047855711  -67.104320 -136.494781    0.001272   -0.417383    0.003185   -0.419316  -62.586216 -172.011246
  0.048056112  -67.185992 -121.969788    0.001271   -0.416108    0.003451   -0.424378  -62.286116 -172.022430
  0.048256513  -66.995112 -125.564354    0.000845   -0.423584    0.003273   -0.421119  -62.506140 -164.598358
  0.048456914  -68.659513 -119.812790    0.001712   -0.422395    0.002838   -0.418130  -64.946545 -167.095306
  0.048657315  -66.421983 -127.046791    0.001280   -0.423763    0.003447   -0.420712  -61.625266 -168.246185
  0.048857715  -69.338406 -137.463989    0.001020   -0.424054    0.001719   -0.427790  -63.222393 -168.276108
  0.049058116  -67.696143 -137.290375    0.001976   -0.424954    0.002935   -0.428766  -63.718772 -165.838623
  0.049258517  -66.222654 -129.006195    0.001553   -0.435047    0.002500   -0.428035  -63.042794 -171.481064
  0.049458918  -67.092330 -114.300407    0.002066   -0.428455    0.002854   -0.433021  -64.608961 -160.353149
  0.049659319  -67.661388 -122.240685    0.001550   -0.432838    0.002506   -0.433000  -64.151281 -168.874847
  0.049859719  -67.246038 -118.497704    0.000681   -0.433022    0.003376   -0.434744  -63.824870 -168.936478
  0.050060120  -67.135035 -121.305511    0.001291   -0.433650    0.003374   -0.432699  -63.031004 -170.870422
  0.050260521  -66.755835 -113.905525    0.001205   -0.434723    0.003035   -0.440346  -63.901763 -166.660843
  0.050460922  -67.598893 -133.198273    0.002168   -0.441788    0.002167   -0.440943  -64.083127 -168.814331
  0.050661323  -64.916131 -120.544861    0.002781   -0.445016    0.002517   -0.441842  -63.405257 -163.730408
  0.050861723  -65.430700 -114.180984    0.001388   -0.442675    0.002347   -0.446052  -64.517305 -168.176575
  0.051062124  -66.638851 -126.054787    0.001474   -0.442689    0.003483   -0.450937  -63.949037 -173.332672
  0.051262525  -68.352793 -124.532158    0.001915   -0.447354    0.002445   -0.454837  -64.609941 -177.162643
  0.051462926  -66.938080 -132.808411    0.000956   -0.443969    0.003478   -0.447826  -63.574396 -174.121216
  0.051663327  -66.701181 -129.829300    0.001051   -0.451350    0.003492   -0.458638  -62.753299 -162.622162
  0.051863727  -66.845739 -121.018166    0.001747   -0.452225    0.001753   -0.457309  -64.002213 -169.028091
  0.052064128  -67.662912 -122.340874    0.000704   -0.452351    0.002267   -0.451730  -64.028148 -176.056671
  0.052264529  -66.330767 -127.169571    0.001924   -0.454343    0.003140   -0.455739  -63.315891 -172.495941
  0.052464930  -66.895537 -132.972549    0.001403   -0.454574    0.003404   -0.458079  -64.064455 -169.763733
  0.052665331  -66.529122 -133.867844    0.000967   -0.454156    0.003582   -0.461522  -62.942503 -170.151657
  0.052865731  -68.520623 -129.714203    0.001319   -0.457639    0.002798   -0.459190  -64.305532 -171.704269
