! Anritsu VNA Master:                     Model: MS2036C/10/77
! SN:                                  1601066
! /bd0/18may09/b256.ew.m1.s2p
! Existing Calibration Information:
! TYPE:                         Current Settings,       Active Cal Settings
! TIME:             	   05/09/2018 07:20:46 PM,    05/09/2018 07:16:32 PM
! INTERNAL TEMP:    	                   49.5 C,                    48.5 C
! # POINTS:         	                      494,                       494
! START FREQ:       	               20.000 MHz,                20.000 MHz
! STOP FREQ:        	          118.797 594 MHz,           118.797 594 MHz
! SOURCE POWER:     	                     High,                      High
! IFBW:             	                    50 Hz,                     50 Hz
! AVG FACTOR:       	                       1 ,                        1 
! REF PLANE 1:      	                     0 mm,                      0 mm
! REF PLANE 2:      	                     0 mm,                      0 mm
! CAL TYPE:         	                 Full S22,                  Full S22
! CAL METHOD:       	                     SOLT,                      SOLT
! CAL LINE TYPE:    	                     Coax,                      Coax
! DUT PORT 1:       	                K-Conn(M),                 K-Conn(M)
! DUT PORT 2:       	                K-Conn(M),                 K-Conn(M)
! CAL STATUS:       	        OK: Accuracy High,                        --
# GHZ S DB R 50.0
! FREQ.GHZ       S11DB        S11A       S21DB        S21A       S12DB        S12A       S22DB        S22A
  0.020000000    0.000000    0.000000    0.000000    0.000000  -89.156594   34.257587   -0.628829 -127.124313
  0.020200401    0.000000    0.000000    0.000000    0.000000  -90.023747   36.228149   -0.635255 -128.599701
  0.020400802    0.000000    0.000000    0.000000    0.000000  -90.013084   32.734756   -0.636654 -130.081238
  0.020601202    0.000000    0.000000    0.000000    0.000000  -90.643346   36.855732   -0.640675 -131.581360
  0.020801603    0.000000    0.000000    0.000000    0.000000  -91.046765   37.034107   -0.644904 -133.121887
  0.021002004    0.000000    0.000000    0.000000    0.000000  -91.333748   37.474228   -0.647266 -134.665726
  0.021202405    0.000000    0.000000    0.000000    0.000000  -91.397287   36.651939   -0.652963 -136.206161
  0.021402806    0.000000    0.000000    0.000000    0.000000  -91.465517   40.971966   -0.655853 -137.746429
  0.021603206    0.000000    0.000000    0.000000    0.000000  -91.607089   38.322090   -0.658944 -139.288727
  0.021803607    0.000000    0.000000    0.000000    0.000000  -91.765489   41.667816   -0.663917 -140.814880
  0.022004008    0.000000    0.000000    0.000000    0.000000  -91.902276   36.023842   -0.670783 -142.370316
  0.022204409    0.000000    0.000000    0.000000    0.000000  -92.177444   39.435863   -0.680877 -143.940155
  0.022404810    0.000000    0.000000    0.000000    0.000000  -91.475602   40.904102   -0.685577 -145.533752
  0.022605210    0.000000    0.000000    0.000000    0.000000  -91.837465   44.103355   -0.686596 -147.155457
  0.022805611    0.000000    0.000000    0.000000    0.000000  -91.869859   46.314781   -0.691835 -148.746429
  0.023006012    0.000000    0.000000    0.000000    0.000000  -91.508555   44.327366   -0.703571 -150.327835
  0.023206413    0.000000    0.000000    0.000000    0.000000  -91.370393   43.130966   -0.707364 -151.924515
  0.023406814    0.000000    0.000000    0.000000    0.000000  -91.313090   42.454842   -0.711795 -153.530350
  0.023607214    0.000000    0.000000    0.000000    0.000000  -91.196359   43.248524   -0.720082 -155.133667
  0.023807615    0.000000    0.000000    0.000000    0.000000  -91.705889   40.549778   -0.730493 -156.764862
  0.024008016    0.000000    0.000000    0.000000    0.000000  -91.205497   40.391773   -0.740220 -158.394867
  0.024208417    0.000000    0.000000    0.000000    0.000000  -91.190561   36.031471   -0.749373 -160.065353
  0.024408818    0.000000    0.000000    0.000000    0.000000  -91.082218   37.332077   -0.755592 -161.717010
  0.024609218    0.000000    0.000000    0.000000    0.000000  -91.515921   32.140598   -0.763924 -163.380035
  0.024809619    0.000000    0.000000    0.000000    0.000000  -92.025381   30.070854   -0.774604 -165.052780
  0.025010020    0.000000    0.000000    0.000000    0.000000  -92.508246   24.488956   -0.785143 -166.722885
  0.025210421    0.000000    0.000000    0.000000    0.000000  -92.022959   30.141710   -0.796934 -168.401031
  0.025410822    0.000000    0.000000    0.000000    0.000000  -91.820707   30.322313   -0.809112 -170.097687
  0.025611222    0.000000    0.000000    0.000000    0.000000  -92.317177   29.818007   -0.823080 -171.807388
  0.025811623    0.000000    0.000000    0.000000    0.000000  -92.612269   27.369381   -0.835565 -173.524231
  0.026012024    0.000000    0.000000    0.000000    0.000000  -92.967395   23.534060   -0.848759 -175.259338
  0.026212425    0.000000    0.000000    0.000000    0.000000  -93.332189   31.192774   -0.861822 -176.991989
  0.026412826    0.000000    0.000000    0.000000    0.000000  -93.812342   20.715075   -0.878942 -178.754410
  0.026613226    0.000000    0.000000    0.000000    0.000000  -93.381890   27.020853   -0.894271  179.481125
  0.026813627    0.000000    0.000000    0.000000    0.000000  -94.120847   27.825270   -0.911553  177.708923
  0.027014028    0.000000    0.000000    0.000000    0.000000  -94.412054   25.721912   -0.930604  175.933258
  0.027214429    0.000000    0.000000    0.000000    0.000000  -94.123714   29.119717   -0.948351  174.149902
  0.027414830    0.000000    0.000000    0.000000    0.000000  -94.525939   31.130529   -0.966682  172.366196
  0.027615230    0.000000    0.000000    0.000000    0.000000  -94.356202   29.931080   -0.986579  170.543930
  0.027815631    0.000000    0.000000    0.000000    0.000000  -94.326529   31.006531   -1.007394  168.732849
  0.028016032    0.000000    0.000000    0.000000    0.000000  -94.615796   34.973709   -1.028739  166.904358
  0.028216433    0.000000    0.000000    0.000000    0.000000  -94.318956   32.307327   -1.051564  165.055115
  0.028416834    0.000000    0.000000    0.000000    0.000000  -94.603179   33.958988   -1.074683  163.213181
  0.028617234    0.000000    0.000000    0.000000    0.000000  -94.410455   35.851494   -1.098569  161.358490
  0.028817635    0.000000    0.000000    0.000000    0.000000  -94.355921   35.620766   -1.121664  159.505157
  0.029018036    0.000000    0.000000    0.000000    0.000000  -94.314322   35.360947   -1.147052  157.662766
  0.029218437    0.000000    0.000000    0.000000    0.000000  -93.902561   32.053391   -1.172807  155.789536
  0.029418838    0.000000    0.000000    0.000000    0.000000  -94.314854   35.580254   -1.200702  153.904022
  0.029619238    0.000000    0.000000    0.000000    0.000000  -94.268510   33.413158   -1.227211  152.015060
  0.029819639    0.000000    0.000000    0.000000    0.000000  -93.808056   33.341293   -1.254516  150.120926
  0.030020040    0.000000    0.000000    0.000000    0.000000  -94.194293   31.002939   -1.282178  148.218872
  0.030220441    0.000000    0.000000    0.000000    0.000000  -94.063074   30.369661   -1.308496  146.314789
  0.030420842    0.000000    0.000000    0.000000    0.000000  -94.427789   28.790895   -1.337535  144.421951
  0.030621242    0.000000    0.000000    0.000000    0.000000  -94.292288   26.368614   -1.366840  142.511230
  0.030821643    0.000000    0.000000    0.000000    0.000000  -94.321544   23.973558   -1.399134  140.596436
  0.031022044    0.000000    0.000000    0.000000    0.000000  -94.299738   25.934843   -1.431394  138.660034
  0.031222445    0.000000    0.000000    0.000000    0.000000  -94.353763   17.206152   -1.459980  136.718155
  0.031422846    0.000000    0.000000    0.000000    0.000000  -94.823682   17.019464   -1.494424  134.747711
  0.031623246    0.000000    0.000000    0.000000    0.000000  -94.417018   16.516661   -1.527655  132.774185
  0.031823647    0.000000    0.000000    0.000000    0.000000  -95.368875   25.082329   -1.562374  130.794373
  0.032024048    0.000000    0.000000    0.000000    0.000000  -95.018171   19.624096   -1.600255  128.814835
  0.032224449    0.000000    0.000000    0.000000    0.000000  -95.667831   18.618393   -1.637001  126.816994
  0.032424850    0.000000    0.000000    0.000000    0.000000  -95.218658   18.320204   -1.675326  124.836227
  0.032625250    0.000000    0.000000    0.000000    0.000000  -95.343159   25.024303   -1.714141  122.827484
  0.032825651    0.000000    0.000000    0.000000    0.000000  -96.041979   15.157566   -1.753383  120.781647
  0.033026052    0.000000    0.000000    0.000000    0.000000  -95.821188   16.901108   -1.793501  118.750969
  0.033226453    0.000000    0.000000    0.000000    0.000000  -96.771772   28.844391   -1.833386  116.707199
  0.033426854    0.000000    0.000000    0.000000    0.000000  -96.197118   23.322157   -1.876158  114.673546
  0.033627254    0.000000    0.000000    0.000000    0.000000  -95.762754   28.309902   -1.919481  112.638206
  0.033827655    0.000000    0.000000    0.000000    0.000000  -97.352758   28.995996   -1.961028  110.588600
  0.034028056    0.000000    0.000000    0.000000    0.000000  -95.886211   24.443930   -2.008520  108.567856
  0.034228457    0.000000    0.000000    0.000000    0.000000  -96.753255   28.647701   -2.054151  106.485214
  0.034428858    0.000000    0.000000    0.000000    0.000000  -95.535955   25.762575   -2.099198  104.411209
  0.034629258    0.000000    0.000000    0.000000    0.000000  -96.047670   23.468740   -2.147511  102.335403
  0.034829659    0.000000    0.000000    0.000000    0.000000  -95.349648   27.135880   -2.192297  100.258492
  0.035030060    0.000000    0.000000    0.000000    0.000000  -95.413845   25.268126   -2.241518   98.158394
  0.035230461    0.000000    0.000000    0.000000    0.000000  -96.146168   26.191526   -2.292217   96.080742
  0.035430862    0.000000    0.000000    0.000000    0.000000  -96.300860   20.184034   -2.342070   93.999519
  0.035631262    0.000000    0.000000    0.000000    0.000000  -95.224375   29.689886   -2.389784   91.908470
  0.035831663    0.000000    0.000000    0.000000    0.000000  -95.521010   25.818642   -2.443551   89.824417
  0.036032064    0.000000    0.000000    0.000000    0.000000  -95.515645   27.222340   -2.495879   87.729439
  0.036232465    0.000000    0.000000    0.000000    0.000000  -96.671751   22.134462   -2.544320   85.649597
  0.036432866    0.000000    0.000000    0.000000    0.000000  -95.906019   18.401949   -2.597388   83.530441
  0.036633266    0.000000    0.000000    0.000000    0.000000  -95.808761   20.854843   -2.650043   81.438377
  0.036833667    0.000000    0.000000    0.000000    0.000000  -96.599602   25.522717   -2.704408   79.330643
  0.037034068    0.000000    0.000000    0.000000    0.000000  -97.310072   25.128901   -2.756932   77.242805
  0.037234469    0.000000    0.000000    0.000000    0.000000  -96.304000   23.986570   -2.810353   75.137718
  0.037434870    0.000000    0.000000    0.000000    0.000000  -97.461569   22.622221   -2.863512   73.040276
  0.037635270    0.000000    0.000000    0.000000    0.000000  -99.152087   25.238655   -2.920113   70.942505
  0.037835671    0.000000    0.000000    0.000000    0.000000  -97.600319   26.436605   -2.976580   68.813225
  0.038036072    0.000000    0.000000    0.000000    0.000000  -97.606398   22.113098   -3.030811   66.685867
  0.038236473    0.000000    0.000000    0.000000    0.000000  -98.170743   20.607967   -3.088846   64.556328
  0.038436874    0.000000    0.000000    0.000000    0.000000  -97.823458   25.204109   -3.146261   62.437675
  0.038637274    0.000000    0.000000    0.000000    0.000000  -98.395921   13.940817   -3.205283   60.311752
  0.038837675    0.000000    0.000000    0.000000    0.000000  -99.114096   27.878551   -3.259600   58.208176
  0.039038076    0.000000    0.000000    0.000000    0.000000  -96.600880   16.115728   -3.312159   56.109177
  0.039238477    0.000000    0.000000    0.000000    0.000000  -97.336713   33.090366   -3.368782   54.020401
  0.039438878    0.000000    0.000000    0.000000    0.000000  -97.946955   24.925306   -3.425003   51.915695
  0.039639278    0.000000    0.000000    0.000000    0.000000  -96.851765   23.954744   -3.480070   49.831535
  0.039839679    0.000000    0.000000    0.000000    0.000000  -98.768433   29.905140   -3.536421   47.722069
  0.040040080    0.000000    0.000000    0.000000    0.000000  -97.478719   25.348186   -3.594278   45.618023
  0.040240481    0.000000    0.000000    0.000000    0.000000  -98.264800   29.122652   -3.648179   43.514462
  0.040440882    0.000000    0.000000    0.000000    0.000000  -98.287424   36.975651   -3.702870   41.417988
  0.040641283    0.000000    0.000000    0.000000    0.000000  -97.867986   26.409451   -3.758175   39.356289
  0.040841683    0.000000    0.000000    0.000000    0.000000  -96.708695   25.144096   -3.813012   37.294270
  0.041042084    0.000000    0.000000    0.000000    0.000000  -98.117785   25.702093   -3.867547   35.220802
  0.041242485    0.000000    0.000000    0.000000    0.000000  -98.160308   31.265959   -3.925930   33.144402
  0.041442886    0.000000    0.000000    0.000000    0.000000  -98.605411   21.924011   -3.982113   31.076258
  0.041643287    0.000000    0.000000    0.000000    0.000000  -98.648798   32.050449   -4.034882   28.995291
  0.041843687    0.000000    0.000000    0.000000    0.000000  -98.070130   30.000376   -4.089323   26.933710
  0.042044088    0.000000    0.000000    0.000000    0.000000  -98.180903   28.057726   -4.141865   24.884129
  0.042244489    0.000000    0.000000    0.000000    0.000000  -99.402012   29.690483   -4.194574   22.838640
  0.042444890    0.000000    0.000000    0.000000    0.000000  -98.173278   29.109255   -4.248934   20.808586
  0.042645291    0.000000    0.000000    0.000000    0.000000  -97.873985   29.071337   -4.302260   18.772715
  0.042845691    0.000000    0.000000    0.000000    0.000000  -99.074443   30.926510   -4.354358   16.758461
  0.043046092    0.000000    0.000000    0.000000    0.000000  -98.734142   26.649748   -4.405775   14.747946
  0.043246493    0.000000    0.000000    0.000000    0.000000  -99.046167   24.012770   -4.456891   12.732710
  0.043446894    0.000000    0.000000    0.000000    0.000000  -98.576570   28.172003   -4.506360   10.726879
  0.043647295    0.000000    0.000000    0.000000    0.000000  -99.095080   22.487127   -4.553922    8.729646
  0.043847695    0.000000    0.000000    0.000000    0.000000  -98.022233   29.236868   -4.600581    6.731694
  0.044048096    0.000000    0.000000    0.000000    0.000000  -99.491976   26.402790   -4.648187    4.776792
  0.044248497    0.000000    0.000000    0.000000    0.000000  -98.111321   30.694126   -4.693559    2.803161
  0.044448898    0.000000    0.000000    0.000000    0.000000 -100.440095   35.157356   -4.736991    0.847764
  0.044649299    0.000000    0.000000    0.000000    0.000000 -101.058796   34.446495   -4.779711   -1.111812
  0.044849699    0.000000    0.000000    0.000000    0.000000  -99.129469   30.486761   -4.822573   -3.052610
  0.045050100    0.000000    0.000000    0.000000    0.000000  -99.394069   37.913948   -4.863848   -5.014812
  0.045250501    0.000000    0.000000    0.000000    0.000000  -99.690273   31.034580   -4.903919   -6.937764
  0.045450902    0.000000    0.000000    0.000000    0.000000  -98.882700   28.537317   -4.946046   -8.860929
  0.045651303    0.000000    0.000000    0.000000    0.000000 -100.281189   33.170528   -4.991203  -10.757826
  0.045851703    0.000000    0.000000    0.000000    0.000000  -98.761781   29.600622   -5.029473  -12.665123
  0.046052104    0.000000    0.000000    0.000000    0.000000  -99.028043   26.596989   -5.067766  -14.548073
  0.046252505    0.000000    0.000000    0.000000    0.000000  -98.651982   34.492939   -5.104946  -16.401133
  0.046452906    0.000000    0.000000    0.000000    0.000000  -97.445670   35.791046   -5.140800  -18.246593
  0.046653307    0.000000    0.000000    0.000000    0.000000  -98.708483   27.677187   -5.176308  -20.076763
  0.046853707    0.000000    0.000000    0.000000    0.000000  -98.278714   27.020538   -5.208881  -21.882614
  0.047054108    0.000000    0.000000    0.000000    0.000000  -97.608071   25.359577   -5.234536  -23.700315
  0.047254509    0.000000    0.000000    0.000000    0.000000  -99.444541   30.304485   -5.261181  -25.517580
  0.047454910    0.000000    0.000000    0.000000    0.000000  -98.538354   36.211437   -5.282970  -27.341286
  0.047655311    0.000000    0.000000    0.000000    0.000000  -97.091039   23.491316   -5.306688  -29.157822
  0.047855711    0.000000    0.000000    0.000000    0.000000  -98.142367   27.655550   -5.332129  -30.961163
  0.048056112    0.000000    0.000000    0.000000    0.000000  -98.774947   25.641787   -5.359440  -32.788605
  0.048256513    0.000000    0.000000    0.000000    0.000000  -98.994217   34.112000   -5.383495  -34.559502
  0.048456914    0.000000    0.000000    0.000000    0.000000 -100.558966   29.494484   -5.409943  -36.378216
  0.048657315    0.000000    0.000000    0.000000    0.000000  -99.872043   28.039789   -5.432516  -38.162792
  0.048857715    0.000000    0.000000    0.000000    0.000000  -98.814804   25.404827   -5.456327  -39.946182
  0.049058116    0.000000    0.000000    0.000000    0.000000 -100.305788   33.437531   -5.477286  -41.739056
  0.049258517    0.000000    0.000000    0.000000    0.000000  -99.886602   29.450472   -5.501632  -43.494926
  0.049458918    0.000000    0.000000    0.000000    0.000000 -100.345397   30.673006   -5.523667  -45.247631
  0.049659319    0.000000    0.000000    0.000000    0.000000  -99.480769   31.188120   -5.544773  -46.971043
  0.049859719    0.000000    0.000000    0.000000    0.000000  -99.518943   41.150356   -5.573248  -48.683807
  0.050060120    0.000000    0.000000    0.000000    0.000000 -100.771901   35.479511   -5.594864  -50.401665
  0.050260521    0.000000    0.000000    0.000000    0.000000 -101.140657   38.260078   -5.615752  -52.106426
  0.050460922    0.000000    0.000000    0.000000    0.000000  -99.852355   50.489475   -5.632940  -53.807468
  0.050661323    0.000000    0.000000    0.000000    0.000000  -98.798617   30.197048   -5.651298  -55.504509
  0.050861723    0.000000    0.000000    0.000000    0.000000  -99.741456   41.459465   -5.667586  -57.190971
  0.051062124    0.000000    0.000000    0.000000    0.000000 -100.294736   40.877781   -5.686100  -58.858227
  0.051262525    0.000000    0.000000    0.000000    0.000000  -99.219044   31.454039   -5.706404  -60.479179
  0.051462926    0.000000    0.000000    0.000000    0.000000  -98.036024   40.050045   -5.722158  -62.114094
  0.051663327    0.000000    0.000000    0.000000    0.000000  -99.088968   28.598080   -5.739296  -63.733875
  0.051863727    0.000000    0.000000    0.000000    0.000000  -98.188188   34.737118   -5.759735  -65.357346
  0.052064128    0.000000    0.000000    0.000000    0.000000  -99.675045   38.216335   -5.771954  -66.949547
  0.052264529    0.000000    0.000000    0.000000    0.000000  -99.452099   28.349148   -5.781095  -68.558205
  0.052464930    0.000000    0.000000    0.000000    0.000000  -99.169893   24.690311   -5.796273  -70.133659
  0.052665331    0.000000    0.000000    0.000000    0.000000  -99.601813   41.657036   -5.808893  -71.712341
  0.052865731    0.000000    0.000000    0.000000    0.000000  -99.148773   19.156218   -5.824417  -73.260979
