! Anritsu VNA Master:                     Model: MS2036C/10/77
! SN:                                  1601066
! /bd0/18may09/b256.ew.m3.s2p
! Existing Calibration Information:
! TYPE:                         Current Settings,       Active Cal Settings
! TIME:             	   05/09/2018 07:24:10 PM,    05/09/2018 07:16:32 PM
! INTERNAL TEMP:    	                   50.3 C,                    48.5 C
! # POINTS:         	                      494,                       494
! START FREQ:       	               20.000 MHz,                20.000 MHz
! STOP FREQ:        	          118.797 594 MHz,           118.797 594 MHz
! SOURCE POWER:     	                     High,                      High
! IFBW:             	                    50 Hz,                     50 Hz
! AVG FACTOR:       	                       1 ,                        1 
! REF PLANE 1:      	                     0 mm,                      0 mm
! REF PLANE 2:      	                     0 mm,                      0 mm
! CAL TYPE:         	                 Full S22,                  Full S22
! CAL METHOD:       	                     SOLT,                      SOLT
! CAL LINE TYPE:    	                     Coax,                      Coax
! DUT PORT 1:       	                K-Conn(M),                 K-Conn(M)
! DUT PORT 2:       	                K-Conn(M),                 K-Conn(M)
! CAL STATUS:       	        OK: Accuracy High,                        --
# GHZ S DB R 50.0
! FREQ.GHZ       S11DB        S11A       S21DB        S21A       S12DB        S12A       S22DB        S22A
  0.020000000    0.000000    0.000000    0.000000    0.000000  -89.579913   34.841305   -0.638073 -127.117989
  0.020200401    0.000000    0.000000    0.000000    0.000000  -90.030176   36.896805   -0.643651 -128.594971
  0.020400802    0.000000    0.000000    0.000000    0.000000  -90.430946   36.059330   -0.644788 -130.073425
  0.020601202    0.000000    0.000000    0.000000    0.000000  -90.880909   35.432106   -0.649548 -131.573868
  0.020801603    0.000000    0.000000    0.000000    0.000000  -90.804587   34.614624   -0.653911 -133.120758
  0.021002004    0.000000    0.000000    0.000000    0.000000  -91.537248   38.674229   -0.657253 -134.661469
  0.021202405    0.000000    0.000000    0.000000    0.000000  -92.162804   43.011066   -0.662044 -136.213364
  0.021402806    0.000000    0.000000    0.000000    0.000000  -91.593564   36.700287   -0.664785 -137.745270
  0.021603206    0.000000    0.000000    0.000000    0.000000  -92.262778   42.951435   -0.668125 -139.279358
  0.021803607    0.000000    0.000000    0.000000    0.000000  -92.140833   38.325237   -0.673821 -140.832367
  0.022004008    0.000000    0.000000    0.000000    0.000000  -91.561244   40.305458   -0.678905 -142.380386
  0.022204409    0.000000    0.000000    0.000000    0.000000  -91.940939   41.555607   -0.687578 -143.958435
  0.022404810    0.000000    0.000000    0.000000    0.000000  -91.730961   47.076908   -0.693930 -145.549576
  0.022605210    0.000000    0.000000    0.000000    0.000000  -91.535896   42.086185   -0.697807 -147.149658
  0.022805611    0.000000    0.000000    0.000000    0.000000  -91.718120   45.259819   -0.702320 -148.755188
  0.023006012    0.000000    0.000000    0.000000    0.000000  -92.126382   46.396927   -0.710782 -150.346649
  0.023206413    0.000000    0.000000    0.000000    0.000000  -91.131590   39.768074   -0.713604 -151.938004
  0.023406814    0.000000    0.000000    0.000000    0.000000  -90.974592   42.877800   -0.719717 -153.545685
  0.023607214    0.000000    0.000000    0.000000    0.000000  -91.339159   40.597393   -0.727484 -155.139938
  0.023807615    0.000000    0.000000    0.000000    0.000000  -91.148285   39.785294   -0.738954 -156.760498
  0.024008016    0.000000    0.000000    0.000000    0.000000  -90.875087   38.470345   -0.746857 -158.400803
  0.024208417    0.000000    0.000000    0.000000    0.000000  -91.331860   35.219990   -0.757045 -160.051514
  0.024408818    0.000000    0.000000    0.000000    0.000000  -91.139027   32.386654   -0.763621 -161.707870
  0.024609218    0.000000    0.000000    0.000000    0.000000  -91.002819   30.929720   -0.771113 -163.375229
  0.024809619    0.000000    0.000000    0.000000    0.000000  -91.661160   32.467342   -0.781386 -165.039597
  0.025010020    0.000000    0.000000    0.000000    0.000000  -91.622550   30.248610   -0.793529 -166.704330
  0.025210421    0.000000    0.000000    0.000000    0.000000  -91.841844   27.350294   -0.804711 -168.381317
  0.025410822    0.000000    0.000000    0.000000    0.000000  -92.195194   27.765005   -0.816390 -170.075241
  0.025611222    0.000000    0.000000    0.000000    0.000000  -92.057486   26.905457   -0.829821 -171.782440
  0.025811623    0.000000    0.000000    0.000000    0.000000  -92.562103   24.446831   -0.841098 -173.502808
  0.026012024    0.000000    0.000000    0.000000    0.000000  -93.361600   23.842693   -0.854408 -175.235382
  0.026212425    0.000000    0.000000    0.000000    0.000000  -93.325557   23.562271   -0.869107 -176.971634
  0.026412826    0.000000    0.000000    0.000000    0.000000  -93.707212   23.318693   -0.885438 -178.738449
  0.026613226    0.000000    0.000000    0.000000    0.000000  -94.489907   25.509232   -0.901152  179.505173
  0.026813627    0.000000    0.000000    0.000000    0.000000  -94.071805   28.166580   -0.917938  177.728149
  0.027014028    0.000000    0.000000    0.000000    0.000000  -94.359734   21.436365   -0.937713  175.946030
  0.027214429    0.000000    0.000000    0.000000    0.000000  -94.066691   29.015995   -0.954824  174.159576
  0.027414830    0.000000    0.000000    0.000000    0.000000  -94.513426   31.443645   -0.973865  172.369080
  0.027615230    0.000000    0.000000    0.000000    0.000000  -94.026030   32.940750   -0.993629  170.550323
  0.027815631    0.000000    0.000000    0.000000    0.000000  -93.521478   29.537741   -1.014698  168.738464
  0.028016032    0.000000    0.000000    0.000000    0.000000  -94.603016   30.781532   -1.036043  166.888519
  0.028216433    0.000000    0.000000    0.000000    0.000000  -94.125003   34.933407   -1.057913  165.042923
  0.028416834    0.000000    0.000000    0.000000    0.000000  -94.709726   34.372753   -1.081669  163.198181
  0.028617234    0.000000    0.000000    0.000000    0.000000  -93.971237   33.355556   -1.105331  161.334641
  0.028817635    0.000000    0.000000    0.000000    0.000000  -95.608317   31.754112   -1.127837  159.475723
  0.029018036    0.000000    0.000000    0.000000    0.000000  -94.092918   33.996693   -1.153154  157.626343
  0.029218437    0.000000    0.000000    0.000000    0.000000  -94.075586   35.841747   -1.179255  155.751831
  0.029418838    0.000000    0.000000    0.000000    0.000000  -94.256423   32.095608   -1.206873  153.862823
  0.029619238    0.000000    0.000000    0.000000    0.000000  -93.630080   32.187405   -1.233282  151.974106
  0.029819639    0.000000    0.000000    0.000000    0.000000  -93.810806   32.013218   -1.261462  150.082901
  0.030020040    0.000000    0.000000    0.000000    0.000000  -94.459798   28.470329   -1.288046  148.179947
  0.030220441    0.000000    0.000000    0.000000    0.000000  -93.952148   28.607994   -1.315014  146.269592
  0.030420842    0.000000    0.000000    0.000000    0.000000  -93.932302   29.694750   -1.343318  144.385193
  0.030621242    0.000000    0.000000    0.000000    0.000000  -94.217117   25.733330   -1.372781  142.478439
  0.030821643    0.000000    0.000000    0.000000    0.000000  -94.387515   23.655041   -1.405056  140.567307
  0.031022044    0.000000    0.000000    0.000000    0.000000  -94.278197   21.943878   -1.436932  138.633820
  0.031222445    0.000000    0.000000    0.000000    0.000000  -94.184780   24.720800   -1.468530  136.688416
  0.031422846    0.000000    0.000000    0.000000    0.000000  -94.156909   19.761589   -1.501030  134.719193
  0.031623246    0.000000    0.000000    0.000000    0.000000  -95.251764   18.760134   -1.534507  132.744034
  0.031823647    0.000000    0.000000    0.000000    0.000000  -95.437258   18.725206   -1.569526  130.771103
  0.032024048    0.000000    0.000000    0.000000    0.000000  -94.816320   21.812307   -1.605511  128.789764
  0.032224449    0.000000    0.000000    0.000000    0.000000  -95.315893   21.978148   -1.643812  126.796341
  0.032424850    0.000000    0.000000    0.000000    0.000000  -94.978786    9.928660   -1.681589  124.821869
  0.032625250    0.000000    0.000000    0.000000    0.000000  -95.619069   20.317408   -1.721969  122.813263
  0.032825651    0.000000    0.000000    0.000000    0.000000  -96.194715   19.564953   -1.760494  120.757584
  0.033026052    0.000000    0.000000    0.000000    0.000000  -96.524323   14.916874   -1.801011  118.726295
  0.033226453    0.000000    0.000000    0.000000    0.000000  -95.632053   22.662498   -1.840183  116.689888
  0.033426854    0.000000    0.000000    0.000000    0.000000  -97.229473   23.337271   -1.882256  114.649353
  0.033627254    0.000000    0.000000    0.000000    0.000000  -96.038604   20.852962   -1.926400  112.607498
  0.033827655    0.000000    0.000000    0.000000    0.000000  -96.247171   25.087158   -1.970189  110.566238
  0.034028056    0.000000    0.000000    0.000000    0.000000  -95.721896   28.142685   -2.014866  108.522552
  0.034228457    0.000000    0.000000    0.000000    0.000000  -96.372088   25.089817   -2.060717  106.440620
  0.034428858    0.000000    0.000000    0.000000    0.000000  -97.256629   28.672182   -2.107407  104.366096
  0.034629258    0.000000    0.000000    0.000000    0.000000  -97.306136   28.954763   -2.154933  102.274185
  0.034829659    0.000000    0.000000    0.000000    0.000000  -96.875387   28.635443   -2.201605  100.192413
  0.035030060    0.000000    0.000000    0.000000    0.000000  -96.255943   32.825108   -2.249636   98.092056
  0.035230461    0.000000    0.000000    0.000000    0.000000  -96.618981   26.590815   -2.300560   96.008247
  0.035430862    0.000000    0.000000    0.000000    0.000000  -96.966369   20.274681   -2.350070   93.926353
  0.035631262    0.000000    0.000000    0.000000    0.000000  -95.883010   29.572048   -2.399276   91.836617
  0.035831663    0.000000    0.000000    0.000000    0.000000  -96.363472   24.515129   -2.451746   89.740425
  0.036032064    0.000000    0.000000    0.000000    0.000000  -96.826617   29.312740   -2.503804   87.643509
  0.036232465    0.000000    0.000000    0.000000    0.000000  -96.203391   23.151707   -2.553833   85.552734
  0.036432866    0.000000    0.000000    0.000000    0.000000  -97.041709   26.163027   -2.604725   83.446640
  0.036633266    0.000000    0.000000    0.000000    0.000000  -95.695871   27.464659   -2.659757   81.355453
  0.036833667    0.000000    0.000000    0.000000    0.000000  -96.638492   21.808237   -2.712027   79.243484
  0.037034068    0.000000    0.000000    0.000000    0.000000  -96.362927   26.273691   -2.765382   77.158684
  0.037234469    0.000000    0.000000    0.000000    0.000000  -96.749804   26.064848   -2.819635   75.050827
  0.037434870    0.000000    0.000000    0.000000    0.000000  -96.485080   19.927094   -2.872569   72.957329
  0.037635270    0.000000    0.000000    0.000000    0.000000  -97.612202   25.094488   -2.927895   70.863693
  0.037835671    0.000000    0.000000    0.000000    0.000000  -98.158598   25.402725   -2.984612   68.738426
  0.038036072    0.000000    0.000000    0.000000    0.000000  -98.057719   33.314198   -3.039336   66.611320
  0.038236473    0.000000    0.000000    0.000000    0.000000  -98.837016   15.823172   -3.096890   64.498428
  0.038436874    0.000000    0.000000    0.000000    0.000000  -97.602235   25.415346   -3.153986   62.365414
  0.038637274    0.000000    0.000000    0.000000    0.000000  -97.587985   25.392536   -3.212997   60.251877
  0.038837675    0.000000    0.000000    0.000000    0.000000  -98.552965   28.496593   -3.268094   58.147682
  0.039038076    0.000000    0.000000    0.000000    0.000000  -97.929031   23.505871   -3.320390   56.063267
  0.039238477    0.000000    0.000000    0.000000    0.000000  -98.246796   23.098492   -3.376124   53.965771
  0.039438878    0.000000    0.000000    0.000000    0.000000  -97.264216   20.021063   -3.432648   51.875828
  0.039639278    0.000000    0.000000    0.000000    0.000000  -97.836011   31.330252   -3.487801   49.787674
  0.039839679    0.000000    0.000000    0.000000    0.000000  -98.109154   40.112598   -3.544259   47.671646
  0.040040080    0.000000    0.000000    0.000000    0.000000  -97.774363   29.960485   -3.600310   45.594601
  0.040240481    0.000000    0.000000    0.000000    0.000000  -98.774976   38.264214   -3.655668   43.489780
  0.040440882    0.000000    0.000000    0.000000    0.000000  -98.053372   28.421951   -3.709981   41.396255
  0.040641283    0.000000    0.000000    0.000000    0.000000  -98.671006   22.728424   -3.765956   39.338963
  0.040841683    0.000000    0.000000    0.000000    0.000000  -96.597786   32.967335   -3.819036   37.272903
  0.041042084    0.000000    0.000000    0.000000    0.000000  -98.058114   24.998430   -3.873811   35.209892
  0.041242485    0.000000    0.000000    0.000000    0.000000  -97.487850   26.475445   -3.933882   33.143150
  0.041442886    0.000000    0.000000    0.000000    0.000000  -97.840330   29.057920   -3.987755   31.056986
  0.041643287    0.000000    0.000000    0.000000    0.000000  -98.485638   21.478102   -4.041060   28.995144
  0.041843687    0.000000    0.000000    0.000000    0.000000  -98.529771   26.070938   -4.094612   26.926420
  0.042044088    0.000000    0.000000    0.000000    0.000000  -97.394145   27.943592   -4.147441   24.877674
  0.042244489    0.000000    0.000000    0.000000    0.000000  -98.903229   36.318882   -4.202241   22.842802
  0.042444890    0.000000    0.000000    0.000000    0.000000  -97.938966   28.027266   -4.256058   20.802544
  0.042645291    0.000000    0.000000    0.000000    0.000000  -98.787494   38.786316   -4.309606   18.768122
  0.042845691    0.000000    0.000000    0.000000    0.000000  -98.185518   26.159004   -4.362020   16.750750
  0.043046092    0.000000    0.000000    0.000000    0.000000  -98.081678   31.952885   -4.412219   14.742007
  0.043246493    0.000000    0.000000    0.000000    0.000000  -99.133897   34.100025   -4.463796   12.728768
  0.043446894    0.000000    0.000000    0.000000    0.000000  -99.383108   21.881790   -4.514106   10.717345
  0.043647295    0.000000    0.000000    0.000000    0.000000  -98.495601   26.466532   -4.560953    8.722344
  0.043847695    0.000000    0.000000    0.000000    0.000000 -100.309343   25.893393   -4.607168    6.738138
  0.044048096    0.000000    0.000000    0.000000    0.000000  -99.598520   33.478127   -4.655870    4.776911
  0.044248497    0.000000    0.000000    0.000000    0.000000  -99.800277   38.020470   -4.700451    2.810168
  0.044448898    0.000000    0.000000    0.000000    0.000000  -98.046032   30.266012   -4.743045    0.862503
  0.044649299    0.000000    0.000000    0.000000    0.000000  -99.676691   32.898510   -4.785269   -1.107175
  0.044849699    0.000000    0.000000    0.000000    0.000000  -98.667370   28.264536   -4.829310   -3.044435
  0.045050100    0.000000    0.000000    0.000000    0.000000  -99.634509   41.012001   -4.870985   -5.001693
  0.045250501    0.000000    0.000000    0.000000    0.000000  -99.731922   27.515280   -4.910757   -6.918396
  0.045450902    0.000000    0.000000    0.000000    0.000000  -98.497321   28.179007   -4.950021   -8.848532
  0.045651303    0.000000    0.000000    0.000000    0.000000  -98.230585   30.204899   -4.990984  -10.763767
  0.045851703    0.000000    0.000000    0.000000    0.000000  -99.184432   27.087515   -5.029014  -12.649670
  0.046052104    0.000000    0.000000    0.000000    0.000000  -99.671583   34.454807   -5.067629  -14.534366
  0.046252505    0.000000    0.000000    0.000000    0.000000  -99.444946   26.668171   -5.106338  -16.386740
  0.046452906    0.000000    0.000000    0.000000    0.000000  -99.215683   32.017361   -5.142482  -18.224838
  0.046653307    0.000000    0.000000    0.000000    0.000000  -98.386454   34.478069   -5.178251  -20.059858
  0.046853707    0.000000    0.000000    0.000000    0.000000  -99.373572   24.465446   -5.211573  -21.848461
  0.047054108    0.000000    0.000000    0.000000    0.000000  -97.908218   28.547897   -5.236953  -23.666843
  0.047254509    0.000000    0.000000    0.000000    0.000000  -98.013572   37.361797   -5.265250  -25.471043
  0.047454910    0.000000    0.000000    0.000000    0.000000  -99.429520   18.758558   -5.286421  -27.296759
  0.047655311    0.000000    0.000000    0.000000    0.000000  -97.744567   32.172390   -5.310836  -29.108524
  0.047855711    0.000000    0.000000    0.000000    0.000000  -99.878104   29.527536   -5.336109  -30.916534
  0.048056112    0.000000    0.000000    0.000000    0.000000  -99.757543   24.248833   -5.361714  -32.736633
  0.048256513    0.000000    0.000000    0.000000    0.000000  -98.523746   24.897772   -5.386890  -34.523968
  0.048456914    0.000000    0.000000    0.000000    0.000000  -99.525216   39.187916   -5.412257  -36.324322
  0.048657315    0.000000    0.000000    0.000000    0.000000  -98.379316   27.696430   -5.437402  -38.126957
  0.048857715    0.000000    0.000000    0.000000    0.000000  -98.893511   19.635250   -5.460176  -39.917015
  0.049058116    0.000000    0.000000    0.000000    0.000000  -99.662132   31.690708   -5.484449  -41.697067
  0.049258517    0.000000    0.000000    0.000000    0.000000  -99.199233   36.258915   -5.506623  -43.457848
  0.049458918    0.000000    0.000000    0.000000    0.000000 -100.593367   38.249336   -5.529089  -45.205135
  0.049659319    0.000000    0.000000    0.000000    0.000000  -99.694958   36.555511   -5.551379  -46.945045
  0.049859719    0.000000    0.000000    0.000000    0.000000 -100.196599   29.825558   -5.579797  -48.659885
  0.050060120    0.000000    0.000000    0.000000    0.000000 -100.034404   30.344837   -5.601831  -50.374676
  0.050260521    0.000000    0.000000    0.000000    0.000000  -99.920930   37.870884   -5.620453  -52.092125
  0.050460922    0.000000    0.000000    0.000000    0.000000  -99.508322   42.220600   -5.639124  -53.788757
  0.050661323    0.000000    0.000000    0.000000    0.000000  -99.292310   31.899136   -5.655179  -55.481441
  0.050861723    0.000000    0.000000    0.000000    0.000000  -98.869296   33.420177   -5.674419  -57.159534
  0.051062124    0.000000    0.000000    0.000000    0.000000  -99.286684   39.405392   -5.692898  -58.826221
  0.051262525    0.000000    0.000000    0.000000    0.000000  -99.849398   39.200111   -5.713572  -60.455193
  0.051462926    0.000000    0.000000    0.000000    0.000000  -98.931095   33.340984   -5.729624  -62.094662
  0.051663327    0.000000    0.000000    0.000000    0.000000  -99.867461   36.645947   -5.745104  -63.713966
  0.051863727    0.000000    0.000000    0.000000    0.000000  -99.151828   26.488268   -5.764693  -65.336342
  0.052064128    0.000000    0.000000    0.000000    0.000000 -100.087986   28.822182   -5.775986  -66.933258
  0.052264529    0.000000    0.000000    0.000000    0.000000  -97.602213   36.133682   -5.786115  -68.531769
  0.052464930    0.000000    0.000000    0.000000    0.000000 -100.432801   22.893867   -5.801520  -70.113426
  0.052665331    0.000000    0.000000    0.000000    0.000000  -99.038069   34.079296   -5.813253  -71.683868
  0.052865731    0.000000    0.000000    0.000000    0.000000  -98.920378   36.034954   -5.828924  -73.237282
