! Anritsu VNA Master:                     Model: MS2036C/10/77
! SN:                                  1601066
! /bd0/18may8/255.ew.m6.s2p
! Existing Calibration Information:
! TYPE:                         Current Settings,       Active Cal Settings
! TIME:             	   05/08/2018 10:24:26 AM,    05/08/2018 10:22:10 AM
! INTERNAL TEMP:    	                   47.5 C,                    47.5 C
! # POINTS:         	                      500,                       500
! START FREQ:       	               20.000 MHz,                20.000 MHz
! STOP FREQ:        	              120.000 MHz,               120.000 MHz
! SOURCE POWER:     	                     High,                      High
! IFBW:             	                    50 Hz,                     50 Hz
! AVG FACTOR:       	                       1 ,                        1 
! REF PLANE 1:      	                     0 mm,                      0 mm
! REF PLANE 2:      	                     0 mm,                      0 mm
! CAL TYPE:         	                 Full S11,                  Full S11
! CAL METHOD:       	                     SOLT,                      SOLT
! CAL LINE TYPE:    	                     Coax,                      Coax
! DUT PORT 1:       	                K-Conn(F),                 K-Conn(F)
! DUT PORT 2:       	                K-Conn(F),                 K-Conn(F)
! CAL STATUS:       	        OK: Accuracy High,                        --
# GHZ S DB R 50.0
! FREQ.GHZ       S11DB        S11A       S21DB        S21A       S12DB        S12A       S22DB        S22A
  0.020000000   -0.888787 -124.406006  -90.556138   32.309162    0.000000    0.000000    0.000000    0.000000
  0.020200401   -0.894270 -125.824669  -91.219703   31.749519    0.000000    0.000000    0.000000    0.000000
  0.020400802   -0.901276 -127.244225  -91.590453   31.844322    0.000000    0.000000    0.000000    0.000000
  0.020601202   -0.908181 -128.674973  -92.357442   32.612724    0.000000    0.000000    0.000000    0.000000
  0.020801603   -0.920425 -130.124542  -92.330050   29.824110    0.000000    0.000000    0.000000    0.000000
  0.021002004   -0.932266 -131.620880  -92.541664   29.023783    0.000000    0.000000    0.000000    0.000000
  0.021202405   -0.945424 -133.098099  -93.538406   34.675900    0.000000    0.000000    0.000000    0.000000
  0.021402806   -0.954226 -134.605362  -93.112344   26.114017    0.000000    0.000000    0.000000    0.000000
  0.021603206   -0.966863 -136.085083  -93.354596   36.772644    0.000000    0.000000    0.000000    0.000000
  0.021803607   -0.976100 -137.571915  -93.672137   31.703388    0.000000    0.000000    0.000000    0.000000
  0.022004008   -0.987767 -139.068298  -92.466392   34.398197    0.000000    0.000000    0.000000    0.000000
  0.022204409   -0.999055 -140.583755  -92.824442   35.513390    0.000000    0.000000    0.000000    0.000000
  0.022404810   -1.011189 -142.106644  -92.955178   38.830757    0.000000    0.000000    0.000000    0.000000
  0.022605210   -1.021752 -143.638763  -92.931715   36.785694    0.000000    0.000000    0.000000    0.000000
  0.022805611   -1.031421 -145.203003  -92.452749   36.352421    0.000000    0.000000    0.000000    0.000000
  0.023006012   -1.039968 -146.740448  -93.034583   32.852451    0.000000    0.000000    0.000000    0.000000
  0.023206413   -1.049103 -148.271652  -93.207927   29.435188    0.000000    0.000000    0.000000    0.000000
  0.023406814   -1.056023 -149.805222  -93.139287   35.864006    0.000000    0.000000    0.000000    0.000000
  0.023607214   -1.065401 -151.336563  -93.256794   33.350384    0.000000    0.000000    0.000000    0.000000
  0.023807615   -1.076776 -152.897446  -93.023881   32.046490    0.000000    0.000000    0.000000    0.000000
  0.024008016   -1.090771 -154.456696  -92.949373   28.336256    0.000000    0.000000    0.000000    0.000000
  0.024208417   -1.103427 -156.051453  -93.278073   28.958405    0.000000    0.000000    0.000000    0.000000
  0.024408818   -1.116911 -157.649994  -93.133679   26.819155    0.000000    0.000000    0.000000    0.000000
  0.024609218   -1.130213 -159.252228  -93.476909   27.972193    0.000000    0.000000    0.000000    0.000000
  0.024809619   -1.143724 -160.852570  -93.594296   23.104324    0.000000    0.000000    0.000000    0.000000
  0.025010020   -1.158127 -162.467407  -92.817909   23.359200    0.000000    0.000000    0.000000    0.000000
  0.025210421   -1.173129 -164.087784  -93.808424   22.773058    0.000000    0.000000    0.000000    0.000000
  0.025410822   -1.189725 -165.735046  -93.992529   21.807482    0.000000    0.000000    0.000000    0.000000
  0.025611222   -1.207692 -167.387161  -93.725669   15.945621    0.000000    0.000000    0.000000    0.000000
  0.025811623   -1.223493 -169.068588  -95.381244   14.501966    0.000000    0.000000    0.000000    0.000000
  0.026012024   -1.238065 -170.758698  -94.555747   21.417006    0.000000    0.000000    0.000000    0.000000
  0.026212425   -1.252120 -172.444748  -95.033669   18.010592    0.000000    0.000000    0.000000    0.000000
  0.026412826   -1.267567 -174.138947  -95.139287   17.432959    0.000000    0.000000    0.000000    0.000000
  0.026613226   -1.285539 -175.848083  -95.967374   19.949095    0.000000    0.000000    0.000000    0.000000
  0.026813627   -1.305383 -177.562912  -95.170918   20.198460    0.000000    0.000000    0.000000    0.000000
  0.027014028   -1.325450 -179.285690  -95.940466   19.875277    0.000000    0.000000    0.000000    0.000000
  0.027214429   -1.345441  178.970932  -96.463190   19.549486    0.000000    0.000000    0.000000    0.000000
  0.027414830   -1.367084  177.218369  -96.858971   22.036226    0.000000    0.000000    0.000000    0.000000
  0.027615230   -1.387977  175.456039  -95.695881   22.390873    0.000000    0.000000    0.000000    0.000000
  0.027815631   -1.411865  173.677841  -95.832792   24.175892    0.000000    0.000000    0.000000    0.000000
  0.028016032   -1.437369  171.888840  -95.347653   23.858696    0.000000    0.000000    0.000000    0.000000
  0.028216433   -1.464900  170.101044  -96.851354   23.160805    0.000000    0.000000    0.000000    0.000000
  0.028416834   -1.489784  168.294662  -96.153123   20.769817    0.000000    0.000000    0.000000    0.000000
  0.028617234   -1.515365  166.499908  -96.101213   23.486628    0.000000    0.000000    0.000000    0.000000
  0.028817635   -1.540753  164.706467  -95.181266   23.365049    0.000000    0.000000    0.000000    0.000000
  0.029018036   -1.565336  162.918457  -95.421591   28.074654    0.000000    0.000000    0.000000    0.000000
  0.029218437   -1.589884  161.126465  -96.381059   22.733845    0.000000    0.000000    0.000000    0.000000
  0.029418838   -1.619363  159.334824  -96.494478   19.065519    0.000000    0.000000    0.000000    0.000000
  0.029619238   -1.650305  157.516876  -95.552290   21.341448    0.000000    0.000000    0.000000    0.000000
  0.029819639   -1.682523  155.691391  -95.727329   14.732317    0.000000    0.000000    0.000000    0.000000
  0.030020040   -1.717507  153.829178  -96.457628   20.647015    0.000000    0.000000    0.000000    0.000000
  0.030220441   -1.749436  151.950211  -96.048522   16.080261    0.000000    0.000000    0.000000    0.000000
  0.030420842   -1.782081  150.065811  -96.242046   20.220913    0.000000    0.000000    0.000000    0.000000
  0.030621242   -1.817522  148.193893  -96.355890   14.321630    0.000000    0.000000    0.000000    0.000000
  0.030821643   -1.853301  146.315384  -96.830254   13.935332    0.000000    0.000000    0.000000    0.000000
  0.031022044   -1.889490  144.424377  -97.557978   11.684489    0.000000    0.000000    0.000000    0.000000
  0.031222445   -1.922760  142.539963  -97.440307   12.840391    0.000000    0.000000    0.000000    0.000000
  0.031422846   -1.965006  140.589935  -97.068224   17.649065    0.000000    0.000000    0.000000    0.000000
  0.031623246   -2.004516  138.639877  -96.184643   10.719903    0.000000    0.000000    0.000000    0.000000
  0.031823647   -2.040574  136.664047  -97.534430    9.719591    0.000000    0.000000    0.000000    0.000000
  0.032024048   -2.079273  134.693436  -97.454773   12.260427    0.000000    0.000000    0.000000    0.000000
  0.032224449   -2.115531  132.718109  -97.295739    8.952687    0.000000    0.000000    0.000000    0.000000
  0.032424850   -2.151238  130.755081  -99.229231   16.059135    0.000000    0.000000    0.000000    0.000000
  0.032625251   -2.187519  128.795395  -97.965770    3.651932    0.000000    0.000000    0.000000    0.000000
  0.032825651   -2.225294  126.834465  -99.556802   12.501112    0.000000    0.000000    0.000000    0.000000
  0.033026052   -2.266850  124.864044  -98.189399   15.114552    0.000000    0.000000    0.000000    0.000000
  0.033226453   -2.314298  122.900307  -98.214700    7.475356    0.000000    0.000000    0.000000    0.000000
  0.033426854   -2.363084  120.940414  -99.344326   14.314142    0.000000    0.000000    0.000000    0.000000
  0.033627255   -2.416424  118.940407  -97.990098   13.078271    0.000000    0.000000    0.000000    0.000000
  0.033827655   -2.467626  116.900848  -97.528587    8.224400    0.000000    0.000000    0.000000    0.000000
  0.034028056   -2.519574  114.845001 -100.618937    4.830760    0.000000    0.000000    0.000000    0.000000
  0.034228457   -2.573678  112.752762  -97.936855   14.711200    0.000000    0.000000    0.000000    0.000000
  0.034428858   -2.621096  110.642288  -99.209074   12.805554    0.000000    0.000000    0.000000    0.000000
  0.034629259   -2.667788  108.524025  -98.124631    5.743762    0.000000    0.000000    0.000000    0.000000
  0.034829659   -2.715106  106.426682  -97.850812   18.512913    0.000000    0.000000    0.000000    0.000000
  0.035030060   -2.759104  104.306305  -98.562138   11.372828    0.000000    0.000000    0.000000    0.000000
  0.035230461   -2.802158  102.205727  -97.272587    7.485736    0.000000    0.000000    0.000000    0.000000
  0.035430862   -2.842894  100.138016  -97.980107   10.710426    0.000000    0.000000    0.000000    0.000000
  0.035631263   -2.883070   98.054649  -98.163597    9.934822    0.000000    0.000000    0.000000    0.000000
  0.035831663   -2.925947   95.993767  -98.480417   12.343249    0.000000    0.000000    0.000000    0.000000
  0.036032064   -2.965573   93.953529  -99.100525   14.227214    0.000000    0.000000    0.000000    0.000000
  0.036232465   -3.012111   91.904099  -99.438352   10.247931    0.000000    0.000000    0.000000    0.000000
  0.036432866   -3.059205   89.876945  -98.121999   17.757931    0.000000    0.000000    0.000000    0.000000
  0.036633267   -3.100865   87.852806  -98.653985   18.041344    0.000000    0.000000    0.000000    0.000000
  0.036833667   -3.149730   85.822624  -99.355832   12.019738    0.000000    0.000000    0.000000    0.000000
  0.037034068   -3.196558   83.757942  -99.648579    5.041501    0.000000    0.000000    0.000000    0.000000
  0.037234469   -3.244244   81.645203  -98.058663    7.578172    0.000000    0.000000    0.000000    0.000000
  0.037434870   -3.286326   79.475273  -99.461206   10.956672    0.000000    0.000000    0.000000    0.000000
  0.037635271   -3.328610   77.241829  -99.731604    0.455429    0.000000    0.000000    0.000000    0.000000
  0.037835671   -3.378858   74.890800 -102.554380    5.461482    0.000000    0.000000    0.000000    0.000000
  0.038036072   -3.446114   72.504074  -99.871294    2.328702    0.000000    0.000000    0.000000    0.000000
  0.038236473   -3.525351   70.135803  -99.486028   10.959209    0.000000    0.000000    0.000000    0.000000
  0.038436874   -3.607824   67.866280  -99.029489    8.983116    0.000000    0.000000    0.000000    0.000000
  0.038637275   -3.684582   65.707695 -101.690464    8.794177    0.000000    0.000000    0.000000    0.000000
  0.038837675   -3.749182   63.602863 -100.420644   11.457478    0.000000    0.000000    0.000000    0.000000
  0.039038076   -3.806948   61.537006 -100.112291    0.975623    0.000000    0.000000    0.000000    0.000000
  0.039238477   -3.861368   59.496494 -103.275067   14.493267    0.000000    0.000000    0.000000    0.000000
  0.039438878   -3.915924   57.473400  -99.352150    7.605573    0.000000    0.000000    0.000000    0.000000
  0.039639279   -3.971415   55.455204 -100.861510    8.669211    0.000000    0.000000    0.000000    0.000000
  0.039839679   -4.030013   53.394756 -100.643229   18.372084    0.000000    0.000000    0.000000    0.000000
  0.040040080   -4.088480   51.334099  -99.450519   12.720053    0.000000    0.000000    0.000000    0.000000
  0.040240481   -4.151452   49.271255 -100.543732   11.475028    0.000000    0.000000    0.000000    0.000000
  0.040440882   -4.208912   47.150982  -99.946447   12.269003    0.000000    0.000000    0.000000    0.000000
  0.040641283   -4.266720   45.063828  -99.595363   11.498642    0.000000    0.000000    0.000000    0.000000
  0.040841683   -4.321030   42.938072 -100.082999    4.039637    0.000000    0.000000    0.000000    0.000000
  0.041042084   -4.376512   40.840725 -100.149896   -0.982672    0.000000    0.000000    0.000000    0.000000
  0.041242485   -4.431425   38.725880 -101.493747    3.584353    0.000000    0.000000    0.000000    0.000000
  0.041442886   -4.484810   36.604519 -100.017942   19.300770    0.000000    0.000000    0.000000    0.000000
  0.041643287   -4.534286   34.476265  -99.973853    7.639990    0.000000    0.000000    0.000000    0.000000
  0.041843687   -4.582151   32.351913 -103.166029  -13.637085    0.000000    0.000000    0.000000    0.000000
  0.042044088   -4.628585   30.265091 -100.860907   -7.441713    0.000000    0.000000    0.000000    0.000000
  0.042244489   -4.672733   28.171255 -100.887014   -0.192276    0.000000    0.000000    0.000000    0.000000
  0.042444890   -4.719815   26.112251  -98.576915    2.981141    0.000000    0.000000    0.000000    0.000000
  0.042645291   -4.765805   24.067247 -101.250856   -4.326158    0.000000    0.000000    0.000000    0.000000
  0.042845691   -4.808516   22.012970 -101.007775    3.691519    0.000000    0.000000    0.000000    0.000000
  0.043046092   -4.856003   19.970230 -102.055337    6.278258    0.000000    0.000000    0.000000    0.000000
  0.043246493   -4.898523   17.913183 -103.468466    8.175976    0.000000    0.000000    0.000000    0.000000
  0.043446894   -4.940576   15.894300 -101.972758    6.503396    0.000000    0.000000    0.000000    0.000000
  0.043647295   -4.985504   13.849834 -102.575523    8.767791    0.000000    0.000000    0.000000    0.000000
  0.043847695   -5.025587   11.834107 -102.497505   10.965945    0.000000    0.000000    0.000000    0.000000
  0.044048096   -5.070297    9.817449 -101.410651   13.373483    0.000000    0.000000    0.000000    0.000000
  0.044248497   -5.112079    7.828521  -99.924874   18.894344    0.000000    0.000000    0.000000    0.000000
  0.044448898   -5.153528    5.833379 -100.928351    5.014277    0.000000    0.000000    0.000000    0.000000
  0.044649299   -5.193890    3.839957 -102.347236    9.883903    0.000000    0.000000    0.000000    0.000000
  0.044849699   -5.231337    1.864152 -102.006521    9.029889    0.000000    0.000000    0.000000    0.000000
  0.045050100   -5.266566   -0.132605 -101.945120   16.679995    0.000000    0.000000    0.000000    0.000000
  0.045250501   -5.300749   -2.104688 -103.104633    1.992319    0.000000    0.000000    0.000000    0.000000
  0.045450902   -5.331959   -4.050826 -101.539535    1.746546    0.000000    0.000000    0.000000    0.000000
  0.045651303   -5.362993   -6.001273 -101.909351   18.786480    0.000000    0.000000    0.000000    0.000000
  0.045851703   -5.397376   -7.916142 -100.417238   10.044384    0.000000    0.000000    0.000000    0.000000
  0.046052104   -5.430582   -9.842928 -101.342130   -1.466505    0.000000    0.000000    0.000000    0.000000
  0.046252505   -5.463575  -11.771235 -100.390214    5.792699    0.000000    0.000000    0.000000    0.000000
  0.046452906   -5.491610  -13.662027 -100.092659    0.987674    0.000000    0.000000    0.000000    0.000000
  0.046653307   -5.522463  -15.580832 -100.747942    6.244213    0.000000    0.000000    0.000000    0.000000
  0.046853707   -5.548253  -17.484680 -100.427989    3.039488    0.000000    0.000000    0.000000    0.000000
  0.047054108   -5.573813  -19.379000 -100.749188   -8.508103    0.000000    0.000000    0.000000    0.000000
  0.047254509   -5.596557  -21.255901 -103.963091    2.276726    0.000000    0.000000    0.000000    0.000000
  0.047454910   -5.619651  -23.121279 -102.845313    1.381530    0.000000    0.000000    0.000000    0.000000
  0.047655311   -5.641157  -24.971348 -104.248205  -10.044500    0.000000    0.000000    0.000000    0.000000
  0.047855711   -5.661014  -26.773575 -102.205618   -5.230594    0.000000    0.000000    0.000000    0.000000
  0.048056112   -5.682739  -28.580120 -101.292981    2.961531    0.000000    0.000000    0.000000    0.000000
  0.048256513   -5.706598  -30.390903 -104.018970   -7.082408    0.000000    0.000000    0.000000    0.000000
  0.048456914   -5.726661  -32.180367 -102.903061   10.963112    0.000000    0.000000    0.000000    0.000000
  0.048657315   -5.746322  -33.962070 -101.760341   -0.315125    0.000000    0.000000    0.000000    0.000000
  0.048857715   -5.762528  -35.736763 -104.327245   -2.399923    0.000000    0.000000    0.000000    0.000000
  0.049058116   -5.782246  -37.530914 -105.872392   -1.123610    0.000000    0.000000    0.000000    0.000000
  0.049258517   -5.797379  -39.282452 -103.602467   21.764072    0.000000    0.000000    0.000000    0.000000
  0.049458918   -5.815364  -41.013538 -107.332143   11.224872    0.000000    0.000000    0.000000    0.000000
  0.049659319   -5.830347  -42.760921 -105.393257   -4.028508    0.000000    0.000000    0.000000    0.000000
  0.049859719   -5.844814  -44.485928 -101.140164   11.003962    0.000000    0.000000    0.000000    0.000000
  0.050060120   -5.862265  -46.184246 -101.950452    4.908140    0.000000    0.000000    0.000000    0.000000
  0.050260521   -5.873050  -47.928436 -102.667299    5.127586    0.000000    0.000000    0.000000    0.000000
  0.050460922   -5.885865  -49.633320 -102.886218   13.062967    0.000000    0.000000    0.000000    0.000000
  0.050661323   -5.896614  -51.344975 -102.434444    5.468927    0.000000    0.000000    0.000000    0.000000
  0.050861723   -5.902671  -53.005772 -102.827095   15.353656    0.000000    0.000000    0.000000    0.000000
  0.051062124   -5.908666  -54.680904 -102.462479    1.083293    0.000000    0.000000    0.000000    0.000000
  0.051262525   -5.915461  -56.297783 -103.610963   -0.022198    0.000000    0.000000    0.000000    0.000000
  0.051462926   -5.921749  -57.893631 -102.077748    9.850862    0.000000    0.000000    0.000000    0.000000
  0.051663327   -5.926597  -59.469543 -102.365643   -7.593142    0.000000    0.000000    0.000000    0.000000
  0.051863727   -5.936948  -61.071297 -101.531485    4.212444    0.000000    0.000000    0.000000    0.000000
  0.052064128   -5.943934  -62.641685 -104.793217    6.335010    0.000000    0.000000    0.000000    0.000000
  0.052264529   -5.952971  -64.216988 -102.549598   -9.001218    0.000000    0.000000    0.000000    0.000000
  0.052464930   -5.964467  -65.755348 -101.914345   -0.184488    0.000000    0.000000    0.000000    0.000000
  0.052665331   -5.976064  -67.352875 -102.191749   -1.791775    0.000000    0.000000    0.000000    0.000000
  0.052865731   -5.984556  -68.909645 -101.877895   -4.886307    0.000000    0.000000    0.000000    0.000000
