! Anritsu VNA Master:                     Model: MS2036C/10/77
! SN:                                  1601066
! /bd0/18may8/255.ew.m1.s2p
! Existing Calibration Information:
! TYPE:                         Current Settings,       Active Cal Settings
! TIME:             	   05/08/2018 10:00:51 AM,    05/08/2018 09:57:41 AM
! INTERNAL TEMP:    	                   46.8 C,                    46.8 C
! # POINTS:         	                      500,                       500
! START FREQ:       	               20.000 MHz,                20.000 MHz
! STOP FREQ:        	              120.000 MHz,               120.000 MHz
! SOURCE POWER:     	                     High,                      High
! IFBW:             	                    50 Hz,                     50 Hz
! AVG FACTOR:       	                       1 ,                        1 
! REF PLANE 1:      	                     0 mm,                      0 mm
! REF PLANE 2:      	                     0 mm,                      0 mm
! CAL TYPE:         	                 Full S11,                  Full S11
! CAL METHOD:       	                     SOLT,                      SOLT
! CAL LINE TYPE:    	                     Coax,                      Coax
! DUT PORT 1:       	                K-Conn(F),                 K-Conn(F)
! DUT PORT 2:       	                K-Conn(F),                 K-Conn(F)
! CAL STATUS:       	        OK: Accuracy High,                        --
# GHZ S DB R 50.0
! FREQ.GHZ       S11DB        S11A       S21DB        S21A       S12DB        S12A       S22DB        S22A
  0.020000000   -0.883358 -124.333389  -90.931826   32.613949    0.000000    0.000000    0.000000    0.000000
  0.020200401   -0.888379 -125.753616  -90.982647   27.718269    0.000000    0.000000    0.000000    0.000000
  0.020400802   -0.896910 -127.178543  -91.864925   30.786627    0.000000    0.000000    0.000000    0.000000
  0.020601202   -0.903004 -128.599976  -91.630807   30.114973    0.000000    0.000000    0.000000    0.000000
  0.020801603   -0.912864 -130.075134  -92.708427   29.789791    0.000000    0.000000    0.000000    0.000000
  0.021002004   -0.927078 -131.544052  -92.181012   29.957237    0.000000    0.000000    0.000000    0.000000
  0.021202405   -0.938863 -133.035522  -92.331861   29.979681    0.000000    0.000000    0.000000    0.000000
  0.021402806   -0.949938 -134.535690  -93.574689   30.701010    0.000000    0.000000    0.000000    0.000000
  0.021603206   -0.960252 -136.029404  -93.107348   35.602104    0.000000    0.000000    0.000000    0.000000
  0.021803607   -0.969992 -137.515915  -93.453872   30.158260    0.000000    0.000000    0.000000    0.000000
  0.022004008   -0.980830 -139.014877  -93.391790   37.680103    0.000000    0.000000    0.000000    0.000000
  0.022204409   -0.994046 -140.524475  -92.701076   37.559063    0.000000    0.000000    0.000000    0.000000
  0.022404810   -1.006568 -142.043015  -93.763137   31.555658    0.000000    0.000000    0.000000    0.000000
  0.022605210   -1.016977 -143.596359  -93.221832   35.735756    0.000000    0.000000    0.000000    0.000000
  0.022805611   -1.025369 -145.146088  -92.337866   36.952568    0.000000    0.000000    0.000000    0.000000
  0.023006012   -1.033798 -146.689865  -92.819846   36.623581    0.000000    0.000000    0.000000    0.000000
  0.023206413   -1.042520 -148.215607  -93.110109   38.372887    0.000000    0.000000    0.000000    0.000000
  0.023406814   -1.051482 -149.760101  -92.916749   38.002308    0.000000    0.000000    0.000000    0.000000
  0.023607214   -1.060074 -151.295258  -92.457684   27.707399    0.000000    0.000000    0.000000    0.000000
  0.023807615   -1.070455 -152.844498  -92.951267   30.821909    0.000000    0.000000    0.000000    0.000000
  0.024008016   -1.085464 -154.415283  -93.278698   29.595736    0.000000    0.000000    0.000000    0.000000
  0.024208417   -1.098045 -156.006012  -92.520095   25.906553    0.000000    0.000000    0.000000    0.000000
  0.024408818   -1.112355 -157.588837  -92.886146   24.291344    0.000000    0.000000    0.000000    0.000000
  0.024609218   -1.124925 -159.188416  -93.153555   24.429676    0.000000    0.000000    0.000000    0.000000
  0.024809619   -1.137357 -160.803391  -93.247590   21.058804    0.000000    0.000000    0.000000    0.000000
  0.025010020   -1.151833 -162.407593  -93.074939   20.970587    0.000000    0.000000    0.000000    0.000000
  0.025210421   -1.166348 -164.014526  -93.330812   20.711128    0.000000    0.000000    0.000000    0.000000
  0.025410822   -1.185038 -165.652618  -94.395937   23.299410    0.000000    0.000000    0.000000    0.000000
  0.025611222   -1.203077 -167.315521  -94.454762   18.436651    0.000000    0.000000    0.000000    0.000000
  0.025811623   -1.219650 -168.982544  -94.983558   17.241348    0.000000    0.000000    0.000000    0.000000
  0.026012024   -1.233516 -170.672958  -95.777959   16.666033    0.000000    0.000000    0.000000    0.000000
  0.026212425   -1.248393 -172.366989  -95.395025   15.972061    0.000000    0.000000    0.000000    0.000000
  0.026412826   -1.263452 -174.047913  -94.729213   18.918318    0.000000    0.000000    0.000000    0.000000
  0.026613226   -1.282577 -175.757904  -95.362004   20.733828    0.000000    0.000000    0.000000    0.000000
  0.026813627   -1.303096 -177.466904  -96.088896   23.894648    0.000000    0.000000    0.000000    0.000000
  0.027014028   -1.321263 -179.190918  -96.668197   18.303793    0.000000    0.000000    0.000000    0.000000
  0.027214429   -1.343016  179.063583  -95.897598   19.145163    0.000000    0.000000    0.000000    0.000000
  0.027414830   -1.363652  177.303696  -94.553080   17.583570    0.000000    0.000000    0.000000    0.000000
  0.027615230   -1.384111  175.545792  -96.160122   20.921631    0.000000    0.000000    0.000000    0.000000
  0.027815631   -1.410435  173.772766  -95.562301   28.030882    0.000000    0.000000    0.000000    0.000000
  0.028016032   -1.433918  171.977264  -95.784863   29.119160    0.000000    0.000000    0.000000    0.000000
  0.028216433   -1.461907  170.186234  -96.378947   19.690073    0.000000    0.000000    0.000000    0.000000
  0.028416834   -1.488472  168.387344  -96.377537   21.904406    0.000000    0.000000    0.000000    0.000000
  0.028617234   -1.512860  166.599716  -96.318090   23.734743    0.000000    0.000000    0.000000    0.000000
  0.028817635   -1.537264  164.803848  -96.792358   23.155132    0.000000    0.000000    0.000000    0.000000
  0.029018036   -1.562308  163.002853  -95.318711   23.958895    0.000000    0.000000    0.000000    0.000000
  0.029218437   -1.587593  161.209152  -96.297389   17.215742    0.000000    0.000000    0.000000    0.000000
  0.029418838   -1.617040  159.418549  -96.002714   15.885584    0.000000    0.000000    0.000000    0.000000
  0.029619238   -1.647877  157.600403  -95.940052   16.251846    0.000000    0.000000    0.000000    0.000000
  0.029819639   -1.679642  155.772034  -95.444592   16.878057    0.000000    0.000000    0.000000    0.000000
  0.030020040   -1.713928  153.912292  -95.849210   12.991403    0.000000    0.000000    0.000000    0.000000
  0.030220441   -1.746858  152.029099  -96.354857   17.167698    0.000000    0.000000    0.000000    0.000000
  0.030420842   -1.780336  150.143188  -96.615816   13.934347    0.000000    0.000000    0.000000    0.000000
  0.030621242   -1.814976  148.274490  -96.381726   16.044149    0.000000    0.000000    0.000000    0.000000
  0.030821643   -1.850105  146.401718  -95.994413   12.831284    0.000000    0.000000    0.000000    0.000000
  0.031022044   -1.887778  144.514679  -96.456431    6.877282    0.000000    0.000000    0.000000    0.000000
  0.031222445   -1.921306  142.634964  -96.969924   19.374268    0.000000    0.000000    0.000000    0.000000
  0.031422846   -1.962075  140.687088  -96.612773   16.658297    0.000000    0.000000    0.000000    0.000000
  0.031623246   -2.001421  138.735260  -97.636702   15.028502    0.000000    0.000000    0.000000    0.000000
  0.031823647   -2.039819  136.762024  -97.209114    3.809307    0.000000    0.000000    0.000000    0.000000
  0.032024048   -2.074431  134.802551  -96.912125   13.492306    0.000000    0.000000    0.000000    0.000000
  0.032224449   -2.110606  132.839203  -96.803240   10.763453    0.000000    0.000000    0.000000    0.000000
  0.032424850   -2.148472  130.874115  -98.507299    6.921290    0.000000    0.000000    0.000000    0.000000
  0.032625251   -2.184179  128.915405  -97.783453    7.494540    0.000000    0.000000    0.000000    0.000000
  0.032825651   -2.223915  126.955086  -99.025914    3.345066    0.000000    0.000000    0.000000    0.000000
  0.033026052   -2.266976  124.997177  -97.500785   15.238283    0.000000    0.000000    0.000000    0.000000
  0.033226453   -2.314473  123.027176  -98.107032    7.776965    0.000000    0.000000    0.000000    0.000000
  0.033426854   -2.361036  121.072670  -97.589343   13.421095    0.000000    0.000000    0.000000    0.000000
  0.033627255   -2.417376  119.076546  -98.662693   19.695091    0.000000    0.000000    0.000000    0.000000
  0.033827655   -2.470645  117.036469  -97.922831   17.692963    0.000000    0.000000    0.000000    0.000000
  0.034028056   -2.520532  114.974503  -98.721942   16.529612    0.000000    0.000000    0.000000    0.000000
  0.034228457   -2.572611  112.876198  -98.051275   12.241349    0.000000    0.000000    0.000000    0.000000
  0.034428858   -2.620516  110.761353  -98.016664   12.926454    0.000000    0.000000    0.000000    0.000000
  0.034629259   -2.670592  108.648438  -97.847772   12.461621    0.000000    0.000000    0.000000    0.000000
  0.034829659   -2.713583  106.526367  -97.680452    3.962941    0.000000    0.000000    0.000000    0.000000
  0.035030060   -2.758268  104.411331  -98.836930    9.597523    0.000000    0.000000    0.000000    0.000000
  0.035230461   -2.801518  102.339767  -98.944040   13.811348    0.000000    0.000000    0.000000    0.000000
  0.035430862   -2.844199  100.254089  -98.039134   12.746595    0.000000    0.000000    0.000000    0.000000
  0.035631263   -2.884223   98.177773  -98.157918    4.507612    0.000000    0.000000    0.000000    0.000000
  0.035831663   -2.928304   96.110519  -99.296602   21.987688    0.000000    0.000000    0.000000    0.000000
  0.036032064   -2.969258   94.055428  -99.269618    6.783717    0.000000    0.000000    0.000000    0.000000
  0.036232465   -3.012174   92.008171  -98.175594   -0.329742    0.000000    0.000000    0.000000    0.000000
  0.036432866   -3.056162   89.996574  -98.807596   16.099609    0.000000    0.000000    0.000000    0.000000
  0.036633267   -3.103007   87.961540  -99.635159    7.258932    0.000000    0.000000    0.000000    0.000000
  0.036833667   -3.151191   85.924240  -98.825190    4.257250    0.000000    0.000000    0.000000    0.000000
  0.037034068   -3.197125   83.857674  -99.795590    2.197031    0.000000    0.000000    0.000000    0.000000
  0.037234469   -3.246161   81.757866  -99.234509   -1.681960    0.000000    0.000000    0.000000    0.000000
  0.037434870   -3.288785   79.600906  -99.508743   13.042485    0.000000    0.000000    0.000000    0.000000
  0.037635271   -3.329752   77.352493 -100.136345    3.960745    0.000000    0.000000    0.000000    0.000000
  0.037835671   -3.380108   75.010712 -100.111053    8.496618    0.000000    0.000000    0.000000    0.000000
  0.038036072   -3.442885   72.610497 -100.271385    9.771648    0.000000    0.000000    0.000000    0.000000
  0.038236473   -3.523189   70.252502 -100.821005   10.257458    0.000000    0.000000    0.000000    0.000000
  0.038436874   -3.605970   67.990646 -102.050629   -2.648750    0.000000    0.000000    0.000000    0.000000
  0.038637275   -3.682008   65.822693 -100.723002    0.286315    0.000000    0.000000    0.000000    0.000000
  0.038837675   -3.748234   63.717094 -100.342178    7.017252    0.000000    0.000000    0.000000    0.000000
  0.039038076   -3.805037   61.663448 -100.491178    6.611784    0.000000    0.000000    0.000000    0.000000
  0.039238477   -3.859078   59.632744 -100.743573   -3.954777    0.000000    0.000000    0.000000    0.000000
  0.039438878   -3.916247   57.597713  -99.894915   12.648294    0.000000    0.000000    0.000000    0.000000
  0.039639279   -3.970598   55.586922 -100.346592    9.812442    0.000000    0.000000    0.000000    0.000000
  0.039839679   -4.029890   53.537231 -101.108932    0.049530    0.000000    0.000000    0.000000    0.000000
  0.040040080   -4.089107   51.478703  -99.749517   13.310154    0.000000    0.000000    0.000000    0.000000
  0.040240481   -4.150163   49.394772 -100.501029    5.691894    0.000000    0.000000    0.000000    0.000000
  0.040440882   -4.208897   47.281109  -99.516932    4.339631    0.000000    0.000000    0.000000    0.000000
  0.040641283   -4.268983   45.175179 -100.653506    9.872148    0.000000    0.000000    0.000000    0.000000
  0.040841683   -4.323547   43.062183 -100.165567    1.890133    0.000000    0.000000    0.000000    0.000000
  0.041042084   -4.379007   40.973957  -99.194392    8.582512    0.000000    0.000000    0.000000    0.000000
  0.041242485   -4.432891   38.842133 -102.857495    6.649824    0.000000    0.000000    0.000000    0.000000
  0.041442886   -4.485899   36.725273 -101.499709    2.367637    0.000000    0.000000    0.000000    0.000000
  0.041643287   -4.536497   34.612122  -99.474076    6.879859    0.000000    0.000000    0.000000    0.000000
  0.041843687   -4.584403   32.470394 -100.962896    1.338567    0.000000    0.000000    0.000000    0.000000
  0.042044088   -4.630801   30.403847 -100.920048    8.084584    0.000000    0.000000    0.000000    0.000000
  0.042244489   -4.674279   28.297028 -101.260703   -3.206323    0.000000    0.000000    0.000000    0.000000
  0.042444890   -4.723741   26.250999 -103.717664    8.541658    0.000000    0.000000    0.000000    0.000000
  0.042645291   -4.768362   24.184679 -100.141279   -1.531148    0.000000    0.000000    0.000000    0.000000
  0.042845691   -4.810466   22.136936 -102.157213    0.059229    0.000000    0.000000    0.000000    0.000000
  0.043046092   -4.855900   20.098732 -103.929953    3.212011    0.000000    0.000000    0.000000    0.000000
  0.043246493   -4.898795   18.041132 -100.556970    3.667809    0.000000    0.000000    0.000000    0.000000
  0.043446894   -4.941351   16.012274 -100.220350    8.142403    0.000000    0.000000    0.000000    0.000000
  0.043647295   -4.985235   13.977554 -102.904989    8.159877    0.000000    0.000000    0.000000    0.000000
  0.043847695   -5.026771   11.951780 -104.475131    1.647923    0.000000    0.000000    0.000000    0.000000
  0.044048096   -5.070629    9.946107 -100.159133    7.279534    0.000000    0.000000    0.000000    0.000000
  0.044248497   -5.110697    7.925269 -104.897339   21.674862    0.000000    0.000000    0.000000    0.000000
  0.044448898   -5.153328    5.926163 -102.836460   11.968677    0.000000    0.000000    0.000000    0.000000
  0.044649299   -5.192603    3.943247 -101.511526    3.000995    0.000000    0.000000    0.000000    0.000000
  0.044849699   -5.232962    1.932482 -101.404543    9.305512    0.000000    0.000000    0.000000    0.000000
  0.045050100   -5.264977   -0.050867 -101.025559   13.329977    0.000000    0.000000    0.000000    0.000000
  0.045250501   -5.297087   -2.034422 -101.493896    5.640397    0.000000    0.000000    0.000000    0.000000
  0.045450902   -5.330559   -3.963021 -100.470048    1.748112    0.000000    0.000000    0.000000    0.000000
  0.045651303   -5.363468   -5.923249 -101.016799    1.607036    0.000000    0.000000    0.000000    0.000000
  0.045851703   -5.398323   -7.844495 -101.831029    3.892048    0.000000    0.000000    0.000000    0.000000
  0.046052104   -5.429797   -9.799427 -101.431238   -6.141556    0.000000    0.000000    0.000000    0.000000
  0.046252505   -5.458481  -11.708506 -102.524150    2.225635    0.000000    0.000000    0.000000    0.000000
  0.046452906   -5.492034  -13.615773 -101.081634    7.403114    0.000000    0.000000    0.000000    0.000000
  0.046653307   -5.517067  -15.532411 -100.917212    3.922146    0.000000    0.000000    0.000000    0.000000
  0.046853707   -5.543648  -17.449986 -102.129970   -5.897613    0.000000    0.000000    0.000000    0.000000
  0.047054108   -5.569423  -19.330421 -101.398863   -2.378690    0.000000    0.000000    0.000000    0.000000
  0.047254509   -5.590349  -21.216112 -101.125348    1.590621    0.000000    0.000000    0.000000    0.000000
  0.047454910   -5.614235  -23.080114 -103.773187   -1.695127    0.000000    0.000000    0.000000    0.000000
  0.047655311   -5.635358  -24.933470 -101.226878   -9.887855    0.000000    0.000000    0.000000    0.000000
  0.047855711   -5.655986  -26.754879 -102.366538   -3.303864    0.000000    0.000000    0.000000    0.000000
  0.048056112   -5.679422  -28.564314 -102.249199    2.875235    0.000000    0.000000    0.000000    0.000000
  0.048256513   -5.697814  -30.360651 -101.437799   -8.797082    0.000000    0.000000    0.000000    0.000000
  0.048456914   -5.722429  -32.146328 -102.130256    6.676228    0.000000    0.000000    0.000000    0.000000
  0.048657315   -5.739887  -33.919186 -103.542162   -7.486483    0.000000    0.000000    0.000000    0.000000
  0.048857715   -5.756929  -35.719929 -105.216740   -2.121090    0.000000    0.000000    0.000000    0.000000
  0.049058116   -5.775122  -37.486698 -104.153890   -6.873312    0.000000    0.000000    0.000000    0.000000
  0.049258517   -5.788893  -39.256577 -103.885688    6.870661    0.000000    0.000000    0.000000    0.000000
  0.049458918   -5.805425  -40.984108 -104.926329    0.619818    0.000000    0.000000    0.000000    0.000000
  0.049659319   -5.823444  -42.722034 -104.035063    0.740157    0.000000    0.000000    0.000000    0.000000
  0.049859719   -5.840487  -44.455547 -104.506932    2.855406    0.000000    0.000000    0.000000    0.000000
  0.050060120   -5.854152  -46.183537 -102.244042   12.237832    0.000000    0.000000    0.000000    0.000000
  0.050260521   -5.865022  -47.891140 -103.421023   22.721016    0.000000    0.000000    0.000000    0.000000
  0.050460922   -5.878947  -49.615864 -104.433619   13.820703    0.000000    0.000000    0.000000    0.000000
  0.050661323   -5.885942  -51.309055 -102.338403   10.473793    0.000000    0.000000    0.000000    0.000000
  0.050861723   -5.892928  -52.975128 -101.642207   14.767599    0.000000    0.000000    0.000000    0.000000
  0.051062124   -5.901278  -54.641304 -101.137682    7.125438    0.000000    0.000000    0.000000    0.000000
  0.051262525   -5.905327  -56.271793 -102.682684   13.613024    0.000000    0.000000    0.000000    0.000000
  0.051462926   -5.913607  -57.867714 -103.683234   -2.311484    0.000000    0.000000    0.000000    0.000000
  0.051663327   -5.917710  -59.454926 -102.756556    0.917835    0.000000    0.000000    0.000000    0.000000
  0.051863727   -5.927001  -61.037720 -102.396775    9.101015    0.000000    0.000000    0.000000    0.000000
  0.052064128   -5.939319  -62.598240 -100.437973    9.020557    0.000000    0.000000    0.000000    0.000000
  0.052264529   -5.948194  -64.182098 -103.481032    7.832640    0.000000    0.000000    0.000000    0.000000
  0.052464930   -5.955363  -65.735359 -103.132748   -2.175131    0.000000    0.000000    0.000000    0.000000
  0.052665331   -5.966476  -67.320869 -102.434900   -4.019818    0.000000    0.000000    0.000000    0.000000
  0.052865731   -5.977005  -68.883881 -102.674849    5.971205    0.000000    0.000000    0.000000    0.000000
