! Anritsu VNA Master:                     Model: MS2036C/10/77
! SN:                                  1601066
! /bd0/18may8/255.ns.m3.s2p
! Existing Calibration Information:
! TYPE:                         Current Settings,       Active Cal Settings
! TIME:             	   05/08/2018 11:05:36 AM,    05/08/2018 10:55:57 AM
! INTERNAL TEMP:    	                   50.8 C,                    49.3 C
! # POINTS:         	                      500,                       500
! START FREQ:       	               20.000 MHz,                20.000 MHz
! STOP FREQ:        	              120.000 MHz,               120.000 MHz
! SOURCE POWER:     	                     High,                      High
! IFBW:             	                    50 Hz,                     50 Hz
! AVG FACTOR:       	                       1 ,                        1 
! REF PLANE 1:      	                     0 mm,                      0 mm
! REF PLANE 2:      	                     0 mm,                      0 mm
! CAL TYPE:         	                 Full S11,                  Full S11
! CAL METHOD:       	                     SOLT,                      SOLT
! CAL LINE TYPE:    	                     Coax,                      Coax
! DUT PORT 1:       	                K-Conn(F),                 K-Conn(F)
! DUT PORT 2:       	                K-Conn(F),                 K-Conn(F)
! CAL STATUS:       	        OK: Accuracy High,                        --
# GHZ S DB R 50.0
! FREQ.GHZ       S11DB        S11A       S21DB        S21A       S12DB        S12A       S22DB        S22A
  0.020000000   -0.675923 -124.115402  -91.054400   26.917828    0.000000    0.000000    0.000000    0.000000
  0.020200401   -0.678581 -125.551407  -90.823060   32.001606    0.000000    0.000000    0.000000    0.000000
  0.020400802   -0.684872 -126.984306  -92.173055   28.376024    0.000000    0.000000    0.000000    0.000000
  0.020601202   -0.692637 -128.435379  -92.229502   33.260181    0.000000    0.000000    0.000000    0.000000
  0.020801603   -0.700647 -129.934250  -92.070136   29.378948    0.000000    0.000000    0.000000    0.000000
  0.021002004   -0.711313 -131.436218  -92.454414   30.558977    0.000000    0.000000    0.000000    0.000000
  0.021202405   -0.722770 -132.974304  -93.144251   29.318321    0.000000    0.000000    0.000000    0.000000
  0.021402806   -0.732151 -134.509888  -92.796533   32.017998    0.000000    0.000000    0.000000    0.000000
  0.021603206   -0.737712 -136.029358  -92.142703   32.846725    0.000000    0.000000    0.000000    0.000000
  0.021803607   -0.741979 -137.566589  -93.127975   31.424160    0.000000    0.000000    0.000000    0.000000
  0.022004008   -0.746203 -139.110443  -92.926430   36.347374    0.000000    0.000000    0.000000    0.000000
  0.022204409   -0.748686 -140.678772  -93.018491   29.675055    0.000000    0.000000    0.000000    0.000000
  0.022404810   -0.751741 -142.252747  -93.131340   34.248283    0.000000    0.000000    0.000000    0.000000
  0.022605210   -0.758697 -143.839981  -92.663541   36.431206    0.000000    0.000000    0.000000    0.000000
  0.022805611   -0.755946 -145.448517  -93.360580   33.762798    0.000000    0.000000    0.000000    0.000000
  0.023006012   -0.753368 -147.044281  -92.958987   34.373463    0.000000    0.000000    0.000000    0.000000
  0.023206413   -0.747229 -148.616028  -92.989176   36.091736    0.000000    0.000000    0.000000    0.000000
  0.023406814   -0.744488 -150.189117  -92.331165   35.373116    0.000000    0.000000    0.000000    0.000000
  0.023607214   -0.743107 -151.766190  -92.100274   33.975880    0.000000    0.000000    0.000000    0.000000
  0.023807615   -0.743539 -153.343948  -93.087607   26.579411    0.000000    0.000000    0.000000    0.000000
  0.024008016   -0.744046 -154.951385  -93.177543   31.198362    0.000000    0.000000    0.000000    0.000000
  0.024208417   -0.746386 -156.568481  -93.246797   28.038088    0.000000    0.000000    0.000000    0.000000
  0.024408818   -0.747271 -158.178925  -93.520215   24.459509    0.000000    0.000000    0.000000    0.000000
  0.024609218   -0.747789 -159.808258  -93.155718   22.686451    0.000000    0.000000    0.000000    0.000000
  0.024809619   -0.750511 -161.418427  -93.534664   25.438997    0.000000    0.000000    0.000000    0.000000
  0.025010020   -0.754533 -163.039444  -93.440774   18.896816    0.000000    0.000000    0.000000    0.000000
  0.025210421   -0.760446 -164.662628  -93.482455   16.149860    0.000000    0.000000    0.000000    0.000000
  0.025410822   -0.767331 -166.309464  -94.470625   22.971428    0.000000    0.000000    0.000000    0.000000
  0.025611222   -0.775512 -167.969086  -94.673404   16.055063    0.000000    0.000000    0.000000    0.000000
  0.025811623   -0.784820 -169.655045  -94.364895   19.186293    0.000000    0.000000    0.000000    0.000000
  0.026012024   -0.793031 -171.352524  -95.656571   17.180674    0.000000    0.000000    0.000000    0.000000
  0.026212425   -0.800703 -173.050400  -95.351820   19.824989    0.000000    0.000000    0.000000    0.000000
  0.026412826   -0.813203 -174.757263  -95.524721   19.401609    0.000000    0.000000    0.000000    0.000000
  0.026613226   -0.828394 -176.475464  -96.340176   17.508190    0.000000    0.000000    0.000000    0.000000
  0.026813627   -0.844629 -178.211731  -95.725114   16.754364    0.000000    0.000000    0.000000    0.000000
  0.027014028   -0.862977 -179.952118  -96.088754   13.302302    0.000000    0.000000    0.000000    0.000000
  0.027214429   -0.881280  178.283585  -96.204055   16.542025    0.000000    0.000000    0.000000    0.000000
  0.027414830   -0.901998  176.499496  -96.146588   17.733732    0.000000    0.000000    0.000000    0.000000
  0.027615230   -0.922174  174.714600  -96.054173   25.879906    0.000000    0.000000    0.000000    0.000000
  0.027815631   -0.946464  172.915649  -96.965264   11.658396    0.000000    0.000000    0.000000    0.000000
  0.028016032   -0.972667  171.094894  -95.339330   23.130735    0.000000    0.000000    0.000000    0.000000
  0.028216433   -0.997270  169.262054  -96.467699   26.947237    0.000000    0.000000    0.000000    0.000000
  0.028416834   -1.024632  167.419937  -95.973085   15.689153    0.000000    0.000000    0.000000    0.000000
  0.028617234   -1.050369  165.586960  -95.893256   20.745544    0.000000    0.000000    0.000000    0.000000
  0.028817635   -1.073371  163.741898  -97.265448   20.841412    0.000000    0.000000    0.000000    0.000000
  0.029018036   -1.098580  161.920776  -96.112421   22.827974    0.000000    0.000000    0.000000    0.000000
  0.029218437   -1.122590  160.091187  -96.404176   23.158527    0.000000    0.000000    0.000000    0.000000
  0.029418838   -1.149475  158.261536  -96.220257   24.109026    0.000000    0.000000    0.000000    0.000000
  0.029619238   -1.177001  156.407593  -95.685684   13.035350    0.000000    0.000000    0.000000    0.000000
  0.029819639   -1.206803  154.544785  -96.530042   22.477766    0.000000    0.000000    0.000000    0.000000
  0.030020040   -1.238649  152.649017  -95.570061   18.088932    0.000000    0.000000    0.000000    0.000000
  0.030220441   -1.267916  150.740021  -97.264301   13.939755    0.000000    0.000000    0.000000    0.000000
  0.030420842   -1.293749  148.832428  -96.966939   15.472001    0.000000    0.000000    0.000000    0.000000
  0.030621242   -1.323498  146.938141  -96.433089   15.175056    0.000000    0.000000    0.000000    0.000000
  0.030821643   -1.352991  145.046829  -96.954018   15.075990    0.000000    0.000000    0.000000    0.000000
  0.031022044   -1.384737  143.132126  -96.926951   10.358756    0.000000    0.000000    0.000000    0.000000
  0.031222445   -1.414876  141.231216  -98.247190   17.556103    0.000000    0.000000    0.000000    0.000000
  0.031422846   -1.445217  139.278564  -97.702912   10.829318    0.000000    0.000000    0.000000    0.000000
  0.031623246   -1.478173  137.300369  -96.980516    9.554766    0.000000    0.000000    0.000000    0.000000
  0.031823647   -1.508336  135.314789  -97.154315    2.897346    0.000000    0.000000    0.000000    0.000000
  0.032024048   -1.537444  133.348785  -98.119993    9.487371    0.000000    0.000000    0.000000    0.000000
  0.032224449   -1.564466  131.382248  -97.504736   13.211403    0.000000    0.000000    0.000000    0.000000
  0.032424850   -1.591319  129.420868  -96.955257    5.797646    0.000000    0.000000    0.000000    0.000000
  0.032625251   -1.620493  127.432968  -97.433710    8.484951    0.000000    0.000000    0.000000    0.000000
  0.032825651   -1.650524  125.480232  -97.533039    6.345455    0.000000    0.000000    0.000000    0.000000
  0.033026052   -1.683525  123.523712  -98.281497    1.429906    0.000000    0.000000    0.000000    0.000000
  0.033226453   -1.725045  121.564468  -99.209230   10.535111    0.000000    0.000000    0.000000    0.000000
  0.033426854   -1.764903  119.572334  -99.067246   10.138566    0.000000    0.000000    0.000000    0.000000
  0.033627255   -1.812275  117.579422  -97.962056   20.637104    0.000000    0.000000    0.000000    0.000000
  0.033827655   -1.862290  115.554604  -98.973756   18.134949    0.000000    0.000000    0.000000    0.000000
  0.034028056   -1.908000  113.474991  -99.304368   20.877783    0.000000    0.000000    0.000000    0.000000
  0.034228457   -1.956138  111.402756  -98.731522    6.994053    0.000000    0.000000    0.000000    0.000000
  0.034428858   -2.003991  109.265114  -98.678206    7.654963    0.000000    0.000000    0.000000    0.000000
  0.034629259   -2.048092  107.147141  -98.862530    8.806242    0.000000    0.000000    0.000000    0.000000
  0.034829659   -2.095775  105.026291  -98.486079   16.582378    0.000000    0.000000    0.000000    0.000000
  0.035030060   -2.141731  102.924843  -97.408180   12.854007    0.000000    0.000000    0.000000    0.000000
  0.035230461   -2.184999  100.803398  -99.148383    3.945022    0.000000    0.000000    0.000000    0.000000
  0.035430862   -2.229213   98.726486  -98.368283    6.995447    0.000000    0.000000    0.000000    0.000000
  0.035631263   -2.274715   96.658203  -98.264463    5.568155    0.000000    0.000000    0.000000    0.000000
  0.035831663   -2.322581   94.595139  -99.125798    3.390152    0.000000    0.000000    0.000000    0.000000
  0.036032064   -2.371437   92.559387  -99.037776    4.915801    0.000000    0.000000    0.000000    0.000000
  0.036232465   -2.425163   90.528366  -99.554243    6.592019    0.000000    0.000000    0.000000    0.000000
  0.036432866   -2.477554   88.505936  -99.112878    2.424574    0.000000    0.000000    0.000000    0.000000
  0.036633267   -2.536285   86.489723  -99.553552   10.842369    0.000000    0.000000    0.000000    0.000000
  0.036833667   -2.600607   84.490440  -99.104684    4.213839    0.000000    0.000000    0.000000    0.000000
  0.037034068   -2.664193   82.472954 -101.044347    4.514549    0.000000    0.000000    0.000000    0.000000
  0.037234469   -2.732671   80.401703  -99.910129    0.444974    0.000000    0.000000    0.000000    0.000000
  0.037434870   -2.801110   78.335350 -101.085032    4.474146    0.000000    0.000000    0.000000    0.000000
  0.037635271   -2.868854   76.260719  -99.939090    9.501495    0.000000    0.000000    0.000000    0.000000
  0.037835671   -2.939856   74.141273 -101.632032   12.669599    0.000000    0.000000    0.000000    0.000000
  0.038036072   -3.006038   72.022156  -99.980548    6.441429    0.000000    0.000000    0.000000    0.000000
  0.038236473   -3.069002   69.884743 -100.575690    0.003737    0.000000    0.000000    0.000000    0.000000
  0.038436874   -3.131600   67.749367  -98.858379   18.749750    0.000000    0.000000    0.000000    0.000000
  0.038637275   -3.188289   65.612167 -100.680375   10.576163    0.000000    0.000000    0.000000    0.000000
  0.038837675   -3.239653   63.499020 -101.012966    8.429325    0.000000    0.000000    0.000000    0.000000
  0.039038076   -3.287531   61.388393 -100.398022   19.326334    0.000000    0.000000    0.000000    0.000000
  0.039238477   -3.336652   59.319660 -100.168145   23.590219    0.000000    0.000000    0.000000    0.000000
  0.039438878   -3.390493   57.283531 -101.244457   21.556183    0.000000    0.000000    0.000000    0.000000
  0.039639279   -3.442984   55.253704  -99.735433   15.145746    0.000000    0.000000    0.000000    0.000000
  0.039839679   -3.499491   53.175930 -100.095383   16.910152    0.000000    0.000000    0.000000    0.000000
  0.040040080   -3.557387   51.107708  -99.066660    0.054031    0.000000    0.000000    0.000000    0.000000
  0.040240481   -3.615936   49.015007  -99.431490   12.918162    0.000000    0.000000    0.000000    0.000000
  0.040440882   -3.677328   46.933472  -99.892370    5.808572    0.000000    0.000000    0.000000    0.000000
  0.040641283   -3.735017   44.835453  -99.626209    3.655160    0.000000    0.000000    0.000000    0.000000
  0.040841683   -3.787808   42.733204  -98.854477    3.058291    0.000000    0.000000    0.000000    0.000000
  0.041042084   -3.841808   40.668434  -99.919224    6.324526    0.000000    0.000000    0.000000    0.000000
  0.041242485   -3.894015   38.572220  -99.952625   -2.136728    0.000000    0.000000    0.000000    0.000000
  0.041442886   -3.944916   36.488495 -100.435170    2.020923    0.000000    0.000000    0.000000    0.000000
  0.041643287   -3.994669   34.400009 -100.287075    6.112486    0.000000    0.000000    0.000000    0.000000
  0.041843687   -4.045124   32.336990 -101.344053    0.361304    0.000000    0.000000    0.000000    0.000000
  0.042044088   -4.088616   30.295839  -99.717663    4.538620    0.000000    0.000000    0.000000    0.000000
  0.042244489   -4.134814   28.273451 -102.267464    1.428292    0.000000    0.000000    0.000000    0.000000
  0.042444890   -4.182094   26.294287  -99.980685    0.202798    0.000000    0.000000    0.000000    0.000000
  0.042645291   -4.231514   24.299208 -102.039956    7.365699    0.000000    0.000000    0.000000    0.000000
  0.042845691   -4.281127   22.340290 -100.143843   -1.039603    0.000000    0.000000    0.000000    0.000000
  0.043046092   -4.327829   20.392265 -103.046031    7.894465    0.000000    0.000000    0.000000    0.000000
  0.043246493   -4.377291   18.427362 -102.700128   -3.065580    0.000000    0.000000    0.000000    0.000000
  0.043446894   -4.428178   16.506977 -102.572560   -7.846686    0.000000    0.000000    0.000000    0.000000
  0.043647295   -4.477970   14.577349 -102.558167   11.541683    0.000000    0.000000    0.000000    0.000000
  0.043847695   -4.531517   12.658366 -104.008270    4.287307    0.000000    0.000000    0.000000    0.000000
  0.044048096   -4.585690   10.744600 -103.595583   10.984779    0.000000    0.000000    0.000000    0.000000
  0.044248497   -4.643263    8.859133 -101.632345    4.018434    0.000000    0.000000    0.000000    0.000000
  0.044448898   -4.696003    6.957301 -103.494729   23.880108    0.000000    0.000000    0.000000    0.000000
  0.044649299   -4.747849    5.062601 -102.112789   19.064423    0.000000    0.000000    0.000000    0.000000
  0.044849699   -4.800995    3.172968 -101.021000   19.284233    0.000000    0.000000    0.000000    0.000000
  0.045050100   -4.850623    1.280833 -102.283704   -8.054744    0.000000    0.000000    0.000000    0.000000
  0.045250501   -4.900233   -0.614443 -103.054850    4.392492    0.000000    0.000000    0.000000    0.000000
  0.045450902   -4.947334   -2.490536 -101.896399    6.643225    0.000000    0.000000    0.000000    0.000000
  0.045651303   -4.993179   -4.363336 -101.244754    3.645763    0.000000    0.000000    0.000000    0.000000
  0.045851703   -5.039722   -6.225946 -101.616133   22.492340    0.000000    0.000000    0.000000    0.000000
  0.046052104   -5.088323   -8.087392 -100.506171    2.147209    0.000000    0.000000    0.000000    0.000000
  0.046252505   -5.132922   -9.928059 -102.947042    1.747744    0.000000    0.000000    0.000000    0.000000
  0.046452906   -5.178997  -11.797448 -100.962410   -1.902431    0.000000    0.000000    0.000000    0.000000
  0.046653307   -5.219011  -13.663150 -100.278344   -0.639668    0.000000    0.000000    0.000000    0.000000
  0.046853707   -5.258489  -15.525291 -100.786067    4.877600    0.000000    0.000000    0.000000    0.000000
  0.047054108   -5.295554  -17.373466 -101.227078    0.935097    0.000000    0.000000    0.000000    0.000000
  0.047254509   -5.329872  -19.231319 -102.565822    4.055925    0.000000    0.000000    0.000000    0.000000
  0.047454910   -5.360767  -21.077238 -101.319689    7.399185    0.000000    0.000000    0.000000    0.000000
  0.047655311   -5.388857  -22.884363 -103.632051   -1.747145    0.000000    0.000000    0.000000    0.000000
  0.047855711   -5.415418  -24.692953 -103.506978    1.440982    0.000000    0.000000    0.000000    0.000000
  0.048056112   -5.440894  -26.482166 -102.774795  -12.707897    0.000000    0.000000    0.000000    0.000000
  0.048256513   -5.466294  -28.283688 -102.620986   -9.893847    0.000000    0.000000    0.000000    0.000000
  0.048456914   -5.489745  -30.051819 -103.726337    3.398543    0.000000    0.000000    0.000000    0.000000
  0.048657315   -5.512624  -31.829214 -104.979525   15.965627    0.000000    0.000000    0.000000    0.000000
  0.048857715   -5.531191  -33.611332 -101.771306   -5.003959    0.000000    0.000000    0.000000    0.000000
  0.049058116   -5.549489  -35.369095 -105.123947  -10.814490    0.000000    0.000000    0.000000    0.000000
  0.049258517   -5.566967  -37.101059 -104.629564    6.195782    0.000000    0.000000    0.000000    0.000000
  0.049458918   -5.583654  -38.808140 -103.178400    6.516971    0.000000    0.000000    0.000000    0.000000
  0.049659319   -5.602692  -40.540859 -103.837267    9.755326    0.000000    0.000000    0.000000    0.000000
  0.049859719   -5.618420  -42.216961 -104.789550    1.973208    0.000000    0.000000    0.000000    0.000000
  0.050060120   -5.638505  -43.905209 -105.387353   33.666931    0.000000    0.000000    0.000000    0.000000
  0.050260521   -5.651885  -45.593960 -102.925390   -8.282729    0.000000    0.000000    0.000000    0.000000
  0.050460922   -5.665812  -47.255348 -102.971979   19.276295    0.000000    0.000000    0.000000    0.000000
  0.050661323   -5.677499  -48.919140 -103.046563    4.488743    0.000000    0.000000    0.000000    0.000000
  0.050861723   -5.693832  -50.556728 -101.117520   12.398525    0.000000    0.000000    0.000000    0.000000
  0.051062124   -5.704375  -52.167564 -103.382934   12.043671    0.000000    0.000000    0.000000    0.000000
  0.051262525   -5.719051  -53.758827 -102.010052   21.332327    0.000000    0.000000    0.000000    0.000000
  0.051462926   -5.733892  -55.333450 -103.173984    1.662977    0.000000    0.000000    0.000000    0.000000
  0.051663327   -5.750874  -56.855186 -102.968004    1.247536    0.000000    0.000000    0.000000    0.000000
  0.051863727   -5.769296  -58.378399 -102.612577   13.400435    0.000000    0.000000    0.000000    0.000000
  0.052064128   -5.786893  -59.909401 -103.464467    5.363026    0.000000    0.000000    0.000000    0.000000
  0.052264529   -5.810022  -61.449730 -102.532278    3.851815    0.000000    0.000000    0.000000    0.000000
  0.052464930   -5.833873  -62.965378 -101.573195   14.096004    0.000000    0.000000    0.000000    0.000000
  0.052665331   -5.859205  -64.521011 -101.300990    1.818479    0.000000    0.000000    0.000000    0.000000
  0.052865731   -5.885040  -66.035957 -103.424090   -6.238417    0.000000    0.000000    0.000000    0.000000
