! Anritsu VNA Master:                     Model: MS2036C/10/77
! SN:                                  1601066
! /bd0/18may26.balun/4a.47.s2p
! Existing Calibration Information:
! TYPE:                         Current Settings,       Active Cal Settings
! TIME:             	   05/26/2018 03:00:03 PM,    05/26/2018 02:51:55 PM
! INTERNAL TEMP:    	                   59.5 C,                    59.5 C
! # POINTS:         	                      500,                       500
! START FREQ:       	               20.000 MHz,                20.000 MHz
! STOP FREQ:        	              120.000 MHz,               120.000 MHz
! SOURCE POWER:     	                     High,                      High
! IFBW:             	                    50 Hz,                     50 Hz
! AVG FACTOR:       	                       1 ,                        1 
! REF PLANE 1:      	                     0 mm,                      0 mm
! REF PLANE 2:      	                     0 mm,                      0 mm
! CAL TYPE:         	                 Full S11,                  Full S11
! CAL METHOD:       	                     SOLT,                      SOLT
! CAL LINE TYPE:    	                     Coax,                      Coax
! DUT PORT 1:       	                K-Conn(M),                 K-Conn(M)
! DUT PORT 2:       	                K-Conn(M),                 K-Conn(M)
! CAL STATUS:       	        OK: Accuracy High,                        --
# GHZ S DB R 50.0
! FREQ.GHZ       S11DB        S11A       S21DB        S21A       S12DB        S12A       S22DB        S22A
  0.020000000   -0.038780  -56.179249  -90.520360   32.533325    0.000000    0.000000    0.000000    0.000000
  0.020200401   -0.034979  -56.755341  -90.375878   32.257793    0.000000    0.000000    0.000000    0.000000
  0.020400802   -0.031830  -57.294613  -90.865997   30.605373    0.000000    0.000000    0.000000    0.000000
  0.020601202   -0.031829  -57.823315  -90.572075   29.025845    0.000000    0.000000    0.000000    0.000000
  0.020801603   -0.029648  -58.378761  -90.945181   31.032179    0.000000    0.000000    0.000000    0.000000
  0.021002004   -0.028941  -58.947128  -91.209931   27.097164    0.000000    0.000000    0.000000    0.000000
  0.021202405   -0.029998  -59.493031  -91.541902   28.144604    0.000000    0.000000    0.000000    0.000000
  0.021402806   -0.029770  -60.038509  -91.885200   23.170303    0.000000    0.000000    0.000000    0.000000
  0.021603206   -0.032851  -60.561943  -92.534649   24.140553    0.000000    0.000000    0.000000    0.000000
  0.021803607   -0.037726  -61.087696  -92.678237   27.361393    0.000000    0.000000    0.000000    0.000000
  0.022004008   -0.040140  -61.603287  -93.107015   22.969467    0.000000    0.000000    0.000000    0.000000
  0.022204409   -0.041445  -62.147442  -93.442640   26.157290    0.000000    0.000000    0.000000    0.000000
  0.022404810   -0.042794  -62.711559  -93.410038   26.259415    0.000000    0.000000    0.000000    0.000000
  0.022605210   -0.043576  -63.280693  -92.887593   29.938444    0.000000    0.000000    0.000000    0.000000
  0.022805611   -0.046271  -63.817982  -94.118488   28.469076    0.000000    0.000000    0.000000    0.000000
  0.023006012   -0.038711  -64.368553  -93.413429   30.739489    0.000000    0.000000    0.000000    0.000000
  0.023206413   -0.030438  -64.935394  -92.999040   34.099594    0.000000    0.000000    0.000000    0.000000
  0.023406814   -0.022733  -65.503487  -93.685066   28.953173    0.000000    0.000000    0.000000    0.000000
  0.023607214   -0.022403  -66.062607  -93.875988   30.066483    0.000000    0.000000    0.000000    0.000000
  0.023807615   -0.019959  -66.590576  -92.958801   33.653545    0.000000    0.000000    0.000000    0.000000
  0.024008016   -0.024448  -67.084175  -93.029414   25.329807    0.000000    0.000000    0.000000    0.000000
  0.024208417   -0.028676  -67.590385  -93.784051   30.626385    0.000000    0.000000    0.000000    0.000000
  0.024408818   -0.035266  -68.055191  -93.438954   23.123577    0.000000    0.000000    0.000000    0.000000
  0.024609218   -0.040145  -68.563660  -93.189379   23.188663    0.000000    0.000000    0.000000    0.000000
  0.024809619   -0.047055  -69.096092  -93.852428   26.278671    0.000000    0.000000    0.000000    0.000000
  0.025010020   -0.049434  -69.660286  -92.760218   23.182514    0.000000    0.000000    0.000000    0.000000
  0.025210421   -0.053305  -70.237762  -93.603860   21.109154    0.000000    0.000000    0.000000    0.000000
  0.025410822   -0.055800  -70.808777  -94.628620   20.086779    0.000000    0.000000    0.000000    0.000000
  0.025611222   -0.054474  -71.398003  -94.084494   20.809475    0.000000    0.000000    0.000000    0.000000
  0.025811623   -0.055516  -71.962662  -94.780014   14.233821    0.000000    0.000000    0.000000    0.000000
  0.026012024   -0.054294  -72.517830  -95.984658   14.144527    0.000000    0.000000    0.000000    0.000000
  0.026212425   -0.051153  -73.069649  -95.097767   15.699248    0.000000    0.000000    0.000000    0.000000
  0.026412826   -0.046908  -73.606895  -95.724864   15.966696    0.000000    0.000000    0.000000    0.000000
  0.026613226   -0.049491  -74.128197  -95.672307   17.562967    0.000000    0.000000    0.000000    0.000000
  0.026813627   -0.054372  -74.608849  -95.804292   19.581392    0.000000    0.000000    0.000000    0.000000
  0.027014028   -0.057477  -75.079521  -96.018504   23.418930    0.000000    0.000000    0.000000    0.000000
  0.027214429   -0.064097  -75.558548  -96.660953   20.303204    0.000000    0.000000    0.000000    0.000000
  0.027414830   -0.076098  -76.092766  -96.136486   19.967010    0.000000    0.000000    0.000000    0.000000
  0.027615230   -0.081119  -76.656685  -96.253608   18.014330    0.000000    0.000000    0.000000    0.000000
  0.027815631   -0.086270  -77.254463  -95.696318   17.861120    0.000000    0.000000    0.000000    0.000000
  0.028016032   -0.086197  -77.855110  -97.505675   21.104891    0.000000    0.000000    0.000000    0.000000
  0.028216433   -0.079009  -78.476677  -96.711189   26.191267    0.000000    0.000000    0.000000    0.000000
  0.028416834   -0.072950  -79.084694  -96.257635   21.287222    0.000000    0.000000    0.000000    0.000000
  0.028617234   -0.062708  -79.666328  -97.202227   26.668545    0.000000    0.000000    0.000000    0.000000
  0.028817635   -0.053985  -80.233459  -95.397398   24.258041    0.000000    0.000000    0.000000    0.000000
  0.029018036   -0.043450  -80.744133  -96.177369   23.713156    0.000000    0.000000    0.000000    0.000000
  0.029218437   -0.033873  -81.211670  -96.697230   16.991005    0.000000    0.000000    0.000000    0.000000
  0.029418838   -0.027492  -81.644119  -96.749490   14.490641    0.000000    0.000000    0.000000    0.000000
  0.029619238   -0.024292  -82.095345  -95.647651   16.765478    0.000000    0.000000    0.000000    0.000000
  0.029819639   -0.025170  -82.542389  -96.241893   13.483509    0.000000    0.000000    0.000000    0.000000
  0.030020040   -0.029393  -83.018387  -96.106881   19.820356    0.000000    0.000000    0.000000    0.000000
  0.030220441   -0.036608  -83.509621  -97.311664    9.980302    0.000000    0.000000    0.000000    0.000000
  0.030420842   -0.048265  -84.039291  -96.610998   12.764303    0.000000    0.000000    0.000000    0.000000
  0.030621242   -0.058756  -84.592552  -97.577700   16.945934    0.000000    0.000000    0.000000    0.000000
  0.030821643   -0.061535  -85.150490  -97.728265   12.990477    0.000000    0.000000    0.000000    0.000000
  0.031022044   -0.064600  -85.710648  -98.052013   13.506418    0.000000    0.000000    0.000000    0.000000
  0.031222445   -0.062628  -86.250000  -97.309012   11.225235    0.000000    0.000000    0.000000    0.000000
  0.031422846   -0.066834  -86.800308  -98.439052   11.055367    0.000000    0.000000    0.000000    0.000000
  0.031623246   -0.068028  -87.327019  -98.063985   15.157482    0.000000    0.000000    0.000000    0.000000
  0.031823647   -0.065704  -87.860184  -97.365088    6.640356    0.000000    0.000000    0.000000    0.000000
  0.032024048   -0.063350  -88.329132  -97.507736    8.388636    0.000000    0.000000    0.000000    0.000000
  0.032224449   -0.063248  -88.788826  -98.832038    5.927639    0.000000    0.000000    0.000000    0.000000
  0.032424850   -0.068108  -89.256905  -97.631861    7.718556    0.000000    0.000000    0.000000    0.000000
  0.032625251   -0.076689  -89.734444  -99.303957   22.156412    0.000000    0.000000    0.000000    0.000000
  0.032825651   -0.086267  -90.219330  -98.177130   13.990730    0.000000    0.000000    0.000000    0.000000
  0.033026052   -0.095678  -90.760445  -98.827590    9.667234    0.000000    0.000000    0.000000    0.000000
  0.033226453   -0.100175  -91.312073  -99.001194    9.628651    0.000000    0.000000    0.000000    0.000000
  0.033426854   -0.105993  -91.882668  -97.524789    8.928103    0.000000    0.000000    0.000000    0.000000
  0.033627255   -0.108257  -92.465012  -99.407540   18.543007    0.000000    0.000000    0.000000    0.000000
  0.033827655   -0.109610  -93.075272  -98.416727   10.991220    0.000000    0.000000    0.000000    0.000000
  0.034028056   -0.108670  -93.644226  -98.350850   12.876822    0.000000    0.000000    0.000000    0.000000
  0.034228457   -0.103249  -94.226585  -96.962486   16.918739    0.000000    0.000000    0.000000    0.000000
  0.034428858   -0.091773  -94.785179  -97.384404    6.271356    0.000000    0.000000    0.000000    0.000000
  0.034629259   -0.081443  -95.298744  -97.291351   10.917536    0.000000    0.000000    0.000000    0.000000
  0.034829659   -0.071316  -95.806099  -98.733176    1.119423    0.000000    0.000000    0.000000    0.000000
  0.035030060   -0.066062  -96.285774  -98.700672    8.284428    0.000000    0.000000    0.000000    0.000000
  0.035230461   -0.059259  -96.747726  -99.086283   -0.678249    0.000000    0.000000    0.000000    0.000000
  0.035430862   -0.060666  -97.202042  -97.567830    6.745099    0.000000    0.000000    0.000000    0.000000
  0.035631263   -0.065697  -97.654182  -98.951145    4.757246    0.000000    0.000000    0.000000    0.000000
  0.035831663   -0.072343  -98.133232  -99.204291    5.278037    0.000000    0.000000    0.000000    0.000000
  0.036032064   -0.080854  -98.664413 -100.850407    6.921700    0.000000    0.000000    0.000000    0.000000
  0.036232465   -0.089714  -99.199928  -98.545602   -2.413523    0.000000    0.000000    0.000000    0.000000
  0.036432866   -0.096087  -99.773079  -99.603652    9.004149    0.000000    0.000000    0.000000    0.000000
  0.036633267   -0.102263 -100.329559  -99.321292    6.010027    0.000000    0.000000    0.000000    0.000000
  0.036833667   -0.102684 -100.877731 -100.466989   12.175003    0.000000    0.000000    0.000000    0.000000
  0.037034068   -0.102197 -101.404419 -101.503461    4.019608    0.000000    0.000000    0.000000    0.000000
  0.037234469   -0.095029 -101.936974 -101.222933    8.804889    0.000000    0.000000    0.000000    0.000000
  0.037434870   -0.083355 -102.400093 -100.126640   27.363220    0.000000    0.000000    0.000000    0.000000
  0.037635271   -0.078805 -102.830269 -100.060770   17.332420    0.000000    0.000000    0.000000    0.000000
  0.037835671   -0.076697 -103.271950  -99.778297    7.360388    0.000000    0.000000    0.000000    0.000000
  0.038036072   -0.083572 -103.707130 -100.477794    8.314629    0.000000    0.000000    0.000000    0.000000
  0.038236473   -0.092801 -104.193344 -100.956900    3.791525    0.000000    0.000000    0.000000    0.000000
  0.038436874   -0.098286 -104.673538  -99.073268    6.693563    0.000000    0.000000    0.000000    0.000000
  0.038637275   -0.104860 -105.169540  -99.656852   13.785727    0.000000    0.000000    0.000000    0.000000
  0.038837675   -0.112210 -105.677025  -99.032247    6.520304    0.000000    0.000000    0.000000    0.000000
  0.039038076   -0.119795 -106.214836  -99.985808    4.435773    0.000000    0.000000    0.000000    0.000000
  0.039238477   -0.128577 -106.768730  -99.275373    2.048127    0.000000    0.000000    0.000000    0.000000
  0.039438878   -0.131251 -107.327171  -99.561226    0.288570    0.000000    0.000000    0.000000    0.000000
  0.039639279   -0.130648 -107.882820 -100.825709    6.912359    0.000000    0.000000    0.000000    0.000000
  0.039839679   -0.124604 -108.432030 -100.264359    5.220036    0.000000    0.000000    0.000000    0.000000
  0.040040080   -0.116470 -108.940086 -101.025956    2.389419    0.000000    0.000000    0.000000    0.000000
  0.040240481   -0.110573 -109.435844  -98.800474   -2.368709    0.000000    0.000000    0.000000    0.000000
  0.040440882   -0.104482 -109.936470 -100.097386    2.062559    0.000000    0.000000    0.000000    0.000000
  0.040641283   -0.101722 -110.412209 -101.054654    5.351616    0.000000    0.000000    0.000000    0.000000
  0.040841683   -0.097204 -110.897583 -101.920921   -0.572880    0.000000    0.000000    0.000000    0.000000
  0.041042084   -0.100881 -111.389946 -101.601445    4.100063    0.000000    0.000000    0.000000    0.000000
  0.041242485   -0.108138 -111.840118 -102.094814    7.055473    0.000000    0.000000    0.000000    0.000000
  0.041442886   -0.117509 -112.314865 -104.531787   -3.001695    0.000000    0.000000    0.000000    0.000000
  0.041643287   -0.130168 -112.833282 -101.663290   18.228140    0.000000    0.000000    0.000000    0.000000
  0.041843687   -0.137859 -113.389198 -101.233928    8.796749    0.000000    0.000000    0.000000    0.000000
  0.042044088   -0.141331 -113.907791 -102.119396    4.416192    0.000000    0.000000    0.000000    0.000000
  0.042244489   -0.135615 -114.459152 -103.009195    3.217423    0.000000    0.000000    0.000000    0.000000
  0.042444890   -0.130794 -115.000771 -101.169663    9.286417    0.000000    0.000000    0.000000    0.000000
  0.042645291   -0.120339 -115.486313 -100.668572   16.696730    0.000000    0.000000    0.000000    0.000000
  0.042845691   -0.112313 -115.932259 -101.288286   23.251034    0.000000    0.000000    0.000000    0.000000
  0.043046092   -0.111896 -116.380379 -100.960493    5.118330    0.000000    0.000000    0.000000    0.000000
  0.043246493   -0.114192 -116.816605 -102.458444    6.888781    0.000000    0.000000    0.000000    0.000000
  0.043446894   -0.115920 -117.284897 -100.537320    1.603792    0.000000    0.000000    0.000000    0.000000
  0.043647295   -0.121394 -117.716164 -100.383490   18.990646    0.000000    0.000000    0.000000    0.000000
  0.043847695   -0.125233 -118.204781 -100.844966    9.605985    0.000000    0.000000    0.000000    0.000000
  0.044048096   -0.130233 -118.665657  -99.154764    9.188645    0.000000    0.000000    0.000000    0.000000
  0.044248497   -0.138451 -119.146393 -101.946447    6.313210    0.000000    0.000000    0.000000    0.000000
  0.044448898   -0.144111 -119.649231 -102.051945   -1.318433    0.000000    0.000000    0.000000    0.000000
  0.044649299   -0.147109 -120.188324  -99.660025    1.143719    0.000000    0.000000    0.000000    0.000000
  0.044849699   -0.149111 -120.690765 -101.464447    5.920353    0.000000    0.000000    0.000000    0.000000
  0.045050100   -0.148372 -121.195625 -101.143814   -9.051360    0.000000    0.000000    0.000000    0.000000
  0.045250501   -0.144882 -121.666298 -100.462706   -1.375046    0.000000    0.000000    0.000000    0.000000
  0.045450902   -0.143525 -122.168793 -102.055499   -8.618311    0.000000    0.000000    0.000000    0.000000
  0.045651303   -0.139507 -122.666893 -102.423131   -4.127386    0.000000    0.000000    0.000000    0.000000
  0.045851703   -0.137431 -123.165115 -105.585897   -1.419328    0.000000    0.000000    0.000000    0.000000
  0.046052104   -0.136524 -123.657570 -104.770369   -3.020875    0.000000    0.000000    0.000000    0.000000
  0.046252505   -0.132791 -124.139206 -102.537784   -9.072255    0.000000    0.000000    0.000000    0.000000
  0.046452906   -0.134398 -124.590668 -104.556458   -4.847677    0.000000    0.000000    0.000000    0.000000
  0.046653307   -0.138898 -125.039154 -104.041090   13.431615    0.000000    0.000000    0.000000    0.000000
  0.046853707   -0.148739 -125.520081 -102.881340   13.286964    0.000000    0.000000    0.000000    0.000000
  0.047054108   -0.157725 -126.029350 -103.470188    2.770379    0.000000    0.000000    0.000000    0.000000
  0.047254509   -0.162955 -126.566231 -102.619410    1.258817    0.000000    0.000000    0.000000    0.000000
  0.047454910   -0.160781 -127.090996 -104.037897   14.333100    0.000000    0.000000    0.000000    0.000000
  0.047655311   -0.158931 -127.599670 -102.638197    1.576665    0.000000    0.000000    0.000000    0.000000
  0.047855711   -0.150089 -128.085907 -100.713650    0.489705    0.000000    0.000000    0.000000    0.000000
  0.048056112   -0.145288 -128.540924 -102.542723   11.257259    0.000000    0.000000    0.000000    0.000000
  0.048256513   -0.143813 -128.999969 -100.132649   -3.763847    0.000000    0.000000    0.000000    0.000000
  0.048456914   -0.143805 -129.446732 -100.359382   -2.352886    0.000000    0.000000    0.000000    0.000000
  0.048657315   -0.142191 -129.884262 -101.720048    4.296066    0.000000    0.000000    0.000000    0.000000
  0.048857715   -0.145800 -130.336563 -100.175374    1.047535    0.000000    0.000000    0.000000    0.000000
  0.049058116   -0.151093 -130.766693 -102.903972    2.570037    0.000000    0.000000    0.000000    0.000000
  0.049258517   -0.159172 -131.216934 -103.827213   -8.716364    0.000000    0.000000    0.000000    0.000000
  0.049458918   -0.164811 -131.678894 -101.044222   -0.507759    0.000000    0.000000    0.000000    0.000000
  0.049659319   -0.167797 -132.168488 -102.667951   -4.780289    0.000000    0.000000    0.000000    0.000000
  0.049859719   -0.171132 -132.665329 -102.714744   -8.252092    0.000000    0.000000    0.000000    0.000000
  0.050060120   -0.170245 -133.136276 -101.602813  -13.300844    0.000000    0.000000    0.000000    0.000000
  0.050260521   -0.172652 -133.607590 -103.957665   -5.516110    0.000000    0.000000    0.000000    0.000000
  0.050460922   -0.172975 -134.074844 -104.278106  -22.490423    0.000000    0.000000    0.000000    0.000000
  0.050661323   -0.172862 -134.565582 -103.605314  -16.217634    0.000000    0.000000    0.000000    0.000000
  0.050861723   -0.174489 -135.075821 -107.795307   -3.169369    0.000000    0.000000    0.000000    0.000000
  0.051062124   -0.171172 -135.565903 -105.573210   -0.181969    0.000000    0.000000    0.000000    0.000000
  0.051262525   -0.171255 -136.053284 -108.221895  -12.002493    0.000000    0.000000    0.000000    0.000000
  0.051462926   -0.168805 -136.542419 -105.331933   -5.504322    0.000000    0.000000    0.000000    0.000000
  0.051663327   -0.167971 -136.984207 -105.551201   25.231430    0.000000    0.000000    0.000000    0.000000
  0.051863727   -0.172205 -137.419342 -105.650717   -4.573070    0.000000    0.000000    0.000000    0.000000
  0.052064128   -0.178788 -137.882950 -102.665643    2.406608    0.000000    0.000000    0.000000    0.000000
  0.052264529   -0.184622 -138.337372 -103.698253   16.465204    0.000000    0.000000    0.000000    0.000000
  0.052464930   -0.188561 -138.850891 -104.878770   20.592924    0.000000    0.000000    0.000000    0.000000
  0.052665331   -0.188312 -139.343689 -102.351371   26.112324    0.000000    0.000000    0.000000    0.000000
  0.052865731   -0.186019 -139.845154 -101.434474   19.261477    0.000000    0.000000    0.000000    0.000000
