! Anritsu VNA Master:                     Model: MS2036C/10/77
! SN:                                  1601066
! /bd0/18may26.balun/4a.r20.s2p
! Existing Calibration Information:
! TYPE:                         Current Settings,       Active Cal Settings
! TIME:             	   05/26/2018 03:05:38 PM,    05/26/2018 02:51:55 PM
! INTERNAL TEMP:    	                   59.3 C,                    59.5 C
! # POINTS:         	                      500,                       500
! START FREQ:       	               20.000 MHz,                20.000 MHz
! STOP FREQ:        	              120.000 MHz,               120.000 MHz
! SOURCE POWER:     	                     High,                      High
! IFBW:             	                    50 Hz,                     50 Hz
! AVG FACTOR:       	                       1 ,                        1 
! REF PLANE 1:      	                     0 mm,                      0 mm
! REF PLANE 2:      	                     0 mm,                      0 mm
! CAL TYPE:         	                 Full S11,                  Full S11
! CAL METHOD:       	                     SOLT,                      SOLT
! CAL LINE TYPE:    	                     Coax,                      Coax
! DUT PORT 1:       	                K-Conn(M),                 K-Conn(M)
! DUT PORT 2:       	                K-Conn(M),                 K-Conn(M)
! CAL STATUS:       	        OK: Accuracy High,                        --
# GHZ S DB R 50.0
! FREQ.GHZ       S11DB        S11A       S21DB        S21A       S12DB        S12A       S22DB        S22A
  0.020000000   -7.295518  154.371521  -91.911139   35.537468    0.000000    0.000000    0.000000    0.000000
  0.020200401   -7.294237  154.121887  -91.930416   31.945492    0.000000    0.000000    0.000000    0.000000
  0.020400802   -7.296760  153.886536  -92.289401   33.477627    0.000000    0.000000    0.000000    0.000000
  0.020601202   -7.295134  153.593048  -91.976726   38.090965    0.000000    0.000000    0.000000    0.000000
  0.020801603   -7.292936  153.350113  -92.083810   33.164803    0.000000    0.000000    0.000000    0.000000
  0.021002004   -7.288798  153.093185  -92.155200   36.950008    0.000000    0.000000    0.000000    0.000000
  0.021202405   -7.290170  152.825317  -92.313393   34.848812    0.000000    0.000000    0.000000    0.000000
  0.021402806   -7.293258  152.561462  -92.252646   32.849724    0.000000    0.000000    0.000000    0.000000
  0.021603206   -7.294644  152.309738  -92.263606   30.669916    0.000000    0.000000    0.000000    0.000000
  0.021803607   -7.298147  152.055191  -92.075816   31.542349    0.000000    0.000000    0.000000    0.000000
  0.022004008   -7.304004  151.798584  -92.276060   34.960114    0.000000    0.000000    0.000000    0.000000
  0.022204409   -7.302959  151.556503  -92.648516   31.657709    0.000000    0.000000    0.000000    0.000000
  0.022404810   -7.301156  151.279572  -92.456674   31.969378    0.000000    0.000000    0.000000    0.000000
  0.022605210   -7.305505  151.039505  -92.066326   23.825146    0.000000    0.000000    0.000000    0.000000
  0.022805611   -7.308351  150.754379  -93.310193   30.206911    0.000000    0.000000    0.000000    0.000000
  0.023006012   -7.306657  150.518524  -92.628998   24.363501    0.000000    0.000000    0.000000    0.000000
  0.023206413   -7.301093  150.229340  -93.627826   26.958914    0.000000    0.000000    0.000000    0.000000
  0.023406814   -7.299650  149.966141  -93.424080   29.809914    0.000000    0.000000    0.000000    0.000000
  0.023607214   -7.296041  149.655960  -93.089810   22.639687    0.000000    0.000000    0.000000    0.000000
  0.023807615   -7.293797  149.409409  -93.393486   25.374121    0.000000    0.000000    0.000000    0.000000
  0.024008016   -7.292617  149.148270  -93.262279   22.232260    0.000000    0.000000    0.000000    0.000000
  0.024208417   -7.290491  148.930984  -93.536524   18.232285    0.000000    0.000000    0.000000    0.000000
  0.024408818   -7.292337  148.698029  -94.289544   21.979595    0.000000    0.000000    0.000000    0.000000
  0.024609218   -7.296803  148.480713  -93.977336   20.379412    0.000000    0.000000    0.000000    0.000000
  0.024809619   -7.295721  148.263611  -94.571110   21.938456    0.000000    0.000000    0.000000    0.000000
  0.025010020   -7.296059  148.042099  -94.984060   22.110527    0.000000    0.000000    0.000000    0.000000
  0.025210421   -7.301244  147.790482  -94.946960   22.122856    0.000000    0.000000    0.000000    0.000000
  0.025410822   -7.305615  147.521439  -94.376668   21.978746    0.000000    0.000000    0.000000    0.000000
  0.025611222   -7.310472  147.281693  -95.672332   24.923536    0.000000    0.000000    0.000000    0.000000
  0.025811623   -7.305661  147.002060  -94.346388   22.937605    0.000000    0.000000    0.000000    0.000000
  0.026012024   -7.304800  146.718750  -94.865036   26.066204    0.000000    0.000000    0.000000    0.000000
  0.026212425   -7.300532  146.453934  -95.326201   17.296774    0.000000    0.000000    0.000000    0.000000
  0.026412826   -7.302503  146.179855  -94.868081   16.045052    0.000000    0.000000    0.000000    0.000000
  0.026613226   -7.301585  145.929230  -95.803265   23.674725    0.000000    0.000000    0.000000    0.000000
  0.026813627   -7.300277  145.709229  -95.957874   21.797604    0.000000    0.000000    0.000000    0.000000
  0.027014028   -7.303264  145.468933  -95.406992   20.920835    0.000000    0.000000    0.000000    0.000000
  0.027214429   -7.306121  145.276230  -96.550997   15.999196    0.000000    0.000000    0.000000    0.000000
  0.027414830   -7.304699  145.057114  -95.141676   18.335268    0.000000    0.000000    0.000000    0.000000
  0.027615230   -7.310190  144.819351  -95.982606   16.513084    0.000000    0.000000    0.000000    0.000000
  0.027815631   -7.314527  144.550568  -95.652862   18.489759    0.000000    0.000000    0.000000    0.000000
  0.028016032   -7.318207  144.257217  -95.812033   16.798901    0.000000    0.000000    0.000000    0.000000
  0.028216433   -7.321353  143.961945  -95.355701   16.052708    0.000000    0.000000    0.000000    0.000000
  0.028416834   -7.320667  143.659348  -95.760226   13.637482    0.000000    0.000000    0.000000    0.000000
  0.028617234   -7.321215  143.370132  -96.780516   14.859217    0.000000    0.000000    0.000000    0.000000
  0.028817635   -7.319756  143.063400  -96.006983   12.128715    0.000000    0.000000    0.000000    0.000000
  0.029018036   -7.315319  142.774673  -95.876554   15.233987    0.000000    0.000000    0.000000    0.000000
  0.029218437   -7.313935  142.489456  -96.166817   20.314676    0.000000    0.000000    0.000000    0.000000
  0.029418838   -7.308304  142.240753  -97.233252   17.073116    0.000000    0.000000    0.000000    0.000000
  0.029619238   -7.301154  142.022980  -96.918769   11.519328    0.000000    0.000000    0.000000    0.000000
  0.029819639   -7.296125  141.810837  -96.361198   13.414291    0.000000    0.000000    0.000000    0.000000
  0.030020040   -7.293160  141.628815  -96.819491   17.991467    0.000000    0.000000    0.000000    0.000000
  0.030220441   -7.291049  141.424515  -97.274355   16.239752    0.000000    0.000000    0.000000    0.000000
  0.030420842   -7.295905  141.239670  -97.361332   20.010664    0.000000    0.000000    0.000000    0.000000
  0.030621242   -7.301864  141.015976  -97.058739   16.505859    0.000000    0.000000    0.000000    0.000000
  0.030821643   -7.309717  140.750717  -97.253540   16.537674    0.000000    0.000000    0.000000    0.000000
  0.031022044   -7.310987  140.474136  -97.569206   13.897905    0.000000    0.000000    0.000000    0.000000
  0.031222445   -7.301669  140.219437  -97.990069   17.906939    0.000000    0.000000    0.000000    0.000000
  0.031422846   -7.304980  139.940857  -98.447075    8.890377    0.000000    0.000000    0.000000    0.000000
  0.031623246   -7.308632  139.648026  -97.714476   15.555935    0.000000    0.000000    0.000000    0.000000
  0.031823647   -7.305828  139.401764  -97.260352   22.173185    0.000000    0.000000    0.000000    0.000000
  0.032024048   -7.304706  139.112671  -97.165409   14.560740    0.000000    0.000000    0.000000    0.000000
  0.032224449   -7.298460  138.838715  -97.295173   11.264421    0.000000    0.000000    0.000000    0.000000
  0.032424850   -7.292267  138.615540  -97.932215    8.327770    0.000000    0.000000    0.000000    0.000000
  0.032625251   -7.288071  138.358948  -98.604933    7.498040    0.000000    0.000000    0.000000    0.000000
  0.032825651   -7.288028  138.102844  -97.611848    6.703404    0.000000    0.000000    0.000000    0.000000
  0.033026052   -7.289288  137.873337  -97.710369    5.724872    0.000000    0.000000    0.000000    0.000000
  0.033226453   -7.292380  137.616486  -97.425695   14.436486    0.000000    0.000000    0.000000    0.000000
  0.033426854   -7.294493  137.346832  -99.840609    7.723580    0.000000    0.000000    0.000000    0.000000
  0.033627255   -7.298633  137.085373  -98.967253    5.845648    0.000000    0.000000    0.000000    0.000000
  0.033827655   -7.300318  136.775116  -98.015517    9.711427    0.000000    0.000000    0.000000    0.000000
  0.034028056   -7.300319  136.476776  -99.980834   13.949375    0.000000    0.000000    0.000000    0.000000
  0.034228457   -7.303543  136.179596  -97.910301    9.640625    0.000000    0.000000    0.000000    0.000000
  0.034428858   -7.302233  135.911926  -99.041611   10.994615    0.000000    0.000000    0.000000    0.000000
  0.034629259   -7.300918  135.652786  -98.403208    3.733368    0.000000    0.000000    0.000000    0.000000
  0.034829659   -7.292690  135.401413  -99.032369   17.236879    0.000000    0.000000    0.000000    0.000000
  0.035030060   -7.281266  135.137527  -97.049428    1.127927    0.000000    0.000000    0.000000    0.000000
  0.035230461   -7.274012  134.908081  -98.597462    5.093529    0.000000    0.000000    0.000000    0.000000
  0.035430862   -7.261822  134.683029 -100.502094   11.217214    0.000000    0.000000    0.000000    0.000000
  0.035631263   -7.253412  134.502533  -98.347795    9.598373    0.000000    0.000000    0.000000    0.000000
  0.035831663   -7.255616  134.366577  -97.548293   10.852541    0.000000    0.000000    0.000000    0.000000
  0.036032064   -7.258015  134.198029  -99.154864   14.741671    0.000000    0.000000    0.000000    0.000000
  0.036232465   -7.265881  133.991150  -98.800492   10.806079    0.000000    0.000000    0.000000    0.000000
  0.036432866   -7.276145  133.768005  -98.478229   -3.730765    0.000000    0.000000    0.000000    0.000000
  0.036633267   -7.283480  133.509399  -98.808256   10.653781    0.000000    0.000000    0.000000    0.000000
  0.036833667   -7.296128  133.245560 -100.053309    5.694319    0.000000    0.000000    0.000000    0.000000
  0.037034068   -7.297409  132.967148  -98.787207   15.217137    0.000000    0.000000    0.000000    0.000000
  0.037234469   -7.300928  132.708572  -99.073757    4.854604    0.000000    0.000000    0.000000    0.000000
  0.037434870   -7.303854  132.411469 -100.878548    7.692018    0.000000    0.000000    0.000000    0.000000
  0.037635271   -7.299790  132.147995  -98.195327   -3.473166    0.000000    0.000000    0.000000    0.000000
  0.037835671   -7.295722  131.873535  -99.946205    2.658090    0.000000    0.000000    0.000000    0.000000
  0.038036072   -7.291634  131.590439  -99.757392    6.246384    0.000000    0.000000    0.000000    0.000000
  0.038236473   -7.287604  131.375046  -99.736050    3.501833    0.000000    0.000000    0.000000    0.000000
  0.038436874   -7.289397  131.133713  -99.126220    7.955110    0.000000    0.000000    0.000000    0.000000
  0.038637275   -7.296597  130.871414 -100.081090    0.707873    0.000000    0.000000    0.000000    0.000000
  0.038837675   -7.300570  130.613983 -102.343858    1.621112    0.000000    0.000000    0.000000    0.000000
  0.039038076   -7.305969  130.321533 -100.405454   11.551504    0.000000    0.000000    0.000000    0.000000
  0.039238477   -7.306012  130.025635 -101.940717    4.082440    0.000000    0.000000    0.000000    0.000000
  0.039438878   -7.307062  129.700790 -100.153207   12.865613    0.000000    0.000000    0.000000    0.000000
  0.039639279   -7.305215  129.413422 -102.290843    9.770863    0.000000    0.000000    0.000000    0.000000
  0.039839679   -7.302216  129.148071 -100.886587   -5.310301    0.000000    0.000000    0.000000    0.000000
  0.040040080   -7.295505  128.852554 -101.790045   -8.975156    0.000000    0.000000    0.000000    0.000000
  0.040240481   -7.288246  128.599915 -103.091141    3.745265    0.000000    0.000000    0.000000    0.000000
  0.040440882   -7.274244  128.331100 -100.331210    2.396550    0.000000    0.000000    0.000000    0.000000
  0.040641283   -7.262747  128.069565  -99.839736   -5.483996    0.000000    0.000000    0.000000    0.000000
  0.040841683   -7.254763  127.872238 -102.248876    6.541570    0.000000    0.000000    0.000000    0.000000
  0.041042084   -7.246979  127.711792 -100.268301   13.700351    0.000000    0.000000    0.000000    0.000000
  0.041242485   -7.239863  127.535202 -101.423836   -0.310068    0.000000    0.000000    0.000000    0.000000
  0.041442886   -7.244907  127.394859 -100.671152   11.819802    0.000000    0.000000    0.000000    0.000000
  0.041643287   -7.248852  127.231178 -100.801327    7.868996    0.000000    0.000000    0.000000    0.000000
  0.041843687   -7.257290  127.032967 -100.044278   10.436406    0.000000    0.000000    0.000000    0.000000
  0.042044088   -7.265571  126.781059  -99.890535   -0.458276    0.000000    0.000000    0.000000    0.000000
  0.042244489   -7.269131  126.594986 -100.316730    1.146186    0.000000    0.000000    0.000000    0.000000
  0.042444890   -7.272910  126.333023 -100.038518    5.626964    0.000000    0.000000    0.000000    0.000000
  0.042645291   -7.278505  126.093697 -101.648254   -8.973866    0.000000    0.000000    0.000000    0.000000
  0.042845691   -7.282904  125.836006 -100.838379    4.445702    0.000000    0.000000    0.000000    0.000000
  0.043046092   -7.278990  125.537880 -100.825015   -0.009561    0.000000    0.000000    0.000000    0.000000
  0.043246493   -7.278466  125.259674 -100.802908   -0.691653    0.000000    0.000000    0.000000    0.000000
  0.043446894   -7.276211  125.018265 -103.720901    6.347063    0.000000    0.000000    0.000000    0.000000
  0.043647295   -7.280255  124.750290 -101.290911   -0.671694    0.000000    0.000000    0.000000    0.000000
  0.043847695   -7.280372  124.518639 -101.374663   12.105318    0.000000    0.000000    0.000000    0.000000
  0.044048096   -7.284653  124.276848 -103.828068    1.381900    0.000000    0.000000    0.000000    0.000000
  0.044248497   -7.290459  123.973831 -101.226295    3.499172    0.000000    0.000000    0.000000    0.000000
  0.044448898   -7.296623  123.666656 -101.830836   -6.648623    0.000000    0.000000    0.000000    0.000000
  0.044649299   -7.297479  123.373787 -102.871652  -11.583607    0.000000    0.000000    0.000000    0.000000
  0.044849699   -7.296978  123.078697 -104.472825    7.150856    0.000000    0.000000    0.000000    0.000000
  0.045050100   -7.296704  122.788773 -100.238229   -3.923753    0.000000    0.000000    0.000000    0.000000
  0.045250501   -7.297426  122.506012 -102.760816    8.247040    0.000000    0.000000    0.000000    0.000000
  0.045450902   -7.292138  122.219200 -104.202772   18.935656    0.000000    0.000000    0.000000    0.000000
  0.045651303   -7.284881  121.923492 -102.597286   12.821989    0.000000    0.000000    0.000000    0.000000
  0.045851703   -7.270387  121.642555 -100.443642   19.481363    0.000000    0.000000    0.000000    0.000000
  0.046052104   -7.258431  121.398582 -100.863119    7.450129    0.000000    0.000000    0.000000    0.000000
  0.046252505   -7.245542  121.168770 -101.553809    9.080182    0.000000    0.000000    0.000000    0.000000
  0.046452906   -7.243405  120.991280 -102.630176   10.007661    0.000000    0.000000    0.000000    0.000000
  0.046653307   -7.236509  120.842941 -101.642684    2.398967    0.000000    0.000000    0.000000    0.000000
  0.046853707   -7.236618  120.666969 -103.079067   10.379431    0.000000    0.000000    0.000000    0.000000
  0.047054108   -7.241930  120.469460 -102.170196    1.969834    0.000000    0.000000    0.000000    0.000000
  0.047254509   -7.243611  120.289871 -101.233838    0.543961    0.000000    0.000000    0.000000    0.000000
  0.047454910   -7.250154  120.061256 -103.479730    2.694103    0.000000    0.000000    0.000000    0.000000
  0.047655311   -7.255784  119.852966 -101.955973   -2.392282    0.000000    0.000000    0.000000    0.000000
  0.047855711   -7.258439  119.591248 -102.485099   -1.862379    0.000000    0.000000    0.000000    0.000000
  0.048056112   -7.260481  119.382965 -104.373024   -7.738704    0.000000    0.000000    0.000000    0.000000
  0.048256513   -7.260126  119.109596 -102.048196   -0.739533    0.000000    0.000000    0.000000    0.000000
  0.048456914   -7.257491  118.834869 -102.202898   -1.466305    0.000000    0.000000    0.000000    0.000000
  0.048657315   -7.260132  118.594582 -101.996897   -7.672639    0.000000    0.000000    0.000000    0.000000
  0.048857715   -7.261627  118.374367 -104.609168    6.696867    0.000000    0.000000    0.000000    0.000000
  0.049058116   -7.264986  118.112961 -103.180111   10.831094    0.000000    0.000000    0.000000    0.000000
  0.049258517   -7.270329  117.876717 -103.068622    4.406070    0.000000    0.000000    0.000000    0.000000
  0.049458918   -7.273742  117.617867 -103.111334   -7.077406    0.000000    0.000000    0.000000    0.000000
  0.049659319   -7.278733  117.339920 -104.094186   11.972261    0.000000    0.000000    0.000000    0.000000
  0.049859719   -7.276732  117.039825 -105.395299   -7.599544    0.000000    0.000000    0.000000    0.000000
  0.050060120   -7.287209  116.747437 -104.478587   -3.106351    0.000000    0.000000    0.000000    0.000000
  0.050260521   -7.287221  116.460106 -104.440102    3.590041    0.000000    0.000000    0.000000    0.000000
  0.050460922   -7.289515  116.165672 -104.751034   10.280316    0.000000    0.000000    0.000000    0.000000
  0.050661323   -7.284952  115.855202 -104.139767   13.112077    0.000000    0.000000    0.000000    0.000000
  0.050861723   -7.275868  115.574753 -104.340414    6.288341    0.000000    0.000000    0.000000    0.000000
  0.051062124   -7.264474  115.256874 -102.645119   26.068884    0.000000    0.000000    0.000000    0.000000
  0.051262525   -7.255525  114.990234 -101.771403   10.505496    0.000000    0.000000    0.000000    0.000000
  0.051462926   -7.245693  114.726646 -101.617410    5.011464    0.000000    0.000000    0.000000    0.000000
  0.051663327   -7.241138  114.514511 -101.731475    8.891128    0.000000    0.000000    0.000000    0.000000
  0.051863727   -7.233835  114.329185 -104.144922   -1.640370    0.000000    0.000000    0.000000    0.000000
  0.052064128   -7.227266  114.146301 -104.027188    7.465981    0.000000    0.000000    0.000000    0.000000
  0.052264529   -7.227185  113.949104 -102.539707   13.666623    0.000000    0.000000    0.000000    0.000000
  0.052464930   -7.226789  113.774033 -101.193302   -1.002608    0.000000    0.000000    0.000000    0.000000
  0.052665331   -7.231926  113.553642 -101.000098   -2.706121    0.000000    0.000000    0.000000    0.000000
  0.052865731   -7.233828  113.337631 -101.418980    4.422955    0.000000    0.000000    0.000000    0.000000
