! Anritsu VNA Master:                     Model: MS2036C/10/77
! SN:                                  1601066
! /card0/usr/mar18_cable.s2p
! Existing Calibration Information:
! TYPE:                         Current Settings,       Active Cal Settings
! TIME:             	   03/18/2016 01:35:35 PM,    03/18/2016 01:23:09 PM
! INTERNAL TEMP:    	                   47.8 C,                    46.8 C
! # POINTS:         	                     1087,                      1087
! START FREQ:       	               10.000 MHz,                 5.000 kHz
! STOP FREQ:        	              110.000 MHz,                 6.000 GHz
! SOURCE POWER:     	                      Low,                       Low
! IFBW:             	                    1 kHz,                     1 kHz
! AVG FACTOR:       	                       1 ,                        1 
! REF PLANE 1:      	                -6.095 mm,                 -6.095 mm
! REF PLANE 2:      	                     0 mm,                      0 mm
! CAL TYPE:         	              Full 2 Port,               Full 2 Port
! CAL METHOD:       	                     SOLT,                      SOLT
! CAL LINE TYPE:    	                     Coax,                      Coax
! DUT PORT 1:       	                K-Conn(M),                 K-Conn(M)
! DUT PORT 2:       	                N-Conn(M),                 N-Conn(M)
! CAL STATUS:       	        OK: Accuracy High,                        --
# GHZ S MA R 50.0
! FREQ.GHZ       S11M         S11A         S21M         S21A         S12M         S12A         S22M         S22A
  0.010000000  2.706866E-02  -33.535553  9.950902E-01  -17.140146  9.891864E-01  -16.686689  7.056757E-03  -73.346390
  0.010092081  2.416423E-02   -1.372201  9.831284E-01  -17.773943  9.984480E-01  -16.921232  1.567753E-02   16.696060
  0.010184162  2.066319E-02  -24.912674  9.863490E-01  -18.122284  9.943598E-01  -17.807194  1.821017E-02   10.702526
  0.010276243  1.084317E-02    8.999061  1.000443E+00  -17.431684  9.861489E-01  -18.346924  7.991996E-03  -10.406717
  0.010368324  2.694065E-02   -6.818613  9.864024E-01  -18.302513  9.843586E-01  -17.998621  1.377618E-02  -49.515434
  0.010460405  2.198065E-02   -9.905127  9.917591E-01  -18.272079  9.771900E-01  -16.379633  1.130392E-02  -24.941504
  0.010552486  2.093814E-02  -30.213615  9.891661E-01  -18.022833  9.879783E-01  -16.872458  8.691919E-03 -146.551773
  0.010644567  1.963528E-02    6.270576  9.804437E-01  -17.743174  1.001109E+00  -16.982702  6.802695E-03   10.075735
  0.010736648  1.511463E-02  -36.078575  9.857243E-01  -17.763845  9.972602E-01  -18.123560  8.844762E-03  -36.257122
  0.010828729  1.469839E-02  -13.393945  9.777446E-01  -18.535294  9.805065E-01  -18.673714  1.638551E-02  -32.009876
  0.010920810  2.404241E-02  -76.903946  9.835367E-01  -18.229139  9.835256E-01  -19.671366  1.765733E-02  -40.704628
  0.011012891  1.144264E-02 -108.804131  9.818362E-01  -18.823977  9.936777E-01  -19.039410  8.952331E-03  -22.474657
  0.011104972  9.692159E-03  -64.194542  9.900329E-01  -19.551779  9.882790E-01  -18.814489  1.521369E-02  -31.221394
  0.011197053  1.736646E-02  -39.986031  9.884218E-01  -19.181345  1.003915E+00  -18.530405  1.932753E-02  -38.677216
  0.011289134  1.359299E-02   13.756108  9.856788E-01  -18.344105  9.881986E-01  -19.202362  2.246836E-02  -71.267761
  0.011381215  5.353705E-03  -45.268196  9.917666E-01  -18.995869  9.874175E-01  -19.427149  1.451178E-02  -55.475372
  0.011473297  1.390681E-02   -6.020683  9.894227E-01  -18.858002  1.000284E+00  -19.077589  1.886706E-02  -49.185261
  0.011565378  9.817478E-03   31.388985  9.906286E-01  -20.245348  9.939842E-01  -20.000271  1.161718E-02  -46.123375
  0.011657459  1.684527E-02  -26.036642  9.887397E-01  -20.098274  9.870150E-01  -19.686493  1.860780E-02  -36.259666
  0.011749540  1.976516E-02    4.752683  9.893404E-01  -19.920250  9.788757E-01  -20.420067  2.029209E-02  -38.537441
  0.011841621  2.171636E-02   -8.334660  9.946374E-01  -20.206539  9.826766E-01  -20.095072  1.923635E-02  -30.916454
  0.011933702  1.913289E-02  -20.838051  9.889352E-01  -20.728264  9.826321E-01  -20.782381  1.429313E-02  -19.899534
  0.012025783  1.539568E-02  -48.917984  9.925917E-01  -20.993753  9.927517E-01  -19.867020  8.537285E-03  -12.214556
  0.012117864  3.904344E-03   41.752739  9.786092E-01  -21.131184  9.874225E-01  -20.110609  2.404970E-02  -26.325434
  0.012209945  8.417522E-03   60.644943  9.859911E-01  -20.559547  9.809087E-01  -21.195070  2.368226E-02  -20.112522
  0.012302026  9.095085E-03    7.273876  9.734139E-01  -21.043993  9.904140E-01  -22.033783  2.898129E-02  -14.678660
  0.012394107  1.297688E-02   -3.469422  9.937036E-01  -21.373039  9.981611E-01  -21.636576  2.756701E-02   -7.835995
  0.012486188  2.521029E-02    1.289695  9.893622E-01  -21.497480  9.822336E-01  -21.860390  2.575952E-02    9.281142
  0.012578269  2.524613E-02  -21.202942  1.003119E+00  -21.992613  9.840459E-01  -21.417168  2.150491E-02   -1.816310
  0.012670350  2.198848E-02  -39.381260  9.979676E-01  -21.521700  9.894439E-01  -21.303062  1.718126E-02  -34.644131
  0.012762431  1.969771E-02  -32.957203  9.979840E-01  -21.933489  1.000291E+00  -22.139023  1.094264E-02  -35.400658
  0.012854512  1.537485E-02  -83.228607  9.833500E-01  -22.167421  9.870954E-01  -21.586138  1.168549E-02   -0.708460
  0.012946593  1.030600E-02  -16.470993  9.896210E-01  -22.361853  9.984530E-01  -21.634130  1.774071E-02   18.088820
  0.013038674  8.064569E-03  -46.848198  9.817889E-01  -22.303795  9.907161E-01  -22.001385  1.541643E-02  -29.191174
  0.013130755  9.779900E-03  -31.405411  9.900011E-01  -22.737118  9.832215E-01  -22.766396  1.511975E-02  -56.230793
  0.013222836  9.905447E-03  -41.395065  9.964072E-01  -22.246384  9.852948E-01  -22.709946  9.121955E-03  -57.667213
  0.013314917  1.545048E-02   19.472912  9.865240E-01  -22.735790  9.884750E-01  -22.837322  2.146335E-02  -38.385323
  0.013406998  1.767472E-02  -62.797287  9.836382E-01  -21.807867  9.830639E-01  -22.986282  2.290932E-02  -49.694149
  0.013499079  1.780955E-02  -16.735666  9.888166E-01  -22.050179  9.845629E-01  -22.898800  1.485445E-02  -48.934219
  0.013591160  1.003962E-02  -19.733162  9.855827E-01  -22.707920  9.809888E-01  -23.369099  2.066131E-02  -17.661053
  0.013683241  6.949332E-03  -18.249836  9.876215E-01  -23.044411  9.800580E-01  -23.750631  1.879639E-02   -1.811248
  0.013775322  6.088377E-03   -5.188507  9.855239E-01  -24.082462  9.888055E-01  -24.102766  1.928707E-02  -39.298622
  0.013867403  2.081818E-02  -34.966679  9.906493E-01  -23.439436  9.816203E-01  -23.679661  1.836991E-02  -54.730919
  0.013959484  7.888132E-03  -33.660233  9.869421E-01  -24.105183  9.914076E-01  -24.025257  2.637782E-02  -63.544720
  0.014051565  1.205479E-02  -28.737707  9.845074E-01  -23.111277  1.001570E+00  -23.728676  1.541444E-02  -44.958733
  0.014143646  6.981701E-03  -21.439842  9.918764E-01  -23.606571  9.996876E-01  -24.541847  1.967840E-02  -11.830475
  0.014235727  1.089249E-02    0.420402  9.832907E-01  -23.650593  9.986585E-01  -24.506310  2.050106E-02   -3.113594
  0.014327808  4.347353E-03  -80.266357  9.919478E-01  -24.581654  9.849048E-01  -24.922371  1.514923E-02  -18.011930
  0.014419890  1.333223E-02  -49.267593  9.921688E-01  -24.633234  9.737403E-01  -24.651241  3.069932E-02  -33.130394
  0.014511971  1.547712E-02  -56.210350  9.862529E-01  -25.265053  9.835085E-01  -25.131929  1.310656E-02  -22.383015
  0.014604052  2.091366E-02  -50.179802  9.859754E-01  -24.566540  9.838487E-01  -24.535946  2.600866E-02  -62.447735
  0.014696133  1.272959E-02   -8.659027  9.882137E-01  -24.586140  9.941505E-01  -24.524227  3.022185E-02  -36.243725
  0.014788214  2.004327E-02   -2.044974  9.787279E-01  -24.808805  9.833852E-01  -24.612919  1.845961E-02  -64.856544
  0.014880295  1.806501E-02    0.471492  9.913443E-01  -25.456163  9.797772E-01  -25.613115  1.598933E-02  -53.260723
  0.014972376  2.228831E-02   -5.297897  1.000244E+00  -25.386887  9.757700E-01  -26.290400  1.297708E-02  -47.757900
  0.015064457  1.549997E-02  -35.302635  9.791269E-01  -25.663233  9.761459E-01  -25.803972  2.474292E-02  -58.033718
  0.015156538  1.500879E-03  177.607285  9.874958E-01  -26.080936  9.887521E-01  -25.707182  2.865136E-02  -46.243324
  0.015248619  6.548784E-03   -0.972996  9.768190E-01  -26.518909  9.833182E-01  -24.956663  2.055666E-02  -39.392635
  0.015340700  1.107940E-02  -16.537224  9.726658E-01  -25.941515  9.760252E-01  -25.603022  1.862073E-02  -71.179947
  0.015432781  2.205126E-02  -34.601353  9.775283E-01  -26.121086  9.851248E-01  -26.659365  1.770107E-02  -55.294712
  0.015524862  1.084358E-02  -38.993717  9.728107E-01  -26.383835  9.879676E-01  -26.841888  1.760084E-02  -44.883759
  0.015616943  2.072975E-02  -37.954037  9.746704E-01  -26.532925  9.843470E-01  -26.490082  1.563007E-02  -36.184155
  0.015709024  1.994878E-02  -34.348145  9.819978E-01  -26.286924  9.897889E-01  -26.453785  1.037754E-02  -87.829956
  0.015801105  1.419687E-02  -13.995995  9.820867E-01  -26.766945  9.931708E-01  -26.397638  1.381770E-02  -47.603359
  0.015893186  1.651146E-02    6.209086  9.758544E-01  -27.042601  9.926171E-01  -26.994316  9.816155E-03  -54.576321
  0.015985267  1.425702E-02  -32.069256  9.760324E-01  -27.157478  9.929211E-01  -26.708378  1.565231E-02  -57.823505
  0.016077348  5.086630E-03  -18.702028  9.736205E-01  -27.344738  9.840360E-01  -26.884918  2.272027E-02  -40.159164
  0.016169429  1.535986E-02    0.334221  9.835334E-01  -27.255352  9.815675E-01  -27.091667  2.496270E-02  -48.401188
  0.016261510  1.324046E-02   16.848665  9.759910E-01  -27.579681  9.823729E-01  -26.986584  1.867656E-02  -60.110172
  0.016353591  1.460114E-02    2.910619  9.774019E-01  -27.271378  9.766194E-01  -27.338959  1.759434E-02  -31.932634
  0.016445672  7.304384E-03   17.416204  9.782591E-01  -27.691732  9.806510E-01  -28.362656  1.599552E-02  -54.307972
  0.016537753  1.210858E-02  -29.994698  9.790925E-01  -27.789040  9.801982E-01  -28.110071  1.489538E-02  -56.092060
  0.016629834  1.029112E-02  -46.869293  9.751081E-01  -28.317671  9.728434E-01  -27.863926  1.113999E-02  -39.381409
  0.016721915  1.479990E-02  -44.558716  9.787698E-01  -28.292671  9.601178E-01  -27.710035  1.524181E-02  -44.224346
  0.016813996  8.896269E-03  -18.152243  9.745021E-01  -28.727633  9.748127E-01  -28.457977  1.762849E-02  -41.957325
  0.016906077  1.912480E-02  -65.881905  9.816483E-01  -28.592018  9.684247E-01  -28.802217  1.987724E-02  -48.201263
  0.016998158  9.517536E-03  -64.691704  9.814359E-01  -28.316631  9.842631E-01  -28.632843  1.554840E-02  -13.779721
  0.017090239  7.950854E-03 -102.584160  9.883099E-01  -29.106762  9.740310E-01  -28.769323  2.060448E-02  -13.311416
  0.017182320  9.273244E-03  -63.110306  9.851792E-01  -29.060902  9.780979E-01  -28.944811  1.474330E-02  -11.325670
  0.017274401  1.321024E-02  -34.249596  9.926914E-01  -29.177780  9.667752E-01  -28.986387  1.259974E-02  -35.449390
  0.017366483  1.169512E-02  -12.127934  9.890645E-01  -29.475866  9.695404E-01  -29.356867  1.301834E-02  -11.744569
  0.017458564  1.229483E-02  -37.061207  9.855649E-01  -29.902681  9.802573E-01  -29.259277  1.425226E-02  -31.682280
  0.017550645  1.688819E-02  -49.099495  9.968022E-01  -29.783396  9.783375E-01  -30.093925  1.529804E-02  -25.261358
  0.017642726  2.278895E-02  -24.467636  9.844861E-01  -30.067554  9.685052E-01  -30.175606  1.266717E-02   -4.408120
  0.017734807  2.781256E-02  -12.816689  9.853622E-01  -30.235205  9.739247E-01  -30.695665  1.692011E-02  -18.109018
  0.017826888  1.667643E-02  -31.881243  9.900148E-01  -30.251829  9.708002E-01  -30.967230  9.376480E-03  -53.173157
  0.017918969  2.569304E-02  -41.624203  9.884330E-01  -30.464775  9.842963E-01  -30.515867  1.618474E-02  -29.083065
  0.018011050  2.142793E-02  -48.152668  9.970521E-01  -30.171541  9.768913E-01  -30.770832  2.380701E-02  -30.713718
  0.018103131  1.605383E-02  -46.277325  9.921500E-01  -30.509035  9.869990E-01  -30.665346  1.318260E-02  -40.150242
  0.018195212  1.253777E-02  -49.370564  9.918410E-01  -30.902809  9.784374E-01  -30.953180  2.095861E-02  -52.730148
  0.018287293  2.057992E-02  -16.173748  9.912993E-01  -30.835016  9.832702E-01  -30.598625  1.643902E-02  -43.005806
  0.018379374  1.962473E-02  -21.199261  9.901884E-01  -31.013048  9.886329E-01  -30.630365  2.860397E-02  -64.647774
  0.018471455  2.445784E-02  -18.989532  9.869127E-01  -31.416052  9.825302E-01  -31.055634  2.599025E-02  -64.359947
  0.018563536  1.714883E-02  -42.251350  9.931678E-01  -31.634420  9.710500E-01  -32.352798  1.904324E-02  -57.267200
  0.018655617  1.175446E-02  -46.672310  9.860308E-01  -31.772131  9.839415E-01  -31.137371  2.204645E-02  -62.076153
  0.018747698  2.341346E-02  -42.981785  9.841751E-01  -31.781246  9.852717E-01  -32.035290  2.044527E-02  -72.415359
  0.018839779  1.360108E-02  -25.762283  9.795128E-01  -31.849779  9.813643E-01  -32.118912  1.838966E-02  -49.725494
  0.018931860  9.089593E-03  -53.173470  9.916169E-01  -32.041508  9.716011E-01  -31.967314  2.185343E-02  -59.841888
  0.019023941  1.582121E-02  -32.113567  9.781849E-01  -32.197956  9.828373E-01  -32.192036  2.066814E-02  -66.461617
  0.019116022  4.680923E-03   20.257473  9.914877E-01  -31.662670  9.840801E-01  -32.471363  2.719178E-02  -44.610973
  0.019208103  8.495243E-03  -11.828225  9.865721E-01  -32.498428  9.915948E-01  -32.320236  2.116007E-02  -70.712357
  0.019300184  9.655985E-03  -11.944183  9.820857E-01  -32.437263  9.761708E-01  -32.334576  1.544046E-02  -73.275238
  0.019392265  1.389115E-02  -67.558846  9.815877E-01  -32.597176  9.891714E-01  -32.453693  2.138993E-02  -61.870270
  0.019484346  1.120458E-02  -41.987103  9.855617E-01  -32.480778  9.836236E-01  -32.429543  1.762968E-02  -40.024864
  0.019576427  1.614660E-02  -27.190311  9.779845E-01  -33.166233  9.830823E-01  -32.811737  2.399349E-02  -56.141575
  0.019668508  1.602233E-02  -40.625809  9.935229E-01  -33.481464  9.892830E-01  -32.504715  2.203332E-02  -32.280148
  0.019760589  8.771570E-03  -51.432869  9.828861E-01  -33.321911  9.774045E-01  -33.167789  2.580170E-02  -22.281750
  0.019852670  1.631466E-02  -43.010227  9.868975E-01  -33.759853  9.850788E-01  -32.451153  1.950677E-02  -47.499134
  0.019944751  1.003955E-02  -19.317072  9.734671E-01  -33.810589  9.775968E-01  -32.833878  1.889740E-02  -35.243164
  0.020036832  1.279066E-02  -28.015110  9.854479E-01  -33.605827  9.803611E-01  -32.900826  2.287267E-02  -30.186926
  0.020128913  1.725688E-02  -61.510845  9.730884E-01  -33.698605  9.833717E-01  -33.432659  2.492686E-02  -39.654686
  0.020220994  1.292761E-02  -32.500313  9.775993E-01  -34.062263  9.799209E-01  -33.642761  2.462497E-02  -46.051537
  0.020313076  1.093487E-02  -30.598400  9.840925E-01  -34.065296  9.770052E-01  -33.558159  3.555542E-02  -38.921970
  0.020405157  1.571069E-02  -19.608381  9.828917E-01  -34.302818  9.790391E-01  -34.103283  2.369547E-02  -53.466015
  0.020497238  1.928112E-02  -48.607265  9.905623E-01  -34.449650  9.690930E-01  -34.001007  2.169460E-02  -72.053978
  0.020589319  1.684222E-02  -27.387325  9.950560E-01  -34.698112  9.738950E-01  -34.710125  2.647923E-02  -75.656349
  0.020681400  1.281900E-02  -13.866700  9.848949E-01  -35.024609  9.730133E-01  -33.768116  2.239969E-02  -74.697205
  0.020773481  1.245211E-02  -26.506405  9.726292E-01  -34.540874  9.800951E-01  -33.922947  1.658874E-02  -77.850784
  0.020865562  7.959739E-03  -51.374290  9.798679E-01  -35.356323  9.747530E-01  -34.246956  1.790045E-02  -87.011200
  0.020957643  1.696763E-02  -28.300131  9.733233E-01  -35.910179  9.829146E-01  -34.446827  2.130923E-02  -79.698051
  0.021049724  1.128139E-02  -32.682652  9.786188E-01  -35.547131  9.758006E-01  -35.233345  1.544180E-02  -67.193993
  0.021141805  1.685274E-02  -26.243599  9.657010E-01  -35.749378  9.758379E-01  -35.496540  9.325050E-03  -26.683344
  0.021233886  1.446173E-02    4.968054  9.662591E-01  -36.108414  9.761997E-01  -35.366806  1.121093E-02 -117.948532
  0.021325967  1.119945E-02  -49.724262  9.750769E-01  -36.026165  9.806456E-01  -35.815697  8.454652E-03  -47.490440
  0.021418048  1.711197E-02  -39.643566  9.723028E-01  -36.136673  9.817555E-01  -35.521343  1.142259E-02  -42.789124
  0.021510129  6.776935E-03  -50.721970  9.816127E-01  -36.365162  9.838305E-01  -36.019577  9.684101E-03    4.829434
  0.021602210  7.859494E-03  -45.192276  9.777157E-01  -36.252132  9.790413E-01  -36.306732  9.620371E-03  -79.551201
  0.021694291  1.586669E-02  -42.649178  9.802245E-01  -36.266582  9.757242E-01  -36.313362  1.704537E-02  -35.462940
  0.021786372  7.881849E-03  -25.743933  9.734472E-01  -36.637737  9.776525E-01  -36.337379  6.870909E-03  -51.088608
  0.021878453  9.233266E-03  -43.475876  9.725041E-01  -36.761684  9.853480E-01  -37.177410  1.696256E-02  -37.757820
  0.021970534  6.447156E-03   13.815808  9.711559E-01  -37.279816  9.877531E-01  -37.075089  1.299034E-02  -71.852905
  0.022062615  2.976550E-03  -17.204155  9.763514E-01  -37.129292  9.806590E-01  -37.101440  1.698655E-02  -67.381104
  0.022154696  5.558071E-03 -101.497993  9.678512E-01  -37.526535  9.860544E-01  -37.747242  2.227814E-02  -68.440582
  0.022246777  7.078044E-03  -12.149435  9.766642E-01  -37.342037  9.785665E-01  -37.223866  1.383605E-02  -60.809391
  0.022338858  6.819334E-03  -27.976088  9.643683E-01  -37.815556  9.822289E-01  -37.707405  1.748659E-02  -83.208946
  0.022430939  6.640506E-04 -154.902756  9.764467E-01  -38.083843  9.738086E-01  -37.504967  1.283737E-02  -88.266830
  0.022523020  1.142002E-02  -72.922600  9.835288E-01  -37.533463  9.902112E-01  -38.052235  1.930412E-02  -51.216892
  0.022615101  1.151035E-02  -36.793835  9.795127E-01  -37.278507  9.822684E-01  -38.262524  2.094774E-02  -50.983250
  0.022707182  7.481811E-03  -25.502182  9.855203E-01  -37.665081  9.803222E-01  -38.008778  1.623314E-02  -84.558960
  0.022799263  1.150367E-02  -54.417339  9.800761E-01  -38.098503  9.771287E-01  -38.530209  1.746307E-02  -48.460052
  0.022891344  8.849689E-03  -73.561760  9.911454E-01  -38.214153  9.876986E-01  -38.163757  2.113588E-02  -55.694157
  0.022983425  1.307600E-02  -84.328819  9.809904E-01  -38.413422  9.820860E-01  -38.878510  1.389677E-02  -72.751472
  0.023075506  1.422147E-02  -49.385403  9.876927E-01  -38.655296  9.784817E-01  -38.546318  1.996975E-02  -84.245094
  0.023167587  7.414729E-03  -12.539569  9.774145E-01  -38.855556  9.798173E-01  -38.845318  2.122492E-02  -53.703800
  0.023259669  2.072898E-02  -66.999809  9.775721E-01  -38.858429  9.767334E-01  -38.656311  2.025037E-02  -81.683174
  0.023351750  1.529770E-02  -46.885727  9.852169E-01  -39.499775  9.774667E-01  -38.727806  2.086500E-02  -87.042160
  0.023443831  1.467206E-02  -58.828964  9.771327E-01  -39.830673  9.857399E-01  -38.889751  2.153653E-02  -88.286453
  0.023535912  5.472274E-03  -56.418484  9.801109E-01  -39.507866  9.767070E-01  -38.911537  1.967265E-02  -97.064636
  0.023627993  1.916715E-02 -107.205696  9.718994E-01  -39.957535  9.793073E-01  -39.872761  2.527221E-02  -81.007790
  0.023720074  1.206193E-02  -60.053825  9.921649E-01  -39.835613  9.898173E-01  -39.993252  1.771790E-02  -67.854988
  0.023812155  9.265744E-03  -40.034351  9.891429E-01  -39.998051  9.905859E-01  -40.238838  1.515475E-02  -47.217312
  0.023904236  1.390570E-02  -47.795033  9.844166E-01  -40.372417  9.930117E-01  -40.143593  1.879443E-02  -42.217682
  0.023996317  2.014235E-02  -47.736336  9.877748E-01  -40.139435  9.897836E-01  -40.141560  2.324629E-02  -28.795818
  0.024088398  1.524860E-02  -73.464905  9.949116E-01  -40.390247  9.805086E-01  -40.044350  2.124509E-02  -38.176876
