! Anritsu VNA Master:                     Model: MS2036C/10/77
! SN:                                  1601066
! /card0/usr/mar18_10dB_log.s2p
! Existing Calibration Information:
! TYPE:                         Current Settings,       Active Cal Settings
! TIME:             	   03/18/2016 01:40:05 PM,    03/18/2016 01:23:09 PM
! INTERNAL TEMP:    	                   47.8 C,                    46.8 C
! # POINTS:         	                     1087,                      1087
! START FREQ:       	               10.000 MHz,                 5.000 kHz
! STOP FREQ:        	              110.000 MHz,                 6.000 GHz
! SOURCE POWER:     	                      Low,                       Low
! IFBW:             	                    1 kHz,                     1 kHz
! AVG FACTOR:       	                       1 ,                        1 
! REF PLANE 1:      	                -6.095 mm,                 -6.095 mm
! REF PLANE 2:      	                     0 mm,                      0 mm
! CAL TYPE:         	              Full 2 Port,               Full 2 Port
! CAL METHOD:       	                     SOLT,                      SOLT
! CAL LINE TYPE:    	                     Coax,                      Coax
! DUT PORT 1:       	                K-Conn(M),                 K-Conn(M)
! DUT PORT 2:       	                N-Conn(M),                 N-Conn(M)
! CAL STATUS:       	        OK: Accuracy High,                        --
# GHZ S DB R 50.0
! FREQ.GHZ       S11DB        S11A       S21DB        S21A       S12DB        S12A       S22DB        S22A
  0.010000000  -33.551296   29.726042  -10.158396    1.261747   -9.939446    0.963825  -38.286064  -26.443468
  0.010092081  -31.888701    7.986984  -10.313756    0.349910   -9.941296   -1.416118  -38.790192   32.098969
  0.010184162  -33.266374   15.701683  -10.129979   -0.577954  -10.180506    0.860269  -39.949784   81.208862
  0.010276243  -35.772195    0.034242  -10.029845   -2.051878  -10.272304    0.130252  -37.510062   25.687532
  0.010368324  -37.652341  -10.859850  -10.085077   -0.177279  -10.191689    0.266607  -35.343765    1.724349
  0.010460405  -34.219077  -21.240540  -10.066489    0.756123  -10.047386   -0.711967  -38.316774   -3.163421
  0.010552486  -33.437085    1.793742  -10.185335   -1.106818   -9.994840   -0.276628  -45.488651   29.900578
  0.010644567  -32.436051   -9.816602  -10.149535    2.191055   -9.899136   -0.503064  -36.063292   27.011833
  0.010736648  -34.837004  -30.752125   -9.995356   -2.096982  -10.440315    1.277539  -34.855952  -12.815166
  0.010828729  -38.966674   48.727402  -10.248082    0.185751   -9.885268    0.268786  -36.758661  -18.027199
  0.010920810  -37.547594  -13.548111  -10.126351    0.768057  -10.024716   -1.324075  -33.691184  -19.952410
  0.011012891  -37.708459  -22.398247  -10.166530    0.313567   -9.955522   -0.157945  -35.694685  -11.037161
  0.011104972  -32.171983   -6.818878  -10.280645    0.810565  -10.126373    0.463270  -32.553028    0.501657
  0.011197053  -33.926824  -20.303823   -9.880803    0.411852   -9.903049    1.470137  -35.327838  -10.144661
  0.011289134  -34.727155   41.334492   -9.629325   -0.032488  -10.106792    0.111648  -43.589236  -25.795681
  0.011381215  -34.527848   10.400518  -10.196434   -0.643125   -9.960322    0.795201  -37.852863  -30.367355
  0.011473297  -37.579623    1.842273  -10.146351    0.757818  -10.441708    0.182813  -42.502482  -35.833076
  0.011565378  -33.470855   33.203274  -10.218773   -1.085707   -9.771209    0.569953  -37.027421   26.317385
  0.011657459  -31.378303   11.277200  -10.136549   -0.825435  -10.259069    1.589606  -35.035273   24.563694
  0.011749540  -33.850377   -0.917622  -10.118563   -0.733055   -9.928211   -1.968718  -38.326005    9.135480
  0.011841621  -36.955617  -23.535185   -9.987887   -0.762887   -9.942501   -0.920899  -34.732088  -22.509016
  0.011933702  -29.986172    7.812195   -9.935003   -0.201517  -10.103449    0.539441  -41.628693  -37.623829
  0.012025783  -37.755971    4.781582  -10.025986   -0.151981   -9.992386   -0.629559  -34.352174   -0.069480
  0.012117864  -40.353876  -14.483223  -10.133768    0.562461   -9.800599    1.228427  -37.207781   15.181113
  0.012209945  -33.431042   -5.365767  -10.150736   -1.733618   -9.965279    0.979697  -34.205718  -10.435678
  0.012302026  -37.685534   -0.442428  -10.132512   -0.020798  -10.121543   -1.532515  -34.819432   -8.604227
  0.012394107  -31.280099   16.790121  -10.201970    1.214782  -10.101302   -2.222246  -38.541734   34.114109
  0.012486188  -36.879424   -2.946003   -9.886017   -2.445862  -10.116313   -0.638318  -34.797412   -3.680050
  0.012578269  -36.206312   -8.634538  -10.344927   -1.158186   -9.873573   -1.320801  -35.261993   -5.499424
  0.012670350  -31.796079  -14.432780  -10.028027   -0.750364  -10.112678   -1.428367  -39.705023   -8.190998
  0.012762431  -32.823146    0.245414  -10.039487    0.303615   -9.670795    0.210339  -32.947563   -4.018414
  0.012854512  -37.526583  -12.979418  -10.422982    0.447313   -9.825380   -0.951434  -36.578589   44.656269
  0.012946593  -36.815375    5.404175  -10.100566   -0.231403   -9.937847    1.635204  -37.052543   11.743589
  0.013038674  -33.620335    2.453186   -9.968414    0.671821  -10.053390    1.691632  -35.401593   38.680992
  0.013130755  -34.844775   -6.754360  -10.188275    0.582896   -9.916108    1.432856  -32.976882    1.091865
  0.013222836  -33.360072  -18.806244  -10.096658   -1.528378  -10.006283   -0.722486  -37.905759   -0.783580
  0.013314917  -33.483654   -5.892979  -10.192311    0.979551   -9.920376   -1.119899  -39.854911   17.215099
  0.013406998  -29.204446   -1.446302   -9.812862    0.584906   -9.955839   -0.960015  -39.774131  -12.198961
  0.013499079  -34.016055  -14.186595  -10.117660    1.421373  -10.004490    0.332558  -40.713605    3.269763
  0.013591160  -32.630322   28.153627  -10.086520    0.550306  -10.137319   -0.452466  -33.498298    6.424097
  0.013683241  -36.624634   16.534410  -10.056814    0.663912  -10.088085    0.326293  -35.522058   -8.017111
  0.013775322  -34.341586    5.505261   -9.742245   -1.538936   -9.895487    0.343645  -40.208378   63.510277
  0.013867403  -34.455301   -8.874773  -10.212779    0.068008   -9.916332   -0.913811  -38.107296   49.354290
  0.013959484  -37.059811   13.750282  -10.276254    0.227500   -9.728799   -0.058894  -36.056962  -39.734470
  0.014051565  -35.573009   10.621207   -9.906735   -0.177930   -9.904123   -0.754362  -48.723922    9.041611
  0.014143646  -31.318401   38.475903  -10.185807    0.502468   -9.735784    0.343612  -35.876939  -30.375860
  0.014235727  -32.090955    3.230621  -10.264487    0.406848  -10.232241   -0.112473  -36.500554  -41.884193
  0.014327808  -35.565872    0.770162   -9.997027   -0.204901  -10.178141   -1.193836  -33.733039    8.293795
  0.014419890  -34.536922   14.312738  -10.195870   -0.104465   -9.975013    1.035200  -33.455630    9.476954
  0.014511971  -33.635956  -12.594440  -10.079513    0.504643  -10.068636   -0.126467  -35.337596  -15.032982
  0.014604052  -32.019525   15.343976  -10.031986    0.223357  -10.058186    0.099939  -32.642279   23.619202
  0.014696133  -36.655109   -4.160752   -9.954742    0.401097  -10.195777   -0.456251  -36.764581  -26.309973
  0.014788214  -32.985078  -17.186090  -10.153149   -1.378342   -9.772250    1.628564  -36.307077  -34.035831
  0.014880295  -35.747579   24.250530   -9.951289    0.062637   -9.979975    1.174781  -41.657049    0.829450
  0.014972376  -33.834373   -5.878404  -10.176809   -0.869983  -10.178876   -0.600490  -32.768050   37.409248
  0.015064457  -31.655685   24.135670  -10.146101    0.329393   -9.895784   -1.799400  -31.531996   -9.303606
  0.015156538  -32.996181   17.754721  -10.201691   -1.721088  -10.027905   -1.781954  -31.525750   -6.689153
  0.015248619  -34.958153   31.484966  -10.218452   -1.351224  -10.277475   -0.268253  -39.208778   -0.814262
  0.015340700  -32.404713    4.969279  -10.264374   -0.431550  -10.055330    0.347513  -38.873093    8.316366
  0.015432781  -35.369645  -28.830839  -10.052062    0.146486   -9.929750   -1.240725  -36.434195  -43.281746
  0.015524862  -33.648795  -25.322231  -10.121411   -0.079838  -10.296309   -0.637827  -32.779070  -11.541673
  0.015616943  -37.432968    3.525120  -10.344333   -0.621203  -10.116481    0.335291  -37.807760  -12.153779
  0.015709024  -31.002000   -9.443261  -10.063599   -0.536893  -10.072305    1.288343  -34.939460    6.295038
  0.015801105  -33.610738   -2.034024  -10.143470   -0.265185   -9.754137   -1.195661  -33.497474    2.865599
  0.015893186  -34.144558   11.087899  -10.119457    0.813548  -10.228891   -0.880440  -34.485834  -17.667921
  0.015985267  -36.069665   19.669767  -10.139745    0.519295  -10.149422   -0.077819  -31.528995   -5.406622
  0.016077348  -33.433980    6.850676  -10.152743   -0.571864  -10.041566    0.325103  -34.463842   27.843548
  0.016169429  -36.029323   -0.300427  -10.418525    0.245127  -10.207882    0.333092  -36.542772  -12.183721
  0.016261510  -36.301177   -0.009611  -10.136089   -0.127845   -9.922180   -0.712908  -35.827344    0.101746
  0.016353591  -35.069261    4.136676  -10.102586    1.441495  -10.113804    0.657484  -37.794884    5.580206
  0.016445672  -40.010328  -10.285848  -10.308277   -0.749583  -10.109185    0.607255  -31.933212   -7.280043
  0.016537753  -33.135871   -9.623283  -10.070320    1.875172  -10.119385    0.208642  -30.918283  -14.836618
  0.016629834  -34.016713   -0.901845  -10.399041    0.276108  -10.044770   -0.019317  -34.408226    2.517408
  0.016721915  -34.677009  -11.108657  -10.514987    0.350336  -10.134103    0.410292  -38.484638    5.354906
  0.016813996  -34.901236   17.332870  -10.157483   -1.198322  -10.089418    0.752887  -32.537238   -0.157817
  0.016906077  -35.318777   -2.443504  -10.022531    2.399484  -10.009030    0.061365  -32.679506  -21.772806
  0.016998158  -34.418837   -2.345517  -10.201700    0.786070  -10.158735    0.729598  -34.994200   -7.014063
  0.017090239  -32.153583  -10.362417   -9.948882    0.647736  -10.191601    0.104404  -38.455230  -10.986181
  0.017182320  -34.341406   15.635586  -10.088367    0.406078   -9.992673   -0.184284  -35.947919    6.428357
  0.017274401  -33.259133    6.481389  -10.123049   -0.176308   -9.979064    0.245463  -35.196592   -4.206399
  0.017366483  -36.426885    8.132390   -9.998053    0.311054  -10.363427    0.343498  -35.879558  -11.290949
  0.017458564  -34.507751    8.682870  -10.075524    0.542910  -10.037916    0.894215  -36.809227  -32.707462
  0.017550645  -34.873318   -5.545600  -10.175828    0.647059  -10.254321   -0.201847  -36.479659  -14.998688
  0.017642726  -31.780102  -11.583491  -10.210134    0.261461  -10.138021    0.371940  -38.546069  -25.685135
  0.017734807  -31.288357   13.079857  -10.030915   -0.767265   -9.980007    0.175463  -34.393366   -0.757069
  0.017826888  -33.084704    9.847716   -9.915544   -0.739120  -10.439678    1.430977  -33.693942  -12.556143
  0.017918969  -31.393964    6.917394  -10.125460   -0.203053  -10.124566    0.325148  -37.675774    9.643559
  0.018011050  -31.824098   16.665888  -10.208849   -0.136934  -10.059698   -0.241320  -33.888768   12.651404
  0.018103131  -32.100298   -8.232581  -10.066816    1.087463   -9.966762   -0.357321  -35.346092   14.716233
  0.018195212  -30.331713    5.170943  -10.175429    0.665987   -9.995198    1.025048  -33.057888    8.106342
  0.018287293  -34.666468   16.676525  -10.101278    0.927088   -9.976630   -0.191062  -36.759304   -4.144675
  0.018379374  -32.090125    4.691150  -10.012674   -0.872892   -9.865485   -1.423828  -37.071010  -13.437826
  0.018471455  -31.715557   -0.649056  -10.311831    0.871621   -9.735802    1.733623  -35.948188    1.798546
  0.018563536  -31.620618  -10.527785  -10.161969    0.182886  -10.135947    1.635828  -35.433844   31.025503
  0.018655617  -33.354377   17.219364  -10.382992   -0.258725   -9.920390   -0.440517  -36.380075  -33.699013
  0.018747698  -31.738853  -10.139091  -10.222763   -0.350554   -9.926682    0.678440  -35.220373   23.106054
  0.018839779  -37.512119    2.504708  -10.176408    0.742832  -10.063260   -0.382822  -36.583667   22.458546
  0.018931860  -35.410303   -3.498159  -10.115210    0.290933  -10.096571    0.393536  -36.101982    4.148293
  0.019023941  -34.221260   17.514078  -10.145050   -0.317054  -10.066061    1.164454  -31.885783   -3.075293
  0.019116022  -33.362943    6.277211  -10.090298    0.528954  -10.073544    0.512494  -35.131982  -13.435351
  0.019208103  -31.462562    8.017260   -9.908692   -0.229119   -9.939003   -0.662315  -34.498678  -14.684445
  0.019300184  -29.700189   15.232865  -10.015693    0.406556  -10.078685    0.000909  -43.508333    1.844828
  0.019392265  -31.906466  -12.432634   -9.965523    1.504630   -9.857395    0.300630  -36.205014   22.608480
  0.019484346  -32.385773   -1.090797  -10.080636    1.050593  -10.046979   -0.479577  -31.869356  -18.737246
  0.019576427  -31.599280   -0.560848   -9.914035    0.025365  -10.132978    1.894865  -35.098420  -26.906273
  0.019668508  -33.905633  -23.697491  -10.126673   -0.531919  -10.044549   -0.252726  -36.461671  -15.249043
  0.019760589  -37.751622   11.423951  -10.018488    1.003417  -10.117534    0.717864  -39.804774  -20.504555
  0.019852670  -34.090274   -5.880967   -9.999741    0.328791  -10.065149    2.285831  -33.918332   -7.597444
  0.019944751  -36.222679    9.231565   -9.969670   -0.429308  -10.207723    1.849835  -33.819726   13.790994
  0.020036832  -33.473246  -13.838824   -9.999718   -0.029738  -10.231836    1.467144  -37.834295  -27.876558
  0.020128913  -33.225246    3.315789  -10.203314   -0.236761  -10.220881    1.615481  -39.759703   10.045828
  0.020220994  -32.939502   -1.996424   -9.890557    0.803530  -10.253479    0.897948  -35.845635  -52.319736
  0.020313076  -31.179630    9.741442  -10.148627   -0.191882   -9.826432   -0.301308  -34.834640   11.219573
  0.020405157  -35.858060  -24.358318   -9.958776   -0.692504  -10.288684    0.871382  -35.195268   11.984438
  0.020497238  -34.440907   28.838390   -9.815658   -0.313344  -10.052907    0.094329  -35.981730   -5.129388
  0.020589319  -35.387528   52.427380  -10.233501   -0.323750  -10.118477    1.342807  -35.906941   38.663490
  0.020681400  -31.751695   -4.811975  -10.050448    0.488830   -9.968695    2.456150  -34.086503    5.480352
  0.020773481  -33.938007   37.736172  -10.093691    0.807534  -10.129145    2.092558  -36.925312   13.872306
  0.020865562  -34.770764    5.532767  -10.185755    0.941212  -10.346458    0.452284  -34.292019    6.005123
  0.020957643  -32.035136   -9.431199  -10.215441   -1.693132  -10.100970   -0.523119  -35.821222   13.252168
  0.021049724  -34.648493   14.673044  -10.160082    0.976031  -10.218947   -1.033576  -35.896097   -1.827652
  0.021141805  -33.709709   43.722256  -10.386583    1.828486  -10.228020    0.072121  -34.153213    1.789394
  0.021233886  -30.609492  -15.175875  -10.220631   -0.171458  -10.066067    1.916524  -35.270740    6.298709
  0.021325967  -34.529369    7.274548  -10.107180    0.853546  -10.117919    0.675784  -31.859481   13.048235
  0.021418048  -32.950563   -2.020322  -10.155828    0.053038  -10.167718    0.363331  -39.675818    2.175518
  0.021510129  -34.944654    7.837358  -10.323729    0.479610  -10.079087    0.943502  -34.528723   13.705932
  0.021602210  -35.273627    8.784427  -10.316885   -0.134875   -9.916952    0.551611  -33.794281    8.161505
  0.021694291  -33.827175  -21.970148  -10.098775   -0.029002  -10.057739    0.115048  -33.495324   34.709427
  0.021786372  -33.435912    7.554595   -9.968389   -0.471356   -9.982355    0.402313  -32.915879   12.431302
  0.021878453  -32.911174   20.382652  -10.234628   -0.685185   -9.977599    1.878435  -34.351673   12.812931
  0.021970534  -34.097263    5.055121  -10.269381   -0.288434  -10.045845   -0.325559  -35.127458   20.780218
  0.022062615  -33.044076   17.414198  -10.185000    0.905869   -9.966728   -0.171025  -36.501177    7.904115
  0.022154696  -33.504434  -35.027195  -10.112019    1.072065  -10.218855    1.300603  -36.912276   25.419416
  0.022246777  -37.174173   18.380836  -10.037149   -1.703615   -9.884706    0.611855  -40.159956   11.955379
  0.022338858  -39.129777   12.315954  -10.058345   -0.346018  -10.034609    0.949595  -34.830081   15.070568
  0.022430939  -34.686120   -3.133084  -10.252282    1.371779  -10.102934   -1.291345  -36.032985    1.282758
  0.022523020  -38.101822   21.303825  -10.093327    0.697385  -10.039905    0.260788  -36.162665    2.220791
  0.022615101  -33.173275  -26.108578   -9.932455    2.525222  -10.172269    0.126323  -35.296541  -13.083493
  0.022707182  -34.283411   10.741664  -10.043633    0.710618   -9.861101    0.704793  -34.804114   15.679199
  0.022799263  -37.887749    4.324356   -9.993790   -0.138368  -10.109251   -0.484703  -38.391893  -19.324177
  0.022891344  -31.692405    6.595625  -10.031417    0.012352   -9.860364    0.943765  -37.543255   -8.776648
  0.022983425  -32.870948  -11.167165  -10.135608   -0.017204  -10.119754    0.764630  -37.769672  -10.369850
  0.023075506  -32.259678  -10.764755  -10.032177    0.420108  -10.229105    0.501232  -34.968416    6.115704
  0.023167587  -34.861657    2.334199  -10.191511    1.097347  -10.212579    0.395313  -34.217847   -7.834415
  0.023259669  -31.966926  -27.355993  -10.154246    0.475737  -10.097127    1.097354  -35.709041  -16.036179
  0.023351750  -30.976305   -4.244741  -10.240255    0.238182  -10.023773   -0.173536  -30.122843   -5.317692
  0.023443831  -33.174819    2.374043  -10.209135    0.429965  -10.324626   -0.067362  -39.718790   -3.650120
  0.023535912  -33.388445   -2.348582  -10.195880   -0.637880  -10.151530   -1.571061  -37.359411  -30.768797
  0.023627993  -30.764920   16.347227  -10.103636   -0.821277  -10.014941   -0.162244  -34.544396   -0.637277
  0.023720074  -31.660618    6.742583  -10.096076    0.526518  -10.144810    0.978512  -36.357788  -15.105916
  0.023812155  -34.702667  -31.897848  -10.064306   -0.388198  -10.020646    1.135974  -37.356269    7.320724
  0.023904236  -33.678441  -14.159239  -10.146343   -0.979990  -10.105650    2.063926  -36.000176  -17.546709
  0.023996317  -37.264331   21.805601   -9.932171    1.023628   -9.988315    1.631995  -43.147837   -1.221945
  0.024088398  -33.411390   -9.933692  -10.036895    0.464816   -9.856381   -0.958422  -40.588005  -20.811865
  0.024180479  -33.233774  -15.493318  -10.018832    1.359798   -9.805757   -1.039899  -38.537984   -7.362459
  0.024272560  -33.577034   -5.082913  -10.123643    0.651109  -10.226384    0.162226  -41.175619   30.314026
  0.024364641  -35.344016  -15.879440   -9.834389    0.571476  -10.118310    1.373654  -39.437610  -12.645580
  0.024456722  -33.737377  -30.668663  -10.167751    0.023154  -10.025897    0.084157  -40.712553   23.240765
  0.024548803  -34.614167   15.879473  -10.252453    0.251150  -10.192822    1.555903  -38.179780  -53.276417
  0.024640884  -35.460869   -4.904339  -10.064968    0.940462  -10.039461    1.616998  -39.147791   -7.728008
  0.024732965  -31.991126    7.244751  -10.109048    0.176238  -10.280037   -0.747330  -37.828475  -24.811333
  0.024825046  -33.083363   -8.688829  -10.117947    0.402446  -10.077693    0.497315  -41.436652   -0.383849
  0.024917127  -31.688996   -4.966838  -10.109468   -0.222066  -10.098123    1.154819  -37.751256    0.312230
  0.025009208  -31.686074  -14.316771  -10.236881    1.024081   -9.968736    0.761824  -39.345104  -12.801440
  0.025101289  -34.461200  -11.804073  -10.047698    0.540067  -10.295320    0.729455  -39.398273    8.257958
