! Anritsu VNA Master:                     Model: MS2036C/10/77
! SN:                                  1601066
! /card0/usr/mar18_6dB.s2p
! Existing Calibration Information:
! TYPE:                         Current Settings,       Active Cal Settings
! TIME:             	   03/18/2016 01:38:25 PM,    03/18/2016 01:23:09 PM
! INTERNAL TEMP:    	                   47.8 C,                    46.8 C
! # POINTS:         	                     1087,                      1087
! START FREQ:       	               10.000 MHz,                 5.000 kHz
! STOP FREQ:        	              110.000 MHz,                 6.000 GHz
! SOURCE POWER:     	                      Low,                       Low
! IFBW:             	                    1 kHz,                     1 kHz
! AVG FACTOR:       	                       1 ,                        1 
! REF PLANE 1:      	                -6.095 mm,                 -6.095 mm
! REF PLANE 2:      	                     0 mm,                      0 mm
! CAL TYPE:         	              Full 2 Port,               Full 2 Port
! CAL METHOD:       	                     SOLT,                      SOLT
! CAL LINE TYPE:    	                     Coax,                      Coax
! DUT PORT 1:       	                K-Conn(M),                 K-Conn(M)
! DUT PORT 2:       	                N-Conn(M),                 N-Conn(M)
! CAL STATUS:       	        OK: Accuracy High,                        --
# GHZ S MA R 50.0
! FREQ.GHZ       S11M         S11A         S21M         S21A         S12M         S12A         S22M         S22A
  0.010000000  2.242895E-02  -31.281864  5.114545E-01   -1.054163  5.177773E-01    0.234761  8.306036E-03 -155.281158
  0.010092081  6.636588E-03  108.404617  5.215512E-01   -0.818120  5.202329E-01    0.403963  2.365810E-02   22.931070
  0.010184162  1.878340E-02  -37.742207  5.136108E-01    0.476339  5.046960E-01    0.522882  2.920707E-03 -179.091263
  0.010276243  2.875296E-03  124.917046  5.104413E-01    0.262079  5.237947E-01   -1.134767  4.398038E-03  -31.252375
  0.010368324  9.415162E-03  -11.165523  5.154951E-01    0.422806  5.154366E-01    0.092823  9.275639E-03   39.744976
  0.010460405  1.257441E-02  -14.224136  5.112813E-01   -0.510040  5.004235E-01    0.182268  1.104225E-02  -33.568321
  0.010552486  1.046079E-02   27.042067  5.051544E-01   -0.996416  5.210181E-01    0.030219  9.494274E-03   79.012436
  0.010644567  9.988098E-03  -26.099197  5.209919E-01   -0.911592  5.285391E-01   -0.631385  1.227746E-02  109.337753
  0.010736648  6.736522E-03   83.019676  5.114684E-01   -0.175722  5.264682E-01    0.052231  1.995291E-02   55.877388
  0.010828729  4.621114E-03 -112.931282  5.053558E-01   -0.338450  5.186577E-01   -0.147547  7.739762E-03  -18.258158
  0.010920810  2.920472E-03  -56.272114  5.171053E-01    0.126175  5.194347E-01   -0.831595  6.146888E-03   17.293655
  0.011012891  7.450349E-03 -122.594070  5.041702E-01    0.397761  5.092760E-01    0.162626  1.132351E-02   42.004913
  0.011104972  9.848480E-03  -69.872894  5.204569E-01   -1.150238  5.065817E-01    0.186542  9.645616E-03  -50.828140
  0.011197053  7.101248E-03  -69.812111  5.143531E-01   -0.423618  5.169178E-01    0.863909  7.970143E-03  -70.517075
  0.011289134  4.621628E-03   14.571041  5.202193E-01    1.625157  5.123490E-01   -0.453060  1.277091E-02  -21.261047
  0.011381215  4.545558E-03   49.031971  5.163798E-01    0.189495  5.223508E-01    1.495276  3.073756E-03  128.842651
  0.011473297  5.755099E-03  164.253479  5.194675E-01    0.669844  5.172431E-01   -0.026557  6.801115E-03 -142.095444
  0.011565378  1.089955E-02  -87.305168  5.256712E-01    0.051715  5.138206E-01    0.605443  1.978385E-03   16.449366
  0.011657459  1.482646E-02    7.968455  5.156524E-01   -1.303337  5.082799E-01    0.600575  5.524172E-03   14.410432
  0.011749540  4.835452E-03   22.575596  5.217919E-01   -0.105326  5.234479E-01   -1.107996  5.079003E-03   61.305229
  0.011841621  7.211393E-04   51.236244  5.232091E-01   -0.800711  5.169129E-01   -0.434894  1.140404E-02   48.457767
  0.011933702  1.536691E-02   17.275229  5.099354E-01   -1.137090  5.129722E-01    0.455644  5.123871E-03  -84.236588
  0.012025783  9.276629E-03   11.417555  5.165364E-01    0.306241  5.163903E-01   -0.783422  2.888362E-03    5.781355
  0.012117864  1.419845E-02  -31.186359  5.173067E-01    0.848384  5.108083E-01    0.536058  1.149421E-02   13.842081
  0.012209945  4.422354E-03   92.519028  5.144964E-01    0.471494  5.120835E-01   -0.812672  8.914177E-03   30.467878
  0.012302026  1.389982E-03   27.533787  5.034264E-01    0.639121  5.128113E-01    0.509880  5.541225E-03  -16.208263
  0.012394107  1.037635E-02    3.196680  5.159783E-01   -0.883066  5.173861E-01    0.163140  1.223589E-02   66.370560
  0.012486188  1.215533E-02   10.566631  5.204892E-01   -0.878501  5.277554E-01   -0.807652  3.470452E-03  162.880707
  0.012578269  8.442333E-03   23.241589  5.211101E-01    0.197704  5.107239E-01   -0.801027  1.482405E-02   -1.779360
  0.012670350  8.255031E-03  -20.089937  5.187758E-01   -0.672843  5.215532E-01    0.054799  7.484844E-03  -46.582756
  0.012762431  9.010122E-03   27.033836  5.149955E-01   -0.682646  5.116650E-01   -1.050921  3.650680E-03  -55.522427
  0.012854512  7.616709E-03    2.372402  5.095251E-01    0.701025  5.234725E-01   -0.566076  7.767945E-03   48.751785
  0.012946593  2.112747E-03  107.381683  5.110823E-01   -0.510518  5.211975E-01   -0.177888  8.069860E-03   50.759205
  0.013038674  6.932025E-03  -41.869999  5.136760E-01    0.013257  5.198076E-01   -0.139822  6.761469E-03   57.225739
  0.013130755  9.755396E-03  -53.559464  5.199630E-01    0.336403  5.097855E-01   -0.433002  1.217805E-02  -76.290680
  0.013222836  1.068030E-02   26.097359  5.146114E-01   -1.131434  5.217230E-01   -0.275698  4.374853E-03  -48.425907
  0.013314917  1.734338E-02   38.772339  5.158400E-01    0.018115  5.138522E-01    0.053399  1.085681E-02   53.222649
  0.013406998  8.773433E-03   37.819519  5.134758E-01    0.316517  5.219810E-01    0.015747  8.205472E-03   32.068382
  0.013499079  7.701792E-03   23.817303  5.130388E-01    0.515791  5.173535E-01    0.839101  1.112268E-02   58.410980
  0.013591160  9.298076E-03   18.101925  5.173536E-01    0.181763  5.134780E-01    0.034752  1.029500E-02   11.198112
  0.013683241  4.375878E-03   49.021416  5.210220E-01    0.159808  5.151274E-01   -0.237162  1.397425E-02   18.311878
  0.013775322  4.864241E-03   89.332024  5.089911E-01    1.223599  5.025846E-01   -0.532155  7.404641E-03   32.888371
  0.013867403  4.678379E-03    8.953731  5.192636E-01   -1.087948  5.151322E-01    0.258266  8.164905E-03  -74.360619
  0.013959484  7.654866E-03   59.724976  5.058956E-01   -0.688590  5.130471E-01   -0.792881  5.962498E-03  -69.416580
  0.014051565  7.113322E-03   37.540966  5.106245E-01    0.572999  5.195782E-01    0.278241  8.797844E-03    7.478856
  0.014143646  5.640709E-03   -1.186476  5.183365E-01    0.759145  5.208124E-01    0.131260  1.434940E-02   -8.404624
  0.014235727  1.638056E-02   20.145674  5.224054E-01   -0.234644  5.142010E-01   -0.010912  3.793814E-03   12.524817
  0.014327808  9.657059E-03   28.615032  5.189051E-01   -0.254555  5.100755E-01   -0.084434  9.024438E-03  -21.466650
  0.014419890  7.806285E-03    6.705867  5.119517E-01   -0.676842  5.145265E-01    0.535920  7.883146E-03   64.095093
  0.014511971  1.455493E-02  -25.213840  5.139978E-01   -0.294895  5.138023E-01    0.131985  9.758333E-03   47.320511
  0.014604052  3.988543E-03  -21.470583  5.181636E-01    0.622436  5.162561E-01   -0.199435  1.102516E-02   -7.041736
  0.014696133  1.372016E-02  -24.209524  5.127609E-01    0.553199  5.184759E-01    0.502069  1.678520E-03  -48.123409
  0.014788214  1.110014E-02  -47.657593  5.131451E-01    0.035222  5.146077E-01   -0.220092  4.744686E-03  -63.161736
  0.014880295  4.531755E-03   69.832962  5.195861E-01   -0.551775  5.177479E-01    0.737412  6.819037E-03  -37.440964
  0.014972376  9.200936E-03  131.900208  5.243306E-01    0.531766  5.138671E-01    0.321349  1.010235E-02  -19.466585
  0.015064457  7.020261E-03   46.819916  5.049809E-01   -0.276369  5.084156E-01   -0.334129  1.410825E-02   -0.261549
  0.015156538  2.891968E-03   43.895725  5.146051E-01   -0.255829  5.102587E-01    0.563578  1.132243E-02  -20.206224
  0.015248619  1.245992E-02    3.398924  5.124578E-01   -0.979115  5.135764E-01    0.381294  6.685133E-03 -119.322052
  0.015340700  2.366964E-03  -53.775169  5.068493E-01    0.487953  5.186477E-01    0.717569  5.635775E-03 -152.855209
  0.015432781  1.140126E-02   20.399944  5.043266E-01   -0.353946  5.165572E-01    0.342770  8.975720E-03  -25.768579
  0.015524862  1.114759E-02  -21.695709  5.020593E-01    0.071260  5.126656E-01   -0.368855  8.320256E-03   21.981932
  0.015616943  1.141818E-02  -44.058651  5.106485E-01   -0.460475  5.121646E-01   -0.572443  7.797322E-03    8.703648
  0.015709024  1.480413E-02  -15.405751  5.119885E-01    0.500898  5.144365E-01   -0.347534  9.110662E-03   10.324759
  0.015801105  8.304762E-03   31.114214  5.035434E-01    1.231649  5.167793E-01   -0.060328  6.978438E-03   57.439159
  0.015893186  7.618484E-03   15.074224  5.096065E-01   -0.501950  5.244557E-01   -0.469948  1.009443E-02   23.397575
  0.015985267  4.293955E-03   47.797985  5.188771E-01   -0.227019  5.135452E-01    0.167490  2.215972E-03   33.852421
  0.016077348  7.896317E-03    7.163537  5.152231E-01    0.377264  5.120785E-01    0.078537  7.351161E-03   16.472506
  0.016169429  5.794098E-03   39.075825  5.137998E-01   -0.739296  5.143397E-01   -0.584707  1.225989E-02   15.408922
  0.016261510  6.981517E-03    0.482171  5.130586E-01    0.141193  5.130498E-01    0.563183  1.052211E-02    0.074268
  0.016353591  3.520678E-03  -70.706459  5.137310E-01   -0.005642  5.198286E-01    0.557165  5.568024E-03   50.041588
  0.016445672  4.523996E-03    5.639392  5.088764E-01   -0.953502  5.098386E-01    0.638101  7.702194E-03    1.481375
  0.016537753  7.078771E-03  -24.643394  5.126784E-01    0.524570  5.109278E-01    0.294673  9.268378E-03   -4.436334
  0.016629834  1.778879E-03   51.123589  5.058818E-01   -0.737014  5.100186E-01    0.293582  1.554324E-02   -0.594572
  0.016721915  2.893287E-03  -49.079391  5.135542E-01    0.725486  5.107083E-01    0.592773  8.566113E-03  -18.622858
  0.016813996  4.683324E-03  -26.682245  5.175511E-01    0.120325  5.110264E-01    0.264113  4.502958E-03  -27.107008
  0.016906077  8.868140E-03  -46.044422  5.165164E-01    0.346424  5.092354E-01    0.991917  6.937959E-03  -67.384216
  0.016998158  1.307225E-02  -19.859795  5.196100E-01    0.007350  5.054284E-01   -0.135500  1.180056E-02  -54.992607
  0.017090239  1.232963E-02  -34.830681  5.238845E-01   -0.135661  5.116526E-01   -0.333868  1.545869E-03  -68.138435
  0.017182320  9.005071E-03  -58.290501  5.152937E-01   -0.090888  5.132319E-01   -0.153713  3.047550E-03 -101.987671
  0.017274401  1.129017E-02   -6.729111  5.129705E-01    0.415756  5.085097E-01    0.185909  7.871119E-03   50.647644
  0.017366483  6.599085E-03   -5.925176  5.202815E-01   -0.078307  5.143541E-01    0.375248  3.908596E-03   -5.850139
  0.017458564  1.111556E-02    6.230627  5.201326E-01    0.698161  5.203201E-01    0.228470  5.495721E-03   60.454266
  0.017550645  7.336601E-03  -18.633728  5.231541E-01    0.040090  5.121265E-01   -0.604424  1.307141E-02  -15.699044
  0.017642726  9.546829E-03   14.850863  5.219653E-01    0.408750  5.092422E-01   -0.364126  2.910369E-03  -67.636734
  0.017734807  7.128018E-03  -12.686011  5.087984E-01    0.286652  5.058134E-01   -0.400078  2.664639E-03   80.727448
  0.017826888  1.397614E-02   10.676459  5.154712E-01   -0.425307  5.245678E-01   -1.841027  5.951633E-03  -59.223438
  0.017918969  9.601184E-03   38.952011  5.118292E-01   -0.690839  5.128277E-01   -0.713017  3.972098E-03   97.732498
  0.018011050  1.160759E-02   13.063231  5.169086E-01    0.213021  5.144349E-01   -1.022849  4.478511E-03   68.432190
  0.018103131  1.417273E-02   20.010721  5.231555E-01   -0.077515  5.251633E-01    0.257753  8.566543E-03   33.554707
  0.018195212  1.970776E-02   10.787287  5.159681E-01    0.016699  5.216884E-01   -0.134897  2.410290E-03  -52.701122
  0.018287293  7.266147E-03   12.665773  5.170898E-01   -0.447846  5.138009E-01    0.757893  2.383446E-03  -69.648254
  0.018379374  8.953673E-03   -7.408882  5.190650E-01    0.111189  5.176037E-01    0.912951  8.954236E-03  -36.512310
  0.018471455  1.205417E-02   13.459433  5.179600E-01    0.109824  5.251051E-01   -0.039563  9.570266E-03   -4.028543
  0.018563536  1.531937E-02   -3.690472  5.164568E-01   -0.834705  5.164492E-01   -0.255470  8.139461E-03  -73.239876
  0.018655617  1.222252E-02    2.849956  5.139524E-01   -0.210632  5.100636E-01    0.563514  6.513389E-03   44.787643
  0.018747698  1.217920E-02    8.202681  5.145972E-01    0.055849  5.039007E-01   -0.859473  1.449984E-02   -7.050263
  0.018839779  1.405593E-02   10.687691  5.135745E-01   -0.076449  5.175501E-01    0.022525  5.400773E-03   42.642193
  0.018931860  1.739518E-02   25.285980  5.092422E-01   -1.029515  5.122854E-01   -0.207584  1.073651E-02  -75.294121
  0.019023941  7.349736E-03    1.848671  5.093452E-01    0.654337  5.120038E-01   -0.972456  5.620349E-03   31.330921
  0.019116022  1.593119E-02   24.261002  5.132708E-01   -0.151717  5.073402E-01   -0.362981  9.640499E-03  -11.669651
  0.019208103  5.956553E-03   -1.745157  5.119424E-01   -0.071260  5.122026E-01    0.141740  1.357435E-02  -42.660690
  0.019300184  1.509643E-02   27.831861  5.218463E-01    1.011497  5.195959E-01    1.540888  6.905157E-03   -5.544558
  0.019392265  1.285436E-02  -13.208538  5.187846E-01    0.768402  5.231200E-01   -0.725574  1.597349E-02  -37.485413
  0.019484346  4.615019E-03  -70.508621  5.118099E-01    0.576217  5.150285E-01    0.211678  1.011073E-02  -16.261778
  0.019576427  3.538084E-03   -9.848031  5.236093E-01    0.655664  5.159944E-01    0.308133  1.034098E-02  -33.272881
  0.019668508  1.507998E-02   25.597498  5.170194E-01   -0.174793  5.180071E-01   -0.044707  1.421224E-02  -14.613039
  0.019760589  1.146913E-02  -24.756094  5.162648E-01    0.537759  5.093939E-01    0.224178  6.866693E-03    4.322677
  0.019852670  7.638524E-03  -31.937746  5.100816E-01   -0.433598  5.079412E-01    0.805781  1.212793E-02  -30.409403
  0.019944751  1.337548E-02  -10.607851  5.171694E-01   -0.395544  5.123213E-01    0.456918  7.076995E-03   32.951477
  0.020036832  1.836863E-03 -140.110367  5.156625E-01    0.443901  5.168942E-01   -0.257276  6.798693E-03   32.513641
  0.020128913  1.343337E-02    6.274590  5.120987E-01   -0.514662  5.132030E-01    1.164466  1.075705E-02   67.643105
  0.020220994  5.225548E-03   58.032169  5.146956E-01    0.092025  5.063313E-01    1.595789  6.495018E-03  -18.090542
  0.020313076  7.327470E-03   19.104641  5.152930E-01   -0.160280  5.154182E-01    0.838584  1.101420E-02   -0.248926
  0.020405157  5.043047E-03   39.114380  5.193210E-01    0.158060  5.140893E-01    1.412930  3.819139E-04 -125.659088
  0.020497238  7.769218E-03   58.793579  5.169287E-01   -0.185782  5.149606E-01    1.075356  1.082443E-02  -20.714132
  0.020589319  1.135845E-02  104.381714  5.210295E-01    1.020061  5.155184E-01    0.861922  1.448670E-02   14.949175
  0.020681400  3.383986E-03   48.576065  5.195999E-01    1.077289  5.115386E-01    0.402049  1.550137E-02   -9.851281
  0.020773481  1.112986E-03    7.953287  5.140107E-01    0.572543  5.132299E-01    0.505161  5.325685E-03   -4.629475
  0.020865562  5.980508E-03   55.935699  5.100487E-01    0.370764  5.143105E-01    0.383672  7.081258E-03   15.710999
  0.020957643  6.666538E-03   73.176041  5.132096E-01    0.475812  5.172241E-01    0.451840  1.094405E-02   73.816910
  0.021049724  3.796203E-03   -0.304001  5.148754E-01    0.305669  5.098288E-01   -0.103553  9.045159E-03   37.644787
  0.021141805  1.090351E-02   54.609589  5.202637E-01   -0.385355  5.085940E-01    1.650695  8.568427E-03   51.009163
  0.021233886  1.057855E-02   65.136116  5.150814E-01   -0.497871  5.113963E-01    0.442984  9.340516E-03  -42.681381
  0.021325967  1.093267E-02   -3.193096  5.032473E-01    0.260998  5.185220E-01    1.292884  7.682905E-03   40.325684
  0.021418048  1.073103E-02    9.643108  5.118823E-01   -0.261486  5.118527E-01    0.333409  2.742254E-03  147.487411
  0.021510129  8.317504E-03   48.300148  5.138105E-01   -0.570548  5.209761E-01    0.014103  5.999789E-03  107.212540
  0.021602210  6.396808E-03   30.509819  5.080671E-01    0.019454  5.201590E-01    0.562369  6.329960E-03   83.032242
  0.021694291  7.574711E-03  -18.847233  5.238512E-01    1.247380  5.158399E-01    0.476588  4.276346E-03   33.500584
  0.021786372  5.880476E-03   41.414440  5.085377E-01    0.094603  5.143285E-01    0.078629  8.420802E-03   52.135117
  0.021878453  6.859009E-03   28.136797  5.138818E-01    0.617110  5.197299E-01    0.919119  1.748670E-02   37.770065
  0.021970534  4.384321E-03  -11.632591  4.978246E-01    0.871730  5.160874E-01    0.237832  7.778298E-03   26.275028
  0.022062615  4.929760E-03  126.793854  5.139615E-01   -0.535852  5.140229E-01    1.016515  6.817912E-03   -2.891819
  0.022154696  1.205983E-02   61.429512  5.047209E-01    0.692725  5.223979E-01    0.314383  2.846372E-03   64.632950
  0.022246777  6.136875E-03  -25.063932  5.109242E-01    0.709419  5.261868E-01   -0.331898  9.619094E-03   34.220291
  0.022338858  3.342991E-03   66.404175  5.169401E-01    0.161368  5.139609E-01   -0.296478  7.170827E-03   21.836367
  0.022430939  3.003092E-03   71.968567  5.178435E-01    0.510371  5.190558E-01   -0.334558  3.442697E-03   52.799408
  0.022523020  2.001917E-03  -59.220894  5.220480E-01   -0.013244  5.207166E-01    0.640829  6.246076E-03  -37.593708
  0.022615101  1.684395E-03    6.241657  5.172126E-01    0.752939  5.123160E-01   -0.030364  3.010303E-03    4.266681
  0.022707182  7.671484E-03  -48.401791  5.225674E-01    0.131034  5.204439E-01   -0.151466  3.263525E-03   60.056393
  0.022799263  1.148501E-02   71.201874  5.230731E-01    0.549587  5.242549E-01    0.247971  4.090128E-03 -126.598495
  0.022891344  3.240624E-03  139.929871  5.147772E-01    0.259541  5.167725E-01    0.793242  8.421101E-03  -24.507303
  0.022983425  1.139826E-02   42.441528  5.197354E-01    0.072633  5.120211E-01   -0.026721  7.357949E-03    5.815489
  0.023075506  5.860654E-03  169.990585  5.139651E-01    0.200421  5.246876E-01   -0.266782  4.733774E-03  -28.511961
  0.023167587  1.126580E-03   44.146873  5.165352E-01    0.125901  5.160440E-01    0.805458  6.311619E-03    2.713778
  0.023259669  8.760219E-03   67.610893  5.191365E-01    0.996719  5.219789E-01    1.109633  4.215323E-03  -19.562538
  0.023351750  7.231072E-03  -24.033728  5.122926E-01    0.550028  5.166313E-01    0.063815  8.295139E-03   39.129704
  0.023443831  9.587027E-04   64.857170  5.244132E-01    0.435969  5.158908E-01    1.239780  3.898852E-03  -21.371740
  0.023535912  2.166378E-03  -40.949841  5.120377E-01   -0.218352  5.259545E-01    0.179471  3.362061E-03    2.978264
  0.023627993  6.059290E-03  119.671936  5.094355E-01   -0.140720  5.144690E-01   -0.668890  1.074542E-02  -68.351891
  0.023720074  8.407042E-03   -4.125357  5.126749E-01   -0.465652  5.241114E-01    1.046691  1.457139E-02  -64.259705
  0.023812155  3.095660E-03   24.368486  5.158764E-01   -0.174196  5.166570E-01    0.812387  4.711863E-03 -161.047729
  0.023904236  6.089928E-03  -26.284662  5.169635E-01    1.312048  5.140385E-01   -0.076440  5.894509E-03   93.489502
  0.023996317  7.689679E-03  -28.219080  5.184432E-01    0.565389  5.244012E-01    0.614641  1.034289E-03   59.427620
  0.024088398  2.614315E-03   74.228134  5.141054E-01    0.581731  5.198863E-01   -0.628675  5.995811E-03  106.029236
