! Anritsu VNA Master:                     Model: MS2036C/10/77
! SN:                                  1601066
! /card0/usr/18may27.balun/252b.66.5.s2p
! Existing Calibration Information:
! TYPE:                         Current Settings,       Active Cal Settings
! TIME:             	   05/27/2018 01:21:30 PM,    05/27/2018 01:14:08 PM
! INTERNAL TEMP:    	                   52.0 C,                    52.0 C
! # POINTS:         	                      500,                       500
! START FREQ:       	               20.000 MHz,                20.000 MHz
! STOP FREQ:        	              120.000 MHz,               120.000 MHz
! SOURCE POWER:     	                     High,                      High
! IFBW:             	                    50 Hz,                     50 Hz
! AVG FACTOR:       	                       1 ,                        1 
! REF PLANE 1:      	                     0 mm,                      0 mm
! REF PLANE 2:      	                     0 mm,                      0 mm
! CAL TYPE:         	                 Full S11,                  Full S11
! CAL METHOD:       	                     SOLT,                      SOLT
! CAL LINE TYPE:    	                     Coax,                      Coax
! DUT PORT 1:       	                K-Conn(M),                 K-Conn(M)
! DUT PORT 2:       	                K-Conn(M),                 K-Conn(M)
! CAL STATUS:       	        OK: Accuracy High,                        --
# GHZ S DB R 50.0
! FREQ.GHZ       S11DB        S11A       S21DB        S21A       S12DB        S12A       S22DB        S22A
  0.020000000   -0.037714  -68.071884  -90.358718   36.112350    0.000000    0.000000    0.000000    0.000000
  0.020200401   -0.033306  -68.732407  -90.421811   32.946980    0.000000    0.000000    0.000000    0.000000
  0.020400802   -0.031383  -69.382599  -90.880483   29.601727    0.000000    0.000000    0.000000    0.000000
  0.020601202   -0.031827  -70.024612  -90.604694   28.064695    0.000000    0.000000    0.000000    0.000000
  0.020801603   -0.028510  -70.649948  -91.009123   28.301168    0.000000    0.000000    0.000000    0.000000
  0.021002004   -0.029326  -71.304024  -91.638319   31.260078    0.000000    0.000000    0.000000    0.000000
  0.021202405   -0.033208  -71.957535  -92.328822   23.164164    0.000000    0.000000    0.000000    0.000000
  0.021402806   -0.037973  -72.593140  -92.548249   22.268236    0.000000    0.000000    0.000000    0.000000
  0.021603206   -0.043167  -73.231987  -92.593858   28.877798    0.000000    0.000000    0.000000    0.000000
  0.021803607   -0.047018  -73.855537  -93.412181   31.484993    0.000000    0.000000    0.000000    0.000000
  0.022004008   -0.049640  -74.486633  -93.414988   27.690441    0.000000    0.000000    0.000000    0.000000
  0.022204409   -0.054346  -75.133347  -93.312342   35.270138    0.000000    0.000000    0.000000    0.000000
  0.022404810   -0.055496  -75.775795  -93.602944   29.587034    0.000000    0.000000    0.000000    0.000000
  0.022605210   -0.056753  -76.426033  -93.925516   31.853611    0.000000    0.000000    0.000000    0.000000
  0.022805611   -0.052664  -77.081169  -93.767166   34.371090    0.000000    0.000000    0.000000    0.000000
  0.023006012   -0.045122  -77.730804  -93.864640   33.226646    0.000000    0.000000    0.000000    0.000000
  0.023206413   -0.039097  -78.374313  -93.586126   34.347244    0.000000    0.000000    0.000000    0.000000
  0.023406814   -0.034161  -79.016296  -93.498264   33.839809    0.000000    0.000000    0.000000    0.000000
  0.023607214   -0.031108  -79.634712  -92.790292   34.418110    0.000000    0.000000    0.000000    0.000000
  0.023807615   -0.031933  -80.233894  -92.868723   33.765232    0.000000    0.000000    0.000000    0.000000
  0.024008016   -0.037415  -80.803146  -93.098038   35.118080    0.000000    0.000000    0.000000    0.000000
  0.024208417   -0.041280  -81.377541  -92.850534   31.341949    0.000000    0.000000    0.000000    0.000000
  0.024408818   -0.047641  -81.944138  -93.017115   28.197763    0.000000    0.000000    0.000000    0.000000
  0.024609218   -0.054449  -82.519745  -93.071097   28.197210    0.000000    0.000000    0.000000    0.000000
  0.024809619   -0.060469  -83.136116  -93.598643   23.364807    0.000000    0.000000    0.000000    0.000000
  0.025010020   -0.060510  -83.780128  -93.562286   26.821850    0.000000    0.000000    0.000000    0.000000
  0.025210421   -0.061799  -84.422798  -94.001477   20.671448    0.000000    0.000000    0.000000    0.000000
  0.025410822   -0.064078  -85.083069  -93.359549   21.494396    0.000000    0.000000    0.000000    0.000000
  0.025611222   -0.065053  -85.714195  -94.345806   17.069960    0.000000    0.000000    0.000000    0.000000
  0.025811623   -0.060760  -86.362823  -94.170571   14.639035    0.000000    0.000000    0.000000    0.000000
  0.026012024   -0.054797  -86.972313  -94.308569   16.151390    0.000000    0.000000    0.000000    0.000000
  0.026212425   -0.054211  -87.577484  -94.256715   16.942230    0.000000    0.000000    0.000000    0.000000
  0.026412826   -0.057479  -88.174194  -95.824411   21.791574    0.000000    0.000000    0.000000    0.000000
  0.026613226   -0.061326  -88.770836  -95.475556   15.387008    0.000000    0.000000    0.000000    0.000000
  0.026813627   -0.067464  -89.344147  -96.527030   21.093721    0.000000    0.000000    0.000000    0.000000
  0.027014028   -0.075868  -89.904861  -96.240527   22.605541    0.000000    0.000000    0.000000    0.000000
  0.027214429   -0.084572  -90.492317  -95.628540   23.135832    0.000000    0.000000    0.000000    0.000000
  0.027414830   -0.095897  -91.120911  -95.861496   21.259403    0.000000    0.000000    0.000000    0.000000
  0.027615230   -0.102051  -91.796394  -95.894250   20.870022    0.000000    0.000000    0.000000    0.000000
  0.027815631   -0.103778  -92.484993  -96.634904   25.445511    0.000000    0.000000    0.000000    0.000000
  0.028016032   -0.099217  -93.176659  -95.381106   26.733402    0.000000    0.000000    0.000000    0.000000
  0.028216433   -0.090025  -93.872025  -95.728508   27.380816    0.000000    0.000000    0.000000    0.000000
  0.028416834   -0.079409  -94.534363  -95.911406   21.516605    0.000000    0.000000    0.000000    0.000000
  0.028617234   -0.071421  -95.182877  -96.511545   26.166698    0.000000    0.000000    0.000000    0.000000
  0.028817635   -0.064076  -95.771622  -95.835119   23.707838    0.000000    0.000000    0.000000    0.000000
  0.029018036   -0.055793  -96.310928  -95.936446   21.059135    0.000000    0.000000    0.000000    0.000000
  0.029218437   -0.050676  -96.835976  -95.138231   20.132902    0.000000    0.000000    0.000000    0.000000
  0.029418838   -0.045835  -97.335320  -95.899815   17.340618    0.000000    0.000000    0.000000    0.000000
  0.029619238   -0.043145  -97.819809  -96.462388   20.074900    0.000000    0.000000    0.000000    0.000000
  0.029819639   -0.044609  -98.339302  -96.738414   14.793660    0.000000    0.000000    0.000000    0.000000
  0.030020040   -0.052242  -98.873711  -95.607155   10.451205    0.000000    0.000000    0.000000    0.000000
  0.030220441   -0.062649  -99.429939  -97.341451   11.213460    0.000000    0.000000    0.000000    0.000000
  0.030420842   -0.073860 -100.026245  -97.200526   12.896923    0.000000    0.000000    0.000000    0.000000
  0.030621242   -0.083189 -100.661209  -97.744580   14.991184    0.000000    0.000000    0.000000    0.000000
  0.030821643   -0.083630 -101.298019  -97.553687   16.971136    0.000000    0.000000    0.000000    0.000000
  0.031022044   -0.082141 -101.901695  -98.074508   14.296050    0.000000    0.000000    0.000000    0.000000
  0.031222445   -0.077210 -102.492531  -97.403269    9.370941    0.000000    0.000000    0.000000    0.000000
  0.031422846   -0.074051 -103.078751  -96.945713   10.440586    0.000000    0.000000    0.000000    0.000000
  0.031623246   -0.076947 -103.624969  -98.017388   11.745572    0.000000    0.000000    0.000000    0.000000
  0.031823647   -0.077361 -104.165169  -98.054351    7.883028    0.000000    0.000000    0.000000    0.000000
  0.032024048   -0.078961 -104.679581  -97.603825   18.058239    0.000000    0.000000    0.000000    0.000000
  0.032224449   -0.087282 -105.197319  -98.102238   10.293277    0.000000    0.000000    0.000000    0.000000
  0.032424850   -0.099616 -105.731018  -98.121721   -2.090683    0.000000    0.000000    0.000000    0.000000
  0.032625251   -0.111462 -106.313477  -98.879563   10.873129    0.000000    0.000000    0.000000    0.000000
  0.032825651   -0.123232 -106.907898  -97.157633   12.536822    0.000000    0.000000    0.000000    0.000000
  0.033026052   -0.128698 -107.549446  -98.447787    9.482648    0.000000    0.000000    0.000000    0.000000
  0.033226453   -0.128326 -108.181793  -99.402375    6.145677    0.000000    0.000000    0.000000    0.000000
  0.033426854   -0.132189 -108.813072  -98.555101    9.663250    0.000000    0.000000    0.000000    0.000000
  0.033627255   -0.133770 -109.470909  -97.077107   18.779629    0.000000    0.000000    0.000000    0.000000
  0.033827655   -0.134028 -110.122643  -98.676226    7.689198    0.000000    0.000000    0.000000    0.000000
  0.034028056   -0.128549 -110.735435  -97.663844   16.602074    0.000000    0.000000    0.000000    0.000000
  0.034228457   -0.120014 -111.357895  -97.724386    7.770666    0.000000    0.000000    0.000000    0.000000
  0.034428858   -0.111876 -111.940445  -98.246556   15.941883    0.000000    0.000000    0.000000    0.000000
  0.034629259   -0.100964 -112.490097  -98.587723   11.529162    0.000000    0.000000    0.000000    0.000000
  0.034829659   -0.095296 -112.992722  -99.510164   15.778299    0.000000    0.000000    0.000000    0.000000
  0.035030060   -0.090173 -113.492996  -98.660004   11.466714    0.000000    0.000000    0.000000    0.000000
  0.035230461   -0.086297 -113.976654  -98.773882    9.120981    0.000000    0.000000    0.000000    0.000000
  0.035430862   -0.087760 -114.476189  -99.712871   15.256173    0.000000    0.000000    0.000000    0.000000
  0.035631263   -0.094714 -114.997643  -98.269826    7.335360    0.000000    0.000000    0.000000    0.000000
  0.035831663   -0.103022 -115.532051  -99.377662   11.704738    0.000000    0.000000    0.000000    0.000000
  0.036032064   -0.113095 -116.106262 -100.534480    1.135765    0.000000    0.000000    0.000000    0.000000
  0.036232465   -0.118469 -116.682045  -99.031876    8.789516    0.000000    0.000000    0.000000    0.000000
  0.036432866   -0.123730 -117.309456 -100.104649    6.828268    0.000000    0.000000    0.000000    0.000000
  0.036633267   -0.125638 -117.899666  -98.664844   -0.526054    0.000000    0.000000    0.000000    0.000000
  0.036833667   -0.121723 -118.506241 -100.818776    3.142576    0.000000    0.000000    0.000000    0.000000
  0.037034068   -0.109733 -119.044113 -100.363466    7.039856    0.000000    0.000000    0.000000    0.000000
  0.037234469   -0.102273 -119.526550 -100.458704    9.172717    0.000000    0.000000    0.000000    0.000000
  0.037434870   -0.099640 -119.994514  -99.635781   16.698313    0.000000    0.000000    0.000000    0.000000
  0.037635271   -0.098967 -120.478119 -100.319711   18.644695    0.000000    0.000000    0.000000    0.000000
  0.037835671   -0.105952 -120.969574  -97.806361   17.736177    0.000000    0.000000    0.000000    0.000000
  0.038036072   -0.114991 -121.495857  -98.652216   12.064816    0.000000    0.000000    0.000000    0.000000
  0.038236473   -0.122673 -122.039909  -99.574033   19.571304    0.000000    0.000000    0.000000    0.000000
  0.038436874   -0.130172 -122.603889  -99.304098   10.158983    0.000000    0.000000    0.000000    0.000000
  0.038637275   -0.136781 -123.155281  -99.236445   10.790692    0.000000    0.000000    0.000000    0.000000
  0.038837675   -0.142775 -123.719475  -99.593282   16.904165    0.000000    0.000000    0.000000    0.000000
  0.039038076   -0.150048 -124.305588  -98.860042   12.145876    0.000000    0.000000    0.000000    0.000000
  0.039238477   -0.153065 -124.891701 -100.205618   -3.821441    0.000000    0.000000    0.000000    0.000000
  0.039438878   -0.153987 -125.481186 -100.197611    7.670231    0.000000    0.000000    0.000000    0.000000
  0.039639279   -0.149749 -126.048836 -100.549983    2.181003    0.000000    0.000000    0.000000    0.000000
  0.039839679   -0.145472 -126.585892 -102.061710   -3.256798    0.000000    0.000000    0.000000    0.000000
  0.040040080   -0.138566 -127.112457 -101.602649   -4.168943    0.000000    0.000000    0.000000    0.000000
  0.040240481   -0.134196 -127.629158 -101.387859   -2.638494    0.000000    0.000000    0.000000    0.000000
  0.040440882   -0.132751 -128.145554 -100.763308    5.580451    0.000000    0.000000    0.000000    0.000000
  0.040641283   -0.128216 -128.668350 -102.543752   -4.538284    0.000000    0.000000    0.000000    0.000000
  0.040841683   -0.130288 -129.175705 -100.217386    8.217713    0.000000    0.000000    0.000000    0.000000
  0.041042084   -0.130959 -129.678970 -103.689593   34.493546    0.000000    0.000000    0.000000    0.000000
  0.041242485   -0.139736 -130.181107 -101.385901    4.940811    0.000000    0.000000    0.000000    0.000000
  0.041442886   -0.152765 -130.695709 -100.643164    5.873512    0.000000    0.000000    0.000000    0.000000
  0.041643287   -0.163054 -131.274323 -103.128974    6.167638    0.000000    0.000000    0.000000    0.000000
  0.041843687   -0.166335 -131.862167 -100.708060   24.953650    0.000000    0.000000    0.000000    0.000000
  0.042044088   -0.162713 -132.458115 -102.097921   14.994063    0.000000    0.000000    0.000000    0.000000
  0.042244489   -0.150534 -133.017242 -101.284176   29.595005    0.000000    0.000000    0.000000    0.000000
  0.042444890   -0.141374 -133.531937 -100.870356    4.356069    0.000000    0.000000    0.000000    0.000000
  0.042645291   -0.136871 -133.999527 -101.356276   21.067532    0.000000    0.000000    0.000000    0.000000
  0.042845691   -0.134604 -134.483109 -100.594131   16.074394    0.000000    0.000000    0.000000    0.000000
  0.043046092   -0.138282 -134.968094 -103.353563   10.816955    0.000000    0.000000    0.000000    0.000000
  0.043246493   -0.142143 -135.483459  -99.505281    9.788111    0.000000    0.000000    0.000000    0.000000
  0.043446894   -0.146798 -135.986450  -99.142734    8.669580    0.000000    0.000000    0.000000    0.000000
  0.043647295   -0.150226 -136.473373  -99.940985   11.223349    0.000000    0.000000    0.000000    0.000000
  0.043847695   -0.156147 -136.976364 -100.110013    4.551652    0.000000    0.000000    0.000000    0.000000
  0.044048096   -0.161589 -137.470612 -102.419405    1.593558    0.000000    0.000000    0.000000    0.000000
  0.044248497   -0.168852 -137.982040 -100.953921   -0.940258    0.000000    0.000000    0.000000    0.000000
  0.044448898   -0.171454 -138.522507  -99.655869    4.441751    0.000000    0.000000    0.000000    0.000000
  0.044649299   -0.170496 -139.027466  -99.945202    3.529463    0.000000    0.000000    0.000000    0.000000
  0.044849699   -0.170490 -139.524475 -101.756260   -0.359069    0.000000    0.000000    0.000000    0.000000
  0.045050100   -0.169915 -139.984314 -103.348405   -7.224889    0.000000    0.000000    0.000000    0.000000
  0.045250501   -0.169960 -140.463486 -102.279721   -4.265132    0.000000    0.000000    0.000000    0.000000
  0.045450902   -0.170757 -140.965271 -102.799748   -4.370871    0.000000    0.000000    0.000000    0.000000
  0.045651303   -0.170915 -141.463028 -103.536613    2.636777    0.000000    0.000000    0.000000    0.000000
  0.045851703   -0.168075 -141.956375 -103.995906  -12.497718    0.000000    0.000000    0.000000    0.000000
  0.046052104   -0.165078 -142.415970 -102.998718    7.051355    0.000000    0.000000    0.000000    0.000000
  0.046252505   -0.166421 -142.879013 -107.300377   -0.334942    0.000000    0.000000    0.000000    0.000000
  0.046452906   -0.173422 -143.321304 -103.785138    4.978370    0.000000    0.000000    0.000000    0.000000
  0.046653307   -0.183764 -143.794250 -102.630793    6.365321    0.000000    0.000000    0.000000    0.000000
  0.046853707   -0.194092 -144.298569 -102.780662   10.188334    0.000000    0.000000    0.000000    0.000000
  0.047054108   -0.199509 -144.830261 -103.490531   -3.182601    0.000000    0.000000    0.000000    0.000000
  0.047254509   -0.196374 -145.395432 -100.200642   15.888212    0.000000    0.000000    0.000000    0.000000
  0.047454910   -0.190694 -145.943176 -103.672788   22.909946    0.000000    0.000000    0.000000    0.000000
  0.047655311   -0.184595 -146.443329 -101.804682   18.134197    0.000000    0.000000    0.000000    0.000000
  0.047855711   -0.182958 -146.931870 -100.905843   10.801427    0.000000    0.000000    0.000000    0.000000
  0.048056112   -0.182297 -147.443741 -102.406512   12.776455    0.000000    0.000000    0.000000    0.000000
  0.048256513   -0.181959 -147.945251 -100.769537    7.637011    0.000000    0.000000    0.000000    0.000000
  0.048456914   -0.181493 -148.455475 -100.023324    7.693456    0.000000    0.000000    0.000000    0.000000
  0.048657315   -0.183551 -148.949631 -101.046728   -6.131506    0.000000    0.000000    0.000000    0.000000
  0.048857715   -0.186389 -149.451431 -101.583442   -0.150347    0.000000    0.000000    0.000000    0.000000
  0.049058116   -0.191537 -149.947754 -100.632853  -10.790449    0.000000    0.000000    0.000000    0.000000
  0.049258517   -0.195205 -150.480774 -101.955223  -13.376149    0.000000    0.000000    0.000000    0.000000
  0.049458918   -0.198691 -150.992050 -101.713407  -15.866365    0.000000    0.000000    0.000000    0.000000
  0.049659319   -0.199257 -151.512619 -102.599294   -8.628288    0.000000    0.000000    0.000000    0.000000
  0.049859719   -0.195673 -152.013718 -102.414331   -5.751139    0.000000    0.000000    0.000000    0.000000
  0.050060120   -0.195938 -152.501587 -104.616571   -4.193260    0.000000    0.000000    0.000000    0.000000
  0.050260521   -0.193592 -152.981628 -104.912731   -5.745742    0.000000    0.000000    0.000000    0.000000
  0.050460922   -0.196382 -153.452301 -104.792532   -4.478992    0.000000    0.000000    0.000000    0.000000
  0.050661323   -0.195676 -153.933990 -109.046608   -6.634830    0.000000    0.000000    0.000000    0.000000
  0.050861723   -0.194601 -154.414474 -106.177536    0.926380    0.000000    0.000000    0.000000    0.000000
  0.051062124   -0.190951 -154.879990 -106.237208   17.316082    0.000000    0.000000    0.000000    0.000000
  0.051262525   -0.188355 -155.321732 -107.481322   26.998272    0.000000    0.000000    0.000000    0.000000
  0.051462926   -0.190916 -155.749405 -104.209861    1.409690    0.000000    0.000000    0.000000    0.000000
  0.051663327   -0.192442 -156.167633 -106.741652   32.613060    0.000000    0.000000    0.000000    0.000000
  0.051863727   -0.200845 -156.597824 -104.402907    5.122683    0.000000    0.000000    0.000000    0.000000
  0.052064128   -0.205028 -157.046127 -102.852299   28.348196    0.000000    0.000000    0.000000    0.000000
  0.052264529   -0.209346 -157.506805 -101.727952   15.320397    0.000000    0.000000    0.000000    0.000000
  0.052464930   -0.210696 -157.986450 -100.833461   -3.385085    0.000000    0.000000    0.000000    0.000000
  0.052665331   -0.209683 -158.448547 -103.399478    8.189966    0.000000    0.000000    0.000000    0.000000
  0.052865731   -0.207102 -158.898102 -102.405485   18.733412    0.000000    0.000000    0.000000    0.000000
