! Anritsu VNA Master:                     Model: MS2036C/10/77
! SN:                                  1601066
! /card0/usr/18may27.balun/252b.r50.s2p
! Existing Calibration Information:
! TYPE:                         Current Settings,       Active Cal Settings
! TIME:             	   05/27/2018 12:06:29 PM,    05/27/2018 11:54:56 AM
! INTERNAL TEMP:    	                   51.3 C,                    49.3 C
! # POINTS:         	                      500,                       500
! START FREQ:       	               20.000 MHz,                20.000 MHz
! STOP FREQ:        	              120.000 MHz,               120.000 MHz
! SOURCE POWER:     	                     High,                      High
! IFBW:             	                    50 Hz,                     50 Hz
! AVG FACTOR:       	                       1 ,                        1 
! REF PLANE 1:      	                     0 mm,                      0 mm
! REF PLANE 2:      	                     0 mm,                      0 mm
! CAL TYPE:         	                 Full S11,                  Full S11
! CAL METHOD:       	                     SOLT,                      SOLT
! CAL LINE TYPE:    	                     Coax,                      Coax
! DUT PORT 1:       	                K-Conn(M),                 K-Conn(M)
! DUT PORT 2:       	                K-Conn(M),                 K-Conn(M)
! CAL STATUS:       	        OK: Accuracy High,                        --
# GHZ S DB R 50.0
! FREQ.GHZ       S11DB        S11A       S21DB        S21A       S12DB        S12A       S22DB        S22A
  0.020000000  -39.496264   53.204456  -91.382168   37.149509    0.000000    0.000000    0.000000    0.000000
  0.020200401  -39.102087   52.479195  -91.409537   37.086544    0.000000    0.000000    0.000000    0.000000
  0.020400802  -38.958964   51.645626  -91.847375   34.218758    0.000000    0.000000    0.000000    0.000000
  0.020601202  -38.668168   52.135262  -91.121770   32.648144    0.000000    0.000000    0.000000    0.000000
  0.020801603  -38.579867   52.506634  -91.107068   32.098629    0.000000    0.000000    0.000000    0.000000
  0.021002004  -38.356627   52.923897  -91.882939   31.658367    0.000000    0.000000    0.000000    0.000000
  0.021202405  -38.184372   53.311916  -92.224357   30.721378    0.000000    0.000000    0.000000    0.000000
  0.021402806  -38.111463   54.574497  -91.749881   32.079105    0.000000    0.000000    0.000000    0.000000
  0.021603206  -37.994306   55.691273  -91.748888   34.761753    0.000000    0.000000    0.000000    0.000000
  0.021803607  -38.005545   56.411812  -92.584601   30.952208    0.000000    0.000000    0.000000    0.000000
  0.022004008  -38.002276   57.192989  -92.720173   28.844593    0.000000    0.000000    0.000000    0.000000
  0.022204409  -38.067907   58.924740  -92.664865   31.374071    0.000000    0.000000    0.000000    0.000000
  0.022404810  -37.961250   59.252998  -92.210781   29.117096    0.000000    0.000000    0.000000    0.000000
  0.022605210  -38.106310   60.263805  -92.904605   28.342209    0.000000    0.000000    0.000000    0.000000
  0.022805611  -38.186924   60.341301  -92.428029   32.722183    0.000000    0.000000    0.000000    0.000000
  0.023006012  -38.247552   60.082798  -92.846477   29.062469    0.000000    0.000000    0.000000    0.000000
  0.023206413  -38.455871   60.780910  -92.769566   30.237581    0.000000    0.000000    0.000000    0.000000
  0.023406814  -38.531835   60.354378  -93.049540   23.101480    0.000000    0.000000    0.000000    0.000000
  0.023607214  -38.633570   59.270149  -93.280985   30.709517    0.000000    0.000000    0.000000    0.000000
  0.023807615  -38.859989   59.411446  -93.115128   28.521252    0.000000    0.000000    0.000000    0.000000
  0.024008016  -38.898084   57.519955  -93.550046   25.216972    0.000000    0.000000    0.000000    0.000000
  0.024208417  -38.949237   56.552608  -93.989531   22.139399    0.000000    0.000000    0.000000    0.000000
  0.024408818  -38.997253   54.587959  -93.151706   27.764921    0.000000    0.000000    0.000000    0.000000
  0.024609218  -38.922781   53.713398  -94.033032   24.578421    0.000000    0.000000    0.000000    0.000000
  0.024809619  -38.771888   51.737347  -93.840302   22.848679    0.000000    0.000000    0.000000    0.000000
  0.025010020  -38.682052   50.228722  -94.927065   21.359541    0.000000    0.000000    0.000000    0.000000
  0.025210421  -38.499081   49.529037  -94.154252   25.254786    0.000000    0.000000    0.000000    0.000000
  0.025410822  -38.161715   48.960567  -93.967440   22.725817    0.000000    0.000000    0.000000    0.000000
  0.025611222  -38.050231   48.768246  -94.922088   19.202599    0.000000    0.000000    0.000000    0.000000
  0.025811623  -37.755788   48.501431  -94.708391   18.674196    0.000000    0.000000    0.000000    0.000000
  0.026012024  -37.493606   48.597023  -94.303552   20.131771    0.000000    0.000000    0.000000    0.000000
  0.026212425  -37.368904   49.214218  -95.058085   21.614300    0.000000    0.000000    0.000000    0.000000
  0.026412826  -37.166815   49.654934  -95.132462   23.271509    0.000000    0.000000    0.000000    0.000000
  0.026613226  -36.955474   50.191380  -94.334308   20.717203    0.000000    0.000000    0.000000    0.000000
  0.026813627  -36.850403   51.430386  -95.021014   19.243862    0.000000    0.000000    0.000000    0.000000
  0.027014028  -36.786960   52.778015  -95.270847   16.946152    0.000000    0.000000    0.000000    0.000000
  0.027214429  -36.768193   53.763126  -96.277031   19.118296    0.000000    0.000000    0.000000    0.000000
  0.027414830  -36.795835   54.677132  -96.359403   13.807473    0.000000    0.000000    0.000000    0.000000
  0.027615230  -36.785416   55.466713  -95.568868   21.280523    0.000000    0.000000    0.000000    0.000000
  0.027815631  -36.840313   56.405563  -96.012270   19.866211    0.000000    0.000000    0.000000    0.000000
  0.028016032  -36.974286   57.418491  -96.374775   21.316936    0.000000    0.000000    0.000000    0.000000
  0.028216433  -37.161905   57.730591  -96.580192   20.341913    0.000000    0.000000    0.000000    0.000000
  0.028416834  -37.266200   57.541679  -95.426511   26.759346    0.000000    0.000000    0.000000    0.000000
  0.028617234  -37.381728   57.825699  -96.672677   22.236380    0.000000    0.000000    0.000000    0.000000
  0.028817635  -37.559781   57.216351  -96.679156   17.462725    0.000000    0.000000    0.000000    0.000000
  0.029018036  -37.879076   56.564499  -96.441562   19.240252    0.000000    0.000000    0.000000    0.000000
  0.029218437  -37.968478   55.179016  -96.973871   13.910854    0.000000    0.000000    0.000000    0.000000
  0.029418838  -38.097967   53.871059  -96.976372   17.018784    0.000000    0.000000    0.000000    0.000000
  0.029619238  -38.126959   52.568699  -96.561101   16.437946    0.000000    0.000000    0.000000    0.000000
  0.029819639  -38.199529   49.838669  -96.773328   19.278818    0.000000    0.000000    0.000000    0.000000
  0.030020040  -38.037617   47.812695  -97.599548   19.278521    0.000000    0.000000    0.000000    0.000000
  0.030220441  -37.985996   46.228996  -97.604539   20.189718    0.000000    0.000000    0.000000    0.000000
  0.030420842  -37.823106   44.677006  -97.972012   22.094568    0.000000    0.000000    0.000000    0.000000
  0.030621242  -37.560819   43.094810  -97.687945   16.521231    0.000000    0.000000    0.000000    0.000000
  0.030821643  -37.291436   42.720486  -97.351218   16.550007    0.000000    0.000000    0.000000    0.000000
  0.031022044  -36.924181   41.458912  -97.667049   14.389952    0.000000    0.000000    0.000000    0.000000
  0.031222445  -36.640508   41.530674  -97.451700   10.957444    0.000000    0.000000    0.000000    0.000000
  0.031422846  -36.323318   41.861259  -96.873078    9.775161    0.000000    0.000000    0.000000    0.000000
  0.031623246  -36.028138   42.076149  -97.974818    7.630614    0.000000    0.000000    0.000000    0.000000
  0.031823647  -35.837235   42.599110  -97.990709   10.035638    0.000000    0.000000    0.000000    0.000000
  0.032024048  -35.580026   43.862247  -97.693005   13.122400    0.000000    0.000000    0.000000    0.000000
  0.032224449  -35.457286   45.063156  -97.108530   18.515450    0.000000    0.000000    0.000000    0.000000
  0.032424850  -35.262704   45.740658  -97.294622   15.809196    0.000000    0.000000    0.000000    0.000000
  0.032625251  -35.188830   47.463463  -97.786209    8.361829    0.000000    0.000000    0.000000    0.000000
  0.032825651  -35.122502   48.508362  -98.450570   16.966642    0.000000    0.000000    0.000000    0.000000
  0.033026052  -35.116189   49.549973  -97.704332    8.757998    0.000000    0.000000    0.000000    0.000000
  0.033226453  -35.121990   51.257267  -99.087635   22.257982    0.000000    0.000000    0.000000    0.000000
  0.033426854  -35.165712   52.527336  -97.555165   11.618181    0.000000    0.000000    0.000000    0.000000
  0.033627255  -35.200903   53.142963  -97.536029   17.526886    0.000000    0.000000    0.000000    0.000000
  0.033827655  -35.354476   54.219402  -98.519341    9.886089    0.000000    0.000000    0.000000    0.000000
  0.034028056  -35.602274   54.576683  -97.730945    8.784550    0.000000    0.000000    0.000000    0.000000
  0.034228457  -35.674669   55.378353  -97.817686   12.717330    0.000000    0.000000    0.000000    0.000000
  0.034428858  -35.862297   55.722126  -97.652127    7.711016    0.000000    0.000000    0.000000    0.000000
  0.034629259  -36.099728   55.234825  -98.254705   14.003849    0.000000    0.000000    0.000000    0.000000
  0.034829659  -36.307716   55.030720  -98.487532   15.015608    0.000000    0.000000    0.000000    0.000000
  0.035030060  -36.484385   54.146698  -99.083028   11.711083    0.000000    0.000000    0.000000    0.000000
  0.035230461  -36.607718   53.243610  -98.190802    6.912549    0.000000    0.000000    0.000000    0.000000
  0.035430862  -36.684219   52.419586  -98.566545   10.774213    0.000000    0.000000    0.000000    0.000000
  0.035631263  -36.759686   50.863930  -99.690840    0.851234    0.000000    0.000000    0.000000    0.000000
  0.035831663  -36.765980   48.604458  -99.055870    5.954324    0.000000    0.000000    0.000000    0.000000
  0.036032064  -36.781438   47.121975 -101.057819    4.606528    0.000000    0.000000    0.000000    0.000000
  0.036232465  -36.706439   46.344135  -99.182875   14.611587    0.000000    0.000000    0.000000    0.000000
  0.036432866  -36.664509   44.705006  -99.569472   10.695486    0.000000    0.000000    0.000000    0.000000
  0.036633267  -36.447170   43.473030 -100.942933    7.779505    0.000000    0.000000    0.000000    0.000000
  0.036833667  -36.263422   42.357487  -98.466485   -0.385835    0.000000    0.000000    0.000000    0.000000
  0.037034068  -36.111568   41.803898  -99.336316   10.961766    0.000000    0.000000    0.000000    0.000000
  0.037234469  -35.982488   40.679909  -98.056670    4.882473    0.000000    0.000000    0.000000    0.000000
  0.037434870  -35.686978   41.149479  -99.626922    6.508592    0.000000    0.000000    0.000000    0.000000
  0.037635271  -35.562096   41.299522 -100.825666    3.985399    0.000000    0.000000    0.000000    0.000000
  0.037835671  -35.303445   41.421238  -97.632369    5.778311    0.000000    0.000000    0.000000    0.000000
  0.038036072  -35.251741   41.641747 -100.627043    7.308322    0.000000    0.000000    0.000000    0.000000
  0.038236473  -35.131155   41.760612 -100.145946   15.601754    0.000000    0.000000    0.000000    0.000000
  0.038436874  -35.024278   42.236092 -101.388175    9.065229    0.000000    0.000000    0.000000    0.000000
  0.038637275  -34.953635   42.443153  -99.852097   11.744588    0.000000    0.000000    0.000000    0.000000
  0.038837675  -34.843893   42.590405  -98.696534    2.617513    0.000000    0.000000    0.000000    0.000000
  0.039038076  -34.819692   43.056011 -100.002627   13.850977    0.000000    0.000000    0.000000    0.000000
  0.039238477  -34.754248   43.401424 -100.718572    3.759351    0.000000    0.000000    0.000000    0.000000
  0.039438878  -34.672015   43.818085 -101.746247    7.717663    0.000000    0.000000    0.000000    0.000000
  0.039639279  -34.633575   43.775242 -100.620453   -1.984231    0.000000    0.000000    0.000000    0.000000
  0.039839679  -34.576640   43.851395  -98.722556    9.556513    0.000000    0.000000    0.000000    0.000000
  0.040040080  -34.573684   43.979141 -101.901273   -0.659811    0.000000    0.000000    0.000000    0.000000
  0.040240481  -34.498010   44.428856 -100.011390   11.343743    0.000000    0.000000    0.000000    0.000000
  0.040440882  -34.592771   44.385418 -101.504713    2.045130    0.000000    0.000000    0.000000    0.000000
  0.040641283  -34.524267   45.009708 -102.503934    4.409506    0.000000    0.000000    0.000000    0.000000
  0.040841683  -34.501964   44.993973  -99.169409    8.032935    0.000000    0.000000    0.000000    0.000000
  0.041042084  -34.442513   45.059612 -101.131632    4.689076    0.000000    0.000000    0.000000    0.000000
  0.041242485  -34.340843   45.393219 -100.269780   14.752464    0.000000    0.000000    0.000000    0.000000
  0.041442886  -34.332306   45.417305 -101.410341   -5.361545    0.000000    0.000000    0.000000    0.000000
  0.041643287  -34.338062   45.646435 -100.904497    4.556164    0.000000    0.000000    0.000000    0.000000
  0.041843687  -34.330432   46.628990 -100.948393    4.491189    0.000000    0.000000    0.000000    0.000000
  0.042044088  -34.279747   46.970299 -100.300778   12.057961    0.000000    0.000000    0.000000    0.000000
  0.042244489  -34.247861   47.061119 -100.671651   21.641251    0.000000    0.000000    0.000000    0.000000
  0.042444890  -34.306537   47.721008 -100.793568   11.486456    0.000000    0.000000    0.000000    0.000000
  0.042645291  -34.392210   48.519222 -101.545370    4.839141    0.000000    0.000000    0.000000    0.000000
  0.042845691  -34.426604   49.255741 -100.704886   10.323871    0.000000    0.000000    0.000000    0.000000
  0.043046092  -34.518008   49.453026 -101.014048    2.336475    0.000000    0.000000    0.000000    0.000000
  0.043246493  -34.600252   49.884289 -101.487887    3.715881    0.000000    0.000000    0.000000    0.000000
  0.043446894  -34.821133   50.375919 -103.390542   10.257599    0.000000    0.000000    0.000000    0.000000
  0.043647295  -34.932712   50.312115 -103.129153   10.493840    0.000000    0.000000    0.000000    0.000000
  0.043847695  -35.159253   50.259933 -102.237906    6.884096    0.000000    0.000000    0.000000    0.000000
  0.044048096  -35.310150   49.262417 -101.631474    8.477573    0.000000    0.000000    0.000000    0.000000
  0.044248497  -35.517260   48.107548 -102.243356    1.945241    0.000000    0.000000    0.000000    0.000000
  0.044448898  -35.683177   47.256290 -101.491733    4.802220    0.000000    0.000000    0.000000    0.000000
  0.044649299  -35.855998   45.437988 -102.945771   -0.675807    0.000000    0.000000    0.000000    0.000000
  0.044849699  -36.014034   43.754261 -101.634557    1.694234    0.000000    0.000000    0.000000    0.000000
  0.045050100  -36.093818   42.060143 -101.808849    6.521296    0.000000    0.000000    0.000000    0.000000
  0.045250501  -36.044992   39.564190 -100.481356   14.512144    0.000000    0.000000    0.000000    0.000000
  0.045450902  -35.903425   37.316895 -103.581316    4.140506    0.000000    0.000000    0.000000    0.000000
  0.045651303  -35.787496   34.821423 -101.631526   15.594661    0.000000    0.000000    0.000000    0.000000
  0.045851703  -35.555695   33.439156 -103.628660    9.375755    0.000000    0.000000    0.000000    0.000000
  0.046052104  -35.249979   31.220098 -101.630357   -3.789053    0.000000    0.000000    0.000000    0.000000
  0.046252505  -34.987024   29.543711 -101.968543    6.271005    0.000000    0.000000    0.000000    0.000000
  0.046452906  -34.675917   28.721260 -102.270943    0.604560    0.000000    0.000000    0.000000    0.000000
  0.046653307  -34.329184   28.425522 -103.138563    7.449453    0.000000    0.000000    0.000000    0.000000
  0.046853707  -33.924591   28.425346 -101.543051   12.916649    0.000000    0.000000    0.000000    0.000000
  0.047054108  -33.595069   28.554060 -101.901854    9.161761    0.000000    0.000000    0.000000    0.000000
  0.047254509  -33.358582   29.174006 -102.149173   11.333879    0.000000    0.000000    0.000000    0.000000
  0.047454910  -33.058385   29.730469 -101.528934    6.466879    0.000000    0.000000    0.000000    0.000000
  0.047655311  -32.780309   31.127836 -101.031913    0.289310    0.000000    0.000000    0.000000    0.000000
  0.047855711  -32.553930   32.839012 -102.283007    8.320084    0.000000    0.000000    0.000000    0.000000
  0.048056112  -32.377841   34.173550 -101.564116   -5.583179    0.000000    0.000000    0.000000    0.000000
  0.048256513  -32.233857   35.657558 -103.114153    7.882990    0.000000    0.000000    0.000000    0.000000
  0.048456914  -32.120856   37.074963 -100.417281   17.362825    0.000000    0.000000    0.000000    0.000000
  0.048657315  -32.069273   38.811665 -102.432884    4.056362    0.000000    0.000000    0.000000    0.000000
  0.048857715  -32.039950   40.485123 -102.082542   10.448404    0.000000    0.000000    0.000000    0.000000
  0.049058116  -32.026800   42.262794 -101.322402    4.188834    0.000000    0.000000    0.000000    0.000000
  0.049258517  -32.115089   43.561237 -101.755103    7.011348    0.000000    0.000000    0.000000    0.000000
  0.049458918  -32.219707   45.447140 -104.418529    9.393412    0.000000    0.000000    0.000000    0.000000
  0.049659319  -32.465333   46.497807 -104.986040    7.265018    0.000000    0.000000    0.000000    0.000000
  0.049859719  -32.588081   47.489166 -105.001792   -3.199401    0.000000    0.000000    0.000000    0.000000
  0.050060120  -32.855275   48.566349 -101.647788    2.831884    0.000000    0.000000    0.000000    0.000000
  0.050260521  -33.032732   48.812817 -103.033994   -8.202780    0.000000    0.000000    0.000000    0.000000
  0.050460922  -33.315166   49.659416 -103.640958  -12.589037    0.000000    0.000000    0.000000    0.000000
  0.050661323  -33.521349   49.486843 -102.983022   -9.147988    0.000000    0.000000    0.000000    0.000000
  0.050861723  -33.784703   48.601704 -103.646168    0.017930    0.000000    0.000000    0.000000    0.000000
  0.051062124  -34.031212   47.938007 -103.450118   -2.230382    0.000000    0.000000    0.000000    0.000000
  0.051262525  -34.206126   47.243706 -104.272570   -0.271805    0.000000    0.000000    0.000000    0.000000
  0.051462926  -34.384841   45.968548 -104.050339   21.161880    0.000000    0.000000    0.000000    0.000000
  0.051663327  -34.462902   43.437885 -102.129518   -1.082244    0.000000    0.000000    0.000000    0.000000
  0.051863727  -34.562901   41.789562 -103.095873   -5.749750    0.000000    0.000000    0.000000    0.000000
  0.052064128  -34.588253   40.416588 -103.380412   -7.889857    0.000000    0.000000    0.000000    0.000000
  0.052264529  -34.559781   38.491535 -103.684741    3.398973    0.000000    0.000000    0.000000    0.000000
  0.052464930  -34.529078   37.145367 -100.846672    7.920394    0.000000    0.000000    0.000000    0.000000
  0.052665331  -34.294623   35.354446 -101.663023    4.110862    0.000000    0.000000    0.000000    0.000000
  0.052865731  -34.151168   34.578728 -101.991845   -7.284611    0.000000    0.000000    0.000000    0.000000
