! Anritsu VNA Master:                     Model: MS2036C/10/77
! SN:                                  1601066
! /bd0/18may26.balun/2a.66.2.s2p
! Existing Calibration Information:
! TYPE:                         Current Settings,       Active Cal Settings
! TIME:             	   05/26/2018 07:55:03 PM,    05/26/2018 07:26:54 PM
! INTERNAL TEMP:    	                   45.5 C,                    45.5 C
! # POINTS:         	                      500,                       500
! START FREQ:       	               20.000 MHz,                20.000 MHz
! STOP FREQ:        	              120.000 MHz,               120.000 MHz
! SOURCE POWER:     	                     High,                      High
! IFBW:             	                    50 Hz,                     50 Hz
! AVG FACTOR:       	                       1 ,                        1 
! REF PLANE 1:      	                     0 mm,                      0 mm
! REF PLANE 2:      	                     0 mm,                      0 mm
! CAL TYPE:         	                 Full S11,                  Full S11
! CAL METHOD:       	                     SOLT,                      SOLT
! CAL LINE TYPE:    	                     Coax,                      Coax
! DUT PORT 1:       	                K-Conn(M),                 K-Conn(M)
! DUT PORT 2:       	                K-Conn(M),                 K-Conn(M)
! CAL STATUS:       	        OK: Accuracy High,                        --
# GHZ S DB R 50.0
! FREQ.GHZ       S11DB        S11A       S21DB        S21A       S12DB        S12A       S22DB        S22A
  0.020000000   -0.029836  -68.386528  -90.147469   37.921761    0.000000    0.000000    0.000000    0.000000
  0.020200401   -0.026589  -69.059746  -90.499564   34.763924    0.000000    0.000000    0.000000    0.000000
  0.020400802   -0.027489  -69.701431  -90.470720   31.595501    0.000000    0.000000    0.000000    0.000000
  0.020601202   -0.025390  -70.341034  -90.827601   30.311840    0.000000    0.000000    0.000000    0.000000
  0.020801603   -0.024208  -71.000183  -91.287497   28.962208    0.000000    0.000000    0.000000    0.000000
  0.021002004   -0.023343  -71.653870  -91.267794   26.821491    0.000000    0.000000    0.000000    0.000000
  0.021202405   -0.031020  -72.308823  -91.852909   26.170183    0.000000    0.000000    0.000000    0.000000
  0.021402806   -0.032810  -72.952026  -92.723980   29.582823    0.000000    0.000000    0.000000    0.000000
  0.021603206   -0.036118  -73.585899  -92.191965   27.084938    0.000000    0.000000    0.000000    0.000000
  0.021803607   -0.039861  -74.207336  -93.524950   26.650621    0.000000    0.000000    0.000000    0.000000
  0.022004008   -0.043074  -74.825546  -92.858845   33.716259    0.000000    0.000000    0.000000    0.000000
  0.022204409   -0.047016  -75.477173  -93.667834   25.825983    0.000000    0.000000    0.000000    0.000000
  0.022404810   -0.049427  -76.122253  -93.321432   35.655365    0.000000    0.000000    0.000000    0.000000
  0.022605210   -0.046215  -76.768120  -93.372055   32.602745    0.000000    0.000000    0.000000    0.000000
  0.022805611   -0.042828  -77.410400  -93.301539   30.710329    0.000000    0.000000    0.000000    0.000000
  0.023006012   -0.034192  -78.048035  -93.496949   35.438759    0.000000    0.000000    0.000000    0.000000
  0.023206413   -0.029276  -78.683281  -93.506247   33.004818    0.000000    0.000000    0.000000    0.000000
  0.023406814   -0.023892  -79.322433  -93.328460   34.267139    0.000000    0.000000    0.000000    0.000000
  0.023607214   -0.023417  -79.956337  -93.392290   36.642094    0.000000    0.000000    0.000000    0.000000
  0.023807615   -0.025448  -80.536224  -92.818023   29.411665    0.000000    0.000000    0.000000    0.000000
  0.024008016   -0.034807  -81.117973  -93.176962   29.353159    0.000000    0.000000    0.000000    0.000000
  0.024208417   -0.041873  -81.682487  -92.893999   33.265198    0.000000    0.000000    0.000000    0.000000
  0.024408818   -0.048534  -82.279686  -92.515439   28.015480    0.000000    0.000000    0.000000    0.000000
  0.024609218   -0.053979  -82.879883  -93.366323   28.451096    0.000000    0.000000    0.000000    0.000000
  0.024809619   -0.056429  -83.509758  -93.419635   24.830812    0.000000    0.000000    0.000000    0.000000
  0.025010020   -0.058906  -84.168411  -93.007641   20.543400    0.000000    0.000000    0.000000    0.000000
  0.025210421   -0.063573  -84.822342  -93.707666   24.052113    0.000000    0.000000    0.000000    0.000000
  0.025410822   -0.064106  -85.480415  -93.758528   25.441074    0.000000    0.000000    0.000000    0.000000
  0.025611222   -0.061547  -86.160805  -94.174072   18.155436    0.000000    0.000000    0.000000    0.000000
  0.025811623   -0.057439  -86.784691  -94.565509   19.401951    0.000000    0.000000    0.000000    0.000000
  0.026012024   -0.053551  -87.391769  -94.723335   16.802048    0.000000    0.000000    0.000000    0.000000
  0.026212425   -0.051710  -87.983841  -95.254880   20.107748    0.000000    0.000000    0.000000    0.000000
  0.026412826   -0.055333  -88.592529  -94.839588   18.735611    0.000000    0.000000    0.000000    0.000000
  0.026613226   -0.057916  -89.169556  -95.487110   13.242542    0.000000    0.000000    0.000000    0.000000
  0.026813627   -0.063768  -89.726051  -95.401815   20.563992    0.000000    0.000000    0.000000    0.000000
  0.027014028   -0.071831  -90.284142  -95.627768   22.287668    0.000000    0.000000    0.000000    0.000000
  0.027214429   -0.081456  -90.868523  -95.489187   24.239744    0.000000    0.000000    0.000000    0.000000
  0.027414830   -0.089324  -91.516876  -96.681648   25.922804    0.000000    0.000000    0.000000    0.000000
  0.027615230   -0.093987  -92.164429  -96.113269   26.391363    0.000000    0.000000    0.000000    0.000000
  0.027815631   -0.092782  -92.831482  -96.060126   27.451054    0.000000    0.000000    0.000000    0.000000
  0.028016032   -0.087044  -93.503838  -96.093170   26.382025    0.000000    0.000000    0.000000    0.000000
  0.028216433   -0.077368  -94.164749  -95.477719   21.822838    0.000000    0.000000    0.000000    0.000000
  0.028416834   -0.069425  -94.832199  -95.974240   22.942280    0.000000    0.000000    0.000000    0.000000
  0.028617234   -0.060241  -95.449486  -95.557248   24.193424    0.000000    0.000000    0.000000    0.000000
  0.028817635   -0.055166  -96.030510  -95.398056   16.934351    0.000000    0.000000    0.000000    0.000000
  0.029018036   -0.048476  -96.546730  -95.619912   22.242474    0.000000    0.000000    0.000000    0.000000
  0.029218437   -0.043168  -97.059052  -95.924220   20.585154    0.000000    0.000000    0.000000    0.000000
  0.029418838   -0.042086  -97.564850  -95.321269   20.112854    0.000000    0.000000    0.000000    0.000000
  0.029619238   -0.042189  -98.078972  -95.716067   15.252000    0.000000    0.000000    0.000000    0.000000
  0.029819639   -0.047701  -98.606621  -96.439412   14.366777    0.000000    0.000000    0.000000    0.000000
  0.030020040   -0.055463  -99.179062  -95.992522   14.622431    0.000000    0.000000    0.000000    0.000000
  0.030220441   -0.067876  -99.768906  -96.232264   18.475859    0.000000    0.000000    0.000000    0.000000
  0.030420842   -0.080280 -100.401154  -97.135163   14.146776    0.000000    0.000000    0.000000    0.000000
  0.030621242   -0.085597 -101.064735  -96.732421   11.449665    0.000000    0.000000    0.000000    0.000000
  0.030821643   -0.084553 -101.700249  -97.434142   14.595363    0.000000    0.000000    0.000000    0.000000
  0.031022044   -0.081636 -102.319153  -97.349461   13.567721    0.000000    0.000000    0.000000    0.000000
  0.031222445   -0.074969 -102.915031  -96.445768    4.825665    0.000000    0.000000    0.000000    0.000000
  0.031422846   -0.072956 -103.477913  -97.084019    8.880494    0.000000    0.000000    0.000000    0.000000
  0.031623246   -0.071346 -104.017990  -96.869328   16.916706    0.000000    0.000000    0.000000    0.000000
  0.031823647   -0.075232 -104.544792  -98.935902   14.698168    0.000000    0.000000    0.000000    0.000000
  0.032024048   -0.079192 -105.062027  -98.320734    5.232707    0.000000    0.000000    0.000000    0.000000
  0.032224449   -0.091011 -105.560577  -97.553480   14.233594    0.000000    0.000000    0.000000    0.000000
  0.032424850   -0.100447 -106.112602  -98.131469   13.407095    0.000000    0.000000    0.000000    0.000000
  0.032625251   -0.112666 -106.678719  -97.666860   14.440554    0.000000    0.000000    0.000000    0.000000
  0.032825651   -0.118205 -107.292496  -98.067590   15.069426    0.000000    0.000000    0.000000    0.000000
  0.033026052   -0.123503 -107.905594  -97.357047   17.416401    0.000000    0.000000    0.000000    0.000000
  0.033226453   -0.127636 -108.535194  -97.193880   15.805593    0.000000    0.000000    0.000000    0.000000
  0.033426854   -0.129331 -109.172043  -98.152568   12.477182    0.000000    0.000000    0.000000    0.000000
  0.033627255   -0.129777 -109.832672  -97.638840   18.237659    0.000000    0.000000    0.000000    0.000000
  0.033827655   -0.127489 -110.469673  -97.934170   16.454720    0.000000    0.000000    0.000000    0.000000
  0.034028056   -0.121131 -111.069977  -97.553179   20.333735    0.000000    0.000000    0.000000    0.000000
  0.034228457   -0.109472 -111.673279  -97.927986   12.018853    0.000000    0.000000    0.000000    0.000000
  0.034428858   -0.101382 -112.241188  -98.463975    9.596797    0.000000    0.000000    0.000000    0.000000
  0.034629259   -0.092079 -112.768013  -98.862129   14.109334    0.000000    0.000000    0.000000    0.000000
  0.034829659   -0.085084 -113.270660  -99.224061   12.165368    0.000000    0.000000    0.000000    0.000000
  0.035030060   -0.083573 -113.807076  -97.296489    3.286276    0.000000    0.000000    0.000000    0.000000
  0.035230461   -0.080638 -114.286255  -98.565652    8.934758    0.000000    0.000000    0.000000    0.000000
  0.035430862   -0.084524 -114.804771  -98.738207    2.105767    0.000000    0.000000    0.000000    0.000000
  0.035631263   -0.093555 -115.334946  -98.413081    7.813514    0.000000    0.000000    0.000000    0.000000
  0.035831663   -0.100568 -115.898872  -98.895596    8.209355    0.000000    0.000000    0.000000    0.000000
  0.036032064   -0.109417 -116.492401  -97.638488    4.976964    0.000000    0.000000    0.000000    0.000000
  0.036232465   -0.114392 -117.125053  -99.014628    8.554111    0.000000    0.000000    0.000000    0.000000
  0.036432866   -0.116947 -117.741768  -99.285859    5.519083    0.000000    0.000000    0.000000    0.000000
  0.036633267   -0.112209 -118.354202  -99.665141   11.461350    0.000000    0.000000    0.000000    0.000000
  0.036833667   -0.106671 -118.941582  -99.845163    8.633877    0.000000    0.000000    0.000000    0.000000
  0.037034068   -0.095116 -119.456772  -98.448271   11.819985    0.000000    0.000000    0.000000    0.000000
  0.037234469   -0.086500 -119.916878  -97.429989   17.073229    0.000000    0.000000    0.000000    0.000000
  0.037434870   -0.087164 -120.375908  -99.239677   10.816186    0.000000    0.000000    0.000000    0.000000
  0.037635271   -0.090012 -120.852585  -99.294019   12.141670    0.000000    0.000000    0.000000    0.000000
  0.037835671   -0.097736 -121.348831  -98.937419   16.665642    0.000000    0.000000    0.000000    0.000000
  0.038036072   -0.109067 -121.886375  -99.907001   12.063305    0.000000    0.000000    0.000000    0.000000
  0.038236473   -0.114742 -122.437973  -99.483750   10.106597    0.000000    0.000000    0.000000    0.000000
  0.038436874   -0.119655 -122.983406 -100.729338   11.760020    0.000000    0.000000    0.000000    0.000000
  0.038637275   -0.128361 -123.530663  -99.599278   11.536283    0.000000    0.000000    0.000000    0.000000
  0.038837675   -0.137153 -124.101631  -98.719433   -0.685576    0.000000    0.000000    0.000000    0.000000
  0.039038076   -0.141829 -124.685310  -99.305305   13.428308    0.000000    0.000000    0.000000    0.000000
  0.039238477   -0.145739 -125.276611  -99.271009   -0.605680    0.000000    0.000000    0.000000    0.000000
  0.039438878   -0.144462 -125.862801 -100.013738    1.031026    0.000000    0.000000    0.000000    0.000000
  0.039639279   -0.140731 -126.419998  -99.431624   -4.363924    0.000000    0.000000    0.000000    0.000000
  0.039839679   -0.133233 -126.965828  -99.431560    7.358580    0.000000    0.000000    0.000000    0.000000
  0.040040080   -0.130183 -127.502609 -101.820069   -4.540932    0.000000    0.000000    0.000000    0.000000
  0.040240481   -0.128806 -128.023529 -100.964853    6.714407    0.000000    0.000000    0.000000    0.000000
  0.040440882   -0.124845 -128.553268 -100.509188    7.901175    0.000000    0.000000    0.000000    0.000000
  0.040641283   -0.123476 -129.075989 -102.216866    3.187169    0.000000    0.000000    0.000000    0.000000
  0.040841683   -0.124786 -129.598434 -103.050718   -1.518008    0.000000    0.000000    0.000000    0.000000
  0.041042084   -0.127702 -130.092117 -100.840679    1.489215    0.000000    0.000000    0.000000    0.000000
  0.041242485   -0.137474 -130.608032  -99.781743   20.173944    0.000000    0.000000    0.000000    0.000000
  0.041442886   -0.150899 -131.143768 -102.085383   -0.041721    0.000000    0.000000    0.000000    0.000000
  0.041643287   -0.158728 -131.732437 -101.638883   13.839526    0.000000    0.000000    0.000000    0.000000
  0.041843687   -0.159530 -132.331772 -101.539282   22.602577    0.000000    0.000000    0.000000    0.000000
  0.042044088   -0.149825 -132.918015 -100.799952    5.366084    0.000000    0.000000    0.000000    0.000000
  0.042244489   -0.137296 -133.433640 -100.494468    4.675310    0.000000    0.000000    0.000000    0.000000
  0.042444890   -0.128977 -133.932251 -100.540231   15.621367    0.000000    0.000000    0.000000    0.000000
  0.042645291   -0.121927 -134.384583 -100.565776   18.154255    0.000000    0.000000    0.000000    0.000000
  0.042845691   -0.122111 -134.848389 -101.056916   17.347340    0.000000    0.000000    0.000000    0.000000
  0.043046092   -0.127125 -135.330658  -99.641256    6.944991    0.000000    0.000000    0.000000    0.000000
  0.043246493   -0.130516 -135.829971 -100.852740    5.667336    0.000000    0.000000    0.000000    0.000000
  0.043446894   -0.136669 -136.321930 -100.008765   12.823467    0.000000    0.000000    0.000000    0.000000
  0.043647295   -0.140376 -136.810364 -101.297735    2.432903    0.000000    0.000000    0.000000    0.000000
  0.043847695   -0.147290 -137.318619  -99.093014    1.910810    0.000000    0.000000    0.000000    0.000000
  0.044048096   -0.154105 -137.841232 -100.990198   -1.664177    0.000000    0.000000    0.000000    0.000000
  0.044248497   -0.159850 -138.396759 -101.832813    3.336432    0.000000    0.000000    0.000000    0.000000
  0.044448898   -0.161384 -138.938324 -100.923275   -9.066691    0.000000    0.000000    0.000000    0.000000
  0.044649299   -0.160352 -139.470551 -100.446846    5.520002    0.000000    0.000000    0.000000    0.000000
  0.044849699   -0.161253 -139.977478 -100.797407   -5.478456    0.000000    0.000000    0.000000    0.000000
  0.045050100   -0.160527 -140.493774 -101.674285   -9.814986    0.000000    0.000000    0.000000    0.000000
  0.045250501   -0.162211 -141.005173 -103.636384   -3.537581    0.000000    0.000000    0.000000    0.000000
  0.045450902   -0.163650 -141.534515 -101.937052    1.853862    0.000000    0.000000    0.000000    0.000000
  0.045651303   -0.162815 -142.068024 -104.921171   -6.440250    0.000000    0.000000    0.000000    0.000000
  0.045851703   -0.158820 -142.587814 -102.128347   -4.579006    0.000000    0.000000    0.000000    0.000000
  0.046052104   -0.156725 -143.079910 -104.358603  -10.015352    0.000000    0.000000    0.000000    0.000000
  0.046252505   -0.159290 -143.557098 -103.637890    6.411725    0.000000    0.000000    0.000000    0.000000
  0.046452906   -0.165935 -144.024521 -102.789144   13.048204    0.000000    0.000000    0.000000    0.000000
  0.046653307   -0.176039 -144.516251 -104.079751   15.543382    0.000000    0.000000    0.000000    0.000000
  0.046853707   -0.180752 -145.053802 -100.352579   21.430559    0.000000    0.000000    0.000000    0.000000
  0.047054108   -0.183662 -145.606964 -102.313268   33.643902    0.000000    0.000000    0.000000    0.000000
  0.047254509   -0.176631 -146.135757 -106.028710    9.087057    0.000000    0.000000    0.000000    0.000000
  0.047454910   -0.170301 -146.667923 -100.516509   20.075163    0.000000    0.000000    0.000000    0.000000
  0.047655311   -0.164568 -147.115509 -101.476176   13.933170    0.000000    0.000000    0.000000    0.000000
  0.047855711   -0.162382 -147.570175 -100.340472   24.466841    0.000000    0.000000    0.000000    0.000000
  0.048056112   -0.161176 -148.060120 -100.232319    8.412994    0.000000    0.000000    0.000000    0.000000
  0.048256513   -0.163201 -148.512589 -100.138874    2.361266    0.000000    0.000000    0.000000    0.000000
  0.048456914   -0.164935 -148.988312 -102.105745   -4.497558    0.000000    0.000000    0.000000    0.000000
  0.048657315   -0.165827 -149.440994 -101.673481    3.266403    0.000000    0.000000    0.000000    0.000000
  0.048857715   -0.171174 -149.894669 -102.064630   -6.875343    0.000000    0.000000    0.000000    0.000000
  0.049058116   -0.179616 -150.361267 -100.610491   -4.622315    0.000000    0.000000    0.000000    0.000000
  0.049258517   -0.184326 -150.864517 -100.906563   -4.353321    0.000000    0.000000    0.000000    0.000000
  0.049458918   -0.188213 -151.363235 -102.179141  -17.356432    0.000000    0.000000    0.000000    0.000000
  0.049659319   -0.190735 -151.869156 -102.610831    0.369939    0.000000    0.000000    0.000000    0.000000
  0.049859719   -0.186740 -152.348450 -102.573064  -11.175249    0.000000    0.000000    0.000000    0.000000
  0.050060120   -0.191913 -152.836746 -101.754609  -19.886465    0.000000    0.000000    0.000000    0.000000
  0.050260521   -0.193173 -153.290451 -104.504378  -14.226239    0.000000    0.000000    0.000000    0.000000
  0.050460922   -0.195815 -153.793915 -103.156536  -11.604562    0.000000    0.000000    0.000000    0.000000
  0.050661323   -0.196757 -154.297836 -104.606249   -2.947023    0.000000    0.000000    0.000000    0.000000
  0.050861723   -0.194374 -154.818771 -104.547311    1.516320    0.000000    0.000000    0.000000    0.000000
  0.051062124   -0.191988 -155.309357 -106.472851   -2.518478    0.000000    0.000000    0.000000    0.000000
  0.051262525   -0.191457 -155.782166 -101.606662   17.392155    0.000000    0.000000    0.000000    0.000000
  0.051462926   -0.192463 -156.233139 -105.498514   16.127604    0.000000    0.000000    0.000000    0.000000
  0.051663327   -0.195574 -156.701263 -103.610012   13.126874    0.000000    0.000000    0.000000    0.000000
  0.051863727   -0.199298 -157.156647 -102.880390   11.579702    0.000000    0.000000    0.000000    0.000000
  0.052064128   -0.204555 -157.634201 -104.001639    3.909955    0.000000    0.000000    0.000000    0.000000
  0.052264529   -0.207220 -158.120972 -104.917484   14.967518    0.000000    0.000000    0.000000    0.000000
  0.052464930   -0.204023 -158.633774 -102.210871   19.130562    0.000000    0.000000    0.000000    0.000000
  0.052665331   -0.202295 -159.099167 -103.076098   22.785122    0.000000    0.000000    0.000000    0.000000
  0.052865731   -0.199202 -159.550446 -101.163228    0.787720    0.000000    0.000000    0.000000    0.000000
