! Anritsu VNA Master:                     Model: MS2036C/10/77
! SN:                                  1601066
! /bd0/18may26.balun/2a.66.s2p
! Existing Calibration Information:
! TYPE:                         Current Settings,       Active Cal Settings
! TIME:             	   05/26/2018 07:41:06 PM,    05/26/2018 07:26:54 PM
! INTERNAL TEMP:    	                   45.0 C,                    45.5 C
! # POINTS:         	                      500,                       500
! START FREQ:       	               20.000 MHz,                20.000 MHz
! STOP FREQ:        	              120.000 MHz,               120.000 MHz
! SOURCE POWER:     	                     High,                      High
! IFBW:             	                    50 Hz,                     50 Hz
! AVG FACTOR:       	                       1 ,                        1 
! REF PLANE 1:      	                     0 mm,                      0 mm
! REF PLANE 2:      	                     0 mm,                      0 mm
! CAL TYPE:         	                 Full S11,                  Full S11
! CAL METHOD:       	                     SOLT,                      SOLT
! CAL LINE TYPE:    	                     Coax,                      Coax
! DUT PORT 1:       	                K-Conn(M),                 K-Conn(M)
! DUT PORT 2:       	                K-Conn(M),                 K-Conn(M)
! CAL STATUS:       	        OK: Accuracy High,                        --
# GHZ S DB R 50.0
! FREQ.GHZ       S11DB        S11A       S21DB        S21A       S12DB        S12A       S22DB        S22A
  0.020000000   -0.031119  -68.268959  -90.063558   37.236649    0.000000    0.000000    0.000000    0.000000
  0.020200401   -0.027187  -68.941078  -90.502098   30.664558    0.000000    0.000000    0.000000    0.000000
  0.020400802   -0.028059  -69.577911  -90.819507   28.485415    0.000000    0.000000    0.000000    0.000000
  0.020601202   -0.026051  -70.218658  -90.858775   30.520773    0.000000    0.000000    0.000000    0.000000
  0.020801603   -0.024804  -70.867996  -91.454778   23.820892    0.000000    0.000000    0.000000    0.000000
  0.021002004   -0.024719  -71.518532  -91.415258   32.316307    0.000000    0.000000    0.000000    0.000000
  0.021202405   -0.031214  -72.177086  -91.860637   28.558903    0.000000    0.000000    0.000000    0.000000
  0.021402806   -0.034886  -72.823891  -92.278331   26.051031    0.000000    0.000000    0.000000    0.000000
  0.021603206   -0.038246  -73.453026  -92.710180   30.456369    0.000000    0.000000    0.000000    0.000000
  0.021803607   -0.042114  -74.072166  -92.793872   26.821568    0.000000    0.000000    0.000000    0.000000
  0.022004008   -0.044973  -74.691902  -92.689275   30.309317    0.000000    0.000000    0.000000    0.000000
  0.022204409   -0.047420  -75.342186  -93.228340   29.539370    0.000000    0.000000    0.000000    0.000000
  0.022404810   -0.051763  -75.982498  -94.031602   34.917389    0.000000    0.000000    0.000000    0.000000
  0.022605210   -0.049650  -76.635063  -93.789012   33.312752    0.000000    0.000000    0.000000    0.000000
  0.022805611   -0.045392  -77.282539  -94.084827   35.768150    0.000000    0.000000    0.000000    0.000000
  0.023006012   -0.037264  -77.919960  -93.127411   36.492844    0.000000    0.000000    0.000000    0.000000
  0.023206413   -0.032671  -78.555595  -92.926166   33.710194    0.000000    0.000000    0.000000    0.000000
  0.023406814   -0.025637  -79.193802  -93.130335   38.028790    0.000000    0.000000    0.000000    0.000000
  0.023607214   -0.025741  -79.831459  -93.377636   33.125359    0.000000    0.000000    0.000000    0.000000
  0.023807615   -0.026780  -80.409752  -93.805609   29.215973    0.000000    0.000000    0.000000    0.000000
  0.024008016   -0.035897  -80.989769  -93.508821   35.713833    0.000000    0.000000    0.000000    0.000000
  0.024208417   -0.043981  -81.552101  -93.168725   31.845999    0.000000    0.000000    0.000000    0.000000
  0.024408818   -0.050635  -82.140762  -93.176003   30.337217    0.000000    0.000000    0.000000    0.000000
  0.024609218   -0.055423  -82.745308  -92.861541   25.971331    0.000000    0.000000    0.000000    0.000000
  0.024809619   -0.057106  -83.360870  -93.744368   27.701641    0.000000    0.000000    0.000000    0.000000
  0.025010020   -0.059327  -84.017632  -92.786244   23.137468    0.000000    0.000000    0.000000    0.000000
  0.025210421   -0.063583  -84.672989  -93.572949   22.001020    0.000000    0.000000    0.000000    0.000000
  0.025410822   -0.063964  -85.325424  -94.315811   19.183548    0.000000    0.000000    0.000000    0.000000
  0.025611222   -0.062712  -86.003654  -94.699901   17.061533    0.000000    0.000000    0.000000    0.000000
  0.025811623   -0.057339  -86.621674  -94.722094   16.735142    0.000000    0.000000    0.000000    0.000000
  0.026012024   -0.054330  -87.224731  -94.483051   18.046690    0.000000    0.000000    0.000000    0.000000
  0.026212425   -0.052021  -87.811836  -94.659784   15.718303    0.000000    0.000000    0.000000    0.000000
  0.026412826   -0.056992  -88.427803  -95.836754    9.357850    0.000000    0.000000    0.000000    0.000000
  0.026613226   -0.060449  -89.001915  -95.285590   20.007410    0.000000    0.000000    0.000000    0.000000
  0.026813627   -0.065460  -89.562149  -95.963671   18.748121    0.000000    0.000000    0.000000    0.000000
  0.027014028   -0.074310  -90.122276  -95.603469   18.468086    0.000000    0.000000    0.000000    0.000000
  0.027214429   -0.084180  -90.710594  -95.921475   19.280256    0.000000    0.000000    0.000000    0.000000
  0.027414830   -0.091517  -91.353523  -95.195822   21.854036    0.000000    0.000000    0.000000    0.000000
  0.027615230   -0.096170  -92.007706  -96.051167   21.530859    0.000000    0.000000    0.000000    0.000000
  0.027815631   -0.095199  -92.678589  -95.589609   25.488928    0.000000    0.000000    0.000000    0.000000
  0.028016032   -0.089160  -93.352234  -96.141144   25.239613    0.000000    0.000000    0.000000    0.000000
  0.028216433   -0.078893  -94.011009  -96.471180   22.823490    0.000000    0.000000    0.000000    0.000000
  0.028416834   -0.070935  -94.684723  -96.032528   20.938606    0.000000    0.000000    0.000000    0.000000
  0.028617234   -0.062015  -95.304863  -96.019301   20.463789    0.000000    0.000000    0.000000    0.000000
  0.028817635   -0.056747  -95.878250  -95.143282   20.518091    0.000000    0.000000    0.000000    0.000000
  0.029018036   -0.049160  -96.398621  -96.043709   20.270912    0.000000    0.000000    0.000000    0.000000
  0.029218437   -0.044214  -96.906105  -95.230280   25.557966    0.000000    0.000000    0.000000    0.000000
  0.029418838   -0.041890  -97.411674  -96.006356   14.619188    0.000000    0.000000    0.000000    0.000000
  0.029619238   -0.042242  -97.920471  -95.839752   19.664639    0.000000    0.000000    0.000000    0.000000
  0.029819639   -0.048103  -98.436501  -95.395433   12.414097    0.000000    0.000000    0.000000    0.000000
  0.030020040   -0.055416  -99.010300  -96.160420   17.680243    0.000000    0.000000    0.000000    0.000000
  0.030220441   -0.068267  -99.584702  -97.188215    9.495399    0.000000    0.000000    0.000000    0.000000
  0.030420842   -0.079805 -100.219032  -96.670903   13.304206    0.000000    0.000000    0.000000    0.000000
  0.030621242   -0.085379 -100.872673  -96.844364   12.002005    0.000000    0.000000    0.000000    0.000000
  0.030821643   -0.084667 -101.505844  -97.562472   13.574585    0.000000    0.000000    0.000000    0.000000
  0.031022044   -0.081466 -102.120247  -98.047493   12.155317    0.000000    0.000000    0.000000    0.000000
  0.031222445   -0.074107 -102.709923  -96.259183   11.276953    0.000000    0.000000    0.000000    0.000000
  0.031422846   -0.073758 -103.280380  -97.392900   22.560745    0.000000    0.000000    0.000000    0.000000
  0.031623246   -0.072767 -103.824066  -98.268349   13.178500    0.000000    0.000000    0.000000    0.000000
  0.031823647   -0.076331 -104.348923  -96.637203   12.878259    0.000000    0.000000    0.000000    0.000000
  0.032024048   -0.081068 -104.864990  -98.631586   11.753063    0.000000    0.000000    0.000000    0.000000
  0.032224449   -0.092640 -105.367577  -97.469876   15.440015    0.000000    0.000000    0.000000    0.000000
  0.032424850   -0.102432 -105.912086  -98.395239   18.616854    0.000000    0.000000    0.000000    0.000000
  0.032625251   -0.114346 -106.484871  -98.644971   20.487495    0.000000    0.000000    0.000000    0.000000
  0.032825651   -0.121316 -107.100243  -98.208557   18.267069    0.000000    0.000000    0.000000    0.000000
  0.033026052   -0.126839 -107.716438  -96.341718   17.009090    0.000000    0.000000    0.000000    0.000000
  0.033226453   -0.130233 -108.352036  -97.691720   17.666866    0.000000    0.000000    0.000000    0.000000
  0.033426854   -0.131720 -109.000542  -96.967624   14.484143    0.000000    0.000000    0.000000    0.000000
  0.033627255   -0.133523 -109.653107  -97.679075    5.278654    0.000000    0.000000    0.000000    0.000000
  0.033827655   -0.130265 -110.293159  -97.464271    3.153870    0.000000    0.000000    0.000000    0.000000
  0.034028056   -0.121450 -110.892319  -97.969263   13.388969    0.000000    0.000000    0.000000    0.000000
  0.034228457   -0.111236 -111.503525  -97.261423   10.065709    0.000000    0.000000    0.000000    0.000000
  0.034428858   -0.102486 -112.059380  -98.863451    8.654101    0.000000    0.000000    0.000000    0.000000
  0.034629259   -0.092534 -112.588699  -97.378420    6.755333    0.000000    0.000000    0.000000    0.000000
  0.034829659   -0.085109 -113.084747  -97.264410   10.176589    0.000000    0.000000    0.000000    0.000000
  0.035030060   -0.083573 -113.610703  -98.899022    7.158661    0.000000    0.000000    0.000000    0.000000
  0.035230461   -0.080422 -114.097076  -98.828932    9.683778    0.000000    0.000000    0.000000    0.000000
  0.035430862   -0.084528 -114.603989  -98.687735    9.087826    0.000000    0.000000    0.000000    0.000000
  0.035631263   -0.092299 -115.128235  -98.985503    2.396069    0.000000    0.000000    0.000000    0.000000
  0.035831663   -0.099762 -115.689018  -98.978850   -1.374971    0.000000    0.000000    0.000000    0.000000
  0.036032064   -0.109716 -116.268509 -100.819023    9.570808    0.000000    0.000000    0.000000    0.000000
  0.036232465   -0.115331 -116.904427  -99.065114    8.523033    0.000000    0.000000    0.000000    0.000000
  0.036432866   -0.117134 -117.520401 -100.945756   11.449934    0.000000    0.000000    0.000000    0.000000
  0.036633267   -0.112941 -118.132767  -99.660206    4.534915    0.000000    0.000000    0.000000    0.000000
  0.036833667   -0.107481 -118.715836  -99.681659   15.972481    0.000000    0.000000    0.000000    0.000000
  0.037034068   -0.096751 -119.230690  -99.041809   12.531267    0.000000    0.000000    0.000000    0.000000
  0.037234469   -0.088884 -119.687370 -100.993804   10.132740    0.000000    0.000000    0.000000    0.000000
  0.037434870   -0.088998 -120.156525  -99.541767   14.433558    0.000000    0.000000    0.000000    0.000000
  0.037635271   -0.091248 -120.622620  -98.536109   21.820782    0.000000    0.000000    0.000000    0.000000
  0.037835671   -0.100267 -121.123833  -99.914802    9.557041    0.000000    0.000000    0.000000    0.000000
  0.038036072   -0.111043 -121.661705 -100.010560   17.317692    0.000000    0.000000    0.000000    0.000000
  0.038236473   -0.117561 -122.212997  -98.721365   18.944218    0.000000    0.000000    0.000000    0.000000
  0.038436874   -0.122246 -122.768578  -99.110598   10.015475    0.000000    0.000000    0.000000    0.000000
  0.038637275   -0.131115 -123.309158  -98.403698    9.278269    0.000000    0.000000    0.000000    0.000000
  0.038837675   -0.139078 -123.879128  -99.364233    0.256397    0.000000    0.000000    0.000000    0.000000
  0.039038076   -0.143810 -124.458191  -99.221990    3.581243    0.000000    0.000000    0.000000    0.000000
  0.039238477   -0.147278 -125.046761  -98.289524    9.383619    0.000000    0.000000    0.000000    0.000000
  0.039438878   -0.145470 -125.631767  -99.371220    1.147191    0.000000    0.000000    0.000000    0.000000
  0.039639279   -0.141573 -126.189659 -100.357210   -3.825049    0.000000    0.000000    0.000000    0.000000
  0.039839679   -0.133998 -126.726028  -99.459044    5.917049    0.000000    0.000000    0.000000    0.000000
  0.040040080   -0.131579 -127.249290  -99.873006   -2.920722    0.000000    0.000000    0.000000    0.000000
  0.040240481   -0.129073 -127.773621 -101.168890    8.722654    0.000000    0.000000    0.000000    0.000000
  0.040440882   -0.125127 -128.295517 -103.290975    6.815261    0.000000    0.000000    0.000000    0.000000
  0.040641283   -0.123767 -128.809433 -101.662094    2.610139    0.000000    0.000000    0.000000    0.000000
  0.040841683   -0.125505 -129.332397 -102.566739    5.218467    0.000000    0.000000    0.000000    0.000000
  0.041042084   -0.128046 -129.823120 -101.487993    1.639700    0.000000    0.000000    0.000000    0.000000
  0.041242485   -0.137458 -130.330566 -102.490231    3.203399    0.000000    0.000000    0.000000    0.000000
  0.041442886   -0.151787 -130.870743 -101.983604   -2.093341    0.000000    0.000000    0.000000    0.000000
  0.041643287   -0.159714 -131.462189 -102.306932   22.429222    0.000000    0.000000    0.000000    0.000000
  0.041843687   -0.161326 -132.056625 -102.079322   16.689093    0.000000    0.000000    0.000000    0.000000
  0.042044088   -0.150994 -132.643341 -100.325293   20.868614    0.000000    0.000000    0.000000    0.000000
  0.042244489   -0.140115 -133.178192  -99.211268   16.292753    0.000000    0.000000    0.000000    0.000000
  0.042444890   -0.131820 -133.661682 -101.054260   15.322363    0.000000    0.000000    0.000000    0.000000
  0.042645291   -0.124622 -134.118805 -101.189971   17.892220    0.000000    0.000000    0.000000    0.000000
  0.042845691   -0.125487 -134.588516 -100.603439    3.673695    0.000000    0.000000    0.000000    0.000000
  0.043046092   -0.130365 -135.081390 -101.003736    2.034768    0.000000    0.000000    0.000000    0.000000
  0.043246493   -0.133666 -135.578812 -100.919553   16.448902    0.000000    0.000000    0.000000    0.000000
  0.043446894   -0.138802 -136.065826 -100.971482    6.112037    0.000000    0.000000    0.000000    0.000000
  0.043647295   -0.142943 -136.562775  -99.813222   -6.105985    0.000000    0.000000    0.000000    0.000000
  0.043847695   -0.149704 -137.077942 -100.950843    9.015556    0.000000    0.000000    0.000000    0.000000
  0.044048096   -0.155733 -137.600494 -100.056208    1.498517    0.000000    0.000000    0.000000    0.000000
  0.044248497   -0.162352 -138.153915 -101.050882   -8.348485    0.000000    0.000000    0.000000    0.000000
  0.044448898   -0.163438 -138.689102 -100.655369   -6.626560    0.000000    0.000000    0.000000    0.000000
  0.044649299   -0.162854 -139.226257 -101.487762    5.524351    0.000000    0.000000    0.000000    0.000000
  0.044849699   -0.161756 -139.729553 -101.588442   -4.407701    0.000000    0.000000    0.000000    0.000000
  0.045050100   -0.161346 -140.238510 -101.736153   -1.276853    0.000000    0.000000    0.000000    0.000000
  0.045250501   -0.162674 -140.751816 -100.531958   -6.278035    0.000000    0.000000    0.000000    0.000000
  0.045450902   -0.164262 -141.265915 -103.720330  -12.655874    0.000000    0.000000    0.000000    0.000000
  0.045651303   -0.162530 -141.794830 -105.269596    6.111477    0.000000    0.000000    0.000000    0.000000
  0.045851703   -0.158402 -142.310684 -103.847541   14.629021    0.000000    0.000000    0.000000    0.000000
  0.046052104   -0.156236 -142.798111 -103.521729    2.188015    0.000000    0.000000    0.000000    0.000000
  0.046252505   -0.158643 -143.273788 -103.701297   19.229847    0.000000    0.000000    0.000000    0.000000
  0.046452906   -0.164725 -143.744598 -103.265342   12.587502    0.000000    0.000000    0.000000    0.000000
  0.046653307   -0.175948 -144.226639 -103.747821   18.245462    0.000000    0.000000    0.000000    0.000000
  0.046853707   -0.181784 -144.749695 -104.039714    7.998415    0.000000    0.000000    0.000000    0.000000
  0.047054108   -0.184721 -145.304398 -100.985963   25.526529    0.000000    0.000000    0.000000    0.000000
  0.047254509   -0.177914 -145.838547 -102.520723   22.120081    0.000000    0.000000    0.000000    0.000000
  0.047454910   -0.171546 -146.362259 -104.029430   20.556675    0.000000    0.000000    0.000000    0.000000
  0.047655311   -0.165968 -146.816818 -100.944555   11.304396    0.000000    0.000000    0.000000    0.000000
  0.047855711   -0.165408 -147.272842 -104.152243    2.620787    0.000000    0.000000    0.000000    0.000000
  0.048056112   -0.163921 -147.761841 -100.875386    3.055795    0.000000    0.000000    0.000000    0.000000
  0.048256513   -0.165760 -148.220795 -101.543096   10.323668    0.000000    0.000000    0.000000    0.000000
  0.048456914   -0.166544 -148.701416 -101.294902   -4.769560    0.000000    0.000000    0.000000    0.000000
  0.048657315   -0.168335 -149.151291 -100.165928    7.251998    0.000000    0.000000    0.000000    0.000000
  0.048857715   -0.173127 -149.599274 -101.471063   -2.752448    0.000000    0.000000    0.000000    0.000000
  0.049058116   -0.181188 -150.081970 -102.247109   -3.820107    0.000000    0.000000    0.000000    0.000000
  0.049258517   -0.184146 -150.571167 -101.382037   -8.337856    0.000000    0.000000    0.000000    0.000000
  0.049458918   -0.188878 -151.068695 -104.463749   -5.739272    0.000000    0.000000    0.000000    0.000000
  0.049659319   -0.191544 -151.567062 -102.933005   -5.975439    0.000000    0.000000    0.000000    0.000000
  0.049859719   -0.188355 -152.044189 -102.017022  -10.706952    0.000000    0.000000    0.000000    0.000000
  0.050060120   -0.191593 -152.528122 -102.075180   -6.134055    0.000000    0.000000    0.000000    0.000000
  0.050260521   -0.193099 -152.984024 -104.594806    2.504540    0.000000    0.000000    0.000000    0.000000
  0.050460922   -0.195546 -153.480728 -105.119826  -10.255350    0.000000    0.000000    0.000000    0.000000
  0.050661323   -0.195162 -153.983780 -103.048996    1.942661    0.000000    0.000000    0.000000    0.000000
  0.050861723   -0.192689 -154.490250 -104.946850   -5.155507    0.000000    0.000000    0.000000    0.000000
  0.051062124   -0.190473 -154.977600 -105.254403    1.485949    0.000000    0.000000    0.000000    0.000000
  0.051262525   -0.190414 -155.447937 -108.738503   19.011179    0.000000    0.000000    0.000000    0.000000
  0.051462926   -0.191489 -155.897552 -103.534966   -3.227451    0.000000    0.000000    0.000000    0.000000
  0.051663327   -0.195413 -156.352066 -105.694571    1.098628    0.000000    0.000000    0.000000    0.000000
  0.051863727   -0.201088 -156.808960 -102.488923    6.672675    0.000000    0.000000    0.000000    0.000000
  0.052064128   -0.205269 -157.292877 -101.982361    2.147233    0.000000    0.000000    0.000000    0.000000
  0.052264529   -0.209340 -157.776108 -101.878207   12.713493    0.000000    0.000000    0.000000    0.000000
  0.052464930   -0.205859 -158.284515 -102.625216    7.469408    0.000000    0.000000    0.000000    0.000000
  0.052665331   -0.204542 -158.762207 -102.833514    7.796712    0.000000    0.000000    0.000000    0.000000
  0.052865731   -0.200373 -159.226395 -101.542612    9.003183    0.000000    0.000000    0.000000    0.000000
