! Anritsu VNA Master:                 Model: MS2034B/10/19/501
! SN:                                  1337062
! /bd0/ant253v3-z2-s11.s2p
! Existing Calibration Information:
! TYPE:                         Current Settings,       Active Cal Settings
! TIME:             	   01/14/2016 06:09:50 PM,    01/14/2016 05:59:35 PM
! INTERNAL TEMP:    	                   38.3 C,                    40.5 C
! # POINTS:         	                      500,                       500
! START FREQ:       	               10.000 MHz,                10.000 MHz
! STOP FREQ:        	              110.000 MHz,               110.000 MHz
! SOURCE POWER:     	                     High,                      High
! IFBW:             	                   100 Hz,                    100 Hz
! AVG FACTOR:       	                       4 ,                        4 
! REF PLANE 1:      	                     0 mm,                      0 mm
! REF PLANE 2:      	                     0 mm,                      0 mm
! CAL TYPE:         	                 Full S11,                  Full S11
! CAL METHOD:       	                     SOLT,                      SOLT
! CAL LINE TYPE:    	                     Coax,                      Coax
! DUT PORT 1:       	                K-Conn(M),                 K-Conn(M)
! DUT PORT 2:       	                N-Conn(M),                 N-Conn(M)
! CAL STATUS:       	        OK: Accuracy High,                        --
# GHZ S DB R 50.0
! FREQ.GHZ       S11DB        S11A       S21DB        S21A       S12DB        S12A       S22DB        S22A
  0.010000000   -0.607391  -46.374287 -105.834503  139.409286    0.000000    0.000000    0.000000    0.000000
  0.010200401   -0.595720  -47.388725 -104.196005  146.179871    0.000000    0.000000    0.000000    0.000000
  0.010400802   -0.584912  -48.396576 -104.515686  147.655655    0.000000    0.000000    0.000000    0.000000
  0.010601202   -0.568541  -49.276897 -104.000915  151.192856    0.000000    0.000000    0.000000    0.000000
  0.010801603   -0.577657  -50.323887 -102.425020  145.690704    0.000000    0.000000    0.000000    0.000000
  0.011002004   -0.565223  -51.220848 -102.832611  139.420258    0.000000    0.000000    0.000000    0.000000
  0.011202405   -0.573074  -52.271152 -104.031421  140.861420    0.000000    0.000000    0.000000    0.000000
  0.011402806   -0.572897  -53.267036 -103.901520  148.869873    0.000000    0.000000    0.000000    0.000000
  0.011603206   -0.573541  -54.282425 -103.454299  134.360565    0.000000    0.000000    0.000000    0.000000
  0.011803607   -0.576115  -55.209732 -102.492610  138.225327    0.000000    0.000000    0.000000    0.000000
  0.012004008   -0.571547  -56.333168 -101.758843  145.600388    0.000000    0.000000    0.000000    0.000000
  0.012204409   -0.568558  -57.374401 -102.172022  138.364243    0.000000    0.000000    0.000000    0.000000
  0.012404810   -0.564060  -58.373562 -102.172514  141.235672    0.000000    0.000000    0.000000    0.000000
  0.012605210   -0.560652  -59.379910 -102.322777  143.768372    0.000000    0.000000    0.000000    0.000000
  0.012805611   -0.558355  -60.402866 -102.345788  136.128571    0.000000    0.000000    0.000000    0.000000
  0.013006012   -0.569049  -61.341869 -101.332645  136.711868    0.000000    0.000000    0.000000    0.000000
  0.013206413   -0.556217  -62.426674 -102.317990  134.937317    0.000000    0.000000    0.000000    0.000000
  0.013406814   -0.553946  -63.444290 -102.896822  136.338150    0.000000    0.000000    0.000000    0.000000
  0.013607214   -0.556611  -64.497322 -103.068366  136.170059    0.000000    0.000000    0.000000    0.000000
  0.013807615   -0.551896  -65.575569 -103.018730  127.181129    0.000000    0.000000    0.000000    0.000000
  0.014008016   -0.547381  -66.635384 -103.305008  132.559647    0.000000    0.000000    0.000000    0.000000
  0.014208417   -0.557204  -67.713089 -104.072007  134.250488    0.000000    0.000000    0.000000    0.000000
  0.014408818   -0.534217  -68.763817 -104.357776  137.149399    0.000000    0.000000    0.000000    0.000000
  0.014609218   -0.527028  -69.781166 -104.342263  135.888763    0.000000    0.000000    0.000000    0.000000
  0.014809619   -0.522191  -70.821121 -104.456369  131.494980    0.000000    0.000000    0.000000    0.000000
  0.015010020   -0.515437  -71.824165 -105.120101  134.570618    0.000000    0.000000    0.000000    0.000000
  0.015210421   -0.514182  -72.847214 -105.878018  123.757225    0.000000    0.000000    0.000000    0.000000
  0.015410822   -0.513902  -73.877556 -105.951416  135.484406    0.000000    0.000000    0.000000    0.000000
  0.015611222   -0.526516  -74.992889 -105.964635  135.504150    0.000000    0.000000    0.000000    0.000000
  0.015811623   -0.521859  -75.987709 -105.747683  132.324722    0.000000    0.000000    0.000000    0.000000
  0.016012024   -0.527326  -77.064499 -106.619167  131.929825    0.000000    0.000000    0.000000    0.000000
  0.016212425   -0.529716  -78.162750 -107.126355  131.018021    0.000000    0.000000    0.000000    0.000000
  0.016412826   -0.531160  -79.256660 -106.266659  146.088669    0.000000    0.000000    0.000000    0.000000
  0.016613226   -0.530737  -80.385712 -107.653938  147.039703    0.000000    0.000000    0.000000    0.000000
  0.016813627   -0.536545  -81.538834 -106.812600  141.956131    0.000000    0.000000    0.000000    0.000000
  0.017014028   -0.535917  -82.629074 -106.817861  151.397568    0.000000    0.000000    0.000000    0.000000
  0.017214429   -0.541578  -83.754372 -106.616648  146.620743    0.000000    0.000000    0.000000    0.000000
  0.017414830   -0.541623  -84.923248 -109.791046  149.022675    0.000000    0.000000    0.000000    0.000000
  0.017615230   -0.539649  -86.077606 -106.445763  149.475220    0.000000    0.000000    0.000000    0.000000
  0.017815631   -0.541181  -87.265930 -106.539937  147.137482    0.000000    0.000000    0.000000    0.000000
  0.018016032   -0.531436  -88.490669 -107.072032  142.119171    0.000000    0.000000    0.000000    0.000000
  0.018216433   -0.532587  -89.638992 -106.338449  142.049866    0.000000    0.000000    0.000000    0.000000
  0.018416834   -0.528616  -90.804298 -105.194471  144.717941    0.000000    0.000000    0.000000    0.000000
  0.018617234   -0.523518  -91.989029 -106.019029  141.786743    0.000000    0.000000    0.000000    0.000000
  0.018817635   -0.517763  -93.153069 -105.576238  145.850754    0.000000    0.000000    0.000000    0.000000
  0.019018036   -0.514476  -94.337852 -105.334001  144.596268    0.000000    0.000000    0.000000    0.000000
  0.019218437   -0.496950  -95.523148 -104.855786  144.965591    0.000000    0.000000    0.000000    0.000000
  0.019418838   -0.498843  -96.709106 -104.726851  140.795258    0.000000    0.000000    0.000000    0.000000
  0.019619238   -0.497483  -97.899658 -103.934428  133.833710    0.000000    0.000000    0.000000    0.000000
  0.019819639   -0.489678  -99.076279 -103.880011  146.807266    0.000000    0.000000    0.000000    0.000000
  0.020020040   -0.489276 -100.268044 -104.214825  138.711746    0.000000    0.000000    0.000000    0.000000
  0.020220441   -0.485243 -101.429184 -103.658363  146.748932    0.000000    0.000000    0.000000    0.000000
  0.020420842   -0.482846 -102.582832 -104.403002  148.256912    0.000000    0.000000    0.000000    0.000000
  0.020621242   -0.480355 -103.731239 -103.442286  139.080765    0.000000    0.000000    0.000000    0.000000
  0.020821643   -0.488086 -104.986053 -103.294613  134.968796    0.000000    0.000000    0.000000    0.000000
  0.021022044   -0.493462 -106.180054 -103.580954  137.992279    0.000000    0.000000    0.000000    0.000000
  0.021222445   -0.497773 -107.441330 -103.945058  139.321899    0.000000    0.000000    0.000000    0.000000
  0.021422846   -0.503775 -108.680786 -104.036240  135.906616    0.000000    0.000000    0.000000    0.000000
  0.021623246   -0.507918 -109.938942 -104.086718  141.186081    0.000000    0.000000    0.000000    0.000000
  0.021823647   -0.507874 -111.192429 -105.275753  140.681549    0.000000    0.000000    0.000000    0.000000
  0.022024048   -0.504213 -112.520554 -105.177432  133.061172    0.000000    0.000000    0.000000    0.000000
  0.022224449   -0.504416 -113.797829 -104.035313  135.714554    0.000000    0.000000    0.000000    0.000000
  0.022424850   -0.502039 -115.068550 -104.457176  140.588684    0.000000    0.000000    0.000000    0.000000
  0.022625251   -0.498060 -116.357025 -106.172177  135.102661    0.000000    0.000000    0.000000    0.000000
  0.022825651   -0.500746 -117.616020 -105.964600  130.487228    0.000000    0.000000    0.000000    0.000000
  0.023026052   -0.508857 -118.858925 -105.961409  138.336655    0.000000    0.000000    0.000000    0.000000
  0.023226453   -0.508379 -120.172974 -104.658542  134.847321    0.000000    0.000000    0.000000    0.000000
  0.023426854   -0.515434 -121.457527 -105.744854  135.914841    0.000000    0.000000    0.000000    0.000000
  0.023627255   -0.524833 -122.795914 -106.652337  140.914154    0.000000    0.000000    0.000000    0.000000
  0.023827655   -0.528997 -124.131165 -106.678305  143.602432    0.000000    0.000000    0.000000    0.000000
  0.024028056   -0.534593 -125.492516 -106.418382  139.831619    0.000000    0.000000    0.000000    0.000000
  0.024228457   -0.545008 -126.846939 -106.984265  134.336624    0.000000    0.000000    0.000000    0.000000
  0.024428858   -0.539960 -128.179337 -105.892878  133.243118    0.000000    0.000000    0.000000    0.000000
  0.024629259   -0.543862 -129.507217 -106.579536  136.597305    0.000000    0.000000    0.000000    0.000000
  0.024829659   -0.548035 -130.832504 -107.171476  134.526169    0.000000    0.000000    0.000000    0.000000
  0.025030060   -0.560130 -132.191971 -106.590391  137.929703    0.000000    0.000000    0.000000    0.000000
  0.025230461   -0.576197 -133.543243 -106.118426  131.611267    0.000000    0.000000    0.000000    0.000000
  0.025430862   -0.599025 -134.980774 -106.408398  138.401123    0.000000    0.000000    0.000000    0.000000
  0.025631263   -0.615311 -136.378845 -108.797379  139.026657    0.000000    0.000000    0.000000    0.000000
  0.025831663   -0.634828 -137.817856 -106.952612  139.389328    0.000000    0.000000    0.000000    0.000000
  0.026032064   -0.648748 -139.326767 -107.588541  137.492676    0.000000    0.000000    0.000000    0.000000
  0.026232465   -0.661332 -140.850067 -105.557615  138.698578    0.000000    0.000000    0.000000    0.000000
  0.026432866   -0.673395 -142.328705 -105.712874  140.090378    0.000000    0.000000    0.000000    0.000000
  0.026633267   -0.684125 -143.816345 -106.888714  133.604919    0.000000    0.000000    0.000000    0.000000
  0.026833667   -0.691280 -145.368225 -105.973171  144.116241    0.000000    0.000000    0.000000    0.000000
  0.027034068   -0.702999 -146.788849 -105.661257  141.652466    0.000000    0.000000    0.000000    0.000000
  0.027234469   -0.719366 -148.289719 -105.563786  140.100143    0.000000    0.000000    0.000000    0.000000
  0.027434870   -0.733816 -149.774719 -104.905982  139.746231    0.000000    0.000000    0.000000    0.000000
  0.027635271   -0.749851 -151.310684 -107.238183  147.370941    0.000000    0.000000    0.000000    0.000000
  0.027835671   -0.769590 -152.833954 -104.031608  140.658493    0.000000    0.000000    0.000000    0.000000
  0.028036072   -0.780850 -154.393860 -104.401289  135.367035    0.000000    0.000000    0.000000    0.000000
  0.028236473   -0.802388 -155.927292 -105.604601  154.725830    0.000000    0.000000    0.000000    0.000000
  0.028436874   -0.824273 -157.490829 -105.322331  141.382355    0.000000    0.000000    0.000000    0.000000
  0.028637275   -0.842667 -159.065567 -103.830854  136.437256    0.000000    0.000000    0.000000    0.000000
  0.028837675   -0.861701 -160.637512 -106.551846  136.279190    0.000000    0.000000    0.000000    0.000000
  0.029038076   -0.883797 -162.205963 -105.063849  140.004242    0.000000    0.000000    0.000000    0.000000
  0.029238477   -0.902113 -163.759171 -106.049621  133.797729    0.000000    0.000000    0.000000    0.000000
  0.029438878   -0.929055 -165.371170 -105.408615  132.375580    0.000000    0.000000    0.000000    0.000000
  0.029639279   -0.956022 -166.966415 -105.272402  142.183701    0.000000    0.000000    0.000000    0.000000
  0.029839679   -0.984530 -168.588959 -104.841026  138.818634    0.000000    0.000000    0.000000    0.000000
  0.030040080   -1.014735 -170.232559 -105.446188  136.416214    0.000000    0.000000    0.000000    0.000000
  0.030240481   -1.041112 -171.888535 -105.360346  145.203339    0.000000    0.000000    0.000000    0.000000
  0.030440882   -1.072907 -173.517151 -105.992515  147.920059    0.000000    0.000000    0.000000    0.000000
  0.030641283   -1.097478 -175.190857 -105.030097  137.551727    0.000000    0.000000    0.000000    0.000000
  0.030841683   -1.132099 -176.861145 -105.360098  148.223999    0.000000    0.000000    0.000000    0.000000
  0.031042084   -1.162906 -178.544861 -106.890342  141.299500    0.000000    0.000000    0.000000    0.000000
  0.031242485   -1.195611  179.775528 -106.393398  143.518387    0.000000    0.000000    0.000000    0.000000
  0.031442886   -1.232028  178.070648 -107.415508  145.094147    0.000000    0.000000    0.000000    0.000000
  0.031643287   -1.266819  176.367828 -106.730692  144.670425    0.000000    0.000000    0.000000    0.000000
  0.031843687   -1.302832  174.655991 -107.100627  135.420883    0.000000    0.000000    0.000000    0.000000
  0.032044088   -1.342080  172.945404 -106.728169  140.600494    0.000000    0.000000    0.000000    0.000000
  0.032244489   -1.381066  171.201645 -106.358690  139.839966    0.000000    0.000000    0.000000    0.000000
  0.032444890   -1.420352  169.466339 -105.536467  141.739014    0.000000    0.000000    0.000000    0.000000
  0.032645291   -1.464849  167.712738 -107.821415  144.158859    0.000000    0.000000    0.000000    0.000000
  0.032845691   -1.510070  165.964233 -106.124943  133.173050    0.000000    0.000000    0.000000    0.000000
  0.033046092   -1.554959  164.160767 -106.504265  138.014435    0.000000    0.000000    0.000000    0.000000
  0.033246493   -1.603932  162.383911 -105.860904  136.820938    0.000000    0.000000    0.000000    0.000000
  0.033446894   -1.649512  160.554993 -106.159612  139.701126    0.000000    0.000000    0.000000    0.000000
  0.033647295   -1.696259  158.724319 -105.351637  133.691132    0.000000    0.000000    0.000000    0.000000
  0.033847695   -1.737765  156.887115 -107.431779  141.915863    0.000000    0.000000    0.000000    0.000000
  0.034048096   -1.781395  155.050949 -106.859281  140.939453    0.000000    0.000000    0.000000    0.000000
  0.034248497   -1.819020  153.239685 -105.473562  141.755661    0.000000    0.000000    0.000000    0.000000
  0.034448898   -1.868477  151.439316 -105.835457  147.952759    0.000000    0.000000    0.000000    0.000000
  0.034649299   -1.920238  149.626526 -106.176391  146.159882    0.000000    0.000000    0.000000    0.000000
  0.034849699   -1.967801  147.814240 -105.173981  139.381088    0.000000    0.000000    0.000000    0.000000
  0.035050100   -2.019950  145.978516 -105.339497  139.323532    0.000000    0.000000    0.000000    0.000000
  0.035250501   -2.071600  144.168060 -105.139077  143.869827    0.000000    0.000000    0.000000    0.000000
  0.035450902   -2.128638  142.289841 -106.053785  139.139252    0.000000    0.000000    0.000000    0.000000
  0.035651303   -2.189688  140.405762 -104.027407  132.466690    0.000000    0.000000    0.000000    0.000000
  0.035851703   -2.240385  138.543335 -104.707860  144.994553    0.000000    0.000000    0.000000    0.000000
  0.036052104   -2.295121  136.706909 -105.553005  134.037338    0.000000    0.000000    0.000000    0.000000
  0.036252505   -2.346771  134.777100 -104.066584  137.930984    0.000000    0.000000    0.000000    0.000000
  0.036452906   -2.404157  132.929047 -103.589270  138.325821    0.000000    0.000000    0.000000    0.000000
  0.036653307   -2.467302  131.179718 -104.899045  136.345627    0.000000    0.000000    0.000000    0.000000
  0.036853707   -2.517416  129.274857 -104.734875  134.192169    0.000000    0.000000    0.000000    0.000000
  0.037054108   -2.589626  127.424202 -105.105678  142.035492    0.000000    0.000000    0.000000    0.000000
  0.037254509   -2.637724  125.432671 -103.869626  138.774582    0.000000    0.000000    0.000000    0.000000
  0.037454910   -2.702454  123.524422 -104.997378  139.378632    0.000000    0.000000    0.000000    0.000000
  0.037655311   -2.780417  121.646706 -105.476253  137.952560    0.000000    0.000000    0.000000    0.000000
  0.037855711   -2.822045  119.747643 -104.238211  139.726517    0.000000    0.000000    0.000000    0.000000
  0.038056112   -2.901383  117.954018 -104.036637  145.019485    0.000000    0.000000    0.000000    0.000000
  0.038256513   -2.923475  116.119812 -104.346207  133.103119    0.000000    0.000000    0.000000    0.000000
  0.038456914   -2.988995  114.240845 -104.368959  129.517776    0.000000    0.000000    0.000000    0.000000
  0.038657315   -3.027398  112.423225 -106.076649  141.848312    0.000000    0.000000    0.000000    0.000000
  0.038857715   -3.080531  110.555321 -105.365863  141.059723    0.000000    0.000000    0.000000    0.000000
  0.039058116   -3.153227  108.662384 -105.355583  142.302841    0.000000    0.000000    0.000000    0.000000
  0.039258517   -3.214407  106.803925 -105.751203  140.300278    0.000000    0.000000    0.000000    0.000000
  0.039458918   -3.279887  104.926315 -106.689073  144.416656    0.000000    0.000000    0.000000    0.000000
  0.039659319   -3.334613  103.162704 -105.385178  142.166794    0.000000    0.000000    0.000000    0.000000
  0.039859719   -3.402985  101.294868 -105.687381  132.421844    0.000000    0.000000    0.000000    0.000000
  0.040060120   -3.467340   99.399208 -105.681677  137.619827    0.000000    0.000000    0.000000    0.000000
  0.040260521   -3.531220   97.501740 -105.964944  141.676575    0.000000    0.000000    0.000000    0.000000
  0.040460922   -3.592841   95.586159 -105.675176  136.238525    0.000000    0.000000    0.000000    0.000000
  0.040661323   -3.654157   93.733910 -106.425275  138.589920    0.000000    0.000000    0.000000    0.000000
  0.040861723   -3.718027   91.816101 -106.223208  138.056396    0.000000    0.000000    0.000000    0.000000
  0.041062124   -3.776775   89.901772 -105.692580  135.097534    0.000000    0.000000    0.000000    0.000000
  0.041262525   -3.834805   88.004036 -105.312175  136.752533    0.000000    0.000000    0.000000    0.000000
  0.041462926   -3.893788   86.094780 -105.586028  138.646057    0.000000    0.000000    0.000000    0.000000
  0.041663327   -3.942463   84.169518 -106.192657  138.224716    0.000000    0.000000    0.000000    0.000000
  0.041863727   -3.994467   82.303040 -105.047181  129.534744    0.000000    0.000000    0.000000    0.000000
  0.042064128   -4.048607   80.450081 -104.839362  137.285400    0.000000    0.000000    0.000000    0.000000
  0.042264529   -4.089914   78.585312 -104.919749  135.596558    0.000000    0.000000    0.000000    0.000000
  0.042464930   -4.141468   76.713058 -105.667664  137.146271    0.000000    0.000000    0.000000    0.000000
  0.042665331   -4.194560   74.880898 -104.541426  141.886505    0.000000    0.000000    0.000000    0.000000
  0.042865731   -4.234877   73.000053 -105.254230  130.475174    0.000000    0.000000    0.000000    0.000000
