! Anritsu VNA Master:                 Model: MS2034B/10/19/501
! SN:                                  1337062
! /bd0/ant253v3-z1-s11.s2p
! Existing Calibration Information:
! TYPE:                         Current Settings,       Active Cal Settings
! TIME:             	   01/14/2016 06:03:40 PM,    01/14/2016 05:59:35 PM
! INTERNAL TEMP:    	                   40.5 C,                    40.5 C
! # POINTS:         	                      500,                       500
! START FREQ:       	               10.000 MHz,                10.000 MHz
! STOP FREQ:        	              110.000 MHz,               110.000 MHz
! SOURCE POWER:     	                     High,                      High
! IFBW:             	                   100 Hz,                    100 Hz
! AVG FACTOR:       	                       4 ,                        4 
! REF PLANE 1:      	                     0 mm,                      0 mm
! REF PLANE 2:      	                     0 mm,                      0 mm
! CAL TYPE:         	                 Full S11,                  Full S11
! CAL METHOD:       	                     SOLT,                      SOLT
! CAL LINE TYPE:    	                     Coax,                      Coax
! DUT PORT 1:       	                K-Conn(M),                 K-Conn(M)
! DUT PORT 2:       	                N-Conn(M),                 N-Conn(M)
! CAL STATUS:       	        OK: Accuracy High,                        --
# GHZ S DB R 50.0
! FREQ.GHZ       S11DB        S11A       S21DB        S21A       S12DB        S12A       S22DB        S22A
  0.010000000   -0.588220  -46.675610 -104.870444  144.306259    0.000000    0.000000    0.000000    0.000000
  0.010200401   -0.575036  -47.682663 -104.508221  150.580566    0.000000    0.000000    0.000000    0.000000
  0.010400802   -0.565028  -48.677483 -105.476750  148.517776    0.000000    0.000000    0.000000    0.000000
  0.010601202   -0.550216  -49.570614 -104.687478  144.396561    0.000000    0.000000    0.000000    0.000000
  0.010801603   -0.557683  -50.602608 -102.023529  141.472107    0.000000    0.000000    0.000000    0.000000
  0.011002004   -0.548569  -51.510891 -103.425921  141.425171    0.000000    0.000000    0.000000    0.000000
  0.011202405   -0.556755  -52.559254 -102.383431  139.583954    0.000000    0.000000    0.000000    0.000000
  0.011402806   -0.556815  -53.562275 -102.263747  147.449524    0.000000    0.000000    0.000000    0.000000
  0.011603206   -0.557780  -54.573303 -102.709930  139.398804    0.000000    0.000000    0.000000    0.000000
  0.011803607   -0.562270  -55.496605 -101.932426  139.256805    0.000000    0.000000    0.000000    0.000000
  0.012004008   -0.555608  -56.620033 -102.230891  138.462585    0.000000    0.000000    0.000000    0.000000
  0.012204409   -0.553670  -57.659439 -102.624162  141.419785    0.000000    0.000000    0.000000    0.000000
  0.012404810   -0.551139  -58.658451 -101.953888  140.203049    0.000000    0.000000    0.000000    0.000000
  0.012605210   -0.547121  -59.659271 -102.505048  146.302475    0.000000    0.000000    0.000000    0.000000
  0.012805611   -0.545476  -60.678890 -101.912373  140.032272    0.000000    0.000000    0.000000    0.000000
  0.013006012   -0.556334  -61.613708 -103.296795  138.478958    0.000000    0.000000    0.000000    0.000000
  0.013206413   -0.543284  -62.691677 -102.792928  133.973267    0.000000    0.000000    0.000000    0.000000
  0.013406814   -0.542298  -63.721985 -103.131928  136.620972    0.000000    0.000000    0.000000    0.000000
  0.013607214   -0.545057  -64.768768 -103.582110  132.009476    0.000000    0.000000    0.000000    0.000000
  0.013807615   -0.540576  -65.844559 -103.108724  130.235535    0.000000    0.000000    0.000000    0.000000
  0.014008016   -0.536313  -66.894760 -103.763514  132.650864    0.000000    0.000000    0.000000    0.000000
  0.014208417   -0.546362  -67.975372 -104.195241  132.910889    0.000000    0.000000    0.000000    0.000000
  0.014408818   -0.523292  -69.007896 -104.447546  140.587006    0.000000    0.000000    0.000000    0.000000
  0.014609218   -0.516710  -70.029716 -103.107186  133.887222    0.000000    0.000000    0.000000    0.000000
  0.014809619   -0.513077  -71.059242 -105.629175  129.750854    0.000000    0.000000    0.000000    0.000000
  0.015010020   -0.507795  -72.058121 -105.064849  133.302628    0.000000    0.000000    0.000000    0.000000
  0.015210421   -0.506206  -73.068672 -105.391310  140.261200    0.000000    0.000000    0.000000    0.000000
  0.015410822   -0.506606  -74.096436 -105.320555  129.970596    0.000000    0.000000    0.000000    0.000000
  0.015611222   -0.519142  -75.199081 -106.298669  127.686111    0.000000    0.000000    0.000000    0.000000
  0.015811623   -0.515784  -76.180794 -106.363288  134.136414    0.000000    0.000000    0.000000    0.000000
  0.016012024   -0.520463  -77.251717 -107.486838  141.796570    0.000000    0.000000    0.000000    0.000000
  0.016212425   -0.523525  -78.328072 -106.313959  137.509460    0.000000    0.000000    0.000000    0.000000
  0.016412826   -0.525349  -79.415367 -107.148934  126.345360    0.000000    0.000000    0.000000    0.000000
  0.016613226   -0.525028  -80.527870 -107.248302  127.269539    0.000000    0.000000    0.000000    0.000000
  0.016813627   -0.531072  -81.665985 -107.431221  140.766663    0.000000    0.000000    0.000000    0.000000
  0.017014028   -0.530702  -82.740067 -106.505142  135.167755    0.000000    0.000000    0.000000    0.000000
  0.017214429   -0.536334  -83.850899 -106.691778  142.770294    0.000000    0.000000    0.000000    0.000000
  0.017414830   -0.537390  -85.001534 -106.924417  145.657471    0.000000    0.000000    0.000000    0.000000
  0.017615230   -0.536756  -86.131104 -105.433046  149.562271    0.000000    0.000000    0.000000    0.000000
  0.017815631   -0.538655  -87.311043 -106.859229  135.325302    0.000000    0.000000    0.000000    0.000000
  0.018016032   -0.526300  -88.508995 -105.521102  142.580246    0.000000    0.000000    0.000000    0.000000
  0.018216433   -0.529725  -89.649185 -105.667082  138.121735    0.000000    0.000000    0.000000    0.000000
  0.018416834   -0.523564  -90.792877 -107.062125  149.047989    0.000000    0.000000    0.000000    0.000000
  0.018617234   -0.518374  -91.964867 -106.230828  147.061096    0.000000    0.000000    0.000000    0.000000
  0.018817635   -0.513156  -93.099594 -106.651957  146.585037    0.000000    0.000000    0.000000    0.000000
  0.019018036   -0.508856  -94.273300 -106.170835  138.088623    0.000000    0.000000    0.000000    0.000000
  0.019218437   -0.493399  -95.440163 -105.217946  139.379074    0.000000    0.000000    0.000000    0.000000
  0.019418838   -0.496167  -96.608582 -104.196739  147.203979    0.000000    0.000000    0.000000    0.000000
  0.019619238   -0.495438  -97.770309 -104.587331  144.178604    0.000000    0.000000    0.000000    0.000000
  0.019819639   -0.488273  -98.931023 -104.529927  141.032028    0.000000    0.000000    0.000000    0.000000
  0.020020040   -0.487262 -100.098595 -103.528196  136.229126    0.000000    0.000000    0.000000    0.000000
  0.020220441   -0.485550 -101.247421 -104.730858  142.483978    0.000000    0.000000    0.000000    0.000000
  0.020420842   -0.483888 -102.373474 -105.044063  141.856384    0.000000    0.000000    0.000000    0.000000
  0.020621242   -0.482910 -103.499588 -103.985985  146.621582    0.000000    0.000000    0.000000    0.000000
  0.020821643   -0.490877 -104.734680 -103.269609  149.459778    0.000000    0.000000    0.000000    0.000000
  0.021022044   -0.498755 -105.906731 -103.423497  146.373657    0.000000    0.000000    0.000000    0.000000
  0.021222445   -0.503443 -107.135521 -104.019445  142.030991    0.000000    0.000000    0.000000    0.000000
  0.021422846   -0.510219 -108.348427 -104.667905  132.046204    0.000000    0.000000    0.000000    0.000000
  0.021623246   -0.515416 -109.576698 -105.560760  138.394928    0.000000    0.000000    0.000000    0.000000
  0.021823647   -0.515834 -110.803246 -104.010533  132.611954    0.000000    0.000000    0.000000    0.000000
  0.022024048   -0.514143 -112.096672 -105.050561  138.090378    0.000000    0.000000    0.000000    0.000000
  0.022224449   -0.514272 -113.343102 -104.715997  139.671371    0.000000    0.000000    0.000000    0.000000
  0.022424850   -0.513279 -114.598526 -106.008204  133.779419    0.000000    0.000000    0.000000    0.000000
  0.022625251   -0.507595 -115.843491 -104.113539  139.294174    0.000000    0.000000    0.000000    0.000000
  0.022825651   -0.509420 -117.083351 -105.588047  134.363815    0.000000    0.000000    0.000000    0.000000
  0.023026052   -0.517889 -118.285889 -105.471917  135.400192    0.000000    0.000000    0.000000    0.000000
  0.023226453   -0.517707 -119.586884 -105.515959  135.308044    0.000000    0.000000    0.000000    0.000000
  0.023426854   -0.522909 -120.850647 -106.283268  125.202644    0.000000    0.000000    0.000000    0.000000
  0.023627255   -0.532255 -122.168190 -105.578974  136.481247    0.000000    0.000000    0.000000    0.000000
  0.023827655   -0.535968 -123.480423 -104.473384  134.137390    0.000000    0.000000    0.000000    0.000000
  0.024028056   -0.542066 -124.802948 -105.682768  140.934708    0.000000    0.000000    0.000000    0.000000
  0.024228457   -0.552302 -126.132645 -106.402654  133.327316    0.000000    0.000000    0.000000    0.000000
  0.024428858   -0.547047 -127.440926 -105.532088  133.881531    0.000000    0.000000    0.000000    0.000000
  0.024629259   -0.550781 -128.747711 -105.981070  138.513596    0.000000    0.000000    0.000000    0.000000
  0.024829659   -0.555182 -130.043182 -106.832687  134.848038    0.000000    0.000000    0.000000    0.000000
  0.025030060   -0.565808 -131.374619 -106.302449  140.605270    0.000000    0.000000    0.000000    0.000000
  0.025230461   -0.581629 -132.711060 -107.049511  133.754303    0.000000    0.000000    0.000000    0.000000
  0.025430862   -0.605291 -134.121292 -105.854537  133.895920    0.000000    0.000000    0.000000    0.000000
  0.025631263   -0.619803 -135.495941 -106.340742  148.018158    0.000000    0.000000    0.000000    0.000000
  0.025831663   -0.638101 -136.952774 -106.261647  149.387329    0.000000    0.000000    0.000000    0.000000
  0.026032064   -0.654423 -138.395187 -105.429904  133.973740    0.000000    0.000000    0.000000    0.000000
  0.026232465   -0.666112 -139.894577 -105.747826  145.713303    0.000000    0.000000    0.000000    0.000000
  0.026432866   -0.678995 -141.357498 -104.658121  139.746613    0.000000    0.000000    0.000000    0.000000
  0.026633267   -0.689122 -142.820160 -105.804414  148.552444    0.000000    0.000000    0.000000    0.000000
  0.026833667   -0.696514 -144.352921 -107.112577  134.407516    0.000000    0.000000    0.000000    0.000000
  0.027034068   -0.709932 -145.732040 -105.695128  142.847931    0.000000    0.000000    0.000000    0.000000
  0.027234469   -0.723372 -147.221756 -105.337092  145.416306    0.000000    0.000000    0.000000    0.000000
  0.027434870   -0.738608 -148.679092 -103.660605  137.373306    0.000000    0.000000    0.000000    0.000000
  0.027635271   -0.753453 -150.185669 -104.717639  138.152435    0.000000    0.000000    0.000000    0.000000
  0.027835671   -0.772127 -151.701080 -104.570109  137.131882    0.000000    0.000000    0.000000    0.000000
  0.028036072   -0.781264 -153.224945 -105.733986  139.818405    0.000000    0.000000    0.000000    0.000000
  0.028236473   -0.802558 -154.754425 -104.574756  137.319839    0.000000    0.000000    0.000000    0.000000
  0.028436874   -0.824002 -156.295807 -104.613039  138.337723    0.000000    0.000000    0.000000    0.000000
  0.028637275   -0.843155 -157.837769 -104.562401  138.656235    0.000000    0.000000    0.000000    0.000000
  0.028837675   -0.860323 -159.396927 -104.195391  143.804108    0.000000    0.000000    0.000000    0.000000
  0.029038076   -0.880658 -160.950836 -105.084544  139.693054    0.000000    0.000000    0.000000    0.000000
  0.029238477   -0.898939 -162.475128 -105.337944  135.162689    0.000000    0.000000    0.000000    0.000000
  0.029438878   -0.925410 -164.062027 -106.122256  141.890152    0.000000    0.000000    0.000000    0.000000
  0.029639279   -0.951254 -165.663635 -106.487629  139.167313    0.000000    0.000000    0.000000    0.000000
  0.029839679   -0.979800 -167.263138 -106.196477  146.727951    0.000000    0.000000    0.000000    0.000000
  0.030040080   -1.008998 -168.897491 -104.692820  137.028061    0.000000    0.000000    0.000000    0.000000
  0.030240481   -1.035813 -170.530136 -104.919559  143.173248    0.000000    0.000000    0.000000    0.000000
  0.030440882   -1.068204 -172.145554 -105.959941  142.052399    0.000000    0.000000    0.000000    0.000000
  0.030641283   -1.093947 -173.813751 -104.597091  143.157394    0.000000    0.000000    0.000000    0.000000
  0.030841683   -1.127241 -175.477097 -105.026767  139.807053    0.000000    0.000000    0.000000    0.000000
  0.031042084   -1.158734 -177.140900 -107.020328  143.482651    0.000000    0.000000    0.000000    0.000000
  0.031242485   -1.191322 -178.809540 -105.449734  145.267853    0.000000    0.000000    0.000000    0.000000
  0.031442886   -1.229152  179.506210 -105.922228  139.432114    0.000000    0.000000    0.000000    0.000000
  0.031643287   -1.265243  177.840408 -107.500494  137.064438    0.000000    0.000000    0.000000    0.000000
  0.031843687   -1.303811  176.130402 -106.407446  145.274612    0.000000    0.000000    0.000000    0.000000
  0.032044088   -1.341968  174.432083 -105.274763  136.481140    0.000000    0.000000    0.000000    0.000000
  0.032244489   -1.382508  172.703217 -105.442994  144.591095    0.000000    0.000000    0.000000    0.000000
  0.032444890   -1.422201  171.007263 -105.016061  144.977921    0.000000    0.000000    0.000000    0.000000
  0.032645291   -1.467005  169.271820 -107.023196  137.317307    0.000000    0.000000    0.000000    0.000000
  0.032845691   -1.513536  167.546844 -106.080377  138.237991    0.000000    0.000000    0.000000    0.000000
  0.033046092   -1.558565  165.770050 -106.729430  134.688766    0.000000    0.000000    0.000000    0.000000
  0.033246493   -1.607925  164.004868 -106.240753  139.293335    0.000000    0.000000    0.000000    0.000000
  0.033446894   -1.655020  162.215866 -106.253599  142.733948    0.000000    0.000000    0.000000    0.000000
  0.033647295   -1.701497  160.408218 -106.266473  136.794754    0.000000    0.000000    0.000000    0.000000
  0.033847695   -1.743600  158.592789 -105.394018  145.514328    0.000000    0.000000    0.000000    0.000000
  0.034048096   -1.786665  156.781769 -106.435995  135.502518    0.000000    0.000000    0.000000    0.000000
  0.034248497   -1.825089  154.991821 -106.440076  144.079590    0.000000    0.000000    0.000000    0.000000
  0.034448898   -1.875564  153.200836 -106.581516  142.486389    0.000000    0.000000    0.000000    0.000000
  0.034649299   -1.925468  151.422012 -106.483063  139.700592    0.000000    0.000000    0.000000    0.000000
  0.034849699   -1.972659  149.631271 -105.531501  137.028961    0.000000    0.000000    0.000000    0.000000
  0.035050100   -2.023115  147.811432 -104.834010  132.942276    0.000000    0.000000    0.000000    0.000000
  0.035250501   -2.074054  146.016479 -105.520088  144.178467    0.000000    0.000000    0.000000    0.000000
  0.035450902   -2.130984  144.148514 -105.593023  132.358459    0.000000    0.000000    0.000000    0.000000
  0.035651303   -2.187509  142.279541 -105.660543  138.536453    0.000000    0.000000    0.000000    0.000000
  0.035851703   -2.238235  140.415985 -105.482895  144.636139    0.000000    0.000000    0.000000    0.000000
  0.036052104   -2.292277  138.591614 -104.510594  134.699753    0.000000    0.000000    0.000000    0.000000
  0.036252505   -2.342436  136.672546 -105.158541  139.328781    0.000000    0.000000    0.000000    0.000000
  0.036452906   -2.398750  134.825058 -103.510178  144.979935    0.000000    0.000000    0.000000    0.000000
  0.036653307   -2.460656  133.071854 -105.198209  139.398453    0.000000    0.000000    0.000000    0.000000
  0.036853707   -2.509041  131.159286 -104.123352  140.333633    0.000000    0.000000    0.000000    0.000000
  0.037054108   -2.580407  129.316345 -105.367121  138.307648    0.000000    0.000000    0.000000    0.000000
  0.037254509   -2.625538  127.333183 -104.570134  137.265213    0.000000    0.000000    0.000000    0.000000
  0.037454910   -2.687109  125.422615 -104.438799  138.074371    0.000000    0.000000    0.000000    0.000000
  0.037655311   -2.760829  123.525284 -105.237485  144.212128    0.000000    0.000000    0.000000    0.000000
  0.037855711   -2.794312  121.569489 -104.191517  139.460754    0.000000    0.000000    0.000000    0.000000
  0.038056112   -2.868046  119.651443 -104.761590  133.964218    0.000000    0.000000    0.000000    0.000000
  0.038256513   -2.901196  117.722984 -104.379927  133.737152    0.000000    0.000000    0.000000    0.000000
  0.038456914   -2.973173  115.799530 -105.215330  134.215424    0.000000    0.000000    0.000000    0.000000
  0.038657315   -3.020297  113.970482 -106.382551  139.181305    0.000000    0.000000    0.000000    0.000000
  0.038857715   -3.077146  112.094780 -105.304218  137.662582    0.000000    0.000000    0.000000    0.000000
  0.039058116   -3.152091  110.168648 -106.037062  141.240311    0.000000    0.000000    0.000000    0.000000
  0.039258517   -3.215802  108.270126 -105.481058  139.038208    0.000000    0.000000    0.000000    0.000000
  0.039458918   -3.283572  106.381340 -105.460118  140.855392    0.000000    0.000000    0.000000    0.000000
  0.039659319   -3.340917  104.573997 -104.911148  135.266785    0.000000    0.000000    0.000000    0.000000
  0.039859719   -3.411710  102.684425 -105.696382  137.989243    0.000000    0.000000    0.000000    0.000000
  0.040060120   -3.477258  100.756966 -106.068076  136.398132    0.000000    0.000000    0.000000    0.000000
  0.040260521   -3.544542   98.833817 -106.169161  143.303223    0.000000    0.000000    0.000000    0.000000
  0.040460922   -3.608132   96.864090 -106.089302  137.178146    0.000000    0.000000    0.000000    0.000000
  0.040661323   -3.671945   94.974945 -106.225198  148.336166    0.000000    0.000000    0.000000    0.000000
  0.040861723   -3.737058   93.026291 -105.213180  137.228256    0.000000    0.000000    0.000000    0.000000
  0.041062124   -3.800263   91.065575 -105.317336  138.362686    0.000000    0.000000    0.000000    0.000000
  0.041262525   -3.860576   89.135490 -105.168167  139.113724    0.000000    0.000000    0.000000    0.000000
  0.041462926   -3.920742   87.187248 -105.081837  139.843307    0.000000    0.000000    0.000000    0.000000
  0.041663327   -3.975537   85.216484 -105.512203  135.264267    0.000000    0.000000    0.000000    0.000000
  0.041863727   -4.030165   83.297012 -104.535118  135.410355    0.000000    0.000000    0.000000    0.000000
  0.042064128   -4.085976   81.420685 -105.174771  142.001221    0.000000    0.000000    0.000000    0.000000
  0.042264529   -4.137859   79.529396 -105.288324  139.352234    0.000000    0.000000    0.000000    0.000000
  0.042464930   -4.185590   77.599487 -105.561897  136.734924    0.000000    0.000000    0.000000    0.000000
  0.042665331   -4.240492   75.698364 -104.460320  132.387497    0.000000    0.000000    0.000000    0.000000
  0.042865731   -4.285997   73.816200 -104.462834  136.609497    0.000000    0.000000    0.000000    0.000000
