! Anritsu VNA Master:                 Model: MS2034B/10/19/501
! SN:                                  1337062
! /bd0/ovro-jan-2016/ant252v2-a2-s11.s2p
! Existing Calibration Information:
! TYPE:                         Current Settings,       Active Cal Settings
! TIME:             	   01/14/2016 04:57:29 PM,    01/14/2016 04:54:38 PM
! INTERNAL TEMP:    	                   39.3 C,                    38.5 C
! # POINTS:         	                      168,                       500
! START FREQ:       	               10.000 MHz,                10.000 MHz
! STOP FREQ:        	              110.000 MHz,               110.000 MHz
! SOURCE POWER:     	                     High,                      High
! IFBW:             	                   100 Hz,                    100 Hz
! AVG FACTOR:       	                       4 ,                        4 
! REF PLANE 1:      	                     0 mm,                      0 mm
! REF PLANE 2:      	                     0 mm,                      0 mm
! CAL TYPE:         	                 Full S11,                  Full S11
! CAL METHOD:       	                     SOLT,                      SOLT
! CAL LINE TYPE:    	                     Coax,                      Coax
! DUT PORT 1:       	                K-Conn(M),                 K-Conn(M)
! DUT PORT 2:       	                N-Conn(M),                 N-Conn(M)
! CAL STATUS:       	        OK: Accuracy High,                        --
# GHZ S DB R 50.0
! FREQ.GHZ       S11DB        S11A       S21DB        S21A       S12DB        S12A       S22DB        S22A
  0.010000000   -0.622292  -46.534298 -105.179130  149.963776    0.000000    0.000000    0.000000    0.000000
  0.010598802   -0.580939  -49.452187 -103.431781  141.682419    0.000000    0.000000    0.000000    0.000000
  0.011197605   -0.585695  -52.462883 -103.607116  139.673798    0.000000    0.000000    0.000000    0.000000
  0.011796407   -0.591008  -55.437584 -103.006690  140.813156    0.000000    0.000000    0.000000    0.000000
  0.012395210   -0.578920  -58.641102 -102.776738  140.331192    0.000000    0.000000    0.000000    0.000000
  0.012994012   -0.586648  -61.631229 -102.675469  139.510300    0.000000    0.000000    0.000000    0.000000
  0.013592814   -0.579460  -64.822884 -102.756520  141.106567    0.000000    0.000000    0.000000    0.000000
  0.014191617   -0.579639  -68.060875 -104.499888  129.491455    0.000000    0.000000    0.000000    0.000000
  0.014790419   -0.545383  -71.188980 -105.714907  135.606033    0.000000    0.000000    0.000000    0.000000
  0.015389222   -0.536877  -74.268219 -106.693458  131.789352    0.000000    0.000000    0.000000    0.000000
  0.015988024   -0.551209  -77.465355 -106.509314  134.833450    0.000000    0.000000    0.000000    0.000000
  0.016586826   -0.557584  -80.796608 -106.969681  143.439178    0.000000    0.000000    0.000000    0.000000
  0.017185629   -0.564289  -84.163307 -107.429661  142.999969    0.000000    0.000000    0.000000    0.000000
  0.017784431   -0.563975  -87.680168 -107.008174  142.539963    0.000000    0.000000    0.000000    0.000000
  0.018383234   -0.550848  -91.186928 -105.672005  147.164307    0.000000    0.000000    0.000000    0.000000
  0.018982036   -0.536930  -94.728554 -103.966074  153.503601    0.000000    0.000000    0.000000    0.000000
  0.019580838   -0.521158  -98.255951 -102.963436  138.850067    0.000000    0.000000    0.000000    0.000000
  0.020179641   -0.511929 -101.785179 -104.066085  142.219818    0.000000    0.000000    0.000000    0.000000
  0.020778443   -0.511522 -105.356712 -105.034272  139.548721    0.000000    0.000000    0.000000    0.000000
  0.021377246   -0.530180 -109.009140 -104.307975  139.431946    0.000000    0.000000    0.000000    0.000000
  0.021976048   -0.528638 -112.875183 -105.349025  133.660156    0.000000    0.000000    0.000000    0.000000
  0.022574850   -0.522758 -116.685379 -104.529897  135.713104    0.000000    0.000000    0.000000    0.000000
  0.023173653   -0.542656 -120.490318 -106.643067  143.199631    0.000000    0.000000    0.000000    0.000000
  0.023772455   -0.567682 -124.463303 -106.208630  134.993210    0.000000    0.000000    0.000000    0.000000
  0.024371257   -0.581108 -128.498398 -106.187651  138.240891    0.000000    0.000000    0.000000    0.000000
  0.024970060   -0.601083 -132.515594 -107.574130  142.259521    0.000000    0.000000    0.000000    0.000000
  0.025568862   -0.664629 -136.678162 -106.461579  141.320526    0.000000    0.000000    0.000000    0.000000
  0.026167665   -0.714374 -141.110138 -106.196586  138.154785    0.000000    0.000000    0.000000    0.000000
  0.026766467   -0.749620 -145.584656 -105.105989  143.645813    0.000000    0.000000    0.000000    0.000000
  0.027365269   -0.793515 -150.017395 -105.732852  140.766953    0.000000    0.000000    0.000000    0.000000
  0.027964072   -0.844516 -154.578659 -104.912702  144.120453    0.000000    0.000000    0.000000    0.000000
  0.028562874   -0.911558 -159.260803 -105.526072  142.787125    0.000000    0.000000    0.000000    0.000000
  0.029161677   -0.972521 -163.938019 -104.894041  143.095108    0.000000    0.000000    0.000000    0.000000
  0.029760479   -1.059799 -168.777084 -106.889837  133.470627    0.000000    0.000000    0.000000    0.000000
  0.030359281   -1.154763 -173.705200 -106.749022  136.564545    0.000000    0.000000    0.000000    0.000000
  0.030958084   -1.247007 -178.732895 -104.819966  135.190674    0.000000    0.000000    0.000000    0.000000
  0.031556886   -1.359547  176.153473 -106.043917  146.772629    0.000000    0.000000    0.000000    0.000000
  0.032155689   -1.481646  170.984360 -105.846055  136.164398    0.000000    0.000000    0.000000    0.000000
  0.032754491   -1.617062  165.704895 -107.204479  142.845505    0.000000    0.000000    0.000000    0.000000
  0.033353293   -1.768971  160.293198 -106.520745  139.399216    0.000000    0.000000    0.000000    0.000000
  0.033952096   -1.907686  154.741699 -105.401042  143.706451    0.000000    0.000000    0.000000    0.000000
  0.034550898   -2.057312  149.270416 -105.989905  147.474380    0.000000    0.000000    0.000000    0.000000
  0.035149701   -2.166154  145.601089 -104.871086  141.500900    0.000000    0.000000    0.000000    0.000000
  0.035748503   -2.350456  139.945328 -104.953823  139.144699    0.000000    0.000000    0.000000    0.000000
  0.036347305   -2.521575  134.266922 -104.574407  136.078598    0.000000    0.000000    0.000000    0.000000
  0.036946108   -2.698867  128.655731 -103.863576  139.756714    0.000000    0.000000    0.000000    0.000000
  0.037544910   -2.895895  122.884026 -105.138472  137.811188    0.000000    0.000000    0.000000    0.000000
  0.038143713   -3.089319  117.105354 -105.213845  135.107880    0.000000    0.000000    0.000000    0.000000
  0.038742515   -3.247156  111.396042 -105.012190  143.823029    0.000000    0.000000    0.000000    0.000000
  0.039341317   -3.450945  105.688713 -107.768186  142.351913    0.000000    0.000000    0.000000    0.000000
  0.039940120   -3.647360  100.100914 -106.241199  135.579056    0.000000    0.000000    0.000000    0.000000
  0.040538922   -3.847738   94.353149 -106.041964  144.971207    0.000000    0.000000    0.000000    0.000000
  0.041137725   -4.039550   88.579704 -106.290772  137.036636    0.000000    0.000000    0.000000    0.000000
  0.041736527   -4.209605   82.826134 -105.532978  142.099121    0.000000    0.000000    0.000000    0.000000
  0.042335329   -4.369468   77.162125 -104.146854  145.389954    0.000000    0.000000    0.000000    0.000000
  0.042934132   -4.512777   71.600388 -105.099952  129.141144    0.000000    0.000000    0.000000    0.000000
  0.043532934   -4.637809   66.160049 -104.395266  143.952377    0.000000    0.000000    0.000000    0.000000
  0.044131737   -4.770039   60.885555 -105.092092  137.980499    0.000000    0.000000    0.000000    0.000000
  0.044730539   -4.908307   55.576889 -105.720767  143.799393    0.000000    0.000000    0.000000    0.000000
  0.045329341   -5.033906   50.294159 -105.169573  140.544235    0.000000    0.000000    0.000000    0.000000
  0.045928144   -5.150735   45.176449 -105.592884  146.477249    0.000000    0.000000    0.000000    0.000000
  0.046526946   -5.239208   40.093559 -105.609427  143.940063    0.000000    0.000000    0.000000    0.000000
  0.047125749   -5.337900   35.123207 -106.482777  153.206863    0.000000    0.000000    0.000000    0.000000
  0.047724551   -5.418988   30.159697 -107.090461  149.810165    0.000000    0.000000    0.000000    0.000000
  0.048323353   -5.482253   25.370228 -106.622119  145.584793    0.000000    0.000000    0.000000    0.000000
  0.048922156   -5.547114   20.663210 -106.577157  146.314789    0.000000    0.000000    0.000000    0.000000
  0.049520958   -5.605320   16.014437 -105.387168  136.781006    0.000000    0.000000    0.000000    0.000000
  0.050119760   -5.631289   11.442472 -106.917715  146.854431    0.000000    0.000000    0.000000    0.000000
  0.050718563   -5.667748    7.033831 -104.919580  141.770874    0.000000    0.000000    0.000000    0.000000
  0.051317365   -5.683104    2.790045 -105.418937  154.086288    0.000000    0.000000    0.000000    0.000000
  0.051916168   -5.695137   -1.342895 -105.381807  147.405258    0.000000    0.000000    0.000000    0.000000
  0.052514970   -5.701680   -5.374941 -106.830486  139.968506    0.000000    0.000000    0.000000    0.000000
  0.053113772   -5.702321   -9.203805 -105.967716  139.025467    0.000000    0.000000    0.000000    0.000000
  0.053712575   -5.704166  -12.955137 -106.212211  154.965454    0.000000    0.000000    0.000000    0.000000
  0.054311377   -5.714945  -16.536018 -107.597872  152.036606    0.000000    0.000000    0.000000    0.000000
  0.054910180   -5.717473  -20.077454 -106.535436  132.316895    0.000000    0.000000    0.000000    0.000000
  0.055508982   -5.738463  -23.537144 -106.717305  150.534821    0.000000    0.000000    0.000000    0.000000
  0.056107784   -5.747688  -27.008387 -105.555445  147.160263    0.000000    0.000000    0.000000    0.000000
  0.056706587   -5.765739  -30.371895 -108.166533  141.672302    0.000000    0.000000    0.000000    0.000000
  0.057305389   -5.770143  -33.716713 -107.967214  157.003143    0.000000    0.000000    0.000000    0.000000
  0.057904192   -5.762660  -36.975574 -106.528608  141.978439    0.000000    0.000000    0.000000    0.000000
  0.058502994   -5.757046  -39.995899 -105.764159  152.320648    0.000000    0.000000    0.000000    0.000000
  0.059101796   -5.758141  -43.003597 -107.585203  145.287460    0.000000    0.000000    0.000000    0.000000
  0.059700599   -5.765335  -45.954376 -106.785551  144.356049    0.000000    0.000000    0.000000    0.000000
  0.060299401   -5.761133  -48.986050 -107.512288  142.221405    0.000000    0.000000    0.000000    0.000000
  0.060898204   -5.749502  -51.743164 -106.640336  157.021515    0.000000    0.000000    0.000000    0.000000
  0.061497006   -5.745485  -54.486389 -108.559064  159.214951    0.000000    0.000000    0.000000    0.000000
  0.062095808   -5.724890  -57.191177 -106.519753  143.931946    0.000000    0.000000    0.000000    0.000000
  0.062694611   -5.700702  -59.658775 -106.869087  148.660172    0.000000    0.000000    0.000000    0.000000
  0.063293413   -5.694617  -62.013355 -107.419085  141.047958    0.000000    0.000000    0.000000    0.000000
  0.063892216   -5.709556  -64.509132 -107.071868  157.978226    0.000000    0.000000    0.000000    0.000000
  0.064491018   -5.717252  -66.924973 -107.401507  149.025162    0.000000    0.000000    0.000000    0.000000
  0.065089820   -5.714290  -69.345558 -107.361981  144.872116    0.000000    0.000000    0.000000    0.000000
  0.065688623   -5.713444  -71.726372 -106.175004  148.121277    0.000000    0.000000    0.000000    0.000000
  0.066287425   -5.707421  -74.089394 -106.999549  136.714401    0.000000    0.000000    0.000000    0.000000
  0.066886228   -5.694119  -76.403786 -106.207817  141.008514    0.000000    0.000000    0.000000    0.000000
  0.067485030   -5.678639  -78.556625 -105.206444  150.014526    0.000000    0.000000    0.000000    0.000000
  0.068083832   -5.670940  -80.639198 -106.002575  137.335648    0.000000    0.000000    0.000000    0.000000
  0.068682635   -5.684745  -82.734352 -107.387374  156.124725    0.000000    0.000000    0.000000    0.000000
  0.069281437   -5.691222  -84.871979 -107.076817  153.116074    0.000000    0.000000    0.000000    0.000000
  0.069880240   -5.697377  -86.942513 -105.949914  143.603378    0.000000    0.000000    0.000000    0.000000
  0.070479042   -5.699313  -89.044853 -107.482737  143.152176    0.000000    0.000000    0.000000    0.000000
  0.071077844   -5.694959  -91.079849 -106.000553  155.275742    0.000000    0.000000    0.000000    0.000000
  0.071676647   -5.677410  -92.873741 -107.262781  144.571335    0.000000    0.000000    0.000000    0.000000
  0.072275449   -5.695323  -94.720100 -106.917540  148.396484    0.000000    0.000000    0.000000    0.000000
  0.072874251   -5.721773  -96.479065 -106.767424  141.885178    0.000000    0.000000    0.000000    0.000000
  0.073473054   -5.757813  -98.337952 -108.161327  147.153305    0.000000    0.000000    0.000000    0.000000
  0.074071856   -5.797960 -100.402657 -107.494395  151.047882    0.000000    0.000000    0.000000    0.000000
  0.074670659   -5.828044 -102.368050 -105.412353  150.121964    0.000000    0.000000    0.000000    0.000000
  0.075269461   -5.856578 -104.318245 -107.085457  156.519760    0.000000    0.000000    0.000000    0.000000
  0.075868263   -5.881879 -106.174835 -106.999635  144.592804    0.000000    0.000000    0.000000    0.000000
  0.076467066   -5.916840 -107.980911 -106.687427  149.613525    0.000000    0.000000    0.000000    0.000000
  0.077065868   -5.955287 -109.729752 -105.789455  148.605133    0.000000    0.000000    0.000000    0.000000
  0.077664671   -5.998143 -111.395004 -105.605482  142.314835    0.000000    0.000000    0.000000    0.000000
  0.078263473   -6.052518 -113.094368 -104.783133  138.713303    0.000000    0.000000    0.000000    0.000000
  0.078862275   -6.104785 -114.822281 -104.860736  147.898483    0.000000    0.000000    0.000000    0.000000
  0.079461078   -6.132442 -116.545578 -106.126527  139.340866    0.000000    0.000000    0.000000    0.000000
  0.080059880   -6.193860 -118.089958 -106.307936  143.502029    0.000000    0.000000    0.000000    0.000000
  0.080658683   -6.229995 -119.565552 -107.601739  147.683990    0.000000    0.000000    0.000000    0.000000
  0.081257485   -6.273952 -120.893364 -107.743986  145.655777    0.000000    0.000000    0.000000    0.000000
  0.081856287   -6.341413 -122.355995 -107.328526  147.742722    0.000000    0.000000    0.000000    0.000000
  0.082455090   -6.418011 -123.543686 -106.169288  148.382782    0.000000    0.000000    0.000000    0.000000
  0.083053892   -6.501494 -124.973434 -106.912682  148.194275    0.000000    0.000000    0.000000    0.000000
  0.083652695   -6.558904 -126.544296 -105.347255  150.994415    0.000000    0.000000    0.000000    0.000000
  0.084251497   -6.614249 -127.923035 -107.694428  148.113235    0.000000    0.000000    0.000000    0.000000
  0.084850299   -6.662161 -129.238815 -106.674810  148.857559    0.000000    0.000000    0.000000    0.000000
  0.085449102   -6.698141 -130.049927 -105.625110  147.992737    0.000000    0.000000    0.000000    0.000000
  0.086047904   -6.752432 -131.350357 -106.249861  146.533096    0.000000    0.000000    0.000000    0.000000
  0.086646707   -6.799762 -132.564346 -105.131418  139.123535    0.000000    0.000000    0.000000    0.000000
  0.087245509   -6.865382 -133.745789 -105.877291  147.210587    0.000000    0.000000    0.000000    0.000000
  0.087844311   -6.931235 -134.899216 -106.949414  143.926437    0.000000    0.000000    0.000000    0.000000
  0.088443114   -7.000951 -136.134598 -105.300982  141.427185    0.000000    0.000000    0.000000    0.000000
  0.089041916   -7.052437 -137.254074 -104.646455  127.753044    0.000000    0.000000    0.000000    0.000000
  0.089640719   -7.122851 -138.313461 -106.404320  142.151001    0.000000    0.000000    0.000000    0.000000
  0.090239521   -7.168622 -139.214981 -104.676780  133.434799    0.000000    0.000000    0.000000    0.000000
  0.090838323   -7.243697 -140.128342 -106.117444  145.395325    0.000000    0.000000    0.000000    0.000000
  0.091437126   -7.319821 -141.031113 -105.821201  141.286240    0.000000    0.000000    0.000000    0.000000
  0.092035928   -7.418662 -141.898285 -105.403399  146.145844    0.000000    0.000000    0.000000    0.000000
  0.092634731   -7.508439 -142.914261 -105.895696  148.751266    0.000000    0.000000    0.000000    0.000000
  0.093233533   -7.596577 -143.930557 -105.504844  137.240128    0.000000    0.000000    0.000000    0.000000
  0.093832335   -7.642248 -144.978455 -107.243831  152.681595    0.000000    0.000000    0.000000    0.000000
  0.094431138   -7.701750 -145.914673 -105.272265  144.906662    0.000000    0.000000    0.000000    0.000000
  0.095029940   -7.768818 -146.795090 -106.129969  143.050888    0.000000    0.000000    0.000000    0.000000
  0.095628743   -7.823071 -147.719391 -105.275040  145.707367    0.000000    0.000000    0.000000    0.000000
  0.096227545   -7.871871 -148.541672 -104.624388  134.853104    0.000000    0.000000    0.000000    0.000000
  0.096826347   -7.929711 -149.267670 -106.058339  143.839005    0.000000    0.000000    0.000000    0.000000
  0.097425150   -7.984387 -150.089996 -106.400652  138.721664    0.000000    0.000000    0.000000    0.000000
  0.098023952   -8.016995 -150.904144 -105.911940  146.129333    0.000000    0.000000    0.000000    0.000000
  0.098622754   -8.048909 -151.623718 -106.849411  137.989090    0.000000    0.000000    0.000000    0.000000
  0.099221557   -8.074836 -152.200333 -106.153615  136.290741    0.000000    0.000000    0.000000    0.000000
  0.099820359   -8.092937 -152.699417 -106.177156  145.300186    0.000000    0.000000    0.000000    0.000000
  0.100419162   -8.112657 -153.483795 -107.487578  144.244247    0.000000    0.000000    0.000000    0.000000
  0.101017964   -8.143999 -153.948914 -106.164132  151.305267    0.000000    0.000000    0.000000    0.000000
  0.101616766   -8.183583 -154.512711 -105.324828  138.126251    0.000000    0.000000    0.000000    0.000000
  0.102215569   -8.223411 -155.277985 -105.224477  144.951950    0.000000    0.000000    0.000000    0.000000
  0.102814371   -8.238277 -156.120438 -105.739943  148.408554    0.000000    0.000000    0.000000    0.000000
  0.103413174   -8.224895 -156.949768 -108.008448  156.910080    0.000000    0.000000    0.000000    0.000000
  0.104011976   -8.227613 -157.755402 -107.009045  145.506241    0.000000    0.000000    0.000000    0.000000
  0.104610778   -8.222642 -158.628860 -105.830076  146.701508    0.000000    0.000000    0.000000    0.000000
  0.105209581   -8.208816 -159.535767 -108.327696  147.630188    0.000000    0.000000    0.000000    0.000000
  0.105808383   -8.194585 -160.537613 -106.194619  144.023285    0.000000    0.000000    0.000000    0.000000
  0.106407186   -8.181589 -161.529877 -107.457316  161.372696    0.000000    0.000000    0.000000    0.000000
  0.107005988   -8.163387 -162.647766 -105.292155  143.287567    0.000000    0.000000    0.000000    0.000000
  0.107604790   -8.136777 -163.833649 -106.609071  146.205521    0.000000    0.000000    0.000000    0.000000
  0.108203593   -8.106240 -165.047821 -106.105263  141.737534    0.000000    0.000000    0.000000    0.000000
