! Anritsu VNA Master:                 Model: MS2034B/10/19/501
! SN:                                  1337062
! /bd0/ovro-jan-2016/vna-jan/vna-b1-s11-with-shorts-j9-j10.s2p
! Existing Calibration Information:
! TYPE:                         Current Settings,       Active Cal Settings
! TIME:             	   01/13/2016 12:53:01 PM,    01/12/2016 05:57:47 PM
! INTERNAL TEMP:    	                   44.3 C,                    46.0 C
! # POINTS:         	                      500,                       500
! START FREQ:       	               10.000 MHz,                10.000 MHz
! STOP FREQ:        	              110.000 MHz,               110.000 MHz
! SOURCE POWER:     	                      Low,                       Low
! IFBW:             	                   100 Hz,                     1 kHz
! AVG FACTOR:       	                       1 ,                        3 
! REF PLANE 1:      	                     0 mm,                      0 mm
! REF PLANE 2:      	                     0 mm,                      0 mm
! CAL TYPE:         	             1P2P S11,S21,              1P2P S11,S21
! CAL METHOD:       	                     SOLT,                      SOLT
! CAL LINE TYPE:    	                     Coax,                      Coax
! DUT PORT 1:       	                K-Conn(M),                 K-Conn(M)
! DUT PORT 2:       	                N-Conn(M),                 N-Conn(M)
! CAL STATUS:       	        OK: Accuracy High,                        --
# GHZ S DB R 50.0
! FREQ.GHZ       S11DB        S11A       S21DB        S21A       S12DB        S12A       S22DB        S22A
  0.010000000   -0.795805  138.625946  -67.197759   35.716366    0.000000    0.000000    0.000000    0.000000
  0.010200401   -0.810919  138.131714  -65.542943   74.367256    0.000000    0.000000    0.000000    0.000000
  0.010400802   -0.820161  137.086197  -64.710901   38.039402    0.000000    0.000000    0.000000    0.000000
  0.010601202   -0.813748  136.173828  -67.514935   63.347176    0.000000    0.000000    0.000000    0.000000
  0.010801603   -0.812909  135.628952  -69.153428   74.925430    0.000000    0.000000    0.000000    0.000000
  0.011002004   -0.833428  134.799500  -66.068415   74.661552    0.000000    0.000000    0.000000    0.000000
  0.011202405   -0.826199  134.137527  -66.666622   61.243431    0.000000    0.000000    0.000000    0.000000
  0.011402806   -0.807820  133.265549  -63.935920   52.333324    0.000000    0.000000    0.000000    0.000000
  0.011603206   -0.865816  132.382095  -66.698788   52.765644    0.000000    0.000000    0.000000    0.000000
  0.011803607   -0.872397  131.824890  -68.073094   66.681656    0.000000    0.000000    0.000000    0.000000
  0.012004008   -0.861130  131.006485  -66.641706   57.316231    0.000000    0.000000    0.000000    0.000000
  0.012204409   -0.828138  130.312195  -66.864096   67.974442    0.000000    0.000000    0.000000    0.000000
  0.012404810   -0.854724  129.751999  -66.925501   71.469780    0.000000    0.000000    0.000000    0.000000
  0.012605210   -0.879662  128.800797  -65.534262   75.992851    0.000000    0.000000    0.000000    0.000000
  0.012805611   -0.852232  128.012787  -64.737529   44.820145    0.000000    0.000000    0.000000    0.000000
  0.013006012   -0.886526  127.000999  -67.233828   61.992565    0.000000    0.000000    0.000000    0.000000
  0.013206413   -0.889399  126.547791  -66.749660   73.063507    0.000000    0.000000    0.000000    0.000000
  0.013406814   -0.889214  125.873962  -70.308731   76.705063    0.000000    0.000000    0.000000    0.000000
  0.013607214   -0.896141  125.112152  -66.546767   48.627960    0.000000    0.000000    0.000000    0.000000
  0.013807615   -0.904224  124.282082  -66.769392   74.466393    0.000000    0.000000    0.000000    0.000000
  0.014008016   -0.931993  123.484093  -66.871477   61.416439    0.000000    0.000000    0.000000    0.000000
  0.014208417   -0.905678  122.482193  -67.897619   68.665268    0.000000    0.000000    0.000000    0.000000
  0.014408818   -0.939873  121.963585  -67.178357   81.393333    0.000000    0.000000    0.000000    0.000000
  0.014609218   -0.918629  121.315811  -67.818526   69.247238    0.000000    0.000000    0.000000    0.000000
  0.014809619   -0.931742  120.443695  -68.847070   71.613014    0.000000    0.000000    0.000000    0.000000
  0.015010020   -0.922924  119.820015  -67.545761   79.442879    0.000000    0.000000    0.000000    0.000000
  0.015210421   -0.949507  119.020592  -66.416432   72.181786    0.000000    0.000000    0.000000    0.000000
  0.015410822   -0.953236  118.235123  -66.821499   55.618176    0.000000    0.000000    0.000000    0.000000
  0.015611222   -0.950931  117.239540  -66.101743   69.729324    0.000000    0.000000    0.000000    0.000000
  0.015811623   -0.985375  116.621735  -67.983068   85.227470    0.000000    0.000000    0.000000    0.000000
  0.016012024   -0.952551  115.958817  -70.561486   70.283157    0.000000    0.000000    0.000000    0.000000
  0.016212425   -0.954398  115.327660  -66.345596   70.818832    0.000000    0.000000    0.000000    0.000000
  0.016412826   -0.988040  114.542900  -68.358123   78.408218    0.000000    0.000000    0.000000    0.000000
  0.016613226   -0.981972  113.620186  -68.426837   76.490105    0.000000    0.000000    0.000000    0.000000
  0.016813627   -0.987706  112.889320  -67.012032   98.772530    0.000000    0.000000    0.000000    0.000000
  0.017014028   -1.005258  112.230560  -67.694369   79.065392    0.000000    0.000000    0.000000    0.000000
  0.017214429   -0.985313  111.558556  -66.991423   74.928146    0.000000    0.000000    0.000000    0.000000
  0.017414830   -0.978452  110.654808  -66.676704   79.931671    0.000000    0.000000    0.000000    0.000000
  0.017615230   -1.011729  109.864937  -68.284868   86.053879    0.000000    0.000000    0.000000    0.000000
  0.017815631   -1.006473  109.158356  -68.967923   84.021194    0.000000    0.000000    0.000000    0.000000
  0.018016032   -0.978862  108.189400  -69.914038   80.639168    0.000000    0.000000    0.000000    0.000000
  0.018216433   -1.013337  107.600342  -66.959511   71.306297    0.000000    0.000000    0.000000    0.000000
  0.018416834   -1.025638  106.863953  -67.323554   81.620201    0.000000    0.000000    0.000000    0.000000
  0.018617234   -1.004030  106.033112  -65.001164   76.124252    0.000000    0.000000    0.000000    0.000000
  0.018817635   -1.016054  105.357574  -69.300348   85.661774    0.000000    0.000000    0.000000    0.000000
  0.019018036   -1.037456  104.676514  -66.637778   91.598396    0.000000    0.000000    0.000000    0.000000
  0.019218437   -1.029014  103.791885  -67.274490   82.884331    0.000000    0.000000    0.000000    0.000000
  0.019418838   -1.044305  103.222740  -68.641636   87.455589    0.000000    0.000000    0.000000    0.000000
  0.019619238   -1.040910  102.403587  -68.141368   94.640900    0.000000    0.000000    0.000000    0.000000
  0.019819639   -1.039673  101.462296  -67.921448   85.171242    0.000000    0.000000    0.000000    0.000000
  0.020020040   -1.039214  100.797531  -68.193258  103.169189    0.000000    0.000000    0.000000    0.000000
  0.020220441   -1.080028  100.031380  -68.330276   86.856842    0.000000    0.000000    0.000000    0.000000
  0.020420842   -1.057952   99.234634  -69.281306   91.553818    0.000000    0.000000    0.000000    0.000000
  0.020621242   -1.026510   98.353539  -68.886983   77.989906    0.000000    0.000000    0.000000    0.000000
  0.020821643   -1.079175   97.773018  -68.225723  104.737785    0.000000    0.000000    0.000000    0.000000
  0.021022044   -1.072429   97.186813  -68.781319   95.272995    0.000000    0.000000    0.000000    0.000000
  0.021222445   -1.070389   96.365646  -68.061579  111.013504    0.000000    0.000000    0.000000    0.000000
  0.021422846   -1.079769   95.552345  -67.713279  103.332611    0.000000    0.000000    0.000000    0.000000
  0.021623246   -1.076842   94.616570  -69.036414  107.941582    0.000000    0.000000    0.000000    0.000000
  0.021823647   -1.080378   93.869003  -68.492397  110.856163    0.000000    0.000000    0.000000    0.000000
  0.022024048   -1.102520   93.258789  -69.039278  106.783287    0.000000    0.000000    0.000000    0.000000
  0.022224449   -1.116208   92.416992  -68.002204  103.428413    0.000000    0.000000    0.000000    0.000000
  0.022424850   -1.092223   91.695457  -68.800719  110.518013    0.000000    0.000000    0.000000    0.000000
  0.022625251   -1.108441   90.969704  -68.770092  113.119606    0.000000    0.000000    0.000000    0.000000
  0.022825651   -1.138346   90.079811  -67.972099  106.819809    0.000000    0.000000    0.000000    0.000000
  0.023026052   -1.084747   89.226059  -68.146332  128.383713    0.000000    0.000000    0.000000    0.000000
  0.023226453   -1.097828   88.557693  -68.125424  102.120865    0.000000    0.000000    0.000000    0.000000
  0.023426854   -1.139008   87.849220  -67.329822  108.532356    0.000000    0.000000    0.000000    0.000000
  0.023627255   -1.147361   87.070786  -67.821181  113.653076    0.000000    0.000000    0.000000    0.000000
  0.023827655   -1.154403   86.363655  -66.043769  110.181862    0.000000    0.000000    0.000000    0.000000
  0.024028056   -1.142291   85.570724  -67.837804  108.234871    0.000000    0.000000    0.000000    0.000000
  0.024228457   -1.134345   84.706978  -67.715977  115.987648    0.000000    0.000000    0.000000    0.000000
  0.024428858   -1.152768   84.049423  -68.678969  113.428658    0.000000    0.000000    0.000000    0.000000
  0.024629259   -1.135597   83.379303  -70.548988  112.438988    0.000000    0.000000    0.000000    0.000000
  0.024829659   -1.177360   82.557983  -66.794681  126.465553    0.000000    0.000000    0.000000    0.000000
  0.025030060   -1.149522   81.726295  -68.067673  157.823776    0.000000    0.000000    0.000000    0.000000
  0.025230461   -1.171383   80.762352  -66.530073  155.576813    0.000000    0.000000    0.000000    0.000000
  0.025430862   -1.122796   80.041542  -64.079826  148.671967    0.000000    0.000000    0.000000    0.000000
  0.025631263   -1.163418   79.480370  -65.460793  150.641327    0.000000    0.000000    0.000000    0.000000
  0.025831663   -1.176009   78.464081  -66.270252 -179.861084    0.000000    0.000000    0.000000    0.000000
  0.026032064   -1.189868   77.897324  -66.462645  153.137939    0.000000    0.000000    0.000000    0.000000
  0.026232465   -1.167418   76.923546  -66.174668  162.457123    0.000000    0.000000    0.000000    0.000000
  0.026432866   -1.192197   76.309052  -65.416681  152.373383    0.000000    0.000000    0.000000    0.000000
  0.026633267   -1.170396   75.588448  -65.553042  151.399368    0.000000    0.000000    0.000000    0.000000
  0.026833667   -1.190410   74.649155  -65.891237  159.765198    0.000000    0.000000    0.000000    0.000000
  0.027034068   -1.208682   74.050842  -64.509979  156.229858    0.000000    0.000000    0.000000    0.000000
  0.027234469   -1.197416   73.237923  -67.895684  165.922150    0.000000    0.000000    0.000000    0.000000
  0.027434870   -1.225495   72.440163  -65.305444  150.263229    0.000000    0.000000    0.000000    0.000000
  0.027635271   -1.221137   71.758423  -63.988886  164.256088    0.000000    0.000000    0.000000    0.000000
  0.027835671   -1.267847   70.830132  -70.685710  149.694916    0.000000    0.000000    0.000000    0.000000
  0.028036072   -1.194624   70.384575  -67.523090  173.755981    0.000000    0.000000    0.000000    0.000000
  0.028236473   -1.228532   69.438652  -65.218680  154.943161    0.000000    0.000000    0.000000    0.000000
  0.028436874   -1.218375   68.614082  -67.630271  168.818115    0.000000    0.000000    0.000000    0.000000
  0.028637275   -1.232937   67.886063  -66.865575  176.085464    0.000000    0.000000    0.000000    0.000000
  0.028837675   -1.223783   67.020279  -65.128027  174.658310    0.000000    0.000000    0.000000    0.000000
  0.029038076   -1.234964   66.173309  -65.092978  151.377594    0.000000    0.000000    0.000000    0.000000
  0.029238477   -1.246400   65.528442  -65.264460  161.571503    0.000000    0.000000    0.000000    0.000000
  0.029438878   -1.257840   64.879745  -64.786771  162.568466    0.000000    0.000000    0.000000    0.000000
  0.029639279   -1.240731   64.107613  -67.576350  163.492584    0.000000    0.000000    0.000000    0.000000
  0.029839679   -1.266567   63.343906  -64.821091  172.984039    0.000000    0.000000    0.000000    0.000000
  0.030040080   -1.266133   62.655396  -66.486570 -179.658661    0.000000    0.000000    0.000000    0.000000
  0.030240481   -1.266464   61.879341  -68.507248  177.090866    0.000000    0.000000    0.000000    0.000000
  0.030440882   -1.233307   61.017925  -65.933877  162.154877    0.000000    0.000000    0.000000    0.000000
  0.030641283   -1.284159   60.394054  -68.986834 -176.545731    0.000000    0.000000    0.000000    0.000000
  0.030841683   -1.304020   59.447304  -68.960451 -164.276993    0.000000    0.000000    0.000000    0.000000
  0.031042084   -1.266572   58.750759  -68.353991  174.681290    0.000000    0.000000    0.000000    0.000000
  0.031242485   -1.287783   57.902340  -64.757227  174.632477    0.000000    0.000000    0.000000    0.000000
  0.031442886   -1.297337   57.138832  -68.286663  174.835403    0.000000    0.000000    0.000000    0.000000
  0.031643287   -1.248267   56.366074  -64.638376 -178.146393    0.000000    0.000000    0.000000    0.000000
  0.031843687   -1.271477   55.732380  -66.647067 -176.526917    0.000000    0.000000    0.000000    0.000000
  0.032044088   -1.280267   54.944374  -64.698001  168.475540    0.000000    0.000000    0.000000    0.000000
  0.032244489   -1.283036   53.952194  -67.008878 -172.798370    0.000000    0.000000    0.000000    0.000000
  0.032444890   -1.298638   53.329391  -66.157679 -166.170654    0.000000    0.000000    0.000000    0.000000
  0.032645291   -1.291982   52.448257  -63.742830 -171.629730    0.000000    0.000000    0.000000    0.000000
  0.032845691   -1.302978   51.757401  -66.556044 -165.343552    0.000000    0.000000    0.000000    0.000000
  0.033046092   -1.283953   51.110416  -64.764149 -174.819839    0.000000    0.000000    0.000000    0.000000
  0.033246493   -1.300390   50.188713  -66.676253 -174.064240    0.000000    0.000000    0.000000    0.000000
  0.033446894   -1.302122   49.603748  -64.262909 -179.809265    0.000000    0.000000    0.000000    0.000000
  0.033647295   -1.317458   48.716885  -65.244947 -156.863007    0.000000    0.000000    0.000000    0.000000
  0.033847695   -1.345109   47.986233  -64.962466  178.362488    0.000000    0.000000    0.000000    0.000000
  0.034048096   -1.340772   47.131912  -65.688685 -173.369766    0.000000    0.000000    0.000000    0.000000
  0.034248497   -1.363200   46.327522  -66.397379 -158.056274    0.000000    0.000000    0.000000    0.000000
  0.034448898   -1.348678   45.663956  -65.679683 -170.471161    0.000000    0.000000    0.000000    0.000000
  0.034649299   -1.330387   44.826466  -68.650789 -164.221909    0.000000    0.000000    0.000000    0.000000
  0.034849699   -1.344585   44.046108  -67.192662 -165.540924    0.000000    0.000000    0.000000    0.000000
  0.035050100   -1.326279   43.372543  -66.817998  176.122711    0.000000    0.000000    0.000000    0.000000
  0.035250501   -1.336586   42.525112  -69.670558 -158.999756    0.000000    0.000000    0.000000    0.000000
  0.035450902   -1.342234   41.865456  -70.260929 -142.006561    0.000000    0.000000    0.000000    0.000000
  0.035651303   -1.330658   40.966782  -67.389132 -156.180161    0.000000    0.000000    0.000000    0.000000
  0.035851703   -1.345665   40.319393  -68.211497 -145.767471    0.000000    0.000000    0.000000    0.000000
  0.036052104   -1.336565   39.453014  -65.131321 -168.282303    0.000000    0.000000    0.000000    0.000000
  0.036252505   -1.425569   38.610989  -67.314747 -139.464981    0.000000    0.000000    0.000000    0.000000
  0.036452906   -1.418452   37.892994  -69.583900 -138.316925    0.000000    0.000000    0.000000    0.000000
  0.036653307   -1.395192   37.068077  -68.426840 -157.053284    0.000000    0.000000    0.000000    0.000000
  0.036853707   -1.405526   36.333317  -66.793004 -156.651840    0.000000    0.000000    0.000000    0.000000
  0.037054108   -1.392190   35.426510  -67.670561 -150.128128    0.000000    0.000000    0.000000    0.000000
  0.037254509   -1.386187   34.807030  -66.866519 -130.473541    0.000000    0.000000    0.000000    0.000000
  0.037454910   -1.372482   34.061569  -68.430091 -149.952545    0.000000    0.000000    0.000000    0.000000
  0.037655311   -1.401810   33.153439  -65.613688 -145.380386    0.000000    0.000000    0.000000    0.000000
  0.037855711   -1.403461   32.538021  -68.135215 -155.986664    0.000000    0.000000    0.000000    0.000000
  0.038056112   -1.452134   31.903072  -68.144552 -140.852783    0.000000    0.000000    0.000000    0.000000
  0.038256513   -1.384860   30.942219  -65.970664 -140.585571    0.000000    0.000000    0.000000    0.000000
  0.038456914   -1.384887   30.048731  -66.393791 -144.229431    0.000000    0.000000    0.000000    0.000000
  0.038657315   -1.400829   29.345846  -67.102156 -132.959457    0.000000    0.000000    0.000000    0.000000
  0.038857715   -1.432091   28.593206  -66.978534 -140.468445    0.000000    0.000000    0.000000    0.000000
  0.039058116   -1.517684   27.896748  -65.745680 -143.077377    0.000000    0.000000    0.000000    0.000000
  0.039258517   -1.492902   27.374296  -68.838621 -139.976334    0.000000    0.000000    0.000000    0.000000
  0.039458918   -1.445956   26.383764  -63.896198 -118.611206    0.000000    0.000000    0.000000    0.000000
  0.039659319   -1.429636   25.614759  -65.786734 -131.504822    0.000000    0.000000    0.000000    0.000000
  0.039859719   -1.390518   24.882877  -65.120024 -135.887070    0.000000    0.000000    0.000000    0.000000
  0.040060120   -1.409948   23.966234  -63.140588 -141.859787    0.000000    0.000000    0.000000    0.000000
  0.040260521   -1.380941   22.940569  -63.045283 -152.429550    0.000000    0.000000    0.000000    0.000000
  0.040460922   -1.394342   22.392591  -64.979635 -157.806610    0.000000    0.000000    0.000000    0.000000
  0.040661323   -1.403937   21.528250  -65.348691 -151.105530    0.000000    0.000000    0.000000    0.000000
  0.040861723   -1.387045   20.748875  -66.289160 -159.112320    0.000000    0.000000    0.000000    0.000000
  0.041062124   -1.404983   20.069872  -66.892960 -127.843750    0.000000    0.000000    0.000000    0.000000
  0.041262525   -1.392160   19.267265  -66.898969 -146.403198    0.000000    0.000000    0.000000    0.000000
  0.041462926   -1.388812   18.517076  -67.164533 -144.908279    0.000000    0.000000    0.000000    0.000000
  0.041663327   -1.386517   17.654634  -67.444330 -133.791763    0.000000    0.000000    0.000000    0.000000
  0.041863727   -1.408635   16.963898  -66.457044 -139.191162    0.000000    0.000000    0.000000    0.000000
  0.042064128   -1.391617   16.116800  -67.951834 -119.169769    0.000000    0.000000    0.000000    0.000000
  0.042264529   -1.373395   15.234235  -68.825945 -133.400574    0.000000    0.000000    0.000000    0.000000
  0.042464930   -1.371056   14.552100  -67.044072 -149.424210    0.000000    0.000000    0.000000    0.000000
  0.042665331   -1.382918   13.836144  -67.320779 -130.793549    0.000000    0.000000    0.000000    0.000000
  0.042865731   -1.373214   13.022332  -69.684624 -126.721863    0.000000    0.000000    0.000000    0.000000
