! Anritsu VNA Master:                 Model: MS2034B/10/19/501
! SN:                                  1337062
! /bd0/ovro-jan-2016/vna-jan/vna-blue-ms147-with-board-p2.s2p
! Existing Calibration Information:
! TYPE:                         Current Settings,       Active Cal Settings
! TIME:             	   01/13/2016 12:41:29 PM,    01/12/2016 05:57:47 PM
! INTERNAL TEMP:    	                   43.8 C,                    46.0 C
! # POINTS:         	                      500,                       500
! START FREQ:       	               10.000 MHz,                10.000 MHz
! STOP FREQ:        	              110.000 MHz,               110.000 MHz
! SOURCE POWER:     	                      Low,                       Low
! IFBW:             	                   100 Hz,                     1 kHz
! AVG FACTOR:       	                       1 ,                        3 
! REF PLANE 1:      	                     0 mm,                      0 mm
! REF PLANE 2:      	                     0 mm,                      0 mm
! CAL TYPE:         	             1P2P S11,S21,              1P2P S11,S21
! CAL METHOD:       	                     SOLT,                      SOLT
! CAL LINE TYPE:    	                     Coax,                      Coax
! DUT PORT 1:       	                K-Conn(M),                 K-Conn(M)
! DUT PORT 2:       	                N-Conn(M),                 N-Conn(M)
! CAL STATUS:       	        OK: Accuracy High,                        --
# GHZ S DB R 50.0
! FREQ.GHZ       S11DB        S11A       S21DB        S21A       S12DB        S12A       S22DB        S22A
  0.010000000  -23.375430   -2.499699   -0.113619  -15.804117    0.000000    0.000000    0.000000    0.000000
  0.010200401  -23.638625   -3.084665   -0.113085  -16.131683    0.000000    0.000000    0.000000    0.000000
  0.010400802  -23.461402   -5.950743   -0.125985  -16.335850    0.000000    0.000000    0.000000    0.000000
  0.010601202  -23.549015   -7.322547   -0.078464  -16.787886    0.000000    0.000000    0.000000    0.000000
  0.010801603  -23.945170   -8.000360   -0.169018  -17.541355    0.000000    0.000000    0.000000    0.000000
  0.011002004  -24.079611  -10.616362   -0.097398  -18.013025    0.000000    0.000000    0.000000    0.000000
  0.011202405  -24.226748  -12.965351   -0.071556  -18.485662    0.000000    0.000000    0.000000    0.000000
  0.011402806  -24.354381  -14.843068   -0.042871  -18.592411    0.000000    0.000000    0.000000    0.000000
  0.011603206  -24.345305  -16.104315   -0.048409  -18.904131    0.000000    0.000000    0.000000    0.000000
  0.011803607  -24.706567  -17.455437   -0.100963  -19.274893    0.000000    0.000000    0.000000    0.000000
  0.012004008  -24.559554  -19.394159   -0.186913  -19.317554    0.000000    0.000000    0.000000    0.000000
  0.012204409  -24.735270  -19.991459   -0.181271  -19.161692    0.000000    0.000000    0.000000    0.000000
  0.012404810  -25.033693  -22.561726   -0.157387  -19.448339    0.000000    0.000000    0.000000    0.000000
  0.012605210  -25.241510  -24.813839   -0.171249  -20.576920    0.000000    0.000000    0.000000    0.000000
  0.012805611  -25.327813  -24.637512   -0.196747  -21.155851    0.000000    0.000000    0.000000    0.000000
  0.013006012  -25.531589  -27.862764   -0.263607  -22.172569    0.000000    0.000000    0.000000    0.000000
  0.013206413  -25.525419  -29.244244   -0.229932  -23.147436    0.000000    0.000000    0.000000    0.000000
  0.013406814  -25.596926  -31.427299   -0.134937  -23.791122    0.000000    0.000000    0.000000    0.000000
  0.013607214  -25.706973  -33.684551   -0.073194  -24.606441    0.000000    0.000000    0.000000    0.000000
  0.013807615  -25.897372  -35.256256   -0.140043  -24.627546    0.000000    0.000000    0.000000    0.000000
  0.014008016  -26.164010  -36.859203   -0.072031  -24.020708    0.000000    0.000000    0.000000    0.000000
  0.014208417  -26.275862  -37.574902   -0.095623  -23.368401    0.000000    0.000000    0.000000    0.000000
  0.014408818  -26.235227  -41.182762   -0.109879  -23.114620    0.000000    0.000000    0.000000    0.000000
  0.014609218  -26.455963  -41.439693   -0.160120  -22.638128    0.000000    0.000000    0.000000    0.000000
  0.014809619  -26.529395  -44.229988   -0.211431  -22.686142    0.000000    0.000000    0.000000    0.000000
  0.015010020  -26.737744  -46.536530   -0.231215  -23.345360    0.000000    0.000000    0.000000    0.000000
  0.015210421  -26.773183  -49.094658   -0.195028  -23.996361    0.000000    0.000000    0.000000    0.000000
  0.015410822  -27.025449  -49.692097   -0.141273  -24.869493    0.000000    0.000000    0.000000    0.000000
  0.015611222  -26.993168  -52.037605   -0.055306  -26.142525    0.000000    0.000000    0.000000    0.000000
  0.015811623  -27.054850  -54.436497   -0.018227  -26.919298    0.000000    0.000000    0.000000    0.000000
  0.016012024  -27.355272  -56.033161    0.061548  -27.883369    0.000000    0.000000    0.000000    0.000000
  0.016212425  -27.367956  -57.579479    0.056019  -28.274094    0.000000    0.000000    0.000000    0.000000
  0.016412826  -27.409265  -60.403999    0.020130  -28.493437    0.000000    0.000000    0.000000    0.000000
  0.016613226  -27.503224  -61.489872    0.052890  -28.464617    0.000000    0.000000    0.000000    0.000000
  0.016813627  -27.590822  -67.020737   -0.051525  -28.005817    0.000000    0.000000    0.000000    0.000000
  0.017014028  -27.474456  -66.934235   -0.062278  -27.970428    0.000000    0.000000    0.000000    0.000000
  0.017214429  -28.004469  -68.496704   -0.154570  -27.935217    0.000000    0.000000    0.000000    0.000000
  0.017414830  -28.099719  -70.551254   -0.293192  -27.612673    0.000000    0.000000    0.000000    0.000000
  0.017615230  -27.901782  -72.370667   -0.351447  -28.152884    0.000000    0.000000    0.000000    0.000000
  0.017815631  -28.100321  -72.578362   -0.271191  -28.777828    0.000000    0.000000    0.000000    0.000000
  0.018016032  -28.392291  -75.943054   -0.232530  -28.856176    0.000000    0.000000    0.000000    0.000000
  0.018216433  -28.604445  -77.661575   -0.203229  -29.375755    0.000000    0.000000    0.000000    0.000000
  0.018416834  -28.324408  -79.999878   -0.168226  -29.718023    0.000000    0.000000    0.000000    0.000000
  0.018617234  -28.600053  -80.278694   -0.039144  -30.327398    0.000000    0.000000    0.000000    0.000000
  0.018817635  -28.822778  -82.992302    0.011804  -31.042297    0.000000    0.000000    0.000000    0.000000
  0.019018036  -28.769323  -87.446938    0.043700  -31.364641    0.000000    0.000000    0.000000    0.000000
  0.019218437  -28.781026  -89.216080    0.119675  -31.913139    0.000000    0.000000    0.000000    0.000000
  0.019418838  -28.963635  -90.920799    0.094242  -32.282795    0.000000    0.000000    0.000000    0.000000
  0.019619238  -29.187321  -92.434341    0.039727  -32.732338    0.000000    0.000000    0.000000    0.000000
  0.019819639  -29.105148  -92.906914   -0.016540  -32.491123    0.000000    0.000000    0.000000    0.000000
  0.020020040  -29.053100  -96.144508   -0.012982  -32.682785    0.000000    0.000000    0.000000    0.000000
  0.020220441  -28.912601  -97.518867   -0.057623  -32.682442    0.000000    0.000000    0.000000    0.000000
  0.020420842  -29.312060 -100.013466   -0.063661  -32.773403    0.000000    0.000000    0.000000    0.000000
  0.020621242  -29.061007 -101.343056   -0.131128  -33.093502    0.000000    0.000000    0.000000    0.000000
  0.020821643  -28.968035 -103.711250   -0.123122  -33.407116    0.000000    0.000000    0.000000    0.000000
  0.021022044  -28.906290 -107.749115   -0.154977  -33.735588    0.000000    0.000000    0.000000    0.000000
  0.021222445  -29.368486 -108.923782   -0.132805  -34.219234    0.000000    0.000000    0.000000    0.000000
  0.021422846  -29.461617 -108.898621   -0.141136  -35.077118    0.000000    0.000000    0.000000    0.000000
  0.021623246  -29.655329 -111.699585   -0.091632  -35.557705    0.000000    0.000000    0.000000    0.000000
  0.021823647  -28.743313 -114.191650   -0.094218  -36.023430    0.000000    0.000000    0.000000    0.000000
  0.022024048  -29.503949 -115.980125   -0.075320  -36.870647    0.000000    0.000000    0.000000    0.000000
  0.022224449  -29.295351 -115.740250   -0.088377  -36.757896    0.000000    0.000000    0.000000    0.000000
  0.022424850  -29.503325 -119.983078   -0.132733  -36.734108    0.000000    0.000000    0.000000    0.000000
  0.022625251  -29.689081 -119.116890   -0.138541  -36.012421    0.000000    0.000000    0.000000    0.000000
  0.022825651  -28.953465 -121.779335   -0.177045  -36.378086    0.000000    0.000000    0.000000    0.000000
  0.023026052  -29.299977 -124.040375   -0.187270  -36.190907    0.000000    0.000000    0.000000    0.000000
  0.023226453  -29.984070 -122.941765   -0.225402  -35.999981    0.000000    0.000000    0.000000    0.000000
  0.023426854  -29.248339 -127.072159   -0.261907  -36.739349    0.000000    0.000000    0.000000    0.000000
  0.023627255  -29.449482 -129.251831   -0.302437  -36.809635    0.000000    0.000000    0.000000    0.000000
  0.023827655  -29.164731 -131.074554   -0.299295  -37.510223    0.000000    0.000000    0.000000    0.000000
  0.024028056  -29.391096 -132.547073   -0.329035  -38.115364    0.000000    0.000000    0.000000    0.000000
  0.024228457  -29.154913 -133.388367   -0.294263  -38.304478    0.000000    0.000000    0.000000    0.000000
  0.024428858  -29.623940 -136.565079   -0.307404  -39.206570    0.000000    0.000000    0.000000    0.000000
  0.024629259  -29.546701 -138.985580   -0.269926  -39.083466    0.000000    0.000000    0.000000    0.000000
  0.024829659  -29.715083 -139.210907   -0.233531  -37.925407    0.000000    0.000000    0.000000    0.000000
  0.025030060  -29.452576 -141.804657   -0.126289  -38.974155    0.000000    0.000000    0.000000    0.000000
  0.025230461  -29.241474 -141.174576   -0.203777  -39.035942    0.000000    0.000000    0.000000    0.000000
  0.025430862  -30.051716 -145.113632   -0.184166  -39.286259    0.000000    0.000000    0.000000    0.000000
  0.025631263  -29.226476 -144.931946   -0.144805  -39.649895    0.000000    0.000000    0.000000    0.000000
  0.025831663  -29.674331 -147.690704   -0.138195  -40.015839    0.000000    0.000000    0.000000    0.000000
  0.026032064  -29.726972 -148.048080   -0.194862  -40.790806    0.000000    0.000000    0.000000    0.000000
  0.026232465  -29.677208 -148.459549   -0.165049  -41.033722    0.000000    0.000000    0.000000    0.000000
  0.026432866  -29.746986 -149.505661   -0.183649  -41.633667    0.000000    0.000000    0.000000    0.000000
  0.026633267  -29.857921 -150.018616   -0.113333  -42.078823    0.000000    0.000000    0.000000    0.000000
  0.026833667  -29.951453 -152.038971   -0.108257  -42.654713    0.000000    0.000000    0.000000    0.000000
  0.027034068  -29.838716 -152.156281   -0.114907  -42.893593    0.000000    0.000000    0.000000    0.000000
  0.027234469  -29.687235 -152.439972   -0.230896  -43.456120    0.000000    0.000000    0.000000    0.000000
  0.027434870  -29.554983 -154.044724   -0.244983  -43.333923    0.000000    0.000000    0.000000    0.000000
  0.027635271  -29.615171 -155.936829   -0.180763  -43.971127    0.000000    0.000000    0.000000    0.000000
  0.027835671  -29.950876 -153.693588   -0.327858  -44.293415    0.000000    0.000000    0.000000    0.000000
  0.028036072  -29.633512 -162.144608   -0.401952  -45.098614    0.000000    0.000000    0.000000    0.000000
  0.028236473  -30.026207 -160.245499   -0.446866  -45.063599    0.000000    0.000000    0.000000    0.000000
  0.028436874  -30.077051 -162.163773   -0.354749  -46.035892    0.000000    0.000000    0.000000    0.000000
  0.028637275  -30.043942 -161.815964   -0.388748  -46.725475    0.000000    0.000000    0.000000    0.000000
  0.028837675  -30.061028 -162.313354   -0.448472  -46.849422    0.000000    0.000000    0.000000    0.000000
  0.029038076  -30.555948 -163.779419   -0.410266  -47.006489    0.000000    0.000000    0.000000    0.000000
  0.029238477  -30.501980 -164.884659   -0.375263  -47.484638    0.000000    0.000000    0.000000    0.000000
  0.029438878  -30.444416 -164.617874   -0.304695  -47.942230    0.000000    0.000000    0.000000    0.000000
  0.029639279  -30.577626 -166.907654   -0.242326  -47.102577    0.000000    0.000000    0.000000    0.000000
  0.029839679  -30.591403 -168.016159   -0.309678  -47.497078    0.000000    0.000000    0.000000    0.000000
  0.030040080  -30.704214 -164.989288   -0.281209  -47.346493    0.000000    0.000000    0.000000    0.000000
  0.030240481  -30.883905 -169.995102   -0.276954  -47.771191    0.000000    0.000000    0.000000    0.000000
  0.030440882  -31.014737 -172.652176   -0.306641  -48.217609    0.000000    0.000000    0.000000    0.000000
  0.030641283  -30.857758 -167.704239   -0.413692  -48.080261    0.000000    0.000000    0.000000    0.000000
  0.030841683  -31.081931 -167.648453   -0.387888  -48.969254    0.000000    0.000000    0.000000    0.000000
  0.031042084  -31.418351 -170.632813   -0.465009  -50.512733    0.000000    0.000000    0.000000    0.000000
  0.031242485  -31.585437 -168.636093   -0.529643  -50.771652    0.000000    0.000000    0.000000    0.000000
  0.031442886  -31.405932 -172.127823   -0.538497  -51.572773    0.000000    0.000000    0.000000    0.000000
  0.031643287  -32.056403 -175.983963   -0.478057  -52.116688    0.000000    0.000000    0.000000    0.000000
  0.031843687  -31.604298 -176.626083   -0.545259  -52.386955    0.000000    0.000000    0.000000    0.000000
  0.032044088  -31.728253 -174.670120   -0.503471  -53.107956    0.000000    0.000000    0.000000    0.000000
  0.032244489  -32.217862 -171.847443   -0.437167  -52.632282    0.000000    0.000000    0.000000    0.000000
  0.032444890  -32.200123 -174.263168   -0.447345  -52.582027    0.000000    0.000000    0.000000    0.000000
  0.032645291  -32.824196 -176.843948   -0.394619  -52.062103    0.000000    0.000000    0.000000    0.000000
  0.032845691  -33.160436 -175.829514   -0.402363  -52.470985    0.000000    0.000000    0.000000    0.000000
  0.033046092  -32.365431 -179.771515   -0.392236  -52.481678    0.000000    0.000000    0.000000    0.000000
  0.033246493  -32.877907 -178.008148   -0.396988  -52.263859    0.000000    0.000000    0.000000    0.000000
  0.033446894  -32.904191 -179.430374   -0.284265  -53.487995    0.000000    0.000000    0.000000    0.000000
  0.033647295  -33.689489 -179.462601   -0.347595  -54.579224    0.000000    0.000000    0.000000    0.000000
  0.033847695  -33.677088 -175.152985   -0.302438  -54.767593    0.000000    0.000000    0.000000    0.000000
  0.034048096  -33.378809 -177.448654   -0.371773  -55.570679    0.000000    0.000000    0.000000    0.000000
  0.034248497  -34.599438 -172.922928   -0.299332  -56.085892    0.000000    0.000000    0.000000    0.000000
  0.034448898  -33.927475 -174.904251   -0.279029  -55.953003    0.000000    0.000000    0.000000    0.000000
  0.034649299  -34.009498  178.701691   -0.210298  -56.051220    0.000000    0.000000    0.000000    0.000000
  0.034849699  -34.534579 -177.871063   -0.246137  -55.449844    0.000000    0.000000    0.000000    0.000000
  0.035050100  -34.757500 -179.118484   -0.258105  -55.182175    0.000000    0.000000    0.000000    0.000000
  0.035250501  -34.043602 -179.088089   -0.216619  -55.185726    0.000000    0.000000    0.000000    0.000000
  0.035450902  -33.364194  179.894638   -0.269711  -55.492588    0.000000    0.000000    0.000000    0.000000
  0.035651303  -34.386658 -177.370193   -0.370292  -56.729473    0.000000    0.000000    0.000000    0.000000
  0.035851703  -34.288617 -176.484207   -0.419759  -57.275574    0.000000    0.000000    0.000000    0.000000
  0.036052104  -34.142816 -174.958313   -0.404540  -58.028275    0.000000    0.000000    0.000000    0.000000
  0.036252505  -35.355160 -171.522079   -0.401783  -58.824928    0.000000    0.000000    0.000000    0.000000
  0.036452906  -34.487784 -172.560150   -0.435049  -59.044254    0.000000    0.000000    0.000000    0.000000
  0.036653307  -34.584576 -171.047119   -0.500023  -59.686188    0.000000    0.000000    0.000000    0.000000
  0.036853707  -34.269779 -170.400665   -0.491132  -59.526138    0.000000    0.000000    0.000000    0.000000
  0.037054108  -36.156411 -168.883057   -0.516626  -59.730839    0.000000    0.000000    0.000000    0.000000
  0.037254509  -35.548789 -166.396729   -0.590257  -59.874649    0.000000    0.000000    0.000000    0.000000
  0.037454910  -36.084030 -161.233658   -0.584036  -59.966351    0.000000    0.000000    0.000000    0.000000
  0.037655311  -36.362045 -158.739746   -0.583008  -61.071617    0.000000    0.000000    0.000000    0.000000
  0.037855711  -36.551325 -158.035782   -0.546351  -61.201275    0.000000    0.000000    0.000000    0.000000
  0.038056112  -35.948206 -162.996857   -0.516484  -61.739876    0.000000    0.000000    0.000000    0.000000
  0.038256513  -37.192953 -155.817398   -0.442710  -62.450066    0.000000    0.000000    0.000000    0.000000
  0.038456914  -37.715100 -148.090805   -0.417015  -62.574696    0.000000    0.000000    0.000000    0.000000
  0.038657315  -38.815039 -139.361221   -0.449902  -63.022469    0.000000    0.000000    0.000000    0.000000
  0.038857715  -38.518207 -139.772949   -0.414254  -62.303246    0.000000    0.000000    0.000000    0.000000
  0.039058116  -38.364154 -140.725113   -0.423796  -61.995457    0.000000    0.000000    0.000000    0.000000
  0.039258517  -38.253138 -132.424072   -0.482286  -62.352180    0.000000    0.000000    0.000000    0.000000
  0.039458918  -38.148056 -128.137695   -0.587167  -62.270451    0.000000    0.000000    0.000000    0.000000
  0.039659319  -39.625184 -125.003250   -0.581849  -62.908226    0.000000    0.000000    0.000000    0.000000
  0.039859719  -39.072213 -117.382637   -0.574413  -63.397938    0.000000    0.000000    0.000000    0.000000
  0.040060120  -40.275478 -114.896210   -0.588248  -64.541039    0.000000    0.000000    0.000000    0.000000
  0.040260521  -39.015545 -107.099960   -0.540896  -65.274284    0.000000    0.000000    0.000000    0.000000
  0.040460922  -39.820708 -102.205612   -0.502464  -66.159927    0.000000    0.000000    0.000000    0.000000
  0.040661323  -38.225278  -99.877518   -0.395518  -66.785629    0.000000    0.000000    0.000000    0.000000
  0.040861723  -37.844563  -96.894226   -0.431830  -67.058037    0.000000    0.000000    0.000000    0.000000
  0.041062124  -37.564574  -96.300339   -0.400624  -67.374641    0.000000    0.000000    0.000000    0.000000
  0.041262525  -37.385013  -94.213638   -0.366357  -67.572243    0.000000    0.000000    0.000000    0.000000
  0.041462926  -36.681153  -95.462021   -0.415326  -67.053497    0.000000    0.000000    0.000000    0.000000
  0.041663327  -36.620979  -93.517761   -0.425575  -66.734291    0.000000    0.000000    0.000000    0.000000
  0.041863727  -36.037516  -86.253433   -0.504266  -67.037651    0.000000    0.000000    0.000000    0.000000
  0.042064128  -36.332152  -90.973785   -0.525965  -67.331032    0.000000    0.000000    0.000000    0.000000
  0.042264529  -34.987346  -86.270142   -0.532670  -67.598557    0.000000    0.000000    0.000000    0.000000
  0.042464930  -34.500336  -88.232452   -0.509059  -68.336777    0.000000    0.000000    0.000000    0.000000
  0.042665331  -34.802744  -86.667488   -0.546076  -68.867287    0.000000    0.000000    0.000000    0.000000
  0.042865731  -34.343324  -83.994827   -0.460633  -70.272789    0.000000    0.000000    0.000000    0.000000
