! Anritsu VNA Master:                 Model: MS2034B/10/19/501
! SN:                                  1337062
! /bd0/ovro-jan-2016/vna-jan/vna-ant254-d2-s11.s2p
! Existing Calibration Information:
! TYPE:                         Current Settings,       Active Cal Settings
! TIME:             	   01/13/2016 05:16:18 PM,    01/13/2016 05:04:46 PM
! INTERNAL TEMP:    	                   39.0 C,                    41.8 C
! # POINTS:         	                      500,                       500
! START FREQ:       	               10.000 MHz,                10.000 MHz
! STOP FREQ:        	              110.000 MHz,               110.000 MHz
! SOURCE POWER:     	                     High,                      High
! IFBW:             	                   100 Hz,                    100 Hz
! AVG FACTOR:       	                       4 ,                        4 
! REF PLANE 1:      	                     0 mm,                      0 mm
! REF PLANE 2:      	                     0 mm,                      0 mm
! CAL TYPE:         	                 Full S11,                  Full S11
! CAL METHOD:       	                     SOLT,                      SOLT
! CAL LINE TYPE:    	                     Coax,                      Coax
! DUT PORT 1:       	                K-Conn(M),                 K-Conn(M)
! DUT PORT 2:       	                N-Conn(M),                 N-Conn(M)
! CAL STATUS:       	        OK: Accuracy High,                        --
# GHZ S DB R 50.0
! FREQ.GHZ       S11DB        S11A       S21DB        S21A       S12DB        S12A       S22DB        S22A
  0.010000000   -0.580783  -46.559910 -107.702638  150.087021    0.000000    0.000000    0.000000    0.000000
  0.010200401   -0.563222  -47.539932 -104.862684  146.312622    0.000000    0.000000    0.000000    0.000000
  0.010400802   -0.554165  -48.549217 -104.314521  145.775894    0.000000    0.000000    0.000000    0.000000
  0.010601202   -0.536998  -49.431149 -103.600527  147.836746    0.000000    0.000000    0.000000    0.000000
  0.010801603   -0.541947  -50.437424 -104.035245  147.415558    0.000000    0.000000    0.000000    0.000000
  0.011002004   -0.530492  -51.335777 -103.975520  143.650696    0.000000    0.000000    0.000000    0.000000
  0.011202405   -0.537021  -52.395561 -103.235573  141.672424    0.000000    0.000000    0.000000    0.000000
  0.011402806   -0.536517  -53.421490 -103.015817  147.084488    0.000000    0.000000    0.000000    0.000000
  0.011603206   -0.539725  -54.432903 -103.804824  135.012314    0.000000    0.000000    0.000000    0.000000
  0.011803607   -0.539284  -55.360809 -102.409280  144.997375    0.000000    0.000000    0.000000    0.000000
  0.012004008   -0.533549  -56.520851 -103.252017  145.067169    0.000000    0.000000    0.000000    0.000000
  0.012204409   -0.535281  -57.496342 -102.552173  144.203461    0.000000    0.000000    0.000000    0.000000
  0.012404810   -0.522153  -58.512123 -102.588911  140.217484    0.000000    0.000000    0.000000    0.000000
  0.012605210   -0.527408  -59.540733 -102.676953  143.400589    0.000000    0.000000    0.000000    0.000000
  0.012805611   -0.522125  -60.583588 -103.111787  133.292496    0.000000    0.000000    0.000000    0.000000
  0.013006012   -0.533272  -61.516754 -102.794446  129.839401    0.000000    0.000000    0.000000    0.000000
  0.013206413   -0.524681  -62.618839 -103.765532  139.160324    0.000000    0.000000    0.000000    0.000000
  0.013406814   -0.524394  -63.652344 -103.342149  133.774780    0.000000    0.000000    0.000000    0.000000
  0.013607214   -0.526293  -64.721634 -104.666245  134.114548    0.000000    0.000000    0.000000    0.000000
  0.013807615   -0.520788  -65.804085 -103.622680  125.527115    0.000000    0.000000    0.000000    0.000000
  0.014008016   -0.516038  -66.877907 -104.920417  143.347916    0.000000    0.000000    0.000000    0.000000
  0.014208417   -0.530305  -67.979942 -103.112329  142.202759    0.000000    0.000000    0.000000    0.000000
  0.014408818   -0.507721  -69.026512 -104.123880  130.807022    0.000000    0.000000    0.000000    0.000000
  0.014609218   -0.500342  -70.090858 -105.582173  137.816803    0.000000    0.000000    0.000000    0.000000
  0.014809619   -0.493537  -71.128487 -105.095025  131.651840    0.000000    0.000000    0.000000    0.000000
  0.015010020   -0.489121  -72.152550 -106.670504  128.007751    0.000000    0.000000    0.000000    0.000000
  0.015210421   -0.487416  -73.168549 -105.332437  135.776291    0.000000    0.000000    0.000000    0.000000
  0.015410822   -0.487874  -74.209709 -105.696293  132.491791    0.000000    0.000000    0.000000    0.000000
  0.015611222   -0.494475  -75.322098 -105.676539  126.984406    0.000000    0.000000    0.000000    0.000000
  0.015811623   -0.490980  -76.371750 -106.248942  138.267853    0.000000    0.000000    0.000000    0.000000
  0.016012024   -0.496777  -77.443260 -107.127472  130.164230    0.000000    0.000000    0.000000    0.000000
  0.016212425   -0.498503  -78.563148 -106.705596  130.857407    0.000000    0.000000    0.000000    0.000000
  0.016412826   -0.498401  -79.658569 -108.015216  146.358719    0.000000    0.000000    0.000000    0.000000
  0.016613226   -0.497469  -80.790390 -107.902322  146.860031    0.000000    0.000000    0.000000    0.000000
  0.016813627   -0.502698  -81.955620 -107.164926  138.792664    0.000000    0.000000    0.000000    0.000000
  0.017014028   -0.501488  -83.026192 -107.426707  133.942291    0.000000    0.000000    0.000000    0.000000
  0.017214429   -0.505830  -84.180946 -106.354959  146.402420    0.000000    0.000000    0.000000    0.000000
  0.017414830   -0.503818  -85.341805 -107.843350  140.839279    0.000000    0.000000    0.000000    0.000000
  0.017615230   -0.503794  -86.500443 -107.074789  138.574051    0.000000    0.000000    0.000000    0.000000
  0.017815631   -0.497904  -87.667046 -107.355605  136.247940    0.000000    0.000000    0.000000    0.000000
  0.018016032   -0.489924  -88.889114 -107.568814  135.432297    0.000000    0.000000    0.000000    0.000000
  0.018216433   -0.487686  -90.041862 -106.520941  142.598572    0.000000    0.000000    0.000000    0.000000
  0.018416834   -0.478953  -91.181580 -105.990245  153.263306    0.000000    0.000000    0.000000    0.000000
  0.018617234   -0.471664  -92.370720 -105.346369  144.725067    0.000000    0.000000    0.000000    0.000000
  0.018817635   -0.462402  -93.515587 -104.545532  147.040085    0.000000    0.000000    0.000000    0.000000
  0.019018036   -0.456774  -94.711372 -104.895815  147.832977    0.000000    0.000000    0.000000    0.000000
  0.019218437   -0.437422  -95.887657 -106.107319  143.983261    0.000000    0.000000    0.000000    0.000000
  0.019418838   -0.436432  -97.062881 -105.662582  149.920975    0.000000    0.000000    0.000000    0.000000
  0.019619238   -0.433138  -98.247833 -104.824898  134.502701    0.000000    0.000000    0.000000    0.000000
  0.019819639   -0.423334  -99.424782 -104.855205  142.092224    0.000000    0.000000    0.000000    0.000000
  0.020020040   -0.417481 -100.614922 -103.961421  143.844116    0.000000    0.000000    0.000000    0.000000
  0.020220441   -0.411033 -101.775124 -106.654391  151.293854    0.000000    0.000000    0.000000    0.000000
  0.020420842   -0.407626 -102.929504 -104.842916  143.647217    0.000000    0.000000    0.000000    0.000000
  0.020621242   -0.404052 -104.117142 -105.686392  147.454773    0.000000    0.000000    0.000000    0.000000
  0.020821643   -0.410999 -105.341240 -105.308489  141.888000    0.000000    0.000000    0.000000    0.000000
  0.021022044   -0.408060 -106.512146 -106.049356  149.263062    0.000000    0.000000    0.000000    0.000000
  0.021222445   -0.420082 -107.795792 -104.684786  148.673309    0.000000    0.000000    0.000000    0.000000
  0.021422846   -0.424622 -109.049309 -104.514471  140.768188    0.000000    0.000000    0.000000    0.000000
  0.021623246   -0.428129 -110.315094 -104.592765  139.391235    0.000000    0.000000    0.000000    0.000000
  0.021823647   -0.424478 -111.575615 -104.289175  131.123779    0.000000    0.000000    0.000000    0.000000
  0.022024048   -0.421503 -112.942017 -104.994242  137.006851    0.000000    0.000000    0.000000    0.000000
  0.022224449   -0.418716 -114.241478 -104.813971  136.915451    0.000000    0.000000    0.000000    0.000000
  0.022424850   -0.421535 -115.540466 -105.024231  140.819519    0.000000    0.000000    0.000000    0.000000
  0.022625251   -0.417038 -116.823517 -105.420578  135.923660    0.000000    0.000000    0.000000    0.000000
  0.022825651   -0.417009 -118.113983 -104.720068  136.978180    0.000000    0.000000    0.000000    0.000000
  0.023026052   -0.428189 -119.377174 -105.321896  136.980347    0.000000    0.000000    0.000000    0.000000
  0.023226453   -0.426411 -120.715729 -106.503378  141.837906    0.000000    0.000000    0.000000    0.000000
  0.023426854   -0.434727 -122.030922 -106.116329  140.916504    0.000000    0.000000    0.000000    0.000000
  0.023627255   -0.441094 -123.410782 -107.000431  143.212463    0.000000    0.000000    0.000000    0.000000
  0.023827655   -0.445502 -124.752312 -106.607927  131.964966    0.000000    0.000000    0.000000    0.000000
  0.024028056   -0.450518 -126.144890 -106.249990  135.524155    0.000000    0.000000    0.000000    0.000000
  0.024228457   -0.458522 -127.528564 -105.371310  137.026245    0.000000    0.000000    0.000000    0.000000
  0.024428858   -0.453353 -128.889633 -107.098820  144.560547    0.000000    0.000000    0.000000    0.000000
  0.024629259   -0.456419 -130.260956 -106.849950  135.993408    0.000000    0.000000    0.000000    0.000000
  0.024829659   -0.456841 -131.678299 -106.817434  134.119827    0.000000    0.000000    0.000000    0.000000
  0.025030060   -0.466779 -133.042816 -109.596011  140.021606    0.000000    0.000000    0.000000    0.000000
  0.025230461   -0.481596 -134.437241 -108.980078  140.916626    0.000000    0.000000    0.000000    0.000000
  0.025430862   -0.504818 -135.896423 -106.755495  146.463318    0.000000    0.000000    0.000000    0.000000
  0.025631263   -0.518110 -137.315521 -106.174579  139.888535    0.000000    0.000000    0.000000    0.000000
  0.025831663   -0.539455 -138.867676 -107.985535  143.384064    0.000000    0.000000    0.000000    0.000000
  0.026032064   -0.551334 -140.325729 -106.066056  144.399750    0.000000    0.000000    0.000000    0.000000
  0.026232465   -0.559196 -141.884003 -106.709394  150.395645    0.000000    0.000000    0.000000    0.000000
  0.026432866   -0.570786 -143.371277 -107.650290  140.794388    0.000000    0.000000    0.000000    0.000000
  0.026633267   -0.581757 -144.876144 -107.120683  150.528458    0.000000    0.000000    0.000000    0.000000
  0.026833667   -0.581600 -146.469711 -105.691234  142.196686    0.000000    0.000000    0.000000    0.000000
  0.027034068   -0.602283 -147.856766 -105.806393  144.432816    0.000000    0.000000    0.000000    0.000000
  0.027234469   -0.610862 -149.421097 -105.930142  133.712784    0.000000    0.000000    0.000000    0.000000
  0.027434870   -0.626161 -150.898560 -105.796613  138.232513    0.000000    0.000000    0.000000    0.000000
  0.027635271   -0.638599 -152.437286 -104.515784  146.026428    0.000000    0.000000    0.000000    0.000000
  0.027835671   -0.658881 -153.976669 -105.671320  138.782639    0.000000    0.000000    0.000000    0.000000
  0.028036072   -0.667225 -155.545105 -106.087135  143.615402    0.000000    0.000000    0.000000    0.000000
  0.028236473   -0.692642 -157.103561 -105.218054  135.499039    0.000000    0.000000    0.000000    0.000000
  0.028436874   -0.708813 -158.677933 -106.636114  148.938263    0.000000    0.000000    0.000000    0.000000
  0.028637275   -0.729124 -160.264282 -105.769629  137.819427    0.000000    0.000000    0.000000    0.000000
  0.028837675   -0.744008 -161.842255 -106.600002  144.779541    0.000000    0.000000    0.000000    0.000000
  0.029038076   -0.766139 -163.431900 -106.214918  134.891785    0.000000    0.000000    0.000000    0.000000
  0.029238477   -0.781779 -164.997894 -106.747917  150.937943    0.000000    0.000000    0.000000    0.000000
  0.029438878   -0.812174 -166.603653 -105.020476  141.426300    0.000000    0.000000    0.000000    0.000000
  0.029639279   -0.838884 -168.235489 -106.745189  146.363205    0.000000    0.000000    0.000000    0.000000
  0.029839679   -0.864571 -169.849777 -106.191279  144.153687    0.000000    0.000000    0.000000    0.000000
  0.030040080   -0.890743 -171.489243 -107.039813  142.009689    0.000000    0.000000    0.000000    0.000000
  0.030240481   -0.920424 -173.155212 -106.133804  141.397873    0.000000    0.000000    0.000000    0.000000
  0.030440882   -0.952224 -174.804626 -105.527724  146.580856    0.000000    0.000000    0.000000    0.000000
  0.030641283   -0.977205 -176.480865 -106.720814  144.787292    0.000000    0.000000    0.000000    0.000000
  0.030841683   -1.003602 -178.184067 -107.205757  144.780563    0.000000    0.000000    0.000000    0.000000
  0.031042084   -1.041279 -179.866913 -106.612380  147.439316    0.000000    0.000000    0.000000    0.000000
  0.031242485   -1.072756  178.444397 -106.257959  144.414963    0.000000    0.000000    0.000000    0.000000
  0.031442886   -1.110338  176.748306 -106.222574  139.788162    0.000000    0.000000    0.000000    0.000000
  0.031643287   -1.142263  175.032349 -106.330259  144.706360    0.000000    0.000000    0.000000    0.000000
  0.031843687   -1.181551  173.292801 -105.793138  146.197845    0.000000    0.000000    0.000000    0.000000
  0.032044088   -1.220311  171.553329 -106.222518  143.737946    0.000000    0.000000    0.000000    0.000000
  0.032244489   -1.257414  169.799210 -107.357868  138.246536    0.000000    0.000000    0.000000    0.000000
  0.032444890   -1.296715  168.067810 -107.159782  146.447556    0.000000    0.000000    0.000000    0.000000
  0.032645291   -1.337816  166.283722 -108.829352  145.156906    0.000000    0.000000    0.000000    0.000000
  0.032845691   -1.382111  164.525284 -106.237946  148.231476    0.000000    0.000000    0.000000    0.000000
  0.033046092   -1.429484  162.719696 -106.904692  138.940308    0.000000    0.000000    0.000000    0.000000
  0.033246493   -1.476036  160.908936 -106.306079  136.809082    0.000000    0.000000    0.000000    0.000000
  0.033446894   -1.522044  159.079605 -107.558878  144.376419    0.000000    0.000000    0.000000    0.000000
  0.033647295   -1.567940  157.233887 -106.603948  137.647720    0.000000    0.000000    0.000000    0.000000
  0.033847695   -1.605341  155.384644 -107.413736  141.844254    0.000000    0.000000    0.000000    0.000000
  0.034048096   -1.646172  153.550095 -107.854208  146.343613    0.000000    0.000000    0.000000    0.000000
  0.034248497   -1.683129  151.703430 -107.399211  137.788452    0.000000    0.000000    0.000000    0.000000
  0.034448898   -1.728448  149.890884 -107.320243  142.140915    0.000000    0.000000    0.000000    0.000000
  0.034649299   -1.776296  148.086060 -106.876548  145.828644    0.000000    0.000000    0.000000    0.000000
  0.034849699   -1.823231  146.255127 -106.943177  140.671951    0.000000    0.000000    0.000000    0.000000
  0.035050100   -1.871016  144.435608 -105.258605  143.709335    0.000000    0.000000    0.000000    0.000000
  0.035250501   -1.924373  142.600800 -105.694674  135.491760    0.000000    0.000000    0.000000    0.000000
  0.035450902   -1.978033  140.734711 -104.815092  132.390823    0.000000    0.000000    0.000000    0.000000
  0.035651303   -2.034952  138.820541 -106.594836  138.354019    0.000000    0.000000    0.000000    0.000000
  0.035851703   -2.087088  136.949768 -104.323945  144.303680    0.000000    0.000000    0.000000    0.000000
  0.036052104   -2.136442  135.097305 -104.852994  136.491348    0.000000    0.000000    0.000000    0.000000
  0.036252505   -2.186949  133.179504 -103.590965  139.821716    0.000000    0.000000    0.000000    0.000000
  0.036452906   -2.241473  131.311554 -105.255695  141.852936    0.000000    0.000000    0.000000    0.000000
  0.036653307   -2.301983  129.547974 -104.463329  140.552719    0.000000    0.000000    0.000000    0.000000
  0.036853707   -2.356850  127.635246 -105.497054  145.865662    0.000000    0.000000    0.000000    0.000000
  0.037054108   -2.420375  125.733467 -105.438897  143.802368    0.000000    0.000000    0.000000    0.000000
  0.037254509   -2.464464  123.752121 -105.301693  136.646835    0.000000    0.000000    0.000000    0.000000
  0.037454910   -2.539718  121.882202 -105.451361  135.812943    0.000000    0.000000    0.000000    0.000000
  0.037655311   -2.601949  119.907478 -105.406011  146.413757    0.000000    0.000000    0.000000    0.000000
  0.037855711   -2.642216  117.971794 -105.227527  139.932571    0.000000    0.000000    0.000000    0.000000
  0.038056112   -2.716097  116.093613 -105.332079  133.687332    0.000000    0.000000    0.000000    0.000000
  0.038256513   -2.748795  114.200882 -105.901960  144.006622    0.000000    0.000000    0.000000    0.000000
  0.038456914   -2.817647  112.306442 -106.577557  143.638092    0.000000    0.000000    0.000000    0.000000
  0.038657315   -2.854766  110.503639 -106.965746  147.454422    0.000000    0.000000    0.000000    0.000000
  0.038857715   -2.910600  108.631187 -105.988462  146.137573    0.000000    0.000000    0.000000    0.000000
  0.039058116   -2.985441  106.720505 -107.247157  140.312271    0.000000    0.000000    0.000000    0.000000
  0.039258517   -3.041959  104.865768 -105.369469  141.483887    0.000000    0.000000    0.000000    0.000000
  0.039458918   -3.104447  102.996002 -106.822518  143.786591    0.000000    0.000000    0.000000    0.000000
  0.039659319   -3.159237  101.223572 -105.895763  145.233231    0.000000    0.000000    0.000000    0.000000
  0.039859719   -3.222176   99.326378 -106.868859  139.853989    0.000000    0.000000    0.000000    0.000000
  0.040060120   -3.284511   97.317070 -106.472162  146.466843    0.000000    0.000000    0.000000    0.000000
  0.040260521   -3.346322   95.541290 -107.077181  136.745804    0.000000    0.000000    0.000000    0.000000
  0.040460922   -3.401640   93.546310 -105.724368  140.519791    0.000000    0.000000    0.000000    0.000000
  0.040661323   -3.461160   91.780518 -105.850765  140.834137    0.000000    0.000000    0.000000    0.000000
  0.040861723   -3.517362   89.850952 -106.181852  144.947845    0.000000    0.000000    0.000000    0.000000
  0.041062124   -3.577910   87.952530 -107.605573  138.173019    0.000000    0.000000    0.000000    0.000000
  0.041262525   -3.635239   86.080070 -105.625156  136.817642    0.000000    0.000000    0.000000    0.000000
  0.041462926   -3.680787   84.179382 -106.239147  131.755646    0.000000    0.000000    0.000000    0.000000
  0.041663327   -3.730093   82.261429 -107.199520  147.400452    0.000000    0.000000    0.000000    0.000000
  0.041863727   -3.774030   80.397972 -107.200270  143.336945    0.000000    0.000000    0.000000    0.000000
  0.042064128   -3.823757   78.571472 -106.403516  142.920822    0.000000    0.000000    0.000000    0.000000
  0.042264529   -3.862292   76.726837 -105.651748  139.007782    0.000000    0.000000    0.000000    0.000000
  0.042464930   -3.908917   74.880821 -105.898758  139.787247    0.000000    0.000000    0.000000    0.000000
  0.042665331   -3.955315   73.040009 -104.898925  135.777298    0.000000    0.000000    0.000000    0.000000
  0.042865731   -3.990652   71.216469 -105.594362  136.665558    0.000000    0.000000    0.000000    0.000000
