! Anritsu VNA Master:                 Model: MS2034B/10/19/501
! SN:                                  1337062
! /bd0/ovro-jan-2016/vna-jan/vna-ant252-a1-s11.s2p
! Existing Calibration Information:
! TYPE:                         Current Settings,       Active Cal Settings
! TIME:             	   01/13/2016 06:40:00 PM,    01/13/2016 06:15:05 PM
! INTERNAL TEMP:    	                   40.5 C,                    42.3 C
! # POINTS:         	                      500,                       500
! START FREQ:       	               10.000 MHz,                10.000 MHz
! STOP FREQ:        	              110.000 MHz,               110.000 MHz
! SOURCE POWER:     	                     High,                      High
! IFBW:             	                   100 Hz,                    100 Hz
! AVG FACTOR:       	                       4 ,                        4 
! REF PLANE 1:      	                     0 mm,                      0 mm
! REF PLANE 2:      	                     0 mm,                      0 mm
! CAL TYPE:         	                 Full S11,                  Full S11
! CAL METHOD:       	                     SOLT,                      SOLT
! CAL LINE TYPE:    	                     Coax,                      Coax
! DUT PORT 1:       	                K-Conn(M),                 K-Conn(M)
! DUT PORT 2:       	                N-Conn(M),                 N-Conn(M)
! CAL STATUS:       	        OK: Accuracy High,                        --
# GHZ S DB R 50.0
! FREQ.GHZ       S11DB        S11A       S21DB        S21A       S12DB        S12A       S22DB        S22A
  0.010000000   -0.593512  -46.573524 -106.721853  148.969620    0.000000    0.000000    0.000000    0.000000
  0.010200401   -0.581496  -47.587696 -106.367065  151.928513    0.000000    0.000000    0.000000    0.000000
  0.010400802   -0.572862  -48.548203 -105.366641  152.097610    0.000000    0.000000    0.000000    0.000000
  0.010601202   -0.554089  -49.467655 -104.197367  147.669205    0.000000    0.000000    0.000000    0.000000
  0.010801603   -0.566986  -50.484013 -104.419461  148.707321    0.000000    0.000000    0.000000    0.000000
  0.011002004   -0.554764  -51.396599 -103.249603  149.581299    0.000000    0.000000    0.000000    0.000000
  0.011202405   -0.566341  -52.466240 -104.685806  135.501907    0.000000    0.000000    0.000000    0.000000
  0.011402806   -0.564297  -53.437561 -101.993716  149.677750    0.000000    0.000000    0.000000    0.000000
  0.011603206   -0.567266  -54.475414 -103.156613  138.363831    0.000000    0.000000    0.000000    0.000000
  0.011803607   -0.568199  -55.406868 -102.590414  152.997528    0.000000    0.000000    0.000000    0.000000
  0.012004008   -0.566925  -56.510468 -102.789067  141.339951    0.000000    0.000000    0.000000    0.000000
  0.012204409   -0.558143  -57.551228 -102.900613  143.570389    0.000000    0.000000    0.000000    0.000000
  0.012404810   -0.548948  -58.612926 -102.345633  151.541138    0.000000    0.000000    0.000000    0.000000
  0.012605210   -0.553774  -59.573109 -102.968307  144.499802    0.000000    0.000000    0.000000    0.000000
  0.012805611   -0.549521  -60.587200 -103.130145  148.159500    0.000000    0.000000    0.000000    0.000000
  0.013006012   -0.560270  -61.540257 -102.275560  145.222992    0.000000    0.000000    0.000000    0.000000
  0.013206413   -0.549773  -62.622078 -104.133346  136.351028    0.000000    0.000000    0.000000    0.000000
  0.013406814   -0.549015  -63.654133 -102.616085  134.303513    0.000000    0.000000    0.000000    0.000000
  0.013607214   -0.548756  -64.696518 -103.182231  134.506744    0.000000    0.000000    0.000000    0.000000
  0.013807615   -0.547038  -65.751770 -103.822673  135.547913    0.000000    0.000000    0.000000    0.000000
  0.014008016   -0.544836  -66.804001 -104.264335  135.303574    0.000000    0.000000    0.000000    0.000000
  0.014208417   -0.556922  -67.879402 -105.333804  138.705414    0.000000    0.000000    0.000000    0.000000
  0.014408818   -0.531044  -68.887878 -105.004238  131.416916    0.000000    0.000000    0.000000    0.000000
  0.014609218   -0.528335  -69.898636 -104.152431  137.931854    0.000000    0.000000    0.000000    0.000000
  0.014809619   -0.520163  -70.920883 -106.047223  131.461792    0.000000    0.000000    0.000000    0.000000
  0.015010020   -0.517806  -71.922897 -106.010059  134.343567    0.000000    0.000000    0.000000    0.000000
  0.015210421   -0.516949  -72.870911 -104.568952  129.065613    0.000000    0.000000    0.000000    0.000000
  0.015410822   -0.517752  -73.895157 -106.797637  140.917252    0.000000    0.000000    0.000000    0.000000
  0.015611222   -0.530626  -74.998543 -106.665356  140.529404    0.000000    0.000000    0.000000    0.000000
  0.015811623   -0.527324  -75.949715 -106.036008  136.987259    0.000000    0.000000    0.000000    0.000000
  0.016012024   -0.529089  -76.983971 -105.854049  142.898590    0.000000    0.000000    0.000000    0.000000
  0.016212425   -0.537022  -78.044266 -108.002027  149.642487    0.000000    0.000000    0.000000    0.000000
  0.016412826   -0.537448  -79.117851 -108.347254  142.742874    0.000000    0.000000    0.000000    0.000000
  0.016613226   -0.539842  -80.170097 -108.101301  140.998138    0.000000    0.000000    0.000000    0.000000
  0.016813627   -0.544095  -81.329948 -108.431293  141.337921    0.000000    0.000000    0.000000    0.000000
  0.017014028   -0.542552  -82.366524 -107.269003  142.005951    0.000000    0.000000    0.000000    0.000000
  0.017214429   -0.547458  -83.472939 -107.810610  149.277603    0.000000    0.000000    0.000000    0.000000
  0.017414830   -0.553093  -84.602234 -106.825460  152.236923    0.000000    0.000000    0.000000    0.000000
  0.017615230   -0.556571  -85.730171 -107.606551  145.054245    0.000000    0.000000    0.000000    0.000000
  0.017815631   -0.554081  -86.891861 -106.691735  142.515701    0.000000    0.000000    0.000000    0.000000
  0.018016032   -0.549634  -88.082512 -106.559107  151.134094    0.000000    0.000000    0.000000    0.000000
  0.018216433   -0.548708  -89.230766 -105.537192  143.968216    0.000000    0.000000    0.000000    0.000000
  0.018416834   -0.545235  -90.355904 -106.439961  153.826263    0.000000    0.000000    0.000000    0.000000
  0.018617234   -0.535971  -91.511826 -105.952856  146.470032    0.000000    0.000000    0.000000    0.000000
  0.018817635   -0.530989  -92.656250 -105.541252  149.372009    0.000000    0.000000    0.000000    0.000000
  0.019018036   -0.530402  -93.836563 -103.899409  143.389313    0.000000    0.000000    0.000000    0.000000
  0.019218437   -0.517966  -95.007126 -105.267082  151.820389    0.000000    0.000000    0.000000    0.000000
  0.019418838   -0.517501  -96.188698 -104.144131  147.889114    0.000000    0.000000    0.000000    0.000000
  0.019619238   -0.517529  -97.354820 -104.572182  151.627533    0.000000    0.000000    0.000000    0.000000
  0.019819639   -0.508380  -98.524109 -104.796233  151.607010    0.000000    0.000000    0.000000    0.000000
  0.020020040   -0.507209  -99.715508 -105.744757  141.996429    0.000000    0.000000    0.000000    0.000000
  0.020220441   -0.504494 -100.863449 -104.672371  146.080811    0.000000    0.000000    0.000000    0.000000
  0.020420842   -0.500031 -102.025528 -106.822536  140.690536    0.000000    0.000000    0.000000    0.000000
  0.020621242   -0.498811 -103.181267 -104.274032  147.818420    0.000000    0.000000    0.000000    0.000000
  0.020821643   -0.506735 -104.427002 -103.947191  148.589706    0.000000    0.000000    0.000000    0.000000
  0.021022044   -0.514735 -105.580284 -106.672619  135.949310    0.000000    0.000000    0.000000    0.000000
  0.021222445   -0.520633 -106.862534 -104.571430  147.526199    0.000000    0.000000    0.000000    0.000000
  0.021422846   -0.524402 -108.129997 -104.092188  145.492111    0.000000    0.000000    0.000000    0.000000
  0.021623246   -0.529301 -109.378487 -104.954897  150.717041    0.000000    0.000000    0.000000    0.000000
  0.021823647   -0.532445 -110.643829 -104.725072  143.575760    0.000000    0.000000    0.000000    0.000000
  0.022024048   -0.528641 -111.998283 -106.108148  143.483551    0.000000    0.000000    0.000000    0.000000
  0.022224449   -0.531892 -113.261246 -105.939332  143.430649    0.000000    0.000000    0.000000    0.000000
  0.022424850   -0.533037 -114.557762 -106.037865  135.405060    0.000000    0.000000    0.000000    0.000000
  0.022625251   -0.531683 -115.819168 -104.928083  134.925552    0.000000    0.000000    0.000000    0.000000
  0.022825651   -0.535439 -117.097610 -106.872487  134.305069    0.000000    0.000000    0.000000    0.000000
  0.023026052   -0.543436 -118.303833 -105.842847  140.637329    0.000000    0.000000    0.000000    0.000000
  0.023226453   -0.549258 -119.654480 -106.513738  149.184448    0.000000    0.000000    0.000000    0.000000
  0.023426854   -0.560133 -120.943855 -106.328976  134.786743    0.000000    0.000000    0.000000    0.000000
  0.023627255   -0.571491 -122.258377 -108.252649  140.044312    0.000000    0.000000    0.000000    0.000000
  0.023827655   -0.576995 -123.587372 -107.578813  141.110031    0.000000    0.000000    0.000000    0.000000
  0.024028056   -0.588857 -124.926765 -107.185761  150.831070    0.000000    0.000000    0.000000    0.000000
  0.024228457   -0.601632 -126.244545 -107.818688  148.142426    0.000000    0.000000    0.000000    0.000000
  0.024428858   -0.599515 -127.567596 -107.034988  143.027130    0.000000    0.000000    0.000000    0.000000
  0.024629259   -0.604423 -128.884933 -106.332494  139.080612    0.000000    0.000000    0.000000    0.000000
  0.024829659   -0.606796 -130.151657 -108.008552  144.184845    0.000000    0.000000    0.000000    0.000000
  0.025030060   -0.617628 -131.477066 -106.679310  153.841293    0.000000    0.000000    0.000000    0.000000
  0.025230461   -0.636903 -132.819733 -107.023566  140.760513    0.000000    0.000000    0.000000    0.000000
  0.025430862   -0.660187 -134.240936 -108.208046  150.009430    0.000000    0.000000    0.000000    0.000000
  0.025631263   -0.675704 -135.624222 -107.819322  146.365448    0.000000    0.000000    0.000000    0.000000
  0.025831663   -0.693350 -137.124191 -106.647678  146.379990    0.000000    0.000000    0.000000    0.000000
  0.026032064   -0.710319 -138.567917 -106.277572  141.371643    0.000000    0.000000    0.000000    0.000000
  0.026232465   -0.719372 -140.044052 -107.485342  145.721878    0.000000    0.000000    0.000000    0.000000
  0.026432866   -0.736839 -141.574692 -107.639520  142.736664    0.000000    0.000000    0.000000    0.000000
  0.026633267   -0.748953 -143.070267 -106.527501  142.456619    0.000000    0.000000    0.000000    0.000000
  0.026833667   -0.748480 -144.649521 -107.866765  142.069366    0.000000    0.000000    0.000000    0.000000
  0.027034068   -0.760185 -146.075333 -106.963273  134.254044    0.000000    0.000000    0.000000    0.000000
  0.027234469   -0.775450 -147.620255 -105.246996  141.984772    0.000000    0.000000    0.000000    0.000000
  0.027434870   -0.795160 -149.140411 -105.304436  140.143295    0.000000    0.000000    0.000000    0.000000
  0.027635271   -0.808183 -150.692200 -105.971715  146.125870    0.000000    0.000000    0.000000    0.000000
  0.027835671   -0.826667 -152.251480 -106.240235  150.959427    0.000000    0.000000    0.000000    0.000000
  0.028036072   -0.837063 -153.824432 -105.338842  147.589752    0.000000    0.000000    0.000000    0.000000
  0.028236473   -0.860721 -155.421829 -105.682566  144.104523    0.000000    0.000000    0.000000    0.000000
  0.028436874   -0.881870 -156.996964 -105.497400  138.220062    0.000000    0.000000    0.000000    0.000000
  0.028637275   -0.903039 -158.609863 -106.669600  154.005249    0.000000    0.000000    0.000000    0.000000
  0.028837675   -0.918739 -160.210358 -105.422466  147.076614    0.000000    0.000000    0.000000    0.000000
  0.029038076   -0.941277 -161.818222 -106.240322  139.141037    0.000000    0.000000    0.000000    0.000000
  0.029238477   -0.957357 -163.378433 -105.646440  141.121338    0.000000    0.000000    0.000000    0.000000
  0.029438878   -0.986988 -165.025345 -105.894460  140.984177    0.000000    0.000000    0.000000    0.000000
  0.029639279   -1.009794 -166.656937 -106.460043  140.403534    0.000000    0.000000    0.000000    0.000000
  0.029839679   -1.036159 -168.289948 -105.211160  139.841385    0.000000    0.000000    0.000000    0.000000
  0.030040080   -1.065891 -169.941345 -106.367971  141.682648    0.000000    0.000000    0.000000    0.000000
  0.030240481   -1.092568 -171.627029 -107.211459  141.387085    0.000000    0.000000    0.000000    0.000000
  0.030440882   -1.118139 -173.268585 -105.338041  145.350601    0.000000    0.000000    0.000000    0.000000
  0.030641283   -1.149250 -174.965881 -106.252041  142.049820    0.000000    0.000000    0.000000    0.000000
  0.030841683   -1.177903 -176.627502 -105.872468  145.055832    0.000000    0.000000    0.000000    0.000000
  0.031042084   -1.207521 -178.289597 -105.173673  148.225540    0.000000    0.000000    0.000000    0.000000
  0.031242485   -1.234810  179.985306 -106.249319  146.616531    0.000000    0.000000    0.000000    0.000000
  0.031442886   -1.269984  178.297745 -106.199767  147.515823    0.000000    0.000000    0.000000    0.000000
  0.031643287   -1.306002  176.623016 -105.346952  146.679184    0.000000    0.000000    0.000000    0.000000
  0.031843687   -1.339772  174.905838 -107.821319  143.760910    0.000000    0.000000    0.000000    0.000000
  0.032044088   -1.379608  173.197021 -106.428000  145.841980    0.000000    0.000000    0.000000    0.000000
  0.032244489   -1.411543  171.465866 -106.024156  147.788101    0.000000    0.000000    0.000000    0.000000
  0.032444890   -1.451475  169.771851 -106.333980  152.071777    0.000000    0.000000    0.000000    0.000000
  0.032645291   -1.493682  168.027359 -106.316437  138.417923    0.000000    0.000000    0.000000    0.000000
  0.032845691   -1.537833  166.302628 -107.517644  145.700287    0.000000    0.000000    0.000000    0.000000
  0.033046092   -1.582692  164.531006 -106.447183  144.701294    0.000000    0.000000    0.000000    0.000000
  0.033246493   -1.629485  162.774002 -106.573455  152.719528    0.000000    0.000000    0.000000    0.000000
  0.033446894   -1.674781  160.977524 -106.631105  146.763412    0.000000    0.000000    0.000000    0.000000
  0.033647295   -1.718558  159.183487 -107.543115  139.825119    0.000000    0.000000    0.000000    0.000000
  0.033847695   -1.760239  157.374557 -106.043744  144.722092    0.000000    0.000000    0.000000    0.000000
  0.034048096   -1.803531  155.567673 -107.797687  144.890762    0.000000    0.000000    0.000000    0.000000
  0.034248497   -1.841347  153.774445 -108.063543  143.428757    0.000000    0.000000    0.000000    0.000000
  0.034448898   -1.888726  152.021103 -106.726689  135.208740    0.000000    0.000000    0.000000    0.000000
  0.034649299   -1.940074  150.231644 -106.788040  144.465897    0.000000    0.000000    0.000000    0.000000
  0.034849699   -1.989608  148.457840 -105.437361  142.234283    0.000000    0.000000    0.000000    0.000000
  0.035050100   -2.039930  146.660370 -105.297835  141.603073    0.000000    0.000000    0.000000    0.000000
  0.035250501   -2.093471  144.875244 -106.569126  143.567566    0.000000    0.000000    0.000000    0.000000
  0.035450902   -2.148747  143.017639 -105.279678  143.975601    0.000000    0.000000    0.000000    0.000000
  0.035651303   -2.208022  141.185333 -105.703959  137.140564    0.000000    0.000000    0.000000    0.000000
  0.035851703   -2.261729  139.336273 -105.760070  140.405701    0.000000    0.000000    0.000000    0.000000
  0.036052104   -2.316837  137.583038 -105.551675  137.931442    0.000000    0.000000    0.000000    0.000000
  0.036252505   -2.372896  135.637253 -105.067622  141.926590    0.000000    0.000000    0.000000    0.000000
  0.036452906   -2.427385  133.791870 -104.717383  142.230560    0.000000    0.000000    0.000000    0.000000
  0.036653307   -2.484902  131.999374 -105.010070  142.416901    0.000000    0.000000    0.000000    0.000000
  0.036853707   -2.549516  130.199448 -105.865825  143.459030    0.000000    0.000000    0.000000    0.000000
  0.037054108   -2.617185  128.349304 -105.809495  146.902222    0.000000    0.000000    0.000000    0.000000
  0.037254509   -2.666176  126.382721 -104.915740  140.949295    0.000000    0.000000    0.000000    0.000000
  0.037454910   -2.742851  124.554581 -106.720976  150.737930    0.000000    0.000000    0.000000    0.000000
  0.037655311   -2.810831  122.632660 -105.129812  147.603043    0.000000    0.000000    0.000000    0.000000
  0.037855711   -2.851838  120.695381 -105.343146  145.285675    0.000000    0.000000    0.000000    0.000000
  0.038056112   -2.933217  118.854279 -105.725056  137.552048    0.000000    0.000000    0.000000    0.000000
  0.038256513   -2.973143  117.016129 -105.881707  142.386627    0.000000    0.000000    0.000000    0.000000
  0.038456914   -3.042347  115.145134 -105.802128  139.967789    0.000000    0.000000    0.000000    0.000000
  0.038657315   -3.082453  113.359253 -105.868863  150.837479    0.000000    0.000000    0.000000    0.000000
  0.038857715   -3.148559  111.509026 -105.541295  141.224411    0.000000    0.000000    0.000000    0.000000
  0.039058116   -3.217720  109.605743 -105.668020  140.550980    0.000000    0.000000    0.000000    0.000000
  0.039258517   -3.281249  107.750893 -106.169385  148.106293    0.000000    0.000000    0.000000    0.000000
  0.039458918   -3.348862  105.882584 -106.854231  142.192474    0.000000    0.000000    0.000000    0.000000
  0.039659319   -3.410182  104.100960 -106.068417  147.031937    0.000000    0.000000    0.000000    0.000000
  0.039859719   -3.482780  102.229248 -106.924925  140.106186    0.000000    0.000000    0.000000    0.000000
  0.040060120   -3.553828  100.208473 -106.638084  134.747971    0.000000    0.000000    0.000000    0.000000
  0.040260521   -3.620963   98.409081 -106.763867  133.094315    0.000000    0.000000    0.000000    0.000000
  0.040460922   -3.683758   96.411041 -106.252974  141.849365    0.000000    0.000000    0.000000    0.000000
  0.040661323   -3.755965   94.586304 -106.580012  144.557770    0.000000    0.000000    0.000000    0.000000
  0.040861723   -3.822662   92.692284 -107.104063  141.685135    0.000000    0.000000    0.000000    0.000000
  0.041062124   -3.892039   90.729088 -105.976944  139.240723    0.000000    0.000000    0.000000    0.000000
  0.041262525   -3.958684   88.801208 -106.045546  139.015503    0.000000    0.000000    0.000000    0.000000
  0.041462926   -4.017593   86.842903 -106.867960  144.557831    0.000000    0.000000    0.000000    0.000000
  0.041663327   -4.073535   84.891411 -106.831937  141.878677    0.000000    0.000000    0.000000    0.000000
  0.041863727   -4.125251   82.974686 -106.806532  146.284943    0.000000    0.000000    0.000000    0.000000
  0.042064128   -4.188346   81.086823 -106.392052  137.659714    0.000000    0.000000    0.000000    0.000000
  0.042264529   -4.239748   79.158173 -106.422765  144.662506    0.000000    0.000000    0.000000    0.000000
  0.042464930   -4.293754   77.237770 -106.031611  145.243759    0.000000    0.000000    0.000000    0.000000
  0.042665331   -4.350655   75.352623 -105.193599  136.856125    0.000000    0.000000    0.000000    0.000000
  0.042865731   -4.399226   73.427338 -106.445993  141.162247    0.000000    0.000000    0.000000    0.000000
