! Anritsu VNA Master:                 Model: MS2034B/10/19/501
! SN:                                  1337062
! /bd0/ovro-jan-2016/vna-jan/vna-b1-s11-with-loads2-j9-j10.s2p
! Existing Calibration Information:
! TYPE:                         Current Settings,       Active Cal Settings
! TIME:             	   01/13/2016 01:05:59 PM,    01/12/2016 05:57:47 PM
! INTERNAL TEMP:    	                   44.3 C,                    46.0 C
! # POINTS:         	                      500,                       500
! START FREQ:       	               10.000 MHz,                10.000 MHz
! STOP FREQ:        	              110.000 MHz,               110.000 MHz
! SOURCE POWER:     	                      Low,                       Low
! IFBW:             	                   100 Hz,                     1 kHz
! AVG FACTOR:       	                       1 ,                        3 
! REF PLANE 1:      	                     0 mm,                      0 mm
! REF PLANE 2:      	                     0 mm,                      0 mm
! CAL TYPE:         	             1P2P S11,S21,              1P2P S11,S21
! CAL METHOD:       	                     SOLT,                      SOLT
! CAL LINE TYPE:    	                     Coax,                      Coax
! DUT PORT 1:       	                K-Conn(M),                 K-Conn(M)
! DUT PORT 2:       	                N-Conn(M),                 N-Conn(M)
! CAL STATUS:       	        OK: Accuracy High,                        --
# GHZ S DB R 50.0
! FREQ.GHZ       S11DB        S11A       S21DB        S21A       S12DB        S12A       S22DB        S22A
  0.010000000  -33.961981   78.103256  -66.613319   47.318874    0.000000    0.000000    0.000000    0.000000
  0.010200401  -34.464890   75.228203  -64.731330   62.985123    0.000000    0.000000    0.000000    0.000000
  0.010400802  -34.936304   68.136375  -65.561135   66.646164    0.000000    0.000000    0.000000    0.000000
  0.010601202  -34.656564   72.378174  -64.998524   63.467339    0.000000    0.000000    0.000000    0.000000
  0.010801603  -34.402561   70.602341  -66.872558   66.623199    0.000000    0.000000    0.000000    0.000000
  0.011002004  -34.383008   67.524849  -66.617069   58.189003    0.000000    0.000000    0.000000    0.000000
  0.011202405  -34.591200   72.112206  -65.103702   82.807610    0.000000    0.000000    0.000000    0.000000
  0.011402806  -34.228814   68.141548  -67.017624   67.403687    0.000000    0.000000    0.000000    0.000000
  0.011603206  -34.217586   62.154160  -63.894919   60.641624    0.000000    0.000000    0.000000    0.000000
  0.011803607  -33.787201   65.426987  -66.472193   51.740219    0.000000    0.000000    0.000000    0.000000
  0.012004008  -34.626191   64.135231  -66.700840   62.329437    0.000000    0.000000    0.000000    0.000000
  0.012204409  -34.417260   66.209793  -67.057439   82.566322    0.000000    0.000000    0.000000    0.000000
  0.012404810  -34.499449   64.583351  -66.807144   72.526573    0.000000    0.000000    0.000000    0.000000
  0.012605210  -34.195539   61.274487  -66.616213   74.669785    0.000000    0.000000    0.000000    0.000000
  0.012805611  -33.934309   58.929398  -66.668705   85.424377    0.000000    0.000000    0.000000    0.000000
  0.013006012  -33.531345   56.662033  -64.923147   82.526871    0.000000    0.000000    0.000000    0.000000
  0.013206413  -33.971572   59.825722  -65.681667   81.916809    0.000000    0.000000    0.000000    0.000000
  0.013406814  -34.620743   55.958775  -64.615148   74.031281    0.000000    0.000000    0.000000    0.000000
  0.013607214  -34.260517   55.300354  -65.967963   79.437790    0.000000    0.000000    0.000000    0.000000
  0.013807615  -34.019776   57.019432  -68.630502   65.639389    0.000000    0.000000    0.000000    0.000000
  0.014008016  -34.621619   55.601967  -65.665135   69.007782    0.000000    0.000000    0.000000    0.000000
  0.014208417  -34.271347   52.151886  -66.564030   55.278484    0.000000    0.000000    0.000000    0.000000
  0.014408818  -35.352975   51.076435  -67.566031   74.487648    0.000000    0.000000    0.000000    0.000000
  0.014609218  -34.156351   50.057232  -66.134508   76.963547    0.000000    0.000000    0.000000    0.000000
  0.014809619  -34.828981   49.993195  -67.552351   86.899658    0.000000    0.000000    0.000000    0.000000
  0.015010020  -34.347069   43.323914  -67.154406   71.193436    0.000000    0.000000    0.000000    0.000000
  0.015210421  -34.728467   49.024147  -66.517792   72.694328    0.000000    0.000000    0.000000    0.000000
  0.015410822  -34.290396   43.367584  -66.611752   93.396965    0.000000    0.000000    0.000000    0.000000
  0.015611222  -33.639737   42.761539  -65.876467   79.818665    0.000000    0.000000    0.000000    0.000000
  0.015811623  -34.125373   41.934223  -67.760735   88.978432    0.000000    0.000000    0.000000    0.000000
  0.016012024  -34.473240   39.590244  -68.018492   83.234253    0.000000    0.000000    0.000000    0.000000
  0.016212425  -34.769916   42.377659  -65.847905   94.675987    0.000000    0.000000    0.000000    0.000000
  0.016412826  -35.148517   37.972664  -67.480794   71.982018    0.000000    0.000000    0.000000    0.000000
  0.016613226  -34.225290   37.575851  -66.469896   77.846230    0.000000    0.000000    0.000000    0.000000
  0.016813627  -35.811956   34.424831  -66.375025   82.424660    0.000000    0.000000    0.000000    0.000000
  0.017014028  -34.394358   33.707905  -66.478440   68.847977    0.000000    0.000000    0.000000    0.000000
  0.017214429  -34.717753   33.248806  -66.053722   89.802010    0.000000    0.000000    0.000000    0.000000
  0.017414830  -34.751535   34.906116  -66.238483   74.042969    0.000000    0.000000    0.000000    0.000000
  0.017615230  -34.737560   30.316511  -70.853345   77.215157    0.000000    0.000000    0.000000    0.000000
  0.017815631  -34.431190   29.390373  -65.499940   69.640038    0.000000    0.000000    0.000000    0.000000
  0.018016032  -33.378096   30.606855  -65.449470   91.406105    0.000000    0.000000    0.000000    0.000000
  0.018216433  -33.970874   28.609589  -67.486909  106.686592    0.000000    0.000000    0.000000    0.000000
  0.018416834  -34.356128   26.252663  -69.641420   95.813301    0.000000    0.000000    0.000000    0.000000
  0.018617234  -34.161376   26.856382  -67.903371   80.982224    0.000000    0.000000    0.000000    0.000000
  0.018817635  -34.029763   24.047251  -65.828065   99.768623    0.000000    0.000000    0.000000    0.000000
  0.019018036  -34.435852   27.489697  -67.011560  121.812477    0.000000    0.000000    0.000000    0.000000
  0.019218437  -34.541886   22.812868  -68.649650   92.164284    0.000000    0.000000    0.000000    0.000000
  0.019418838  -34.589204   25.045996  -68.920915   96.440445    0.000000    0.000000    0.000000    0.000000
  0.019619238  -33.936404   21.414240  -66.199218  105.491806    0.000000    0.000000    0.000000    0.000000
  0.019819639  -33.843026   17.620403  -66.229856  104.069008    0.000000    0.000000    0.000000    0.000000
  0.020020040  -33.992445   17.058699  -67.506536  110.040924    0.000000    0.000000    0.000000    0.000000
  0.020220441  -34.192431   12.172284  -67.075558   95.541878    0.000000    0.000000    0.000000    0.000000
  0.020420842  -33.719661   15.750141  -66.421070  105.760124    0.000000    0.000000    0.000000    0.000000
  0.020621242  -33.652551   10.988284  -68.805246   91.435242    0.000000    0.000000    0.000000    0.000000
  0.020821643  -33.600761   12.623946  -65.345477  105.260483    0.000000    0.000000    0.000000    0.000000
  0.021022044  -34.004615   11.558702  -68.341300   98.117905    0.000000    0.000000    0.000000    0.000000
  0.021222445  -33.714443    9.444342  -66.789953  109.575226    0.000000    0.000000    0.000000    0.000000
  0.021422846  -33.781399    9.897903  -66.071869  100.580727    0.000000    0.000000    0.000000    0.000000
  0.021623246  -33.470704    9.026055  -67.553581  105.830902    0.000000    0.000000    0.000000    0.000000
  0.021823647  -33.813399    0.951086  -67.024265   92.128983    0.000000    0.000000    0.000000    0.000000
  0.022024048  -33.974828    1.613125  -68.139380  124.841621    0.000000    0.000000    0.000000    0.000000
  0.022224449  -33.675095    1.127319  -67.006792   97.718102    0.000000    0.000000    0.000000    0.000000
  0.022424850  -33.767563    1.183213  -67.207900  115.088768    0.000000    0.000000    0.000000    0.000000
  0.022625251  -33.462606   -0.421685  -65.691366  114.004005    0.000000    0.000000    0.000000    0.000000
  0.022825651  -33.259339   -1.491928  -66.271586  115.537170    0.000000    0.000000    0.000000    0.000000
  0.023026052  -33.427813   -2.757227  -66.660896  110.499878    0.000000    0.000000    0.000000    0.000000
  0.023226453  -33.123070    1.096660  -65.128700  115.977394    0.000000    0.000000    0.000000    0.000000
  0.023426854  -33.220343   -5.283574  -66.220840  118.520515    0.000000    0.000000    0.000000    0.000000
  0.023627255  -32.940132   -6.512272  -67.954245  115.851730    0.000000    0.000000    0.000000    0.000000
  0.023827655  -32.966073   -7.485360  -67.256308  121.526016    0.000000    0.000000    0.000000    0.000000
  0.024028056  -32.973357  -10.555306  -65.880015  113.521179    0.000000    0.000000    0.000000    0.000000
  0.024228457  -33.247612  -12.640004  -66.256147  121.384506    0.000000    0.000000    0.000000    0.000000
  0.024428858  -33.040354   -7.015728  -66.391506  130.575302    0.000000    0.000000    0.000000    0.000000
  0.024629259  -33.055195   -9.473729  -67.575911  120.561607    0.000000    0.000000    0.000000    0.000000
  0.024829659  -33.053711  -11.935457  -69.435649  138.176682    0.000000    0.000000    0.000000    0.000000
  0.025030060  -32.576860  -13.788136  -65.774174  155.225677    0.000000    0.000000    0.000000    0.000000
  0.025230461  -32.431528  -16.789137  -65.468141  144.837036    0.000000    0.000000    0.000000    0.000000
  0.025430862  -32.744438  -18.217957  -64.880885  158.944000    0.000000    0.000000    0.000000    0.000000
  0.025631263  -32.893994  -17.349178  -64.740215  148.100677    0.000000    0.000000    0.000000    0.000000
  0.025831663  -32.287461  -17.384565  -64.683372  139.141464    0.000000    0.000000    0.000000    0.000000
  0.026032064  -32.551558  -19.608614  -65.123155  158.973862    0.000000    0.000000    0.000000    0.000000
  0.026232465  -32.408787  -20.499859  -67.647949  161.759277    0.000000    0.000000    0.000000    0.000000
  0.026432866  -32.158654  -21.262440  -66.725649  172.175110    0.000000    0.000000    0.000000    0.000000
  0.026633267  -32.101752  -22.989677  -66.014585  158.121368    0.000000    0.000000    0.000000    0.000000
  0.026833667  -31.913446  -30.988583  -67.300416  158.685654    0.000000    0.000000    0.000000    0.000000
  0.027034068  -31.812522  -26.457035  -65.372276  160.220978    0.000000    0.000000    0.000000    0.000000
  0.027234469  -31.858140  -26.479345  -66.254359  166.418060    0.000000    0.000000    0.000000    0.000000
  0.027434870  -32.062285  -27.828583  -69.641758  167.193222    0.000000    0.000000    0.000000    0.000000
  0.027635271  -32.073106  -31.033978  -65.119348  155.211197    0.000000    0.000000    0.000000    0.000000
  0.027835671  -31.160617  -32.386852  -64.549809  167.443283    0.000000    0.000000    0.000000    0.000000
  0.028036072  -32.290052  -35.715694  -67.180121  155.282486    0.000000    0.000000    0.000000    0.000000
  0.028236473  -31.974169  -35.044991  -65.358305  171.191864    0.000000    0.000000    0.000000    0.000000
  0.028436874  -31.795785  -33.814644  -68.109891  166.352341    0.000000    0.000000    0.000000    0.000000
  0.028637275  -31.850190  -34.221352  -65.247172  163.056671    0.000000    0.000000    0.000000    0.000000
  0.028837675  -31.201176  -38.889050  -65.707846  179.555115    0.000000    0.000000    0.000000    0.000000
  0.029038076  -31.365273  -36.184658  -64.346927  164.608047    0.000000    0.000000    0.000000    0.000000
  0.029238477  -30.324759  -42.010307  -66.296513  165.160156    0.000000    0.000000    0.000000    0.000000
  0.029438878  -31.348423  -39.877209  -65.771772  152.135559    0.000000    0.000000    0.000000    0.000000
  0.029639279  -30.845374  -39.424427  -69.102453  176.057419    0.000000    0.000000    0.000000    0.000000
  0.029839679  -30.984644  -42.757305  -64.970145  147.687042    0.000000    0.000000    0.000000    0.000000
  0.030040080  -31.122615  -44.525730  -66.523198  165.769424    0.000000    0.000000    0.000000    0.000000
  0.030240481  -30.755946  -43.537315  -67.114624  172.683212    0.000000    0.000000    0.000000    0.000000
  0.030440882  -30.769988  -46.500477  -63.954481 -169.844330    0.000000    0.000000    0.000000    0.000000
  0.030641283  -30.667146  -48.541824  -64.116038 -168.291565    0.000000    0.000000    0.000000    0.000000
  0.030841683  -30.252737  -50.121632  -66.605462  173.281342    0.000000    0.000000    0.000000    0.000000
  0.031042084  -30.492124  -48.904499  -64.839692  170.883057    0.000000    0.000000    0.000000    0.000000
  0.031242485  -30.167991  -51.903591  -67.788865  159.654465    0.000000    0.000000    0.000000    0.000000
  0.031442886  -30.234528  -50.782429  -66.365188  172.040771    0.000000    0.000000    0.000000    0.000000
  0.031643287  -30.309106  -50.059235  -65.089251  165.778580    0.000000    0.000000    0.000000    0.000000
  0.031843687  -30.211904  -53.269867  -64.811881  173.362839    0.000000    0.000000    0.000000    0.000000
  0.032044088  -29.830862  -55.267544  -70.729527 -173.908600    0.000000    0.000000    0.000000    0.000000
  0.032244489  -29.698463  -53.679657  -65.269513  177.890442    0.000000    0.000000    0.000000    0.000000
  0.032444890  -29.776757  -55.628162  -67.238768 -171.309052    0.000000    0.000000    0.000000    0.000000
  0.032645291  -29.509438  -56.121956  -68.431416  176.499573    0.000000    0.000000    0.000000    0.000000
  0.032845691  -29.507021  -56.816681  -67.077808  163.910263    0.000000    0.000000    0.000000    0.000000
  0.033046092  -30.349669  -58.543137  -68.387590 -179.987778    0.000000    0.000000    0.000000    0.000000
  0.033246493  -29.537190  -58.388153  -66.851155  151.949554    0.000000    0.000000    0.000000    0.000000
  0.033446894  -29.723684  -60.627838  -66.790188 -173.584290    0.000000    0.000000    0.000000    0.000000
  0.033647295  -29.214977  -61.016602  -65.116107 -173.264725    0.000000    0.000000    0.000000    0.000000
  0.033847695  -29.136650  -62.543125  -66.950326 -163.075821    0.000000    0.000000    0.000000    0.000000
  0.034048096  -29.117252  -61.952957  -66.398585 -176.558853    0.000000    0.000000    0.000000    0.000000
  0.034248497  -28.878657  -63.489716  -67.131146 -169.490570    0.000000    0.000000    0.000000    0.000000
  0.034448898  -28.769889  -65.631432  -68.447911 -171.578293    0.000000    0.000000    0.000000    0.000000
  0.034649299  -28.794556  -64.972092  -68.367316 -177.775040    0.000000    0.000000    0.000000    0.000000
  0.034849699  -28.732031  -66.696274  -67.541848  173.945786    0.000000    0.000000    0.000000    0.000000
  0.035050100  -28.844969  -66.406288  -69.951616 -170.997528    0.000000    0.000000    0.000000    0.000000
  0.035250501  -28.433292  -67.529076  -67.157627 -168.818527    0.000000    0.000000    0.000000    0.000000
  0.035450902  -28.789689  -69.875916  -67.986723 -170.423676    0.000000    0.000000    0.000000    0.000000
  0.035651303  -28.673451  -70.557678  -66.157493 -166.711273    0.000000    0.000000    0.000000    0.000000
  0.035851703  -28.130728  -70.270416  -65.021213 -170.482513    0.000000    0.000000    0.000000    0.000000
  0.036052104  -28.373680  -71.593605  -68.780010 -172.474380    0.000000    0.000000    0.000000    0.000000
  0.036252505  -27.875770  -71.479042  -66.656972  175.848541    0.000000    0.000000    0.000000    0.000000
  0.036452906  -28.109387  -71.829552  -67.976123  178.307983    0.000000    0.000000    0.000000    0.000000
  0.036653307  -28.217336  -73.502380  -66.594749 -168.610840    0.000000    0.000000    0.000000    0.000000
  0.036853707  -28.360573  -76.246170  -65.040367 -162.711349    0.000000    0.000000    0.000000    0.000000
  0.037054108  -27.767055  -75.352409  -68.140886 -167.855026    0.000000    0.000000    0.000000    0.000000
  0.037254509  -27.544712  -75.196960  -64.694634 -166.221161    0.000000    0.000000    0.000000    0.000000
  0.037454910  -27.473638  -75.583839  -68.723220 -153.578629    0.000000    0.000000    0.000000    0.000000
  0.037655311  -27.442684  -77.092255  -64.607287 -168.776047    0.000000    0.000000    0.000000    0.000000
  0.037855711  -27.401987  -78.479660  -65.499519 -155.144333    0.000000    0.000000    0.000000    0.000000
  0.038056112  -27.863000  -81.238724  -65.232166 -155.734100    0.000000    0.000000    0.000000    0.000000
  0.038256513  -27.326039  -79.559250  -66.609787 -161.129929    0.000000    0.000000    0.000000    0.000000
  0.038456914  -27.286945  -79.335091  -69.587781 -152.071121    0.000000    0.000000    0.000000    0.000000
  0.038657315  -27.183634  -81.226662  -67.036975 -162.345108    0.000000    0.000000    0.000000    0.000000
  0.038857715  -27.131900  -80.239944  -67.817428 -147.422348    0.000000    0.000000    0.000000    0.000000
  0.039058116  -27.197027  -82.592522  -65.476603 -153.089432    0.000000    0.000000    0.000000    0.000000
  0.039258517  -27.258122  -84.211960  -67.475068 -154.526093    0.000000    0.000000    0.000000    0.000000
  0.039458918  -26.946497  -82.218582  -67.100109 -145.098343    0.000000    0.000000    0.000000    0.000000
  0.039659319  -26.951002  -84.784950  -65.371678 -151.179138    0.000000    0.000000    0.000000    0.000000
  0.039859719  -26.838421  -85.415840  -67.314748 -142.502777    0.000000    0.000000    0.000000    0.000000
  0.040060120  -26.699736  -84.962410  -69.232392 -154.026505    0.000000    0.000000    0.000000    0.000000
  0.040260521  -26.580227  -86.268013  -70.159064 -139.555725    0.000000    0.000000    0.000000    0.000000
  0.040460922  -26.892062  -87.986954  -65.854958 -142.286835    0.000000    0.000000    0.000000    0.000000
  0.040661323  -26.570575  -86.787895  -67.847015 -139.936737    0.000000    0.000000    0.000000    0.000000
  0.040861723  -26.286630  -86.913956  -69.222558 -132.476990    0.000000    0.000000    0.000000    0.000000
  0.041062124  -26.380610  -86.845718  -65.521628 -150.328156    0.000000    0.000000    0.000000    0.000000
  0.041262525  -26.411395  -88.279152  -68.373743 -134.757339    0.000000    0.000000    0.000000    0.000000
  0.041462926  -26.542758  -89.448654  -65.479910 -138.735260    0.000000    0.000000    0.000000    0.000000
  0.041663327  -26.378407  -90.411690  -67.466500 -138.039948    0.000000    0.000000    0.000000    0.000000
  0.041863727  -26.235052  -90.648987  -66.794818 -134.893082    0.000000    0.000000    0.000000    0.000000
  0.042064128  -26.265972  -91.580421  -67.351701 -136.704666    0.000000    0.000000    0.000000    0.000000
  0.042264529  -26.249929  -93.093315  -68.023013 -133.307785    0.000000    0.000000    0.000000    0.000000
  0.042464930  -25.974016  -93.089935  -66.314473 -124.692436    0.000000    0.000000    0.000000    0.000000
  0.042665331  -26.155540  -93.815689  -67.071338 -143.607605    0.000000    0.000000    0.000000    0.000000
  0.042865731  -25.916159  -94.757362  -67.777480 -131.634232    0.000000    0.000000    0.000000    0.000000
