! Anritsu VNA Master:                 Model: MS2034B/10/19/501
! SN:                                  1337062
! /bd0/ovro-jan-2016/vna-jan/vna-ant254-d2-s11-2.s2p
! Existing Calibration Information:
! TYPE:                         Current Settings,       Active Cal Settings
! TIME:             	   01/13/2016 05:18:11 PM,    01/13/2016 05:04:46 PM
! INTERNAL TEMP:    	                   39.3 C,                    41.8 C
! # POINTS:         	                      500,                       500
! START FREQ:       	               10.000 MHz,                10.000 MHz
! STOP FREQ:        	              110.000 MHz,               110.000 MHz
! SOURCE POWER:     	                     High,                      High
! IFBW:             	                   100 Hz,                    100 Hz
! AVG FACTOR:       	                       4 ,                        4 
! REF PLANE 1:      	                     0 mm,                      0 mm
! REF PLANE 2:      	                     0 mm,                      0 mm
! CAL TYPE:         	                 Full S11,                  Full S11
! CAL METHOD:       	                     SOLT,                      SOLT
! CAL LINE TYPE:    	                     Coax,                      Coax
! DUT PORT 1:       	                K-Conn(M),                 K-Conn(M)
! DUT PORT 2:       	                N-Conn(M),                 N-Conn(M)
! CAL STATUS:       	        OK: Accuracy High,                        --
# GHZ S DB R 50.0
! FREQ.GHZ       S11DB        S11A       S21DB        S21A       S12DB        S12A       S22DB        S22A
  0.010000000   -0.581121  -46.526909 -104.159898  151.211761    0.000000    0.000000    0.000000    0.000000
  0.010200401   -0.563275  -47.515331 -104.941482  146.203140    0.000000    0.000000    0.000000    0.000000
  0.010400802   -0.550850  -48.525845 -104.372162  135.977158    0.000000    0.000000    0.000000    0.000000
  0.010601202   -0.537995  -49.405373 -104.864472  161.161331    0.000000    0.000000    0.000000    0.000000
  0.010801603   -0.540153  -50.416111 -104.791636  138.899658    0.000000    0.000000    0.000000    0.000000
  0.011002004   -0.530072  -51.314281 -104.428392  146.377792    0.000000    0.000000    0.000000    0.000000
  0.011202405   -0.537052  -52.379944 -103.498532  140.991348    0.000000    0.000000    0.000000    0.000000
  0.011402806   -0.537017  -53.385338 -103.427493  146.643021    0.000000    0.000000    0.000000    0.000000
  0.011603206   -0.539071  -54.401726 -103.176323  144.667221    0.000000    0.000000    0.000000    0.000000
  0.011803607   -0.539175  -55.329216 -102.851858  146.561035    0.000000    0.000000    0.000000    0.000000
  0.012004008   -0.534408  -56.479618 -102.869490  144.982422    0.000000    0.000000    0.000000    0.000000
  0.012204409   -0.535748  -57.458092 -104.348220  152.199249    0.000000    0.000000    0.000000    0.000000
  0.012404810   -0.520775  -58.481808 -103.163128  134.019180    0.000000    0.000000    0.000000    0.000000
  0.012605210   -0.527046  -59.507027 -102.586759  143.698654    0.000000    0.000000    0.000000    0.000000
  0.012805611   -0.521026  -60.544369 -103.726854  141.655685    0.000000    0.000000    0.000000    0.000000
  0.013006012   -0.532540  -61.488182 -102.478433  138.381577    0.000000    0.000000    0.000000    0.000000
  0.013206413   -0.524268  -62.568493 -101.539690  140.958633    0.000000    0.000000    0.000000    0.000000
  0.013406814   -0.521791  -63.610317 -103.020514  135.511383    0.000000    0.000000    0.000000    0.000000
  0.013607214   -0.523416  -64.684761 -103.322958  141.510117    0.000000    0.000000    0.000000    0.000000
  0.013807615   -0.519437  -65.774475 -104.248581  132.593964    0.000000    0.000000    0.000000    0.000000
  0.014008016   -0.516119  -66.848061 -103.681988  140.022934    0.000000    0.000000    0.000000    0.000000
  0.014208417   -0.529282  -67.960999 -104.590344  134.048492    0.000000    0.000000    0.000000    0.000000
  0.014408818   -0.505694  -69.001656 -104.021816  123.112640    0.000000    0.000000    0.000000    0.000000
  0.014609218   -0.499705  -70.069466 -104.354492  145.942245    0.000000    0.000000    0.000000    0.000000
  0.014809619   -0.490396  -71.112114 -104.256008  132.872391    0.000000    0.000000    0.000000    0.000000
  0.015010020   -0.487684  -72.155151 -105.827804  133.494553    0.000000    0.000000    0.000000    0.000000
  0.015210421   -0.485424  -73.168411 -106.417176  124.090508    0.000000    0.000000    0.000000    0.000000
  0.015410822   -0.486537  -74.217941 -105.958159  135.309723    0.000000    0.000000    0.000000    0.000000
  0.015611222   -0.493306  -75.333580 -106.737148  141.077774    0.000000    0.000000    0.000000    0.000000
  0.015811623   -0.490049  -76.395813 -108.234568  133.000549    0.000000    0.000000    0.000000    0.000000
  0.016012024   -0.494814  -77.472488 -106.581697  136.334091    0.000000    0.000000    0.000000    0.000000
  0.016212425   -0.497085  -78.595306 -107.456030  139.513123    0.000000    0.000000    0.000000    0.000000
  0.016412826   -0.497019  -79.696556 -107.221839  134.932251    0.000000    0.000000    0.000000    0.000000
  0.016613226   -0.495765  -80.836388 -107.525988  142.733704    0.000000    0.000000    0.000000    0.000000
  0.016813627   -0.501620  -82.006096 -107.381707  146.856323    0.000000    0.000000    0.000000    0.000000
  0.017014028   -0.500552  -83.084488 -108.581353  136.623474    0.000000    0.000000    0.000000    0.000000
  0.017214429   -0.504164  -84.241753 -107.295029  152.958694    0.000000    0.000000    0.000000    0.000000
  0.017414830   -0.502417  -85.408295 -107.603607  140.429123    0.000000    0.000000    0.000000    0.000000
  0.017615230   -0.502985  -86.576195 -106.325042  143.021286    0.000000    0.000000    0.000000    0.000000
  0.017815631   -0.497628  -87.731918 -106.215714  147.066833    0.000000    0.000000    0.000000    0.000000
  0.018016032   -0.490842  -88.966370 -105.803993  152.690018    0.000000    0.000000    0.000000    0.000000
  0.018216433   -0.486029  -90.132820 -106.122680  141.435928    0.000000    0.000000    0.000000    0.000000
  0.018416834   -0.477757  -91.256508 -106.015637  143.032181    0.000000    0.000000    0.000000    0.000000
  0.018617234   -0.469312  -92.445969 -106.043008  143.883804    0.000000    0.000000    0.000000    0.000000
  0.018817635   -0.459325  -93.581169 -106.896112  149.215378    0.000000    0.000000    0.000000    0.000000
  0.019018036   -0.453376  -94.775627 -104.988220  148.923676    0.000000    0.000000    0.000000    0.000000
  0.019218437   -0.434809  -95.952263 -105.624673  143.140671    0.000000    0.000000    0.000000    0.000000
  0.019418838   -0.433969  -97.115921 -105.086231  143.179703    0.000000    0.000000    0.000000    0.000000
  0.019619238   -0.429374  -98.296005 -105.750788  146.118759    0.000000    0.000000    0.000000    0.000000
  0.019819639   -0.420022  -99.471085 -105.504277  142.986465    0.000000    0.000000    0.000000    0.000000
  0.020020040   -0.414428 -100.649857 -104.671781  145.304993    0.000000    0.000000    0.000000    0.000000
  0.020220441   -0.407064 -101.805923 -103.905678  145.814957    0.000000    0.000000    0.000000    0.000000
  0.020420842   -0.403347 -102.956902 -104.345408  142.402374    0.000000    0.000000    0.000000    0.000000
  0.020621242   -0.400195 -104.137344 -105.210833  135.726730    0.000000    0.000000    0.000000    0.000000
  0.020821643   -0.406533 -105.352837 -105.548185  144.857361    0.000000    0.000000    0.000000    0.000000
  0.021022044   -0.404954 -106.522110 -104.220591  146.828415    0.000000    0.000000    0.000000    0.000000
  0.021222445   -0.415971 -107.791573 -104.553835  137.077972    0.000000    0.000000    0.000000    0.000000
  0.021422846   -0.418992 -109.036186 -104.732484  139.213104    0.000000    0.000000    0.000000    0.000000
  0.021623246   -0.423629 -110.298721 -105.159797  142.897171    0.000000    0.000000    0.000000    0.000000
  0.021823647   -0.421253 -111.560539 -104.946744  145.589600    0.000000    0.000000    0.000000    0.000000
  0.022024048   -0.416957 -112.928474 -105.508761  142.681305    0.000000    0.000000    0.000000    0.000000
  0.022224449   -0.414472 -114.211548 -105.170705  132.167465    0.000000    0.000000    0.000000    0.000000
  0.022424850   -0.417862 -115.517242 -105.400126  134.924850    0.000000    0.000000    0.000000    0.000000
  0.022625251   -0.413525 -116.799812 -106.307817  136.307755    0.000000    0.000000    0.000000    0.000000
  0.022825651   -0.411576 -118.092041 -106.072101  141.316711    0.000000    0.000000    0.000000    0.000000
  0.023026052   -0.421911 -119.343033 -106.235364  146.836227    0.000000    0.000000    0.000000    0.000000
  0.023226453   -0.422825 -120.692162 -106.286013  142.097794    0.000000    0.000000    0.000000    0.000000
  0.023426854   -0.430688 -122.000481 -106.099989  140.905334    0.000000    0.000000    0.000000    0.000000
  0.023627255   -0.439308 -123.398529 -106.563562  136.197922    0.000000    0.000000    0.000000    0.000000
  0.023827655   -0.443402 -124.734200 -107.562623  138.245544    0.000000    0.000000    0.000000    0.000000
  0.024028056   -0.447885 -126.146255 -106.833814  143.190384    0.000000    0.000000    0.000000    0.000000
  0.024228457   -0.455863 -127.540001 -108.577040  143.338272    0.000000    0.000000    0.000000    0.000000
  0.024428858   -0.451565 -128.906952 -107.408473  135.862854    0.000000    0.000000    0.000000    0.000000
  0.024629259   -0.454971 -130.285858 -107.844832  140.660431    0.000000    0.000000    0.000000    0.000000
  0.024829659   -0.456340 -131.696640 -107.473258  136.539154    0.000000    0.000000    0.000000    0.000000
  0.025030060   -0.465671 -133.069427 -109.100287  142.101974    0.000000    0.000000    0.000000    0.000000
  0.025230461   -0.481189 -134.474487 -108.197918  137.843964    0.000000    0.000000    0.000000    0.000000
  0.025430862   -0.503964 -135.947861 -107.908562  146.537643    0.000000    0.000000    0.000000    0.000000
  0.025631263   -0.517651 -137.375870 -107.763754  151.754990    0.000000    0.000000    0.000000    0.000000
  0.025831663   -0.536022 -138.893829 -107.306321  142.699722    0.000000    0.000000    0.000000    0.000000
  0.026032064   -0.550779 -140.395676 -109.770930  135.352386    0.000000    0.000000    0.000000    0.000000
  0.026232465   -0.559694 -141.927704 -106.613179  145.196121    0.000000    0.000000    0.000000    0.000000
  0.026432866   -0.569927 -143.448929 -108.436904  143.634781    0.000000    0.000000    0.000000    0.000000
  0.026633267   -0.580356 -144.957184 -106.669158  139.830231    0.000000    0.000000    0.000000    0.000000
  0.026833667   -0.580658 -146.543686 -106.048202  142.816071    0.000000    0.000000    0.000000    0.000000
  0.027034068   -0.598539 -147.954651 -105.806628  142.731476    0.000000    0.000000    0.000000    0.000000
  0.027234469   -0.609600 -149.503296 -105.010489  139.433655    0.000000    0.000000    0.000000    0.000000
  0.027434870   -0.625535 -150.989273 -105.831458  140.383316    0.000000    0.000000    0.000000    0.000000
  0.027635271   -0.636419 -152.512024 -106.236250  146.886002    0.000000    0.000000    0.000000    0.000000
  0.027835671   -0.655409 -154.041534 -108.057646  145.347763    0.000000    0.000000    0.000000    0.000000
  0.028036072   -0.663989 -155.609543 -106.434113  144.055832    0.000000    0.000000    0.000000    0.000000
  0.028236473   -0.688358 -157.147202 -105.245601  143.533478    0.000000    0.000000    0.000000    0.000000
  0.028436874   -0.704400 -158.714310 -106.043000  146.665405    0.000000    0.000000    0.000000    0.000000
  0.028637275   -0.724340 -160.286453 -106.491258  137.641647    0.000000    0.000000    0.000000    0.000000
  0.028837675   -0.739318 -161.848846 -106.878984  150.742355    0.000000    0.000000    0.000000    0.000000
  0.029038076   -0.762247 -163.429230 -106.243220  146.123062    0.000000    0.000000    0.000000    0.000000
  0.029238477   -0.778036 -164.980103 -107.793072  131.824356    0.000000    0.000000    0.000000    0.000000
  0.029438878   -0.806204 -166.573807 -106.576878  142.056427    0.000000    0.000000    0.000000    0.000000
  0.029639279   -0.833180 -168.180893 -105.964790  133.638931    0.000000    0.000000    0.000000    0.000000
  0.029839679   -0.858260 -169.794769 -107.267608  141.128983    0.000000    0.000000    0.000000    0.000000
  0.030040080   -0.884876 -171.417496 -107.203438  141.933929    0.000000    0.000000    0.000000    0.000000
  0.030240481   -0.915030 -173.073624 -104.570699  143.981323    0.000000    0.000000    0.000000    0.000000
  0.030440882   -0.949222 -174.712616 -106.160687  146.464279    0.000000    0.000000    0.000000    0.000000
  0.030641283   -0.972444 -176.369873 -106.919435  146.445206    0.000000    0.000000    0.000000    0.000000
  0.030841683   -1.000244 -178.069443 -107.323544  156.856232    0.000000    0.000000    0.000000    0.000000
  0.031042084   -1.037641 -179.742401 -107.560361  158.015533    0.000000    0.000000    0.000000    0.000000
  0.031242485   -1.068562  178.587952 -106.218876  149.581726    0.000000    0.000000    0.000000    0.000000
  0.031442886   -1.106733  176.883347 -107.966715  143.043579    0.000000    0.000000    0.000000    0.000000
  0.031643287   -1.139418  175.171539 -106.582991  145.348892    0.000000    0.000000    0.000000    0.000000
  0.031843687   -1.179647  173.436569 -106.847008  139.628128    0.000000    0.000000    0.000000    0.000000
  0.032044088   -1.218434  171.703751 -105.680549  142.468246    0.000000    0.000000    0.000000    0.000000
  0.032244489   -1.257712  169.938232 -106.797319  139.330322    0.000000    0.000000    0.000000    0.000000
  0.032444890   -1.297256  168.200302 -106.130611  140.823563    0.000000    0.000000    0.000000    0.000000
  0.032645291   -1.338960  166.413055 -106.885008  148.755295    0.000000    0.000000    0.000000    0.000000
  0.032845691   -1.384553  164.648941 -106.231623  142.156006    0.000000    0.000000    0.000000    0.000000
  0.033046092   -1.433026  162.830856 -107.537127  142.561829    0.000000    0.000000    0.000000    0.000000
  0.033246493   -1.479844  161.013138 -106.922761  148.068253    0.000000    0.000000    0.000000    0.000000
  0.033446894   -1.527237  159.173248 -106.985267  148.207397    0.000000    0.000000    0.000000    0.000000
  0.033647295   -1.570471  157.305191 -106.625680  145.420959    0.000000    0.000000    0.000000    0.000000
  0.033847695   -1.611329  155.453079 -106.090191  142.872498    0.000000    0.000000    0.000000    0.000000
  0.034048096   -1.651498  153.603180 -107.514358  136.679901    0.000000    0.000000    0.000000    0.000000
  0.034248497   -1.689865  151.746689 -107.037636  148.127792    0.000000    0.000000    0.000000    0.000000
  0.034448898   -1.735376  149.919113 -107.646426  145.837967    0.000000    0.000000    0.000000    0.000000
  0.034649299   -1.783354  148.105621 -106.468612  143.724380    0.000000    0.000000    0.000000    0.000000
  0.034849699   -1.830616  146.260849 -106.276858  141.926666    0.000000    0.000000    0.000000    0.000000
  0.035050100   -1.879131  144.428452 -105.622374  133.477036    0.000000    0.000000    0.000000    0.000000
  0.035250501   -1.931393  142.582214 -106.112609  148.559677    0.000000    0.000000    0.000000    0.000000
  0.035450902   -1.985510  140.711670 -106.528584  136.532272    0.000000    0.000000    0.000000    0.000000
  0.035651303   -2.042225  138.788559 -105.063489  137.132721    0.000000    0.000000    0.000000    0.000000
  0.035851703   -2.092193  136.903732 -105.433743  136.760040    0.000000    0.000000    0.000000    0.000000
  0.036052104   -2.142046  135.042191 -106.505264  146.482620    0.000000    0.000000    0.000000    0.000000
  0.036252505   -2.192063  133.125839 -105.531717  139.235977    0.000000    0.000000    0.000000    0.000000
  0.036452906   -2.246524  131.249191 -105.201521  141.428070    0.000000    0.000000    0.000000    0.000000
  0.036653307   -2.306231  129.486649 -105.824824  138.560013    0.000000    0.000000    0.000000    0.000000
  0.036853707   -2.361241  127.571770 -105.000182  132.817230    0.000000    0.000000    0.000000    0.000000
  0.037054108   -2.424381  125.667229 -105.214753  151.012375    0.000000    0.000000    0.000000    0.000000
  0.037254509   -2.467368  123.688049 -105.960060  137.161179    0.000000    0.000000    0.000000    0.000000
  0.037454910   -2.542614  121.795113 -106.241859  135.695648    0.000000    0.000000    0.000000    0.000000
  0.037655311   -2.603528  119.833931 -106.008274  139.818741    0.000000    0.000000    0.000000    0.000000
  0.037855711   -2.646539  117.892128 -106.011742  138.032593    0.000000    0.000000    0.000000    0.000000
  0.038056112   -2.719046  116.022972 -105.537115  139.367264    0.000000    0.000000    0.000000    0.000000
  0.038256513   -2.750678  114.129402 -104.815023  140.275787    0.000000    0.000000    0.000000    0.000000
  0.038456914   -2.820716  112.232941 -105.118678  141.604874    0.000000    0.000000    0.000000    0.000000
  0.038657315   -2.857880  110.433807 -106.332034  138.371155    0.000000    0.000000    0.000000    0.000000
  0.038857715   -2.916182  108.597931 -106.928245  149.114136    0.000000    0.000000    0.000000    0.000000
  0.039058116   -2.988274  106.637016 -106.234004  138.147034    0.000000    0.000000    0.000000    0.000000
  0.039258517   -3.045587  104.791908 -107.986226  152.187088    0.000000    0.000000    0.000000    0.000000
  0.039458918   -3.108200  102.919479 -106.491145  146.687515    0.000000    0.000000    0.000000    0.000000
  0.039659319   -3.163086  101.145309 -107.355723  144.413605    0.000000    0.000000    0.000000    0.000000
  0.039859719   -3.226864   99.235504 -107.131886  141.550369    0.000000    0.000000    0.000000    0.000000
  0.040060120   -3.289806   97.228394 -106.466974  140.258621    0.000000    0.000000    0.000000    0.000000
  0.040260521   -3.351929   95.446320 -106.615417  136.645599    0.000000    0.000000    0.000000    0.000000
  0.040460922   -3.406941   93.439545 -106.914088  130.135315    0.000000    0.000000    0.000000    0.000000
  0.040661323   -3.466563   91.669281 -105.825995  138.098495    0.000000    0.000000    0.000000    0.000000
  0.040861723   -3.522320   89.724670 -105.660084  141.863068    0.000000    0.000000    0.000000    0.000000
  0.041062124   -3.583231   87.819756 -106.845911  141.477295    0.000000    0.000000    0.000000    0.000000
  0.041262525   -3.639228   85.926849 -105.857095  138.589539    0.000000    0.000000    0.000000    0.000000
  0.041462926   -3.687679   84.023727 -105.748219  143.810455    0.000000    0.000000    0.000000    0.000000
  0.041663327   -3.735030   82.098579 -106.433683  142.648880    0.000000    0.000000    0.000000    0.000000
  0.041863727   -3.776365   80.220108 -106.568504  147.524567    0.000000    0.000000    0.000000    0.000000
  0.042064128   -3.827588   78.398102 -106.283698  134.669418    0.000000    0.000000    0.000000    0.000000
  0.042264529   -3.865762   76.504799 -104.897722  137.138702    0.000000    0.000000    0.000000    0.000000
  0.042464930   -3.911377   74.702057 -104.855720  141.292923    0.000000    0.000000    0.000000    0.000000
  0.042665331   -3.955752   72.837547 -105.830542  131.951630    0.000000    0.000000    0.000000    0.000000
  0.042865731   -3.991535   71.007378 -105.317818  137.243240    0.000000    0.000000    0.000000    0.000000
