! Anritsu VNA Master:                 Model: MS2034B/10/19/501
! SN:                                  1337062
! /bd0/ovro-jan-2016/vna-jan/vna-b1-s11-with-loads1-j9-j10.s2p
! Existing Calibration Information:
! TYPE:                         Current Settings,       Active Cal Settings
! TIME:             	   01/13/2016 01:02:04 PM,    01/12/2016 05:57:47 PM
! INTERNAL TEMP:    	                   44.0 C,                    46.0 C
! # POINTS:         	                      500,                       500
! START FREQ:       	               10.000 MHz,                10.000 MHz
! STOP FREQ:        	              110.000 MHz,               110.000 MHz
! SOURCE POWER:     	                      Low,                       Low
! IFBW:             	                   100 Hz,                     1 kHz
! AVG FACTOR:       	                       1 ,                        3 
! REF PLANE 1:      	                     0 mm,                      0 mm
! REF PLANE 2:      	                     0 mm,                      0 mm
! CAL TYPE:         	             1P2P S11,S21,              1P2P S11,S21
! CAL METHOD:       	                     SOLT,                      SOLT
! CAL LINE TYPE:    	                     Coax,                      Coax
! DUT PORT 1:       	                K-Conn(M),                 K-Conn(M)
! DUT PORT 2:       	                N-Conn(M),                 N-Conn(M)
! CAL STATUS:       	        OK: Accuracy High,                        --
# GHZ S DB R 50.0
! FREQ.GHZ       S11DB        S11A       S21DB        S21A       S12DB        S12A       S22DB        S22A
  0.010000000  -35.826507   52.848438  -67.998647   53.737736    0.000000    0.000000    0.000000    0.000000
  0.010200401  -35.243802   53.951065  -66.429602   51.047569    0.000000    0.000000    0.000000    0.000000
  0.010400802  -35.057041   44.617706  -64.218225   50.244122    0.000000    0.000000    0.000000    0.000000
  0.010601202  -35.240562   48.624023  -65.417819   68.041779    0.000000    0.000000    0.000000    0.000000
  0.010801603  -35.328693   51.589573  -66.323413   64.509789    0.000000    0.000000    0.000000    0.000000
  0.011002004  -35.924005   48.139687  -65.094917   57.983578    0.000000    0.000000    0.000000    0.000000
  0.011202405  -35.699022   45.209141  -65.380771   50.206806    0.000000    0.000000    0.000000    0.000000
  0.011402806  -35.161859   44.731911  -67.340046   44.272011    0.000000    0.000000    0.000000    0.000000
  0.011603206  -35.369934   42.581451  -65.649119   58.339912    0.000000    0.000000    0.000000    0.000000
  0.011803607  -35.373176   44.388050  -67.269521   70.328438    0.000000    0.000000    0.000000    0.000000
  0.012004008  -34.837808   41.242390  -66.117860   62.943493    0.000000    0.000000    0.000000    0.000000
  0.012204409  -34.576940   39.864391  -64.411527   68.827507    0.000000    0.000000    0.000000    0.000000
  0.012404810  -35.144119   39.822056  -64.839034   64.497719    0.000000    0.000000    0.000000    0.000000
  0.012605210  -35.174265   33.914497  -65.721833   67.337250    0.000000    0.000000    0.000000    0.000000
  0.012805611  -34.440420   34.226475  -68.588750   64.295120    0.000000    0.000000    0.000000    0.000000
  0.013006012  -35.238108   33.228653  -65.227288   80.804497    0.000000    0.000000    0.000000    0.000000
  0.013206413  -34.738332   30.883360  -68.257417   80.833176    0.000000    0.000000    0.000000    0.000000
  0.013406814  -35.191365   31.793329  -66.393893   75.829742    0.000000    0.000000    0.000000    0.000000
  0.013607214  -35.177817   31.353537  -66.587888   74.731567    0.000000    0.000000    0.000000    0.000000
  0.013807615  -35.363435   31.267059  -66.906814   68.000336    0.000000    0.000000    0.000000    0.000000
  0.014008016  -35.458317   29.380835  -65.199703   72.017136    0.000000    0.000000    0.000000    0.000000
  0.014208417  -33.630916   27.355043  -67.936220   73.189346    0.000000    0.000000    0.000000    0.000000
  0.014408818  -35.027877   29.515497  -67.472827   74.468170    0.000000    0.000000    0.000000    0.000000
  0.014609218  -34.672756   26.127996  -65.932374   71.871964    0.000000    0.000000    0.000000    0.000000
  0.014809619  -34.740749   25.203276  -65.132722   75.527031    0.000000    0.000000    0.000000    0.000000
  0.015010020  -34.656696   24.918114  -65.197462   68.813927    0.000000    0.000000    0.000000    0.000000
  0.015210421  -35.137023   21.657206  -67.392068   78.514320    0.000000    0.000000    0.000000    0.000000
  0.015410822  -34.941667   21.022642  -64.794319   77.185638    0.000000    0.000000    0.000000    0.000000
  0.015611222  -34.028483   20.165714  -66.992676   90.075043    0.000000    0.000000    0.000000    0.000000
  0.015811623  -34.496105   18.722944  -66.082694   81.412704    0.000000    0.000000    0.000000    0.000000
  0.016012024  -34.889231   17.665550  -64.938804   68.850693    0.000000    0.000000    0.000000    0.000000
  0.016212425  -35.352643   19.225405  -66.582398   89.251816    0.000000    0.000000    0.000000    0.000000
  0.016412826  -34.692060   14.265769  -65.462189   76.871376    0.000000    0.000000    0.000000    0.000000
  0.016613226  -34.148879   14.157766  -68.765791   99.058189    0.000000    0.000000    0.000000    0.000000
  0.016813627  -35.748558   10.386653  -67.126401   89.410110    0.000000    0.000000    0.000000    0.000000
  0.017014028  -34.590433   10.436413  -66.040783   74.914146    0.000000    0.000000    0.000000    0.000000
  0.017214429  -34.468805   10.775978  -66.173242   82.249573    0.000000    0.000000    0.000000    0.000000
  0.017414830  -34.441930   11.720105  -67.028406   82.985725    0.000000    0.000000    0.000000    0.000000
  0.017615230  -34.739186    8.692019  -67.340067   76.118401    0.000000    0.000000    0.000000    0.000000
  0.017815631  -34.421900    6.585897  -67.120111   91.360886    0.000000    0.000000    0.000000    0.000000
  0.018016032  -34.177951    8.627666  -66.458201   92.074776    0.000000    0.000000    0.000000    0.000000
  0.018216433  -34.298905    9.387662  -68.094374   99.139069    0.000000    0.000000    0.000000    0.000000
  0.018416834  -34.203731    4.312202  -67.577905  112.067619    0.000000    0.000000    0.000000    0.000000
  0.018617234  -34.369903    5.367671  -65.191015  103.548149    0.000000    0.000000    0.000000    0.000000
  0.018817635  -34.064731    4.099798  -65.049175  104.631157    0.000000    0.000000    0.000000    0.000000
  0.019018036  -34.235855    3.619028  -65.900497   84.557205    0.000000    0.000000    0.000000    0.000000
  0.019218437  -34.616292    1.025692  -66.582692   90.125496    0.000000    0.000000    0.000000    0.000000
  0.019418838  -34.199752    0.318127  -66.590838  105.754166    0.000000    0.000000    0.000000    0.000000
  0.019619238  -34.469377   -0.424807  -69.333765  108.955048    0.000000    0.000000    0.000000    0.000000
  0.019819639  -33.599831    0.230168  -66.837687   98.651337    0.000000    0.000000    0.000000    0.000000
  0.020020040  -33.619445   -5.732254  -67.166562   94.559113    0.000000    0.000000    0.000000    0.000000
  0.020220441  -33.567619   -7.516439  -67.874848  120.148781    0.000000    0.000000    0.000000    0.000000
  0.020420842  -33.824878   -5.451508  -69.084466  105.023758    0.000000    0.000000    0.000000    0.000000
  0.020621242  -33.753826   -7.203332  -67.758835   89.569710    0.000000    0.000000    0.000000    0.000000
  0.020821643  -33.457279  -10.306478  -66.019385  102.879349    0.000000    0.000000    0.000000    0.000000
  0.021022044  -34.179950  -10.432978  -66.754501  104.949860    0.000000    0.000000    0.000000    0.000000
  0.021222445  -33.695101   -9.303776  -69.750927  122.678284    0.000000    0.000000    0.000000    0.000000
  0.021422846  -33.473481  -13.135942  -69.204765  108.702896    0.000000    0.000000    0.000000    0.000000
  0.021623246  -33.504809  -10.891439  -70.612675  108.270103    0.000000    0.000000    0.000000    0.000000
  0.021823647  -33.354364  -20.717278  -64.486353  101.882416    0.000000    0.000000    0.000000    0.000000
  0.022024048  -33.356515  -14.006274  -66.778742   87.420647    0.000000    0.000000    0.000000    0.000000
  0.022224449  -33.030509  -17.712275  -66.556116  122.938087    0.000000    0.000000    0.000000    0.000000
  0.022424850  -33.182556  -17.441660  -66.746749  113.322243    0.000000    0.000000    0.000000    0.000000
  0.022625251  -33.026071  -17.683231  -66.816074  131.159210    0.000000    0.000000    0.000000    0.000000
  0.022825651  -32.858767  -21.690287  -65.616755  105.301399    0.000000    0.000000    0.000000    0.000000
  0.023026052  -32.841992  -22.495293  -67.490281  126.646255    0.000000    0.000000    0.000000    0.000000
  0.023226453  -32.861717  -18.648056  -65.764818  114.269066    0.000000    0.000000    0.000000    0.000000
  0.023426854  -32.790202  -22.332571  -67.525226  112.265938    0.000000    0.000000    0.000000    0.000000
  0.023627255  -32.854916  -21.852961  -68.852155  125.174171    0.000000    0.000000    0.000000    0.000000
  0.023827655  -32.711751  -26.896326  -67.512413  112.090912    0.000000    0.000000    0.000000    0.000000
  0.024028056  -32.486387  -26.756870  -68.545859  129.297485    0.000000    0.000000    0.000000    0.000000
  0.024228457  -32.816645  -30.028624  -69.708298  115.616867    0.000000    0.000000    0.000000    0.000000
  0.024428858  -32.556500  -26.503494  -69.032361  121.346138    0.000000    0.000000    0.000000    0.000000
  0.024629259  -32.683569  -26.637007  -66.281978  112.977531    0.000000    0.000000    0.000000    0.000000
  0.024829659  -32.482262  -31.776352  -65.262897  152.400848    0.000000    0.000000    0.000000    0.000000
  0.025030060  -32.228945  -32.747299  -63.738304  143.010391    0.000000    0.000000    0.000000    0.000000
  0.025230461  -32.202872  -33.265766  -65.719046  176.959717    0.000000    0.000000    0.000000    0.000000
  0.025430862  -32.008287  -34.912113  -66.166242  152.870285    0.000000    0.000000    0.000000    0.000000
  0.025631263  -32.226486  -34.375404  -65.698030  154.810425    0.000000    0.000000    0.000000    0.000000
  0.025831663  -31.871153  -34.545540  -65.071756  150.616776    0.000000    0.000000    0.000000    0.000000
  0.026032064  -32.267333  -36.476547  -63.863022  141.581451    0.000000    0.000000    0.000000    0.000000
  0.026232465  -32.084785  -37.670155  -65.888741  165.789276    0.000000    0.000000    0.000000    0.000000
  0.026432866  -31.753300  -38.217670  -67.064215  142.862000    0.000000    0.000000    0.000000    0.000000
  0.026633267  -31.705949  -39.967884  -65.516467  158.681686    0.000000    0.000000    0.000000    0.000000
  0.026833667  -31.201490  -45.648975  -64.339280  165.022675    0.000000    0.000000    0.000000    0.000000
  0.027034068  -31.186095  -41.251144  -69.859156  167.360840    0.000000    0.000000    0.000000    0.000000
  0.027234469  -31.628676  -45.298424  -67.301479  162.370209    0.000000    0.000000    0.000000    0.000000
  0.027434870  -31.365154  -43.996368  -67.619574  153.820404    0.000000    0.000000    0.000000    0.000000
  0.027635271  -31.359444  -46.149372  -64.127834  158.598236    0.000000    0.000000    0.000000    0.000000
  0.027835671  -30.539509  -46.784405  -66.501062  158.191345    0.000000    0.000000    0.000000    0.000000
  0.028036072  -31.449805  -47.393269  -64.910468  147.718597    0.000000    0.000000    0.000000    0.000000
  0.028236473  -31.140809  -47.856106  -67.859345  163.355728    0.000000    0.000000    0.000000    0.000000
  0.028436874  -31.245661  -47.698067  -66.442931  154.616913    0.000000    0.000000    0.000000    0.000000
  0.028637275  -30.933525  -48.936638  -66.727856  161.758804    0.000000    0.000000    0.000000    0.000000
  0.028837675  -30.742404  -50.811440  -69.176510  173.720779    0.000000    0.000000    0.000000    0.000000
  0.029038076  -31.148818  -50.999092  -66.613383  164.826599    0.000000    0.000000    0.000000    0.000000
  0.029238477  -29.687298  -55.463970  -69.173373 -179.034088    0.000000    0.000000    0.000000    0.000000
  0.029438878  -30.418183  -52.577259  -66.733280  170.326141    0.000000    0.000000    0.000000    0.000000
  0.029639279  -30.223270  -54.854126  -66.222298  169.761444    0.000000    0.000000    0.000000    0.000000
  0.029839679  -30.242070  -58.387905  -68.099068  164.446960    0.000000    0.000000    0.000000    0.000000
  0.030040080  -29.986004  -57.239037  -64.487316  164.790192    0.000000    0.000000    0.000000    0.000000
  0.030240481  -30.147243  -59.526493  -66.577702  157.783722    0.000000    0.000000    0.000000    0.000000
  0.030440882  -29.951275  -62.017563  -66.337687 -169.036758    0.000000    0.000000    0.000000    0.000000
  0.030641283  -29.483613  -59.862892  -65.414406  168.186020    0.000000    0.000000    0.000000    0.000000
  0.030841683  -29.675764  -60.168892  -66.844148  172.894302    0.000000    0.000000    0.000000    0.000000
  0.031042084  -29.687786  -63.530315  -67.621735  161.488235    0.000000    0.000000    0.000000    0.000000
  0.031242485  -29.394324  -64.543343  -65.359047  171.249237    0.000000    0.000000    0.000000    0.000000
  0.031442886  -29.474107  -62.150787  -66.083688  161.222885    0.000000    0.000000    0.000000    0.000000
  0.031643287  -29.682473  -62.181183  -67.587150  177.163315    0.000000    0.000000    0.000000    0.000000
  0.031843687  -29.386921  -68.381630  -66.480857  170.969147    0.000000    0.000000    0.000000    0.000000
  0.032044088  -29.127428  -68.744202  -65.413932 -173.205048    0.000000    0.000000    0.000000    0.000000
  0.032244489  -29.110503  -66.536194  -66.856375  174.135071    0.000000    0.000000    0.000000    0.000000
  0.032444890  -29.434438  -66.000557  -66.562052  171.009918    0.000000    0.000000    0.000000    0.000000
  0.032645291  -28.966327  -68.561134  -66.959705  175.610031    0.000000    0.000000    0.000000    0.000000
  0.032845691  -28.835715  -67.597519  -66.629485  163.582901    0.000000    0.000000    0.000000    0.000000
  0.033046092  -29.180802  -70.692680  -67.856304  179.214188    0.000000    0.000000    0.000000    0.000000
  0.033246493  -28.848770  -70.108170  -64.858521 -172.964294    0.000000    0.000000    0.000000    0.000000
  0.033446894  -28.814513  -72.437233  -66.484648 -170.963196    0.000000    0.000000    0.000000    0.000000
  0.033647295  -28.789805  -71.194511  -67.287757 -162.268005    0.000000    0.000000    0.000000    0.000000
  0.033847695  -28.420555  -73.839287  -65.669019 -163.879257    0.000000    0.000000    0.000000    0.000000
  0.034048096  -28.579224  -73.047531  -65.400866 -178.419708    0.000000    0.000000    0.000000    0.000000
  0.034248497  -27.996223  -72.906082  -68.112567 -174.027527    0.000000    0.000000    0.000000    0.000000
  0.034448898  -27.971472  -75.500298  -68.362743 -174.794586    0.000000    0.000000    0.000000    0.000000
  0.034649299  -28.243127  -73.992500  -67.289274 -162.237930    0.000000    0.000000    0.000000    0.000000
  0.034849699  -27.860308  -76.975708  -65.514107 -178.669525    0.000000    0.000000    0.000000    0.000000
  0.035050100  -28.268071  -78.856178  -65.859629  173.277847    0.000000    0.000000    0.000000    0.000000
  0.035250501  -27.787912  -77.962219  -65.865427 -165.635712    0.000000    0.000000    0.000000    0.000000
  0.035450902  -28.250104  -79.893959  -68.490386 -165.779327    0.000000    0.000000    0.000000    0.000000
  0.035651303  -27.989853  -80.470123  -68.031165 -167.058945    0.000000    0.000000    0.000000    0.000000
  0.035851703  -27.896063  -81.019806  -67.410232 -170.086929    0.000000    0.000000    0.000000    0.000000
  0.036052104  -27.474294  -80.988586  -68.465924 -171.033691    0.000000    0.000000    0.000000    0.000000
  0.036252505  -27.500708  -81.963417  -67.613835 -167.357559    0.000000    0.000000    0.000000    0.000000
  0.036452906  -27.662491  -83.704376  -67.139658 -154.505920    0.000000    0.000000    0.000000    0.000000
  0.036653307  -27.485548  -83.397179  -67.973859 -165.748947    0.000000    0.000000    0.000000    0.000000
  0.036853707  -27.773272  -85.559097  -66.506451 -149.506622    0.000000    0.000000    0.000000    0.000000
  0.037054108  -27.242573  -83.867729  -67.128811 -160.485107    0.000000    0.000000    0.000000    0.000000
  0.037254509  -26.920046  -84.343323  -67.809172 -158.631866    0.000000    0.000000    0.000000    0.000000
  0.037454910  -27.084869  -84.234871  -66.617519 -165.673950    0.000000    0.000000    0.000000    0.000000
  0.037655311  -27.105731  -87.199020  -65.486794 -169.361359    0.000000    0.000000    0.000000    0.000000
  0.037855711  -27.087924  -86.338058  -67.623471 -149.042145    0.000000    0.000000    0.000000    0.000000
  0.038056112  -27.253373  -89.893646  -64.292142 -152.782181    0.000000    0.000000    0.000000    0.000000
  0.038256513  -26.805974  -87.656921  -67.406771 -155.315765    0.000000    0.000000    0.000000    0.000000
  0.038456914  -26.721881  -88.683907  -66.171335 -154.622559    0.000000    0.000000    0.000000    0.000000
  0.038657315  -26.843131  -88.711205  -67.548112 -168.089050    0.000000    0.000000    0.000000    0.000000
  0.038857715  -26.789138  -90.046524  -67.206192 -154.868927    0.000000    0.000000    0.000000    0.000000
  0.039058116  -26.750178  -89.809990  -68.304228 -143.137131    0.000000    0.000000    0.000000    0.000000
  0.039258517  -26.712245  -93.250061  -67.033838 -145.191742    0.000000    0.000000    0.000000    0.000000
  0.039458918  -26.448735  -90.600304  -66.146509 -151.566116    0.000000    0.000000    0.000000    0.000000
  0.039659319  -26.492333  -93.690529  -65.772324 -160.975876    0.000000    0.000000    0.000000    0.000000
  0.039859719  -26.541514  -93.400795  -67.289071 -150.669846    0.000000    0.000000    0.000000    0.000000
  0.040060120  -26.588323  -93.625626  -65.832270 -136.741959    0.000000    0.000000    0.000000    0.000000
  0.040260521  -26.504790  -94.533249  -68.762523 -148.337509    0.000000    0.000000    0.000000    0.000000
  0.040460922  -26.600334  -95.374496  -67.122052 -138.665924    0.000000    0.000000    0.000000    0.000000
  0.040661323  -26.298730  -97.122879  -68.737961 -146.594391    0.000000    0.000000    0.000000    0.000000
  0.040861723  -26.139559  -95.751564  -65.680192 -150.624329    0.000000    0.000000    0.000000    0.000000
  0.041062124  -26.205735  -96.639404  -66.229574 -155.342865    0.000000    0.000000    0.000000    0.000000
  0.041262525  -26.003299  -98.370468  -67.242011 -154.610291    0.000000    0.000000    0.000000    0.000000
  0.041462926  -26.027877  -98.011040  -67.977561 -146.067932    0.000000    0.000000    0.000000    0.000000
  0.041663327  -26.023875  -99.410599  -66.843220 -134.561996    0.000000    0.000000    0.000000    0.000000
  0.041863727  -25.706857  -99.798828  -66.404453 -147.552948    0.000000    0.000000    0.000000    0.000000
  0.042064128  -25.796246 -100.449295  -68.886144 -129.543610    0.000000    0.000000    0.000000    0.000000
  0.042264529  -25.785029 -100.007797  -67.137071 -141.014053    0.000000    0.000000    0.000000    0.000000
  0.042464930  -25.639260 -100.758865  -71.146395 -142.012848    0.000000    0.000000    0.000000    0.000000
  0.042665331  -25.800934 -102.404510  -66.502642 -139.565399    0.000000    0.000000    0.000000    0.000000
  0.042865731  -25.604438 -102.922806  -69.081483 -137.442551    0.000000    0.000000    0.000000    0.000000
