! Anritsu VNA Master:                 Model: MS2034B/10/19/501
! SN:                                  1337062
! /bd0/ovro-jan-2016/vna-jan/vna-ant254-c2-s11-2.s2p
! Existing Calibration Information:
! TYPE:                         Current Settings,       Active Cal Settings
! TIME:             	   01/13/2016 05:38:21 PM,    01/13/2016 05:04:46 PM
! INTERNAL TEMP:    	                   42.0 C,                    41.8 C
! # POINTS:         	                      500,                       500
! START FREQ:       	               10.000 MHz,                10.000 MHz
! STOP FREQ:        	              110.000 MHz,               110.000 MHz
! SOURCE POWER:     	                     High,                      High
! IFBW:             	                   100 Hz,                    100 Hz
! AVG FACTOR:       	                       4 ,                        4 
! REF PLANE 1:      	                     0 mm,                      0 mm
! REF PLANE 2:      	                     0 mm,                      0 mm
! CAL TYPE:         	                 Full S11,                  Full S11
! CAL METHOD:       	                     SOLT,                      SOLT
! CAL LINE TYPE:    	                     Coax,                      Coax
! DUT PORT 1:       	                K-Conn(M),                 K-Conn(M)
! DUT PORT 2:       	                N-Conn(M),                 N-Conn(M)
! CAL STATUS:       	        OK: Accuracy High,                        --
# GHZ S DB R 50.0
! FREQ.GHZ       S11DB        S11A       S21DB        S21A       S12DB        S12A       S22DB        S22A
  0.010000000   -0.587004  -46.501926 -105.264380  147.513397    0.000000    0.000000    0.000000    0.000000
  0.010200401   -0.571449  -47.498035 -105.470482  153.926453    0.000000    0.000000    0.000000    0.000000
  0.010400802   -0.560192  -48.515228 -105.753160  150.723389    0.000000    0.000000    0.000000    0.000000
  0.010601202   -0.544466  -49.404202 -103.374253  149.261566    0.000000    0.000000    0.000000    0.000000
  0.010801603   -0.550600  -50.420963 -103.972296  145.843079    0.000000    0.000000    0.000000    0.000000
  0.011002004   -0.539772  -51.331516 -104.093997  149.435013    0.000000    0.000000    0.000000    0.000000
  0.011202405   -0.546300  -52.412388 -103.915805  140.599854    0.000000    0.000000    0.000000    0.000000
  0.011402806   -0.546006  -53.428886 -103.878298  152.564850    0.000000    0.000000    0.000000    0.000000
  0.011603206   -0.547623  -54.445366 -102.440755  147.037262    0.000000    0.000000    0.000000    0.000000
  0.011803607   -0.547023  -55.381073 -103.973021  144.944183    0.000000    0.000000    0.000000    0.000000
  0.012004008   -0.543079  -56.537457 -102.382081  136.385132    0.000000    0.000000    0.000000    0.000000
  0.012204409   -0.543300  -57.529800 -103.507990  143.174667    0.000000    0.000000    0.000000    0.000000
  0.012404810   -0.528251  -58.547882 -102.368022  150.482208    0.000000    0.000000    0.000000    0.000000
  0.012605210   -0.533936  -59.578793 -103.410693  140.314743    0.000000    0.000000    0.000000    0.000000
  0.012805611   -0.528488  -60.613174 -103.619847  144.830612    0.000000    0.000000    0.000000    0.000000
  0.013006012   -0.537886  -61.560490 -102.935074  135.656754    0.000000    0.000000    0.000000    0.000000
  0.013206413   -0.526976  -62.650349 -103.058490  137.347000    0.000000    0.000000    0.000000    0.000000
  0.013406814   -0.526756  -63.682320 -104.005912  131.847626    0.000000    0.000000    0.000000    0.000000
  0.013607214   -0.526962  -64.761086 -103.611526  136.718353    0.000000    0.000000    0.000000    0.000000
  0.013807615   -0.523317  -65.837677 -103.632887  143.021103    0.000000    0.000000    0.000000    0.000000
  0.014008016   -0.518470  -66.905449 -104.534713  136.541306    0.000000    0.000000    0.000000    0.000000
  0.014208417   -0.531651  -68.008743 -104.432154  137.565872    0.000000    0.000000    0.000000    0.000000
  0.014408818   -0.506930  -69.051277 -104.770723  133.557739    0.000000    0.000000    0.000000    0.000000
  0.014609218   -0.500982  -70.101273 -104.405186  130.333359    0.000000    0.000000    0.000000    0.000000
  0.014809619   -0.492047  -71.142479 -105.180006  131.038452    0.000000    0.000000    0.000000    0.000000
  0.015010020   -0.489284  -72.172707 -106.071852  136.358948    0.000000    0.000000    0.000000    0.000000
  0.015210421   -0.486236  -73.184258 -105.630784  133.270172    0.000000    0.000000    0.000000    0.000000
  0.015410822   -0.486834  -74.223305 -105.124102  130.482269    0.000000    0.000000    0.000000    0.000000
  0.015611222   -0.493803  -75.331970 -106.261258  130.958862    0.000000    0.000000    0.000000    0.000000
  0.015811623   -0.492328  -76.383194 -106.549770  131.942978    0.000000    0.000000    0.000000    0.000000
  0.016012024   -0.495311  -77.458153 -105.679075  130.496475    0.000000    0.000000    0.000000    0.000000
  0.016212425   -0.498383  -78.584976 -107.218494  130.760437    0.000000    0.000000    0.000000    0.000000
  0.016412826   -0.499520  -79.681099 -107.972883  134.157730    0.000000    0.000000    0.000000    0.000000
  0.016613226   -0.497475  -80.822151 -106.293060  142.995422    0.000000    0.000000    0.000000    0.000000
  0.016813627   -0.505374  -81.990349 -106.805717  137.603882    0.000000    0.000000    0.000000    0.000000
  0.017014028   -0.503649  -83.068863 -107.235672  138.738831    0.000000    0.000000    0.000000    0.000000
  0.017214429   -0.509171  -84.234512 -106.146279  150.278000    0.000000    0.000000    0.000000    0.000000
  0.017414830   -0.508778  -85.401932 -109.439189  152.790024    0.000000    0.000000    0.000000    0.000000
  0.017615230   -0.510510  -86.570862 -106.645899  143.474442    0.000000    0.000000    0.000000    0.000000
  0.017815631   -0.505356  -87.749222 -106.516965  142.296051    0.000000    0.000000    0.000000    0.000000
  0.018016032   -0.497880  -88.974533 -107.476587  147.711655    0.000000    0.000000    0.000000    0.000000
  0.018216433   -0.497649  -90.155396 -106.811044  142.923737    0.000000    0.000000    0.000000    0.000000
  0.018416834   -0.490145  -91.295616 -106.590083  147.334030    0.000000    0.000000    0.000000    0.000000
  0.018617234   -0.482195  -92.498108 -105.783233  152.951950    0.000000    0.000000    0.000000    0.000000
  0.018817635   -0.474181  -93.642967 -105.771233  153.319916    0.000000    0.000000    0.000000    0.000000
  0.019018036   -0.466389  -94.846207 -105.489430  140.060699    0.000000    0.000000    0.000000    0.000000
  0.019218437   -0.449281  -96.036087 -106.297389  146.917511    0.000000    0.000000    0.000000    0.000000
  0.019418838   -0.448085  -97.217056 -105.327274  151.650497    0.000000    0.000000    0.000000    0.000000
  0.019619238   -0.444259  -98.416084 -105.042610  146.733597    0.000000    0.000000    0.000000    0.000000
  0.019819639   -0.434071  -99.605293 -104.440710  140.385757    0.000000    0.000000    0.000000    0.000000
  0.020020040   -0.428925 -100.803009 -105.722927  139.513168    0.000000    0.000000    0.000000    0.000000
  0.020220441   -0.422012 -101.976967 -104.181812  138.905167    0.000000    0.000000    0.000000    0.000000
  0.020420842   -0.416922 -103.137459 -106.499997  138.919617    0.000000    0.000000    0.000000    0.000000
  0.020621242   -0.412876 -104.334984 -104.107692  142.736221    0.000000    0.000000    0.000000    0.000000
  0.020821643   -0.419578 -105.560410 -104.275747  148.581390    0.000000    0.000000    0.000000    0.000000
  0.021022044   -0.413762 -106.736412 -104.511067  148.280655    0.000000    0.000000    0.000000    0.000000
  0.021222445   -0.425857 -108.033684 -105.795762  141.300903    0.000000    0.000000    0.000000    0.000000
  0.021422846   -0.428613 -109.289177 -105.726629  138.047134    0.000000    0.000000    0.000000    0.000000
  0.021623246   -0.431810 -110.555817 -105.475199  144.453674    0.000000    0.000000    0.000000    0.000000
  0.021823647   -0.429375 -111.819832 -104.996804  137.781601    0.000000    0.000000    0.000000    0.000000
  0.022024048   -0.423560 -113.194008 -105.591887  141.072479    0.000000    0.000000    0.000000    0.000000
  0.022224449   -0.420356 -114.476944 -105.834537  140.001129    0.000000    0.000000    0.000000    0.000000
  0.022424850   -0.422242 -115.785736 -105.900014  138.027893    0.000000    0.000000    0.000000    0.000000
  0.022625251   -0.415352 -117.043648 -105.763328  141.874374    0.000000    0.000000    0.000000    0.000000
  0.022825651   -0.415030 -118.344788 -105.504587  139.339890    0.000000    0.000000    0.000000    0.000000
  0.023026052   -0.423786 -119.601746 -105.266444  142.611679    0.000000    0.000000    0.000000    0.000000
  0.023226453   -0.423392 -120.940247 -106.461461  133.084732    0.000000    0.000000    0.000000    0.000000
  0.023426854   -0.429714 -122.237083 -104.676674  135.153885    0.000000    0.000000    0.000000    0.000000
  0.023627255   -0.437120 -123.615837 -105.056294  138.244049    0.000000    0.000000    0.000000    0.000000
  0.023827655   -0.442363 -124.949516 -107.138982  137.609299    0.000000    0.000000    0.000000    0.000000
  0.024028056   -0.444422 -126.338013 -106.206756  137.733078    0.000000    0.000000    0.000000    0.000000
  0.024228457   -0.453113 -127.712158 -107.615448  145.089981    0.000000    0.000000    0.000000    0.000000
  0.024428858   -0.448130 -129.070267 -106.413193  141.838226    0.000000    0.000000    0.000000    0.000000
  0.024629259   -0.451226 -130.430984 -106.360525  133.068176    0.000000    0.000000    0.000000    0.000000
  0.024829659   -0.451262 -131.793274 -107.625189  141.611359    0.000000    0.000000    0.000000    0.000000
  0.025030060   -0.460389 -133.147141 -108.636098  149.898422    0.000000    0.000000    0.000000    0.000000
  0.025230461   -0.475776 -134.538788 -106.699726  148.470352    0.000000    0.000000    0.000000    0.000000
  0.025430862   -0.498030 -135.992966 -107.622782  146.711090    0.000000    0.000000    0.000000    0.000000
  0.025631263   -0.512903 -137.400452 -108.553382  148.382874    0.000000    0.000000    0.000000    0.000000
  0.025831663   -0.536158 -138.916840 -107.851541  141.649139    0.000000    0.000000    0.000000    0.000000
  0.026032064   -0.548448 -140.389999 -106.361185  142.567490    0.000000    0.000000    0.000000    0.000000
  0.026232465   -0.557107 -141.930969 -107.974306  134.927948    0.000000    0.000000    0.000000    0.000000
  0.026432866   -0.568683 -143.420517 -108.174359  152.303009    0.000000    0.000000    0.000000    0.000000
  0.026633267   -0.579407 -144.914368 -106.920646  153.510712    0.000000    0.000000    0.000000    0.000000
  0.026833667   -0.580953 -146.498337 -105.982884  145.122650    0.000000    0.000000    0.000000    0.000000
  0.027034068   -0.597869 -147.878738 -105.812313  147.615707    0.000000    0.000000    0.000000    0.000000
  0.027234469   -0.610347 -149.428177 -106.226819  145.659393    0.000000    0.000000    0.000000    0.000000
  0.027434870   -0.628842 -150.889557 -106.222248  150.764664    0.000000    0.000000    0.000000    0.000000
  0.027635271   -0.639566 -152.426575 -106.378740  131.525970    0.000000    0.000000    0.000000    0.000000
  0.027835671   -0.660840 -153.960449 -105.955988  150.430069    0.000000    0.000000    0.000000    0.000000
  0.028036072   -0.669155 -155.517349 -104.758969  138.120392    0.000000    0.000000    0.000000    0.000000
  0.028236473   -0.692964 -157.062378 -105.239230  142.299438    0.000000    0.000000    0.000000    0.000000
  0.028436874   -0.711738 -158.620728 -104.803295  146.892365    0.000000    0.000000    0.000000    0.000000
  0.028637275   -0.731528 -160.192154 -106.647451  143.584641    0.000000    0.000000    0.000000    0.000000
  0.028837675   -0.748398 -161.751022 -107.737092  136.210251    0.000000    0.000000    0.000000    0.000000
  0.029038076   -0.770636 -163.329956 -105.290971  130.289200    0.000000    0.000000    0.000000    0.000000
  0.029238477   -0.786652 -164.877213 -105.083438  143.677750    0.000000    0.000000    0.000000    0.000000
  0.029438878   -0.814957 -166.484879 -106.670050  130.777344    0.000000    0.000000    0.000000    0.000000
  0.029639279   -0.841785 -168.085922 -106.090496  139.666809    0.000000    0.000000    0.000000    0.000000
  0.029839679   -0.868220 -169.703979 -105.817619  148.209167    0.000000    0.000000    0.000000    0.000000
  0.030040080   -0.895298 -171.328995 -105.884241  148.685165    0.000000    0.000000    0.000000    0.000000
  0.030240481   -0.925754 -172.973587 -106.044628  143.214828    0.000000    0.000000    0.000000    0.000000
  0.030440882   -0.957600 -174.631027 -106.734487  136.626419    0.000000    0.000000    0.000000    0.000000
  0.030641283   -0.981799 -176.280289 -107.041970  139.390656    0.000000    0.000000    0.000000    0.000000
  0.030841683   -1.010394 -177.980270 -105.454502  143.368027    0.000000    0.000000    0.000000    0.000000
  0.031042084   -1.047461 -179.641968 -107.532475  150.402863    0.000000    0.000000    0.000000    0.000000
  0.031242485   -1.077818  178.684753 -106.830632  141.647614    0.000000    0.000000    0.000000    0.000000
  0.031442886   -1.114891  176.974854 -107.848129  146.749756    0.000000    0.000000    0.000000    0.000000
  0.031643287   -1.148305  175.262299 -106.293493  149.005814    0.000000    0.000000    0.000000    0.000000
  0.031843687   -1.187364  173.532715 -106.391560  132.185593    0.000000    0.000000    0.000000    0.000000
  0.032044088   -1.227319  171.790771 -107.608227  140.500626    0.000000    0.000000    0.000000    0.000000
  0.032244489   -1.267361  170.032715 -108.045179  146.705872    0.000000    0.000000    0.000000    0.000000
  0.032444890   -1.307781  168.291855 -106.781150  144.713150    0.000000    0.000000    0.000000    0.000000
  0.032645291   -1.350018  166.503082 -106.981660  149.082138    0.000000    0.000000    0.000000    0.000000
  0.032845691   -1.396480  164.733368 -107.151523  153.573700    0.000000    0.000000    0.000000    0.000000
  0.033046092   -1.443352  162.907013 -105.912606  139.741669    0.000000    0.000000    0.000000    0.000000
  0.033246493   -1.491448  161.080734 -107.866002  138.535919    0.000000    0.000000    0.000000    0.000000
  0.033446894   -1.538719  159.230377 -107.597037  151.233368    0.000000    0.000000    0.000000    0.000000
  0.033647295   -1.583989  157.356995 -105.952181  143.832550    0.000000    0.000000    0.000000    0.000000
  0.033847695   -1.625505  155.496384 -107.258895  145.643951    0.000000    0.000000    0.000000    0.000000
  0.034048096   -1.667292  153.633743 -106.862438  144.489960    0.000000    0.000000    0.000000    0.000000
  0.034248497   -1.707394  151.767288 -106.763866  147.055618    0.000000    0.000000    0.000000    0.000000
  0.034448898   -1.752787  149.932404 -107.173425  152.094177    0.000000    0.000000    0.000000    0.000000
  0.034649299   -1.802579  148.105835 -106.753717  148.290634    0.000000    0.000000    0.000000    0.000000
  0.034849699   -1.850218  146.244553 -105.869289  140.421432    0.000000    0.000000    0.000000    0.000000
  0.035050100   -1.898238  144.400726 -105.983019  142.274231    0.000000    0.000000    0.000000    0.000000
  0.035250501   -1.951489  142.538025 -105.382952  142.652786    0.000000    0.000000    0.000000    0.000000
  0.035450902   -2.005830  140.650146 -106.121358  134.791550    0.000000    0.000000    0.000000    0.000000
  0.035651303   -2.060523  138.706543 -106.351454  144.140762    0.000000    0.000000    0.000000    0.000000
  0.035851703   -2.110911  136.814117 -106.092210  142.946426    0.000000    0.000000    0.000000    0.000000
  0.036052104   -2.160408  134.943787 -104.732934  138.814468    0.000000    0.000000    0.000000    0.000000
  0.036252505   -2.208370  133.010864 -105.151374  131.780914    0.000000    0.000000    0.000000    0.000000
  0.036452906   -2.262517  131.130005 -104.609904  143.116287    0.000000    0.000000    0.000000    0.000000
  0.036653307   -2.322899  129.353485 -106.388959  135.145401    0.000000    0.000000    0.000000    0.000000
  0.036853707   -2.375230  127.435699 -105.359778  136.462952    0.000000    0.000000    0.000000    0.000000
  0.037054108   -2.437358  125.536476 -105.372810  144.721359    0.000000    0.000000    0.000000    0.000000
  0.037254509   -2.478354  123.552368 -105.671734  135.117386    0.000000    0.000000    0.000000    0.000000
  0.037454910   -2.553849  121.649796 -105.977990  140.368668    0.000000    0.000000    0.000000    0.000000
  0.037655311   -2.609292  119.710609 -106.218784  139.065948    0.000000    0.000000    0.000000    0.000000
  0.037855711   -2.647276  117.758064 -105.790733  136.151962    0.000000    0.000000    0.000000    0.000000
  0.038056112   -2.718267  115.882790 -104.963823  134.993118    0.000000    0.000000    0.000000    0.000000
  0.038256513   -2.750714  113.990150 -105.028876  140.466064    0.000000    0.000000    0.000000    0.000000
  0.038456914   -2.820784  112.104103 -105.008273  141.420135    0.000000    0.000000    0.000000    0.000000
  0.038657315   -2.854811  110.306053 -105.526172  145.526871    0.000000    0.000000    0.000000    0.000000
  0.038857715   -2.906488  108.474930 -105.716172  136.618881    0.000000    0.000000    0.000000    0.000000
  0.039058116   -2.982636  106.553604 -106.643205  146.218353    0.000000    0.000000    0.000000    0.000000
  0.039258517   -3.040472  104.718849 -106.108459  156.269302    0.000000    0.000000    0.000000    0.000000
  0.039458918   -3.101371  102.867729 -106.699485  146.013962    0.000000    0.000000    0.000000    0.000000
  0.039659319   -3.156131  101.106461 -106.928412  137.942841    0.000000    0.000000    0.000000    0.000000
  0.039859719   -3.219218   99.231171 -106.874052  137.090851    0.000000    0.000000    0.000000    0.000000
  0.040060120   -3.282858   97.240013 -108.021094  145.902802    0.000000    0.000000    0.000000    0.000000
  0.040260521   -3.345023   95.476639 -105.976383  144.462082    0.000000    0.000000    0.000000    0.000000
  0.040460922   -3.400994   93.489845 -107.503795  142.890213    0.000000    0.000000    0.000000    0.000000
  0.040661323   -3.460301   91.731377 -105.591688  141.392059    0.000000    0.000000    0.000000    0.000000
  0.040861723   -3.517618   89.811455 -107.061784  145.987823    0.000000    0.000000    0.000000    0.000000
  0.041062124   -3.578852   87.908974 -106.846128  142.260376    0.000000    0.000000    0.000000    0.000000
  0.041262525   -3.636179   86.039612 -106.708538  140.980988    0.000000    0.000000    0.000000    0.000000
  0.041462926   -3.685536   84.129425 -106.778318  138.566391    0.000000    0.000000    0.000000    0.000000
  0.041663327   -3.733678   82.213905 -106.040373  146.759369    0.000000    0.000000    0.000000    0.000000
  0.041863727   -3.779036   80.352959 -105.908868  141.995132    0.000000    0.000000    0.000000    0.000000
  0.042064128   -3.828337   78.519310 -106.045879  146.514542    0.000000    0.000000    0.000000    0.000000
  0.042264529   -3.866869   76.657951 -105.975162  134.486938    0.000000    0.000000    0.000000    0.000000
  0.042464930   -3.918998   74.827797 -106.555936  139.442703    0.000000    0.000000    0.000000    0.000000
  0.042665331   -3.963510   72.971039 -105.644166  135.797363    0.000000    0.000000    0.000000    0.000000
  0.042865731   -4.001327   71.134163 -105.275136  133.760254    0.000000    0.000000    0.000000    0.000000
