! Anritsu VNA Master:                 Model: MS2034B/10/19/501
! SN:                                  1337062
! /bd0/ovro-jan-2016/vna-jan/vna-ant254-c2-s11.s2p
! Existing Calibration Information:
! TYPE:                         Current Settings,       Active Cal Settings
! TIME:             	   01/13/2016 05:36:23 PM,    01/13/2016 05:04:46 PM
! INTERNAL TEMP:    	                   41.3 C,                    41.8 C
! # POINTS:         	                      500,                       500
! START FREQ:       	               10.000 MHz,                10.000 MHz
! STOP FREQ:        	              110.000 MHz,               110.000 MHz
! SOURCE POWER:     	                     High,                      High
! IFBW:             	                   100 Hz,                    100 Hz
! AVG FACTOR:       	                       4 ,                        4 
! REF PLANE 1:      	                     0 mm,                      0 mm
! REF PLANE 2:      	                     0 mm,                      0 mm
! CAL TYPE:         	                 Full S11,                  Full S11
! CAL METHOD:       	                     SOLT,                      SOLT
! CAL LINE TYPE:    	                     Coax,                      Coax
! DUT PORT 1:       	                K-Conn(M),                 K-Conn(M)
! DUT PORT 2:       	                N-Conn(M),                 N-Conn(M)
! CAL STATUS:       	        OK: Accuracy High,                        --
# GHZ S DB R 50.0
! FREQ.GHZ       S11DB        S11A       S21DB        S21A       S12DB        S12A       S22DB        S22A
  0.010000000   -0.586590  -46.572746 -106.109085  147.204803    0.000000    0.000000    0.000000    0.000000
  0.010200401   -0.570217  -47.575977 -104.721104  151.268875    0.000000    0.000000    0.000000    0.000000
  0.010400802   -0.558507  -48.601337 -105.213082  152.115540    0.000000    0.000000    0.000000    0.000000
  0.010601202   -0.542995  -49.495514 -103.529919  145.808350    0.000000    0.000000    0.000000    0.000000
  0.010801603   -0.545991  -50.498688 -104.050098  147.711304    0.000000    0.000000    0.000000    0.000000
  0.011002004   -0.537485  -51.423389 -104.140400  143.327377    0.000000    0.000000    0.000000    0.000000
  0.011202405   -0.543472  -52.503742 -102.131355  148.029449    0.000000    0.000000    0.000000    0.000000
  0.011402806   -0.545047  -53.517311 -103.354802  147.156509    0.000000    0.000000    0.000000    0.000000
  0.011603206   -0.545870  -54.550831 -104.286576  149.015472    0.000000    0.000000    0.000000    0.000000
  0.011803607   -0.545077  -55.483944 -103.232965  140.245224    0.000000    0.000000    0.000000    0.000000
  0.012004008   -0.540091  -56.642139 -102.299888  145.689758    0.000000    0.000000    0.000000    0.000000
  0.012204409   -0.541389  -57.629852 -102.892212  142.982132    0.000000    0.000000    0.000000    0.000000
  0.012404810   -0.527503  -58.652111 -102.428306  139.634583    0.000000    0.000000    0.000000    0.000000
  0.012605210   -0.531184  -59.681435 -103.321986  137.589355    0.000000    0.000000    0.000000    0.000000
  0.012805611   -0.527343  -60.716316 -103.463085  134.785828    0.000000    0.000000    0.000000    0.000000
  0.013006012   -0.536864  -61.658646 -103.733031  144.268875    0.000000    0.000000    0.000000    0.000000
  0.013206413   -0.527058  -62.752151 -102.657140  140.651825    0.000000    0.000000    0.000000    0.000000
  0.013406814   -0.525485  -63.782375 -102.778597  130.760071    0.000000    0.000000    0.000000    0.000000
  0.013607214   -0.526974  -64.847778 -103.645954  126.805588    0.000000    0.000000    0.000000    0.000000
  0.013807615   -0.522488  -65.923737 -104.092099  135.983276    0.000000    0.000000    0.000000    0.000000
  0.014008016   -0.517501  -66.990585 -104.391164  137.517487    0.000000    0.000000    0.000000    0.000000
  0.014208417   -0.530526  -68.086792 -104.941237  132.600113    0.000000    0.000000    0.000000    0.000000
  0.014408818   -0.507788  -69.127869 -104.511269  129.454651    0.000000    0.000000    0.000000    0.000000
  0.014609218   -0.500703  -70.170662 -105.560520  130.781448    0.000000    0.000000    0.000000    0.000000
  0.014809619   -0.492344  -71.201584 -105.899981  132.679947    0.000000    0.000000    0.000000    0.000000
  0.015010020   -0.488117  -72.227440 -106.420456  127.236969    0.000000    0.000000    0.000000    0.000000
  0.015210421   -0.486115  -73.233421 -106.860275  132.530685    0.000000    0.000000    0.000000    0.000000
  0.015410822   -0.486941  -74.265984 -107.520457  133.802307    0.000000    0.000000    0.000000    0.000000
  0.015611222   -0.493989  -75.371208 -106.194088  136.850647    0.000000    0.000000    0.000000    0.000000
  0.015811623   -0.491379  -76.429001 -108.228245  135.178864    0.000000    0.000000    0.000000    0.000000
  0.016012024   -0.496884  -77.492821 -106.350622  138.566071    0.000000    0.000000    0.000000    0.000000
  0.016212425   -0.499292  -78.606735 -107.894490  144.515610    0.000000    0.000000    0.000000    0.000000
  0.016412826   -0.499475  -79.703232 -107.395695  140.117142    0.000000    0.000000    0.000000    0.000000
  0.016613226   -0.497953  -80.841682 -107.599829  136.462204    0.000000    0.000000    0.000000    0.000000
  0.016813627   -0.505572  -82.012299 -107.046411  135.131119    0.000000    0.000000    0.000000    0.000000
  0.017014028   -0.504853  -83.088936 -106.909517  132.384384    0.000000    0.000000    0.000000    0.000000
  0.017214429   -0.509459  -84.255096 -107.908169  147.100159    0.000000    0.000000    0.000000    0.000000
  0.017414830   -0.508494  -85.421120 -108.452769  150.077591    0.000000    0.000000    0.000000    0.000000
  0.017615230   -0.510543  -86.598030 -108.145568  142.464310    0.000000    0.000000    0.000000    0.000000
  0.017815631   -0.505868  -87.759407 -106.739540  151.091843    0.000000    0.000000    0.000000    0.000000
  0.018016032   -0.499730  -89.016182 -107.193043  142.855896    0.000000    0.000000    0.000000    0.000000
  0.018216433   -0.496048  -90.195808 -106.703995  139.131897    0.000000    0.000000    0.000000    0.000000
  0.018416834   -0.490176  -91.334297 -104.703567  152.259171    0.000000    0.000000    0.000000    0.000000
  0.018617234   -0.483412  -92.540421 -106.231665  144.811630    0.000000    0.000000    0.000000    0.000000
  0.018817635   -0.473826  -93.699318 -105.785791  153.490814    0.000000    0.000000    0.000000    0.000000
  0.019018036   -0.467570  -94.919846 -104.698113  148.740707    0.000000    0.000000    0.000000    0.000000
  0.019218437   -0.450221  -96.111748 -105.326843  141.543488    0.000000    0.000000    0.000000    0.000000
  0.019418838   -0.448735  -97.306587 -105.384812  149.694641    0.000000    0.000000    0.000000    0.000000
  0.019619238   -0.444489  -98.507942 -104.843354  133.691574    0.000000    0.000000    0.000000    0.000000
  0.019819639   -0.434897  -99.708618 -105.030045  142.214600    0.000000    0.000000    0.000000    0.000000
  0.020020040   -0.430000 -100.918755 -105.334145  141.098465    0.000000    0.000000    0.000000    0.000000
  0.020220441   -0.422955 -102.097183 -105.334635  147.126404    0.000000    0.000000    0.000000    0.000000
  0.020420842   -0.417594 -103.267555 -104.379597  147.785065    0.000000    0.000000    0.000000    0.000000
  0.020621242   -0.414478 -104.475494 -104.646301  146.810745    0.000000    0.000000    0.000000    0.000000
  0.020821643   -0.420140 -105.706940 -105.094994  140.334183    0.000000    0.000000    0.000000    0.000000
  0.021022044   -0.416507 -106.896080 -105.092900  143.099884    0.000000    0.000000    0.000000    0.000000
  0.021222445   -0.426619 -108.182907 -104.161619  147.989365    0.000000    0.000000    0.000000    0.000000
  0.021422846   -0.429306 -109.450233 -105.296200  145.461365    0.000000    0.000000    0.000000    0.000000
  0.021623246   -0.431883 -110.713455 -104.665737  137.753159    0.000000    0.000000    0.000000    0.000000
  0.021823647   -0.429231 -111.977631 -104.183932  138.646423    0.000000    0.000000    0.000000    0.000000
  0.022024048   -0.422489 -113.349899 -104.783028  137.553619    0.000000    0.000000    0.000000    0.000000
  0.022224449   -0.418912 -114.635818 -104.913350  138.723923    0.000000    0.000000    0.000000    0.000000
  0.022424850   -0.419806 -115.947777 -105.875635  138.831665    0.000000    0.000000    0.000000    0.000000
  0.022625251   -0.414911 -117.220650 -105.179809  140.160721    0.000000    0.000000    0.000000    0.000000
  0.022825651   -0.412827 -118.488197 -106.515004  142.724274    0.000000    0.000000    0.000000    0.000000
  0.023026052   -0.422125 -119.733894 -107.261083  145.949432    0.000000    0.000000    0.000000    0.000000
  0.023226453   -0.420984 -121.062561 -107.371097  135.533798    0.000000    0.000000    0.000000    0.000000
  0.023426854   -0.425271 -122.356102 -106.381528  139.485092    0.000000    0.000000    0.000000    0.000000
  0.023627255   -0.434126 -123.715599 -105.824807  136.256958    0.000000    0.000000    0.000000    0.000000
  0.023827655   -0.438749 -125.028252 -106.972073  139.971695    0.000000    0.000000    0.000000    0.000000
  0.024028056   -0.441634 -126.405792 -107.721192  139.143600    0.000000    0.000000    0.000000    0.000000
  0.024228457   -0.449648 -127.767433 -108.070606  136.780258    0.000000    0.000000    0.000000    0.000000
  0.024428858   -0.444694 -129.109833 -107.577241  145.922089    0.000000    0.000000    0.000000    0.000000
  0.024629259   -0.447455 -130.451248 -107.656991  131.572372    0.000000    0.000000    0.000000    0.000000
  0.024829659   -0.446632 -131.824081 -106.585819  142.387131    0.000000    0.000000    0.000000    0.000000
  0.025030060   -0.457141 -133.154709 -106.706646  150.874344    0.000000    0.000000    0.000000    0.000000
  0.025230461   -0.471814 -134.534546 -106.939401  147.374878    0.000000    0.000000    0.000000    0.000000
  0.025430862   -0.495242 -135.971741 -106.686217  137.888306    0.000000    0.000000    0.000000    0.000000
  0.025631263   -0.509106 -137.360580 -106.597605  143.418182    0.000000    0.000000    0.000000    0.000000
  0.025831663   -0.529496 -138.896393 -107.047042  127.634064    0.000000    0.000000    0.000000    0.000000
  0.026032064   -0.544148 -140.329285 -106.311569  145.476166    0.000000    0.000000    0.000000    0.000000
  0.026232465   -0.550242 -141.851089 -106.301623  150.620056    0.000000    0.000000    0.000000    0.000000
  0.026432866   -0.565424 -143.337036 -107.074745  138.913345    0.000000    0.000000    0.000000    0.000000
  0.026633267   -0.577895 -144.823349 -107.353305  146.295517    0.000000    0.000000    0.000000    0.000000
  0.026833667   -0.578250 -146.394989 -107.359534  148.269379    0.000000    0.000000    0.000000    0.000000
  0.027034068   -0.600339 -147.783005 -106.435079  138.399078    0.000000    0.000000    0.000000    0.000000
  0.027234469   -0.609893 -149.320801 -105.222553  146.040283    0.000000    0.000000    0.000000    0.000000
  0.027434870   -0.629960 -150.809204 -105.304065  142.460373    0.000000    0.000000    0.000000    0.000000
  0.027635271   -0.638778 -152.328583 -106.480895  145.425629    0.000000    0.000000    0.000000    0.000000
  0.027835671   -0.660712 -153.857819 -105.996856  131.682297    0.000000    0.000000    0.000000    0.000000
  0.028036072   -0.669941 -155.428528 -106.916389  147.055344    0.000000    0.000000    0.000000    0.000000
  0.028236473   -0.694921 -156.977417 -106.298979  147.504654    0.000000    0.000000    0.000000    0.000000
  0.028436874   -0.713039 -158.549088 -105.760819  144.176071    0.000000    0.000000    0.000000    0.000000
  0.028637275   -0.734067 -160.131104 -106.833137  149.722672    0.000000    0.000000    0.000000    0.000000
  0.028837675   -0.751069 -161.700226 -105.156031  138.828644    0.000000    0.000000    0.000000    0.000000
  0.029038076   -0.773261 -163.295685 -105.665132  146.078796    0.000000    0.000000    0.000000    0.000000
  0.029238477   -0.789697 -164.852219 -105.650071  148.387375    0.000000    0.000000    0.000000    0.000000
  0.029438878   -0.819229 -166.468781 -106.528097  140.113861    0.000000    0.000000    0.000000    0.000000
  0.029639279   -0.845638 -168.093216 -105.669188  138.839264    0.000000    0.000000    0.000000    0.000000
  0.029839679   -0.871962 -169.715454 -105.663462  141.395935    0.000000    0.000000    0.000000    0.000000
  0.030040080   -0.898481 -171.354126 -105.044905  144.277328    0.000000    0.000000    0.000000    0.000000
  0.030240481   -0.928911 -173.023361 -105.542256  139.255051    0.000000    0.000000    0.000000    0.000000
  0.030440882   -0.962427 -174.655304 -105.499117  133.316132    0.000000    0.000000    0.000000    0.000000
  0.030641283   -0.986466 -176.351929 -105.669642  143.640274    0.000000    0.000000    0.000000    0.000000
  0.030841683   -1.016885 -178.061401 -106.334182  145.648804    0.000000    0.000000    0.000000    0.000000
  0.031042084   -1.051184 -179.749405 -106.035944  146.891785    0.000000    0.000000    0.000000    0.000000
  0.031242485   -1.081483  178.561752 -106.484022  145.853638    0.000000    0.000000    0.000000    0.000000
  0.031442886   -1.117612  176.862320 -107.189021  141.051559    0.000000    0.000000    0.000000    0.000000
  0.031643287   -1.151341  175.140427 -108.123854  144.957214    0.000000    0.000000    0.000000    0.000000
  0.031843687   -1.189824  173.401871 -108.048319  133.749771    0.000000    0.000000    0.000000    0.000000
  0.032044088   -1.228949  171.661560 -107.300956  145.932343    0.000000    0.000000    0.000000    0.000000
  0.032244489   -1.268077  169.887848 -106.027412  144.163162    0.000000    0.000000    0.000000    0.000000
  0.032444890   -1.308570  168.147476 -106.822412  142.125473    0.000000    0.000000    0.000000    0.000000
  0.032645291   -1.349585  166.354370 -106.871017  143.038376    0.000000    0.000000    0.000000    0.000000
  0.032845691   -1.395162  164.584427 -107.715895  140.401733    0.000000    0.000000    0.000000    0.000000
  0.033046092   -1.442853  162.757904 -105.931524  144.168762    0.000000    0.000000    0.000000    0.000000
  0.033246493   -1.490714  160.940811 -106.215606  149.914688    0.000000    0.000000    0.000000    0.000000
  0.033446894   -1.538063  159.093277 -105.857862  139.084488    0.000000    0.000000    0.000000    0.000000
  0.033647295   -1.584542  157.215408 -107.525510  142.839264    0.000000    0.000000    0.000000    0.000000
  0.033847695   -1.623525  155.356369 -107.490378  148.384369    0.000000    0.000000    0.000000    0.000000
  0.034048096   -1.664556  153.502472 -107.683430  143.215179    0.000000    0.000000    0.000000    0.000000
  0.034248497   -1.702889  151.640762 -107.374527  130.456528    0.000000    0.000000    0.000000    0.000000
  0.034448898   -1.749893  149.808868 -107.824818  147.063232    0.000000    0.000000    0.000000    0.000000
  0.034649299   -1.798853  147.983994 -106.745128  148.956497    0.000000    0.000000    0.000000    0.000000
  0.034849699   -1.846348  146.130005 -105.967651  146.874237    0.000000    0.000000    0.000000    0.000000
  0.035050100   -1.895063  144.285797 -107.067315  148.815826    0.000000    0.000000    0.000000    0.000000
  0.035250501   -1.948495  142.430222 -105.517058  140.485077    0.000000    0.000000    0.000000    0.000000
  0.035450902   -2.002958  140.539429 -105.508828  145.671783    0.000000    0.000000    0.000000    0.000000
  0.035651303   -2.059700  138.602188 -104.993483  142.128403    0.000000    0.000000    0.000000    0.000000
  0.035851703   -2.110303  136.714310 -105.697991  143.607544    0.000000    0.000000    0.000000    0.000000
  0.036052104   -2.159111  134.842758 -105.742539  137.506607    0.000000    0.000000    0.000000    0.000000
  0.036252505   -2.208274  132.909332 -104.437031  141.839066    0.000000    0.000000    0.000000    0.000000
  0.036452906   -2.262352  131.024216 -104.636624  139.230927    0.000000    0.000000    0.000000    0.000000
  0.036653307   -2.323179  129.252533 -106.372130  148.286926    0.000000    0.000000    0.000000    0.000000
  0.036853707   -2.375583  127.328957 -104.890815  140.591309    0.000000    0.000000    0.000000    0.000000
  0.037054108   -2.437701  125.423775 -104.273834  140.181412    0.000000    0.000000    0.000000    0.000000
  0.037254509   -2.479341  123.441437 -106.033335  133.389832    0.000000    0.000000    0.000000    0.000000
  0.037454910   -2.551691  121.553665 -105.149748  138.677399    0.000000    0.000000    0.000000    0.000000
  0.037655311   -2.610344  119.588936 -104.922550  144.107086    0.000000    0.000000    0.000000    0.000000
  0.037855711   -2.647719  117.636620 -103.875851  139.693268    0.000000    0.000000    0.000000    0.000000
  0.038056112   -2.720717  115.744293 -105.340121  141.820801    0.000000    0.000000    0.000000    0.000000
  0.038256513   -2.749448  113.857918 -105.918945  144.211441    0.000000    0.000000    0.000000    0.000000
  0.038456914   -2.822247  111.980133 -106.241724  137.159500    0.000000    0.000000    0.000000    0.000000
  0.038657315   -2.856732  110.177620 -105.586297  142.736084    0.000000    0.000000    0.000000    0.000000
  0.038857715   -2.909251  108.349930 -106.803927  139.764969    0.000000    0.000000    0.000000    0.000000
  0.039058116   -2.983832  106.414497 -106.771997  140.179245    0.000000    0.000000    0.000000    0.000000
  0.039258517   -3.039963  104.585106 -107.248979  150.247467    0.000000    0.000000    0.000000    0.000000
  0.039458918   -3.101837  102.731895 -106.820754  140.733917    0.000000    0.000000    0.000000    0.000000
  0.039659319   -3.156332  100.978348 -105.666204  136.022903    0.000000    0.000000    0.000000    0.000000
  0.039859719   -3.219066   99.100273 -106.468518  138.219086    0.000000    0.000000    0.000000    0.000000
  0.040060120   -3.280758   97.109810 -106.638346  141.081757    0.000000    0.000000    0.000000    0.000000
  0.040260521   -3.343178   95.348930 -106.236784  137.314636    0.000000    0.000000    0.000000    0.000000
  0.040460922   -3.398619   93.366005 -106.312055  141.608688    0.000000    0.000000    0.000000    0.000000
  0.040661323   -3.458004   91.607086 -106.333467  139.224258    0.000000    0.000000    0.000000    0.000000
  0.040861723   -3.514253   89.700600 -106.087299  137.173233    0.000000    0.000000    0.000000    0.000000
  0.041062124   -3.576109   87.804771 -106.616016  136.859711    0.000000    0.000000    0.000000    0.000000
  0.041262525   -3.632860   85.937675 -106.611491  135.091415    0.000000    0.000000    0.000000    0.000000
  0.041462926   -3.681887   84.044899 -106.020095  143.979141    0.000000    0.000000    0.000000    0.000000
  0.041663327   -3.731382   82.130249 -106.876477  139.961365    0.000000    0.000000    0.000000    0.000000
  0.041863727   -3.776837   80.270584 -106.120856  140.896286    0.000000    0.000000    0.000000    0.000000
  0.042064128   -3.826597   78.441147 -106.014347  135.918976    0.000000    0.000000    0.000000    0.000000
  0.042264529   -3.866213   76.576813 -106.516887  141.761765    0.000000    0.000000    0.000000    0.000000
  0.042464930   -3.912409   74.742691 -105.440207  142.212128    0.000000    0.000000    0.000000    0.000000
  0.042665331   -3.961318   72.888840 -105.776798  132.960983    0.000000    0.000000    0.000000    0.000000
  0.042865731   -3.998484   71.056694 -105.224558  136.407959    0.000000    0.000000    0.000000    0.000000
