! Anritsu VNA Master:                 Model: MS2034B/10/19/501
! SN:                                  1337062
! /bd0/ovro-jan-2016/vna-jan/vna-ant254-c1-s11.s2p
! Existing Calibration Information:
! TYPE:                         Current Settings,       Active Cal Settings
! TIME:             	   01/13/2016 05:30:13 PM,    01/13/2016 05:04:46 PM
! INTERNAL TEMP:    	                   40.5 C,                    41.8 C
! # POINTS:         	                      500,                       500
! START FREQ:       	               10.000 MHz,                10.000 MHz
! STOP FREQ:        	              110.000 MHz,               110.000 MHz
! SOURCE POWER:     	                     High,                      High
! IFBW:             	                   100 Hz,                    100 Hz
! AVG FACTOR:       	                       4 ,                        4 
! REF PLANE 1:      	                     0 mm,                      0 mm
! REF PLANE 2:      	                     0 mm,                      0 mm
! CAL TYPE:         	                 Full S11,                  Full S11
! CAL METHOD:       	                     SOLT,                      SOLT
! CAL LINE TYPE:    	                     Coax,                      Coax
! DUT PORT 1:       	                K-Conn(M),                 K-Conn(M)
! DUT PORT 2:       	                N-Conn(M),                 N-Conn(M)
! CAL STATUS:       	        OK: Accuracy High,                        --
# GHZ S DB R 50.0
! FREQ.GHZ       S11DB        S11A       S21DB        S21A       S12DB        S12A       S22DB        S22A
  0.010000000   -0.553691  -47.232632 -104.728809  135.274231    0.000000    0.000000    0.000000    0.000000
  0.010200401   -0.537716  -48.237835 -105.295206  145.262680    0.000000    0.000000    0.000000    0.000000
  0.010400802   -0.526910  -49.249897 -104.487412  144.323715    0.000000    0.000000    0.000000    0.000000
  0.010601202   -0.512543  -50.132843 -105.001284  138.982651    0.000000    0.000000    0.000000    0.000000
  0.010801603   -0.516562  -51.167706 -103.661279  147.064407    0.000000    0.000000    0.000000    0.000000
  0.011002004   -0.504990  -52.062096 -104.474086  145.020447    0.000000    0.000000    0.000000    0.000000
  0.011202405   -0.512438  -53.141956 -103.151502  147.768417    0.000000    0.000000    0.000000    0.000000
  0.011402806   -0.512957  -54.141933 -102.770912  151.478958    0.000000    0.000000    0.000000    0.000000
  0.011603206   -0.514479  -55.176079 -103.694336  142.533371    0.000000    0.000000    0.000000    0.000000
  0.011803607   -0.514097  -56.097988 -102.710686  140.861710    0.000000    0.000000    0.000000    0.000000
  0.012004008   -0.511375  -57.266869 -103.536429  139.347443    0.000000    0.000000    0.000000    0.000000
  0.012204409   -0.512593  -58.239010 -101.316234  145.001755    0.000000    0.000000    0.000000    0.000000
  0.012404810   -0.497776  -59.260830 -103.449845  137.088638    0.000000    0.000000    0.000000    0.000000
  0.012605210   -0.503801  -60.277176 -101.879934  134.899490    0.000000    0.000000    0.000000    0.000000
  0.012805611   -0.498291  -61.311718 -101.816197  136.906876    0.000000    0.000000    0.000000    0.000000
  0.013006012   -0.509411  -62.240555 -103.228756  135.079437    0.000000    0.000000    0.000000    0.000000
  0.013206413   -0.500767  -63.324528 -103.211155  141.555634    0.000000    0.000000    0.000000    0.000000
  0.013406814   -0.500387  -64.358475 -102.918981  135.664337    0.000000    0.000000    0.000000    0.000000
  0.013607214   -0.502434  -65.428055 -103.099919  139.545654    0.000000    0.000000    0.000000    0.000000
  0.013807615   -0.497347  -66.491158 -103.614616  135.390366    0.000000    0.000000    0.000000    0.000000
  0.014008016   -0.492054  -67.557617 -103.716527  137.878647    0.000000    0.000000    0.000000    0.000000
  0.014208417   -0.506918  -68.645897 -103.671529  125.327156    0.000000    0.000000    0.000000    0.000000
  0.014408818   -0.482650  -69.682961 -104.984692  136.479523    0.000000    0.000000    0.000000    0.000000
  0.014609218   -0.476755  -70.720833 -104.890742  131.676575    0.000000    0.000000    0.000000    0.000000
  0.014809619   -0.469687  -71.754601 -105.791892  129.491241    0.000000    0.000000    0.000000    0.000000
  0.015010020   -0.466654  -72.773682 -104.397962  130.527145    0.000000    0.000000    0.000000    0.000000
  0.015210421   -0.464640  -73.778595 -105.985767  133.999710    0.000000    0.000000    0.000000    0.000000
  0.015410822   -0.465692  -74.803703 -107.142307  133.681274    0.000000    0.000000    0.000000    0.000000
  0.015611222   -0.473288  -75.910591 -108.518581  123.814735    0.000000    0.000000    0.000000    0.000000
  0.015811623   -0.470135  -76.955734 -107.355867  130.221405    0.000000    0.000000    0.000000    0.000000
  0.016012024   -0.475779  -78.018211 -106.191800  129.800262    0.000000    0.000000    0.000000    0.000000
  0.016212425   -0.477862  -79.124176 -109.619458  130.792496    0.000000    0.000000    0.000000    0.000000
  0.016412826   -0.478230  -80.217590 -106.826286  137.167282    0.000000    0.000000    0.000000    0.000000
  0.016613226   -0.475579  -81.344170 -106.268934  145.446167    0.000000    0.000000    0.000000    0.000000
  0.016813627   -0.482283  -82.516998 -108.013547  140.716110    0.000000    0.000000    0.000000    0.000000
  0.017014028   -0.481071  -83.581970 -107.988201  145.420761    0.000000    0.000000    0.000000    0.000000
  0.017214429   -0.485070  -84.746841 -108.837433  152.167130    0.000000    0.000000    0.000000    0.000000
  0.017414830   -0.483895  -85.918312 -107.022304  141.367432    0.000000    0.000000    0.000000    0.000000
  0.017615230   -0.484349  -87.088860 -106.803003  146.679306    0.000000    0.000000    0.000000    0.000000
  0.017815631   -0.477788  -88.266502 -106.556923  149.253082    0.000000    0.000000    0.000000    0.000000
  0.018016032   -0.470634  -89.514900 -107.205362  149.960754    0.000000    0.000000    0.000000    0.000000
  0.018216433   -0.467363  -90.680298 -107.994062  146.537811    0.000000    0.000000    0.000000    0.000000
  0.018416834   -0.461387  -91.841988 -106.546440  148.321152    0.000000    0.000000    0.000000    0.000000
  0.018617234   -0.453908  -93.056236 -105.451039  148.841141    0.000000    0.000000    0.000000    0.000000
  0.018817635   -0.445697  -94.212601 -107.226015  150.913589    0.000000    0.000000    0.000000    0.000000
  0.019018036   -0.440627  -95.420204 -104.723450  144.056000    0.000000    0.000000    0.000000    0.000000
  0.019218437   -0.424676  -96.627335 -104.893426  143.248047    0.000000    0.000000    0.000000    0.000000
  0.019418838   -0.426623  -97.822670 -105.255316  145.016876    0.000000    0.000000    0.000000    0.000000
  0.019619238   -0.421877  -99.020462 -104.875716  157.693710    0.000000    0.000000    0.000000    0.000000
  0.019819639   -0.413422 -100.214676 -104.819463  142.733170    0.000000    0.000000    0.000000    0.000000
  0.020020040   -0.410314 -101.421188 -104.359422  140.806915    0.000000    0.000000    0.000000    0.000000
  0.020220441   -0.404229 -102.590538 -104.351946  144.615524    0.000000    0.000000    0.000000    0.000000
  0.020420842   -0.400160 -103.759941 -103.833132  142.568573    0.000000    0.000000    0.000000    0.000000
  0.020621242   -0.397638 -104.959358 -104.908719  143.294800    0.000000    0.000000    0.000000    0.000000
  0.020821643   -0.405379 -106.182030 -105.250391  142.703033    0.000000    0.000000    0.000000    0.000000
  0.021022044   -0.403128 -107.372147 -105.093168  140.625336    0.000000    0.000000    0.000000    0.000000
  0.021222445   -0.414696 -108.655815 -104.697254  143.787216    0.000000    0.000000    0.000000    0.000000
  0.021422846   -0.419002 -109.905975 -105.490096  136.508575    0.000000    0.000000    0.000000    0.000000
  0.021623246   -0.423272 -111.179695 -104.204201  140.300797    0.000000    0.000000    0.000000    0.000000
  0.021823647   -0.421280 -112.431557 -104.726073  142.521515    0.000000    0.000000    0.000000    0.000000
  0.022024048   -0.416445 -113.804153 -106.203244  137.720108    0.000000    0.000000    0.000000    0.000000
  0.022224449   -0.413478 -115.078827 -105.206644  145.737854    0.000000    0.000000    0.000000    0.000000
  0.022424850   -0.416082 -116.370483 -106.039034  138.310776    0.000000    0.000000    0.000000    0.000000
  0.022625251   -0.410149 -117.636086 -104.901786  130.023346    0.000000    0.000000    0.000000    0.000000
  0.022825651   -0.410953 -118.908897 -106.067949  139.661880    0.000000    0.000000    0.000000    0.000000
  0.023026052   -0.421534 -120.122589 -106.196413  137.191788    0.000000    0.000000    0.000000    0.000000
  0.023226453   -0.419968 -121.458221 -106.580969  136.545776    0.000000    0.000000    0.000000    0.000000
  0.023426854   -0.423560 -122.736244 -106.598689  138.139969    0.000000    0.000000    0.000000    0.000000
  0.023627255   -0.434243 -124.085495 -106.476902  144.011780    0.000000    0.000000    0.000000    0.000000
  0.023827655   -0.439610 -125.406784 -106.546536  145.357590    0.000000    0.000000    0.000000    0.000000
  0.024028056   -0.442177 -126.766205 -106.308379  136.727524    0.000000    0.000000    0.000000    0.000000
  0.024228457   -0.450803 -128.106201 -108.975984  134.872696    0.000000    0.000000    0.000000    0.000000
  0.024428858   -0.444583 -129.431793 -107.981646  134.182068    0.000000    0.000000    0.000000    0.000000
  0.024629259   -0.446552 -130.762375 -106.729783  141.601074    0.000000    0.000000    0.000000    0.000000
  0.024829659   -0.445598 -132.146332 -107.460684  145.310913    0.000000    0.000000    0.000000    0.000000
  0.025030060   -0.454837 -133.463196 -108.044258  143.245255    0.000000    0.000000    0.000000    0.000000
  0.025230461   -0.469341 -134.821259 -106.496461  143.641693    0.000000    0.000000    0.000000    0.000000
  0.025430862   -0.492025 -136.236420 -107.398180  139.825790    0.000000    0.000000    0.000000    0.000000
  0.025631263   -0.505524 -137.621033 -107.120856  140.717560    0.000000    0.000000    0.000000    0.000000
  0.025831663   -0.525733 -139.112854 -106.364242  139.496048    0.000000    0.000000    0.000000    0.000000
  0.026032064   -0.538837 -140.541367 -106.691175  135.851364    0.000000    0.000000    0.000000    0.000000
  0.026232465   -0.543734 -142.050293 -107.828607  141.566742    0.000000    0.000000    0.000000    0.000000
  0.026432866   -0.558081 -143.513031 -105.900568  133.068771    0.000000    0.000000    0.000000    0.000000
  0.026633267   -0.569091 -144.977127 -106.432293  140.500534    0.000000    0.000000    0.000000    0.000000
  0.026833667   -0.571030 -146.531006 -107.169080  143.812836    0.000000    0.000000    0.000000    0.000000
  0.027034068   -0.588421 -147.902206 -105.491319  139.401764    0.000000    0.000000    0.000000    0.000000
  0.027234469   -0.599330 -149.434128 -104.910087  137.954132    0.000000    0.000000    0.000000    0.000000
  0.027434870   -0.615135 -150.894821 -104.976952  134.846878    0.000000    0.000000    0.000000    0.000000
  0.027635271   -0.628949 -152.401276 -105.878030  144.993866    0.000000    0.000000    0.000000    0.000000
  0.027835671   -0.649657 -153.928574 -105.741169  143.706085    0.000000    0.000000    0.000000    0.000000
  0.028036072   -0.657410 -155.487076 -105.862766  144.674347    0.000000    0.000000    0.000000    0.000000
  0.028236473   -0.685427 -157.020248 -107.233894  142.903687    0.000000    0.000000    0.000000    0.000000
  0.028436874   -0.704075 -158.590195 -104.726899  138.782623    0.000000    0.000000    0.000000    0.000000
  0.028637275   -0.725952 -160.167465 -105.124594  138.723007    0.000000    0.000000    0.000000    0.000000
  0.028837675   -0.743356 -161.742477 -105.897883  132.241623    0.000000    0.000000    0.000000    0.000000
  0.029038076   -0.768177 -163.330765 -106.048602  149.687866    0.000000    0.000000    0.000000    0.000000
  0.029238477   -0.786002 -164.901764 -105.710100  154.416367    0.000000    0.000000    0.000000    0.000000
  0.029438878   -0.818296 -166.510010 -106.386261  139.120834    0.000000    0.000000    0.000000    0.000000
  0.029639279   -0.848668 -168.145554 -107.042316  138.497604    0.000000    0.000000    0.000000    0.000000
  0.029839679   -0.876425 -169.778183 -107.053198  153.963181    0.000000    0.000000    0.000000    0.000000
  0.030040080   -0.906409 -171.435898 -106.513455  138.191467    0.000000    0.000000    0.000000    0.000000
  0.030240481   -0.938413 -173.114471 -106.496170  141.082809    0.000000    0.000000    0.000000    0.000000
  0.030440882   -0.975579 -174.780304 -106.069040  147.158981    0.000000    0.000000    0.000000    0.000000
  0.030641283   -1.002902 -176.480606 -106.353091  137.898575    0.000000    0.000000    0.000000    0.000000
  0.030841683   -1.035145 -178.231216 -106.546653  151.574066    0.000000    0.000000    0.000000    0.000000
  0.031042084   -1.073610 -179.923950 -106.904565  145.423996    0.000000    0.000000    0.000000    0.000000
  0.031242485   -1.107263  178.364868 -107.627433  144.401199    0.000000    0.000000    0.000000    0.000000
  0.031442886   -1.148487  176.627563 -106.367901  141.181610    0.000000    0.000000    0.000000    0.000000
  0.031643287   -1.185510  174.880875 -107.449142  142.919388    0.000000    0.000000    0.000000    0.000000
  0.031843687   -1.229206  173.095047 -105.350105  142.712509    0.000000    0.000000    0.000000    0.000000
  0.032044088   -1.271391  171.325043 -106.214713  141.864349    0.000000    0.000000    0.000000    0.000000
  0.032244489   -1.314042  169.515808 -106.955653  145.590912    0.000000    0.000000    0.000000    0.000000
  0.032444890   -1.358304  167.743988 -106.641516  146.354691    0.000000    0.000000    0.000000    0.000000
  0.032645291   -1.404939  165.917511 -107.127691  140.904251    0.000000    0.000000    0.000000    0.000000
  0.032845691   -1.455502  164.107254 -107.183167  145.124786    0.000000    0.000000    0.000000    0.000000
  0.033046092   -1.507147  162.249512 -107.013568  135.102020    0.000000    0.000000    0.000000    0.000000
  0.033246493   -1.560364  160.396912 -106.070378  138.889038    0.000000    0.000000    0.000000    0.000000
  0.033446894   -1.611511  158.522064 -107.461320  130.280975    0.000000    0.000000    0.000000    0.000000
  0.033647295   -1.663666  156.628113 -106.441424  135.637634    0.000000    0.000000    0.000000    0.000000
  0.033847695   -1.707470  154.739014 -107.580425  139.954163    0.000000    0.000000    0.000000    0.000000
  0.034048096   -1.754128  152.855453 -106.473407  146.752609    0.000000    0.000000    0.000000    0.000000
  0.034248497   -1.796590  150.988708 -107.622215  135.688492    0.000000    0.000000    0.000000    0.000000
  0.034448898   -1.847702  149.136246 -106.990415  144.932419    0.000000    0.000000    0.000000    0.000000
  0.034649299   -1.900569  147.309555 -106.246513  137.810394    0.000000    0.000000    0.000000    0.000000
  0.034849699   -1.952004  145.438995 -105.188874  137.697601    0.000000    0.000000    0.000000    0.000000
  0.035050100   -2.005994  143.590775 -106.386189  137.389084    0.000000    0.000000    0.000000    0.000000
  0.035250501   -2.060693  141.723404 -106.129951  143.351990    0.000000    0.000000    0.000000    0.000000
  0.035450902   -2.118060  139.830688 -105.340362  135.043457    0.000000    0.000000    0.000000    0.000000
  0.035651303   -2.178320  137.881760 -105.522785  134.238419    0.000000    0.000000    0.000000    0.000000
  0.035851703   -2.232050  135.989044 -106.043086  145.286835    0.000000    0.000000    0.000000    0.000000
  0.036052104   -2.282954  134.100754 -105.612946  142.864563    0.000000    0.000000    0.000000    0.000000
  0.036252505   -2.336377  132.153229 -105.284449  146.307541    0.000000    0.000000    0.000000    0.000000
  0.036452906   -2.392056  130.243912 -105.683363  135.419876    0.000000    0.000000    0.000000    0.000000
  0.036653307   -2.456528  128.445969 -105.527164  136.391190    0.000000    0.000000    0.000000    0.000000
  0.036853707   -2.512265  126.497169 -104.827503  135.800751    0.000000    0.000000    0.000000    0.000000
  0.037054108   -2.578004  124.556206 -107.518861  145.208435    0.000000    0.000000    0.000000    0.000000
  0.037254509   -2.626050  122.530067 -104.563899  138.687286    0.000000    0.000000    0.000000    0.000000
  0.037454910   -2.706485  120.611404 -105.274599  141.907028    0.000000    0.000000    0.000000    0.000000
  0.037655311   -2.772903  118.614449 -105.592055  135.722092    0.000000    0.000000    0.000000    0.000000
  0.037855711   -2.816139  116.675995 -105.254915  136.978043    0.000000    0.000000    0.000000    0.000000
  0.038056112   -2.890538  114.763268 -103.930119  137.403519    0.000000    0.000000    0.000000    0.000000
  0.038256513   -2.923978  112.850510 -106.424897  135.365540    0.000000    0.000000    0.000000    0.000000
  0.038456914   -2.994135  110.916733 -106.182507  144.775055    0.000000    0.000000    0.000000    0.000000
  0.038657315   -3.034834  109.069450 -105.743950  142.743118    0.000000    0.000000    0.000000    0.000000
  0.038857715   -3.092384  107.181557 -106.029330  147.938766    0.000000    0.000000    0.000000    0.000000
  0.039058116   -3.170534  105.194016 -106.673907  141.718460    0.000000    0.000000    0.000000    0.000000
  0.039258517   -3.234904  103.308014 -107.152157  145.462433    0.000000    0.000000    0.000000    0.000000
  0.039458918   -3.300258  101.399559 -106.187168  137.302109    0.000000    0.000000    0.000000    0.000000
  0.039659319   -3.359521   99.590912 -105.691758  140.146439    0.000000    0.000000    0.000000    0.000000
  0.039859719   -3.426748   97.661743 -105.393845  135.695389    0.000000    0.000000    0.000000    0.000000
  0.040060120   -3.494744   95.618195 -106.556267  143.649033    0.000000    0.000000    0.000000    0.000000
  0.040260521   -3.560225   93.789154 -106.250702  145.169968    0.000000    0.000000    0.000000    0.000000
  0.040460922   -3.622132   91.746330 -107.115550  133.821213    0.000000    0.000000    0.000000    0.000000
  0.040661323   -3.686037   89.943512 -106.619411  142.652359    0.000000    0.000000    0.000000    0.000000
  0.040861723   -3.746908   87.972046 -106.973464  142.054565    0.000000    0.000000    0.000000    0.000000
  0.041062124   -3.812864   86.038094 -107.632232  138.766510    0.000000    0.000000    0.000000    0.000000
  0.041262525   -3.874987   84.125832 -105.636967  144.145554    0.000000    0.000000    0.000000    0.000000
  0.041462926   -3.926330   82.187279 -107.244652  139.157623    0.000000    0.000000    0.000000    0.000000
  0.041663327   -3.977783   80.235847 -105.775230  142.680756    0.000000    0.000000    0.000000    0.000000
  0.041863727   -4.026597   78.323898 -106.613504  140.456573    0.000000    0.000000    0.000000    0.000000
  0.042064128   -4.082758   76.485039 -106.133193  140.819122    0.000000    0.000000    0.000000    0.000000
  0.042264529   -4.129984   74.624451 -105.823157  136.439819    0.000000    0.000000    0.000000    0.000000
  0.042464930   -4.175085   72.702873 -105.766222  138.249359    0.000000    0.000000    0.000000    0.000000
  0.042665331   -4.226830   70.841759 -105.864963  141.356155    0.000000    0.000000    0.000000    0.000000
  0.042865731   -4.267168   68.994057 -105.227932  140.850433    0.000000    0.000000    0.000000    0.000000
