! Anritsu VNA Master:                 Model: MS2034B/10/19/501
! SN:                                  1337062
! /bd0/ovro-jan-2016/dcp3-y2-balun-open.s2p
! Existing Calibration Information:
! TYPE:                         Current Settings,       Active Cal Settings
! TIME:             	   01/14/2016 12:17:28 PM,    01/14/2016 12:01:10 PM
! INTERNAL TEMP:    	                   44.0 C,                    43.8 C
! # POINTS:         	                      500,                       500
! START FREQ:       	               10.000 MHz,                10.000 MHz
! STOP FREQ:        	              110.000 MHz,               110.000 MHz
! SOURCE POWER:     	                     High,                      High
! IFBW:             	                   100 Hz,                    100 Hz
! AVG FACTOR:       	                       4 ,                        4 
! REF PLANE 1:      	                     0 mm,                      0 mm
! REF PLANE 2:      	                     0 mm,                      0 mm
! CAL TYPE:         	                 Full S11,                  Full S11
! CAL METHOD:       	                     SOLT,                      SOLT
! CAL LINE TYPE:    	                     Coax,                      Coax
! DUT PORT 1:       	                K-Conn(M),                 K-Conn(M)
! DUT PORT 2:       	                N-Conn(M),                 N-Conn(M)
! CAL STATUS:       	        OK: Accuracy High,                        --
# GHZ S DB R 50.0
! FREQ.GHZ       S11DB        S11A       S21DB        S21A       S12DB        S12A       S22DB        S22A
  0.010000000   -0.612145   -7.338312 -104.965941  145.483871    0.000000    0.000000    0.000000    0.000000
  0.010200401   -0.613857   -7.522704 -103.903419  150.821548    0.000000    0.000000    0.000000    0.000000
  0.010400802   -0.617419   -7.666190 -104.851879  147.870438    0.000000    0.000000    0.000000    0.000000
  0.010601202   -0.613361   -7.853473 -103.481107  143.559769    0.000000    0.000000    0.000000    0.000000
  0.010801603   -0.613190   -7.971078 -105.412765  149.550827    0.000000    0.000000    0.000000    0.000000
  0.011002004   -0.618093   -8.162703 -105.287556  149.281906    0.000000    0.000000    0.000000    0.000000
  0.011202405   -0.615798   -8.341696 -103.991036  151.188492    0.000000    0.000000    0.000000    0.000000
  0.011402806   -0.621466   -8.523319 -104.268918  155.676910    0.000000    0.000000    0.000000    0.000000
  0.011603206   -0.617832   -8.687037 -104.886392  148.802841    0.000000    0.000000    0.000000    0.000000
  0.011803607   -0.620817   -8.849205 -104.556511  148.949295    0.000000    0.000000    0.000000    0.000000
  0.012004008   -0.626939   -9.002366 -103.497776  148.192017    0.000000    0.000000    0.000000    0.000000
  0.012204409   -0.624261   -9.164725 -103.932576  144.988281    0.000000    0.000000    0.000000    0.000000
  0.012404810   -0.625433   -9.327235 -103.667187  146.108109    0.000000    0.000000    0.000000    0.000000
  0.012605210   -0.624277   -9.510519 -103.951523  155.721512    0.000000    0.000000    0.000000    0.000000
  0.012805611   -0.623570   -9.713908 -104.105817  151.248489    0.000000    0.000000    0.000000    0.000000
  0.013006012   -0.625827   -9.837801 -103.872532  139.000107    0.000000    0.000000    0.000000    0.000000
  0.013206413   -0.622251   -9.994919 -102.764541  143.770340    0.000000    0.000000    0.000000    0.000000
  0.013406814   -0.623093  -10.178780 -104.038942  157.967789    0.000000    0.000000    0.000000    0.000000
  0.013607214   -0.627128  -10.338398 -104.233435  144.338730    0.000000    0.000000    0.000000    0.000000
  0.013807615   -0.626103  -10.507531 -103.590139  148.425858    0.000000    0.000000    0.000000    0.000000
  0.014008016   -0.627773  -10.671795 -104.758163  146.445450    0.000000    0.000000    0.000000    0.000000
  0.014208417   -0.628648  -10.826991 -104.687476  146.269028    0.000000    0.000000    0.000000    0.000000
  0.014408818   -0.628310  -10.997686 -103.515455  145.398453    0.000000    0.000000    0.000000    0.000000
  0.014609218   -0.627570  -11.147355 -104.158553  148.359863    0.000000    0.000000    0.000000    0.000000
  0.014809619   -0.627204  -11.321056 -103.596341  151.348434    0.000000    0.000000    0.000000    0.000000
  0.015010020   -0.627911  -11.501820 -103.176025  138.817703    0.000000    0.000000    0.000000    0.000000
  0.015210421   -0.629405  -11.650778 -104.556636  149.566223    0.000000    0.000000    0.000000    0.000000
  0.015410822   -0.630287  -11.805821 -103.235298  148.313400    0.000000    0.000000    0.000000    0.000000
  0.015611222   -0.630201  -11.958120 -103.562034  142.969086    0.000000    0.000000    0.000000    0.000000
  0.015811623   -0.628922  -12.124942 -103.379597  145.484329    0.000000    0.000000    0.000000    0.000000
  0.016012024   -0.632561  -12.276310 -103.541074  149.506287    0.000000    0.000000    0.000000    0.000000
  0.016212425   -0.632998  -12.441664 -103.847416  136.249710    0.000000    0.000000    0.000000    0.000000
  0.016412826   -0.630304  -12.608328 -103.316995  140.222687    0.000000    0.000000    0.000000    0.000000
  0.016613226   -0.630984  -12.755657 -103.683812  147.552460    0.000000    0.000000    0.000000    0.000000
  0.016813627   -0.631589  -12.913983 -104.543065  142.595795    0.000000    0.000000    0.000000    0.000000
  0.017014028   -0.632100  -13.086459 -104.278838  143.702789    0.000000    0.000000    0.000000    0.000000
  0.017214429   -0.630795  -13.231821 -104.275373  139.701675    0.000000    0.000000    0.000000    0.000000
  0.017414830   -0.632165  -13.398019 -104.668011  137.716736    0.000000    0.000000    0.000000    0.000000
  0.017615230   -0.632434  -13.551664 -104.269809  145.286682    0.000000    0.000000    0.000000    0.000000
  0.017815631   -0.633554  -13.705074 -104.205330  147.322891    0.000000    0.000000    0.000000    0.000000
  0.018016032   -0.634841  -13.866262 -103.993978  139.958160    0.000000    0.000000    0.000000    0.000000
  0.018216433   -0.637083  -14.026957 -104.307813  145.940536    0.000000    0.000000    0.000000    0.000000
  0.018416834   -0.636905  -14.183177 -104.240023  145.897064    0.000000    0.000000    0.000000    0.000000
  0.018617234   -0.638209  -14.324367 -104.494826  146.287720    0.000000    0.000000    0.000000    0.000000
  0.018817635   -0.639340  -14.496287 -104.054007  147.084595    0.000000    0.000000    0.000000    0.000000
  0.019018036   -0.640348  -14.654275 -105.215669  142.551117    0.000000    0.000000    0.000000    0.000000
  0.019218437   -0.643433  -14.802058 -105.128910  143.632233    0.000000    0.000000    0.000000    0.000000
  0.019418838   -0.640232  -14.966045 -104.612812  146.969955    0.000000    0.000000    0.000000    0.000000
  0.019619238   -0.643024  -15.126608 -104.721855  141.319366    0.000000    0.000000    0.000000    0.000000
  0.019819639   -0.642599  -15.280885 -105.129299  150.317154    0.000000    0.000000    0.000000    0.000000
  0.020020040   -0.643828  -15.448390 -105.845199  142.149521    0.000000    0.000000    0.000000    0.000000
  0.020220441   -0.645107  -15.607520 -104.312834  147.589081    0.000000    0.000000    0.000000    0.000000
  0.020420842   -0.647344  -15.756353 -105.706505  147.392792    0.000000    0.000000    0.000000    0.000000
  0.020621242   -0.649256  -15.903348 -105.062497  138.219482    0.000000    0.000000    0.000000    0.000000
  0.020821643   -0.647150  -16.075073 -104.736479  145.409897    0.000000    0.000000    0.000000    0.000000
  0.021022044   -0.647206  -16.246130 -105.665922  145.359161    0.000000    0.000000    0.000000    0.000000
  0.021222445   -0.648194  -16.400232 -106.717016  145.597107    0.000000    0.000000    0.000000    0.000000
  0.021422846   -0.647815  -16.564495 -104.477567  144.884476    0.000000    0.000000    0.000000    0.000000
  0.021623246   -0.649017  -16.717321 -106.178261  139.440750    0.000000    0.000000    0.000000    0.000000
  0.021823647   -0.651303  -16.876354 -104.824628  141.276321    0.000000    0.000000    0.000000    0.000000
  0.022024048   -0.649266  -17.038555 -105.650259  140.453247    0.000000    0.000000    0.000000    0.000000
  0.022224449   -0.649070  -17.199862 -104.796539  145.124847    0.000000    0.000000    0.000000    0.000000
  0.022424850   -0.650353  -17.374834 -105.871994  147.001572    0.000000    0.000000    0.000000    0.000000
  0.022625251   -0.649150  -17.526318 -104.412501  141.204529    0.000000    0.000000    0.000000    0.000000
  0.022825651   -0.649913  -17.699005 -105.307857  134.688431    0.000000    0.000000    0.000000    0.000000
  0.023026052   -0.651716  -17.863523 -104.698104  135.007111    0.000000    0.000000    0.000000    0.000000
  0.023226453   -0.649006  -18.010588 -105.980041  144.982086    0.000000    0.000000    0.000000    0.000000
  0.023426854   -0.648207  -18.174421 -105.555771  136.664307    0.000000    0.000000    0.000000    0.000000
  0.023627255   -0.648659  -18.321539 -106.430446  131.034729    0.000000    0.000000    0.000000    0.000000
  0.023827655   -0.652455  -18.468542 -105.858447  142.282410    0.000000    0.000000    0.000000    0.000000
  0.024028056   -0.648996  -18.634741 -105.936561  143.571396    0.000000    0.000000    0.000000    0.000000
  0.024228457   -0.651729  -18.790342 -104.855078  134.482483    0.000000    0.000000    0.000000    0.000000
  0.024428858   -0.648418  -18.939816 -105.376571  142.169373    0.000000    0.000000    0.000000    0.000000
  0.024629259   -0.645491  -19.093775 -104.929945  138.821732    0.000000    0.000000    0.000000    0.000000
  0.024829659   -0.639861  -19.219860 -107.067274  140.156815    0.000000    0.000000    0.000000    0.000000
  0.025030060   -0.642341  -19.368584 -106.805225  138.408096    0.000000    0.000000    0.000000    0.000000
  0.025230461   -0.640249  -19.525883 -106.987047  144.519913    0.000000    0.000000    0.000000    0.000000
  0.025430862   -0.640168  -19.671366 -105.055346  141.159225    0.000000    0.000000    0.000000    0.000000
  0.025631263   -0.637239  -19.831184 -107.629941  138.820435    0.000000    0.000000    0.000000    0.000000
  0.025831663   -0.638715  -19.945658 -106.735630  133.213348    0.000000    0.000000    0.000000    0.000000
  0.026032064   -0.636331  -20.129860 -107.087477  146.319519    0.000000    0.000000    0.000000    0.000000
  0.026232465   -0.636424  -20.297878 -106.573334  152.107773    0.000000    0.000000    0.000000    0.000000
  0.026432866   -0.633993  -20.435135 -106.469214  141.920074    0.000000    0.000000    0.000000    0.000000
  0.026633267   -0.634978  -20.579449 -106.645686  139.567032    0.000000    0.000000    0.000000    0.000000
  0.026833667   -0.637751  -20.738352 -108.825569  138.336151    0.000000    0.000000    0.000000    0.000000
  0.027034068   -0.636818  -20.891617 -106.281888  143.771729    0.000000    0.000000    0.000000    0.000000
  0.027234469   -0.635228  -21.029802 -106.283885  147.579193    0.000000    0.000000    0.000000    0.000000
  0.027434870   -0.633068  -21.182598 -106.502033  143.828125    0.000000    0.000000    0.000000    0.000000
  0.027635271   -0.634353  -21.315901 -106.854224  150.060974    0.000000    0.000000    0.000000    0.000000
  0.027835671   -0.637336  -21.464104 -106.268695  146.266724    0.000000    0.000000    0.000000    0.000000
  0.028036072   -0.639627  -21.640202 -107.082413  142.696899    0.000000    0.000000    0.000000    0.000000
  0.028236473   -0.635421  -21.777416 -107.369070  147.322342    0.000000    0.000000    0.000000    0.000000
  0.028436874   -0.636995  -21.908905 -106.733116  147.262054    0.000000    0.000000    0.000000    0.000000
  0.028637275   -0.639731  -22.065821 -107.933992  144.713165    0.000000    0.000000    0.000000    0.000000
  0.028837675   -0.641332  -22.223618 -108.063450  148.424728    0.000000    0.000000    0.000000    0.000000
  0.029038076   -0.643052  -22.351614 -106.480360  145.172638    0.000000    0.000000    0.000000    0.000000
  0.029238477   -0.648418  -22.516396 -105.936915  143.829346    0.000000    0.000000    0.000000    0.000000
  0.029438878   -0.645032  -22.660728 -109.128425  137.688950    0.000000    0.000000    0.000000    0.000000
  0.029639279   -0.647057  -22.797680 -106.437056  144.349472    0.000000    0.000000    0.000000    0.000000
  0.029839679   -0.646456  -22.951571 -105.641242  140.853973    0.000000    0.000000    0.000000    0.000000
  0.030040080   -0.649435  -23.120388 -107.440919  142.862228    0.000000    0.000000    0.000000    0.000000
  0.030240481   -0.650440  -23.264366 -106.942464  141.514023    0.000000    0.000000    0.000000    0.000000
  0.030440882   -0.650941  -23.438522 -107.218847  144.681839    0.000000    0.000000    0.000000    0.000000
  0.030641283   -0.653407  -23.562983 -106.960579  145.655136    0.000000    0.000000    0.000000    0.000000
  0.030841683   -0.654436  -23.745018 -106.649596  141.889526    0.000000    0.000000    0.000000    0.000000
  0.031042084   -0.657481  -23.893696 -106.463590  146.726700    0.000000    0.000000    0.000000    0.000000
  0.031242485   -0.658156  -24.020185 -107.586911  147.765259    0.000000    0.000000    0.000000    0.000000
  0.031442886   -0.661887  -24.213194 -106.806749  141.934708    0.000000    0.000000    0.000000    0.000000
  0.031643287   -0.664016  -24.362347 -106.378435  142.190628    0.000000    0.000000    0.000000    0.000000
  0.031843687   -0.666761  -24.544130 -107.107257  139.784698    0.000000    0.000000    0.000000    0.000000
  0.032044088   -0.663170  -24.687315 -107.568651  150.694839    0.000000    0.000000    0.000000    0.000000
  0.032244489   -0.668316  -24.858658 -106.327804  143.179794    0.000000    0.000000    0.000000    0.000000
  0.032444890   -0.661750  -25.017241 -106.093449  147.334610    0.000000    0.000000    0.000000    0.000000
  0.032645291   -0.667401  -25.177380 -107.666104  139.893600    0.000000    0.000000    0.000000    0.000000
  0.032845691   -0.665257  -25.338430 -106.447827  143.033020    0.000000    0.000000    0.000000    0.000000
  0.033046092   -0.667403  -25.504349 -105.824653  140.755417    0.000000    0.000000    0.000000    0.000000
  0.033246493   -0.667902  -25.676403 -108.010235  140.877884    0.000000    0.000000    0.000000    0.000000
  0.033446894   -0.665526  -25.842976 -106.403465  144.831772    0.000000    0.000000    0.000000    0.000000
  0.033647295   -0.666746  -25.989468 -107.346324  144.768051    0.000000    0.000000    0.000000    0.000000
  0.033847695   -0.664900  -26.168291 -107.020390  145.329315    0.000000    0.000000    0.000000    0.000000
  0.034048096   -0.662097  -26.318800 -107.307052  148.442337    0.000000    0.000000    0.000000    0.000000
  0.034248497   -0.664287  -26.469015 -107.404044  146.920120    0.000000    0.000000    0.000000    0.000000
  0.034448898   -0.662004  -26.628237 -108.070740  147.370682    0.000000    0.000000    0.000000    0.000000
  0.034649299   -0.662658  -26.793425 -108.470070  155.030167    0.000000    0.000000    0.000000    0.000000
  0.034849699   -0.660923  -26.947195 -107.574072  137.636246    0.000000    0.000000    0.000000    0.000000
  0.035050100   -0.660063  -27.101070 -107.393932  146.326721    0.000000    0.000000    0.000000    0.000000
  0.035250501   -0.659182  -27.251102 -106.724865  141.644196    0.000000    0.000000    0.000000    0.000000
  0.035450902   -0.656623  -27.420902 -106.674221  144.777847    0.000000    0.000000    0.000000    0.000000
  0.035651303   -0.656621  -27.574715 -106.497932  136.535278    0.000000    0.000000    0.000000    0.000000
  0.035851703   -0.656893  -27.703030 -106.940871  136.363190    0.000000    0.000000    0.000000    0.000000
  0.036052104   -0.655519  -27.844494 -108.396745  140.953979    0.000000    0.000000    0.000000    0.000000
  0.036252505   -0.653909  -28.005285 -106.407733  137.498383    0.000000    0.000000    0.000000    0.000000
  0.036452906   -0.655958  -28.155701 -106.934925  138.556122    0.000000    0.000000    0.000000    0.000000
  0.036653307   -0.657046  -28.287258 -106.450550  135.487259    0.000000    0.000000    0.000000    0.000000
  0.036853707   -0.654260  -28.436661 -106.195111  136.199341    0.000000    0.000000    0.000000    0.000000
  0.037054108   -0.656843  -28.582392 -107.377704  142.654297    0.000000    0.000000    0.000000    0.000000
  0.037254509   -0.654814  -28.727102 -107.034305  138.672379    0.000000    0.000000    0.000000    0.000000
  0.037454910   -0.656487  -28.864803 -106.970532  141.658768    0.000000    0.000000    0.000000    0.000000
  0.037655311   -0.658178  -29.013475 -107.992171  140.169693    0.000000    0.000000    0.000000    0.000000
  0.037855711   -0.656857  -29.163507 -106.701464  138.086365    0.000000    0.000000    0.000000    0.000000
  0.038056112   -0.659963  -29.303318 -106.891475  140.012497    0.000000    0.000000    0.000000    0.000000
  0.038256513   -0.660544  -29.459431 -106.092364  144.374359    0.000000    0.000000    0.000000    0.000000
  0.038456914   -0.662929  -29.604147 -107.115194  142.559158    0.000000    0.000000    0.000000    0.000000
  0.038657315   -0.662155  -29.759462 -108.136966  143.773865    0.000000    0.000000    0.000000    0.000000
  0.038857715   -0.667050  -29.915741 -106.498817  145.106415    0.000000    0.000000    0.000000    0.000000
  0.039058116   -0.669609  -30.063152 -107.079559  134.744247    0.000000    0.000000    0.000000    0.000000
  0.039258517   -0.672047  -30.222443 -107.529550  141.375290    0.000000    0.000000    0.000000    0.000000
  0.039458918   -0.675731  -30.376842 -107.563821  137.871002    0.000000    0.000000    0.000000    0.000000
  0.039659319   -0.676032  -30.523777 -106.910899  144.129852    0.000000    0.000000    0.000000    0.000000
  0.039859719   -0.679772  -30.686852 -106.643577  139.121445    0.000000    0.000000    0.000000    0.000000
  0.040060120   -0.683479  -30.852804 -108.080160  142.573013    0.000000    0.000000    0.000000    0.000000
  0.040260521   -0.684004  -31.005985 -108.169723  140.444870    0.000000    0.000000    0.000000    0.000000
  0.040460922   -0.682973  -31.195457 -106.771866  138.375992    0.000000    0.000000    0.000000    0.000000
  0.040661323   -0.683806  -31.347389 -107.386854  145.697525    0.000000    0.000000    0.000000    0.000000
  0.040861723   -0.684182  -31.529095 -109.281393  142.367279    0.000000    0.000000    0.000000    0.000000
  0.041062124   -0.686495  -31.708422 -107.251282  137.163818    0.000000    0.000000    0.000000    0.000000
  0.041262525   -0.687629  -31.869400 -107.739142  131.693970    0.000000    0.000000    0.000000    0.000000
  0.041462926   -0.687014  -32.043453 -106.348542  140.085327    0.000000    0.000000    0.000000    0.000000
  0.041663327   -0.686264  -32.208981 -107.419017  143.395157    0.000000    0.000000    0.000000    0.000000
  0.041863727   -0.683433  -32.363647 -106.401395  136.282288    0.000000    0.000000    0.000000    0.000000
  0.042064128   -0.681739  -32.541782 -107.145737  140.037338    0.000000    0.000000    0.000000    0.000000
  0.042264529   -0.689095  -32.715740 -106.275809  140.753326    0.000000    0.000000    0.000000    0.000000
  0.042464930   -0.683135  -32.867214 -106.974316  145.705612    0.000000    0.000000    0.000000    0.000000
  0.042665331   -0.678190  -33.042950 -107.301920  141.466156    0.000000    0.000000    0.000000    0.000000
  0.042865731   -0.677442  -33.200825 -106.993080  140.901321    0.000000    0.000000    0.000000    0.000000
