! Anritsu VNA Master:                 Model: MS2034B/10/19/501
! SN:                                  1337062
! /bd0/ovro-jan-2016/dcp3-y1-balun-open.s2p
! Existing Calibration Information:
! TYPE:                         Current Settings,       Active Cal Settings
! TIME:             	   01/14/2016 12:06:50 PM,    01/14/2016 12:01:10 PM
! INTERNAL TEMP:    	                   43.3 C,                    43.8 C
! # POINTS:         	                      500,                       500
! START FREQ:       	               10.000 MHz,                10.000 MHz
! STOP FREQ:        	              110.000 MHz,               110.000 MHz
! SOURCE POWER:     	                     High,                      High
! IFBW:             	                   100 Hz,                    100 Hz
! AVG FACTOR:       	                       4 ,                        4 
! REF PLANE 1:      	                     0 mm,                      0 mm
! REF PLANE 2:      	                     0 mm,                      0 mm
! CAL TYPE:         	                 Full S11,                  Full S11
! CAL METHOD:       	                     SOLT,                      SOLT
! CAL LINE TYPE:    	                     Coax,                      Coax
! DUT PORT 1:       	                K-Conn(M),                 K-Conn(M)
! DUT PORT 2:       	                N-Conn(M),                 N-Conn(M)
! CAL STATUS:       	        OK: Accuracy High,                        --
# GHZ S DB R 50.0
! FREQ.GHZ       S11DB        S11A       S21DB        S21A       S12DB        S12A       S22DB        S22A
  0.010000000   -0.626999   -7.003592 -104.165955  150.201828    0.000000    0.000000    0.000000    0.000000
  0.010200401   -0.627807   -7.193548 -105.840123  144.058395    0.000000    0.000000    0.000000    0.000000
  0.010400802   -0.629418   -7.354057 -104.936247  151.237244    0.000000    0.000000    0.000000    0.000000
  0.010601202   -0.625957   -7.550395 -104.212591  143.778427    0.000000    0.000000    0.000000    0.000000
  0.010801603   -0.630074   -7.694344 -104.393494  145.974045    0.000000    0.000000    0.000000    0.000000
  0.011002004   -0.629404   -7.891093 -104.748685  144.529251    0.000000    0.000000    0.000000    0.000000
  0.011202405   -0.627398   -8.071973 -104.011460  137.744156    0.000000    0.000000    0.000000    0.000000
  0.011402806   -0.631140   -8.266757 -104.595148  148.917297    0.000000    0.000000    0.000000    0.000000
  0.011603206   -0.627187   -8.425427 -104.367485  149.971207    0.000000    0.000000    0.000000    0.000000
  0.011803607   -0.630842   -8.597704 -103.013460  143.619019    0.000000    0.000000    0.000000    0.000000
  0.012004008   -0.632826   -8.798995 -104.408749  147.532959    0.000000    0.000000    0.000000    0.000000
  0.012204409   -0.631132   -8.945682 -103.675508  146.334381    0.000000    0.000000    0.000000    0.000000
  0.012404810   -0.639317   -9.090002 -104.555236  142.592987    0.000000    0.000000    0.000000    0.000000
  0.012605210   -0.630766   -9.291934 -104.810561  149.010864    0.000000    0.000000    0.000000    0.000000
  0.012805611   -0.629551   -9.495551 -104.541856  153.447876    0.000000    0.000000    0.000000    0.000000
  0.013006012   -0.633741   -9.639993 -103.835728  146.583908    0.000000    0.000000    0.000000    0.000000
  0.013206413   -0.625915   -9.797969 -103.522198  148.806580    0.000000    0.000000    0.000000    0.000000
  0.013406814   -0.628824   -9.983423 -103.363599  147.133774    0.000000    0.000000    0.000000    0.000000
  0.013607214   -0.632492  -10.152665 -103.973598  145.425827    0.000000    0.000000    0.000000    0.000000
  0.013807615   -0.631194  -10.327260 -103.159810  158.050797    0.000000    0.000000    0.000000    0.000000
  0.014008016   -0.632561  -10.503840 -103.421102  144.640823    0.000000    0.000000    0.000000    0.000000
  0.014208417   -0.633557  -10.662304 -103.683335  153.143036    0.000000    0.000000    0.000000    0.000000
  0.014408818   -0.633730  -10.832462 -103.813383  150.010986    0.000000    0.000000    0.000000    0.000000
  0.014609218   -0.631998  -10.998774 -104.862488  135.777451    0.000000    0.000000    0.000000    0.000000
  0.014809619   -0.631394  -11.181784 -103.726755  145.821884    0.000000    0.000000    0.000000    0.000000
  0.015010020   -0.631708  -11.361194 -102.932884  141.853592    0.000000    0.000000    0.000000    0.000000
  0.015210421   -0.632812  -11.514123 -103.940711  145.328888    0.000000    0.000000    0.000000    0.000000
  0.015410822   -0.633414  -11.679642 -104.729957  135.199402    0.000000    0.000000    0.000000    0.000000
  0.015611222   -0.633120  -11.839258 -104.033105  149.944351    0.000000    0.000000    0.000000    0.000000
  0.015811623   -0.632181  -12.007880 -104.202747  147.005707    0.000000    0.000000    0.000000    0.000000
  0.016012024   -0.634404  -12.174514 -103.000871  143.127563    0.000000    0.000000    0.000000    0.000000
  0.016212425   -0.633732  -12.339496 -103.778797  140.428757    0.000000    0.000000    0.000000    0.000000
  0.016412826   -0.632291  -12.514350 -102.893002  136.916687    0.000000    0.000000    0.000000    0.000000
  0.016613226   -0.633437  -12.672450 -103.974026  147.225250    0.000000    0.000000    0.000000    0.000000
  0.016813627   -0.632413  -12.828504 -103.235547  141.868393    0.000000    0.000000    0.000000    0.000000
  0.017014028   -0.632978  -13.009870 -103.992503  137.660843    0.000000    0.000000    0.000000    0.000000
  0.017214429   -0.632699  -13.160716 -103.694509  134.806778    0.000000    0.000000    0.000000    0.000000
  0.017414830   -0.632732  -13.330310 -103.132701  147.330963    0.000000    0.000000    0.000000    0.000000
  0.017615230   -0.633419  -13.490665 -103.521226  137.027252    0.000000    0.000000    0.000000    0.000000
  0.017815631   -0.634354  -13.650284 -106.346074  146.841125    0.000000    0.000000    0.000000    0.000000
  0.018016032   -0.634178  -13.818335 -104.100629  135.491104    0.000000    0.000000    0.000000    0.000000
  0.018216433   -0.637691  -13.980043 -104.390818  143.510544    0.000000    0.000000    0.000000    0.000000
  0.018416834   -0.636446  -14.141780 -104.137236  137.110703    0.000000    0.000000    0.000000    0.000000
  0.018617234   -0.637536  -14.295109 -104.158185  143.650284    0.000000    0.000000    0.000000    0.000000
  0.018817635   -0.638753  -14.465415 -104.965474  152.024323    0.000000    0.000000    0.000000    0.000000
  0.019018036   -0.639925  -14.631807 -104.220924  146.130905    0.000000    0.000000    0.000000    0.000000
  0.019218437   -0.642345  -14.783063 -104.186785  146.911774    0.000000    0.000000    0.000000    0.000000
  0.019418838   -0.639519  -14.949215 -104.387994  136.357712    0.000000    0.000000    0.000000    0.000000
  0.019619238   -0.642131  -15.122138 -104.871139  148.514374    0.000000    0.000000    0.000000    0.000000
  0.019819639   -0.641516  -15.277782 -104.735695  138.196091    0.000000    0.000000    0.000000    0.000000
  0.020020040   -0.642212  -15.456390 -104.837991  141.981339    0.000000    0.000000    0.000000    0.000000
  0.020220441   -0.643628  -15.615815 -104.255852  144.791901    0.000000    0.000000    0.000000    0.000000
  0.020420842   -0.645441  -15.771729 -105.797249  140.597229    0.000000    0.000000    0.000000    0.000000
  0.020621242   -0.647356  -15.929499 -103.903384  142.749832    0.000000    0.000000    0.000000    0.000000
  0.020821643   -0.644402  -16.096952 -106.087508  140.326431    0.000000    0.000000    0.000000    0.000000
  0.021022044   -0.647257  -16.277607 -106.012132  144.203827    0.000000    0.000000    0.000000    0.000000
  0.021222445   -0.645693  -16.436361 -105.172821  134.320526    0.000000    0.000000    0.000000    0.000000
  0.021422846   -0.645114  -16.598602 -105.865255  132.662521    0.000000    0.000000    0.000000    0.000000
  0.021623246   -0.645849  -16.763445 -105.057737  146.382050    0.000000    0.000000    0.000000    0.000000
  0.021823647   -0.648391  -16.934860 -103.704384  140.484924    0.000000    0.000000    0.000000    0.000000
  0.022024048   -0.646642  -17.097042 -104.968266  138.497498    0.000000    0.000000    0.000000    0.000000
  0.022224449   -0.646093  -17.261505 -104.467516  147.018097    0.000000    0.000000    0.000000    0.000000
  0.022424850   -0.648309  -17.433954 -104.936073  139.879379    0.000000    0.000000    0.000000    0.000000
  0.022625251   -0.645673  -17.608349 -105.393921  137.270004    0.000000    0.000000    0.000000    0.000000
  0.022825651   -0.647027  -17.772903 -105.125377  140.845306    0.000000    0.000000    0.000000    0.000000
  0.023026052   -0.647468  -17.939213 -105.489500  142.138229    0.000000    0.000000    0.000000    0.000000
  0.023226453   -0.645907  -18.095991 -104.760403  143.817307    0.000000    0.000000    0.000000    0.000000
  0.023426854   -0.641103  -18.261127 -104.980217  139.367020    0.000000    0.000000    0.000000    0.000000
  0.023627255   -0.646546  -18.403681 -105.279916  146.191177    0.000000    0.000000    0.000000    0.000000
  0.023827655   -0.647252  -18.558374 -103.954615  134.309860    0.000000    0.000000    0.000000    0.000000
  0.024028056   -0.645808  -18.740625 -104.663032  137.007599    0.000000    0.000000    0.000000    0.000000
  0.024228457   -0.648554  -18.891113 -105.619986  151.634506    0.000000    0.000000    0.000000    0.000000
  0.024428858   -0.644138  -19.048769 -105.632298  137.335373    0.000000    0.000000    0.000000    0.000000
  0.024629259   -0.642753  -19.210108 -104.967646  143.924866    0.000000    0.000000    0.000000    0.000000
  0.024829659   -0.637269  -19.323500 -108.138483  141.089355    0.000000    0.000000    0.000000    0.000000
  0.025030060   -0.638437  -19.485926 -104.613383  145.609711    0.000000    0.000000    0.000000    0.000000
  0.025230461   -0.637102  -19.646591 -105.263082  142.447891    0.000000    0.000000    0.000000    0.000000
  0.025430862   -0.638218  -19.797266 -106.598675  144.551376    0.000000    0.000000    0.000000    0.000000
  0.025631263   -0.635441  -19.957624 -105.610090  140.743225    0.000000    0.000000    0.000000    0.000000
  0.025831663   -0.634885  -20.046818 -107.510194  138.690765    0.000000    0.000000    0.000000    0.000000
  0.026032064   -0.634006  -20.268127 -107.309661  143.853241    0.000000    0.000000    0.000000    0.000000
  0.026232465   -0.633073  -20.421234 -105.550189  146.614548    0.000000    0.000000    0.000000    0.000000
  0.026432866   -0.631880  -20.583033 -106.514396  144.148102    0.000000    0.000000    0.000000    0.000000
  0.026633267   -0.632220  -20.727835 -107.358431  146.221039    0.000000    0.000000    0.000000    0.000000
  0.026833667   -0.636570  -20.895742 -105.953778  149.355637    0.000000    0.000000    0.000000    0.000000
  0.027034068   -0.631610  -21.049807 -107.303268  149.868530    0.000000    0.000000    0.000000    0.000000
  0.027234469   -0.632483  -21.193066 -105.251804  141.544876    0.000000    0.000000    0.000000    0.000000
  0.027434870   -0.631633  -21.350840 -107.063915  137.301041    0.000000    0.000000    0.000000    0.000000
  0.027635271   -0.632959  -21.488316 -105.530814  142.414963    0.000000    0.000000    0.000000    0.000000
  0.027835671   -0.634788  -21.643257 -106.733959  142.082413    0.000000    0.000000    0.000000    0.000000
  0.028036072   -0.637615  -21.802990 -106.278531  138.293396    0.000000    0.000000    0.000000    0.000000
  0.028236473   -0.633762  -21.955608 -106.759720  147.230179    0.000000    0.000000    0.000000    0.000000
  0.028436874   -0.634228  -22.089355 -105.858604  144.471191    0.000000    0.000000    0.000000    0.000000
  0.028637275   -0.636870  -22.257954 -107.316196  160.447876    0.000000    0.000000    0.000000    0.000000
  0.028837675   -0.638905  -22.425470 -106.689312  146.827744    0.000000    0.000000    0.000000    0.000000
  0.029038076   -0.640012  -22.544899 -107.137303  143.572510    0.000000    0.000000    0.000000    0.000000
  0.029238477   -0.646081  -22.708975 -105.861921  141.071411    0.000000    0.000000    0.000000    0.000000
  0.029438878   -0.641526  -22.871908 -106.652595  147.800491    0.000000    0.000000    0.000000    0.000000
  0.029639279   -0.643828  -23.016146 -106.331817  148.616699    0.000000    0.000000    0.000000    0.000000
  0.029839679   -0.643885  -23.173677 -107.321414  150.560532    0.000000    0.000000    0.000000    0.000000
  0.030040080   -0.645260  -23.333870 -106.561735  139.883484    0.000000    0.000000    0.000000    0.000000
  0.030240481   -0.646988  -23.490538 -106.911661  137.345139    0.000000    0.000000    0.000000    0.000000
  0.030440882   -0.648437  -23.675095 -106.298907  146.530823    0.000000    0.000000    0.000000    0.000000
  0.030641283   -0.648770  -23.797861 -105.222412  141.088455    0.000000    0.000000    0.000000    0.000000
  0.030841683   -0.648242  -23.976936 -106.717340  156.280655    0.000000    0.000000    0.000000    0.000000
  0.031042084   -0.651823  -24.159941 -107.745985  152.834290    0.000000    0.000000    0.000000    0.000000
  0.031242485   -0.653223  -24.277941 -106.397749  143.705765    0.000000    0.000000    0.000000    0.000000
  0.031442886   -0.658810  -24.469997 -106.733510  134.384628    0.000000    0.000000    0.000000    0.000000
  0.031643287   -0.658371  -24.615171 -106.949757  143.067261    0.000000    0.000000    0.000000    0.000000
  0.031843687   -0.661866  -24.805096 -106.330131  140.925598    0.000000    0.000000    0.000000    0.000000
  0.032044088   -0.657796  -24.943235 -106.633511  149.426117    0.000000    0.000000    0.000000    0.000000
  0.032244489   -0.662726  -25.153120 -107.128553  145.635956    0.000000    0.000000    0.000000    0.000000
  0.032444890   -0.656911  -25.294333 -107.021968  143.158585    0.000000    0.000000    0.000000    0.000000
  0.032645291   -0.661843  -25.454941 -108.112034  138.225174    0.000000    0.000000    0.000000    0.000000
  0.032845691   -0.659495  -25.609716 -107.240128  151.074997    0.000000    0.000000    0.000000    0.000000
  0.033046092   -0.663048  -25.794531 -106.710942  146.267242    0.000000    0.000000    0.000000    0.000000
  0.033246493   -0.661306  -25.980371 -106.095580  140.397247    0.000000    0.000000    0.000000    0.000000
  0.033446894   -0.659025  -26.139341 -106.650163  141.824875    0.000000    0.000000    0.000000    0.000000
  0.033647295   -0.662003  -26.296902 -106.933438  141.840622    0.000000    0.000000    0.000000    0.000000
  0.033847695   -0.659406  -26.478607 -106.978611  148.920441    0.000000    0.000000    0.000000    0.000000
  0.034048096   -0.657192  -26.635555 -108.007221  145.724457    0.000000    0.000000    0.000000    0.000000
  0.034248497   -0.658725  -26.788706 -108.222462  153.269730    0.000000    0.000000    0.000000    0.000000
  0.034448898   -0.655953  -26.952364 -107.276703  149.546204    0.000000    0.000000    0.000000    0.000000
  0.034649299   -0.655861  -27.114103 -107.472913  146.784256    0.000000    0.000000    0.000000    0.000000
  0.034849699   -0.654523  -27.276348 -106.341462  137.012558    0.000000    0.000000    0.000000    0.000000
  0.035050100   -0.653402  -27.431664 -105.601794  143.161545    0.000000    0.000000    0.000000    0.000000
  0.035250501   -0.652580  -27.588112 -107.190267  136.745407    0.000000    0.000000    0.000000    0.000000
  0.035450902   -0.650136  -27.760063 -106.324458  145.541489    0.000000    0.000000    0.000000    0.000000
  0.035651303   -0.649769  -27.919880 -106.303256  138.104431    0.000000    0.000000    0.000000    0.000000
  0.035851703   -0.649781  -28.051586 -105.971461  135.176849    0.000000    0.000000    0.000000    0.000000
  0.036052104   -0.648922  -28.199574 -105.809612  147.641708    0.000000    0.000000    0.000000    0.000000
  0.036252505   -0.647430  -28.363928 -107.021359  144.763718    0.000000    0.000000    0.000000    0.000000
  0.036452906   -0.649664  -28.517036 -106.099344  135.310959    0.000000    0.000000    0.000000    0.000000
  0.036653307   -0.650237  -28.655800 -107.584393  137.944168    0.000000    0.000000    0.000000    0.000000
  0.036853707   -0.647715  -28.813412 -106.499166  142.320129    0.000000    0.000000    0.000000    0.000000
  0.037054108   -0.650031  -28.959412 -108.033333  141.229828    0.000000    0.000000    0.000000    0.000000
  0.037254509   -0.648256  -29.106075 -107.071803  140.213058    0.000000    0.000000    0.000000    0.000000
  0.037454910   -0.650157  -29.243963 -106.944441  140.182114    0.000000    0.000000    0.000000    0.000000
  0.037655311   -0.651554  -29.399939 -107.260874  136.511505    0.000000    0.000000    0.000000    0.000000
  0.037855711   -0.649797  -29.553343 -107.063906  138.561874    0.000000    0.000000    0.000000    0.000000
  0.038056112   -0.652475  -29.697802 -107.385387  139.678345    0.000000    0.000000    0.000000    0.000000
  0.038256513   -0.653411  -29.855549 -106.783684  134.241531    0.000000    0.000000    0.000000    0.000000
  0.038456914   -0.656210  -30.006981 -106.337668  140.386978    0.000000    0.000000    0.000000    0.000000
  0.038657315   -0.655587  -30.166418 -107.094868  139.540512    0.000000    0.000000    0.000000    0.000000
  0.038857715   -0.659734  -30.328815 -107.180054  147.367142    0.000000    0.000000    0.000000    0.000000
  0.039058116   -0.662928  -30.477383 -106.898654  138.894440    0.000000    0.000000    0.000000    0.000000
  0.039258517   -0.665593  -30.641399 -107.712695  138.636551    0.000000    0.000000    0.000000    0.000000
  0.039458918   -0.668874  -30.800076 -106.180482  140.146881    0.000000    0.000000    0.000000    0.000000
  0.039659319   -0.668760  -30.952911 -107.110404  142.124939    0.000000    0.000000    0.000000    0.000000
  0.039859719   -0.673357  -31.120548 -106.513020  137.827896    0.000000    0.000000    0.000000    0.000000
  0.040060120   -0.675979  -31.291460 -106.705288  142.937164    0.000000    0.000000    0.000000    0.000000
  0.040260521   -0.677092  -31.446819 -107.305664  146.085068    0.000000    0.000000    0.000000    0.000000
  0.040460922   -0.675008  -31.633209 -106.970409  136.535934    0.000000    0.000000    0.000000    0.000000
  0.040661323   -0.676698  -31.801651 -106.575363  140.395630    0.000000    0.000000    0.000000    0.000000
  0.040861723   -0.678087  -31.997931 -107.066520  133.659363    0.000000    0.000000    0.000000    0.000000
  0.041062124   -0.678995  -32.171249 -107.207530  145.199310    0.000000    0.000000    0.000000    0.000000
  0.041262525   -0.679802  -32.327576 -107.522437  135.849884    0.000000    0.000000    0.000000    0.000000
  0.041462926   -0.680006  -32.503113 -106.440374  134.966827    0.000000    0.000000    0.000000    0.000000
  0.041663327   -0.677921  -32.681614 -108.470540  144.597809    0.000000    0.000000    0.000000    0.000000
  0.041863727   -0.678239  -32.844223 -107.346556  137.179001    0.000000    0.000000    0.000000    0.000000
  0.042064128   -0.675434  -33.008968 -105.165542  144.195129    0.000000    0.000000    0.000000    0.000000
  0.042264529   -0.677993  -33.176041 -105.877422  135.629349    0.000000    0.000000    0.000000    0.000000
  0.042464930   -0.673308  -33.360416 -106.795114  139.546280    0.000000    0.000000    0.000000    0.000000
  0.042665331   -0.669578  -33.533787 -106.810786  144.764572    0.000000    0.000000    0.000000    0.000000
  0.042865731   -0.669410  -33.684715 -106.559791  138.816330    0.000000    0.000000    0.000000    0.000000
