! Anritsu VNA Master:                 Model: MS2034B/10/19/501
! SN:                                  1337062
! /bd0/ovro-jan-2016/dcp3-y1-balun-load.s2p
! Existing Calibration Information:
! TYPE:                         Current Settings,       Active Cal Settings
! TIME:             	   01/14/2016 12:12:35 PM,    01/14/2016 12:01:10 PM
! INTERNAL TEMP:    	                   44.3 C,                    43.8 C
! # POINTS:         	                      500,                       500
! START FREQ:       	               10.000 MHz,                10.000 MHz
! STOP FREQ:        	              110.000 MHz,               110.000 MHz
! SOURCE POWER:     	                     High,                      High
! IFBW:             	                   100 Hz,                    100 Hz
! AVG FACTOR:       	                       4 ,                        4 
! REF PLANE 1:      	                     0 mm,                      0 mm
! REF PLANE 2:      	                     0 mm,                      0 mm
! CAL TYPE:         	                 Full S11,                  Full S11
! CAL METHOD:       	                     SOLT,                      SOLT
! CAL LINE TYPE:    	                     Coax,                      Coax
! DUT PORT 1:       	                K-Conn(M),                 K-Conn(M)
! DUT PORT 2:       	                N-Conn(M),                 N-Conn(M)
! CAL STATUS:       	        OK: Accuracy High,                        --
# GHZ S DB R 50.0
! FREQ.GHZ       S11DB        S11A       S21DB        S21A       S12DB        S12A       S22DB        S22A
  0.010000000   -9.416821  174.627609 -104.315413  140.757721    0.000000    0.000000    0.000000    0.000000
  0.010200401   -9.422882  174.509140 -105.026832  142.660065    0.000000    0.000000    0.000000    0.000000
  0.010400802   -9.425387  174.470291 -103.655571  129.170090    0.000000    0.000000    0.000000    0.000000
  0.010601202   -9.446477  174.318085 -105.259405  136.284653    0.000000    0.000000    0.000000    0.000000
  0.010801603   -9.448781  174.215881 -105.297803  132.427612    0.000000    0.000000    0.000000    0.000000
  0.011002004   -9.452128  174.134033 -104.583524  142.479416    0.000000    0.000000    0.000000    0.000000
  0.011202405   -9.455226  174.035736 -105.456214  141.915848    0.000000    0.000000    0.000000    0.000000
  0.011402806   -9.453663  173.944351 -106.797408  141.196899    0.000000    0.000000    0.000000    0.000000
  0.011603206   -9.459009  173.854691 -105.344168  142.371948    0.000000    0.000000    0.000000    0.000000
  0.011803607   -9.461728  173.773605 -105.574057  144.111984    0.000000    0.000000    0.000000    0.000000
  0.012004008   -9.457317  173.684982 -105.337840  133.273453    0.000000    0.000000    0.000000    0.000000
  0.012204409   -9.462796  173.611053 -105.133837  145.561050    0.000000    0.000000    0.000000    0.000000
  0.012404810   -9.463019  173.516235 -104.891223  137.507095    0.000000    0.000000    0.000000    0.000000
  0.012605210   -9.462746  173.409256 -105.045586  149.832733    0.000000    0.000000    0.000000    0.000000
  0.012805611   -9.467016  173.291931 -105.579281  144.559265    0.000000    0.000000    0.000000    0.000000
  0.013006012   -9.468361  173.223190 -106.210935  137.461777    0.000000    0.000000    0.000000    0.000000
  0.013206413   -9.468368  173.167480 -105.847901  137.124298    0.000000    0.000000    0.000000    0.000000
  0.013406814   -9.467833  173.044617 -107.604592  134.474518    0.000000    0.000000    0.000000    0.000000
  0.013607214   -9.471306  172.965378 -106.375645  140.499847    0.000000    0.000000    0.000000    0.000000
  0.013807615   -9.469700  172.869064 -106.167690  130.772858    0.000000    0.000000    0.000000    0.000000
  0.014008016   -9.468873  172.794266 -105.135530  138.816162    0.000000    0.000000    0.000000    0.000000
  0.014208417   -9.473589  172.698471 -105.736782  149.601913    0.000000    0.000000    0.000000    0.000000
  0.014408818   -9.474349  172.635818 -105.837262  137.855545    0.000000    0.000000    0.000000    0.000000
  0.014609218   -9.475691  172.551819 -106.802960  144.672943    0.000000    0.000000    0.000000    0.000000
  0.014809619   -9.479655  172.460190 -106.954944  148.464569    0.000000    0.000000    0.000000    0.000000
  0.015010020   -9.478161  172.359116 -106.116863  148.304642    0.000000    0.000000    0.000000    0.000000
  0.015210421   -9.478855  172.288300 -107.260641  145.151901    0.000000    0.000000    0.000000    0.000000
  0.015410822   -9.482902  172.208572 -107.135423  139.315552    0.000000    0.000000    0.000000    0.000000
  0.015611222   -9.482970  172.100464 -106.548606  134.739960    0.000000    0.000000    0.000000    0.000000
  0.015811623   -9.483506  172.019577 -105.851250  136.713989    0.000000    0.000000    0.000000    0.000000
  0.016012024   -9.484381  171.960129 -105.670188  135.115875    0.000000    0.000000    0.000000    0.000000
  0.016212425   -9.489492  171.864746 -107.358298  141.749283    0.000000    0.000000    0.000000    0.000000
  0.016412826   -9.482976  171.916595 -107.803451  136.320251    0.000000    0.000000    0.000000    0.000000
  0.016613226   -9.486667  171.834656 -106.804066  147.678314    0.000000    0.000000    0.000000    0.000000
  0.016813627   -9.493565  171.682709 -106.039473  142.614716    0.000000    0.000000    0.000000    0.000000
  0.017014028   -9.492357  171.675522 -107.322598  134.590988    0.000000    0.000000    0.000000    0.000000
  0.017214429   -9.494370  171.601257 -106.431887  133.825378    0.000000    0.000000    0.000000    0.000000
  0.017414830   -9.493124  171.480972 -106.772407  144.355743    0.000000    0.000000    0.000000    0.000000
  0.017615230   -9.496324  171.429260 -108.436074  138.557159    0.000000    0.000000    0.000000    0.000000
  0.017815631   -9.498254  171.312653 -107.638136  138.926193    0.000000    0.000000    0.000000    0.000000
  0.018016032   -9.506369  171.157928 -106.220589  138.603073    0.000000    0.000000    0.000000    0.000000
  0.018216433   -9.504827  171.128204 -106.176518  138.936996    0.000000    0.000000    0.000000    0.000000
  0.018416834   -9.508646  171.069977 -106.503090  138.277222    0.000000    0.000000    0.000000    0.000000
  0.018617234   -9.510274  170.977737 -107.058504  136.140854    0.000000    0.000000    0.000000    0.000000
  0.018817635   -9.516811  170.883759 -106.257663  151.810287    0.000000    0.000000    0.000000    0.000000
  0.019018036   -9.520141  170.793915 -106.243572  134.708771    0.000000    0.000000    0.000000    0.000000
  0.019218437   -9.527199  170.613297 -105.643451  147.840698    0.000000    0.000000    0.000000    0.000000
  0.019418838   -9.526986  170.606903 -105.805234  147.598053    0.000000    0.000000    0.000000    0.000000
  0.019619238   -9.529347  170.529953 -106.941607  142.480881    0.000000    0.000000    0.000000    0.000000
  0.019819639   -9.531076  170.418472 -108.329995  155.062698    0.000000    0.000000    0.000000    0.000000
  0.020020040   -9.535226  170.321167 -107.247142  145.243378    0.000000    0.000000    0.000000    0.000000
  0.020220441   -9.539774  170.223663 -107.261060  141.126602    0.000000    0.000000    0.000000    0.000000
  0.020420842   -9.541688  170.091354 -107.701592  148.316971    0.000000    0.000000    0.000000    0.000000
  0.020621242   -9.543756  169.934937 -107.667707  142.862900    0.000000    0.000000    0.000000    0.000000
  0.020821643   -9.547274  169.926910 -106.505192  146.459549    0.000000    0.000000    0.000000    0.000000
  0.021022044   -9.546263  169.829895 -107.824901  152.645050    0.000000    0.000000    0.000000    0.000000
  0.021222445   -9.549130  169.747650 -107.496473  146.248230    0.000000    0.000000    0.000000    0.000000
  0.021422846   -9.548675  169.651276 -105.887055  150.606186    0.000000    0.000000    0.000000    0.000000
  0.021623246   -9.547356  169.524918 -107.432011  148.145523    0.000000    0.000000    0.000000    0.000000
  0.021823647   -9.551668  169.386322 -106.353523  143.075882    0.000000    0.000000    0.000000    0.000000
  0.022024048   -9.557458  169.375153 -107.277335  149.109848    0.000000    0.000000    0.000000    0.000000
  0.022224449   -9.557233  169.265106 -106.847154  146.019257    0.000000    0.000000    0.000000    0.000000
  0.022424850   -9.555497  169.134308 -108.254778  149.656219    0.000000    0.000000    0.000000    0.000000
  0.022625251   -9.556871  169.067596 -105.415577  142.510437    0.000000    0.000000    0.000000    0.000000
  0.022825651   -9.560266  168.964279 -106.222662  137.088776    0.000000    0.000000    0.000000    0.000000
  0.023026052   -9.555214  168.801773 -106.624261  143.370239    0.000000    0.000000    0.000000    0.000000
  0.023226453   -9.553898  168.753647 -106.299578  146.698380    0.000000    0.000000    0.000000    0.000000
  0.023426854   -9.558781  168.697693 -108.329464  142.831802    0.000000    0.000000    0.000000    0.000000
  0.023627255   -9.557918  168.606339 -106.312767  145.806229    0.000000    0.000000    0.000000    0.000000
  0.023827655   -9.560687  168.492645 -106.521137  136.739380    0.000000    0.000000    0.000000    0.000000
  0.024028056   -9.557077  168.410522 -106.370763  137.107498    0.000000    0.000000    0.000000    0.000000
  0.024228457   -9.559712  168.295258 -107.056781  141.269028    0.000000    0.000000    0.000000    0.000000
  0.024428858   -9.560037  168.260651 -107.175613  144.081650    0.000000    0.000000    0.000000    0.000000
  0.024629259   -9.561434  168.184128 -105.674463  152.540283    0.000000    0.000000    0.000000    0.000000
  0.024829659   -9.544419  168.229279 -106.524923  148.822266    0.000000    0.000000    0.000000    0.000000
  0.025030060   -9.550412  168.162003 -108.295878  141.715179    0.000000    0.000000    0.000000    0.000000
  0.025230461   -9.549185  168.035187 -107.829316  144.660675    0.000000    0.000000    0.000000    0.000000
  0.025430862   -9.544797  167.919052 -106.357985  139.575089    0.000000    0.000000    0.000000    0.000000
  0.025631263   -9.548795  167.878830 -107.768194  143.804825    0.000000    0.000000    0.000000    0.000000
  0.025831663   -9.551025  167.833527 -106.451456  136.383209    0.000000    0.000000    0.000000    0.000000
  0.026032064   -9.551753  167.707855 -107.000085  143.122330    0.000000    0.000000    0.000000    0.000000
  0.026232465   -9.550430  167.618805 -107.025141  140.525925    0.000000    0.000000    0.000000    0.000000
  0.026432866   -9.550145  167.516006 -107.140874  143.785889    0.000000    0.000000    0.000000    0.000000
  0.026633267   -9.553306  167.413956 -107.266924  143.098068    0.000000    0.000000    0.000000    0.000000
  0.026833667   -9.546241  167.280960 -106.671149  136.747574    0.000000    0.000000    0.000000    0.000000
  0.027034068   -9.554320  167.214813 -107.006185  139.245682    0.000000    0.000000    0.000000    0.000000
  0.027234469   -9.557120  167.143127 -106.849149  136.241440    0.000000    0.000000    0.000000    0.000000
  0.027434870   -9.560789  167.064423 -106.591695  134.753036    0.000000    0.000000    0.000000    0.000000
  0.027635271   -9.561596  166.985458 -106.439058  147.720566    0.000000    0.000000    0.000000    0.000000
  0.027835671   -9.565284  166.878448 -107.672965  135.667740    0.000000    0.000000    0.000000    0.000000
  0.028036072   -9.554530  166.744843 -107.066858  150.039291    0.000000    0.000000    0.000000    0.000000
  0.028236473   -9.560822  166.676361 -108.363673  135.617722    0.000000    0.000000    0.000000    0.000000
  0.028436874   -9.567736  166.608109 -105.849164  133.293594    0.000000    0.000000    0.000000    0.000000
  0.028637275   -9.573435  166.524231 -107.131901  149.262161    0.000000    0.000000    0.000000    0.000000
  0.028837675   -9.573279  166.426300 -106.518272  142.590332    0.000000    0.000000    0.000000    0.000000
  0.029038076   -9.578204  166.333237 -106.589519  140.986710    0.000000    0.000000    0.000000    0.000000
  0.029238477   -9.569202  166.236908 -106.370190  141.629990    0.000000    0.000000    0.000000    0.000000
  0.029438878   -9.577972  166.162918 -107.419987  139.152359    0.000000    0.000000    0.000000    0.000000
  0.029639279   -9.580696  166.061508 -106.344566  136.901016    0.000000    0.000000    0.000000    0.000000
  0.029839679   -9.578059  165.973785 -107.480794  146.092941    0.000000    0.000000    0.000000    0.000000
  0.030040080   -9.589264  165.860336 -106.634218  141.374512    0.000000    0.000000    0.000000    0.000000
  0.030240481   -9.588711  165.745148 -108.353628  146.908875    0.000000    0.000000    0.000000    0.000000
  0.030440882   -9.575195  165.649826 -105.913816  146.683487    0.000000    0.000000    0.000000    0.000000
  0.030641283   -9.586763  165.588776 -105.950271  144.557770    0.000000    0.000000    0.000000    0.000000
  0.030841683   -9.591120  165.468445 -106.387248  136.478455    0.000000    0.000000    0.000000    0.000000
  0.031042084   -9.589615  165.393158 -107.071118  130.988663    0.000000    0.000000    0.000000    0.000000
  0.031242485   -9.593343  165.281601 -106.545058  146.235016    0.000000    0.000000    0.000000    0.000000
  0.031442886   -9.593364  165.198639 -105.505223  135.076218    0.000000    0.000000    0.000000    0.000000
  0.031643287   -9.592349  165.105255 -107.454988  138.582489    0.000000    0.000000    0.000000    0.000000
  0.031843687   -9.584257  164.969101 -106.319309  140.083847    0.000000    0.000000    0.000000    0.000000
  0.032044088   -9.598974  164.922745 -104.475899  141.779846    0.000000    0.000000    0.000000    0.000000
  0.032244489   -9.590893  164.815018 -106.850316  147.583038    0.000000    0.000000    0.000000    0.000000
  0.032444890   -9.592442  164.698013 -106.450901  144.789795    0.000000    0.000000    0.000000    0.000000
  0.032645291   -9.593149  164.624176 -105.834678  145.152130    0.000000    0.000000    0.000000    0.000000
  0.032845691   -9.596216  164.520676 -105.733356  139.437469    0.000000    0.000000    0.000000    0.000000
  0.033046092   -9.582292  164.539963 -105.824509  147.750427    0.000000    0.000000    0.000000    0.000000
  0.033246493   -9.580743  164.409637 -106.179545  138.859955    0.000000    0.000000    0.000000    0.000000
  0.033446894   -9.580371  164.315704 -106.022046  133.531937    0.000000    0.000000    0.000000    0.000000
  0.033647295   -9.581285  164.239624 -106.130588  142.341812    0.000000    0.000000    0.000000    0.000000
  0.033847695   -9.581942  164.149063 -106.534919  146.936432    0.000000    0.000000    0.000000    0.000000
  0.034048096   -9.582113  164.071045 -105.959285  144.569351    0.000000    0.000000    0.000000    0.000000
  0.034248497   -9.583407  163.967255 -106.185788  146.214478    0.000000    0.000000    0.000000    0.000000
  0.034448898   -9.583141  163.887573 -106.566689  144.949738    0.000000    0.000000    0.000000    0.000000
  0.034649299   -9.587093  163.803101 -106.360602  139.710220    0.000000    0.000000    0.000000    0.000000
  0.034849699   -9.586691  163.727859 -106.134728  144.465393    0.000000    0.000000    0.000000    0.000000
  0.035050100   -9.587614  163.636765 -104.627442  140.328903    0.000000    0.000000    0.000000    0.000000
  0.035250501   -9.590297  163.566528 -105.748980  149.266312    0.000000    0.000000    0.000000    0.000000
  0.035450902   -9.591996  163.478256 -105.438586  140.899261    0.000000    0.000000    0.000000    0.000000
  0.035651303   -9.592689  163.396576 -106.996545  141.910004    0.000000    0.000000    0.000000    0.000000
  0.035851703   -9.595428  163.279648 -106.805262  151.956085    0.000000    0.000000    0.000000    0.000000
  0.036052104   -9.595387  163.216965 -105.490217  141.104507    0.000000    0.000000    0.000000    0.000000
  0.036252505   -9.595175  163.132278 -106.118725  144.549500    0.000000    0.000000    0.000000    0.000000
  0.036452906   -9.596806  163.022079 -105.608633  143.972794    0.000000    0.000000    0.000000    0.000000
  0.036653307   -9.599926  162.936829 -107.296652  139.915573    0.000000    0.000000    0.000000    0.000000
  0.036853707   -9.601509  162.864243 -105.385372  136.196075    0.000000    0.000000    0.000000    0.000000
  0.037054108   -9.603172  162.765564 -106.792070  137.224960    0.000000    0.000000    0.000000    0.000000
  0.037254509   -9.605780  162.656555 -105.991479  150.672485    0.000000    0.000000    0.000000    0.000000
  0.037454910   -9.606560  162.594147 -105.827024  145.978455    0.000000    0.000000    0.000000    0.000000
  0.037655311   -9.609833  162.497665 -106.373923  146.606995    0.000000    0.000000    0.000000    0.000000
  0.037855711   -9.608268  162.408127 -104.668991  142.267151    0.000000    0.000000    0.000000    0.000000
  0.038056112   -9.609502  162.331955 -106.237803  139.968933    0.000000    0.000000    0.000000    0.000000
  0.038256513   -9.609730  162.251831 -105.723002  136.381577    0.000000    0.000000    0.000000    0.000000
  0.038456914   -9.614132  162.159149 -106.557826  143.981461    0.000000    0.000000    0.000000    0.000000
  0.038657315   -9.613229  162.053268 -106.152608  143.187973    0.000000    0.000000    0.000000    0.000000
  0.038857715   -9.615650  161.966095 -106.166579  137.489151    0.000000    0.000000    0.000000    0.000000
  0.039058116   -9.619246  161.860031 -105.867272  143.054596    0.000000    0.000000    0.000000    0.000000
  0.039258517   -9.621915  161.772476 -107.020397  142.394577    0.000000    0.000000    0.000000    0.000000
  0.039458918   -9.622360  161.688919 -106.821089  144.323975    0.000000    0.000000    0.000000    0.000000
  0.039659319   -9.622728  161.596542 -105.541852  144.660400    0.000000    0.000000    0.000000    0.000000
  0.039859719   -9.624957  161.476746 -105.931046  140.410446    0.000000    0.000000    0.000000    0.000000
  0.040060120   -9.627364  161.390503 -106.646055  148.773819    0.000000    0.000000    0.000000    0.000000
  0.040260521   -9.626914  161.290558 -106.854075  141.855804    0.000000    0.000000    0.000000    0.000000
  0.040460922   -9.625879  161.189499 -106.244040  146.559464    0.000000    0.000000    0.000000    0.000000
  0.040661323   -9.628072  161.104034 -106.211362  139.103561    0.000000    0.000000    0.000000    0.000000
  0.040861723   -9.628262  160.999191 -106.772186  144.334198    0.000000    0.000000    0.000000    0.000000
  0.041062124   -9.628269  160.925339 -106.801420  138.374557    0.000000    0.000000    0.000000    0.000000
  0.041262525   -9.625342  160.800858 -105.422022  145.541504    0.000000    0.000000    0.000000    0.000000
  0.041462926   -9.626900  160.730743 -106.459106  141.999649    0.000000    0.000000    0.000000    0.000000
  0.041663327   -9.627229  160.636734 -106.863988  141.825455    0.000000    0.000000    0.000000    0.000000
  0.041863727   -9.625081  160.527084 -104.965216  142.350616    0.000000    0.000000    0.000000    0.000000
  0.042064128   -9.622458  160.406189 -106.505299  143.854095    0.000000    0.000000    0.000000    0.000000
  0.042264529   -9.626348  160.301041 -106.557700  143.961868    0.000000    0.000000    0.000000    0.000000
  0.042464930   -9.627600  160.251053 -106.114303  143.205063    0.000000    0.000000    0.000000    0.000000
  0.042665331   -9.629603  160.173431 -105.974782  148.187714    0.000000    0.000000    0.000000    0.000000
  0.042865731   -9.625779  160.036911 -105.415405  149.554092    0.000000    0.000000    0.000000    0.000000
