! Anritsu VNA Master:                 Model: MS2034B/10/19/501
! SN:                                  1337062
! /bd0/ovro-jan-2016/dcp3-b1-balun-short.s2p
! Existing Calibration Information:
! TYPE:                         Current Settings,       Active Cal Settings
! TIME:             	   01/14/2016 12:21:51 PM,    01/14/2016 12:01:10 PM
! INTERNAL TEMP:    	                   43.8 C,                    43.8 C
! # POINTS:         	                      500,                       500
! START FREQ:       	               10.000 MHz,                10.000 MHz
! STOP FREQ:        	              110.000 MHz,               110.000 MHz
! SOURCE POWER:     	                     High,                      High
! IFBW:             	                   100 Hz,                    100 Hz
! AVG FACTOR:       	                       4 ,                        4 
! REF PLANE 1:      	                     0 mm,                      0 mm
! REF PLANE 2:      	                     0 mm,                      0 mm
! CAL TYPE:         	                 Full S11,                  Full S11
! CAL METHOD:       	                     SOLT,                      SOLT
! CAL LINE TYPE:    	                     Coax,                      Coax
! DUT PORT 1:       	                K-Conn(M),                 K-Conn(M)
! DUT PORT 2:       	                N-Conn(M),                 N-Conn(M)
! CAL STATUS:       	        OK: Accuracy High,                        --
# GHZ S DB R 50.0
! FREQ.GHZ       S11DB        S11A       S21DB        S21A       S12DB        S12A       S22DB        S22A
  0.010000000   -0.198601  170.365509 -104.967097  128.132156    0.000000    0.000000    0.000000    0.000000
  0.010200401   -0.202677  170.187073 -106.457091  120.929344    0.000000    0.000000    0.000000    0.000000
  0.010400802   -0.207768  170.030624 -104.818044  138.713577    0.000000    0.000000    0.000000    0.000000
  0.010601202   -0.211609  169.808319 -104.517879  125.011505    0.000000    0.000000    0.000000    0.000000
  0.010801603   -0.216166  169.639008 -105.052871  131.819366    0.000000    0.000000    0.000000    0.000000
  0.011002004   -0.213168  169.444794 -105.799600  132.526382    0.000000    0.000000    0.000000    0.000000
  0.011202405   -0.220890  169.273407 -105.174200  127.204788    0.000000    0.000000    0.000000    0.000000
  0.011402806   -0.221240  169.114944 -106.942534  124.527710    0.000000    0.000000    0.000000    0.000000
  0.011603206   -0.222765  168.902832 -106.089451  126.979080    0.000000    0.000000    0.000000    0.000000
  0.011803607   -0.224745  168.730942 -104.894774  129.191681    0.000000    0.000000    0.000000    0.000000
  0.012004008   -0.221561  168.580826 -105.843784  129.393906    0.000000    0.000000    0.000000    0.000000
  0.012204409   -0.231947  168.392105 -105.764151  128.420120    0.000000    0.000000    0.000000    0.000000
  0.012404810   -0.229665  168.183823 -106.319934  125.258400    0.000000    0.000000    0.000000    0.000000
  0.012605210   -0.232949  167.989517 -107.074595  133.599365    0.000000    0.000000    0.000000    0.000000
  0.012805611   -0.240222  167.810501 -105.801832  131.045410    0.000000    0.000000    0.000000    0.000000
  0.013006012   -0.235688  167.624420 -106.859240  137.829224    0.000000    0.000000    0.000000    0.000000
  0.013206413   -0.240500  167.453415 -106.715115  126.934120    0.000000    0.000000    0.000000    0.000000
  0.013406814   -0.241669  167.263031 -107.024575  125.271118    0.000000    0.000000    0.000000    0.000000
  0.013607214   -0.244146  167.075287 -108.244815  142.987640    0.000000    0.000000    0.000000    0.000000
  0.013807615   -0.246063  166.899124 -106.525581  126.720825    0.000000    0.000000    0.000000    0.000000
  0.014008016   -0.248422  166.711899 -106.669463  124.787445    0.000000    0.000000    0.000000    0.000000
  0.014208417   -0.249491  166.527008 -107.573461  130.164856    0.000000    0.000000    0.000000    0.000000
  0.014408818   -0.249104  166.360214 -107.642399  138.849426    0.000000    0.000000    0.000000    0.000000
  0.014609218   -0.250059  166.164978 -107.726369  132.401688    0.000000    0.000000    0.000000    0.000000
  0.014809619   -0.254512  165.985413 -108.532242  134.513962    0.000000    0.000000    0.000000    0.000000
  0.015010020   -0.255411  165.798904 -107.623020  133.692871    0.000000    0.000000    0.000000    0.000000
  0.015210421   -0.257191  165.615295 -108.133330  134.939850    0.000000    0.000000    0.000000    0.000000
  0.015410822   -0.257338  165.442123 -107.947896  136.586060    0.000000    0.000000    0.000000    0.000000
  0.015611222   -0.257587  165.264481 -108.240536  129.417603    0.000000    0.000000    0.000000    0.000000
  0.015811623   -0.259013  165.074738 -107.091044  150.138794    0.000000    0.000000    0.000000    0.000000
  0.016012024   -0.260523  164.911926 -107.655508  136.601563    0.000000    0.000000    0.000000    0.000000
  0.016212425   -0.262737  164.736160 -107.259089  145.212631    0.000000    0.000000    0.000000    0.000000
  0.016412826   -0.266593  164.564163 -108.153918  142.446335    0.000000    0.000000    0.000000    0.000000
  0.016613226   -0.266016  164.403168 -108.166246  136.091248    0.000000    0.000000    0.000000    0.000000
  0.016813627   -0.266511  164.205994 -107.616739  126.058083    0.000000    0.000000    0.000000    0.000000
  0.017014028   -0.269664  164.045395 -108.000096  135.859680    0.000000    0.000000    0.000000    0.000000
  0.017214429   -0.270430  163.874939 -107.463289  136.668045    0.000000    0.000000    0.000000    0.000000
  0.017414830   -0.274130  163.705795 -109.644556  139.026733    0.000000    0.000000    0.000000    0.000000
  0.017615230   -0.276482  163.534622 -107.145442  142.491348    0.000000    0.000000    0.000000    0.000000
  0.017815631   -0.276933  163.356323 -107.576153  139.407349    0.000000    0.000000    0.000000    0.000000
  0.018016032   -0.278752  163.176163 -107.648332  132.575012    0.000000    0.000000    0.000000    0.000000
  0.018216433   -0.282313  163.011108 -108.239558  134.784607    0.000000    0.000000    0.000000    0.000000
  0.018416834   -0.286250  162.841995 -107.799183  141.361694    0.000000    0.000000    0.000000    0.000000
  0.018617234   -0.288351  162.667908 -108.606114  136.429764    0.000000    0.000000    0.000000    0.000000
  0.018817635   -0.292460  162.489517 -108.019596  154.986496    0.000000    0.000000    0.000000    0.000000
  0.019018036   -0.295338  162.319611 -108.660282  138.581650    0.000000    0.000000    0.000000    0.000000
  0.019218437   -0.296966  162.129410 -108.086082  147.802887    0.000000    0.000000    0.000000    0.000000
  0.019418838   -0.301982  161.961014 -106.881383  140.884033    0.000000    0.000000    0.000000    0.000000
  0.019619238   -0.305117  161.777237 -107.897898  145.289108    0.000000    0.000000    0.000000    0.000000
  0.019819639   -0.309127  161.600998 -108.342304  142.547546    0.000000    0.000000    0.000000    0.000000
  0.020020040   -0.311268  161.413116 -108.489758  142.341537    0.000000    0.000000    0.000000    0.000000
  0.020220441   -0.315478  161.219696 -108.871416  147.655945    0.000000    0.000000    0.000000    0.000000
  0.020420842   -0.317660  161.039688 -108.212050  145.868912    0.000000    0.000000    0.000000    0.000000
  0.020621242   -0.318331  160.855499 -108.494066  159.155624    0.000000    0.000000    0.000000    0.000000
  0.020821643   -0.323469  160.673294 -107.864393  140.951508    0.000000    0.000000    0.000000    0.000000
  0.021022044   -0.327797  160.489655 -108.533749  153.436111    0.000000    0.000000    0.000000    0.000000
  0.021222445   -0.329137  160.302383 -108.345456  147.804977    0.000000    0.000000    0.000000    0.000000
  0.021422846   -0.332603  160.117157 -107.588703  149.628098    0.000000    0.000000    0.000000    0.000000
  0.021623246   -0.334182  159.911850 -105.942685  146.888657    0.000000    0.000000    0.000000    0.000000
  0.021823647   -0.333556  159.716827 -107.199165  144.643906    0.000000    0.000000    0.000000    0.000000
  0.022024048   -0.339458  159.539734 -107.391607  139.939545    0.000000    0.000000    0.000000    0.000000
  0.022224449   -0.339647  159.342514 -106.727681  145.784195    0.000000    0.000000    0.000000    0.000000
  0.022424850   -0.340392  159.157211 -108.537030  143.294525    0.000000    0.000000    0.000000    0.000000
  0.022625251   -0.341941  158.959656 -107.227546  148.685089    0.000000    0.000000    0.000000    0.000000
  0.022825651   -0.343577  158.773163 -106.446180  140.705841    0.000000    0.000000    0.000000    0.000000
  0.023026052   -0.338532  158.593613 -107.077677  148.153076    0.000000    0.000000    0.000000    0.000000
  0.023226453   -0.341745  158.398392 -107.535377  145.991653    0.000000    0.000000    0.000000    0.000000
  0.023426854   -0.341973  158.221100 -106.748023  145.624863    0.000000    0.000000    0.000000    0.000000
  0.023627255   -0.343087  158.017578 -106.303120  143.099182    0.000000    0.000000    0.000000    0.000000
  0.023827655   -0.344046  157.819916 -106.222139  142.255905    0.000000    0.000000    0.000000    0.000000
  0.024028056   -0.341888  157.653122 -106.484375  143.917496    0.000000    0.000000    0.000000    0.000000
  0.024228457   -0.339936  157.473480 -106.373969  143.781677    0.000000    0.000000    0.000000    0.000000
  0.024428858   -0.339368  157.314590 -106.327384  147.424637    0.000000    0.000000    0.000000    0.000000
  0.024629259   -0.339762  157.130112 -106.867497  138.189453    0.000000    0.000000    0.000000    0.000000
  0.024829659   -0.337601  156.995377 -107.565176  155.687225    0.000000    0.000000    0.000000    0.000000
  0.025030060   -0.338436  156.817993 -106.510936  145.469040    0.000000    0.000000    0.000000    0.000000
  0.025230461   -0.336923  156.636642 -108.135123  139.907242    0.000000    0.000000    0.000000    0.000000
  0.025430862   -0.335763  156.459930 -108.011534  147.424271    0.000000    0.000000    0.000000    0.000000
  0.025631263   -0.335917  156.287491 -106.783210  142.380524    0.000000    0.000000    0.000000    0.000000
  0.025831663   -0.333033  156.117889 -107.694308  142.976349    0.000000    0.000000    0.000000    0.000000
  0.026032064   -0.336044  155.948105 -107.865207  139.143784    0.000000    0.000000    0.000000    0.000000
  0.026232465   -0.331238  155.780670 -106.940576  157.436539    0.000000    0.000000    0.000000    0.000000
  0.026432866   -0.337385  155.599533 -107.814268  129.322876    0.000000    0.000000    0.000000    0.000000
  0.026633267   -0.335185  155.430557 -107.316352  146.437668    0.000000    0.000000    0.000000    0.000000
  0.026833667   -0.333703  155.266083 -108.217943  135.371292    0.000000    0.000000    0.000000    0.000000
  0.027034068   -0.339687  155.084274 -106.228762  133.862579    0.000000    0.000000    0.000000    0.000000
  0.027234469   -0.341691  154.922836 -105.945760  134.111481    0.000000    0.000000    0.000000    0.000000
  0.027434870   -0.346131  154.774399 -105.792343  136.388458    0.000000    0.000000    0.000000    0.000000
  0.027635271   -0.346480  154.596878 -107.161620  140.111053    0.000000    0.000000    0.000000    0.000000
  0.027835671   -0.348561  154.411484 -105.420596  142.976746    0.000000    0.000000    0.000000    0.000000
  0.028036072   -0.341237  154.249283 -106.600196  148.603592    0.000000    0.000000    0.000000    0.000000
  0.028236473   -0.348307  154.067398 -107.273881  136.624268    0.000000    0.000000    0.000000    0.000000
  0.028436874   -0.353166  153.895889 -106.991613  136.762604    0.000000    0.000000    0.000000    0.000000
  0.028637275   -0.357251  153.727386 -105.292827  138.358719    0.000000    0.000000    0.000000    0.000000
  0.028837675   -0.358833  153.535889 -105.645538  140.294464    0.000000    0.000000    0.000000    0.000000
  0.029038076   -0.363624  153.377960 -105.966114  138.809723    0.000000    0.000000    0.000000    0.000000
  0.029238477   -0.363067  153.214554 -106.472930  132.930939    0.000000    0.000000    0.000000    0.000000
  0.029438878   -0.365793  153.032867 -106.568191  135.509689    0.000000    0.000000    0.000000    0.000000
  0.029639279   -0.367063  152.861908 -106.937895  137.181091    0.000000    0.000000    0.000000    0.000000
  0.029839679   -0.370092  152.676025 -105.957907  149.551285    0.000000    0.000000    0.000000    0.000000
  0.030040080   -0.375103  152.480804 -105.614064  138.185669    0.000000    0.000000    0.000000    0.000000
  0.030240481   -0.376109  152.306641 -104.871581  146.653839    0.000000    0.000000    0.000000    0.000000
  0.030440882   -0.372785  152.157166 -105.596414  141.350662    0.000000    0.000000    0.000000    0.000000
  0.030641283   -0.379445  151.956406 -106.441749  144.813828    0.000000    0.000000    0.000000    0.000000
  0.030841683   -0.385124  151.759354 -105.699232  137.925018    0.000000    0.000000    0.000000    0.000000
  0.031042084   -0.382159  151.608551 -106.556740  143.276123    0.000000    0.000000    0.000000    0.000000
  0.031242485   -0.387298  151.381439 -105.523390  132.416565    0.000000    0.000000    0.000000    0.000000
  0.031442886   -0.386548  151.226807 -106.191453  146.670685    0.000000    0.000000    0.000000    0.000000
  0.031643287   -0.389840  151.066208 -106.087855  131.258118    0.000000    0.000000    0.000000    0.000000
  0.031843687   -0.389019  150.863586 -105.969229  131.850739    0.000000    0.000000    0.000000    0.000000
  0.032044088   -0.397806  150.689453 -106.421363  136.697678    0.000000    0.000000    0.000000    0.000000
  0.032244489   -0.389781  150.531708 -106.226189  141.772446    0.000000    0.000000    0.000000    0.000000
  0.032444890   -0.394733  150.312241 -105.065088  135.692368    0.000000    0.000000    0.000000    0.000000
  0.032645291   -0.395784  150.147324 -106.268865  144.360397    0.000000    0.000000    0.000000    0.000000
  0.032845691   -0.402528  149.956085 -106.008255  137.064117    0.000000    0.000000    0.000000    0.000000
  0.033046092   -0.400865  149.799072 -104.997334  141.459930    0.000000    0.000000    0.000000    0.000000
  0.033246493   -0.401756  149.619614 -105.884553  137.172714    0.000000    0.000000    0.000000    0.000000
  0.033446894   -0.403014  149.445877 -105.939074  145.464554    0.000000    0.000000    0.000000    0.000000
  0.033647295   -0.401938  149.287506 -106.558298  136.656799    0.000000    0.000000    0.000000    0.000000
  0.033847695   -0.407025  149.104309 -106.253208  144.044174    0.000000    0.000000    0.000000    0.000000
  0.034048096   -0.406648  148.919632 -107.053378  147.632813    0.000000    0.000000    0.000000    0.000000
  0.034248497   -0.409944  148.758759 -108.030433  142.524689    0.000000    0.000000    0.000000    0.000000
  0.034448898   -0.410335  148.584854 -107.963384  142.993179    0.000000    0.000000    0.000000    0.000000
  0.034649299   -0.411692  148.390167 -106.175171  150.295944    0.000000    0.000000    0.000000    0.000000
  0.034849699   -0.412049  148.228851 -106.764625  141.603027    0.000000    0.000000    0.000000    0.000000
  0.035050100   -0.414499  148.054825 -106.415897  136.982452    0.000000    0.000000    0.000000    0.000000
  0.035250501   -0.416776  147.885635 -106.675163  134.734482    0.000000    0.000000    0.000000    0.000000
  0.035450902   -0.416456  147.709000 -106.106770  147.001968    0.000000    0.000000    0.000000    0.000000
  0.035651303   -0.416506  147.534988 -105.253882  147.075073    0.000000    0.000000    0.000000    0.000000
  0.035851703   -0.421081  147.342514 -105.816068  137.910782    0.000000    0.000000    0.000000    0.000000
  0.036052104   -0.421301  147.184265 -107.687087  151.107895    0.000000    0.000000    0.000000    0.000000
  0.036252505   -0.421451  146.997940 -105.674922  148.359131    0.000000    0.000000    0.000000    0.000000
  0.036452906   -0.423239  146.827072 -105.941798  138.373047    0.000000    0.000000    0.000000    0.000000
  0.036653307   -0.423305  146.656067 -105.441280  141.044769    0.000000    0.000000    0.000000    0.000000
  0.036853707   -0.425613  146.475601 -106.401317  134.483139    0.000000    0.000000    0.000000    0.000000
  0.037054108   -0.429776  146.314529 -105.928755  142.005768    0.000000    0.000000    0.000000    0.000000
  0.037254509   -0.430466  146.121796 -105.000066  138.376740    0.000000    0.000000    0.000000    0.000000
  0.037454910   -0.433600  145.969864 -105.158064  146.992325    0.000000    0.000000    0.000000    0.000000
  0.037655311   -0.436254  145.780304 -105.283460  139.661682    0.000000    0.000000    0.000000    0.000000
  0.037855711   -0.435623  145.598175 -105.663734  140.834579    0.000000    0.000000    0.000000    0.000000
  0.038056112   -0.440029  145.427109 -105.496909  142.858414    0.000000    0.000000    0.000000    0.000000
  0.038256513   -0.442308  145.248505 -105.364432  137.930176    0.000000    0.000000    0.000000    0.000000
  0.038456914   -0.444851  145.065643 -104.865165  142.578033    0.000000    0.000000    0.000000    0.000000
  0.038657315   -0.443233  144.887573 -104.540139  146.589554    0.000000    0.000000    0.000000    0.000000
  0.038857715   -0.446374  144.701126 -105.369266  139.966675    0.000000    0.000000    0.000000    0.000000
  0.039058116   -0.450596  144.513870 -106.079542  142.553665    0.000000    0.000000    0.000000    0.000000
  0.039258517   -0.455081  144.328018 -106.073228  145.998398    0.000000    0.000000    0.000000    0.000000
  0.039458918   -0.457491  144.153137 -105.828532  147.184418    0.000000    0.000000    0.000000    0.000000
  0.039659319   -0.456834  143.967712 -105.929093  145.115845    0.000000    0.000000    0.000000    0.000000
  0.039859719   -0.458994  143.776199 -105.347759  139.341415    0.000000    0.000000    0.000000    0.000000
  0.040060120   -0.462527  143.581360 -105.511046  149.184402    0.000000    0.000000    0.000000    0.000000
  0.040260521   -0.462185  143.395294 -107.054587  154.327484    0.000000    0.000000    0.000000    0.000000
  0.040460922   -0.463712  143.207565 -105.676462  148.587769    0.000000    0.000000    0.000000    0.000000
  0.040661323   -0.464172  143.022812 -105.280009  149.145889    0.000000    0.000000    0.000000    0.000000
  0.040861723   -0.468091  142.829681 -105.960550  136.133331    0.000000    0.000000    0.000000    0.000000
  0.041062124   -0.470311  142.642471 -106.723064  139.074677    0.000000    0.000000    0.000000    0.000000
  0.041262525   -0.468717  142.448944 -105.966348  142.325806    0.000000    0.000000    0.000000    0.000000
  0.041462926   -0.469780  142.261978 -106.233032  142.536514    0.000000    0.000000    0.000000    0.000000
  0.041663327   -0.471966  142.072601 -105.635833  143.219269    0.000000    0.000000    0.000000    0.000000
  0.041863727   -0.469010  141.884811 -105.244334  136.340012    0.000000    0.000000    0.000000    0.000000
  0.042064128   -0.469499  141.699341 -106.471268  133.417709    0.000000    0.000000    0.000000    0.000000
  0.042264529   -0.466773  141.503250 -105.858397  136.616180    0.000000    0.000000    0.000000    0.000000
  0.042464930   -0.472593  141.323685 -106.763061  144.277176    0.000000    0.000000    0.000000    0.000000
  0.042665331   -0.472905  141.148926 -105.435632  135.111725    0.000000    0.000000    0.000000    0.000000
  0.042865731   -0.470737  140.939484 -105.406038  147.961685    0.000000    0.000000    0.000000    0.000000
