! Anritsu VNA Master:                 Model: MS2034B/10/19/501
! SN:                                  1337062
! /bd0/ovro-jan-2016/vna-jan/vna-ms147-with-board-p2.s2p
! Existing Calibration Information:
! TYPE:                         Current Settings,       Active Cal Settings
! TIME:             	   01/13/2016 12:39:31 PM,    01/12/2016 05:57:47 PM
! INTERNAL TEMP:    	                   43.8 C,                    46.0 C
! # POINTS:         	                      500,                       500
! START FREQ:       	               10.000 MHz,                10.000 MHz
! STOP FREQ:        	              110.000 MHz,               110.000 MHz
! SOURCE POWER:     	                      Low,                       Low
! IFBW:             	                   100 Hz,                     1 kHz
! AVG FACTOR:       	                       1 ,                        3 
! REF PLANE 1:      	                     0 mm,                      0 mm
! REF PLANE 2:      	                     0 mm,                      0 mm
! CAL TYPE:         	             1P2P S11,S21,              1P2P S11,S21
! CAL METHOD:       	                     SOLT,                      SOLT
! CAL LINE TYPE:    	                     Coax,                      Coax
! DUT PORT 1:       	                K-Conn(M),                 K-Conn(M)
! DUT PORT 2:       	                N-Conn(M),                 N-Conn(M)
! CAL STATUS:       	        OK: Accuracy High,                        --
# GHZ S DB R 50.0
! FREQ.GHZ       S11DB        S11A       S21DB        S21A       S12DB        S12A       S22DB        S22A
  0.010000000  -23.859726   -3.044007   -0.074673  -15.965384    0.000000    0.000000    0.000000    0.000000
  0.010200401  -23.918613   -4.710443   -0.071846  -16.339264    0.000000    0.000000    0.000000    0.000000
  0.010400802  -23.752661   -8.133277   -0.079824  -16.480751    0.000000    0.000000    0.000000    0.000000
  0.010601202  -24.004867   -9.709397   -0.004762  -17.022272    0.000000    0.000000    0.000000    0.000000
  0.010801603  -24.341224  -11.479209   -0.079857  -17.877531    0.000000    0.000000    0.000000    0.000000
  0.011002004  -24.304855  -14.076208   -0.027383  -17.958284    0.000000    0.000000    0.000000    0.000000
  0.011202405  -24.428150  -13.985088    0.014362  -18.492416    0.000000    0.000000    0.000000    0.000000
  0.011402806  -24.410092  -17.350260    0.004920  -18.645079    0.000000    0.000000    0.000000    0.000000
  0.011603206  -24.606446  -19.594212   -0.042856  -18.718361    0.000000    0.000000    0.000000    0.000000
  0.011803607  -25.042640  -21.318810   -0.037227  -18.652086    0.000000    0.000000    0.000000    0.000000
  0.012004008  -24.808039  -22.137953   -0.127975  -18.770742    0.000000    0.000000    0.000000    0.000000
  0.012204409  -25.098586  -23.428730   -0.112385  -18.985647    0.000000    0.000000    0.000000    0.000000
  0.012404810  -25.180882  -25.930954   -0.162871  -20.005867    0.000000    0.000000    0.000000    0.000000
  0.012605210  -25.227901  -27.399347   -0.139140  -20.261122    0.000000    0.000000    0.000000    0.000000
  0.012805611  -25.313794  -29.516659   -0.181580  -21.025509    0.000000    0.000000    0.000000    0.000000
  0.013006012  -25.413183  -31.510931   -0.190546  -22.123535    0.000000    0.000000    0.000000    0.000000
  0.013206413  -25.590577  -33.555195   -0.154350  -22.844978    0.000000    0.000000    0.000000    0.000000
  0.013406814  -25.739659  -35.600189    0.005752  -23.689053    0.000000    0.000000    0.000000    0.000000
  0.013607214  -25.823937  -36.801315   -0.072344  -24.185434    0.000000    0.000000    0.000000    0.000000
  0.013807615  -25.921598  -39.011925   -0.083053  -23.944036    0.000000    0.000000    0.000000    0.000000
  0.014008016  -25.898794  -40.397121   -0.019953  -23.957800    0.000000    0.000000    0.000000    0.000000
  0.014208417  -25.973074  -41.348499   -0.069330  -23.246002    0.000000    0.000000    0.000000    0.000000
  0.014408818  -26.160325  -45.216232   -0.101814  -23.230644    0.000000    0.000000    0.000000    0.000000
  0.014609218  -26.322374  -46.691532   -0.103649  -23.109072    0.000000    0.000000    0.000000    0.000000
  0.014809619  -26.500801  -48.333656   -0.231825  -23.153542    0.000000    0.000000    0.000000    0.000000
  0.015010020  -26.575894  -48.857525   -0.192583  -23.342422    0.000000    0.000000    0.000000    0.000000
  0.015210421  -26.515981  -52.645092   -0.112512  -23.984184    0.000000    0.000000    0.000000    0.000000
  0.015410822  -26.696272  -54.775410   -0.094305  -24.550797    0.000000    0.000000    0.000000    0.000000
  0.015611222  -26.708012  -56.269581   -0.032497  -25.631752    0.000000    0.000000    0.000000    0.000000
  0.015811623  -26.830306  -57.433441    0.071455  -26.870625    0.000000    0.000000    0.000000    0.000000
  0.016012024  -26.949362  -58.699177    0.092133  -27.766165    0.000000    0.000000    0.000000    0.000000
  0.016212425  -27.037949  -60.966766    0.113959  -28.282387    0.000000    0.000000    0.000000    0.000000
  0.016412826  -27.096709  -63.195152    0.044065  -28.531620    0.000000    0.000000    0.000000    0.000000
  0.016613226  -27.188267  -63.962605    0.097028  -27.806042    0.000000    0.000000    0.000000    0.000000
  0.016813627  -27.161710  -69.887985    0.024156  -28.191519    0.000000    0.000000    0.000000    0.000000
  0.017014028  -27.258636  -69.108360   -0.024182  -27.849571    0.000000    0.000000    0.000000    0.000000
  0.017214429  -27.584659  -70.825241   -0.157101  -27.657110    0.000000    0.000000    0.000000    0.000000
  0.017414830  -27.676590  -74.229660   -0.198466  -27.385159    0.000000    0.000000    0.000000    0.000000
  0.017615230  -27.795589  -74.636055   -0.261350  -28.074390    0.000000    0.000000    0.000000    0.000000
  0.017815631  -27.759742  -75.882080   -0.267174  -28.034960    0.000000    0.000000    0.000000    0.000000
  0.018016032  -27.863819  -77.627525   -0.228261  -29.139647    0.000000    0.000000    0.000000    0.000000
  0.018216433  -27.916975  -80.601105   -0.101189  -28.908482    0.000000    0.000000    0.000000    0.000000
  0.018416834  -27.980199  -81.735504   -0.125051  -29.928608    0.000000    0.000000    0.000000    0.000000
  0.018617234  -28.083023  -82.657990    0.012635  -30.528214    0.000000    0.000000    0.000000    0.000000
  0.018817635  -28.169520  -84.999779    0.100059  -31.231125    0.000000    0.000000    0.000000    0.000000
  0.019018036  -28.043237  -87.684654    0.153426  -31.470766    0.000000    0.000000    0.000000    0.000000
  0.019218437  -28.272004  -90.656868    0.165646  -31.684414    0.000000    0.000000    0.000000    0.000000
  0.019418838  -28.352247  -92.073715    0.145652  -32.193386    0.000000    0.000000    0.000000    0.000000
  0.019619238  -28.740723  -93.691307    0.033905  -32.160862    0.000000    0.000000    0.000000    0.000000
  0.019819639  -28.600064  -93.183861    0.030746  -32.354244    0.000000    0.000000    0.000000    0.000000
  0.020020040  -28.437832  -96.621597    0.029974  -32.566780    0.000000    0.000000    0.000000    0.000000
  0.020220441  -28.120333  -98.195610   -0.008577  -32.674435    0.000000    0.000000    0.000000    0.000000
  0.020420842  -28.771343  -99.664452   -0.048630  -32.862347    0.000000    0.000000    0.000000    0.000000
  0.020621242  -28.576501 -101.327354   -0.113959  -32.809570    0.000000    0.000000    0.000000    0.000000
  0.020821643  -28.610882 -104.608521   -0.076857  -33.547173    0.000000    0.000000    0.000000    0.000000
  0.021022044  -28.810450 -107.053848   -0.156090  -33.640446    0.000000    0.000000    0.000000    0.000000
  0.021222445  -28.691552 -110.009262   -0.086873  -34.339733    0.000000    0.000000    0.000000    0.000000
  0.021422846  -28.819563 -109.123367   -0.099331  -34.813114    0.000000    0.000000    0.000000    0.000000
  0.021623246  -28.952242 -110.550011   -0.104186  -35.758183    0.000000    0.000000    0.000000    0.000000
  0.021823647  -28.465564 -111.759880   -0.085158  -35.792961    0.000000    0.000000    0.000000    0.000000
  0.022024048  -29.002799 -113.061607   -0.068148  -36.701897    0.000000    0.000000    0.000000    0.000000
  0.022224449  -28.944876 -116.437103   -0.067583  -36.720512    0.000000    0.000000    0.000000    0.000000
  0.022424850  -28.946819 -118.196167   -0.108794  -36.454334    0.000000    0.000000    0.000000    0.000000
  0.022625251  -29.327288 -117.477493   -0.068106  -36.484409    0.000000    0.000000    0.000000    0.000000
  0.022825651  -28.773273 -120.740219   -0.127070  -36.562359    0.000000    0.000000    0.000000    0.000000
  0.023026052  -29.094894 -122.640129   -0.144569  -36.553547    0.000000    0.000000    0.000000    0.000000
  0.023226453  -29.666852 -124.386093   -0.180638  -36.752781    0.000000    0.000000    0.000000    0.000000
  0.023426854  -29.295874 -126.444107   -0.279420  -36.710934    0.000000    0.000000    0.000000    0.000000
  0.023627255  -29.285940 -127.704987   -0.265079  -36.877388    0.000000    0.000000    0.000000    0.000000
  0.023827655  -29.016323 -130.665039   -0.332539  -37.636883    0.000000    0.000000    0.000000    0.000000
  0.024028056  -29.469831 -129.717606   -0.343782  -37.809330    0.000000    0.000000    0.000000    0.000000
  0.024228457  -29.124691 -133.362564   -0.261246  -38.625504    0.000000    0.000000    0.000000    0.000000
  0.024428858  -29.401476 -135.276138   -0.268340  -39.013802    0.000000    0.000000    0.000000    0.000000
  0.024629259  -29.653242 -137.649261   -0.247649  -39.334358    0.000000    0.000000    0.000000    0.000000
  0.024829659  -29.369801 -137.544113   -0.192719  -38.465378    0.000000    0.000000    0.000000    0.000000
  0.025030060  -29.420224 -141.056595   -0.135945  -38.530624    0.000000    0.000000    0.000000    0.000000
  0.025230461  -29.747058 -137.742599   -0.145461  -39.235729    0.000000    0.000000    0.000000    0.000000
  0.025430862  -29.984722 -144.081604   -0.149560  -38.638561    0.000000    0.000000    0.000000    0.000000
  0.025631263  -29.432436 -146.230621   -0.125189  -39.446598    0.000000    0.000000    0.000000    0.000000
  0.025831663  -29.743898 -143.603470   -0.122474  -39.857563    0.000000    0.000000    0.000000    0.000000
  0.026032064  -29.637305 -147.876709   -0.181778  -40.666969    0.000000    0.000000    0.000000    0.000000
  0.026232465  -30.391203 -147.364014   -0.115997  -40.625233    0.000000    0.000000    0.000000    0.000000
  0.026432866  -29.891515 -147.861542   -0.081698  -41.229141    0.000000    0.000000    0.000000    0.000000
  0.026633267  -30.033592 -149.684586   -0.055485  -41.739674    0.000000    0.000000    0.000000    0.000000
  0.026833667  -29.710990 -147.532547   -0.100247  -42.156391    0.000000    0.000000    0.000000    0.000000
  0.027034068  -30.017303 -149.977402   -0.085381  -43.188171    0.000000    0.000000    0.000000    0.000000
  0.027234469  -29.965147 -151.698883   -0.131564  -42.847233    0.000000    0.000000    0.000000    0.000000
  0.027434870  -29.869551 -152.989944   -0.215807  -43.899670    0.000000    0.000000    0.000000    0.000000
  0.027635271  -30.361985 -156.928864   -0.187998  -43.667648    0.000000    0.000000    0.000000    0.000000
  0.027835671  -30.443967 -152.636810   -0.245125  -44.088844    0.000000    0.000000    0.000000    0.000000
  0.028036072  -30.427635 -157.528931   -0.262014  -45.027809    0.000000    0.000000    0.000000    0.000000
  0.028236473  -30.368983 -159.532745   -0.331597  -45.105858    0.000000    0.000000    0.000000    0.000000
  0.028436874  -30.304716 -160.144867   -0.365865  -45.779922    0.000000    0.000000    0.000000    0.000000
  0.028637275  -30.679591 -162.876312   -0.401481  -45.938526    0.000000    0.000000    0.000000    0.000000
  0.028837675  -30.923775 -158.720657   -0.331883  -47.150406    0.000000    0.000000    0.000000    0.000000
  0.029038076  -31.165887 -158.850601   -0.362047  -46.994236    0.000000    0.000000    0.000000    0.000000
  0.029238477  -31.306412 -157.013474   -0.285520  -47.443954    0.000000    0.000000    0.000000    0.000000
  0.029438878  -31.330826 -161.808319   -0.243549  -47.155865    0.000000    0.000000    0.000000    0.000000
  0.029639279  -31.820235 -162.408432   -0.184056  -47.512772    0.000000    0.000000    0.000000    0.000000
  0.029839679  -31.302583 -163.633682   -0.213613  -47.434891    0.000000    0.000000    0.000000    0.000000
  0.030040080  -32.139859 -167.038895   -0.238478  -47.533115    0.000000    0.000000    0.000000    0.000000
  0.030240481  -31.883569 -165.617798   -0.240377  -47.599548    0.000000    0.000000    0.000000    0.000000
  0.030440882  -32.341372 -171.027985   -0.291634  -48.127449    0.000000    0.000000    0.000000    0.000000
  0.030641283  -32.326366 -167.449844   -0.289398  -47.940407    0.000000    0.000000    0.000000    0.000000
  0.030841683  -33.096360 -169.258698   -0.302824  -48.727470    0.000000    0.000000    0.000000    0.000000
  0.031042084  -32.578268 -169.178574   -0.399711  -49.712349    0.000000    0.000000    0.000000    0.000000
  0.031242485  -32.643793 -171.327301   -0.541775  -50.462009    0.000000    0.000000    0.000000    0.000000
  0.031442886  -33.104754 -174.930084   -0.472334  -51.844379    0.000000    0.000000    0.000000    0.000000
  0.031643287  -33.670637 -177.809616   -0.410832  -52.033035    0.000000    0.000000    0.000000    0.000000
  0.031843687  -33.153112 -179.600220   -0.498492  -52.656681    0.000000    0.000000    0.000000    0.000000
  0.032044088  -33.218410 -175.702011   -0.357039  -52.799519    0.000000    0.000000    0.000000    0.000000
  0.032244489  -34.023821 -176.070465   -0.376296  -52.771713    0.000000    0.000000    0.000000    0.000000
  0.032444890  -34.336854 -178.915527   -0.354278  -52.259262    0.000000    0.000000    0.000000    0.000000
  0.032645291  -34.545706  179.459839   -0.388485  -52.307835    0.000000    0.000000    0.000000    0.000000
  0.032845691  -34.687524 -177.776581   -0.305248  -52.070461    0.000000    0.000000    0.000000    0.000000
  0.033046092  -34.968774  179.246964   -0.324945  -52.059132    0.000000    0.000000    0.000000    0.000000
  0.033246493  -34.987897  175.010117   -0.315760  -52.585064    0.000000    0.000000    0.000000    0.000000
  0.033446894  -34.938025  176.436401   -0.264464  -53.261326    0.000000    0.000000    0.000000    0.000000
  0.033647295  -35.650534  172.296814   -0.294264  -54.209366    0.000000    0.000000    0.000000    0.000000
  0.033847695  -36.177515  177.119995   -0.245584  -54.809555    0.000000    0.000000    0.000000    0.000000
  0.034048096  -36.146593  172.232315   -0.313556  -55.460991    0.000000    0.000000    0.000000    0.000000
  0.034248497  -36.606836  177.090775   -0.221672  -56.139790    0.000000    0.000000    0.000000    0.000000
  0.034448898  -36.475284  175.712463   -0.194058  -55.893719    0.000000    0.000000    0.000000    0.000000
  0.034649299  -36.501582  169.673080   -0.116986  -55.773083    0.000000    0.000000    0.000000    0.000000
  0.034849699  -37.280291  172.274750   -0.203565  -55.605419    0.000000    0.000000    0.000000    0.000000
  0.035050100  -37.656121  166.407043   -0.157470  -54.976601    0.000000    0.000000    0.000000    0.000000
  0.035250501  -39.215125  171.936981   -0.147461  -55.484051    0.000000    0.000000    0.000000    0.000000
  0.035450902  -38.570214  170.055344   -0.246940  -55.462013    0.000000    0.000000    0.000000    0.000000
  0.035651303  -38.306907  166.670151   -0.286881  -56.303429    0.000000    0.000000    0.000000    0.000000
  0.035851703  -39.605881  168.822311   -0.306149  -57.129673    0.000000    0.000000    0.000000    0.000000
  0.036052104  -39.584512  164.527451   -0.307225  -57.609463    0.000000    0.000000    0.000000    0.000000
  0.036252505  -41.000617  169.450882   -0.345056  -58.758465    0.000000    0.000000    0.000000    0.000000
  0.036452906  -39.892246  163.639511   -0.364372  -59.421028    0.000000    0.000000    0.000000    0.000000
  0.036653307  -39.924085  172.068008   -0.367741  -59.548538    0.000000    0.000000    0.000000    0.000000
  0.036853707  -41.688572  165.000534   -0.435567  -59.670773    0.000000    0.000000    0.000000    0.000000
  0.037054108  -43.239799  170.507263   -0.384897  -59.517994    0.000000    0.000000    0.000000    0.000000
  0.037254509  -44.383782 -177.539154   -0.429849  -59.363209    0.000000    0.000000    0.000000    0.000000
  0.037454910  -44.916027  170.865768   -0.463072  -59.854923    0.000000    0.000000    0.000000    0.000000
  0.037655311  -45.289297  174.304413   -0.465673  -60.426609    0.000000    0.000000    0.000000    0.000000
  0.037855711  -46.017988  178.414780   -0.451477  -60.985085    0.000000    0.000000    0.000000    0.000000
  0.038056112  -42.738383  167.669815   -0.360850  -61.636967    0.000000    0.000000    0.000000    0.000000
  0.038256513  -48.288973  179.580582   -0.345994  -62.415661    0.000000    0.000000    0.000000    0.000000
  0.038456914  -48.794560  175.117050   -0.361676  -62.584915    0.000000    0.000000    0.000000    0.000000
  0.038657315  -50.763078 -155.962708   -0.299498  -62.748135    0.000000    0.000000    0.000000    0.000000
  0.038857715  -54.120910 -131.534058   -0.323517  -62.267952    0.000000    0.000000    0.000000    0.000000
  0.039058116  -55.233448 -123.422432   -0.359263  -62.225285    0.000000    0.000000    0.000000    0.000000
  0.039258517  -52.054327  -92.424622   -0.396106  -62.062458    0.000000    0.000000    0.000000    0.000000
  0.039458918  -50.979568  -76.456192   -0.509932  -62.397110    0.000000    0.000000    0.000000    0.000000
  0.039659319  -48.998476  -81.047043   -0.549734  -62.652794    0.000000    0.000000    0.000000    0.000000
  0.039859719  -47.745140  -82.365021   -0.518948  -63.603870    0.000000    0.000000    0.000000    0.000000
  0.040060120  -50.096874  -79.492058   -0.533616  -64.318611    0.000000    0.000000    0.000000    0.000000
  0.040260521  -45.185520  -62.003918   -0.416041  -65.335167    0.000000    0.000000    0.000000    0.000000
  0.040460922  -46.282308  -61.528099   -0.436886  -66.125481    0.000000    0.000000    0.000000    0.000000
  0.040661323  -44.653224  -68.775063   -0.366824  -67.082069    0.000000    0.000000    0.000000    0.000000
  0.040861723  -42.562703  -64.838165   -0.362166  -67.286095    0.000000    0.000000    0.000000    0.000000
  0.041062124  -42.070997  -62.946674   -0.333135  -66.991066    0.000000    0.000000    0.000000    0.000000
  0.041262525  -42.953985  -63.572014   -0.360105  -67.442345    0.000000    0.000000    0.000000    0.000000
  0.041462926  -41.648076  -58.961239   -0.401624  -67.323906    0.000000    0.000000    0.000000    0.000000
  0.041663327  -40.004281  -62.132710   -0.434456  -66.541229    0.000000    0.000000    0.000000    0.000000
  0.041863727  -39.762200  -61.607391   -0.363502  -66.937393    0.000000    0.000000    0.000000    0.000000
  0.042064128  -39.303309  -57.148235   -0.456270  -67.118538    0.000000    0.000000    0.000000    0.000000
  0.042264529  -38.561687  -61.373627   -0.476419  -67.766159    0.000000    0.000000    0.000000    0.000000
  0.042464930  -38.157042  -64.389580   -0.464060  -68.447639    0.000000    0.000000    0.000000    0.000000
  0.042665331  -38.085567  -63.573120   -0.448526  -69.392342    0.000000    0.000000    0.000000    0.000000
  0.042865731  -37.229058  -64.350136   -0.353468  -70.086037    0.000000    0.000000    0.000000    0.000000
