! Anritsu VNA Master:                 Model: MS2034B/10/19/501
! SN:                                  1337062
! /bd0/ovro-jan-2016/vna-jan/vna-ant255-d1-s11-reallyd1.s2p
! Existing Calibration Information:
! TYPE:                         Current Settings,       Active Cal Settings
! TIME:             	   01/13/2016 03:23:14 PM,    01/13/2016 02:51:14 PM
! INTERNAL TEMP:    	                   34.5 C,                    37.8 C
! # POINTS:         	                      500,                       500
! START FREQ:       	               10.000 MHz,                10.000 MHz
! STOP FREQ:        	              110.000 MHz,               110.000 MHz
! SOURCE POWER:     	                     High,                      High
! IFBW:             	                   100 Hz,                    100 Hz
! AVG FACTOR:       	                       4 ,                        4 
! REF PLANE 1:      	                     0 mm,                      0 mm
! REF PLANE 2:      	                     0 mm,                      0 mm
! CAL TYPE:         	                 Full S11,                  Full S11
! CAL METHOD:       	                     SOLT,                      SOLT
! CAL LINE TYPE:    	                     Coax,                      Coax
! DUT PORT 1:       	                K-Conn(M),                 K-Conn(M)
! DUT PORT 2:       	                N-Conn(M),                 N-Conn(M)
! CAL STATUS:       	        OK: Accuracy High,                        --
# GHZ S DB R 50.0
! FREQ.GHZ       S11DB        S11A       S21DB        S21A       S12DB        S12A       S22DB        S22A
  0.010000000   -0.555182  -46.827091 -105.112921  153.597946    0.000000    0.000000    0.000000    0.000000
  0.010200401   -0.542000  -47.807343 -105.199086  146.286316    0.000000    0.000000    0.000000    0.000000
  0.010400802   -0.522386  -48.715626 -103.287307  144.118805    0.000000    0.000000    0.000000    0.000000
  0.010601202   -0.515697  -49.670456 -103.426149  150.926620    0.000000    0.000000    0.000000    0.000000
  0.010801603   -0.520481  -50.691101 -103.699392  147.571045    0.000000    0.000000    0.000000    0.000000
  0.011002004   -0.523179  -51.662292 -102.752971  141.511703    0.000000    0.000000    0.000000    0.000000
  0.011202405   -0.531292  -52.639759 -102.191762  139.344803    0.000000    0.000000    0.000000    0.000000
  0.011402806   -0.533306  -53.646572 -102.793807  145.350906    0.000000    0.000000    0.000000    0.000000
  0.011603206   -0.532937  -54.690670 -102.054810  135.482071    0.000000    0.000000    0.000000    0.000000
  0.011803607   -0.540835  -55.621922 -102.256579  136.598755    0.000000    0.000000    0.000000    0.000000
  0.012004008   -0.548048  -56.759830 -101.511781  142.523422    0.000000    0.000000    0.000000    0.000000
  0.012204409   -0.539788  -57.826111 -102.292330  138.617950    0.000000    0.000000    0.000000    0.000000
  0.012404810   -0.546133  -58.876823 -101.788157  140.021149    0.000000    0.000000    0.000000    0.000000
  0.012605210   -0.543252  -59.885826 -101.735613  142.332993    0.000000    0.000000    0.000000    0.000000
  0.012805611   -0.541863  -60.944290 -101.304141  131.763153    0.000000    0.000000    0.000000    0.000000
  0.013006012   -0.557831  -61.902573 -102.391838  136.516663    0.000000    0.000000    0.000000    0.000000
  0.013206413   -0.547841  -63.042496 -102.972682  142.293549    0.000000    0.000000    0.000000    0.000000
  0.013406814   -0.553300  -64.116074 -103.302360  134.052124    0.000000    0.000000    0.000000    0.000000
  0.013607214   -0.561867  -65.194061 -103.234898  137.707291    0.000000    0.000000    0.000000    0.000000
  0.013807615   -0.559591  -66.291496 -102.618503  134.376068    0.000000    0.000000    0.000000    0.000000
  0.014008016   -0.557093  -67.409286 -102.763344  127.767540    0.000000    0.000000    0.000000    0.000000
  0.014208417   -0.574105  -68.516914 -103.760005  132.642990    0.000000    0.000000    0.000000    0.000000
  0.014408818   -0.551660  -69.569695 -102.948476  127.011551    0.000000    0.000000    0.000000    0.000000
  0.014609218   -0.547776  -70.637665 -103.685073  127.824287    0.000000    0.000000    0.000000    0.000000
  0.014809619   -0.543152  -71.686699 -105.177693  149.327286    0.000000    0.000000    0.000000    0.000000
  0.015010020   -0.536509  -72.721603 -104.710836  124.311531    0.000000    0.000000    0.000000    0.000000
  0.015210421   -0.538904  -73.728218 -104.564786  133.156708    0.000000    0.000000    0.000000    0.000000
  0.015410822   -0.541517  -74.782059 -105.638206  124.626282    0.000000    0.000000    0.000000    0.000000
  0.015611222   -0.553406  -75.942978 -105.900870  139.860672    0.000000    0.000000    0.000000    0.000000
  0.015811623   -0.545097  -76.890327 -106.470288  132.183960    0.000000    0.000000    0.000000    0.000000
  0.016012024   -0.552332  -77.988281 -106.002101  129.167480    0.000000    0.000000    0.000000    0.000000
  0.016212425   -0.554976  -79.039497 -107.400612  127.834656    0.000000    0.000000    0.000000    0.000000
  0.016412826   -0.553057  -80.140358 -105.647445  125.683975    0.000000    0.000000    0.000000    0.000000
  0.016613226   -0.552918  -81.206711 -106.903977  133.012314    0.000000    0.000000    0.000000    0.000000
  0.016813627   -0.552551  -82.391060 -106.565008  138.356949    0.000000    0.000000    0.000000    0.000000
  0.017014028   -0.556165  -83.422401 -105.541696  129.347977    0.000000    0.000000    0.000000    0.000000
  0.017214429   -0.555588  -84.509071 -106.503603  140.772232    0.000000    0.000000    0.000000    0.000000
  0.017414830   -0.554930  -85.640289 -106.706728  138.497787    0.000000    0.000000    0.000000    0.000000
  0.017615230   -0.552096  -86.738983 -107.131473  141.063675    0.000000    0.000000    0.000000    0.000000
  0.017815631   -0.549156  -87.864136 -107.425569  146.884903    0.000000    0.000000    0.000000    0.000000
  0.018016032   -0.534562  -89.044518 -105.433642  141.090851    0.000000    0.000000    0.000000    0.000000
  0.018216433   -0.531820  -90.137787 -105.509752  151.867691    0.000000    0.000000    0.000000    0.000000
  0.018416834   -0.529212  -91.234100 -106.100408  142.682846    0.000000    0.000000    0.000000    0.000000
  0.018617234   -0.522216  -92.362450 -106.109758  141.345337    0.000000    0.000000    0.000000    0.000000
  0.018817635   -0.515830  -93.458107 -104.585516  152.715469    0.000000    0.000000    0.000000    0.000000
  0.019018036   -0.509413  -94.574692 -104.377761  154.848846    0.000000    0.000000    0.000000    0.000000
  0.019218437   -0.489831  -95.711891 -103.779611  144.556686    0.000000    0.000000    0.000000    0.000000
  0.019418838   -0.493364  -96.806839 -105.234023  137.678772    0.000000    0.000000    0.000000    0.000000
  0.019619238   -0.494232  -97.934525 -103.374319  139.174164    0.000000    0.000000    0.000000    0.000000
  0.019819639   -0.484666  -99.050018 -103.736929  150.092300    0.000000    0.000000    0.000000    0.000000
  0.020020040   -0.484261 -100.192368 -103.796580  141.592819    0.000000    0.000000    0.000000    0.000000
  0.020220441   -0.480488 -101.285110 -104.417267  134.611679    0.000000    0.000000    0.000000    0.000000
  0.020420842   -0.477996 -102.403633 -103.209419  135.189651    0.000000    0.000000    0.000000    0.000000
  0.020621242   -0.478205 -103.505898 -104.092668  132.513580    0.000000    0.000000    0.000000    0.000000
  0.020821643   -0.486582 -104.708939 -102.724954  147.805435    0.000000    0.000000    0.000000    0.000000
  0.021022044   -0.491387 -105.861687 -104.351283  138.299942    0.000000    0.000000    0.000000    0.000000
  0.021222445   -0.499848 -107.062935 -103.458538  133.539307    0.000000    0.000000    0.000000    0.000000
  0.021422846   -0.509017 -108.287880 -103.095055  143.660263    0.000000    0.000000    0.000000    0.000000
  0.021623246   -0.515927 -109.489380 -104.507957  148.100510    0.000000    0.000000    0.000000    0.000000
  0.021823647   -0.516792 -110.709023 -103.942703  136.305298    0.000000    0.000000    0.000000    0.000000
  0.022024048   -0.512423 -112.012001 -104.191272  133.272675    0.000000    0.000000    0.000000    0.000000
  0.022224449   -0.515703 -113.264481 -103.754563  137.649185    0.000000    0.000000    0.000000    0.000000
  0.022424850   -0.514528 -114.528305 -105.237212  136.149323    0.000000    0.000000    0.000000    0.000000
  0.022625251   -0.516136 -115.761444 -104.757593  132.274857    0.000000    0.000000    0.000000    0.000000
  0.022825651   -0.520135 -116.969254 -105.121241  140.756744    0.000000    0.000000    0.000000    0.000000
  0.023026052   -0.529758 -118.188606 -106.329307  137.942505    0.000000    0.000000    0.000000    0.000000
  0.023226453   -0.533637 -119.502586 -104.840665  137.472290    0.000000    0.000000    0.000000    0.000000
  0.023426854   -0.536843 -120.763565 -105.487954  134.737076    0.000000    0.000000    0.000000    0.000000
  0.023627255   -0.545080 -122.099167 -105.380945  135.075180    0.000000    0.000000    0.000000    0.000000
  0.023827655   -0.548975 -123.406845 -105.725125  136.401260    0.000000    0.000000    0.000000    0.000000
  0.024028056   -0.556999 -124.735428 -105.106921  133.700348    0.000000    0.000000    0.000000    0.000000
  0.024228457   -0.568431 -126.047615 -106.407038  135.886322    0.000000    0.000000    0.000000    0.000000
  0.024428858   -0.564851 -127.375954 -107.504460  137.358185    0.000000    0.000000    0.000000    0.000000
  0.024629259   -0.569531 -128.676254 -105.278809  144.921448    0.000000    0.000000    0.000000    0.000000
  0.024829659   -0.570368 -130.048553 -107.145727  149.783310    0.000000    0.000000    0.000000    0.000000
  0.025030060   -0.580470 -131.380371 -106.415877  139.090378    0.000000    0.000000    0.000000    0.000000
  0.025230461   -0.599694 -132.725006 -106.070536  140.260605    0.000000    0.000000    0.000000    0.000000
  0.025430862   -0.622592 -134.110931 -107.275087  155.670563    0.000000    0.000000    0.000000    0.000000
  0.025631263   -0.638025 -135.487823 -104.833416  137.926529    0.000000    0.000000    0.000000    0.000000
  0.025831663   -0.656175 -136.853058 -107.015864  144.641327    0.000000    0.000000    0.000000    0.000000
  0.026032064   -0.669936 -138.377243 -105.974412  141.226807    0.000000    0.000000    0.000000    0.000000
  0.026232465   -0.681399 -139.803925 -104.734043  143.337784    0.000000    0.000000    0.000000    0.000000
  0.026432866   -0.696435 -141.318024 -106.122334  143.454163    0.000000    0.000000    0.000000    0.000000
  0.026633267   -0.709843 -142.766449 -105.236536  141.865280    0.000000    0.000000    0.000000    0.000000
  0.026833667   -0.711033 -144.304901 -104.983327  142.414124    0.000000    0.000000    0.000000    0.000000
  0.027034068   -0.734429 -145.696487 -103.869802  137.500641    0.000000    0.000000    0.000000    0.000000
  0.027234469   -0.744449 -147.170120 -106.097701  143.872192    0.000000    0.000000    0.000000    0.000000
  0.027434870   -0.762152 -148.645523 -104.468542  140.377472    0.000000    0.000000    0.000000    0.000000
  0.027635271   -0.779091 -150.125443 -105.123069  152.224609    0.000000    0.000000    0.000000    0.000000
  0.027835671   -0.802048 -151.638077 -104.476336  136.996185    0.000000    0.000000    0.000000    0.000000
  0.028036072   -0.815413 -153.159042 -104.762528  149.048203    0.000000    0.000000    0.000000    0.000000
  0.028236473   -0.838992 -154.693802 -105.030885  132.544006    0.000000    0.000000    0.000000    0.000000
  0.028436874   -0.864523 -156.245789 -105.829114  135.223587    0.000000    0.000000    0.000000    0.000000
  0.028637275   -0.884703 -157.795532 -104.863260  142.891342    0.000000    0.000000    0.000000    0.000000
  0.028837675   -0.904251 -159.368332 -105.604708  145.664215    0.000000    0.000000    0.000000    0.000000
  0.029038076   -0.930032 -160.920853 -104.302401  147.203354    0.000000    0.000000    0.000000    0.000000
  0.029238477   -0.951159 -162.481476 -106.074841  141.199783    0.000000    0.000000    0.000000    0.000000
  0.029438878   -0.985648 -164.067368 -104.809041  143.548431    0.000000    0.000000    0.000000    0.000000
  0.029639279   -1.014922 -165.664398 -103.662602  141.939499    0.000000    0.000000    0.000000    0.000000
  0.029839679   -1.048379 -167.271545 -104.816348  136.031967    0.000000    0.000000    0.000000    0.000000
  0.030040080   -1.078298 -168.935532 -105.580948  139.788849    0.000000    0.000000    0.000000    0.000000
  0.030240481   -1.110966 -170.582626 -104.857159  136.620178    0.000000    0.000000    0.000000    0.000000
  0.030440882   -1.143272 -172.244705 -106.225076  140.038773    0.000000    0.000000    0.000000    0.000000
  0.030641283   -1.174195 -173.893311 -103.854273  143.865677    0.000000    0.000000    0.000000    0.000000
  0.030841683   -1.206753 -175.595947 -105.747589  128.827530    0.000000    0.000000    0.000000    0.000000
  0.031042084   -1.244137 -177.252701 -107.282036  143.101852    0.000000    0.000000    0.000000    0.000000
  0.031242485   -1.278785 -178.948807 -104.671413  137.754257    0.000000    0.000000    0.000000    0.000000
  0.031442886   -1.314107  179.354431 -105.632777  137.397690    0.000000    0.000000    0.000000    0.000000
  0.031643287   -1.352605  177.659470 -106.161341  135.156708    0.000000    0.000000    0.000000    0.000000
  0.031843687   -1.391539  175.940445 -104.541160  138.121689    0.000000    0.000000    0.000000    0.000000
  0.032044088   -1.425505  174.230850 -105.347032  139.050095    0.000000    0.000000    0.000000    0.000000
  0.032244489   -1.465852  172.483963 -107.806369  148.165894    0.000000    0.000000    0.000000    0.000000
  0.032444890   -1.503281  170.754135 -108.137913  133.056305    0.000000    0.000000    0.000000    0.000000
  0.032645291   -1.544653  168.998489 -106.034421  137.473068    0.000000    0.000000    0.000000    0.000000
  0.032845691   -1.588110  167.256943 -105.984331  149.665161    0.000000    0.000000    0.000000    0.000000
  0.033046092   -1.633359  165.480042 -106.632769  143.274185    0.000000    0.000000    0.000000    0.000000
  0.033246493   -1.681234  163.705017 -106.054435  137.385956    0.000000    0.000000    0.000000    0.000000
  0.033446894   -1.723888  161.884689 -107.114327  138.690292    0.000000    0.000000    0.000000    0.000000
  0.033647295   -1.762590  160.065445 -106.694704  141.704391    0.000000    0.000000    0.000000    0.000000
  0.033847695   -1.803402  158.239319 -105.593451  136.930710    0.000000    0.000000    0.000000    0.000000
  0.034048096   -1.843400  156.411819 -106.780551  149.647339    0.000000    0.000000    0.000000    0.000000
  0.034248497   -1.872071  154.620514 -106.491637  140.492813    0.000000    0.000000    0.000000    0.000000
  0.034448898   -1.922445  152.823166 -106.630807  134.936111    0.000000    0.000000    0.000000    0.000000
  0.034649299   -1.970044  151.027390 -105.297557  134.345367    0.000000    0.000000    0.000000    0.000000
  0.034849699   -2.016527  149.226227 -106.192496  147.922440    0.000000    0.000000    0.000000    0.000000
  0.035050100   -2.070257  147.412445 -104.763545  141.815338    0.000000    0.000000    0.000000    0.000000
  0.035250501   -2.121237  145.598923 -106.360619  137.458969    0.000000    0.000000    0.000000    0.000000
  0.035450902   -2.179073  143.734268 -105.485682  143.010986    0.000000    0.000000    0.000000    0.000000
  0.035651303   -2.233673  141.884094 -105.635363  146.505478    0.000000    0.000000    0.000000    0.000000
  0.035851703   -2.288208  140.021271 -104.528976  138.151810    0.000000    0.000000    0.000000    0.000000
  0.036052104   -2.338650  138.169769 -104.744502  148.083405    0.000000    0.000000    0.000000    0.000000
  0.036252505   -2.391257  136.241608 -104.575378  141.776245    0.000000    0.000000    0.000000    0.000000
  0.036452906   -2.446940  134.393906 -102.958496  145.388367    0.000000    0.000000    0.000000    0.000000
  0.036653307   -2.511685  132.620895 -103.934574  137.794342    0.000000    0.000000    0.000000    0.000000
  0.036853707   -2.554726  130.683121 -104.365577  141.413864    0.000000    0.000000    0.000000    0.000000
  0.037054108   -2.632757  128.838806 -105.038165  142.550385    0.000000    0.000000    0.000000    0.000000
  0.037254509   -2.682499  126.861069 -104.755833  136.784363    0.000000    0.000000    0.000000    0.000000
  0.037454910   -2.748756  124.924202 -103.833197  138.519791    0.000000    0.000000    0.000000    0.000000
  0.037655311   -2.827423  123.021255 -105.054520  144.647827    0.000000    0.000000    0.000000    0.000000
  0.037855711   -2.867532  121.057167 -103.824617  140.051804    0.000000    0.000000    0.000000    0.000000
  0.038056112   -2.954009  119.140099 -103.911083  141.873871    0.000000    0.000000    0.000000    0.000000
  0.038256513   -2.994926  117.267433 -104.388648  130.743607    0.000000    0.000000    0.000000    0.000000
  0.038456914   -3.058735  115.388695 -104.861638  132.597244    0.000000    0.000000    0.000000    0.000000
  0.038657315   -3.116381  113.541908 -104.812906  135.147369    0.000000    0.000000    0.000000    0.000000
  0.038857715   -3.179500  111.690514 -103.810295  136.142456    0.000000    0.000000    0.000000    0.000000
  0.039058116   -3.245365  109.788094 -105.026039  134.175034    0.000000    0.000000    0.000000    0.000000
  0.039258517   -3.324391  107.825912 -105.862183  133.568893    0.000000    0.000000    0.000000    0.000000
  0.039458918   -3.387953  106.014320 -105.943294  142.897339    0.000000    0.000000    0.000000    0.000000
  0.039659319   -3.460895  104.131477 -104.617601  131.701340    0.000000    0.000000    0.000000    0.000000
  0.039859719   -3.530870  102.233932 -105.994954  129.264297    0.000000    0.000000    0.000000    0.000000
  0.040060120   -3.599062  100.306595 -105.215006  134.801041    0.000000    0.000000    0.000000    0.000000
  0.040260521   -3.669827   98.421753 -104.322700  135.656357    0.000000    0.000000    0.000000    0.000000
  0.040460922   -3.741141   96.487289 -104.668055  138.596756    0.000000    0.000000    0.000000    0.000000
  0.040661323   -3.810086   94.614029 -104.887960  140.966766    0.000000    0.000000    0.000000    0.000000
  0.040861723   -3.880349   92.659660 -105.801701  132.052185    0.000000    0.000000    0.000000    0.000000
  0.041062124   -3.946935   90.746597 -105.307631  135.361130    0.000000    0.000000    0.000000    0.000000
  0.041262525   -4.007363   88.851189 -105.084086  128.458832    0.000000    0.000000    0.000000    0.000000
  0.041462926   -4.065581   86.937317 -105.253806  133.953964    0.000000    0.000000    0.000000    0.000000
  0.041663327   -4.120311   85.007286 -104.877088  135.751755    0.000000    0.000000    0.000000    0.000000
  0.041863727   -4.172867   83.114410 -104.409661  134.664108    0.000000    0.000000    0.000000    0.000000
  0.042064128   -4.228797   81.245285 -104.995783  137.425598    0.000000    0.000000    0.000000    0.000000
  0.042264529   -4.279886   79.357071 -105.004308  137.499847    0.000000    0.000000    0.000000    0.000000
  0.042464930   -4.328205   77.473358 -104.354775  134.747162    0.000000    0.000000    0.000000    0.000000
  0.042665331   -4.382394   75.602203 -104.486376  134.752548    0.000000    0.000000    0.000000    0.000000
  0.042865731   -4.426158   73.729996 -103.778046  138.492218    0.000000    0.000000    0.000000    0.000000
