! Anritsu VNA Master:                 Model: MS2034B/10/19/501
! SN:                                  1337062
! /bd0/ovro-jan-2016/vna-jan/vna-ms147-with-board-p1.s2p
! Existing Calibration Information:
! TYPE:                         Current Settings,       Active Cal Settings
! TIME:             	   01/13/2016 12:37:02 PM,    01/12/2016 05:57:47 PM
! INTERNAL TEMP:    	                   43.8 C,                    46.0 C
! # POINTS:         	                      500,                       500
! START FREQ:       	               10.000 MHz,                10.000 MHz
! STOP FREQ:        	              110.000 MHz,               110.000 MHz
! SOURCE POWER:     	                      Low,                       Low
! IFBW:             	                   100 Hz,                     1 kHz
! AVG FACTOR:       	                       1 ,                        3 
! REF PLANE 1:      	                     0 mm,                      0 mm
! REF PLANE 2:      	                     0 mm,                      0 mm
! CAL TYPE:         	             1P2P S11,S21,              1P2P S11,S21
! CAL METHOD:       	                     SOLT,                      SOLT
! CAL LINE TYPE:    	                     Coax,                      Coax
! DUT PORT 1:       	                K-Conn(M),                 K-Conn(M)
! DUT PORT 2:       	                N-Conn(M),                 N-Conn(M)
! CAL STATUS:       	        OK: Accuracy High,                        --
# GHZ S DB R 50.0
! FREQ.GHZ       S11DB        S11A       S21DB        S21A       S12DB        S12A       S22DB        S22A
  0.010000000  -24.091905   -4.717979   -0.045574  -16.093201    0.000000    0.000000    0.000000    0.000000
  0.010200401  -24.040020   -5.917722   -0.045023  -16.952780    0.000000    0.000000    0.000000    0.000000
  0.010400802  -24.068838   -9.267426   -0.045190  -16.470417    0.000000    0.000000    0.000000    0.000000
  0.010601202  -24.289674  -10.675802    0.032381  -17.088322    0.000000    0.000000    0.000000    0.000000
  0.010801603  -24.460409  -13.034793   -0.060024  -17.535275    0.000000    0.000000    0.000000    0.000000
  0.011002004  -24.496399  -15.216548   -0.010033  -17.891392    0.000000    0.000000    0.000000    0.000000
  0.011202405  -24.696426  -17.755110    0.034157  -18.710407    0.000000    0.000000    0.000000    0.000000
  0.011402806  -24.605940  -18.464569    0.018932  -18.603844    0.000000    0.000000    0.000000    0.000000
  0.011603206  -24.895535  -20.633446   -0.005941  -18.681494    0.000000    0.000000    0.000000    0.000000
  0.011803607  -24.939681  -20.854788   -0.013649  -18.967535    0.000000    0.000000    0.000000    0.000000
  0.012004008  -25.102807  -22.924206   -0.022721  -18.745226    0.000000    0.000000    0.000000    0.000000
  0.012204409  -25.178280  -25.979290   -0.077944  -19.112745    0.000000    0.000000    0.000000    0.000000
  0.012404810  -25.266712  -27.660702   -0.081600  -19.388334    0.000000    0.000000    0.000000    0.000000
  0.012605210  -25.238747  -30.887335   -0.146142  -20.480757    0.000000    0.000000    0.000000    0.000000
  0.012805611  -25.338291  -30.727648   -0.137701  -21.174355    0.000000    0.000000    0.000000    0.000000
  0.013006012  -25.629447  -33.608276   -0.124956  -22.036238    0.000000    0.000000    0.000000    0.000000
  0.013206413  -25.660551  -35.659626   -0.108157  -22.925911    0.000000    0.000000    0.000000    0.000000
  0.013406814  -25.740409  -38.960316   -0.017352  -23.499546    0.000000    0.000000    0.000000    0.000000
  0.013607214  -25.940872  -39.522839   -0.060397  -24.082304    0.000000    0.000000    0.000000    0.000000
  0.013807615  -25.933279  -39.368462   -0.034098  -24.393690    0.000000    0.000000    0.000000    0.000000
  0.014008016  -26.001864  -43.445877   -0.010660  -23.872602    0.000000    0.000000    0.000000    0.000000
  0.014208417  -26.163700  -43.378159   -0.012461  -23.236200    0.000000    0.000000    0.000000    0.000000
  0.014408818  -25.867823  -46.685150   -0.020681  -23.018911    0.000000    0.000000    0.000000    0.000000
  0.014609218  -26.264128  -48.166656   -0.132777  -22.639929    0.000000    0.000000    0.000000    0.000000
  0.014809619  -26.331927  -51.095394   -0.143548  -22.430098    0.000000    0.000000    0.000000    0.000000
  0.015010020  -26.481656  -51.902843   -0.155810  -22.947504    0.000000    0.000000    0.000000    0.000000
  0.015210421  -26.488916  -55.037186   -0.146743  -23.736782    0.000000    0.000000    0.000000    0.000000
  0.015410822  -26.688023  -56.645794   -0.090268  -24.656937    0.000000    0.000000    0.000000    0.000000
  0.015611222  -26.680417  -57.451153    0.031687  -26.062944    0.000000    0.000000    0.000000    0.000000
  0.015811623  -26.819470  -59.332664    0.049275  -26.871916    0.000000    0.000000    0.000000    0.000000
  0.016012024  -26.971816  -61.942036    0.114998  -27.692698    0.000000    0.000000    0.000000    0.000000
  0.016212425  -26.958284  -64.128311    0.071271  -27.944305    0.000000    0.000000    0.000000    0.000000
  0.016412826  -26.890993  -65.882790    0.108042  -28.724375    0.000000    0.000000    0.000000    0.000000
  0.016613226  -27.040383  -66.053291    0.084543  -28.462961    0.000000    0.000000    0.000000    0.000000
  0.016813627  -26.910577  -72.111458    0.026203  -27.987001    0.000000    0.000000    0.000000    0.000000
  0.017014028  -27.086265  -70.717201   -0.038875  -28.229555    0.000000    0.000000    0.000000    0.000000
  0.017214429  -27.314720  -73.223419   -0.144456  -27.613569    0.000000    0.000000    0.000000    0.000000
  0.017414830  -27.423701  -75.524475   -0.210481  -27.891367    0.000000    0.000000    0.000000    0.000000
  0.017615230  -27.474267  -76.385201   -0.252426  -27.922380    0.000000    0.000000    0.000000    0.000000
  0.017815631  -27.672732  -76.882225   -0.215959  -28.474915    0.000000    0.000000    0.000000    0.000000
  0.018016032  -27.679404  -79.041153   -0.162917  -28.217823    0.000000    0.000000    0.000000    0.000000
  0.018216433  -27.838428  -82.060295   -0.112060  -29.348776    0.000000    0.000000    0.000000    0.000000
  0.018416834  -27.606359  -82.521591   -0.048653  -29.732033    0.000000    0.000000    0.000000    0.000000
  0.018617234  -27.746372  -85.835556    0.031245  -30.536556    0.000000    0.000000    0.000000    0.000000
  0.018817635  -27.793834  -85.683006    0.103410  -31.021364    0.000000    0.000000    0.000000    0.000000
  0.019018036  -27.887594  -88.387833    0.182685  -31.252829    0.000000    0.000000    0.000000    0.000000
  0.019218437  -27.914260  -92.258995    0.157710  -31.864233    0.000000    0.000000    0.000000    0.000000
  0.019418838  -28.297026  -94.445633    0.131273  -32.425640    0.000000    0.000000    0.000000    0.000000
  0.019619238  -28.233515  -94.395554    0.068391  -32.704937    0.000000    0.000000    0.000000    0.000000
  0.019819639  -28.545874  -94.449234    0.047485  -32.830326    0.000000    0.000000    0.000000    0.000000
  0.020020040  -28.278905  -98.184837    0.047559  -32.584114    0.000000    0.000000    0.000000    0.000000
  0.020220441  -28.167629  -98.944580   -0.016165  -32.555859    0.000000    0.000000    0.000000    0.000000
  0.020420842  -28.438918 -100.843239   -0.048573  -32.760639    0.000000    0.000000    0.000000    0.000000
  0.020621242  -28.488459 -103.405663   -0.083141  -32.992161    0.000000    0.000000    0.000000    0.000000
  0.020821643  -28.191252 -104.133308   -0.052320  -33.354240    0.000000    0.000000    0.000000    0.000000
  0.021022044  -28.437810 -107.747505   -0.112469  -33.693832    0.000000    0.000000    0.000000    0.000000
  0.021222445  -28.691292 -109.024666   -0.069079  -34.292240    0.000000    0.000000    0.000000    0.000000
  0.021422846  -28.668870 -110.056587   -0.069973  -34.823540    0.000000    0.000000    0.000000    0.000000
  0.021623246  -28.709938 -111.536682   -0.067315  -35.760441    0.000000    0.000000    0.000000    0.000000
  0.021823647  -28.512147 -114.738380   -0.072503  -35.670296    0.000000    0.000000    0.000000    0.000000
  0.022024048  -28.953190 -113.714363   -0.086107  -36.481922    0.000000    0.000000    0.000000    0.000000
  0.022224449  -28.910392 -118.593163   -0.052739  -36.626743    0.000000    0.000000    0.000000    0.000000
  0.022424850  -28.680625 -120.665771   -0.083051  -36.222839    0.000000    0.000000    0.000000    0.000000
  0.022625251  -28.901895 -120.960304   -0.098291  -36.156425    0.000000    0.000000    0.000000    0.000000
  0.022825651  -28.742191 -122.055496   -0.141443  -36.147911    0.000000    0.000000    0.000000    0.000000
  0.023026052  -28.935357 -122.923241   -0.165108  -36.340153    0.000000    0.000000    0.000000    0.000000
  0.023226453  -29.382697 -127.268799   -0.175408  -36.237949    0.000000    0.000000    0.000000    0.000000
  0.023426854  -29.017720 -129.287033   -0.235923  -36.719524    0.000000    0.000000    0.000000    0.000000
  0.023627255  -29.095873 -130.028763   -0.243820  -36.715393    0.000000    0.000000    0.000000    0.000000
  0.023827655  -29.160401 -129.335297   -0.287586  -37.807026    0.000000    0.000000    0.000000    0.000000
  0.024028056  -29.617441 -132.205521   -0.328314  -38.285175    0.000000    0.000000    0.000000    0.000000
  0.024228457  -29.347932 -135.651794   -0.312355  -38.389351    0.000000    0.000000    0.000000    0.000000
  0.024428858  -29.419506 -136.572556   -0.247976  -38.884041    0.000000    0.000000    0.000000    0.000000
  0.024629259  -29.526397 -138.229874   -0.228609  -39.031265    0.000000    0.000000    0.000000    0.000000
  0.024829659  -29.707408 -139.300079   -0.118828  -37.926235    0.000000    0.000000    0.000000    0.000000
  0.025030060  -29.461884 -141.454727   -0.146855  -38.680267    0.000000    0.000000    0.000000    0.000000
  0.025230461  -29.592791 -140.610199   -0.077200  -39.210911    0.000000    0.000000    0.000000    0.000000
  0.025430862  -30.129199 -146.264984   -0.157466  -39.203346    0.000000    0.000000    0.000000    0.000000
  0.025631263  -29.755148 -146.062042   -0.142077  -39.287975    0.000000    0.000000    0.000000    0.000000
  0.025831663  -29.892491 -147.345642   -0.153546  -39.503201    0.000000    0.000000    0.000000    0.000000
  0.026032064  -29.848650 -149.889755   -0.102400  -40.311901    0.000000    0.000000    0.000000    0.000000
  0.026232465  -29.883356 -151.182556   -0.089710  -40.791306    0.000000    0.000000    0.000000    0.000000
  0.026432866  -30.020893 -150.730087   -0.157685  -41.355709    0.000000    0.000000    0.000000    0.000000
  0.026633267  -29.998656 -154.912674   -0.062160  -42.244137    0.000000    0.000000    0.000000    0.000000
  0.026833667  -29.929796 -153.471527   -0.097212  -42.326626    0.000000    0.000000    0.000000    0.000000
  0.027034068  -30.029345 -154.130096   -0.060410  -43.006664    0.000000    0.000000    0.000000    0.000000
  0.027234469  -29.964636 -152.705170   -0.146454  -42.828899    0.000000    0.000000    0.000000    0.000000
  0.027434870  -30.434129 -157.614243   -0.098621  -43.730598    0.000000    0.000000    0.000000    0.000000
  0.027635271  -30.241980 -158.662628   -0.172143  -43.452763    0.000000    0.000000    0.000000    0.000000
  0.027835671  -30.574290 -157.039902   -0.305985  -44.271976    0.000000    0.000000    0.000000    0.000000
  0.028036072  -30.384739 -165.871475   -0.277636  -44.736385    0.000000    0.000000    0.000000    0.000000
  0.028236473  -30.171532 -161.032150   -0.315282  -45.473648    0.000000    0.000000    0.000000    0.000000
  0.028436874  -30.428713 -164.911087   -0.293495  -45.991684    0.000000    0.000000    0.000000    0.000000
  0.028637275  -30.475843 -167.492554   -0.336526  -45.997623    0.000000    0.000000    0.000000    0.000000
  0.028837675  -30.411238 -167.332199   -0.359305  -46.784393    0.000000    0.000000    0.000000    0.000000
  0.029038076  -30.871499 -169.047821   -0.378620  -46.934868    0.000000    0.000000    0.000000    0.000000
  0.029238477  -30.850849 -169.902878   -0.242746  -47.501583    0.000000    0.000000    0.000000    0.000000
  0.029438878  -30.853674 -171.447250   -0.281899  -47.246616    0.000000    0.000000    0.000000    0.000000
  0.029639279  -31.030296 -173.687286   -0.181650  -47.086231    0.000000    0.000000    0.000000    0.000000
  0.029839679  -30.845596 -171.585724   -0.155840  -47.581123    0.000000    0.000000    0.000000    0.000000
  0.030040080  -31.165012 -172.618774   -0.193172  -47.501434    0.000000    0.000000    0.000000    0.000000
  0.030240481  -31.172627 -175.292023   -0.220578  -47.382526    0.000000    0.000000    0.000000    0.000000
  0.030440882  -31.302359  178.516830   -0.195252  -47.984772    0.000000    0.000000    0.000000    0.000000
  0.030641283  -31.172996 -178.762054   -0.323795  -48.628784    0.000000    0.000000    0.000000    0.000000
  0.030841683  -31.871238 -177.142120   -0.355721  -49.223263    0.000000    0.000000    0.000000    0.000000
  0.031042084  -31.534591 -179.351151   -0.468768  -50.038239    0.000000    0.000000    0.000000    0.000000
  0.031242485  -31.655472  179.633667   -0.496185  -50.752487    0.000000    0.000000    0.000000    0.000000
  0.031442886  -31.928020  177.454666   -0.500256  -51.831429    0.000000    0.000000    0.000000    0.000000
  0.031643287  -32.707312  174.088150   -0.502747  -52.115246    0.000000    0.000000    0.000000    0.000000
  0.031843687  -32.455351  175.753098   -0.431979  -52.650986    0.000000    0.000000    0.000000    0.000000
  0.032044088  -32.450752  179.022263   -0.418804  -52.907116    0.000000    0.000000    0.000000    0.000000
  0.032244489  -32.935450  173.000244   -0.338462  -52.784580    0.000000    0.000000    0.000000    0.000000
  0.032444890  -32.766186  169.996552   -0.400685  -52.470261    0.000000    0.000000    0.000000    0.000000
  0.032645291  -33.029816  171.689148   -0.363645  -52.079659    0.000000    0.000000    0.000000    0.000000
  0.032845691  -33.378967  172.230286   -0.258201  -52.376278    0.000000    0.000000    0.000000    0.000000
  0.033046092  -33.173810  169.963837   -0.365804  -51.993206    0.000000    0.000000    0.000000    0.000000
  0.033246493  -33.734622  166.393692   -0.308587  -52.239082    0.000000    0.000000    0.000000    0.000000
  0.033446894  -33.143495  164.175858   -0.270185  -52.942547    0.000000    0.000000    0.000000    0.000000
  0.033647295  -33.549550  162.632462   -0.263788  -53.808548    0.000000    0.000000    0.000000    0.000000
  0.033847695  -33.713460  164.311752   -0.296921  -54.301922    0.000000    0.000000    0.000000    0.000000
  0.034048096  -34.625348  161.837006   -0.268880  -55.668930    0.000000    0.000000    0.000000    0.000000
  0.034248497  -34.533590  161.264297   -0.241372  -55.609375    0.000000    0.000000    0.000000    0.000000
  0.034448898  -34.964337  164.206787   -0.199762  -56.028782    0.000000    0.000000    0.000000    0.000000
  0.034649299  -34.688644  158.856750   -0.169419  -55.954918    0.000000    0.000000    0.000000    0.000000
  0.034849699  -35.250221  162.754898   -0.160958  -55.241577    0.000000    0.000000    0.000000    0.000000
  0.035050100  -35.049766  156.700562   -0.132703  -54.949909    0.000000    0.000000    0.000000    0.000000
  0.035250501  -35.772882  157.252594   -0.165303  -55.312351    0.000000    0.000000    0.000000    0.000000
  0.035450902  -35.217708  151.045044   -0.268037  -55.310379    0.000000    0.000000    0.000000    0.000000
  0.035651303  -35.558679  152.556503   -0.264623  -55.857128    0.000000    0.000000    0.000000    0.000000
  0.035851703  -36.223876  155.818207   -0.281997  -57.039413    0.000000    0.000000    0.000000    0.000000
  0.036052104  -36.672361  153.901749   -0.314552  -58.009171    0.000000    0.000000    0.000000    0.000000
  0.036252505  -37.682829  155.773590   -0.334602  -58.991791    0.000000    0.000000    0.000000    0.000000
  0.036452906  -37.054436  150.067764   -0.383999  -59.169861    0.000000    0.000000    0.000000    0.000000
  0.036653307  -37.432360  150.386642   -0.361769  -59.635952    0.000000    0.000000    0.000000    0.000000
  0.036853707  -37.363010  144.573730   -0.361344  -59.288288    0.000000    0.000000    0.000000    0.000000
  0.037054108  -38.882706  146.894104   -0.426630  -59.401302    0.000000    0.000000    0.000000    0.000000
  0.037254509  -39.323852  151.574936   -0.435329  -59.624226    0.000000    0.000000    0.000000    0.000000
  0.037454910  -39.854095  148.650238   -0.433686  -60.006683    0.000000    0.000000    0.000000    0.000000
  0.037655311  -39.912689  142.469513   -0.456002  -60.519329    0.000000    0.000000    0.000000    0.000000
  0.037855711  -39.891062  145.029449   -0.429685  -60.890221    0.000000    0.000000    0.000000    0.000000
  0.038056112  -40.383687  141.315002   -0.386221  -61.850689    0.000000    0.000000    0.000000    0.000000
  0.038256513  -42.254960  144.763229   -0.334277  -62.096947    0.000000    0.000000    0.000000    0.000000
  0.038456914  -42.889339  142.477631   -0.290486  -62.289845    0.000000    0.000000    0.000000    0.000000
  0.038657315  -42.960701  144.180450   -0.330897  -62.527355    0.000000    0.000000    0.000000    0.000000
  0.038857715  -42.720956  137.674301   -0.331501  -62.475967    0.000000    0.000000    0.000000    0.000000
  0.039058116  -44.897364  136.093903   -0.345020  -61.831863    0.000000    0.000000    0.000000    0.000000
  0.039258517  -47.632624  131.016159   -0.424075  -62.298843    0.000000    0.000000    0.000000    0.000000
  0.039458918  -48.424485  136.740860   -0.502165  -62.291481    0.000000    0.000000    0.000000    0.000000
  0.039659319  -46.294549  144.816757   -0.531404  -62.890907    0.000000    0.000000    0.000000    0.000000
  0.039859719  -49.453168  161.862671   -0.552925  -63.609798    0.000000    0.000000    0.000000    0.000000
  0.040060120  -48.642816  141.359634   -0.497382  -64.782005    0.000000    0.000000    0.000000    0.000000
  0.040260521  -51.771537  149.123993   -0.499390  -65.559021    0.000000    0.000000    0.000000    0.000000
  0.040460922  -56.824666  148.210938   -0.378353  -66.431953    0.000000    0.000000    0.000000    0.000000
  0.040661323  -55.521516  171.063049   -0.355941  -67.237389    0.000000    0.000000    0.000000    0.000000
  0.040861723  -56.987064 -157.189865   -0.332592  -67.148697    0.000000    0.000000    0.000000    0.000000
  0.041062124  -59.933977  -93.537666   -0.336827  -67.083649    0.000000    0.000000    0.000000    0.000000
  0.041262525  -55.240645  -80.607719   -0.306237  -67.321381    0.000000    0.000000    0.000000    0.000000
  0.041462926  -55.455272  -96.102165   -0.381006  -66.745811    0.000000    0.000000    0.000000    0.000000
  0.041663327  -53.348757  -83.067657   -0.326335  -66.708435    0.000000    0.000000    0.000000    0.000000
  0.041863727  -49.939648  -63.456352   -0.382013  -66.887230    0.000000    0.000000    0.000000    0.000000
  0.042064128  -50.095982  -70.011635   -0.414658  -66.893944    0.000000    0.000000    0.000000    0.000000
  0.042264529  -48.028272  -71.714363   -0.479873  -67.610229    0.000000    0.000000    0.000000    0.000000
  0.042464930  -44.523388  -72.226082   -0.443073  -68.460953    0.000000    0.000000    0.000000    0.000000
  0.042665331  -47.333113  -70.388115   -0.472485  -69.348984    0.000000    0.000000    0.000000    0.000000
  0.042865731  -44.272328  -68.238815   -0.380163  -70.261307    0.000000    0.000000    0.000000    0.000000
