! Anritsu VNA Master:                 Model: MS2034B/10/19/501
! SN:                                  1337062
! /bd0/ovro-jan-2016/vna-jan/vna-blue-ms147-with-board-open.s2p
! Existing Calibration Information:
! TYPE:                         Current Settings,       Active Cal Settings
! TIME:             	   01/13/2016 12:44:36 PM,    01/12/2016 05:57:47 PM
! INTERNAL TEMP:    	                   44.3 C,                    46.0 C
! # POINTS:         	                      500,                       500
! START FREQ:       	               10.000 MHz,                10.000 MHz
! STOP FREQ:        	              110.000 MHz,               110.000 MHz
! SOURCE POWER:     	                      Low,                       Low
! IFBW:             	                   100 Hz,                     1 kHz
! AVG FACTOR:       	                       1 ,                        3 
! REF PLANE 1:      	                     0 mm,                      0 mm
! REF PLANE 2:      	                     0 mm,                      0 mm
! CAL TYPE:         	             1P2P S11,S21,              1P2P S11,S21
! CAL METHOD:       	                     SOLT,                      SOLT
! CAL LINE TYPE:    	                     Coax,                      Coax
! DUT PORT 1:       	                K-Conn(M),                 K-Conn(M)
! DUT PORT 2:       	                N-Conn(M),                 N-Conn(M)
! CAL STATUS:       	        OK: Accuracy High,                        --
# GHZ S DB R 50.0
! FREQ.GHZ       S11DB        S11A       S21DB        S21A       S12DB        S12A       S22DB        S22A
  0.010000000   -0.050801  -34.350468  -69.099763   48.464565    0.000000    0.000000    0.000000    0.000000
  0.010200401   -0.043392  -35.141407  -66.659710   54.926022    0.000000    0.000000    0.000000    0.000000
  0.010400802   -0.044489  -35.638542  -66.919391   60.622192    0.000000    0.000000    0.000000    0.000000
  0.010601202   -0.046550  -36.219425  -63.641623   63.371464    0.000000    0.000000    0.000000    0.000000
  0.010801603   -0.053023  -37.159874  -67.405853   50.408699    0.000000    0.000000    0.000000    0.000000
  0.011002004   -0.034678  -37.666023  -65.949919   66.096634    0.000000    0.000000    0.000000    0.000000
  0.011202405   -0.062088  -38.453064  -66.010897   68.146790    0.000000    0.000000    0.000000    0.000000
  0.011402806   -0.045198  -39.081333  -65.288893   62.166641    0.000000    0.000000    0.000000    0.000000
  0.011603206   -0.059035  -39.755501  -66.892107   71.085953    0.000000    0.000000    0.000000    0.000000
  0.011803607   -0.053051  -40.344048  -66.267423   66.111404    0.000000    0.000000    0.000000    0.000000
  0.012004008   -0.051456  -41.091095  -65.352032   82.297142    0.000000    0.000000    0.000000    0.000000
  0.012204409   -0.072648  -41.725567  -65.937952   77.974556    0.000000    0.000000    0.000000    0.000000
  0.012404810   -0.075706  -42.468777  -66.853747   54.654484    0.000000    0.000000    0.000000    0.000000
  0.012605210   -0.063196  -43.065109  -65.545217   79.245621    0.000000    0.000000    0.000000    0.000000
  0.012805611   -0.080614  -43.875439  -66.597563   70.591820    0.000000    0.000000    0.000000    0.000000
  0.013006012   -0.078814  -44.324833  -63.417066   86.506386    0.000000    0.000000    0.000000    0.000000
  0.013206413   -0.065150  -45.279652  -64.976277   60.052513    0.000000    0.000000    0.000000    0.000000
  0.013406814   -0.090681  -45.777828  -64.689522   79.268539    0.000000    0.000000    0.000000    0.000000
  0.013607214   -0.075015  -46.542950  -67.882564   59.144070    0.000000    0.000000    0.000000    0.000000
  0.013807615   -0.085697  -47.086315  -65.640428   69.213181    0.000000    0.000000    0.000000    0.000000
  0.014008016   -0.087778  -47.971764  -65.480728   95.140076    0.000000    0.000000    0.000000    0.000000
  0.014208417   -0.123716  -48.357609  -65.030196   85.115906    0.000000    0.000000    0.000000    0.000000
  0.014408818   -0.064577  -49.023205  -65.241898   87.385109    0.000000    0.000000    0.000000    0.000000
  0.014609218   -0.095415  -49.826248  -64.674608   85.775177    0.000000    0.000000    0.000000    0.000000
  0.014809619   -0.101998  -50.581505  -66.807772   82.278885    0.000000    0.000000    0.000000    0.000000
  0.015010020   -0.103281  -51.181866  -66.583577   82.382637    0.000000    0.000000    0.000000    0.000000
  0.015210421   -0.083921  -51.932407  -65.634053   92.523659    0.000000    0.000000    0.000000    0.000000
  0.015410822   -0.096625  -52.654285  -66.850060   81.047508    0.000000    0.000000    0.000000    0.000000
  0.015611222   -0.120055  -52.977818  -66.905657   86.148720    0.000000    0.000000    0.000000    0.000000
  0.015811623   -0.101165  -53.805580  -66.662059   90.478294    0.000000    0.000000    0.000000    0.000000
  0.016012024   -0.113745  -54.639706  -65.883703  101.214012    0.000000    0.000000    0.000000    0.000000
  0.016212425   -0.098361  -55.343853  -66.895071   97.481110    0.000000    0.000000    0.000000    0.000000
  0.016412826   -0.109277  -56.074276  -64.342247   79.100525    0.000000    0.000000    0.000000    0.000000
  0.016613226   -0.124481  -56.605419  -67.390446   82.304626    0.000000    0.000000    0.000000    0.000000
  0.016813627   -0.121604  -57.340839  -64.426779   91.881271    0.000000    0.000000    0.000000    0.000000
  0.017014028   -0.097617  -58.009228  -64.652021   87.033195    0.000000    0.000000    0.000000    0.000000
  0.017214429   -0.103463  -58.727448  -67.512533   93.160561    0.000000    0.000000    0.000000    0.000000
  0.017414830   -0.122419  -59.331478  -64.523186   86.180954    0.000000    0.000000    0.000000    0.000000
  0.017615230   -0.110618  -60.094818  -67.166670   99.603622    0.000000    0.000000    0.000000    0.000000
  0.017815631   -0.124659  -60.850258  -65.443172   97.373756    0.000000    0.000000    0.000000    0.000000
  0.018016032   -0.158525  -61.197403  -66.156099  105.282593    0.000000    0.000000    0.000000    0.000000
  0.018216433   -0.128190  -62.041599  -65.888212   93.406929    0.000000    0.000000    0.000000    0.000000
  0.018416834   -0.127869  -62.840137  -67.604519  103.822220    0.000000    0.000000    0.000000    0.000000
  0.018617234   -0.148540  -63.497528  -66.562629  114.073280    0.000000    0.000000    0.000000    0.000000
  0.018817635   -0.151030  -64.114082  -67.871618  100.068298    0.000000    0.000000    0.000000    0.000000
  0.019018036   -0.141558  -64.912094  -65.898870  106.919312    0.000000    0.000000    0.000000    0.000000
  0.019218437   -0.154778  -65.346329  -68.188693   98.255722    0.000000    0.000000    0.000000    0.000000
  0.019418838   -0.129507  -66.205788  -65.341871  104.467499    0.000000    0.000000    0.000000    0.000000
  0.019619238   -0.157137  -66.892776  -66.068052  114.347527    0.000000    0.000000    0.000000    0.000000
  0.019819639   -0.164104  -67.409035  -67.232873  106.031456    0.000000    0.000000    0.000000    0.000000
  0.020020040   -0.134068  -68.235184  -64.830143   93.707993    0.000000    0.000000    0.000000    0.000000
  0.020220441   -0.120797  -68.796394  -65.130630  114.998489    0.000000    0.000000    0.000000    0.000000
  0.020420842   -0.149926  -69.488319  -64.666933  115.501762    0.000000    0.000000    0.000000    0.000000
  0.020621242   -0.174644  -69.892212  -67.482019   98.937233    0.000000    0.000000    0.000000    0.000000
  0.020821643   -0.159559  -70.876335  -66.041922  134.781815    0.000000    0.000000    0.000000    0.000000
  0.021022044   -0.151648  -71.696808  -65.432162  106.628311    0.000000    0.000000    0.000000    0.000000
  0.021222445   -0.147758  -72.171906  -65.454103  111.005760    0.000000    0.000000    0.000000    0.000000
  0.021422846   -0.149468  -72.829712  -64.721964  117.370407    0.000000    0.000000    0.000000    0.000000
  0.021623246   -0.158277  -73.629509  -66.681869  111.802765    0.000000    0.000000    0.000000    0.000000
  0.021823647   -0.154022  -74.263550  -66.803310  132.439697    0.000000    0.000000    0.000000    0.000000
  0.022024048   -0.154756  -74.824905  -66.004033  114.049385    0.000000    0.000000    0.000000    0.000000
  0.022224449   -0.157244  -75.597122  -64.532812  113.435349    0.000000    0.000000    0.000000    0.000000
  0.022424850   -0.158489  -76.206635  -71.640436  129.857269    0.000000    0.000000    0.000000    0.000000
  0.022625251   -0.149440  -76.809738  -68.953811  131.364166    0.000000    0.000000    0.000000    0.000000
  0.022825651   -0.152075  -77.653275  -66.065388  119.758995    0.000000    0.000000    0.000000    0.000000
  0.023026052   -0.186287  -78.088020  -67.120421  134.839417    0.000000    0.000000    0.000000    0.000000
  0.023226453   -0.177948  -78.806709  -66.155272  132.726929    0.000000    0.000000    0.000000    0.000000
  0.023426854   -0.168075  -79.602295  -65.220417  113.065002    0.000000    0.000000    0.000000    0.000000
  0.023627255   -0.167920  -80.294685  -66.949472  128.811691    0.000000    0.000000    0.000000    0.000000
  0.023827655   -0.158299  -80.913879  -66.459292  128.342422    0.000000    0.000000    0.000000    0.000000
  0.024028056   -0.159503  -81.555511  -64.722730  127.411003    0.000000    0.000000    0.000000    0.000000
  0.024228457   -0.198845  -82.373627  -65.375726  132.806412    0.000000    0.000000    0.000000    0.000000
  0.024428858   -0.181178  -82.962608  -64.133408  118.813148    0.000000    0.000000    0.000000    0.000000
  0.024629259   -0.189969  -83.651054  -65.236771  132.352463    0.000000    0.000000    0.000000    0.000000
  0.024829659   -0.180135  -84.355736  -64.911996  163.722458    0.000000    0.000000    0.000000    0.000000
  0.025030060   -0.164594  -85.198936  -64.114368  146.944901    0.000000    0.000000    0.000000    0.000000
  0.025230461   -0.172496  -85.716400  -62.715321  149.527908    0.000000    0.000000    0.000000    0.000000
  0.025430862   -0.201421  -86.482925  -66.060060  136.061066    0.000000    0.000000    0.000000    0.000000
  0.025631263   -0.158725  -87.248367  -63.986843  170.906036    0.000000    0.000000    0.000000    0.000000
  0.025831663   -0.189307  -87.908142  -63.122676  145.855453    0.000000    0.000000    0.000000    0.000000
  0.026032064   -0.178662  -88.533447  -67.636874  144.589432    0.000000    0.000000    0.000000    0.000000
  0.026232465   -0.190955  -89.108612  -65.098327  158.942780    0.000000    0.000000    0.000000    0.000000
  0.026432866   -0.201550  -89.695160  -64.707137  169.102676    0.000000    0.000000    0.000000    0.000000
  0.026633267   -0.181036  -90.450165  -65.363445  156.028229    0.000000    0.000000    0.000000    0.000000
  0.026833667   -0.188548  -91.072876  -65.753064  158.392090    0.000000    0.000000    0.000000    0.000000
  0.027034068   -0.165879  -91.771004  -63.736879  156.502380    0.000000    0.000000    0.000000    0.000000
  0.027234469   -0.161786  -92.602074  -65.053501  146.559494    0.000000    0.000000    0.000000    0.000000
  0.027434870   -0.150632  -93.131378  -66.389152  136.923920    0.000000    0.000000    0.000000    0.000000
  0.027635271   -0.177401  -93.689949  -65.043126  157.717606    0.000000    0.000000    0.000000    0.000000
  0.027835671   -0.155397  -94.282349  -63.469762  155.175903    0.000000    0.000000    0.000000    0.000000
  0.028036072   -0.212279  -95.257011  -63.420415  152.692856    0.000000    0.000000    0.000000    0.000000
  0.028236473   -0.164738  -95.915298  -64.054973  169.892471    0.000000    0.000000    0.000000    0.000000
  0.028436874   -0.176935  -96.584251  -65.604647  163.096130    0.000000    0.000000    0.000000    0.000000
  0.028637275   -0.190038  -97.125282  -65.983726  169.849518    0.000000    0.000000    0.000000    0.000000
  0.028837675   -0.158540  -97.806076  -63.884237  166.674408    0.000000    0.000000    0.000000    0.000000
  0.029038076   -0.170601  -98.552017  -67.529382  157.664764    0.000000    0.000000    0.000000    0.000000
  0.029238477   -0.150735  -99.136429  -66.594935  163.190170    0.000000    0.000000    0.000000    0.000000
  0.029438878   -0.163201  -99.838264  -68.429660  154.542694    0.000000    0.000000    0.000000    0.000000
  0.029639279   -0.155520 -100.527313  -67.075967  157.841171    0.000000    0.000000    0.000000    0.000000
  0.029839679   -0.166294 -101.136124  -65.720407  166.436722    0.000000    0.000000    0.000000    0.000000
  0.030040080   -0.162689 -101.852577  -65.323735  162.852249    0.000000    0.000000    0.000000    0.000000
  0.030240481   -0.176372 -102.494789  -66.896787  167.075836    0.000000    0.000000    0.000000    0.000000
  0.030440882   -0.216383 -103.259468  -67.047127  157.004456    0.000000    0.000000    0.000000    0.000000
  0.030641283   -0.160664 -103.851585  -67.595897  169.732056    0.000000    0.000000    0.000000    0.000000
  0.030841683   -0.157635 -104.456070  -65.167599  165.989700    0.000000    0.000000    0.000000    0.000000
  0.031042084   -0.165005 -105.305710  -64.601124  165.116348    0.000000    0.000000    0.000000    0.000000
  0.031242485   -0.160128 -105.902916  -67.742498  171.991760    0.000000    0.000000    0.000000    0.000000
  0.031442886   -0.164720 -106.476738  -64.053238  179.905197    0.000000    0.000000    0.000000    0.000000
  0.031643287   -0.189737 -107.119858  -65.709771  172.108368    0.000000    0.000000    0.000000    0.000000
  0.031843687   -0.209967 -107.818481  -65.700025  164.765015    0.000000    0.000000    0.000000    0.000000
  0.032044088   -0.150744 -108.563927  -66.649438  157.360260    0.000000    0.000000    0.000000    0.000000
  0.032244489   -0.145224 -109.013123  -65.013038  173.750473    0.000000    0.000000    0.000000    0.000000
  0.032444890   -0.174883 -109.842140  -66.773280 -174.666016    0.000000    0.000000    0.000000    0.000000
  0.032645291   -0.147840 -110.479904  -67.522335  177.990921    0.000000    0.000000    0.000000    0.000000
  0.032845691   -0.173722 -111.074867  -67.800375  171.823776    0.000000    0.000000    0.000000    0.000000
  0.033046092   -0.207985 -111.950752  -68.044771  167.166046    0.000000    0.000000    0.000000    0.000000
  0.033246493   -0.166593 -112.397461  -65.704384  169.122711    0.000000    0.000000    0.000000    0.000000
  0.033446894   -0.165593 -113.124626  -67.625138 -174.970154    0.000000    0.000000    0.000000    0.000000
  0.033647295   -0.176701 -113.643211  -66.409723  179.036530    0.000000    0.000000    0.000000    0.000000
  0.033847695   -0.159755 -114.451096  -66.287703  178.592361    0.000000    0.000000    0.000000    0.000000
  0.034048096   -0.176643 -114.966301  -69.157365 -164.672440    0.000000    0.000000    0.000000    0.000000
  0.034248497   -0.176317 -115.832512  -69.564388 -173.161362    0.000000    0.000000    0.000000    0.000000
  0.034448898   -0.167241 -116.368637  -69.263189 -174.305801    0.000000    0.000000    0.000000    0.000000
  0.034649299   -0.189133 -117.120079  -68.389861 -158.738220    0.000000    0.000000    0.000000    0.000000
  0.034849699   -0.163954 -117.715431  -66.613083  172.961884    0.000000    0.000000    0.000000    0.000000
  0.035050100   -0.175617 -118.381042  -65.995132 -173.493286    0.000000    0.000000    0.000000    0.000000
  0.035250501   -0.157812 -118.886475  -67.340554 -165.727020    0.000000    0.000000    0.000000    0.000000
  0.035450902   -0.199046 -119.773201  -67.762222 -177.723297    0.000000    0.000000    0.000000    0.000000
  0.035651303   -0.186943 -120.390564  -68.850019 -171.318268    0.000000    0.000000    0.000000    0.000000
  0.035851703   -0.159152 -121.111244  -65.645406  179.746735    0.000000    0.000000    0.000000    0.000000
  0.036052104   -0.177717 -121.673164  -65.876974  178.860428    0.000000    0.000000    0.000000    0.000000
  0.036252505   -0.169788 -122.283852  -66.824787 -169.617599    0.000000    0.000000    0.000000    0.000000
  0.036452906   -0.181018 -122.918282  -68.635450  175.361404    0.000000    0.000000    0.000000    0.000000
  0.036653307   -0.190668 -123.608009  -67.530729  173.423248    0.000000    0.000000    0.000000    0.000000
  0.036853707   -0.205304 -124.525383  -65.992527 -178.117813    0.000000    0.000000    0.000000    0.000000
  0.037054108   -0.180020 -124.818100  -66.033235 -175.395721    0.000000    0.000000    0.000000    0.000000
  0.037254509   -0.154583 -125.585472  -67.167760  173.807953    0.000000    0.000000    0.000000    0.000000
  0.037454910   -0.179475 -126.110809  -69.281345 -165.877655    0.000000    0.000000    0.000000    0.000000
  0.037655311   -0.189301 -126.841721  -67.921498 -168.279709    0.000000    0.000000    0.000000    0.000000
  0.037855711   -0.176586 -127.590103  -70.670023 -165.404526    0.000000    0.000000    0.000000    0.000000
  0.038056112   -0.205752 -128.330566  -67.374905 -169.770248    0.000000    0.000000    0.000000    0.000000
  0.038256513   -0.170288 -128.711304  -66.573856 -165.809174    0.000000    0.000000    0.000000    0.000000
  0.038456914   -0.174517 -129.500717  -71.203666 -155.899338    0.000000    0.000000    0.000000    0.000000
  0.038657315   -0.185443 -130.059952  -67.839163 -150.378372    0.000000    0.000000    0.000000    0.000000
  0.038857715   -0.204647 -130.901810  -65.788890 -158.113327    0.000000    0.000000    0.000000    0.000000
  0.039058116   -0.193429 -131.482162  -66.730655 -166.586365    0.000000    0.000000    0.000000    0.000000
  0.039258517   -0.196885 -132.220993  -70.441784 -160.044769    0.000000    0.000000    0.000000    0.000000
  0.039458918   -0.185249 -132.610992  -68.117015 -165.669968    0.000000    0.000000    0.000000    0.000000
  0.039659319   -0.189303 -133.479691  -68.304060 -159.835846    0.000000    0.000000    0.000000    0.000000
  0.039859719   -0.184048 -134.061539  -67.425645 -151.628387    0.000000    0.000000    0.000000    0.000000
  0.040060120   -0.196554 -134.729095  -70.344506 -141.231964    0.000000    0.000000    0.000000    0.000000
  0.040260521   -0.186993 -135.448364  -67.936315 -164.000854    0.000000    0.000000    0.000000    0.000000
  0.040460922   -0.203038 -136.142914  -67.924172 -153.307907    0.000000    0.000000    0.000000    0.000000
  0.040661323   -0.214609 -136.743393  -67.485181 -156.555038    0.000000    0.000000    0.000000    0.000000
  0.040861723   -0.187633 -137.300323  -68.121417 -147.878616    0.000000    0.000000    0.000000    0.000000
  0.041062124   -0.213909 -137.921890  -67.172238 -146.397095    0.000000    0.000000    0.000000    0.000000
  0.041262525   -0.202504 -138.534302  -69.507896 -140.272110    0.000000    0.000000    0.000000    0.000000
  0.041462926   -0.208020 -139.247620  -68.464268 -156.630829    0.000000    0.000000    0.000000    0.000000
  0.041663327   -0.208300 -139.871796  -66.876527 -145.619858    0.000000    0.000000    0.000000    0.000000
  0.041863727   -0.210696 -140.542923  -65.367269 -148.866730    0.000000    0.000000    0.000000    0.000000
  0.042064128   -0.225458 -141.303329  -67.538032 -141.914398    0.000000    0.000000    0.000000    0.000000
  0.042264529   -0.214082 -141.800430  -67.331251 -139.974594    0.000000    0.000000    0.000000    0.000000
  0.042464930   -0.224233 -142.487015  -67.197318 -150.258057    0.000000    0.000000    0.000000    0.000000
  0.042665331   -0.219044 -143.133560  -65.758715 -143.685959    0.000000    0.000000    0.000000    0.000000
  0.042865731   -0.232012 -143.785095  -68.559577 -135.047867    0.000000    0.000000    0.000000    0.000000
