! Anritsu VNA Master:                 Model: MS2034B/10/19/501
! SN:                                  1337062
! /bd0/ovro-jan-2016/vna-jan/vna-ant256-z1-s11.s2p
! Existing Calibration Information:
! TYPE:                         Current Settings,       Active Cal Settings
! TIME:             	   01/13/2016 02:32:56 PM,    01/13/2016 02:09:05 PM
! INTERNAL TEMP:    	                   36.8 C,                    41.3 C
! # POINTS:         	                      500,                       500
! START FREQ:       	               10.000 MHz,                10.000 MHz
! STOP FREQ:        	              110.000 MHz,               110.000 MHz
! SOURCE POWER:     	                     High,                      High
! IFBW:             	                   100 Hz,                    100 Hz
! AVG FACTOR:       	                       4 ,                        4 
! REF PLANE 1:      	                     0 mm,                      0 mm
! REF PLANE 2:      	                     0 mm,                      0 mm
! CAL TYPE:         	                 Full S11,                  Full S11
! CAL METHOD:       	                     SOLT,                      SOLT
! CAL LINE TYPE:    	                     Coax,                      Coax
! DUT PORT 1:       	                K-Conn(M),                 K-Conn(M)
! DUT PORT 2:       	                N-Conn(M),                 N-Conn(M)
! CAL STATUS:       	        OK: Accuracy High,                        --
# GHZ S DB R 50.0
! FREQ.GHZ       S11DB        S11A       S21DB        S21A       S12DB        S12A       S22DB        S22A
  0.010000000   -0.533316  -46.578125 -106.659828  147.383331    0.000000    0.000000    0.000000    0.000000
  0.010200401   -0.512959  -47.573280 -105.049945  151.103561    0.000000    0.000000    0.000000    0.000000
  0.010400802   -0.497988  -48.521839 -105.522768  138.618195    0.000000    0.000000    0.000000    0.000000
  0.010601202   -0.483038  -49.402184 -104.641117  143.210312    0.000000    0.000000    0.000000    0.000000
  0.010801603   -0.482720  -50.415203 -103.095918  149.613586    0.000000    0.000000    0.000000    0.000000
  0.011002004   -0.483001  -51.386292 -102.880915  148.508896    0.000000    0.000000    0.000000    0.000000
  0.011202405   -0.483516  -52.332790 -102.600656  143.120392    0.000000    0.000000    0.000000    0.000000
  0.011402806   -0.480366  -53.325241 -103.486858  138.301590    0.000000    0.000000    0.000000    0.000000
  0.011603206   -0.488118  -54.340553 -103.691606  138.190674    0.000000    0.000000    0.000000    0.000000
  0.011803607   -0.490691  -55.285168 -102.332430  137.965454    0.000000    0.000000    0.000000    0.000000
  0.012004008   -0.485365  -56.418133 -101.406708  140.862976    0.000000    0.000000    0.000000    0.000000
  0.012204409   -0.486960  -57.454334 -102.894512  142.812271    0.000000    0.000000    0.000000    0.000000
  0.012404810   -0.482406  -58.526749 -102.326585  140.279922    0.000000    0.000000    0.000000    0.000000
  0.012605210   -0.485463  -59.497868 -102.164657  137.417709    0.000000    0.000000    0.000000    0.000000
  0.012805611   -0.487091  -60.513317 -102.854546  139.581818    0.000000    0.000000    0.000000    0.000000
  0.013006012   -0.499175  -61.512894 -102.312145  132.653366    0.000000    0.000000    0.000000    0.000000
  0.013206413   -0.490296  -62.623505 -101.908839  135.692139    0.000000    0.000000    0.000000    0.000000
  0.013406814   -0.492392  -63.691460 -103.883916  134.392319    0.000000    0.000000    0.000000    0.000000
  0.013607214   -0.497971  -64.779579 -103.423283  131.658585    0.000000    0.000000    0.000000    0.000000
  0.013807615   -0.496677  -65.888458 -103.717342  138.184830    0.000000    0.000000    0.000000    0.000000
  0.014008016   -0.492378  -67.002090 -103.623486  134.040634    0.000000    0.000000    0.000000    0.000000
  0.014208417   -0.504420  -68.129448 -103.997106  135.706345    0.000000    0.000000    0.000000    0.000000
  0.014408818   -0.487023  -69.205826 -104.213161  126.595757    0.000000    0.000000    0.000000    0.000000
  0.014609218   -0.483663  -70.269341 -104.368718  134.194946    0.000000    0.000000    0.000000    0.000000
  0.014809619   -0.481832  -71.341682 -105.283837  124.637238    0.000000    0.000000    0.000000    0.000000
  0.015010020   -0.476758  -72.390755 -104.264579  126.054077    0.000000    0.000000    0.000000    0.000000
  0.015210421   -0.475198  -73.439049 -105.629605  134.317703    0.000000    0.000000    0.000000    0.000000
  0.015410822   -0.478844  -74.519638 -106.908576  128.165649    0.000000    0.000000    0.000000    0.000000
  0.015611222   -0.489461  -75.680496 -107.369666  132.350754    0.000000    0.000000    0.000000    0.000000
  0.015811623   -0.487533  -76.661377 -108.195981  138.326706    0.000000    0.000000    0.000000    0.000000
  0.016012024   -0.488832  -77.781281 -108.123047  137.439392    0.000000    0.000000    0.000000    0.000000
  0.016212425   -0.488164  -78.901497 -107.478516  132.283539    0.000000    0.000000    0.000000    0.000000
  0.016412826   -0.492895  -80.008659 -107.698577  140.374344    0.000000    0.000000    0.000000    0.000000
  0.016613226   -0.491961  -81.156235 -107.342652  141.687485    0.000000    0.000000    0.000000    0.000000
  0.016813627   -0.491684  -82.288879 -105.994644  133.783020    0.000000    0.000000    0.000000    0.000000
  0.017014028   -0.494133  -83.375755 -107.522054  144.740662    0.000000    0.000000    0.000000    0.000000
  0.017214429   -0.493257  -84.532784 -107.870439  141.667923    0.000000    0.000000    0.000000    0.000000
  0.017414830   -0.496086  -85.663139 -107.057371  144.466660    0.000000    0.000000    0.000000    0.000000
  0.017615230   -0.491077  -86.819946 -106.019910  150.026566    0.000000    0.000000    0.000000    0.000000
  0.017815631   -0.484473  -87.991570 -106.975574  145.435852    0.000000    0.000000    0.000000    0.000000
  0.018016032   -0.469316  -89.206573 -106.543224  144.950394    0.000000    0.000000    0.000000    0.000000
  0.018216433   -0.469718  -90.332626 -106.183920  150.183640    0.000000    0.000000    0.000000    0.000000
  0.018416834   -0.462154  -91.468224 -105.205324  150.228256    0.000000    0.000000    0.000000    0.000000
  0.018617234   -0.452668  -92.616180 -104.940324  148.769394    0.000000    0.000000    0.000000    0.000000
  0.018817635   -0.446514  -93.755836 -105.700664  146.095352    0.000000    0.000000    0.000000    0.000000
  0.019018036   -0.439203  -94.912346 -104.678916  144.496445    0.000000    0.000000    0.000000    0.000000
  0.019218437   -0.420097  -96.103821 -104.500349  148.106918    0.000000    0.000000    0.000000    0.000000
  0.019418838   -0.423420  -97.250694 -104.495158  149.837692    0.000000    0.000000    0.000000    0.000000
  0.019619238   -0.419265  -98.415916 -104.736311  139.729248    0.000000    0.000000    0.000000    0.000000
  0.019819639   -0.408932  -99.561432 -105.760496  148.103683    0.000000    0.000000    0.000000    0.000000
  0.020020040   -0.411313 -100.726692 -103.626045  145.325409    0.000000    0.000000    0.000000    0.000000
  0.020220441   -0.398839 -101.875740 -105.125217  150.645004    0.000000    0.000000    0.000000    0.000000
  0.020420842   -0.397337 -103.037155 -104.663621  139.837189    0.000000    0.000000    0.000000    0.000000
  0.020621242   -0.395348 -104.182907 -105.522719  150.320450    0.000000    0.000000    0.000000    0.000000
  0.020821643   -0.402820 -105.416512 -105.172588  143.265198    0.000000    0.000000    0.000000    0.000000
  0.021022044   -0.413598 -106.568497 -104.674633  139.578735    0.000000    0.000000    0.000000    0.000000
  0.021222445   -0.417413 -107.852913 -104.377540  144.703156    0.000000    0.000000    0.000000    0.000000
  0.021422846   -0.420497 -109.096367 -104.438299  146.679138    0.000000    0.000000    0.000000    0.000000
  0.021623246   -0.432103 -110.365273 -104.231869  141.347137    0.000000    0.000000    0.000000    0.000000
  0.021823647   -0.428588 -111.627129 -104.516036  140.905685    0.000000    0.000000    0.000000    0.000000
  0.022024048   -0.425062 -112.992531 -103.991960  139.530594    0.000000    0.000000    0.000000    0.000000
  0.022224449   -0.425812 -114.278152 -104.793402  136.314789    0.000000    0.000000    0.000000    0.000000
  0.022424850   -0.426486 -115.550545 -104.225075  141.705826    0.000000    0.000000    0.000000    0.000000
  0.022625251   -0.423007 -116.872368 -105.677983  140.327316    0.000000    0.000000    0.000000    0.000000
  0.022825651   -0.428397 -118.156670 -107.206455  135.326584    0.000000    0.000000    0.000000    0.000000
  0.023026052   -0.437030 -119.391556 -105.388539  142.668610    0.000000    0.000000    0.000000    0.000000
  0.023226453   -0.442875 -120.716904 -107.982510  136.374573    0.000000    0.000000    0.000000    0.000000
  0.023426854   -0.447693 -122.028320 -105.648949  138.014236    0.000000    0.000000    0.000000    0.000000
  0.023627255   -0.458502 -123.408524 -106.324553  137.908112    0.000000    0.000000    0.000000    0.000000
  0.023827655   -0.460008 -124.736481 -105.931748  149.988678    0.000000    0.000000    0.000000    0.000000
  0.024028056   -0.465609 -126.121933 -105.530832  131.845367    0.000000    0.000000    0.000000    0.000000
  0.024228457   -0.472011 -127.485306 -106.422065  133.627151    0.000000    0.000000    0.000000    0.000000
  0.024428858   -0.465294 -128.821518 -106.901155  141.475128    0.000000    0.000000    0.000000    0.000000
  0.024629259   -0.470439 -130.152283 -106.420809  137.670837    0.000000    0.000000    0.000000    0.000000
  0.024829659   -0.473716 -131.695282 -107.427687  137.431931    0.000000    0.000000    0.000000    0.000000
  0.025030060   -0.481770 -133.039948 -106.299243  140.855377    0.000000    0.000000    0.000000    0.000000
  0.025230461   -0.496947 -134.388458 -105.379645  135.064651    0.000000    0.000000    0.000000    0.000000
  0.025430862   -0.518707 -135.798325 -106.807525  142.355286    0.000000    0.000000    0.000000    0.000000
  0.025631263   -0.527497 -137.206604 -108.005569  135.428513    0.000000    0.000000    0.000000    0.000000
  0.025831663   -0.534953 -138.692825 -106.331577  136.549408    0.000000    0.000000    0.000000    0.000000
  0.026032064   -0.553848 -140.121002 -106.548957  150.398682    0.000000    0.000000    0.000000    0.000000
  0.026232465   -0.566110 -141.569351 -106.179917  133.001831    0.000000    0.000000    0.000000    0.000000
  0.026432866   -0.571528 -143.087112 -106.280003  148.230484    0.000000    0.000000    0.000000    0.000000
  0.026633267   -0.574531 -144.536606 -106.563343  140.413544    0.000000    0.000000    0.000000    0.000000
  0.026833667   -0.579736 -146.065445 -105.226483  154.116806    0.000000    0.000000    0.000000    0.000000
  0.027034068   -0.596029 -147.439117 -104.310009  146.191650    0.000000    0.000000    0.000000    0.000000
  0.027234469   -0.605148 -148.938965 -106.271036  138.469589    0.000000    0.000000    0.000000    0.000000
  0.027434870   -0.614736 -150.416763 -105.016719  150.833466    0.000000    0.000000    0.000000    0.000000
  0.027635271   -0.633084 -151.924225 -104.816860  149.135117    0.000000    0.000000    0.000000    0.000000
  0.027835671   -0.649890 -153.423599 -105.916448  140.292297    0.000000    0.000000    0.000000    0.000000
  0.028036072   -0.660254 -154.957687 -105.883687  136.570923    0.000000    0.000000    0.000000    0.000000
  0.028236473   -0.687918 -156.492065 -106.002401  150.962494    0.000000    0.000000    0.000000    0.000000
  0.028436874   -0.707903 -158.039948 -105.184897  142.357330    0.000000    0.000000    0.000000    0.000000
  0.028637275   -0.726643 -159.614273 -104.338070  144.495575    0.000000    0.000000    0.000000    0.000000
  0.028837675   -0.743440 -161.191544 -106.107615  132.486816    0.000000    0.000000    0.000000    0.000000
  0.029038076   -0.768519 -162.795425 -104.982722  137.947723    0.000000    0.000000    0.000000    0.000000
  0.029238477   -0.790829 -164.374908 -106.979393  132.770157    0.000000    0.000000    0.000000    0.000000
  0.029438878   -0.823710 -165.976349 -105.271424  144.037399    0.000000    0.000000    0.000000    0.000000
  0.029639279   -0.855831 -167.598648 -105.412297  141.573715    0.000000    0.000000    0.000000    0.000000
  0.029839679   -0.885148 -169.257904 -105.179069  150.848923    0.000000    0.000000    0.000000    0.000000
  0.030040080   -0.918316 -170.908600 -105.976425  150.167664    0.000000    0.000000    0.000000    0.000000
  0.030240481   -0.946759 -172.619385 -104.912702  140.325806    0.000000    0.000000    0.000000    0.000000
  0.030440882   -0.982200 -174.286118 -105.747480  143.234146    0.000000    0.000000    0.000000    0.000000
  0.030641283   -1.014044 -176.039398 -105.471940  148.443817    0.000000    0.000000    0.000000    0.000000
  0.030841683   -1.049800 -177.774185 -105.807555  144.594193    0.000000    0.000000    0.000000    0.000000
  0.031042084   -1.084584 -179.461197 -106.883729  139.831589    0.000000    0.000000    0.000000    0.000000
  0.031242485   -1.122945  178.800385 -106.186531  144.461731    0.000000    0.000000    0.000000    0.000000
  0.031442886   -1.162047  177.049637 -108.217383  152.749252    0.000000    0.000000    0.000000    0.000000
  0.031643287   -1.203469  175.274963 -106.692951  147.287750    0.000000    0.000000    0.000000    0.000000
  0.031843687   -1.240257  173.484604 -106.928499  141.816055    0.000000    0.000000    0.000000    0.000000
  0.032044088   -1.280283  171.708405 -105.704731  138.149399    0.000000    0.000000    0.000000    0.000000
  0.032244489   -1.318192  169.929108 -107.187411  144.256805    0.000000    0.000000    0.000000    0.000000
  0.032444890   -1.356611  168.109726 -107.244955  146.636200    0.000000    0.000000    0.000000    0.000000
  0.032645291   -1.398716  166.317169 -106.691683  140.427963    0.000000    0.000000    0.000000    0.000000
  0.032845691   -1.445774  164.514267 -106.677244  137.541489    0.000000    0.000000    0.000000    0.000000
  0.033046092   -1.493112  162.673157 -106.981268  141.040329    0.000000    0.000000    0.000000    0.000000
  0.033246493   -1.542378  160.848465 -106.764591  144.888672    0.000000    0.000000    0.000000    0.000000
  0.033446894   -1.585876  158.992905 -106.821428  139.569473    0.000000    0.000000    0.000000    0.000000
  0.033647295   -1.630135  157.120804 -106.310729  134.193161    0.000000    0.000000    0.000000    0.000000
  0.033847695   -1.666710  155.269180 -106.516400  129.667267    0.000000    0.000000    0.000000    0.000000
  0.034048096   -1.706902  153.426056 -106.640078  137.682114    0.000000    0.000000    0.000000    0.000000
  0.034248497   -1.740716  151.581894 -105.724035  141.305038    0.000000    0.000000    0.000000    0.000000
  0.034448898   -1.786951  149.758179 -107.268154  147.224716    0.000000    0.000000    0.000000    0.000000
  0.034649299   -1.831582  147.936172 -105.990679  152.621719    0.000000    0.000000    0.000000    0.000000
  0.034849699   -1.881848  146.105515 -105.089875  140.711426    0.000000    0.000000    0.000000    0.000000
  0.035050100   -1.932977  144.271606 -106.548680  135.689819    0.000000    0.000000    0.000000    0.000000
  0.035250501   -1.986850  142.446228 -104.765730  139.335693    0.000000    0.000000    0.000000    0.000000
  0.035450902   -2.047233  140.615967 -105.298028  138.359238    0.000000    0.000000    0.000000    0.000000
  0.035651303   -2.108907  138.714752 -105.391466  138.722870    0.000000    0.000000    0.000000    0.000000
  0.035851703   -2.160052  136.856354 -105.865418  142.554688    0.000000    0.000000    0.000000    0.000000
  0.036052104   -2.220554  135.058182 -105.182915  137.471390    0.000000    0.000000    0.000000    0.000000
  0.036252505   -2.275691  133.065186 -105.092499  134.935349    0.000000    0.000000    0.000000    0.000000
  0.036452906   -2.333420  131.217743 -105.378766  140.865967    0.000000    0.000000    0.000000    0.000000
  0.036653307   -2.400514  129.452530 -105.409739  140.220306    0.000000    0.000000    0.000000    0.000000
  0.036853707   -2.461446  127.514824 -104.976749  144.915268    0.000000    0.000000    0.000000    0.000000
  0.037054108   -2.534345  125.579353 -105.976283  147.645462    0.000000    0.000000    0.000000    0.000000
  0.037254509   -2.587094  123.573242 -105.282776  144.004990    0.000000    0.000000    0.000000    0.000000
  0.037454910   -2.676827  121.665245 -106.280109  150.771286    0.000000    0.000000    0.000000    0.000000
  0.037655311   -2.748675  119.671471 -105.362500  144.047806    0.000000    0.000000    0.000000    0.000000
  0.037855711   -2.822771  117.722794 -105.007091  143.416412    0.000000    0.000000    0.000000    0.000000
  0.038056112   -2.897819  115.811623 -104.774923  141.777863    0.000000    0.000000    0.000000    0.000000
  0.038256513   -2.941116  113.971123 -104.720884  136.567581    0.000000    0.000000    0.000000    0.000000
  0.038456914   -3.014244  112.099396 -106.276804  142.248703    0.000000    0.000000    0.000000    0.000000
  0.038657315   -3.079304  110.218834 -105.135102  141.476303    0.000000    0.000000    0.000000    0.000000
  0.038857715   -3.137677  108.273506 -105.743529  138.775482    0.000000    0.000000    0.000000    0.000000
  0.039058116   -3.196465  106.359871 -106.058596  136.215317    0.000000    0.000000    0.000000    0.000000
  0.039258517   -3.259918  104.449631 -106.852181  141.589340    0.000000    0.000000    0.000000    0.000000
  0.039458918   -3.323297  102.512291 -105.543790  143.195267    0.000000    0.000000    0.000000    0.000000
  0.039659319   -3.384941  100.668755 -105.342206  139.791443    0.000000    0.000000    0.000000    0.000000
  0.039859719   -3.448716   98.714668 -106.141572  142.314621    0.000000    0.000000    0.000000    0.000000
  0.040060120   -3.511693   96.633858 -105.201034  139.666229    0.000000    0.000000    0.000000    0.000000
  0.040260521   -3.573029   94.779068 -106.006533  134.287125    0.000000    0.000000    0.000000    0.000000
  0.040460922   -3.633368   92.724983 -106.910316  146.621399    0.000000    0.000000    0.000000    0.000000
  0.040661323   -3.689512   90.888565 -105.733415  134.456253    0.000000    0.000000    0.000000    0.000000
  0.040861723   -3.744559   88.972000 -106.612241  137.543625    0.000000    0.000000    0.000000    0.000000
  0.041062124   -3.799644   86.988518 -106.655048  142.114929    0.000000    0.000000    0.000000    0.000000
  0.041262525   -3.855183   85.106705 -106.374694  138.753418    0.000000    0.000000    0.000000    0.000000
  0.041462926   -3.900149   83.163857 -104.649049  137.603027    0.000000    0.000000    0.000000    0.000000
  0.041663327   -3.941120   81.247841 -106.175681  145.590057    0.000000    0.000000    0.000000    0.000000
  0.041863727   -3.981588   79.374260 -106.023045  136.637680    0.000000    0.000000    0.000000    0.000000
  0.042064128   -4.025077   77.587715 -104.751350  144.359604    0.000000    0.000000    0.000000    0.000000
  0.042264529   -4.062551   75.746964 -105.605748  134.792984    0.000000    0.000000    0.000000    0.000000
  0.042464930   -4.095765   73.910721 -104.781644  135.675049    0.000000    0.000000    0.000000    0.000000
  0.042665331   -4.131936   72.107117 -105.424520  132.299957    0.000000    0.000000    0.000000    0.000000
  0.042865731   -4.165792   70.304466 -105.645399  144.492523    0.000000    0.000000    0.000000    0.000000
