! Anritsu VNA Master:                 Model: MS2034B/10/19/501
! SN:                                  1337062
! /bd0/ovro-jan-2016/vna-jan/vna-b1-s11-with-loads-j9-j10.s2p
! Existing Calibration Information:
! TYPE:                         Current Settings,       Active Cal Settings
! TIME:             	   01/13/2016 12:54:04 PM,    01/12/2016 05:57:47 PM
! INTERNAL TEMP:    	                   44.3 C,                    46.0 C
! # POINTS:         	                      500,                       500
! START FREQ:       	               10.000 MHz,                10.000 MHz
! STOP FREQ:        	              110.000 MHz,               110.000 MHz
! SOURCE POWER:     	                      Low,                       Low
! IFBW:             	                   100 Hz,                     1 kHz
! AVG FACTOR:       	                       1 ,                        3 
! REF PLANE 1:      	                     0 mm,                      0 mm
! REF PLANE 2:      	                     0 mm,                      0 mm
! CAL TYPE:         	             1P2P S11,S21,              1P2P S11,S21
! CAL METHOD:       	                     SOLT,                      SOLT
! CAL LINE TYPE:    	                     Coax,                      Coax
! DUT PORT 1:       	                K-Conn(M),                 K-Conn(M)
! DUT PORT 2:       	                N-Conn(M),                 N-Conn(M)
! CAL STATUS:       	        OK: Accuracy High,                        --
# GHZ S DB R 50.0
! FREQ.GHZ       S11DB        S11A       S21DB        S21A       S12DB        S12A       S22DB        S22A
  0.010000000   -0.690233  -40.928261  -64.529096   50.777195    0.000000    0.000000    0.000000    0.000000
  0.010200401   -0.699614  -41.956795  -65.603453   51.879780    0.000000    0.000000    0.000000    0.000000
  0.010400802   -0.690366  -42.593472  -64.404932   61.555454    0.000000    0.000000    0.000000    0.000000
  0.010601202   -0.694851  -43.204933  -64.331286   71.908722    0.000000    0.000000    0.000000    0.000000
  0.010801603   -0.719549  -44.199764  -66.628546   78.332108    0.000000    0.000000    0.000000    0.000000
  0.011002004   -0.684612  -45.206123  -64.604553   68.009567    0.000000    0.000000    0.000000    0.000000
  0.011202405   -0.734922  -46.082596  -66.365862   60.890774    0.000000    0.000000    0.000000    0.000000
  0.011402806   -0.704131  -46.722919  -64.992062   56.931042    0.000000    0.000000    0.000000    0.000000
  0.011603206   -0.723631  -47.579243  -66.221354   62.113316    0.000000    0.000000    0.000000    0.000000
  0.011803607   -0.719434  -48.442467  -68.204077   65.813522    0.000000    0.000000    0.000000    0.000000
  0.012004008   -0.728092  -49.436760  -67.857866   77.470024    0.000000    0.000000    0.000000    0.000000
  0.012204409   -0.741451  -50.077526  -66.340465   66.482880    0.000000    0.000000    0.000000    0.000000
  0.012404810   -0.728285  -50.897175  -65.506958   70.389954    0.000000    0.000000    0.000000    0.000000
  0.012605210   -0.719291  -51.863586  -64.353496   65.375923    0.000000    0.000000    0.000000    0.000000
  0.012805611   -0.765089  -52.672215  -66.492898   71.864754    0.000000    0.000000    0.000000    0.000000
  0.013006012   -0.763041  -53.356133  -65.386191   71.833488    0.000000    0.000000    0.000000    0.000000
  0.013206413   -0.733362  -54.421558  -65.189325   66.561005    0.000000    0.000000    0.000000    0.000000
  0.013406814   -0.768913  -55.156242  -66.884549   68.785629    0.000000    0.000000    0.000000    0.000000
  0.013607214   -0.738668  -56.082191  -68.395867   97.599983    0.000000    0.000000    0.000000    0.000000
  0.013807615   -0.765562  -56.784481  -69.581516   63.463291    0.000000    0.000000    0.000000    0.000000
  0.014008016   -0.765491  -57.883415  -66.209293   79.241310    0.000000    0.000000    0.000000    0.000000
  0.014208417   -0.793008  -58.329418  -63.809592   67.135223    0.000000    0.000000    0.000000    0.000000
  0.014408818   -0.753606  -59.336571  -64.463352   84.798027    0.000000    0.000000    0.000000    0.000000
  0.014609218   -0.776025  -60.169628  -65.343779   72.591812    0.000000    0.000000    0.000000    0.000000
  0.014809619   -0.794134  -61.200386  -64.961525   78.163223    0.000000    0.000000    0.000000    0.000000
  0.015010020   -0.782068  -61.743221  -67.826760   87.603798    0.000000    0.000000    0.000000    0.000000
  0.015210421   -0.768633  -62.771664  -65.910009   67.354126    0.000000    0.000000    0.000000    0.000000
  0.015410822   -0.791861  -63.624187  -67.698600   67.718651    0.000000    0.000000    0.000000    0.000000
  0.015611222   -0.814018  -64.083809  -66.298970   90.543503    0.000000    0.000000    0.000000    0.000000
  0.015811623   -0.784140  -65.104492  -66.021673   83.947052    0.000000    0.000000    0.000000    0.000000
  0.016012024   -0.810076  -66.155655  -64.273113   84.692345    0.000000    0.000000    0.000000    0.000000
  0.016212425   -0.795130  -66.930809  -64.214911   87.116348    0.000000    0.000000    0.000000    0.000000
  0.016412826   -0.787259  -67.820847  -64.882253   90.069435    0.000000    0.000000    0.000000    0.000000
  0.016613226   -0.809599  -68.499718  -67.492429   98.444916    0.000000    0.000000    0.000000    0.000000
  0.016813627   -0.818808  -69.273521  -64.915673   90.763084    0.000000    0.000000    0.000000    0.000000
  0.017014028   -0.795687  -70.295944  -64.370588   88.600159    0.000000    0.000000    0.000000    0.000000
  0.017214429   -0.803650  -71.017212  -66.780839   89.246376    0.000000    0.000000    0.000000    0.000000
  0.017414830   -0.810412  -71.890656  -66.288151   97.714661    0.000000    0.000000    0.000000    0.000000
  0.017615230   -0.802321  -72.758087  -65.591694   83.706787    0.000000    0.000000    0.000000    0.000000
  0.017815631   -0.794871  -73.600105  -65.918989  102.133179    0.000000    0.000000    0.000000    0.000000
  0.018016032   -0.850738  -74.161980  -65.926228   97.086380    0.000000    0.000000    0.000000    0.000000
  0.018216433   -0.829914  -75.145569  -66.120000   86.750542    0.000000    0.000000    0.000000    0.000000
  0.018416834   -0.801848  -76.082840  -64.997535  105.841301    0.000000    0.000000    0.000000    0.000000
  0.018617234   -0.827856  -76.931358  -65.393802   94.448692    0.000000    0.000000    0.000000    0.000000
  0.018817635   -0.830107  -77.748047  -66.349893   95.149734    0.000000    0.000000    0.000000    0.000000
  0.019018036   -0.825280  -78.754776  -67.968201  119.107925    0.000000    0.000000    0.000000    0.000000
  0.019218437   -0.867991  -79.206268  -68.515920  118.412666    0.000000    0.000000    0.000000    0.000000
  0.019418838   -0.851901  -80.239571  -65.844050  100.719894    0.000000    0.000000    0.000000    0.000000
  0.019619238   -0.859716  -81.093971  -63.465593   88.609169    0.000000    0.000000    0.000000    0.000000
  0.019819639   -0.859114  -81.764137  -65.634691  114.574150    0.000000    0.000000    0.000000    0.000000
  0.020020040   -0.836497  -82.777679  -67.603432  109.378998    0.000000    0.000000    0.000000    0.000000
  0.020220441   -0.814988  -83.497185  -63.869030  111.422928    0.000000    0.000000    0.000000    0.000000
  0.020420842   -0.853276  -84.391594  -66.991069   94.776817    0.000000    0.000000    0.000000    0.000000
  0.020621242   -0.894817  -84.819946  -65.092012  130.293243    0.000000    0.000000    0.000000    0.000000
  0.020821643   -0.837198  -86.071831  -66.904484  124.134125    0.000000    0.000000    0.000000    0.000000
  0.021022044   -0.836507  -86.952065  -67.157954  121.858154    0.000000    0.000000    0.000000    0.000000
  0.021222445   -0.853528  -87.557121  -65.798259  111.735245    0.000000    0.000000    0.000000    0.000000
  0.021422846   -0.852820  -88.406487  -67.328154  129.081635    0.000000    0.000000    0.000000    0.000000
  0.021623246   -0.858447  -89.394760  -66.224965  108.235947    0.000000    0.000000    0.000000    0.000000
  0.021823647   -0.871748  -90.051323  -65.950869  115.077484    0.000000    0.000000    0.000000    0.000000
  0.022024048   -0.854006  -90.939606  -68.856485  123.095566    0.000000    0.000000    0.000000    0.000000
  0.022224449   -0.851427  -91.850952  -66.490882  115.430756    0.000000    0.000000    0.000000    0.000000
  0.022424850   -0.859089  -92.633392  -66.776005  115.448364    0.000000    0.000000    0.000000    0.000000
  0.022625251   -0.859326  -93.201653  -66.212045  106.736687    0.000000    0.000000    0.000000    0.000000
  0.022825651   -0.852912  -94.240906  -64.324683  120.717255    0.000000    0.000000    0.000000    0.000000
  0.023026052   -0.882500  -95.016533  -64.889718  114.468506    0.000000    0.000000    0.000000    0.000000
  0.023226453   -0.881279  -95.889137  -65.083432  112.438934    0.000000    0.000000    0.000000    0.000000
  0.023426854   -0.857116  -96.745239  -65.539370  113.933487    0.000000    0.000000    0.000000    0.000000
  0.023627255   -0.857798  -97.514816  -67.724082  135.852203    0.000000    0.000000    0.000000    0.000000
  0.023827655   -0.852597  -98.453606  -65.554730  122.824806    0.000000    0.000000    0.000000    0.000000
  0.024028056   -0.865059  -99.106438  -65.520322  110.091331    0.000000    0.000000    0.000000    0.000000
  0.024228457   -0.899275 -100.032310  -65.527286  126.320442    0.000000    0.000000    0.000000    0.000000
  0.024428858   -0.877689 -100.831940  -65.217240  118.379852    0.000000    0.000000    0.000000    0.000000
  0.024629259   -0.884823 -101.714066  -64.739667  140.706024    0.000000    0.000000    0.000000    0.000000
  0.024829659   -0.877086 -102.509209  -61.634305  156.051407    0.000000    0.000000    0.000000    0.000000
  0.025030060   -0.864649 -103.344810  -65.158523  147.570648    0.000000    0.000000    0.000000    0.000000
  0.025230461   -0.872559 -104.083984  -65.958559  166.956421    0.000000    0.000000    0.000000    0.000000
  0.025430862   -0.903360 -104.917244  -64.169495  151.254196    0.000000    0.000000    0.000000    0.000000
  0.025631263   -0.864470 -105.851700  -66.680028  151.777756    0.000000    0.000000    0.000000    0.000000
  0.025831663   -0.873264 -106.695656  -64.168425  137.264938    0.000000    0.000000    0.000000    0.000000
  0.026032064   -0.883947 -107.515022  -64.417232  146.652008    0.000000    0.000000    0.000000    0.000000
  0.026232465   -0.887813 -108.225555  -69.093611  158.445343    0.000000    0.000000    0.000000    0.000000
  0.026432866   -0.864538 -109.046555  -67.578220  155.243607    0.000000    0.000000    0.000000    0.000000
  0.026633267   -0.875664 -109.830833  -68.396290  160.408417    0.000000    0.000000    0.000000    0.000000
  0.026833667   -0.893221 -110.655914  -67.352257  147.080139    0.000000    0.000000    0.000000    0.000000
  0.027034068   -0.861103 -111.496811  -64.977172  173.114731    0.000000    0.000000    0.000000    0.000000
  0.027234469   -0.863985 -112.374634  -67.306909  146.979126    0.000000    0.000000    0.000000    0.000000
  0.027434870   -0.860299 -113.111053  -63.270203  163.338394    0.000000    0.000000    0.000000    0.000000
  0.027635271   -0.881058 -113.871880  -66.449899  155.374588    0.000000    0.000000    0.000000    0.000000
  0.027835671   -0.833832 -114.630821  -65.470409  176.926743    0.000000    0.000000    0.000000    0.000000
  0.028036072   -0.901664 -115.669418  -63.788247  143.679703    0.000000    0.000000    0.000000    0.000000
  0.028236473   -0.861647 -116.408188  -63.997862  147.088348    0.000000    0.000000    0.000000    0.000000
  0.028436874   -0.881080 -117.190376  -64.452175  167.845718    0.000000    0.000000    0.000000    0.000000
  0.028637275   -0.864248 -117.915672  -66.914194  165.008011    0.000000    0.000000    0.000000    0.000000
  0.028837675   -0.865914 -118.887955  -66.659588  167.963837    0.000000    0.000000    0.000000    0.000000
  0.029038076   -0.883833 -119.637993  -67.568759  163.095062    0.000000    0.000000    0.000000    0.000000
  0.029238477   -0.862619 -120.370499  -65.119099  162.427032    0.000000    0.000000    0.000000    0.000000
  0.029438878   -0.857273 -121.244720  -66.422563  169.984924    0.000000    0.000000    0.000000    0.000000
  0.029639279   -0.871486 -121.974022  -66.829253  166.256226    0.000000    0.000000    0.000000    0.000000
  0.029839679   -0.871719 -122.770302  -68.278875  173.229843    0.000000    0.000000    0.000000    0.000000
  0.030040080   -0.860563 -123.655518  -65.862940  156.546921    0.000000    0.000000    0.000000    0.000000
  0.030240481   -0.892514 -124.462875  -65.489636  141.735687    0.000000    0.000000    0.000000    0.000000
  0.030440882   -0.897851 -125.241272  -67.384673  153.305374    0.000000    0.000000    0.000000    0.000000
  0.030641283   -0.853004 -126.099182  -67.325916  178.056534    0.000000    0.000000    0.000000    0.000000
  0.030841683   -0.855243 -126.878334  -67.992085  169.695358    0.000000    0.000000    0.000000    0.000000
  0.031042084   -0.861232 -127.758759  -67.710899  177.664948    0.000000    0.000000    0.000000    0.000000
  0.031242485   -0.863742 -128.510513  -67.179625  163.921600    0.000000    0.000000    0.000000    0.000000
  0.031442886   -0.873664 -129.189392  -69.784371  178.884430    0.000000    0.000000    0.000000    0.000000
  0.031643287   -0.895214 -130.048508  -65.030792  162.766006    0.000000    0.000000    0.000000    0.000000
  0.031843687   -0.890527 -130.934723  -67.370129  170.059494    0.000000    0.000000    0.000000    0.000000
  0.032044088   -0.867223 -131.815262  -66.045604  163.454025    0.000000    0.000000    0.000000    0.000000
  0.032244489   -0.864138 -132.421432  -66.119495  168.952698    0.000000    0.000000    0.000000    0.000000
  0.032444890   -0.880193 -133.245758  -68.908122  167.783295    0.000000    0.000000    0.000000    0.000000
  0.032645291   -0.858318 -134.096115  -66.548155  162.059326    0.000000    0.000000    0.000000    0.000000
  0.032845691   -0.885005 -134.807999  -68.776977  164.618439    0.000000    0.000000    0.000000    0.000000
  0.033046092   -0.908813 -135.790192  -67.737671 -174.397385    0.000000    0.000000    0.000000    0.000000
  0.033246493   -0.895637 -136.536636  -68.261671  177.159363    0.000000    0.000000    0.000000    0.000000
  0.033446894   -0.880245 -137.367966  -65.852958  169.630798    0.000000    0.000000    0.000000    0.000000
  0.033647295   -0.903117 -137.989609  -68.686737  174.270630    0.000000    0.000000    0.000000    0.000000
  0.033847695   -0.874056 -138.961899  -68.478404  177.522949    0.000000    0.000000    0.000000    0.000000
  0.034048096   -0.888243 -139.766861  -66.782871  172.667389    0.000000    0.000000    0.000000    0.000000
  0.034248497   -0.897645 -140.569550  -68.214394 -177.960800    0.000000    0.000000    0.000000    0.000000
  0.034448898   -0.888450 -141.221634  -67.990061 -176.924683    0.000000    0.000000    0.000000    0.000000
  0.034649299   -0.901292 -142.144241  -68.373867 -174.993225    0.000000    0.000000    0.000000    0.000000
  0.034849699   -0.904003 -142.937088  -68.339760 -177.559189    0.000000    0.000000    0.000000    0.000000
  0.035050100   -0.903469 -143.742813  -69.529614 -178.711716    0.000000    0.000000    0.000000    0.000000
  0.035250501   -0.876638 -144.455078  -69.139785 -178.222626    0.000000    0.000000    0.000000    0.000000
  0.035450902   -0.902272 -145.415573  -67.249876 -172.825226    0.000000    0.000000    0.000000    0.000000
  0.035651303   -0.905727 -146.173401  -68.006171 -174.879822    0.000000    0.000000    0.000000    0.000000
  0.035851703   -0.880824 -147.039093  -66.325840  177.638046    0.000000    0.000000    0.000000    0.000000
  0.036052104   -0.909969 -147.765839  -66.998768 -165.267731    0.000000    0.000000    0.000000    0.000000
  0.036252505   -0.904982 -148.561768  -69.110547 -177.977478    0.000000    0.000000    0.000000    0.000000
  0.036452906   -0.896034 -149.280716  -69.890182 -166.763321    0.000000    0.000000    0.000000    0.000000
  0.036653307   -0.909930 -150.020828  -65.945883 -175.254837    0.000000    0.000000    0.000000    0.000000
  0.036853707   -0.913989 -151.071518  -66.270357 -169.884674    0.000000    0.000000    0.000000    0.000000
  0.037054108   -0.904081 -151.643982  -66.944318 -171.774902    0.000000    0.000000    0.000000    0.000000
  0.037254509   -0.896225 -152.388092  -65.995171 -159.920029    0.000000    0.000000    0.000000    0.000000
  0.037454910   -0.916782 -153.126892  -69.012758 -171.765640    0.000000    0.000000    0.000000    0.000000
  0.037655311   -0.915023 -153.969452  -67.968880 -166.973267    0.000000    0.000000    0.000000    0.000000
  0.037855711   -0.912607 -154.819168  -68.470763 -162.359039    0.000000    0.000000    0.000000    0.000000
  0.038056112   -0.937790 -155.778183  -67.466845 -170.750244    0.000000    0.000000    0.000000    0.000000
  0.038256513   -0.922760 -156.319565  -68.076396 -171.089920    0.000000    0.000000    0.000000    0.000000
  0.038456914   -0.930281 -157.170609  -69.106253 -150.639679    0.000000    0.000000    0.000000    0.000000
  0.038657315   -0.939521 -157.923706  -68.881360 -150.607605    0.000000    0.000000    0.000000    0.000000
  0.038857715   -0.952572 -158.803009  -69.602464 -149.745987    0.000000    0.000000    0.000000    0.000000
  0.039058116   -0.953486 -159.582962  -66.138927 -145.423035    0.000000    0.000000    0.000000    0.000000
  0.039258517   -0.948162 -160.345337  -66.858778 -166.505264    0.000000    0.000000    0.000000    0.000000
  0.039458918   -0.946989 -161.136063  -72.092351 -143.777557    0.000000    0.000000    0.000000    0.000000
  0.039659319   -0.952920 -161.967361  -68.394944 -151.318237    0.000000    0.000000    0.000000    0.000000
  0.039859719   -0.947214 -162.789078  -66.975269 -145.180573    0.000000    0.000000    0.000000    0.000000
  0.040060120   -0.952753 -163.578308  -67.740013 -145.855118    0.000000    0.000000    0.000000    0.000000
  0.040260521   -0.962316 -164.354141  -67.087718 -149.975555    0.000000    0.000000    0.000000    0.000000
  0.040460922   -0.949509 -165.207306  -65.794142 -149.513535    0.000000    0.000000    0.000000    0.000000
  0.040661323   -0.982877 -165.918701  -66.094049 -151.140839    0.000000    0.000000    0.000000    0.000000
  0.040861723   -0.961076 -166.693283  -66.896208 -157.153198    0.000000    0.000000    0.000000    0.000000
  0.041062124   -0.979895 -167.499359  -66.373477 -151.055542    0.000000    0.000000    0.000000    0.000000
  0.041262525   -0.969471 -168.380508  -68.470847 -147.805069    0.000000    0.000000    0.000000    0.000000
  0.041462926   -0.991044 -169.058487  -66.217202 -140.584000    0.000000    0.000000    0.000000    0.000000
  0.041663327   -0.986953 -169.849518  -69.933968 -134.859756    0.000000    0.000000    0.000000    0.000000
  0.041863727   -1.002888 -170.745590  -67.571669 -149.919556    0.000000    0.000000    0.000000    0.000000
  0.042064128   -1.004312 -171.528412  -68.330618 -142.867096    0.000000    0.000000    0.000000    0.000000
  0.042264529   -0.993531 -172.277130  -69.271279 -135.782852    0.000000    0.000000    0.000000    0.000000
  0.042464930   -1.015274 -173.035767  -68.239323 -138.256912    0.000000    0.000000    0.000000    0.000000
  0.042665331   -1.000100 -173.870163  -68.667028 -132.958038    0.000000    0.000000    0.000000    0.000000
  0.042865731   -1.035537 -174.657425  -67.472060 -132.287476    0.000000    0.000000    0.000000    0.000000
