! Anritsu VNA Master:                     Model: MS2036C/10/77
! SN:                                  1601066
! /card0/usr/cable.61631a.s2p
! Existing Calibration Information:
! TYPE:                         Current Settings,       Active Cal Settings
! TIME:             	   05/23/2018 09:19:51 AM,    05/23/2018 09:10:45 AM
! INTERNAL TEMP:    	                   48.3 C,                    48.3 C
! # POINTS:         	                      500,                       500
! START FREQ:       	               20.000 MHz,                20.000 MHz
! STOP FREQ:        	              120.000 MHz,               120.000 MHz
! SOURCE POWER:     	                     High,                      High
! IFBW:             	                    50 Hz,                     50 Hz
! AVG FACTOR:       	                       1 ,                        1 
! REF PLANE 1:      	                     0 mm,                      0 mm
! REF PLANE 2:      	                     0 mm,                      0 mm
! CAL TYPE:         	                 Full S22,                  Full S22
! CAL METHOD:       	                     SOLT,                      SOLT
! CAL LINE TYPE:    	                     Coax,                      Coax
! DUT PORT 1:       	                K-Conn(M),                 K-Conn(M)
! DUT PORT 2:       	                K-Conn(M),                 K-Conn(M)
! CAL STATUS:       	        OK: Accuracy High,                        --
# GHZ S DB R 50.0
! FREQ.GHZ       S11DB        S11A       S21DB        S21A       S12DB        S12A       S22DB        S22A
  0.020000000   -1.202193  166.707596 -112.575601 -121.404533  -89.708611   44.295540  -51.211373  108.832108
  0.020200401   -1.202866  166.480469 -110.573256 -138.482437  -90.167818   44.974400  -51.825429   95.574722
  0.020400802   -1.205570  166.246613 -108.775553 -117.598633  -89.926691   41.413975  -52.164983   84.115982
  0.020601202   -1.202970  166.187469 -111.853769  -77.291298  -89.927306   41.000793  -53.146106   73.121605
  0.020801603   -1.206777  165.957581 -119.529082  155.788986  -90.181920   42.774044  -53.379748   60.201595
  0.021002004   -1.205584  165.899628 -111.444512 -146.186493  -90.093625   42.336277  -53.294877   45.486774
  0.021202405   -1.208504  165.677750 -107.303680 -139.413223  -90.413904   40.922050  -52.383165   32.279732
  0.021402806   -1.204468  165.455994 -111.399675 -134.479050  -90.607798   41.280216  -51.931564   21.285320
  0.021603206   -1.204778  165.401596 -109.148689 -126.506142  -90.334802   42.059647  -50.942133   11.803370
  0.021803607   -1.209492  165.181137 -112.254865 -133.892761  -91.022664   39.494438  -49.951769    3.812217
  0.022004008   -1.210230  165.126495 -109.275277 -110.511040  -90.654735   38.393227  -48.979081   -3.802443
  0.022204409   -1.219069  164.905212 -107.859455 -127.023033  -91.198530   37.058964  -48.260769   -9.363748
  0.022404810   -1.226443  164.674088 -107.877437 -130.642899  -90.868797   38.686829  -47.489760  -16.552437
  0.022605210   -1.226293  164.606964 -110.809436 -141.327301  -91.178413   39.917984  -46.595012  -19.728239
  0.022805611   -1.232214  164.381577 -108.090093  -92.817329  -90.942712   35.629261  -45.733002  -25.011637
  0.023006012   -1.226585  164.334396 -110.843798 -132.671036  -91.341882   37.620499  -45.193454  -27.886980
  0.023206413   -1.234211  164.114731 -116.715749  -93.006050  -91.139326   33.596500  -44.539259  -32.208363
  0.023406814   -1.241806  163.898636 -109.620789 -140.493423  -91.796407   34.753971  -43.995937  -35.977455
  0.023607214   -1.243758  163.846054 -119.074107  -75.240852  -91.451950   37.105808  -43.469472  -38.859627
  0.023807615   -1.250558  163.626190 -110.271948 -128.479568  -91.702006   38.934357  -42.837510  -42.518768
  0.024008016   -1.253753  163.581985 -116.009244  -69.683022  -92.354461   35.601868  -42.360229  -44.995106
  0.024208417   -1.261943  163.366882 -109.632972  -95.399101  -92.188729   35.504078  -42.008359  -48.087681
  0.024408818   -1.260632  163.154800 -120.176523  -63.214272  -91.870552   36.260746  -41.606452  -50.818745
  0.024609218   -1.264033  163.120102 -113.075461  -64.503723  -92.242261   33.884834  -41.086037  -53.104675
  0.024809619   -1.270485  162.908371 -113.203867 -110.904198  -92.542625   32.563911  -40.665643  -55.951939
  0.025010020   -1.271837  162.869263 -108.422546 -121.196327  -92.329507   35.669819  -40.314407  -58.812504
  0.025210421   -1.266242  162.666107 -108.876544 -100.270432  -92.797250   27.418011  -39.996406  -60.569290
  0.025410822   -1.273220  162.455704 -111.523915 -110.756485  -91.809963   32.631618  -39.631635  -63.281940
  0.025611222   -1.275931  162.416565 -112.024690 -112.557510  -92.475552   34.824066  -39.366718  -65.390999
  0.025811623   -1.283353  162.209534 -108.358361 -122.414284  -92.563003   32.453854  -39.052971  -68.138626
  0.026012024   -1.285679  162.174530 -109.406069 -126.828987  -92.531733   32.681564  -38.805031  -70.558342
  0.026212425   -1.292680  161.963013 -108.780820  -96.094582  -93.102163   29.189295  -38.468633  -72.730606
  0.026412826   -1.298253  161.760956 -108.673181 -110.175133  -93.310261   31.882380  -38.216641  -75.037216
  0.026613226   -1.356474  161.714981 -110.739199  -81.267029  -94.060436   29.439266  -37.987362  -77.017120
  0.026813627   -1.361204  161.529037 -110.865908 -101.974358  -93.774288   29.029892  -37.769100  -78.659691
  0.027014028   -1.361216  161.500748 -114.960012 -107.039925  -93.373761   30.336077  -37.576751  -81.464500
  0.027214429   -1.366006  161.322159 -110.469639 -102.494972  -93.780653   24.428020  -37.329128  -83.315651
  0.027414830   -1.359031  161.129730 -109.845448 -106.463486  -93.084514   30.451578  -37.113073  -85.260139
  0.027615230   -1.359688  161.106583 -106.309365 -113.855949  -94.135579   31.932882  -36.974101  -88.031982
  0.027815631   -1.365928  160.913925 -109.472044  -97.974098  -93.605773   30.984890  -36.786342  -89.858505
  0.028016032   -1.367825  160.891861 -108.010206  -94.405083  -94.277115   31.187723  -36.621327  -92.035553
  0.028216433   -1.374030  160.697693 -111.754187 -136.848709  -93.569224   29.545210  -36.436636  -94.010544
  0.028416834   -1.378573  160.506516 -111.589742  -93.899353  -93.965305   28.081110  -36.288971  -96.184753
  0.028617234   -1.379739  160.479126 -108.239785 -111.544861  -94.021039   27.172012  -36.140474  -98.099930
  0.028817635   -1.384244  160.290970 -113.879581  -94.174324  -94.086096   29.803640  -36.045072 -100.177742
  0.029018036   -1.384096  160.269333 -108.393335  -89.699089  -94.045481   32.490253  -35.901558 -102.643097
  0.029218437   -1.387528  160.085571 -108.878138 -107.507195  -94.379054   30.675922  -35.762930 -104.552887
  0.029418838   -1.390810  159.901962 -111.733025  -87.411987  -94.077218   28.714888  -35.688512 -106.360870
  0.029619238   -1.384853  159.898453 -112.796201 -109.177010  -94.408685   25.837849  -35.589758 -108.247574
  0.029819639   -1.387960  159.712738 -105.516485 -123.051567  -95.033264   28.130354  -35.446912 -110.222092
  0.030020040   -1.386726  159.697906 -111.807708 -119.914818  -94.605704   23.656618  -35.431736 -112.401611
  0.030220441   -1.392118  159.501328 -112.713696 -114.827980  -94.327285   31.450348  -35.295168 -114.327423
  0.030420842   -1.397185  159.285706 -112.647943 -105.777702  -94.545327   30.503576  -35.232017 -116.588531
  0.030621242   -1.398496  159.231201 -111.940516 -109.514229  -94.904426   26.458622  -35.152556 -118.408722
  0.030821643   -1.403540  159.009399 -107.962539 -111.246338  -94.812632   27.132990  -35.088608 -120.520905
  0.031022044   -1.404485  158.950516 -110.039959 -112.379539  -94.907620   26.976131  -35.056532 -122.219231
  0.031222445   -1.308321  158.995880 -110.092644 -165.466354  -95.622887   23.999868  -35.016165 -123.973396
  0.031422846   -1.313213  158.794510 -118.005138 -165.650864  -94.702768   28.661837  -34.969713 -126.081505
  0.031623246   -1.314342  158.759369 -106.393285 -119.449570  -94.706896   20.057045  -34.969846 -128.279007
  0.031823647   -1.319151  158.555130 -108.305003  -88.888481  -95.970897   24.603334  -34.898903 -130.092010
  0.032024048   -1.319875  158.524811 -109.588844 -116.675110  -95.344528   25.979387  -34.886602 -131.960312
  0.032224449   -1.325003  158.322601 -110.014353 -104.834488  -95.100109   25.412495  -34.868248 -134.032349
  0.032424850   -1.319741  158.121353 -110.069288 -118.542206  -95.077492   25.862545  -34.910402 -136.020172
  0.032625251   -1.320194  158.081406 -107.437895 -115.483162  -95.243984   29.179781  -34.891950 -137.893524
  0.032825651   -1.324935  157.877396 -116.101731 -101.982132  -96.039885   26.541273  -34.885287 -140.200699
  0.033026052   -1.325046  157.839706 -110.125557 -134.460571  -95.609508   21.659700  -34.896961 -142.107925
  0.033226453   -1.328997  157.618179 -112.706217  -90.523392  -95.814462   19.054338  -34.951732 -144.287445
  0.033426854   -1.333676  157.411758 -109.049010 -132.876755  -94.864597   23.147488  -35.013595 -146.259705
  0.033627255   -1.333775  157.362427 -108.804149 -127.120392  -95.017877   21.142202  -35.020020 -148.207535
  0.033827655   -1.336263  157.147537 -111.129347 -137.553925  -95.771111   17.963701  -35.012939 -150.160919
  0.034028056   -1.337415  157.099869 -109.355238 -106.151146  -94.927180   23.571896  -35.135713 -152.073593
  0.034228457   -1.340454  156.883865 -112.377134 -146.546387  -96.339937   19.581581  -35.215515 -153.870148
  0.034428858   -1.344170  156.668823 -111.086865 -126.405380  -96.282594   26.263947  -35.188311 -156.601440
  0.034629259   -1.343020  156.627289 -110.798635  -93.368874  -95.788732   23.686701  -35.299874 -158.470413
  0.034829659   -1.338121  156.412949 -113.499138 -148.102524  -96.693309   26.144230  -35.382063 -160.066452
  0.035030060   -1.334756  156.365173 -111.080839 -119.409943  -97.347867   19.482718  -35.521683 -162.511169
  0.035230461   -1.338731  156.160339 -115.703860 -154.196991  -96.961593   26.632778  -35.559634 -164.704773
  0.035430862   -1.341211  155.955353 -107.822070 -139.696823  -96.139147   19.091267  -35.674101 -166.610260
  0.035631263   -1.337227  155.909607 -108.609089 -130.867554  -96.500448   26.604818  -35.795597 -168.655548
  0.035831663   -1.338385  155.708878 -112.510403 -129.078247  -96.932731   21.187885  -35.924755 -170.511368
  0.036032064   -1.335305  155.677063 -114.136955 -155.783035  -96.355906   25.776009  -36.048034 -172.903915
  0.036232465   -1.335681  155.473907 -113.923446 -109.250946  -96.627204   21.556648  -36.204721 -175.228348
  0.036432866   -1.337131  155.270874 -114.171281 -137.128601  -97.279232   27.410748  -36.370914 -177.112488
  0.036633267   -1.339625  155.238708 -108.527496 -154.934311 -100.256663   16.333727  -36.494987 -179.409973
  0.036833667   -1.340956  155.026337 -107.534928 -125.319626  -96.744199   28.957563  -36.683183  178.594421
  0.037034068   -1.335983  154.990295 -112.104686  -98.857025  -97.218696   20.760622  -36.873173  176.681046
  0.037234469   -1.336379  154.779694 -106.805784 -118.640198  -98.062895   23.855074  -37.071039  174.435532
  0.037434870   -1.336067  154.575531 -109.036189 -115.569901  -97.111718   14.017589  -37.250144  172.083908
  0.037635271   -1.333344  154.529526 -105.978242 -144.357544  -96.947316   28.513893  -37.494158  169.826965
  0.037835671   -1.334582  154.320038 -107.816251 -110.883057  -97.871694   32.423767  -37.718677  167.609650
  0.038036072   -1.331717  154.280914 -109.362020  -96.050827  -97.565422   29.831404  -37.849223  165.039520
  0.038236473   -1.330470  154.080383 -113.916243 -120.781487  -98.260109   28.743284  -38.176677  162.748383
  0.038436874   -1.330288  153.883224 -107.844710 -124.937370  -97.640769   23.878187  -38.431908  160.286362
  0.038637275   -1.326280  153.858719 -108.644478  -95.607018  -97.420937   31.030823  -38.641844  158.224670
  0.038837675   -1.326633  153.671371 -110.469463 -123.685135  -97.476426   27.066509  -38.966668  155.207367
  0.039038076   -1.323015  153.661072 -112.466125 -133.732544  -98.614214   32.381477  -39.370825  152.779221
  0.039238477   -1.324352  153.473907 -115.245943 -152.920990  -98.118056   26.592493  -39.714921  149.622482
  0.039438878   -1.325271  153.285950 -111.634952  -95.334183  -98.486661   22.132442  -40.022995  147.447479
  0.039639279   -1.313273  153.272324 -111.868011 -145.306580  -97.302208   25.873960  -40.354390  144.503128
  0.039839679   -1.315799  153.075897 -111.616125 -144.336075  -97.206993   21.622101  -40.793958  141.546844
  0.040040080   -1.313112  153.059402 -110.702528 -107.558701  -98.369612   21.698452  -41.186396  138.029587
  0.040240481   -1.314137  152.863571 -109.093326 -135.878479  -97.465387   26.739670  -41.671301  135.801849
  0.040440882   -1.316406  152.662643 -111.804275 -118.576836  -97.554862   30.289471  -42.077053  131.873093
  0.040641283   -1.311967  152.629684 -113.217913 -140.735657  -98.554013   24.661709  -42.591249  128.473099
  0.040841683   -1.314832  152.422745 -112.172413 -146.725830  -98.265956   26.180706  -43.013803  124.311249
  0.041042084   -1.311593  152.388489 -110.982904 -105.385765  -98.142339   33.326660  -43.547751  120.506355
  0.041242485   -1.313100  152.181305 -106.393463 -114.758820  -97.951428   22.949621  -44.263633  116.235764
  0.041442886   -1.313856  151.977631 -112.062954 -124.126328  -98.059392   28.141249  -44.752091  111.140411
  0.041643287   -1.310897  151.946503 -110.534010 -131.663208  -98.910828   33.882523  -45.426768  105.499123
  0.041843687   -1.313950  151.741928 -122.534418 -116.183128  -97.923696   31.652630  -45.825135   99.718239
  0.042044088   -1.303562  151.709045 -108.610536  -87.427963  -98.964349   27.520681  -46.689684   93.485809
  0.042244489   -1.305539  151.512192 -112.112282 -106.251884  -98.600862   23.179281  -47.147798   85.738419
  0.042444890   -1.308558  151.313232 -113.820117 -142.362869  -99.370741   23.404964  -47.713874   78.313606
  0.042645291   -1.305662  151.282074 -112.128589 -111.736809 -100.737708   33.131229  -47.941344   68.181358
  0.042845691   -1.308345  151.081177 -108.188794 -120.986664  -98.327038   27.549835  -48.318281   59.457138
  0.043046092   -1.306565  151.050980 -109.971400 -148.485901  -99.133719   34.719238  -48.527821   47.352772
  0.043246493   -1.309408  150.844437 -118.173267 -161.526443  -99.200103   32.858315  -48.373644   39.483234
  0.043446894   -1.312190  150.646515 -115.533080 -104.685181  -97.563854   27.253777  -48.464263   29.783297
  0.043647295   -1.309471  150.618835 -118.374471 -146.818817  -99.699687   27.346939  -47.978346   19.604265
  0.043847695   -1.311285  150.407867 -110.804450 -140.102951  -98.891527   22.929243  -47.610664   11.918643
  0.044048096   -1.308368  150.376968 -111.739444 -138.250702  -98.207623   30.588554  -46.839417    3.704265
  0.044248497   -1.311618  150.169846 -109.482007 -123.025124  -98.070334   27.752769  -46.202890   -4.996942
  0.044448898   -1.300437  149.959442 -109.690923 -123.568733  -98.604004   32.851711  -45.693941  -10.596265
  0.044649299   -1.298670  149.925735 -114.972216  -75.705017  -99.433732   22.065763  -45.053569  -14.726369
  0.044849699   -1.301308  149.709076 -109.983233 -136.357330  -99.075941   27.011360  -44.459477  -21.795649
  0.045050100   -1.297053  149.663437 -108.421799 -149.803757  -99.952106   25.487282  -43.744075  -26.106936
  0.045250501   -1.298007  149.446747 -117.534524 -104.596901  -99.293694   31.227594  -43.248513  -30.828499
  0.045450902   -1.300547  149.233612 -115.292807 -145.813889  -99.445617   26.708542  -42.772917  -35.039757
  0.045651303   -1.299372  149.195236 -109.770649  -95.428055  -98.182701   33.901157  -42.265603  -38.157070
  0.045851703   -1.302389  148.994232 -116.138275 -175.142639  -99.073074   22.641611  -41.669094  -42.270802
  0.046052104   -1.300223  148.960251 -110.775183  -92.216248  -98.404161   27.501125  -41.253110  -45.001778
  0.046252505   -1.302321  148.761536 -109.545609 -112.391457  -98.558683   33.151569  -40.712034  -47.684223
  0.046452906   -1.304913  148.557816 -109.813097 -116.993614  -99.376195   24.025557  -40.314230  -51.136646
  0.046653307   -1.302868  148.521347 -111.479717 -111.313004  -98.825830   27.118246  -39.950472  -53.985733
  0.046853707   -1.305658  148.316605 -105.277811 -104.222549 -100.288241   36.931019  -39.504238  -56.691311
  0.047054108   -1.318785  148.290558 -120.726056 -120.631233  -99.914027   27.206903  -39.195337  -60.009617
  0.047254509   -1.320549  148.082321 -115.761033 -111.001770  -99.812993   27.926746  -38.798889  -62.526497
  0.047454910   -1.323302  147.877075 -115.540420 -135.905106  -98.583408   29.600073  -38.518225  -64.993011
  0.047655311   -1.320601  147.833679 -112.038667 -120.982346  -98.393607   34.379349  -38.208442  -67.694992
  0.047855711   -1.324240  147.634125 -110.216709 -106.742340  -97.670724   29.818607  -37.860577  -69.220314
  0.048056112   -1.322535  147.602066 -115.383857 -130.660843  -98.903805   27.834545  -37.539906  -72.051636
  0.048256513   -1.325758  147.401321 -107.796690 -130.080276  -99.802722   31.483084  -37.266164  -74.383614
  0.048456914   -1.328963  147.199341 -113.405295 -132.386765  -98.817030   28.524157  -37.075259  -76.874985
  0.048657315   -1.327116  147.171692 -111.334497 -128.014526  -97.640557   30.587404  -36.800499  -78.767380
  0.048857715   -1.330160  146.970078 -113.690517 -135.297440  -98.311069   29.902357  -36.562729  -80.911598
  0.049058116   -1.328951  146.940552 -110.273713 -104.434074 -100.605354   41.331501  -36.286057  -83.553215
  0.049258517   -1.331761  146.745132 -111.389163 -119.476555  -99.463128   42.096081  -36.121844  -85.486763
  0.049458918   -1.335327  146.544418 -110.135574  -95.727455  -99.161084   29.001356  -35.958854  -87.194519
  0.049659319   -1.333273  146.521744 -112.056800 -117.259285  -98.935185   27.573112  -35.734833  -89.420403
  0.049859719   -1.337029  146.318909 -110.480673 -134.170868  -98.623451   39.744934  -35.592771  -91.361374
  0.050060120   -1.336034  146.297012 -112.414388  -80.937820  -99.495169   28.748175  -35.450911  -93.375229
  0.050260521   -1.338218  146.099182 -106.989357 -130.037857  -99.396686   33.014091  -35.274607  -95.662712
  0.050460922   -1.327488  145.904877 -116.298313 -136.958649  -99.333764   31.200438  -35.095085  -97.650963
  0.050661323   -1.326402  145.881912 -111.585174 -146.025436  -99.765690   20.677111  -34.969106  -99.275772
  0.050861723   -1.329799  145.679688 -117.900195 -101.281075  -98.267556   30.243118  -34.811639 -101.463867
  0.051062124   -1.329006  145.657455 -113.900097 -104.585342 -100.371341   29.072788  -34.718500 -103.547081
  0.051262525   -1.330738  145.454407 -111.965157 -135.746384  -99.329576   30.985525  -34.579249 -105.254089
  0.051462926   -1.334045  145.249817 -110.259396 -124.108734  -99.451650   29.589527  -34.485584 -107.217247
  0.051663327   -1.332731  145.218597 -108.065712  -95.881279  -98.875632   27.753513  -34.366084 -109.305580
  0.051863727   -1.335437  145.013367 -110.725754  -98.746811  -98.690215   39.772259  -34.255303 -111.135193
  0.052064128   -1.333410  144.989380 -113.054122  -82.667267 -100.530240   48.255882  -34.160499 -113.017395
  0.052264529   -1.336361  144.789963 -115.600428 -132.765366  -99.810917   30.094893  -34.099205 -114.919876
  0.052464930   -1.338770  144.591080 -111.014342 -114.122017  -99.233243   26.509008  -34.007057 -116.733421
  0.052665331   -1.337574  144.562805 -114.804374 -149.678116  -99.037602   25.058348  -33.960140 -118.291771
  0.052865731   -1.340988  144.372345 -111.333745 -119.607498  -99.501467   32.055439  -33.865117 -120.506218
