! Anritsu VNA Master:                     Model: MS2036C/10/77
! SN:                                  1601066
! /card0/usr/cable.54999a.s2p
! Existing Calibration Information:
! TYPE:                         Current Settings,       Active Cal Settings
! TIME:             	   05/23/2018 11:15:14 AM,    05/23/2018 11:07:33 AM
! INTERNAL TEMP:    	                   48.5 C,                    48.8 C
! # POINTS:         	                      500,                       500
! START FREQ:       	               20.000 MHz,                20.000 MHz
! STOP FREQ:        	              120.000 MHz,               120.000 MHz
! SOURCE POWER:     	                     High,                      High
! IFBW:             	                    50 Hz,                     50 Hz
! AVG FACTOR:       	                       1 ,                        1 
! REF PLANE 1:      	                     0 mm,                      0 mm
! REF PLANE 2:      	                     0 mm,                      0 mm
! CAL TYPE:         	              Full 2 Port,               Full 2 Port
! CAL METHOD:       	                     SOLT,                      SOLT
! CAL LINE TYPE:    	                     Coax,                      Coax
! DUT PORT 1:       	                K-Conn(M),                 K-Conn(M)
! DUT PORT 2:       	                K-Conn(M),                 K-Conn(M)
! CAL STATUS:       	        OK: Accuracy High,                        --
# GHZ S DB R 50.0
! FREQ.GHZ       S11DB        S11A       S21DB        S21A       S12DB        S12A       S22DB        S22A
  0.020000000  -55.472252  132.585754   -0.236454 -171.454559   -0.250538 -171.484070  -52.754681  138.728668
  0.020200401  -54.903749  123.236732   -0.241333 -173.173096   -0.252140 -173.196808  -54.149644  133.097046
  0.020400802  -55.873066  111.598007   -0.243961 -174.890457   -0.253819 -174.900024  -56.173989  124.978210
  0.020601202  -55.996252  106.490158   -0.246862 -176.599854   -0.254382 -176.602417  -57.697753  111.105919
  0.020801603  -56.268657   96.132149   -0.248887 -178.314423   -0.255746 -178.313889  -59.246810   92.281876
  0.021002004  -56.591569   86.788689   -0.251035  179.974503   -0.257628  179.980591  -59.151304   73.333313
  0.021202405  -57.165618   74.554855   -0.252472  178.270630   -0.258126  178.266251  -60.101020   49.560158
  0.021402806  -56.403572   60.589714   -0.254133  176.550278   -0.259581  176.552094  -58.222739   34.223339
  0.021603206  -56.837185   51.327637   -0.255329  174.839462   -0.261760  174.845901  -56.573740   17.941797
  0.021803607  -55.821994   41.100864   -0.257003  173.131805   -0.261960  173.132751  -55.618806    5.671932
  0.022004008  -55.565389   31.235769   -0.259830  171.423065   -0.263047  171.425598  -53.765193   -2.344622
  0.022204409  -55.075183   21.771748   -0.261136  169.708145   -0.265982  169.712601  -53.146652   -8.253637
  0.022404810  -54.287756   15.521308   -0.262003  167.993713   -0.267090  167.999329  -51.468906  -13.835752
  0.022605210  -53.221221    8.176138   -0.262693  166.284348   -0.265038  166.292435  -50.656708  -20.246109
  0.022805611  -52.659704    0.889803   -0.262895  164.570587   -0.266715  164.577057  -49.773534  -24.089098
  0.023006012  -52.481295   -0.807002   -0.264041  162.865845   -0.268047  162.865738  -48.843082  -27.825113
  0.023206413  -51.739299   -6.520148   -0.265037  161.154984   -0.270840  161.155533  -48.004893  -31.173550
  0.023406814  -51.044667  -11.065196   -0.265291  159.441696   -0.271242  159.444397  -47.341213  -34.501598
  0.023607214  -50.638139  -16.781910   -0.267231  157.731003   -0.272129  157.731430  -46.764145  -36.952438
  0.023807615  -50.033806  -20.603712   -0.266596  156.024139   -0.269910  156.023407  -46.137382  -39.396122
  0.024008016  -49.605786  -24.342472   -0.267488  154.313828   -0.271301  154.318390  -45.686911  -42.306934
  0.024208417  -48.902583  -28.561829   -0.268668  152.611923   -0.270808  152.609985  -45.130774  -44.552170
  0.024408818  -48.669418  -33.680321   -0.269043  150.904953   -0.271604  150.903473  -44.527855  -45.937305
  0.024609218  -48.418614  -35.781082   -0.270436  149.197449   -0.273126  149.193970  -44.288178  -50.711624
  0.024809619  -47.609246  -39.365784   -0.271001  147.494858   -0.272651  147.492126  -43.935529  -52.362751
  0.025010020  -47.364739  -42.271759   -0.273364  145.793488   -0.274942  145.793137  -43.489703  -54.030022
  0.025210421  -47.347440  -44.001556   -0.274036  144.092728   -0.275153  144.084244  -43.246400  -56.253494
  0.025410822  -46.749706  -48.800919   -0.274879  142.388474   -0.276846  142.383987  -42.575605  -59.568100
  0.025611222  -46.615073  -50.944221   -0.276846  140.686417   -0.278604  140.669952  -42.458755  -61.576962
  0.025811623  -45.912664  -53.483986   -0.277907  138.981552   -0.278063  138.969040  -42.152661  -63.918053
  0.026012024  -45.581675  -55.940632   -0.279090  137.275757   -0.278707  137.262375  -41.895094  -65.749046
  0.026212425  -45.427779  -59.321075   -0.281902  135.574326   -0.282201  135.569977  -41.668772  -68.266411
  0.026412826  -45.347066  -62.340832   -0.283516  133.863129   -0.283079  133.861099  -41.433061  -70.483826
  0.026613226  -45.051162  -64.554771   -0.284802  132.150818   -0.283028  132.142227  -41.203121  -73.308289
  0.026813627  -44.662433  -66.191879   -0.286406  130.446396   -0.285308  130.441940  -40.808553  -75.979408
  0.027014028  -44.651624  -69.212608   -0.287139  128.737930   -0.285637  128.730972  -40.739956  -77.259003
  0.027214429  -44.253400  -72.838699   -0.289345  127.024658   -0.286922  127.027145  -40.546216  -79.355156
  0.027414830  -44.292361  -75.587296   -0.291591  125.322250   -0.289047  125.316528  -40.390011  -81.842278
  0.027615230  -44.205308  -75.858871   -0.292385  123.602257   -0.289506  123.606850  -40.135420  -83.932083
  0.027815631  -43.851101  -79.503082   -0.292547  121.898987   -0.290822  121.901115  -40.001143  -85.899643
  0.028016032  -43.687239  -80.940338   -0.295577  120.184402   -0.293001  120.190979  -39.877357  -88.200859
  0.028216433  -43.340513  -83.302711   -0.296980  118.467216   -0.293970  118.475479  -39.747093  -91.170929
  0.028416834  -43.275096  -86.550911   -0.298007  116.757385   -0.295924  116.759216  -39.623699  -92.346237
  0.028617234  -43.053621  -89.868660   -0.299667  115.041931   -0.297422  115.045731  -39.428037  -94.748634
  0.028817635  -43.050999  -92.205345   -0.300875  113.329155   -0.298652  113.335297  -39.405180  -96.875206
  0.029018036  -42.808320  -94.357841   -0.302226  111.615189   -0.299497  111.622925  -39.212383  -99.207024
  0.029218437  -42.690940  -97.139153   -0.302501  109.903954   -0.301093  109.903625  -39.102457 -101.784348
  0.029418838  -42.698696 -100.132210   -0.303823  108.186783   -0.301421  108.192253  -39.119153 -103.453934
  0.029619238  -42.429073 -102.248032   -0.304121  106.480194   -0.301768  106.490631  -38.919677 -106.081207
  0.029819639  -42.393817 -104.442017   -0.304691  104.765427   -0.302891  104.768555  -38.910609 -107.892021
  0.030020040  -42.477694 -106.015511   -0.306398  103.056587   -0.304385  103.057899  -38.796542 -110.396027
  0.030220441  -42.299941 -109.147720   -0.305661  101.344574   -0.305012  101.353821  -38.843299 -112.358147
  0.030420842  -42.162358 -111.612747   -0.306683   99.635811   -0.306038   99.643814  -38.713299 -114.160187
  0.030621242  -42.075622 -115.498322   -0.307192   97.927414   -0.306549   97.931618  -38.662394 -117.004158
  0.030821643  -41.988403 -117.228111   -0.309192   96.216270   -0.308023   96.220688  -38.665327 -118.728127
  0.031022044  -42.089129 -119.959991   -0.309203   94.507576   -0.309243   94.513245  -38.571321 -120.821594
  0.031222445  -41.970164 -122.882072   -0.308783   92.804085   -0.308456   92.818916  -38.524082 -122.320274
  0.031422846  -41.747642 -124.712578   -0.310128   91.104012   -0.308522   91.114487  -38.487982 -125.559547
  0.031623246  -41.870650 -127.676369   -0.310856   89.392601   -0.309316   89.397575  -38.510940 -127.206055
  0.031823647  -41.814626 -129.000793   -0.312291   87.684303   -0.311153   87.688133  -38.494368 -128.957932
  0.032024048  -41.629919 -132.086945   -0.313901   85.977486   -0.312544   85.977196  -38.501297 -131.377365
  0.032224449  -41.738815 -135.498993   -0.313865   84.265938   -0.311803   84.282707  -38.459641 -133.324402
  0.032424850  -41.814161 -137.155914   -0.315682   82.555946   -0.314534   82.578316  -38.477826 -136.270477
  0.032625251  -41.735797 -139.881943   -0.316968   80.847786   -0.315414   80.865990  -38.540291 -137.951675
  0.032825651  -41.698254 -143.027771   -0.317865   79.141243   -0.317095   79.157707  -38.647015 -140.454010
  0.033026052  -41.624071 -145.563797   -0.320788   77.425201   -0.319718   77.443283  -38.708857 -142.299515
  0.033226453  -41.664138 -147.292191   -0.321313   75.716064   -0.318694   75.739288  -38.703178 -144.527512
  0.033426854  -41.733461 -149.341980   -0.322479   74.000526   -0.320890   74.025482  -38.759100 -146.595871
  0.033627255  -41.784496 -152.068878   -0.324149   72.302681   -0.322368   72.313797  -38.717002 -149.148102
  0.033827655  -41.647417 -155.843109   -0.325142   70.583290   -0.323433   70.607315  -38.853799 -150.921356
  0.034028056  -41.813749 -157.156433   -0.327245   68.868629   -0.325768   68.897392  -38.939205 -153.517548
  0.034228457  -42.011395 -160.045273   -0.328268   67.160713   -0.327839   67.182823  -38.994234 -156.193237
  0.034428858  -41.915899 -162.171539   -0.329280   65.447449   -0.328356   65.469917  -39.066963 -157.500137
  0.034629259  -41.931657 -164.781708   -0.330072   63.735310   -0.330965   63.766914  -39.262690 -160.591202
  0.034829659  -41.976479 -168.045364   -0.330588   62.028179   -0.331031   62.047653  -39.288939 -163.000854
  0.035030060  -42.054260 -169.481567   -0.332999   60.317638   -0.332360   60.341141  -39.404774 -165.199875
  0.035230461  -42.074182 -171.643753   -0.332934   58.603905   -0.334934   58.630318  -39.529568 -167.362610
  0.035430862  -42.374546 -174.265915   -0.333083   56.898769   -0.335453   56.924828  -39.605775 -169.518051
  0.035631263  -42.176283 -177.767883   -0.333334   55.194530   -0.334950   55.213734  -39.787027 -172.265869
  0.035831663  -42.543981 -179.312546   -0.334857   53.482643   -0.335224   53.501518  -40.026176 -173.913025
  0.036032064  -42.395640  178.693008   -0.334976   51.778641   -0.336297   51.800205  -40.144794 -175.886032
  0.036232465  -42.580344  174.706512   -0.335429   50.067822   -0.336855   50.082859  -40.202027 -178.190552
  0.036432866  -42.660119  172.499542   -0.335470   48.359745   -0.336842   48.376476  -40.484501  178.505020
  0.036633267  -42.787356  171.667618   -0.336649   46.658398   -0.337777   46.664974  -40.666369  175.898041
  0.036833667  -43.069506  168.313934   -0.336064   44.946560   -0.337125   44.958008  -40.735115  173.395782
  0.037034068  -43.029927  165.995270   -0.337205   43.246693   -0.339492   43.259167  -41.022012  170.520294
  0.037234469  -43.229715  162.423737   -0.336479   41.540970   -0.339802   41.548931  -41.293268  168.727951
  0.037434870  -43.394845  161.372025   -0.337686   39.848061   -0.340079   39.841137  -41.384166  166.253784
  0.037635271  -43.648136  158.905136   -0.339173   38.145302   -0.339424   38.138275  -41.567483  163.277542
  0.037835671  -43.693858  157.136780   -0.338330   36.437786   -0.341970   36.431438  -41.892307  160.545059
  0.038036072  -43.932566  154.464584   -0.339506   34.740139   -0.341700   34.728996  -42.131794  158.522064
  0.038236473  -44.221254  151.465088   -0.340403   33.032101   -0.342194   33.025845  -42.360865  156.067856
  0.038436874  -44.063602  149.059860   -0.341481   31.330847   -0.344012   31.316936  -42.640834  152.385666
  0.038637275  -44.330789  146.900055   -0.341788   29.624828   -0.342589   29.618921  -42.965497  149.505310
  0.038837675  -44.698239  144.482666   -0.342098   27.924391   -0.343783   27.919081  -43.443660  145.911621
  0.039038076  -44.976882  141.932220   -0.343295   26.219902   -0.343486   26.213415  -43.656724  143.554214
  0.039238477  -45.246936  140.902344   -0.344172   24.511751   -0.346242   24.512409  -43.823156  140.528503
  0.039438878  -45.593791  137.377853   -0.345462   22.807020   -0.347049   22.799196  -44.454935  137.235428
  0.039639279  -45.836583  135.332474   -0.346777   21.101130   -0.347652   21.089994  -44.791145  133.384003
  0.039839679  -46.181774  133.493942   -0.347362   19.395157   -0.348692   19.389643  -45.194800  129.958450
  0.040040080  -46.743941  131.587219   -0.349015   17.690319   -0.349024   17.678942  -45.559906  127.808479
  0.040240481  -46.887222  128.820389   -0.349517   15.981758   -0.350564   15.967849  -46.331653  121.310173
  0.040440882  -47.227640  126.358170   -0.352394   14.271149   -0.353202   14.267884  -46.615470  118.950203
  0.040641283  -47.602601  124.299759   -0.351830   12.568291   -0.353621   12.554538  -47.071765  113.923904
  0.040841683  -48.120533  121.891418   -0.352959   10.851244   -0.354209   10.842737  -47.941320  107.498711
  0.041042084  -48.698163  119.980370   -0.354594    9.145613   -0.354418    9.135210  -48.281540  102.433395
  0.041242485  -48.907432  117.350616   -0.355580    7.441205   -0.357155    7.429436  -48.730699   97.945488
  0.041442886  -49.383151  114.976578   -0.356972    5.726828   -0.358310    5.722595  -48.850423   90.091316
  0.041643287  -50.518497  113.199677   -0.356839    4.017931   -0.359106    4.020610  -49.602024   82.916214
  0.041843687  -50.788976  111.417633   -0.358266    2.306122   -0.360009    2.305533  -49.980788   77.044968
  0.042044088  -51.710095  109.595047   -0.360063    0.600325   -0.360388    0.595163  -50.425934   68.649551
  0.042244489  -52.391958  105.812126   -0.359544   -1.100388   -0.362282   -1.105652  -50.340989   58.937840
  0.042444890  -53.201582  105.770172   -0.360255   -2.814851   -0.362295   -2.820830  -50.655241   52.643753
  0.042645291  -53.806313  101.580795   -0.361495   -4.516407   -0.362176   -4.524721  -50.668953   41.809376
  0.042845691  -55.050676  102.176575   -0.362305   -6.232018   -0.363299   -6.231412  -50.662387   34.094059
  0.043046092  -56.046335  101.495110   -0.363350   -7.938149   -0.364220   -7.935510  -50.242296   25.557320
  0.043246493  -57.206734  100.612862   -0.364739   -9.643347   -0.364615   -9.647450  -49.894874   15.285051
  0.043446894  -58.729625   92.832336   -0.364384  -11.347652   -0.364917  -11.345007  -49.184457    9.508064
  0.043647295  -61.408251   96.934822   -0.365760  -13.048143   -0.366333  -13.047976  -48.977803    1.063252
  0.043847695  -63.962086   91.956696   -0.366189  -14.756472   -0.367183  -14.764441  -48.405230   -6.501464
  0.044048096  -68.005047   98.838806   -0.366917  -16.461445   -0.367345  -16.460968  -47.782292  -10.560792
  0.044248497  -72.848852  115.304550   -0.368446  -18.173382   -0.368363  -18.169865  -47.143153  -15.805413
  0.044448898  -82.666695 -163.802429   -0.369446  -19.871618   -0.369683  -19.879942  -46.688436  -20.463017
  0.044649299  -69.682623 -130.793198   -0.370802  -21.577171   -0.371826  -21.584473  -45.854464  -24.883732
  0.044849699  -64.618371 -111.410950   -0.372702  -23.281763   -0.371365  -23.283634  -45.480539  -28.640469
  0.045050100  -61.815312 -113.532997   -0.372855  -24.992968   -0.371318  -24.987118  -44.818757  -34.333359
  0.045250501  -59.778493 -118.393051   -0.374708  -26.694534   -0.373715  -26.691444  -44.458115  -37.287342
  0.045450902  -58.467827 -117.980492   -0.376356  -28.399340   -0.376883  -28.400200  -44.106198  -40.407536
  0.045651303  -57.121583 -119.211441   -0.377488  -30.113283   -0.378610  -30.111008  -43.708700  -44.018261
  0.045851703  -55.443960 -120.687843   -0.377727  -31.815563   -0.379544  -31.811804  -43.204093  -47.866756
  0.046052104  -54.233628 -127.377632   -0.379298  -33.532631   -0.379354  -33.526985  -42.681293  -50.628765
  0.046252505  -53.254394 -126.877060   -0.381810  -35.241142   -0.381023  -35.231678  -42.426211  -52.872475
  0.046452906  -52.158743 -130.085907   -0.382740  -36.951427   -0.382488  -36.941784  -41.912961  -57.395069
  0.046653307  -51.856901 -130.622894   -0.382122  -38.658791   -0.383196  -38.653187  -41.546918  -59.361862
  0.046853707  -50.595385 -134.888443   -0.382745  -40.368916   -0.384411  -40.365047  -41.302732  -61.736931
  0.047054108  -50.090326 -137.151688   -0.382541  -42.072670   -0.382653  -42.082939  -40.900341  -64.836464
  0.047254509  -49.362704 -137.719498   -0.383156  -43.791401   -0.382694  -43.781345  -40.458765  -67.888641
  0.047454910  -49.039376 -140.593338   -0.383718  -45.499916   -0.384659  -45.492901  -40.242562  -68.485176
  0.047655311  -48.222692 -143.855560   -0.384706  -47.219093   -0.385413  -47.209141  -40.080422  -72.005722
  0.047855711  -47.621327 -147.457764   -0.385190  -48.925098   -0.385839  -48.918262  -39.588945  -74.442848
  0.048056112  -47.406305 -147.430923   -0.385810  -50.636497   -0.386659  -50.637562  -39.477507  -77.428749
  0.048256513  -46.909912 -150.383209   -0.386510  -52.349693   -0.386724  -52.348972  -39.307455  -78.150848
  0.048456914  -46.251536 -153.838028   -0.386687  -54.063919   -0.387870  -54.055897  -38.978112  -81.233971
  0.048657315  -46.110921 -157.066101   -0.388366  -55.765213   -0.387762  -55.763725  -38.800112  -83.049011
  0.048857715  -45.605318 -156.557205   -0.387846  -57.474541   -0.388801  -57.465477  -38.618731  -85.523354
  0.049058116  -45.403849 -159.156860   -0.388949  -59.181213   -0.388876  -59.173611  -38.331556  -87.872009
  0.049258517  -44.982705 -161.044128   -0.389063  -60.892925   -0.389040  -60.884785  -38.113458  -89.693344
  0.049458918  -44.544820 -164.216705   -0.388978  -62.596657   -0.390501  -62.592728  -37.915043  -92.094604
  0.049659319  -44.355207 -166.155365   -0.390170  -64.296219   -0.390585  -64.295837  -37.666291  -94.416229
  0.049859719  -44.041236 -168.649567   -0.390175  -66.001846   -0.390502  -66.004028  -37.449799  -96.257484
  0.050060120  -43.742641 -170.435791   -0.392735  -67.708099   -0.392900  -67.697479  -37.343529  -98.140694
  0.050260521  -43.457111 -171.638092   -0.391819  -69.416824   -0.393016  -69.407845  -37.226257 -100.255669
  0.050460922  -43.364303 -174.747849   -0.393845  -71.123886   -0.392518  -71.115349  -37.054138 -102.387505
  0.050661323  -43.043644 -176.915527   -0.396016  -72.829979   -0.394358  -72.822815  -36.969735 -104.897972
  0.050861723  -42.835797  179.370758   -0.395425  -74.527451   -0.395025  -74.523079  -36.699035 -106.553741
  0.051062124  -42.748363  176.759048   -0.397230  -76.232506   -0.396005  -76.226768  -36.634864 -108.939240
  0.051262525  -42.503582  175.753265   -0.397792  -77.939507   -0.397769  -77.933647  -36.433522 -110.146568
  0.051462926  -42.428745  172.980316   -0.398245  -79.646179   -0.397913  -79.637550  -36.388914 -112.254135
  0.051663327  -42.237280  170.499771   -0.399872  -81.350807   -0.398494  -81.344116  -36.310482 -114.391350
  0.051863727  -41.964955  168.001236   -0.400694  -83.055130   -0.398778  -83.058060  -36.161614 -115.858727
  0.052064128  -41.920331  165.747803   -0.400651  -84.761086   -0.399846  -84.761017  -36.089769 -117.915016
  0.052264529  -41.757313  163.423737   -0.401384  -86.467278   -0.400477  -86.466736  -36.011926 -119.838470
  0.052464930  -41.673086  161.674179   -0.402258  -88.180450   -0.401820  -88.170914  -35.956406 -121.246635
  0.052665331  -41.640330  159.345245   -0.403945  -89.885918   -0.402358  -89.872826  -35.941967 -123.851631
  0.052865731  -41.416026  156.119171   -0.405103  -91.597046   -0.402199  -91.575333  -35.822922 -124.794930
