! Anritsu VNA Master:                     Model: MS2036C/10/77
! SN:                                  1601066
! /card0/usr/uu.s11.49p99.s2p
! Existing Calibration Information:
! TYPE:                         Current Settings,       Active Cal Settings
! TIME:             	   05/23/2018 11:44:49 AM,    05/23/2018 11:36:58 AM
! INTERNAL TEMP:    	                   48.5 C,                    48.8 C
! # POINTS:         	                      500,                       500
! START FREQ:       	               20.000 MHz,                20.000 MHz
! STOP FREQ:        	              120.000 MHz,               120.000 MHz
! SOURCE POWER:     	                     High,                      High
! IFBW:             	                    50 Hz,                     50 Hz
! AVG FACTOR:       	                       1 ,                        1 
! REF PLANE 1:      	                     0 mm,                      0 mm
! REF PLANE 2:      	                     0 mm,                      0 mm
! CAL TYPE:         	                 Full S11,                  Full S11
! CAL METHOD:       	                     SOLT,                      SOLT
! CAL LINE TYPE:    	                     Coax,                      Coax
! DUT PORT 1:       	                K-Conn(M),                 K-Conn(M)
! DUT PORT 2:       	                K-Conn(M),                 K-Conn(M)
! CAL STATUS:       	        OK: Accuracy High,                        --
# GHZ S DB R 50.0
! FREQ.GHZ       S11DB        S11A       S21DB        S21A       S12DB        S12A       S22DB        S22A
  0.020000000  -39.134468   51.295071  -91.798644  -64.914536    0.000000    0.000000    0.000000    0.000000
  0.020200401  -39.109680   51.302849  -92.098199  -66.509018    0.000000    0.000000    0.000000    0.000000
  0.020400802  -38.958061   51.017635  -91.826515  -67.232292    0.000000    0.000000    0.000000    0.000000
  0.020601202  -38.961747   51.199097  -91.595414  -71.905510    0.000000    0.000000    0.000000    0.000000
  0.020801603  -38.865191   51.480408  -92.611198  -73.890793    0.000000    0.000000    0.000000    0.000000
  0.021002004  -38.803850   50.884998  -91.841068  -70.622299    0.000000    0.000000    0.000000    0.000000
  0.021202405  -38.805329   51.251190  -92.600257  -72.588432    0.000000    0.000000    0.000000    0.000000
  0.021402806  -38.729752   50.950741  -92.699654  -74.167549    0.000000    0.000000    0.000000    0.000000
  0.021603206  -38.598045   50.883362  -92.516329  -79.883408    0.000000    0.000000    0.000000    0.000000
  0.021803607  -38.519673   50.830849  -93.314433  -78.082512    0.000000    0.000000    0.000000    0.000000
  0.022004008  -38.539854   50.442837  -93.189165  -78.375046    0.000000    0.000000    0.000000    0.000000
  0.022204409  -38.440483   50.602631  -93.003558  -82.076508    0.000000    0.000000    0.000000    0.000000
  0.022404810  -38.443351   50.532143  -93.150016  -84.232765    0.000000    0.000000    0.000000    0.000000
  0.022605210  -38.352654   50.526352  -93.741360  -82.130409    0.000000    0.000000    0.000000    0.000000
  0.022805611  -38.284637   50.776630  -93.458899  -84.640495    0.000000    0.000000    0.000000    0.000000
  0.023006012  -38.296447   50.253666  -94.210051  -84.468384    0.000000    0.000000    0.000000    0.000000
  0.023206413  -38.184875   50.423744  -93.160112  -86.840164    0.000000    0.000000    0.000000    0.000000
  0.023406814  -38.122003   50.018776  -94.071179  -88.794037    0.000000    0.000000    0.000000    0.000000
  0.023607214  -38.059303   49.922585  -94.061604  -87.632408    0.000000    0.000000    0.000000    0.000000
  0.023807615  -38.063053   50.084129  -94.543573  -92.961639    0.000000    0.000000    0.000000    0.000000
  0.024008016  -37.990432   50.170982  -94.601914  -96.317932    0.000000    0.000000    0.000000    0.000000
  0.024208417  -37.918614   50.213882  -95.339560  -94.892982    0.000000    0.000000    0.000000    0.000000
  0.024408818  -37.914916   50.113716  -94.844113  -97.554031    0.000000    0.000000    0.000000    0.000000
  0.024609218  -37.772254   49.794716  -95.222940 -101.415543    0.000000    0.000000    0.000000    0.000000
  0.024809619  -37.711410   50.224960  -95.228406  -99.977509    0.000000    0.000000    0.000000    0.000000
  0.025010020  -37.726472   49.902893  -95.519091  -95.957886    0.000000    0.000000    0.000000    0.000000
  0.025210421  -37.599370   49.760136  -96.307374 -101.648811    0.000000    0.000000    0.000000    0.000000
  0.025410822  -37.595741   49.571499  -95.916217 -101.639114    0.000000    0.000000    0.000000    0.000000
  0.025611222  -37.577016   48.957069  -95.935129 -107.482193    0.000000    0.000000    0.000000    0.000000
  0.025811623  -37.501369   49.319843  -96.064757 -106.630241    0.000000    0.000000    0.000000    0.000000
  0.026012024  -37.436802   50.032764  -95.779605 -109.178505    0.000000    0.000000    0.000000    0.000000
  0.026212425  -37.433898   49.324749  -96.772419 -106.272255    0.000000    0.000000    0.000000    0.000000
  0.026412826  -37.435370   49.311184  -96.437789 -104.146439    0.000000    0.000000    0.000000    0.000000
  0.026613226  -37.298225   49.264687  -96.759693 -108.584435    0.000000    0.000000    0.000000    0.000000
  0.026813627  -37.203471   49.207848  -96.615840 -111.223091    0.000000    0.000000    0.000000    0.000000
  0.027014028  -37.168214   48.805054  -96.160715 -107.821495    0.000000    0.000000    0.000000    0.000000
  0.027214429  -37.175988   49.026299  -96.632322 -106.528831    0.000000    0.000000    0.000000    0.000000
  0.027414830  -37.103915   48.718746  -96.998568 -105.619247    0.000000    0.000000    0.000000    0.000000
  0.027615230  -37.051868   49.271381  -97.314270 -112.148003    0.000000    0.000000    0.000000    0.000000
  0.027815631  -36.959663   48.731308  -97.756380 -116.340195    0.000000    0.000000    0.000000    0.000000
  0.028016032  -36.939411   48.799763  -98.630480 -116.309952    0.000000    0.000000    0.000000    0.000000
  0.028216433  -36.897375   48.627094  -97.657854 -115.310341    0.000000    0.000000    0.000000    0.000000
  0.028416834  -36.826469   48.510410  -98.478924 -116.306999    0.000000    0.000000    0.000000    0.000000
  0.028617234  -36.800149   48.231998  -98.757561 -113.622131    0.000000    0.000000    0.000000    0.000000
  0.028817635  -36.766771   48.555462  -97.858978 -120.203308    0.000000    0.000000    0.000000    0.000000
  0.029018036  -36.681299   48.314091  -99.181595 -113.277916    0.000000    0.000000    0.000000    0.000000
  0.029218437  -36.684862   48.234077  -97.958699 -123.880836    0.000000    0.000000    0.000000    0.000000
  0.029418838  -36.591862   48.104092  -98.219127 -124.893288    0.000000    0.000000    0.000000    0.000000
  0.029619238  -36.601860   47.998474  -98.534068 -117.439934    0.000000    0.000000    0.000000    0.000000
  0.029819639  -36.531519   47.824993 -100.217392 -127.367836    0.000000    0.000000    0.000000    0.000000
  0.030020040  -36.489198   48.094772  -99.417216 -130.583115    0.000000    0.000000    0.000000    0.000000
  0.030220441  -36.436363   47.828365  -99.030462 -124.133118    0.000000    0.000000    0.000000    0.000000
  0.030420842  -36.398521   47.814983  -99.276445 -125.939209    0.000000    0.000000    0.000000    0.000000
  0.030621242  -36.336392   47.863014  -99.033175 -126.436012    0.000000    0.000000    0.000000    0.000000
  0.030821643  -36.302836   47.593861  -99.082206 -124.367310    0.000000    0.000000    0.000000    0.000000
  0.031022044  -36.285736   47.594570 -100.077506 -129.311935    0.000000    0.000000    0.000000    0.000000
  0.031222445  -36.231319   47.592548  -99.712990 -145.076157    0.000000    0.000000    0.000000    0.000000
  0.031422846  -36.176585   47.082264 -100.677443 -136.492706    0.000000    0.000000    0.000000    0.000000
  0.031623246  -36.184490   47.385979  -99.422913 -139.527405    0.000000    0.000000    0.000000    0.000000
  0.031823647  -36.128401   47.240009  -99.916075 -144.475601    0.000000    0.000000    0.000000    0.000000
  0.032024048  -35.989747   47.636147  -99.330299 -135.996521    0.000000    0.000000    0.000000    0.000000
  0.032224449  -36.037664   46.947735 -100.007726 -131.778931    0.000000    0.000000    0.000000    0.000000
  0.032424850  -35.999449   47.191635 -100.660592 -144.864975    0.000000    0.000000    0.000000    0.000000
  0.032625251  -35.939283   46.922234 -100.558898 -135.200256    0.000000    0.000000    0.000000    0.000000
  0.032825651  -35.882173   47.060783 -100.124391 -140.968826    0.000000    0.000000    0.000000    0.000000
  0.033026052  -35.873750   46.895176  -99.470097 -144.002319    0.000000    0.000000    0.000000    0.000000
  0.033226453  -35.793262   46.670910  -99.910825 -155.698822    0.000000    0.000000    0.000000    0.000000
  0.033426854  -35.799763   46.740639 -100.984763 -154.095535    0.000000    0.000000    0.000000    0.000000
  0.033627255  -35.767836   46.624195  -99.997957 -158.097305    0.000000    0.000000    0.000000    0.000000
  0.033827655  -35.777297   46.263077  -99.986565 -149.094757    0.000000    0.000000    0.000000    0.000000
  0.034028056  -35.714763   46.510120 -100.755517 -155.492966    0.000000    0.000000    0.000000    0.000000
  0.034228457  -35.642603   46.458603 -102.036863 -160.934387    0.000000    0.000000    0.000000    0.000000
  0.034428858  -35.609219   46.160404 -100.342091 -158.387817    0.000000    0.000000    0.000000    0.000000
  0.034629259  -35.529097   46.459278 -101.825207 -154.334183    0.000000    0.000000    0.000000    0.000000
  0.034829659  -35.531582   45.850422 -101.627658 -160.135513    0.000000    0.000000    0.000000    0.000000
  0.035030060  -35.547552   46.253643 -103.200345 -157.353058    0.000000    0.000000    0.000000    0.000000
  0.035230461  -35.463172   46.167973 -102.567504 -157.900696    0.000000    0.000000    0.000000    0.000000
  0.035430862  -35.429679   45.753117 -101.796917 -149.654861    0.000000    0.000000    0.000000    0.000000
  0.035631263  -35.430681   45.908596 -100.526810 -164.056900    0.000000    0.000000    0.000000    0.000000
  0.035831663  -35.339216   45.309155 -100.131980 -167.830719    0.000000    0.000000    0.000000    0.000000
  0.036032064  -35.355100   45.313995 -100.879326 -156.542465    0.000000    0.000000    0.000000    0.000000
  0.036232465  -35.289714   45.359928 -101.294546 -169.499939    0.000000    0.000000    0.000000    0.000000
  0.036432866  -35.260879   45.508999 -103.473695 -174.479675    0.000000    0.000000    0.000000    0.000000
  0.036633267  -35.216578   45.118427 -103.119415  175.437790    0.000000    0.000000    0.000000    0.000000
  0.036833667  -35.216773   45.366966 -102.250130 -171.922470    0.000000    0.000000    0.000000    0.000000
  0.037034068  -35.176178   45.053707 -105.382671 -175.737656    0.000000    0.000000    0.000000    0.000000
  0.037234469  -35.144469   44.894367 -101.554509 -165.269531    0.000000    0.000000    0.000000    0.000000
  0.037434870  -35.097194   44.911530 -100.875362 -177.568329    0.000000    0.000000    0.000000    0.000000
  0.037635271  -35.028241   45.093254 -103.364207  179.635239    0.000000    0.000000    0.000000    0.000000
  0.037835671  -35.021045   44.951126 -103.496912 -176.893234    0.000000    0.000000    0.000000    0.000000
  0.038036072  -34.963836   44.723431 -103.131147  179.379196    0.000000    0.000000    0.000000    0.000000
  0.038236473  -34.960675   44.399879 -105.661379 -167.301636    0.000000    0.000000    0.000000    0.000000
  0.038436874  -34.946977   44.556400 -103.795644 -170.762680    0.000000    0.000000    0.000000    0.000000
  0.038637275  -34.861618   44.508041 -101.730303  178.529129    0.000000    0.000000    0.000000    0.000000
  0.038837675  -34.887857   44.585270 -104.015597 -178.961823    0.000000    0.000000    0.000000    0.000000
  0.039038076  -34.805930   44.269211 -102.115886  165.097321    0.000000    0.000000    0.000000    0.000000
  0.039238477  -34.839353   44.035786 -105.496113 -176.273300    0.000000    0.000000    0.000000    0.000000
  0.039438878  -34.782753   44.217827 -104.549561  178.499832    0.000000    0.000000    0.000000    0.000000
  0.039639279  -34.723316   44.077721 -102.287005  160.881088    0.000000    0.000000    0.000000    0.000000
  0.039839679  -34.705394   44.292381 -102.580482  167.096191    0.000000    0.000000    0.000000    0.000000
  0.040040080  -34.648744   43.923664 -106.164631  162.664505    0.000000    0.000000    0.000000    0.000000
  0.040240481  -34.610277   43.877438 -102.710176 -176.771820    0.000000    0.000000    0.000000    0.000000
  0.040440882  -34.582841   43.702663 -102.658575  162.393341    0.000000    0.000000    0.000000    0.000000
  0.040641283  -34.606551   43.515293 -106.817243 -169.812042    0.000000    0.000000    0.000000    0.000000
  0.040841683  -34.502270   43.432941 -105.308704 -179.046082    0.000000    0.000000    0.000000    0.000000
  0.041042084  -34.523307   43.370888 -102.299880  172.063004    0.000000    0.000000    0.000000    0.000000
  0.041242485  -34.475783   43.348450 -103.210845  160.620880    0.000000    0.000000    0.000000    0.000000
  0.041442886  -34.450035   43.426723 -103.485797  153.185272    0.000000    0.000000    0.000000    0.000000
  0.041643287  -34.436685   43.653194 -104.449098  156.323730    0.000000    0.000000    0.000000    0.000000
  0.041843687  -34.358791   43.228710 -103.106057  152.661591    0.000000    0.000000    0.000000    0.000000
  0.042044088  -34.389962   43.011761 -103.937096  160.547989    0.000000    0.000000    0.000000    0.000000
  0.042244489  -34.326187   42.922943 -105.320059  139.569885    0.000000    0.000000    0.000000    0.000000
  0.042444890  -34.349946   43.216976 -104.135729  150.609818    0.000000    0.000000    0.000000    0.000000
  0.042645291  -34.246414   43.304359 -104.440615  147.224396    0.000000    0.000000    0.000000    0.000000
  0.042845691  -34.255648   42.721275 -101.971239  165.664688    0.000000    0.000000    0.000000    0.000000
  0.043046092  -34.195409   42.612740 -103.081383  156.438354    0.000000    0.000000    0.000000    0.000000
  0.043246493  -34.192706   42.726101 -108.462321  164.095703    0.000000    0.000000    0.000000    0.000000
  0.043446894  -34.154836   42.939541 -107.338640  172.482300    0.000000    0.000000    0.000000    0.000000
  0.043647295  -34.119676   42.186283 -102.406672  146.282959    0.000000    0.000000    0.000000    0.000000
  0.043847695  -34.088299   42.421917 -105.432138  155.949219    0.000000    0.000000    0.000000    0.000000
  0.044048096  -34.068312   42.013546 -105.234072  141.571106    0.000000    0.000000    0.000000    0.000000
  0.044248497  -34.057348   42.371964 -105.958507  134.449783    0.000000    0.000000    0.000000    0.000000
  0.044448898  -33.981620   41.969578 -103.520990  131.074875    0.000000    0.000000    0.000000    0.000000
  0.044649299  -34.005191   41.932240 -110.379986  145.885101    0.000000    0.000000    0.000000    0.000000
  0.044849699  -33.948919   41.856651 -103.500810  150.542206    0.000000    0.000000    0.000000    0.000000
  0.045050100  -33.928159   41.794178 -105.934582  147.006729    0.000000    0.000000    0.000000    0.000000
  0.045250501  -33.907187   41.703117 -105.508086  146.309631    0.000000    0.000000    0.000000    0.000000
  0.045450902  -33.881323   42.013432 -107.136360  145.480316    0.000000    0.000000    0.000000    0.000000
  0.045651303  -33.891183   41.751972 -107.201159  126.596420    0.000000    0.000000    0.000000    0.000000
  0.045851703  -33.799970   41.423569 -106.342953  153.540253    0.000000    0.000000    0.000000    0.000000
  0.046052104  -33.788367   41.486916 -106.706450  130.442368    0.000000    0.000000    0.000000    0.000000
  0.046252505  -33.792888   41.192440 -103.393438  134.310471    0.000000    0.000000    0.000000    0.000000
  0.046452906  -33.759411   41.164352 -106.457280  108.705421    0.000000    0.000000    0.000000    0.000000
  0.046653307  -33.745837   41.254738 -104.349449  136.793396    0.000000    0.000000    0.000000    0.000000
  0.046853707  -33.704656   40.943565 -107.237903  129.103867    0.000000    0.000000    0.000000    0.000000
  0.047054108  -33.712263   41.036102 -105.886914  121.197510    0.000000    0.000000    0.000000    0.000000
  0.047254509  -33.673522   40.958302 -106.001233  133.923050    0.000000    0.000000    0.000000    0.000000
  0.047454910  -33.597005   40.630730 -107.441020  127.192291    0.000000    0.000000    0.000000    0.000000
  0.047655311  -33.621296   40.659023 -106.930890  116.117233    0.000000    0.000000    0.000000    0.000000
  0.047855711  -33.563330   40.454765 -108.839007  111.995216    0.000000    0.000000    0.000000    0.000000
  0.048056112  -33.559364   40.653725 -106.512310  130.718994    0.000000    0.000000    0.000000    0.000000
  0.048256513  -33.517827   40.492249 -104.918362  126.531998    0.000000    0.000000    0.000000    0.000000
  0.048456914  -33.533133   40.151424 -104.834172  123.021393    0.000000    0.000000    0.000000    0.000000
  0.048657315  -33.466551   40.437614 -109.502053  122.863190    0.000000    0.000000    0.000000    0.000000
  0.048857715  -33.473224   40.297394 -107.752905  116.666824    0.000000    0.000000    0.000000    0.000000
  0.049058116  -33.451348   40.044872 -111.857424  138.378342    0.000000    0.000000    0.000000    0.000000
  0.049258517  -33.428948   39.916054 -108.013824  123.674309    0.000000    0.000000    0.000000    0.000000
  0.049458918  -33.369933   39.866570 -111.324105  161.564178    0.000000    0.000000    0.000000    0.000000
  0.049659319  -33.350918   39.737064 -104.316230  123.795624    0.000000    0.000000    0.000000    0.000000
  0.049859719  -33.385083   39.804783 -109.571651  107.657478    0.000000    0.000000    0.000000    0.000000
  0.050060120  -33.342576   39.527897 -105.857423   83.057976    0.000000    0.000000    0.000000    0.000000
  0.050260521  -33.311359   39.704151 -104.944767  109.795319    0.000000    0.000000    0.000000    0.000000
  0.050460922  -33.300776   39.326302 -105.242609   84.981102    0.000000    0.000000    0.000000    0.000000
  0.050661323  -33.285495   39.078400 -108.505931  118.733437    0.000000    0.000000    0.000000    0.000000
  0.050861723  -33.203322   39.082767 -104.579764  101.103394    0.000000    0.000000    0.000000    0.000000
  0.051062124  -33.217823   38.858627 -106.734029   82.246208    0.000000    0.000000    0.000000    0.000000
  0.051262525  -33.225243   38.807026 -103.692435  109.948105    0.000000    0.000000    0.000000    0.000000
  0.051462926  -33.167764   39.136700 -111.692107   80.031082    0.000000    0.000000    0.000000    0.000000
  0.051663327  -33.163704   38.594151 -107.739572   84.813934    0.000000    0.000000    0.000000    0.000000
  0.051863727  -33.127718   38.640709 -106.708667   91.512177    0.000000    0.000000    0.000000    0.000000
  0.052064128  -33.090510   38.312225 -107.060616   83.721970    0.000000    0.000000    0.000000    0.000000
  0.052264529  -33.100007   38.120148 -107.636819   83.944763    0.000000    0.000000    0.000000    0.000000
  0.052464930  -33.036152   38.241425 -107.255837   66.211418    0.000000    0.000000    0.000000    0.000000
  0.052665331  -33.043281   37.910831 -106.207768  107.608231    0.000000    0.000000    0.000000    0.000000
  0.052865731  -33.020557   38.116768 -104.343834   76.610184    0.000000    0.000000    0.000000    0.000000
