! Anritsu VNA Master:                     Model: MS2036C/10/77
! SN:                                  1601066
! /bd0/18may10/bot20.s2p
! Existing Calibration Information:
! TYPE:                         Current Settings,       Active Cal Settings
! TIME:             	   05/10/2018 01:20:15 PM,    05/10/2018 01:17:32 PM
! INTERNAL TEMP:    	                   52.5 C,                    52.0 C
! # POINTS:         	                      492,                       492
! START FREQ:       	               20.000 MHz,                20.000 MHz
! STOP FREQ:        	          118.396 793 MHz,           118.396 793 MHz
! SOURCE POWER:     	                     High,                      High
! IFBW:             	                    50 Hz,                     50 Hz
! AVG FACTOR:       	                       1 ,                        1 
! REF PLANE 1:      	                     0 mm,                      0 mm
! REF PLANE 2:      	                     0 mm,                      0 mm
! CAL TYPE:         	                 Full S22,                  Full S22
! CAL METHOD:       	                     SOLT,                      SOLT
! CAL LINE TYPE:    	                     Coax,                      Coax
! DUT PORT 1:       	                K-Conn(M),                 K-Conn(M)
! DUT PORT 2:       	                K-Conn(M),                 K-Conn(M)
! CAL STATUS:       	        OK: Accuracy High,                        --
# GHZ S DB R 50.0
! FREQ.GHZ       S11DB        S11A       S21DB        S21A       S12DB        S12A       S22DB        S22A
  0.020000000    0.000000    0.000000    0.000000    0.000000  -89.298309   45.808220   -7.273513  154.514679
  0.020200401    0.000000    0.000000    0.000000    0.000000  -89.993628   44.602486   -7.272298  154.271942
  0.020400802    0.000000    0.000000    0.000000    0.000000  -90.102177   45.356621   -7.271587  154.037598
  0.020601202    0.000000    0.000000    0.000000    0.000000  -89.360354   47.955425   -7.269698  153.785248
  0.020801603    0.000000    0.000000    0.000000    0.000000  -89.640739   41.877728   -7.268818  153.523102
  0.021002004    0.000000    0.000000    0.000000    0.000000  -89.946047   43.036789   -7.269016  153.268097
  0.021202405    0.000000    0.000000    0.000000    0.000000  -89.998235   42.366283   -7.270124  153.026505
  0.021402806    0.000000    0.000000    0.000000    0.000000  -89.890804   42.835037   -7.269192  152.789337
  0.021603206    0.000000    0.000000    0.000000    0.000000  -90.063902   41.852890   -7.270225  152.527969
  0.021803607    0.000000    0.000000    0.000000    0.000000  -90.342992   40.532806   -7.272411  152.262222
  0.022004008    0.000000    0.000000    0.000000    0.000000  -89.913911   37.883873   -7.269689  152.022644
  0.022204409    0.000000    0.000000    0.000000    0.000000  -90.526938   40.591022   -7.271227  151.778107
  0.022404810    0.000000    0.000000    0.000000    0.000000  -90.791084   40.399273   -7.272205  151.526962
  0.022605210    0.000000    0.000000    0.000000    0.000000  -90.875987   38.090813   -7.269020  151.247498
  0.022805611    0.000000    0.000000    0.000000    0.000000  -90.868807   39.737728   -7.266878  151.008453
  0.023006012    0.000000    0.000000    0.000000    0.000000  -90.807960   34.796898   -7.268586  150.769012
  0.023206413    0.000000    0.000000    0.000000    0.000000  -91.153457   38.628883   -7.270869  150.517792
  0.023406814    0.000000    0.000000    0.000000    0.000000  -91.080919   39.178486   -7.271211  150.258499
  0.023607214    0.000000    0.000000    0.000000    0.000000  -91.499321   36.817703   -7.272872  150.011520
  0.023807615    0.000000    0.000000    0.000000    0.000000  -91.134561   35.619186   -7.272204  149.766220
  0.024008016    0.000000    0.000000    0.000000    0.000000  -91.258758   37.729389   -7.271007  149.521759
  0.024208417    0.000000    0.000000    0.000000    0.000000  -91.447862   33.046223   -7.272026  149.267471
  0.024408818    0.000000    0.000000    0.000000    0.000000  -91.459163   33.714798   -7.272926  149.017548
  0.024609218    0.000000    0.000000    0.000000    0.000000  -91.598748   34.668652   -7.274352  148.762329
  0.024809619    0.000000    0.000000    0.000000    0.000000  -91.665405   31.128735   -7.271605  148.523499
  0.025010020    0.000000    0.000000    0.000000    0.000000  -91.475688   33.808052   -7.275177  148.279602
  0.025210421    0.000000    0.000000    0.000000    0.000000  -92.043228   34.065121   -7.274976  148.034805
  0.025410822    0.000000    0.000000    0.000000    0.000000  -92.163999   31.028217   -7.275316  147.777725
  0.025611222    0.000000    0.000000    0.000000    0.000000  -91.742099   30.641960   -7.274645  147.519119
  0.025811623    0.000000    0.000000    0.000000    0.000000  -92.132427   29.915262   -7.276011  147.261246
  0.026012024    0.000000    0.000000    0.000000    0.000000  -92.615270   31.347507   -7.278521  147.024475
  0.026212425    0.000000    0.000000    0.000000    0.000000  -92.454985   29.013233   -7.277366  146.758438
  0.026412826    0.000000    0.000000    0.000000    0.000000  -92.871568   27.948832   -7.276770  146.513367
  0.026613226    0.000000    0.000000    0.000000    0.000000  -93.260025   30.544510   -7.276675  146.253143
  0.026813627    0.000000    0.000000    0.000000    0.000000  -92.676581   35.448189   -7.276453  146.006943
  0.027014028    0.000000    0.000000    0.000000    0.000000  -93.194717   27.885733   -7.276346  145.775192
  0.027214429    0.000000    0.000000    0.000000    0.000000  -93.759314   29.267269   -7.276847  145.515335
  0.027414830    0.000000    0.000000    0.000000    0.000000  -93.078007   29.672747   -7.278622  145.257202
  0.027615230    0.000000    0.000000    0.000000    0.000000  -93.525754   24.207190   -7.278475  144.998428
  0.027815631    0.000000    0.000000    0.000000    0.000000  -93.725888   30.525511   -7.278287  144.760468
  0.028016032    0.000000    0.000000    0.000000    0.000000  -93.281444   26.276981   -7.278858  144.503754
  0.028216433    0.000000    0.000000    0.000000    0.000000  -93.872787   25.493706   -7.279607  144.261826
  0.028416834    0.000000    0.000000    0.000000    0.000000  -93.919528   30.622982   -7.279452  144.011017
  0.028617234    0.000000    0.000000    0.000000    0.000000  -94.022537   30.994518   -7.277775  143.753632
  0.028817635    0.000000    0.000000    0.000000    0.000000  -93.908154   23.995760   -7.279466  143.500305
  0.029018036    0.000000    0.000000    0.000000    0.000000  -94.088799   24.656544   -7.277619  143.255234
  0.029218437    0.000000    0.000000    0.000000    0.000000  -93.841670   28.014997   -7.278694  143.015015
  0.029418838    0.000000    0.000000    0.000000    0.000000  -94.518112   23.791924   -7.277395  142.774033
  0.029619238    0.000000    0.000000    0.000000    0.000000  -94.010274   27.321215   -7.277649  142.510193
  0.029819639    0.000000    0.000000    0.000000    0.000000  -94.569902   29.058834   -7.278209  142.267593
  0.030020040    0.000000    0.000000    0.000000    0.000000  -94.616286   24.189133   -7.279115  142.000366
  0.030220441    0.000000    0.000000    0.000000    0.000000  -94.516900   22.974852   -7.279502  141.763504
  0.030420842    0.000000    0.000000    0.000000    0.000000  -94.411306   23.921469   -7.278160  141.513062
  0.030621242    0.000000    0.000000    0.000000    0.000000  -95.014572   25.240765   -7.279548  141.258591
  0.030821643    0.000000    0.000000    0.000000    0.000000  -95.047726   25.873266   -7.279656  141.004700
  0.031022044    0.000000    0.000000    0.000000    0.000000  -95.278866   22.711786   -7.279110  140.745010
  0.031222445    0.000000    0.000000    0.000000    0.000000  -94.882661   20.616695   -7.263707  140.582413
  0.031422846    0.000000    0.000000    0.000000    0.000000  -93.993964   25.268143   -7.263792  140.335724
  0.031623246    0.000000    0.000000    0.000000    0.000000  -94.357197   23.682737   -7.265175  140.082214
  0.031823647    0.000000    0.000000    0.000000    0.000000  -94.627817   20.700777   -7.265421  139.848526
  0.032024048    0.000000    0.000000    0.000000    0.000000  -95.308648   26.165482   -7.264218  139.572495
  0.032224449    0.000000    0.000000    0.000000    0.000000  -94.828642   20.519100   -7.266518  139.330643
  0.032424850    0.000000    0.000000    0.000000    0.000000  -94.661581   20.946037   -7.264474  139.077789
  0.032625250    0.000000    0.000000    0.000000    0.000000  -94.645273   23.982338   -7.268883  138.834839
  0.032825651    0.000000    0.000000    0.000000    0.000000  -95.541161   22.082354   -7.266719  138.573227
  0.033026052    0.000000    0.000000    0.000000    0.000000  -94.909555   22.971319   -7.268839  138.327347
  0.033226453    0.000000    0.000000    0.000000    0.000000  -95.558440   24.849215   -7.265047  138.077881
  0.033426854    0.000000    0.000000    0.000000    0.000000  -95.160970   24.165682   -7.263641  137.834991
  0.033627254    0.000000    0.000000    0.000000    0.000000  -94.929013   23.564966   -7.268485  137.587280
  0.033827655    0.000000    0.000000    0.000000    0.000000  -95.906784   24.032867   -7.266137  137.331116
  0.034028056    0.000000    0.000000    0.000000    0.000000  -95.617503   21.018215   -7.266807  137.080276
  0.034228457    0.000000    0.000000    0.000000    0.000000  -95.598651   21.070074   -7.266976  136.831085
  0.034428858    0.000000    0.000000    0.000000    0.000000  -95.255246   20.618040   -7.265642  136.586441
  0.034629258    0.000000    0.000000    0.000000    0.000000  -95.623255   20.302645   -7.266213  136.327957
  0.034829659    0.000000    0.000000    0.000000    0.000000  -95.865526   20.300608   -7.268617  136.091217
  0.035030060    0.000000    0.000000    0.000000    0.000000  -96.376811   17.654755   -7.265909  135.841324
  0.035230461    0.000000    0.000000    0.000000    0.000000  -95.849343   25.247108   -7.267456  135.593964
  0.035430862    0.000000    0.000000    0.000000    0.000000  -96.188282   24.953587   -7.266221  135.343689
  0.035631262    0.000000    0.000000    0.000000    0.000000  -98.029387   21.063423   -7.268804  135.094955
  0.035831663    0.000000    0.000000    0.000000    0.000000  -96.428808   18.269190   -7.268767  134.836838
  0.036032064    0.000000    0.000000    0.000000    0.000000  -96.805365   28.629639   -7.269241  134.598267
  0.036232465    0.000000    0.000000    0.000000    0.000000  -96.831086   23.407995   -7.269100  134.353348
  0.036432866    0.000000    0.000000    0.000000    0.000000  -97.750613   21.705946   -7.266248  134.115143
  0.036633266    0.000000    0.000000    0.000000    0.000000  -96.205681   21.197382   -7.268131  133.873947
  0.036833667    0.000000    0.000000    0.000000    0.000000  -96.683849   20.777380   -7.268540  133.640244
  0.037034068    0.000000    0.000000    0.000000    0.000000  -96.673497   29.330036   -7.269775  133.374527
  0.037234469    0.000000    0.000000    0.000000    0.000000  -97.416766   19.241625   -7.267433  133.140549
  0.037434870    0.000000    0.000000    0.000000    0.000000  -97.930336   21.918489   -7.267031  132.885895
  0.037635270    0.000000    0.000000    0.000000    0.000000  -97.867576   24.071970   -7.269228  132.641083
  0.037835671    0.000000    0.000000    0.000000    0.000000  -96.967508   29.594872   -7.265353  132.409058
  0.038036072    0.000000    0.000000    0.000000    0.000000  -97.508218   22.993620   -7.266732  132.166519
  0.038236473    0.000000    0.000000    0.000000    0.000000  -97.790294   22.490480   -7.265622  131.895325
  0.038436874    0.000000    0.000000    0.000000    0.000000  -97.983919   19.068693   -7.267129  131.660858
  0.038637274    0.000000    0.000000    0.000000    0.000000  -97.706920   20.066914   -7.266198  131.412277
  0.038837675    0.000000    0.000000    0.000000    0.000000  -98.351626   25.257462   -7.268493  131.168716
  0.039038076    0.000000    0.000000    0.000000    0.000000  -97.466358   29.959324   -7.266507  130.917038
  0.039238477    0.000000    0.000000    0.000000    0.000000  -97.996653   22.678097   -7.266336  130.675827
  0.039438878    0.000000    0.000000    0.000000    0.000000  -97.199420   26.706303   -7.265416  130.441895
  0.039639278    0.000000    0.000000    0.000000    0.000000  -97.570285   28.835577   -7.267246  130.197296
  0.039839679    0.000000    0.000000    0.000000    0.000000 -100.839980   22.756985   -7.264859  129.940887
  0.040040080    0.000000    0.000000    0.000000    0.000000  -97.848068   29.818802   -7.264747  129.697678
  0.040240481    0.000000    0.000000    0.000000    0.000000  -98.214711   27.125351   -7.264459  129.457977
  0.040440882    0.000000    0.000000    0.000000    0.000000  -98.578187   31.429518   -7.263834  129.224808
  0.040641283    0.000000    0.000000    0.000000    0.000000  -98.725118   28.488960   -7.260682  128.983353
  0.040841683    0.000000    0.000000    0.000000    0.000000  -98.033102   25.005840   -7.263098  128.731369
  0.041042084    0.000000    0.000000    0.000000    0.000000  -99.600563   39.521317   -7.262111  128.495056
  0.041242485    0.000000    0.000000    0.000000    0.000000  -98.192904   25.675613   -7.262357  128.250656
  0.041442886    0.000000    0.000000    0.000000    0.000000  -98.220794   26.028118   -7.262227  128.008301
  0.041643287    0.000000    0.000000    0.000000    0.000000  -98.504799   22.625261   -7.261801  127.772774
  0.041843687    0.000000    0.000000    0.000000    0.000000  -98.358044   27.732782   -7.260982  127.512024
  0.042044088    0.000000    0.000000    0.000000    0.000000  -98.681718   30.039692   -7.260717  127.261147
  0.042244489    0.000000    0.000000    0.000000    0.000000  -99.945635   25.806086   -7.262378  127.026001
  0.042444890    0.000000    0.000000    0.000000    0.000000  -99.407424   30.429121   -7.260631  126.778488
  0.042645291    0.000000    0.000000    0.000000    0.000000  -99.650405   36.272423   -7.260234  126.525620
  0.042845691    0.000000    0.000000    0.000000    0.000000  -98.419168   15.559736   -7.259425  126.290146
  0.043046092    0.000000    0.000000    0.000000    0.000000  -98.635152   21.140463   -7.259826  126.029831
  0.043246493    0.000000    0.000000    0.000000    0.000000 -100.303701   30.179211   -7.257631  125.783264
  0.043446894    0.000000    0.000000    0.000000    0.000000  -99.096027   18.876732   -7.259579  125.521393
  0.043647295    0.000000    0.000000    0.000000    0.000000  -98.449728   30.546467   -7.258199  125.308655
  0.043847695    0.000000    0.000000    0.000000    0.000000  -98.905867   29.482668   -7.260370  125.046806
  0.044048096    0.000000    0.000000    0.000000    0.000000  -98.585497   24.397408   -7.258147  124.824081
  0.044248497    0.000000    0.000000    0.000000    0.000000  -99.183746   31.846416   -7.259492  124.554916
  0.044448898    0.000000    0.000000    0.000000    0.000000  -98.857163   29.560141   -7.259471  124.324715
  0.044649299    0.000000    0.000000    0.000000    0.000000  -98.390404   34.314735   -7.258881  124.073921
  0.044849699    0.000000    0.000000    0.000000    0.000000  -98.924851   27.781599   -7.257673  123.825951
  0.045050100    0.000000    0.000000    0.000000    0.000000  -98.604456   23.668180   -7.255774  123.569229
  0.045250501    0.000000    0.000000    0.000000    0.000000  -98.851906   27.446327   -7.251622  123.317848
  0.045450902    0.000000    0.000000    0.000000    0.000000  -98.879873   28.651934   -7.254175  123.071159
  0.045651303    0.000000    0.000000    0.000000    0.000000  -97.801860   36.571472   -7.254153  122.829781
  0.045851703    0.000000    0.000000    0.000000    0.000000  -99.097517   35.062218   -7.255137  122.582787
  0.046052104    0.000000    0.000000    0.000000    0.000000 -100.523796   36.230228   -7.255465  122.338684
  0.046252505    0.000000    0.000000    0.000000    0.000000  -98.360136   39.401089   -7.256073  122.102142
  0.046452906    0.000000    0.000000    0.000000    0.000000  -98.891545   31.595745   -7.257428  121.850578
  0.046653307    0.000000    0.000000    0.000000    0.000000  -99.820322   38.414268   -7.254930  121.592049
  0.046853707    0.000000    0.000000    0.000000    0.000000 -100.128134   37.703236   -7.253285  121.348953
  0.047054108    0.000000    0.000000    0.000000    0.000000  -99.101839   32.297939   -7.253532  121.099907
  0.047254509    0.000000    0.000000    0.000000    0.000000  -99.787606   26.916466   -7.251376  120.839256
  0.047454910    0.000000    0.000000    0.000000    0.000000  -98.821184   32.091324   -7.250568  120.591293
  0.047655311    0.000000    0.000000    0.000000    0.000000  -99.615445   34.895660   -7.248413  120.349670
  0.047855711    0.000000    0.000000    0.000000    0.000000 -100.430295   34.086266   -7.250672  120.091461
  0.048056112    0.000000    0.000000    0.000000    0.000000  -99.542921   38.874065   -7.249413  119.842087
  0.048256513    0.000000    0.000000    0.000000    0.000000 -100.054238   44.876270   -7.247817  119.607635
  0.048456914    0.000000    0.000000    0.000000    0.000000  -98.672804   28.048578   -7.247981  119.370041
  0.048657315    0.000000    0.000000    0.000000    0.000000  -98.793339   34.588066   -7.246884  119.133957
  0.048857715    0.000000    0.000000    0.000000    0.000000  -98.329192   32.009254   -7.247628  118.873047
  0.049058116    0.000000    0.000000    0.000000    0.000000 -100.861347   28.291771   -7.247078  118.645683
  0.049258517    0.000000    0.000000    0.000000    0.000000  -99.420986   30.307482   -7.248410  118.384010
  0.049458918    0.000000    0.000000    0.000000    0.000000 -100.461945   32.659786   -7.244550  118.137360
  0.049659319    0.000000    0.000000    0.000000    0.000000  -99.114747   27.611645   -7.243033  117.896370
  0.049859719    0.000000    0.000000    0.000000    0.000000  -98.261389   38.620350   -7.243007  117.649841
  0.050060120    0.000000    0.000000    0.000000    0.000000  -99.009156   33.917679   -7.246125  117.397690
  0.050260521    0.000000    0.000000    0.000000    0.000000  -99.322757   35.361938   -7.245081  117.153648
  0.050460922    0.000000    0.000000    0.000000    0.000000  -99.246555   30.819715   -7.241097  116.900642
  0.050661323    0.000000    0.000000    0.000000    0.000000  -98.192048   36.699303   -7.242155  116.661133
  0.050861723    0.000000    0.000000    0.000000    0.000000 -100.157348   44.039375   -7.243317  116.413139
  0.051062124    0.000000    0.000000    0.000000    0.000000  -99.785702   30.135296   -7.242444  116.169891
  0.051262525    0.000000    0.000000    0.000000    0.000000  -99.856740   40.602699   -7.240881  115.929085
  0.051462926    0.000000    0.000000    0.000000    0.000000  -99.698127   27.297890   -7.240587  115.692314
  0.051663327    0.000000    0.000000    0.000000    0.000000 -100.720763   32.906166   -7.238592  115.447311
  0.051863727    0.000000    0.000000    0.000000    0.000000  -98.738473   41.781597   -7.239915  115.197044
  0.052064128    0.000000    0.000000    0.000000    0.000000  -98.610994   25.475466   -7.235861  114.976807
  0.052264529    0.000000    0.000000    0.000000    0.000000  -99.466619   43.639244   -7.235576  114.719299
  0.052464930    0.000000    0.000000    0.000000    0.000000  -98.833657   38.864563   -7.236509  114.469597
  0.052665331    0.000000    0.000000    0.000000    0.000000  -98.787221   43.854378   -7.233092  114.231430
  0.052865731    0.000000    0.000000    0.000000    0.000000 -100.232558   34.723858   -7.233363  113.989716
