! Anritsu VNA Master:                     Model: MS2036C/10/77
! SN:                                  1601066
! /bd0/18may10/top50.s2p
! Existing Calibration Information:
! TYPE:                         Current Settings,       Active Cal Settings
! TIME:             	   05/10/2018 01:10:41 PM,    05/10/2018 01:05:27 PM
! INTERNAL TEMP:    	                   51.0 C,                    49.8 C
! # POINTS:         	                      492,                       492
! START FREQ:       	               20.000 MHz,                20.000 MHz
! STOP FREQ:        	          118.396 793 MHz,           118.396 793 MHz
! SOURCE POWER:     	                     High,                      High
! IFBW:             	                    50 Hz,                     50 Hz
! AVG FACTOR:       	                       1 ,                        1 
! REF PLANE 1:      	                     0 mm,                      0 mm
! REF PLANE 2:      	                     0 mm,                      0 mm
! CAL TYPE:         	                 Full S22,                  Full S22
! CAL METHOD:       	                     SOLT,                      SOLT
! CAL LINE TYPE:    	                     Coax,                      Coax
! DUT PORT 1:       	                K-Conn(M),                 K-Conn(M)
! DUT PORT 2:       	                K-Conn(M),                 K-Conn(M)
! CAL STATUS:       	        OK: Accuracy High,                        --
# GHZ S DB R 50.0
! FREQ.GHZ       S11DB        S11A       S21DB        S21A       S12DB        S12A       S22DB        S22A
  0.020000000    0.000000    0.000000    0.000000    0.000000  -89.680075   43.770496  -38.843901   50.987133
  0.020200401    0.000000    0.000000    0.000000    0.000000  -90.152811   41.628487  -38.806772   50.842144
  0.020400802    0.000000    0.000000    0.000000    0.000000  -89.904551   44.265781  -38.798624   50.668320
  0.020601202    0.000000    0.000000    0.000000    0.000000  -90.507377   38.579895  -38.661320   51.418728
  0.020801603    0.000000    0.000000    0.000000    0.000000  -90.711409   38.410675  -38.609449   51.134624
  0.021002004    0.000000    0.000000    0.000000    0.000000  -90.481597   40.781334  -38.512683   50.476299
  0.021202405    0.000000    0.000000    0.000000    0.000000  -90.867228   37.573452  -38.442488   51.082436
  0.021402806    0.000000    0.000000    0.000000    0.000000  -90.548198   38.356117  -38.449700   50.991776
  0.021603206    0.000000    0.000000    0.000000    0.000000  -90.904066   39.836899  -38.407833   50.799965
  0.021803607    0.000000    0.000000    0.000000    0.000000  -90.570134   39.147953  -38.330190   50.663284
  0.022004008    0.000000    0.000000    0.000000    0.000000  -90.873609   39.325497  -38.222924   50.905094
  0.022204409    0.000000    0.000000    0.000000    0.000000  -91.004591   37.966373  -38.255985   50.607891
  0.022404810    0.000000    0.000000    0.000000    0.000000  -91.505897   41.498466  -38.189561   50.430714
  0.022605210    0.000000    0.000000    0.000000    0.000000  -91.916590   38.274487  -38.097018   50.819817
  0.022805611    0.000000    0.000000    0.000000    0.000000  -91.776239   40.046021  -38.056608   50.500122
  0.023006012    0.000000    0.000000    0.000000    0.000000  -91.358511   39.708321  -38.022189   50.951195
  0.023206413    0.000000    0.000000    0.000000    0.000000  -91.413840   40.302643  -37.954614   50.612747
  0.023406814    0.000000    0.000000    0.000000    0.000000  -91.437434   38.880608  -37.890043   50.452736
  0.023607214    0.000000    0.000000    0.000000    0.000000  -91.387976   36.001945  -37.866620   50.022514
  0.023807615    0.000000    0.000000    0.000000    0.000000  -91.610631   34.608101  -37.865148   50.093773
  0.024008016    0.000000    0.000000    0.000000    0.000000  -92.201021   34.241245  -37.816945   50.297081
  0.024208417    0.000000    0.000000    0.000000    0.000000  -91.999865   35.392136  -37.722310   50.440025
  0.024408818    0.000000    0.000000    0.000000    0.000000  -92.158392   34.995354  -37.647026   50.002670
  0.024609218    0.000000    0.000000    0.000000    0.000000  -92.232951   34.474762  -37.607756   49.836361
  0.024809619    0.000000    0.000000    0.000000    0.000000  -92.482875   27.526384  -37.542818   50.009182
  0.025010020    0.000000    0.000000    0.000000    0.000000  -92.292214   32.431332  -37.564730   50.064548
  0.025210421    0.000000    0.000000    0.000000    0.000000  -92.811660   29.407564  -37.476533   49.670464
  0.025410822    0.000000    0.000000    0.000000    0.000000  -93.391278   34.299103  -37.441885   49.828709
  0.025611222    0.000000    0.000000    0.000000    0.000000  -92.547045   33.552486  -37.404755   49.868618
  0.025811623    0.000000    0.000000    0.000000    0.000000  -92.476739   34.889133  -37.360019   49.855968
  0.026012024    0.000000    0.000000    0.000000    0.000000  -93.374402   32.425369  -37.285804   49.035892
  0.026212425    0.000000    0.000000    0.000000    0.000000  -92.991472   28.220060  -37.278540   49.772659
  0.026412826    0.000000    0.000000    0.000000    0.000000  -92.441156   35.611664  -37.177528   49.233524
  0.026613226    0.000000    0.000000    0.000000    0.000000  -92.793411   33.195019  -37.214142   49.663197
  0.026813627    0.000000    0.000000    0.000000    0.000000  -93.967832   32.255363  -37.114183   49.286282
  0.027014028    0.000000    0.000000    0.000000    0.000000  -93.215691   31.189140  -37.094608   49.274086
  0.027214429    0.000000    0.000000    0.000000    0.000000  -93.569521   28.731283  -37.041178   49.240143
  0.027414830    0.000000    0.000000    0.000000    0.000000  -93.198976   34.242771  -36.968954   49.297047
  0.027615230    0.000000    0.000000    0.000000    0.000000  -93.396867   28.509289  -36.943096   49.071144
  0.027815631    0.000000    0.000000    0.000000    0.000000  -93.299255   33.654949  -36.945779   48.658245
  0.028016032    0.000000    0.000000    0.000000    0.000000  -93.824844   29.410883  -36.822051   49.025978
  0.028216433    0.000000    0.000000    0.000000    0.000000  -93.918285   29.675861  -36.820772   48.792599
  0.028416834    0.000000    0.000000    0.000000    0.000000  -93.563852   29.518541  -36.761194   48.826958
  0.028617234    0.000000    0.000000    0.000000    0.000000  -94.386326   32.992367  -36.708677   49.159454
  0.028817635    0.000000    0.000000    0.000000    0.000000  -93.803019   32.443310  -36.678475   48.926346
  0.029018036    0.000000    0.000000    0.000000    0.000000  -94.012198   26.935762  -36.650087   48.943695
  0.029218437    0.000000    0.000000    0.000000    0.000000  -94.029495   30.017864  -36.563189   48.510983
  0.029418838    0.000000    0.000000    0.000000    0.000000  -93.990117   33.789669  -36.577808   48.648876
  0.029619238    0.000000    0.000000    0.000000    0.000000  -94.211247   25.669907  -36.535926   48.632557
  0.029819639    0.000000    0.000000    0.000000    0.000000  -94.113877   29.297230  -36.529377   48.355789
  0.030020040    0.000000    0.000000    0.000000    0.000000  -94.689269   28.310589  -36.465081   48.261211
  0.030220441    0.000000    0.000000    0.000000    0.000000  -94.634602   26.468149  -36.428232   48.288273
  0.030420842    0.000000    0.000000    0.000000    0.000000  -95.077942   25.095287  -36.413263   48.156677
  0.030621242    0.000000    0.000000    0.000000    0.000000  -95.229980   24.504211  -36.373355   48.051865
  0.030821643    0.000000    0.000000    0.000000    0.000000  -95.258468   27.897541  -36.319885   48.021431
  0.031022044    0.000000    0.000000    0.000000    0.000000  -94.340646   31.738234  -36.272364   47.864944
  0.031222445    0.000000    0.000000    0.000000    0.000000  -94.944964   23.076061  -36.286353   47.869572
  0.031422846    0.000000    0.000000    0.000000    0.000000  -95.138118   25.396252  -36.249951   48.124435
  0.031623246    0.000000    0.000000    0.000000    0.000000  -95.447717   25.113668  -36.163582   47.791706
  0.031823647    0.000000    0.000000    0.000000    0.000000  -94.514123   24.368374  -36.118509   47.402927
  0.032024048    0.000000    0.000000    0.000000    0.000000  -95.563877   24.034328  -36.155619   47.289757
  0.032224449    0.000000    0.000000    0.000000    0.000000  -96.255651   21.547989  -36.071535   47.913734
  0.032424850    0.000000    0.000000    0.000000    0.000000  -95.708319   21.694918  -35.993975   47.069340
  0.032625250    0.000000    0.000000    0.000000    0.000000  -96.052772   22.641302  -35.958571   47.636375
  0.032825651    0.000000    0.000000    0.000000    0.000000  -95.181606   17.639917  -35.974300   47.298801
  0.033026052    0.000000    0.000000    0.000000    0.000000  -96.560886   22.067331  -35.883615   47.013424
  0.033226453    0.000000    0.000000    0.000000    0.000000  -94.666101   26.393616  -35.852607   47.026867
  0.033426854    0.000000    0.000000    0.000000    0.000000  -95.927333   19.713388  -35.841543   46.942909
  0.033627254    0.000000    0.000000    0.000000    0.000000  -95.901948   28.554150  -35.831790   46.922916
  0.033827655    0.000000    0.000000    0.000000    0.000000  -95.776698   24.052553  -35.738519   46.534351
  0.034028056    0.000000    0.000000    0.000000    0.000000  -96.442138   21.371830  -35.744547   46.657093
  0.034228457    0.000000    0.000000    0.000000    0.000000  -96.224234   18.396507  -35.705366   46.692398
  0.034428858    0.000000    0.000000    0.000000    0.000000  -95.880797   17.714134  -35.667156   46.631557
  0.034629258    0.000000    0.000000    0.000000    0.000000  -95.804413   19.411818  -35.638970   46.435917
  0.034829659    0.000000    0.000000    0.000000    0.000000  -96.744606   27.449928  -35.590282   46.511555
  0.035030060    0.000000    0.000000    0.000000    0.000000  -96.473667   21.900694  -35.602380   46.356110
  0.035230461    0.000000    0.000000    0.000000    0.000000  -96.189399   22.314627  -35.569690   46.232265
  0.035430862    0.000000    0.000000    0.000000    0.000000  -96.811464   24.497059  -35.516130   46.203651
  0.035631262    0.000000    0.000000    0.000000    0.000000  -96.740676   25.918707  -35.434668   46.197445
  0.035831663    0.000000    0.000000    0.000000    0.000000  -96.903888   21.309074  -35.505338   45.812595
  0.036032064    0.000000    0.000000    0.000000    0.000000  -96.025203   24.125103  -35.416262   45.675945
  0.036232465    0.000000    0.000000    0.000000    0.000000  -97.094413   25.802416  -35.380200   45.573166
  0.036432866    0.000000    0.000000    0.000000    0.000000  -97.492791   26.168552  -35.353890   45.600624
  0.036633266    0.000000    0.000000    0.000000    0.000000  -96.669070   17.744761  -35.366551   45.483860
  0.036833667    0.000000    0.000000    0.000000    0.000000  -96.640985   22.384296  -35.287343   45.244675
  0.037034068    0.000000    0.000000    0.000000    0.000000  -97.239548   18.372688  -35.259065   45.311954
  0.037234469    0.000000    0.000000    0.000000    0.000000  -97.391221   20.482269  -35.197689   45.261276
  0.037434870    0.000000    0.000000    0.000000    0.000000  -96.636704   32.054699  -35.228212   45.074612
  0.037635270    0.000000    0.000000    0.000000    0.000000  -97.392242   26.588507  -35.151825   45.015068
  0.037835671    0.000000    0.000000    0.000000    0.000000  -97.368344   23.685753  -35.129500   44.981266
  0.038036072    0.000000    0.000000    0.000000    0.000000  -97.149700   30.521704  -35.127795   44.865673
  0.038236473    0.000000    0.000000    0.000000    0.000000  -97.554737   22.424591  -35.048038   44.581444
  0.038436874    0.000000    0.000000    0.000000    0.000000  -97.644888   23.262106  -35.048906   44.614395
  0.038637274    0.000000    0.000000    0.000000    0.000000  -97.449641   21.564747  -35.036676   44.769604
  0.038837675    0.000000    0.000000    0.000000    0.000000  -98.656376   22.473225  -34.976023   44.299526
  0.039038076    0.000000    0.000000    0.000000    0.000000  -96.522511   20.342091  -35.021728   44.269562
  0.039238477    0.000000    0.000000    0.000000    0.000000  -97.294455   34.688965  -34.957124   44.208092
  0.039438878    0.000000    0.000000    0.000000    0.000000  -97.942089   21.551991  -34.921386   44.131634
  0.039639278    0.000000    0.000000    0.000000    0.000000  -98.845340   23.081839  -34.881657   44.172909
  0.039839679    0.000000    0.000000    0.000000    0.000000  -97.978259   29.592880  -34.916807   43.863293
  0.040040080    0.000000    0.000000    0.000000    0.000000  -98.648245   28.098753  -34.860102   43.877865
  0.040240481    0.000000    0.000000    0.000000    0.000000  -99.112705   25.810127  -34.760721   43.818588
  0.040440882    0.000000    0.000000    0.000000    0.000000  -97.996412   25.521864  -34.690832   43.716339
  0.040641283    0.000000    0.000000    0.000000    0.000000  -97.813156   19.316301  -34.734738   43.608822
  0.040841683    0.000000    0.000000    0.000000    0.000000  -98.016544   30.477772  -34.714679   43.364140
  0.041042084    0.000000    0.000000    0.000000    0.000000  -96.587072   24.720682  -34.694962   43.497898
  0.041242485    0.000000    0.000000    0.000000    0.000000  -97.267855   29.097048  -34.653629   43.408451
  0.041442886    0.000000    0.000000    0.000000    0.000000  -99.133315   31.300209  -34.647516   43.383530
  0.041643287    0.000000    0.000000    0.000000    0.000000  -97.741627   31.039558  -34.601968   42.957821
  0.041843687    0.000000    0.000000    0.000000    0.000000  -97.807682   28.046551  -34.597239   43.188965
  0.042044088    0.000000    0.000000    0.000000    0.000000  -98.252864   27.613474  -34.564513   42.988297
  0.042244489    0.000000    0.000000    0.000000    0.000000  -99.516183   39.355610  -34.495793   42.531700
  0.042444890    0.000000    0.000000    0.000000    0.000000  -98.618442   30.949465  -34.549540   42.652985
  0.042645291    0.000000    0.000000    0.000000    0.000000  -98.817662   22.171164  -34.479909   42.475643
  0.042845691    0.000000    0.000000    0.000000    0.000000  -99.083118   34.441101  -34.451264   42.283131
  0.043046092    0.000000    0.000000    0.000000    0.000000  -98.932635   19.927505  -34.449556   42.122669
  0.043246493    0.000000    0.000000    0.000000    0.000000  -97.200825   38.462463  -34.433130   42.090710
  0.043446894    0.000000    0.000000    0.000000    0.000000  -98.649193   25.178707  -34.347498   41.718204
  0.043647295    0.000000    0.000000    0.000000    0.000000  -99.779554   31.241173  -34.341722   41.785118
  0.043847695    0.000000    0.000000    0.000000    0.000000  -98.497430   26.100405  -34.299202   41.598740
  0.044048096    0.000000    0.000000    0.000000    0.000000 -100.003662   31.266188  -34.288859   41.365135
  0.044248497    0.000000    0.000000    0.000000    0.000000  -98.730673   33.790340  -34.258258   41.350895
  0.044448898    0.000000    0.000000    0.000000    0.000000  -98.289730   35.715569  -34.270971   41.369892
  0.044649299    0.000000    0.000000    0.000000    0.000000  -98.277148   35.049671  -34.235216   41.343853
  0.044849699    0.000000    0.000000    0.000000    0.000000  -98.222155   35.656277  -34.193926   40.945629
  0.045050100    0.000000    0.000000    0.000000    0.000000  -99.179268   33.440880  -34.178193   41.079712
  0.045250501    0.000000    0.000000    0.000000    0.000000  -98.964548   25.662443  -34.162888   41.057384
  0.045450902    0.000000    0.000000    0.000000    0.000000  -99.254467   32.212757  -34.124927   40.547703
  0.045651303    0.000000    0.000000    0.000000    0.000000  -99.547157   36.884647  -34.107201   40.799862
  0.045851703    0.000000    0.000000    0.000000    0.000000  -98.190070   31.552176  -34.096914   40.331371
  0.046052104    0.000000    0.000000    0.000000    0.000000  -98.603557   29.530703  -34.067660   40.260864
  0.046252505    0.000000    0.000000    0.000000    0.000000  -98.303932   24.983265  -34.035710   39.937996
  0.046452906    0.000000    0.000000    0.000000    0.000000  -99.221575   32.542885  -34.023495   40.031380
  0.046653307    0.000000    0.000000    0.000000    0.000000  -99.957414   36.570656  -33.978054   39.803810
  0.046853707    0.000000    0.000000    0.000000    0.000000  -98.908848   36.922768  -34.000838   39.839874
  0.047054108    0.000000    0.000000    0.000000    0.000000  -98.994816   28.176771  -33.977143   39.509018
  0.047254509    0.000000    0.000000    0.000000    0.000000  -99.933784   30.474314  -33.941747   39.621979
  0.047454910    0.000000    0.000000    0.000000    0.000000  -99.150678   31.445488  -33.903021   39.462017
  0.047655311    0.000000    0.000000    0.000000    0.000000  -99.050308   30.098539  -33.942027   39.286217
  0.047855711    0.000000    0.000000    0.000000    0.000000  -98.516729   33.284035  -33.841310   38.978931
  0.048056112    0.000000    0.000000    0.000000    0.000000  -99.408976   36.057598  -33.860376   38.995384
  0.048256513    0.000000    0.000000    0.000000    0.000000  -99.060391   34.064995  -33.830005   39.145943
  0.048456914    0.000000    0.000000    0.000000    0.000000  -98.476302   28.719843  -33.793968   38.743546
  0.048657315    0.000000    0.000000    0.000000    0.000000  -99.179926   32.849285  -33.784721   38.560890
  0.048857715    0.000000    0.000000    0.000000    0.000000  -99.864039   31.715740  -33.739062   38.453003
  0.049058116    0.000000    0.000000    0.000000    0.000000  -99.270231   28.786263  -33.756675   38.410240
  0.049258517    0.000000    0.000000    0.000000    0.000000  -99.156433   32.549160  -33.710959   38.425217
  0.049458918    0.000000    0.000000    0.000000    0.000000  -98.152072   27.929211  -33.697612   38.196835
  0.049659319    0.000000    0.000000    0.000000    0.000000  -99.482071   31.868477  -33.649495   38.107517
  0.049859719    0.000000    0.000000    0.000000    0.000000  -98.197259   35.575054  -33.684494   37.906338
  0.050060120    0.000000    0.000000    0.000000    0.000000 -100.024219   35.931454  -33.647422   37.759457
  0.050260521    0.000000    0.000000    0.000000    0.000000  -99.074815   34.225536  -33.623298   37.601067
  0.050460922    0.000000    0.000000    0.000000    0.000000  -99.950286   31.860384  -33.585660   37.312004
  0.050661323    0.000000    0.000000    0.000000    0.000000  -98.878958   34.794952  -33.580297   37.443073
  0.050861723    0.000000    0.000000    0.000000    0.000000  -99.495434   45.466652  -33.520372   37.256302
  0.051062124    0.000000    0.000000    0.000000    0.000000  -98.456210   42.430702  -33.530783   37.131615
  0.051262525    0.000000    0.000000    0.000000    0.000000  -98.882350   34.306763  -33.485784   37.112839
  0.051462926    0.000000    0.000000    0.000000    0.000000 -100.016450   25.970322  -33.529880   37.085835
  0.051663327    0.000000    0.000000    0.000000    0.000000  -99.051413   31.028666  -33.458983   36.813393
  0.051863727    0.000000    0.000000    0.000000    0.000000  -98.606385   28.559399  -33.438920   36.680279
  0.052064128    0.000000    0.000000    0.000000    0.000000  -98.919548   36.777836  -33.410150   36.744598
  0.052264529    0.000000    0.000000    0.000000    0.000000  -98.780702   36.290123  -33.385289   36.392765
  0.052464930    0.000000    0.000000    0.000000    0.000000  -98.837927   27.071138  -33.396576   36.275715
  0.052665331    0.000000    0.000000    0.000000    0.000000  -99.810492   35.013741  -33.340580   36.007275
  0.052865731    0.000000    0.000000    0.000000    0.000000  -98.641368   30.360300  -33.303718   36.084564
