! Anritsu VNA Master:                     Model: MS2036C/10/77
! SN:                                  1601066
! /bd0/18may09/b256.ns.m3.s2p
! Existing Calibration Information:
! TYPE:                         Current Settings,       Active Cal Settings
! TIME:             	   05/09/2018 07:41:41 PM,    05/09/2018 07:34:34 PM
! INTERNAL TEMP:    	                   53.3 C,                    52.0 C
! # POINTS:         	                      494,                       494
! START FREQ:       	               20.000 MHz,                20.000 MHz
! STOP FREQ:        	          118.797 594 MHz,           118.797 594 MHz
! SOURCE POWER:     	                     High,                      High
! IFBW:             	                    50 Hz,                     50 Hz
! AVG FACTOR:       	                       1 ,                        1 
! REF PLANE 1:      	                     0 mm,                      0 mm
! REF PLANE 2:      	                     0 mm,                      0 mm
! CAL TYPE:         	                 Full S22,                  Full S22
! CAL METHOD:       	                     SOLT,                      SOLT
! CAL LINE TYPE:    	                     Coax,                      Coax
! DUT PORT 1:       	                K-Conn(M),                 K-Conn(M)
! DUT PORT 2:       	                K-Conn(M),                 K-Conn(M)
! CAL STATUS:       	        OK: Accuracy High,                        --
# GHZ S DB R 50.0
! FREQ.GHZ       S11DB        S11A       S21DB        S21A       S12DB        S12A       S22DB        S22A
  0.020000000    0.000000    0.000000    0.000000    0.000000  -89.201171   35.757828   -0.631364 -126.955498
  0.020200401    0.000000    0.000000    0.000000    0.000000  -90.325912   32.623013   -0.634190 -128.423721
  0.020400802    0.000000    0.000000    0.000000    0.000000  -90.517792   32.314976   -0.637885 -129.921829
  0.020601202    0.000000    0.000000    0.000000    0.000000  -90.960601   35.272522   -0.643776 -131.424637
  0.020801603    0.000000    0.000000    0.000000    0.000000  -90.895986   35.990040   -0.647120 -132.965530
  0.021002004    0.000000    0.000000    0.000000    0.000000  -90.819690   32.694035   -0.649039 -134.507797
  0.021202405    0.000000    0.000000    0.000000    0.000000  -91.388632   37.735958   -0.654473 -136.060074
  0.021402806    0.000000    0.000000    0.000000    0.000000  -91.576287   38.110859   -0.656948 -137.609802
  0.021603206    0.000000    0.000000    0.000000    0.000000  -91.800162   41.164726   -0.662109 -139.141617
  0.021803607    0.000000    0.000000    0.000000    0.000000  -91.611900   39.037197   -0.666576 -140.683456
  0.022004008    0.000000    0.000000    0.000000    0.000000  -92.214548   40.957291   -0.672029 -142.242172
  0.022204409    0.000000    0.000000    0.000000    0.000000  -92.269314   41.936848   -0.680563 -143.817169
  0.022404810    0.000000    0.000000    0.000000    0.000000  -91.842984   40.634537   -0.686581 -145.409378
  0.022605210    0.000000    0.000000    0.000000    0.000000  -91.727194   44.336010   -0.691377 -147.007278
  0.022805611    0.000000    0.000000    0.000000    0.000000  -91.593638   41.464108   -0.693637 -148.623398
  0.023006012    0.000000    0.000000    0.000000    0.000000  -91.391782   45.598835   -0.699205 -150.226395
  0.023206413    0.000000    0.000000    0.000000    0.000000  -91.269550   40.651497   -0.703937 -151.827377
  0.023406814    0.000000    0.000000    0.000000    0.000000  -90.738277   41.972507   -0.713468 -153.420151
  0.023607214    0.000000    0.000000    0.000000    0.000000  -91.417842   45.771244   -0.722222 -155.024139
  0.023807615    0.000000    0.000000    0.000000    0.000000  -91.451047   36.560093   -0.733488 -156.659393
  0.024008016    0.000000    0.000000    0.000000    0.000000  -91.127007   37.428326   -0.742283 -158.317474
  0.024208417    0.000000    0.000000    0.000000    0.000000  -91.387094   37.702858   -0.750666 -159.986618
  0.024408818    0.000000    0.000000    0.000000    0.000000  -91.050805   35.432251   -0.758317 -161.660492
  0.024609218    0.000000    0.000000    0.000000    0.000000  -91.794025   31.500460   -0.767776 -163.344421
  0.024809619    0.000000    0.000000    0.000000    0.000000  -91.771259   32.131165   -0.779456 -165.018921
  0.025010020    0.000000    0.000000    0.000000    0.000000  -91.928037   29.366169   -0.791182 -166.705673
  0.025210421    0.000000    0.000000    0.000000    0.000000  -91.850826   27.761383   -0.802902 -168.415710
  0.025410822    0.000000    0.000000    0.000000    0.000000  -91.615468   25.290209   -0.817052 -170.118576
  0.025611222    0.000000    0.000000    0.000000    0.000000  -92.219634   29.627831   -0.829926 -171.853683
  0.025811623    0.000000    0.000000    0.000000    0.000000  -92.818019   28.306187   -0.843838 -173.602097
  0.026012024    0.000000    0.000000    0.000000    0.000000  -92.850336   29.170786   -0.857482 -175.345993
  0.026212425    0.000000    0.000000    0.000000    0.000000  -93.087571   24.855078   -0.871106 -177.112823
  0.026412826    0.000000    0.000000    0.000000    0.000000  -93.726648   24.346478   -0.888178 -178.887955
  0.026613226    0.000000    0.000000    0.000000    0.000000  -93.237543   25.713289   -0.905599  179.327164
  0.026813627    0.000000    0.000000    0.000000    0.000000  -94.047737   27.752762   -0.921554  177.532822
  0.027014028    0.000000    0.000000    0.000000    0.000000  -94.918096   26.311316   -0.940297  175.741852
  0.027214429    0.000000    0.000000    0.000000    0.000000  -94.389211   31.607422   -0.958844  173.939453
  0.027414830    0.000000    0.000000    0.000000    0.000000  -94.285788   34.186222   -0.979162  172.121552
  0.027615230    0.000000    0.000000    0.000000    0.000000  -94.817897   32.319344   -0.998502  170.299362
  0.027815631    0.000000    0.000000    0.000000    0.000000  -94.737920   28.898094   -1.020826  168.471481
  0.028016032    0.000000    0.000000    0.000000    0.000000  -94.340609   34.819511   -1.041993  166.622604
  0.028216433    0.000000    0.000000    0.000000    0.000000  -94.716800   35.177860   -1.063805  164.766922
  0.028416834    0.000000    0.000000    0.000000    0.000000  -94.013332   31.892008   -1.087130  162.910599
  0.028617234    0.000000    0.000000    0.000000    0.000000  -94.329929   32.774654   -1.110946  161.059708
  0.028817635    0.000000    0.000000    0.000000    0.000000  -94.582315   34.949181   -1.134324  159.208496
  0.029018036    0.000000    0.000000    0.000000    0.000000  -94.923979   33.361298   -1.162218  157.347443
  0.029218437    0.000000    0.000000    0.000000    0.000000  -94.383263   32.131104   -1.189238  155.486099
  0.029418838    0.000000    0.000000    0.000000    0.000000  -93.767583   30.942133   -1.217904  153.604599
  0.029619238    0.000000    0.000000    0.000000    0.000000  -93.664935   31.196745   -1.246872  151.721130
  0.029819639    0.000000    0.000000    0.000000    0.000000  -94.220007   30.869804   -1.276230  149.836380
  0.030020040    0.000000    0.000000    0.000000    0.000000  -93.753914   25.618166   -1.305990  147.935883
  0.030220441    0.000000    0.000000    0.000000    0.000000  -94.133817   29.460798   -1.334127  146.044922
  0.030420842    0.000000    0.000000    0.000000    0.000000  -94.200635   22.389139   -1.364037  144.163406
  0.030621242    0.000000    0.000000    0.000000    0.000000  -94.131763   26.099625   -1.396095  142.286987
  0.030821643    0.000000    0.000000    0.000000    0.000000  -94.579612   24.696100   -1.429220  140.387527
  0.031022044    0.000000    0.000000    0.000000    0.000000  -94.535914   22.295115   -1.460443  138.455917
  0.031222445    0.000000    0.000000    0.000000    0.000000  -93.803121   22.000465   -1.489074  136.545105
  0.031422846    0.000000    0.000000    0.000000    0.000000  -94.221316   24.136909   -1.523689  134.575546
  0.031623246    0.000000    0.000000    0.000000    0.000000  -94.871004   16.196657   -1.554984  132.612167
  0.031823647    0.000000    0.000000    0.000000    0.000000  -95.859814   18.353270   -1.589567  130.622025
  0.032024048    0.000000    0.000000    0.000000    0.000000  -95.142911   24.075487   -1.625545  128.637802
  0.032224449    0.000000    0.000000    0.000000    0.000000  -96.703553   23.514347   -1.662025  126.651649
  0.032424850    0.000000    0.000000    0.000000    0.000000  -95.383415   15.753392   -1.699907  124.632401
  0.032625250    0.000000    0.000000    0.000000    0.000000  -96.966094   21.753241   -1.735063  122.618141
  0.032825651    0.000000    0.000000    0.000000    0.000000  -96.282020   25.359161   -1.772932  120.571693
  0.033026052    0.000000    0.000000    0.000000    0.000000  -95.322191   20.396757   -1.812039  118.527634
  0.033226453    0.000000    0.000000    0.000000    0.000000  -96.331836   24.338564   -1.851662  116.459328
  0.033426854    0.000000    0.000000    0.000000    0.000000  -96.773790   28.004583   -1.891676  114.412720
  0.033627254    0.000000    0.000000    0.000000    0.000000  -96.227528   24.034405   -1.935046  112.372276
  0.033827655    0.000000    0.000000    0.000000    0.000000  -96.233628   24.344362   -1.976300  110.320351
  0.034028056    0.000000    0.000000    0.000000    0.000000  -95.356775   23.233463   -2.017384  108.249657
  0.034228457    0.000000    0.000000    0.000000    0.000000  -96.834440   21.211563   -2.063252  106.190575
  0.034428858    0.000000    0.000000    0.000000    0.000000  -96.626795   26.807289   -2.108512  104.088638
  0.034629258    0.000000    0.000000    0.000000    0.000000  -95.654121   25.514065   -2.153270  102.006424
  0.034829659    0.000000    0.000000    0.000000    0.000000  -96.619571   27.301109   -2.200747   99.925484
  0.035030060    0.000000    0.000000    0.000000    0.000000  -96.023277   26.916113   -2.247718   97.827148
  0.035230461    0.000000    0.000000    0.000000    0.000000  -96.347283   32.133018   -2.296553   95.746681
  0.035430862    0.000000    0.000000    0.000000    0.000000  -96.283966   25.697145   -2.346367   93.679146
  0.035631262    0.000000    0.000000    0.000000    0.000000  -96.735085   28.642010   -2.397588   91.581909
  0.035831663    0.000000    0.000000    0.000000    0.000000  -97.876052   34.310616   -2.445248   89.496834
  0.036032064    0.000000    0.000000    0.000000    0.000000  -95.252288   31.906836   -2.496501   87.409966
  0.036232465    0.000000    0.000000    0.000000    0.000000  -95.886449   30.800249   -2.545296   85.333626
  0.036432866    0.000000    0.000000    0.000000    0.000000  -96.283117   22.927776   -2.600406   83.220879
  0.036633266    0.000000    0.000000    0.000000    0.000000  -96.980856   21.529755   -2.652380   81.128479
  0.036833667    0.000000    0.000000    0.000000    0.000000  -97.117395   27.796440   -2.706941   79.038254
  0.037034068    0.000000    0.000000    0.000000    0.000000  -96.501995   16.498753   -2.760347   76.912262
  0.037234469    0.000000    0.000000    0.000000    0.000000  -95.924683   12.486782   -2.816551   74.818192
  0.037434870    0.000000    0.000000    0.000000    0.000000  -97.755698   24.260048   -2.878601   72.703964
  0.037635270    0.000000    0.000000    0.000000    0.000000  -97.132165   15.324806   -2.940828   70.592972
  0.037835671    0.000000    0.000000    0.000000    0.000000  -97.062657   18.727144   -3.013201   68.533882
  0.038036072    0.000000    0.000000    0.000000    0.000000  -97.180901   25.883766   -3.074003   66.532379
  0.038236473    0.000000    0.000000    0.000000    0.000000  -98.463852   26.244633   -3.123311   64.474831
  0.038436874    0.000000    0.000000    0.000000    0.000000  -98.194278   20.155399   -3.177706   62.386326
  0.038637274    0.000000    0.000000    0.000000    0.000000  -98.060691   32.087715   -3.230383   60.280926
  0.038837675    0.000000    0.000000    0.000000    0.000000  -97.869654   29.204561   -3.282120   58.148125
  0.039038076    0.000000    0.000000    0.000000    0.000000  -98.598027   21.105936   -3.335219   56.070892
  0.039238477    0.000000    0.000000    0.000000    0.000000  -97.462166   22.496792   -3.391512   53.967983
  0.039438878    0.000000    0.000000    0.000000    0.000000  -99.138902   25.682135   -3.443147   51.873081
  0.039639278    0.000000    0.000000    0.000000    0.000000  -98.638862   24.774794   -3.499449   49.781830
  0.039839679    0.000000    0.000000    0.000000    0.000000  -98.566460   32.183743   -3.554280   47.659714
  0.040040080    0.000000    0.000000    0.000000    0.000000  -97.850308   34.838062   -3.610527   45.555756
  0.040240481    0.000000    0.000000    0.000000    0.000000  -97.037201   34.848286   -3.664573   43.457272
  0.040440882    0.000000    0.000000    0.000000    0.000000  -97.894655   25.645067   -3.717915   41.375275
  0.040641283    0.000000    0.000000    0.000000    0.000000  -97.736926   27.804382   -3.773059   39.285660
  0.040841683    0.000000    0.000000    0.000000    0.000000  -97.163115   18.247169   -3.827389   37.235882
  0.041042084    0.000000    0.000000    0.000000    0.000000  -96.692821   34.238873   -3.882107   35.180447
  0.041242485    0.000000    0.000000    0.000000    0.000000  -96.517424   25.045591   -3.941840   33.100647
  0.041442886    0.000000    0.000000    0.000000    0.000000  -98.971905   33.048145   -3.995399   31.022108
  0.041643287    0.000000    0.000000    0.000000    0.000000  -97.140858   21.561644   -4.046924   28.956366
  0.041843687    0.000000    0.000000    0.000000    0.000000  -98.430646   27.566788   -4.103154   26.880133
  0.042044088    0.000000    0.000000    0.000000    0.000000  -97.989219   31.269886   -4.156264   24.834057
  0.042244489    0.000000    0.000000    0.000000    0.000000  -97.635150   27.775225   -4.210526   22.784580
  0.042444890    0.000000    0.000000    0.000000    0.000000  -96.777988   19.817202   -4.262320   20.751970
  0.042645291    0.000000    0.000000    0.000000    0.000000  -98.889503   23.159029   -4.317957   18.727663
  0.042845691    0.000000    0.000000    0.000000    0.000000  -99.952279   19.890682   -4.373042   16.708305
  0.043046092    0.000000    0.000000    0.000000    0.000000  -98.167916   21.078224   -4.425593   14.706270
  0.043246493    0.000000    0.000000    0.000000    0.000000  -98.433276   18.733202   -4.478795   12.683559
  0.043446894    0.000000    0.000000    0.000000    0.000000  -99.035006   33.569706   -4.529289   10.685927
  0.043647295    0.000000    0.000000    0.000000    0.000000  -98.670072   24.883780   -4.582793    8.691385
  0.043847695    0.000000    0.000000    0.000000    0.000000  -99.175313   29.377794   -4.634891    6.735668
  0.044048096    0.000000    0.000000    0.000000    0.000000  -99.799177   32.181992   -4.683775    4.786196
  0.044248497    0.000000    0.000000    0.000000    0.000000  -99.219759   31.137470   -4.735762    2.856971
  0.044448898    0.000000    0.000000    0.000000    0.000000  -99.098421   34.269650   -4.784577    0.946096
  0.044649299    0.000000    0.000000    0.000000    0.000000  -98.961982   23.201382   -4.831008   -0.964915
  0.044849699    0.000000    0.000000    0.000000    0.000000  -98.006862   27.960907   -4.877793   -2.851503
  0.045050100    0.000000    0.000000    0.000000    0.000000  -99.611940   39.101307   -4.920385   -4.738120
  0.045250501    0.000000    0.000000    0.000000    0.000000  -99.548046   28.603029   -4.960710   -6.621234
  0.045450902    0.000000    0.000000    0.000000    0.000000 -100.226906   23.826691   -4.998199   -8.470896
  0.045651303    0.000000    0.000000    0.000000    0.000000  -97.898357   32.795578   -5.039457  -10.310596
  0.045851703    0.000000    0.000000    0.000000    0.000000  -99.246570   26.717110   -5.076219  -12.123094
  0.046052104    0.000000    0.000000    0.000000    0.000000  -98.994125   31.639994   -5.110416  -13.944042
  0.046252505    0.000000    0.000000    0.000000    0.000000  -99.563253   40.327335   -5.145807  -15.746101
  0.046452906    0.000000    0.000000    0.000000    0.000000  -99.413480   37.143414   -5.178881  -17.547075
  0.046653307    0.000000    0.000000    0.000000    0.000000  -98.484991   28.419476   -5.211321  -19.364216
  0.046853707    0.000000    0.000000    0.000000    0.000000  -98.733223   29.141432   -5.243578  -21.168655
  0.047054108    0.000000    0.000000    0.000000    0.000000  -98.945909   28.962790   -5.274666  -22.985514
  0.047254509    0.000000    0.000000    0.000000    0.000000  -98.402479   28.004433   -5.306789  -24.797506
  0.047454910    0.000000    0.000000    0.000000    0.000000  -98.971596   30.241919   -5.335835  -26.608196
  0.047655311    0.000000    0.000000    0.000000    0.000000  -99.197471   27.198479   -5.369369  -28.375872
  0.047855711    0.000000    0.000000    0.000000    0.000000  -98.524012   19.079815   -5.400326  -30.142174
  0.048056112    0.000000    0.000000    0.000000    0.000000  -98.745029   23.466488   -5.431951  -31.885347
  0.048256513    0.000000    0.000000    0.000000    0.000000  -98.296155   25.051971   -5.464841  -33.637360
  0.048456914    0.000000    0.000000    0.000000    0.000000  -98.374552   20.145895   -5.494941  -35.378361
  0.048657315    0.000000    0.000000    0.000000    0.000000  -99.045899   22.969780   -5.522134  -37.140743
  0.048857715    0.000000    0.000000    0.000000    0.000000  -99.196272   24.452864   -5.549639  -38.892181
  0.049058116    0.000000    0.000000    0.000000    0.000000  -99.661285   31.841059   -5.576156  -40.627537
  0.049258517    0.000000    0.000000    0.000000    0.000000  -98.793218   31.548306   -5.599906  -42.364864
  0.049458918    0.000000    0.000000    0.000000    0.000000 -100.004944   35.106094   -5.624226  -44.083378
  0.049659319    0.000000    0.000000    0.000000    0.000000  -99.298939   29.147228   -5.646953  -45.787136
  0.049859719    0.000000    0.000000    0.000000    0.000000  -99.533753   36.398087   -5.673764  -47.493057
  0.050060120    0.000000    0.000000    0.000000    0.000000  -98.317283   32.899490   -5.695970  -49.192848
  0.050260521    0.000000    0.000000    0.000000    0.000000  -99.023346   32.958328   -5.714652  -50.882061
  0.050460922    0.000000    0.000000    0.000000    0.000000  -98.233123   36.705879   -5.735163  -52.561821
  0.050661323    0.000000    0.000000    0.000000    0.000000  -98.549748   25.956608   -5.750656  -54.229626
  0.050861723    0.000000    0.000000    0.000000    0.000000  -98.534681   34.133995   -5.764906  -55.887794
  0.051062124    0.000000    0.000000    0.000000    0.000000  -99.424697   22.228548   -5.781242  -57.550865
  0.051262525    0.000000    0.000000    0.000000    0.000000  -99.570257   36.631145   -5.797608  -59.155823
  0.051462926    0.000000    0.000000    0.000000    0.000000  -98.813715   37.535480   -5.813507  -60.757511
  0.051663327    0.000000    0.000000    0.000000    0.000000  -98.822164   35.503067   -5.824341  -62.375431
  0.051863727    0.000000    0.000000    0.000000    0.000000  -97.954809   36.846046   -5.839207  -63.960922
  0.052064128    0.000000    0.000000    0.000000    0.000000  -98.850011   41.547340   -5.849126  -65.542305
  0.052264529    0.000000    0.000000    0.000000    0.000000  -98.256609   41.225559   -5.859753  -67.097252
  0.052464930    0.000000    0.000000    0.000000    0.000000  -99.176787   32.977203   -5.869885  -68.622818
  0.052665331    0.000000    0.000000    0.000000    0.000000  -98.771609   39.507439   -5.879251  -70.140282
  0.052865731    0.000000    0.000000    0.000000    0.000000  -97.798648   29.037935   -5.893426  -71.679756
