! Anritsu VNA Master:                     Model: MS2036C/10/77
! SN:                                  1601066
! /card0/usr/20ohm3.s2p
! Existing Calibration Information:
! TYPE:                         Current Settings,       Active Cal Settings
! TIME:             	   12/20/2017 04:13:07 PM,    12/20/2017 04:05:21 PM
! INTERNAL TEMP:    	                   42.3 C,                    43.3 C
! # POINTS:         	                      501,                       501
! START FREQ:       	               10.000 MHz,                10.000 MHz
! STOP FREQ:        	              110.000 MHz,               110.000 MHz
! SOURCE POWER:     	                     High,                      High
! IFBW:             	                   100 Hz,                    100 Hz
! AVG FACTOR:       	                       1 ,                        1 
! REF PLANE 1:      	                     0 mm,                      0 mm
! REF PLANE 2:      	                     0 mm,                      0 mm
! CAL TYPE:         	                 Full S11,                  Full S11
! CAL METHOD:       	                     SOLT,                      SOLT
! CAL LINE TYPE:    	                     Coax,                      Coax
! DUT PORT 1:       	                K-Conn(F),                 K-Conn(F)
! DUT PORT 2:       	                K-Conn(F),                 K-Conn(F)
! CAL STATUS:       	        OK: Accuracy High,                        --
# GHZ S DB R 50.0
! FREQ.GHZ       S11DB        S11A       S21DB        S21A       S12DB        S12A       S22DB        S22A
  0.010000000   -7.205192  167.582184  -82.010931   80.614807    0.000000    0.000000    0.000000    0.000000
  0.010200000   -7.197430  167.375244  -82.557409   77.415421    0.000000    0.000000    0.000000    0.000000
  0.010400000   -7.199569  167.138397  -82.718468   75.099106    0.000000    0.000000    0.000000    0.000000
  0.010600000   -7.203221  166.852417  -82.964310   73.261238    0.000000    0.000000    0.000000    0.000000
  0.010800000   -7.203140  166.598511  -83.493687   71.791603    0.000000    0.000000    0.000000    0.000000
  0.011000000   -7.207601  166.324097  -83.453173   69.134911    0.000000    0.000000    0.000000    0.000000
  0.011200000   -7.200884  166.045990  -83.864915   67.380386    0.000000    0.000000    0.000000    0.000000
  0.011400000   -7.205065  165.817902  -84.133191   68.351433    0.000000    0.000000    0.000000    0.000000
  0.011600000   -7.204631  165.588104  -84.601833   64.963654    0.000000    0.000000    0.000000    0.000000
  0.011800000   -7.207374  165.300323  -84.913295   64.460426    0.000000    0.000000    0.000000    0.000000
  0.012000000   -7.207785  165.052277  -85.288049   60.336575    0.000000    0.000000    0.000000    0.000000
  0.012200000   -7.211902  164.787872  -85.046204   58.793716    0.000000    0.000000    0.000000    0.000000
  0.012400000   -7.210364  164.537720  -85.402489   59.857311    0.000000    0.000000    0.000000    0.000000
  0.012600000   -7.210207  164.307449  -86.550422   60.067245    0.000000    0.000000    0.000000    0.000000
  0.012800000   -7.212409  164.031082  -85.889305   61.481777    0.000000    0.000000    0.000000    0.000000
  0.013000000   -7.215989  163.794128  -86.677358   59.888470    0.000000    0.000000    0.000000    0.000000
  0.013200000   -7.213059  163.567154  -86.818412   59.842663    0.000000    0.000000    0.000000    0.000000
  0.013400000   -7.215860  163.303238  -86.859248   60.274246    0.000000    0.000000    0.000000    0.000000
  0.013600000   -7.210624  163.073914  -87.239343   57.660858    0.000000    0.000000    0.000000    0.000000
  0.013800000   -7.211358  162.843964  -86.954171   56.735233    0.000000    0.000000    0.000000    0.000000
  0.014000000   -7.210990  162.585815  -87.636836   57.936710    0.000000    0.000000    0.000000    0.000000
  0.014200000   -7.215774  162.341873  -87.799816   61.164223    0.000000    0.000000    0.000000    0.000000
  0.014400000   -7.216841  162.101532  -87.345860   60.481476    0.000000    0.000000    0.000000    0.000000
  0.014600000   -7.221210  161.878326  -88.000502   57.757057    0.000000    0.000000    0.000000    0.000000
  0.014800000   -7.219801  161.637863  -88.024393   57.442142    0.000000    0.000000    0.000000    0.000000
  0.015000000   -7.225355  161.387222  -87.795195   56.049194    0.000000    0.000000    0.000000    0.000000
  0.015200000   -7.227091  161.136139  -87.689816   57.454472    0.000000    0.000000    0.000000    0.000000
  0.015400000   -7.228019  160.858719  -88.140448   55.349464    0.000000    0.000000    0.000000    0.000000
  0.015600000   -7.231447  160.625916  -87.718931   54.341564    0.000000    0.000000    0.000000    0.000000
  0.015800000   -7.233097  160.383499  -88.115784   53.303898    0.000000    0.000000    0.000000    0.000000
  0.016000000   -7.237625  160.140488  -88.731157   53.474411    0.000000    0.000000    0.000000    0.000000
  0.016200000   -7.234967  159.884460  -88.002213   52.220139    0.000000    0.000000    0.000000    0.000000
  0.016400000   -7.239376  159.640930  -88.569769   45.670052    0.000000    0.000000    0.000000    0.000000
  0.016600000   -7.238386  159.388763  -88.439311   46.991043    0.000000    0.000000    0.000000    0.000000
  0.016800000   -7.240364  159.157974  -88.692781   44.572464    0.000000    0.000000    0.000000    0.000000
  0.017000000   -7.240534  158.894165  -88.964860   49.505711    0.000000    0.000000    0.000000    0.000000
  0.017200000   -7.238318  158.659088  -88.624244   47.857853    0.000000    0.000000    0.000000    0.000000
  0.017400000   -7.239835  158.387802  -88.738645   43.121830    0.000000    0.000000    0.000000    0.000000
  0.017600000   -7.241208  158.151230  -89.371474   43.195644    0.000000    0.000000    0.000000    0.000000
  0.017800000   -7.239196  157.872177  -88.810217   40.013260    0.000000    0.000000    0.000000    0.000000
  0.018000000   -7.238551  157.629166  -89.583391   43.563625    0.000000    0.000000    0.000000    0.000000
  0.018200000   -7.240601  157.380966  -90.312638   40.585323    0.000000    0.000000    0.000000    0.000000
  0.018400000   -7.240415  157.129379  -90.273765   36.590691    0.000000    0.000000    0.000000    0.000000
  0.018600000   -7.241920  156.901840  -90.109530   36.763992    0.000000    0.000000    0.000000    0.000000
  0.018800000   -7.241404  156.620834  -90.136218   34.879780    0.000000    0.000000    0.000000    0.000000
  0.019000000   -7.235750  156.401718  -91.151427   40.817711    0.000000    0.000000    0.000000    0.000000
  0.019200000   -7.240314  156.137054  -91.285720   39.251297    0.000000    0.000000    0.000000    0.000000
  0.019400000   -7.239986  155.893066  -90.997339   34.278877    0.000000    0.000000    0.000000    0.000000
  0.019600000   -7.242390  155.665680  -91.191249   39.530144    0.000000    0.000000    0.000000    0.000000
  0.019800000   -7.240876  155.415665  -91.637642   36.862068    0.000000    0.000000    0.000000    0.000000
  0.020000000   -7.238807  155.182465  -91.217032   36.572418    0.000000    0.000000    0.000000    0.000000
  0.020200000   -7.241893  154.941330  -91.151232   34.030525    0.000000    0.000000    0.000000    0.000000
  0.020400000   -7.237331  154.686798  -91.491708   37.255161    0.000000    0.000000    0.000000    0.000000
  0.020600000   -7.234200  154.462830  -92.813844   38.891335    0.000000    0.000000    0.000000    0.000000
  0.020800000   -7.233555  154.221481  -92.092202   36.538990    0.000000    0.000000    0.000000    0.000000
  0.021000000   -7.231788  153.963776  -91.328814   40.929901    0.000000    0.000000    0.000000    0.000000
  0.021200000   -7.235576  153.713089  -92.268482   39.854427    0.000000    0.000000    0.000000    0.000000
  0.021400000   -7.233771  153.492584  -92.068966   36.715069    0.000000    0.000000    0.000000    0.000000
  0.021600000   -7.235423  153.279877  -92.756700   35.938271    0.000000    0.000000    0.000000    0.000000
  0.021800000   -7.241683  153.030670  -91.659003   37.003067    0.000000    0.000000    0.000000    0.000000
  0.022000000   -7.246839  152.821274  -91.569019   33.734074    0.000000    0.000000    0.000000    0.000000
  0.022200000   -7.242468  152.574997  -92.265187   37.780376    0.000000    0.000000    0.000000    0.000000
  0.022400000   -7.239773  152.305496  -92.554273   35.727413    0.000000    0.000000    0.000000    0.000000
  0.022600000   -7.243836  152.070221  -92.324492   31.859762    0.000000    0.000000    0.000000    0.000000
  0.022800000   -7.249319  151.851807  -92.080875   37.242233    0.000000    0.000000    0.000000    0.000000
  0.023000000   -7.249813  151.619247  -93.107506   27.988335    0.000000    0.000000    0.000000    0.000000
  0.023200000   -7.244705  151.365570  -92.740688   34.867558    0.000000    0.000000    0.000000    0.000000
  0.023400000   -7.248318  151.143143  -92.558184   30.282368    0.000000    0.000000    0.000000    0.000000
  0.023600000   -7.247203  150.877411  -93.017269   27.826214    0.000000    0.000000    0.000000    0.000000
  0.023800000   -7.253451  150.614639  -93.076297   28.188944    0.000000    0.000000    0.000000    0.000000
  0.024000000   -7.247179  150.373199  -92.819238   26.824558    0.000000    0.000000    0.000000    0.000000
  0.024200000   -7.248222  150.104736  -93.338556   31.599850    0.000000    0.000000    0.000000    0.000000
  0.024400000   -7.250635  149.841827  -94.365778   19.646358    0.000000    0.000000    0.000000    0.000000
  0.024600000   -7.254490  149.561310  -93.451313   26.537178    0.000000    0.000000    0.000000    0.000000
  0.024800000   -7.250816  149.305527  -93.814938   32.136433    0.000000    0.000000    0.000000    0.000000
  0.025000000   -7.247778  149.072189  -93.553340   14.923422    0.000000    0.000000    0.000000    0.000000
  0.025200000   -7.250172  148.845764  -94.477544   22.783710    0.000000    0.000000    0.000000    0.000000
  0.025400000   -7.249686  148.611862  -94.267112   38.259583    0.000000    0.000000    0.000000    0.000000
  0.025600000   -7.254504  148.391525  -93.369381   25.619303    0.000000    0.000000    0.000000    0.000000
  0.025800000   -7.252261  148.195450  -95.547329   23.129593    0.000000    0.000000    0.000000    0.000000
  0.026000000   -7.253876  147.958054  -95.989752   26.901003    0.000000    0.000000    0.000000    0.000000
  0.026200000   -7.256533  147.726105  -94.362425   22.948603    0.000000    0.000000    0.000000    0.000000
  0.026400000   -7.258100  147.476044  -95.114360   23.890627    0.000000    0.000000    0.000000    0.000000
  0.026600000   -7.259917  147.225571  -95.207579   18.156881    0.000000    0.000000    0.000000    0.000000
  0.026800000   -7.260475  146.984253  -95.066426   19.229692    0.000000    0.000000    0.000000    0.000000
  0.027000000   -7.263550  146.730240  -95.458166   27.244894    0.000000    0.000000    0.000000    0.000000
  0.027200000   -7.261384  146.448563  -95.270717   21.984547    0.000000    0.000000    0.000000    0.000000
  0.027400000   -7.258133  146.185699  -97.169831   27.989225    0.000000    0.000000    0.000000    0.000000
  0.027600000   -7.257265  145.905838  -95.520344   29.244619    0.000000    0.000000    0.000000    0.000000
  0.027800000   -7.254175  145.667465  -96.124025   22.709991    0.000000    0.000000    0.000000    0.000000
  0.028000000   -7.253619  145.388184  -96.302331   25.064947    0.000000    0.000000    0.000000    0.000000
  0.028200000   -7.254379  145.173737  -95.447953   18.945793    0.000000    0.000000    0.000000    0.000000
  0.028400000   -7.247629  144.915543  -95.830458   26.898701    0.000000    0.000000    0.000000    0.000000
  0.028600000   -7.248270  144.718124  -95.294575   24.012119    0.000000    0.000000    0.000000    0.000000
  0.028800000   -7.243428  144.505478  -95.662377   16.389227    0.000000    0.000000    0.000000    0.000000
  0.029000000   -7.245775  144.304733  -96.887602   21.952906    0.000000    0.000000    0.000000    0.000000
  0.029200000   -7.247394  144.112869  -95.659767   16.731340    0.000000    0.000000    0.000000    0.000000
  0.029400000   -7.243656  143.930862  -96.376445   24.403532    0.000000    0.000000    0.000000    0.000000
  0.029600000   -7.248045  143.711395  -96.329106   22.301786    0.000000    0.000000    0.000000    0.000000
  0.029800000   -7.250703  143.490036  -96.351631   22.725866    0.000000    0.000000    0.000000    0.000000
  0.030000000   -7.257741  143.243027  -96.167255    9.402412    0.000000    0.000000    0.000000    0.000000
  0.030200000   -7.256286  142.969879  -97.689028   21.414984    0.000000    0.000000    0.000000    0.000000
  0.030400000   -7.259051  142.732269  -96.938392   12.305180    0.000000    0.000000    0.000000    0.000000
  0.030600000   -7.259349  142.452255  -96.621350   16.294565    0.000000    0.000000    0.000000    0.000000
  0.030800000   -7.261240  142.200653  -96.215267   11.261166    0.000000    0.000000    0.000000    0.000000
  0.031000000   -7.264107  141.953476  -97.630094   14.571751    0.000000    0.000000    0.000000    0.000000
  0.031200000   -7.257643  141.748123  -97.091330    9.177536    0.000000    0.000000    0.000000    0.000000
  0.031400000   -7.259242  141.469498  -95.420409   22.368891    0.000000    0.000000    0.000000    0.000000
  0.031600000   -7.263463  141.181900  -97.380285   10.340290    0.000000    0.000000    0.000000    0.000000
  0.031800000   -7.261335  140.917847  -97.043513   17.157696    0.000000    0.000000    0.000000    0.000000
  0.032000000   -7.257506  140.667786  -97.698424   12.381109    0.000000    0.000000    0.000000    0.000000
  0.032200000   -7.255487  140.418137  -96.251848   22.385365    0.000000    0.000000    0.000000    0.000000
  0.032400000   -7.250352  140.201370  -97.470912    8.362155    0.000000    0.000000    0.000000    0.000000
  0.032600000   -7.241632  139.969925  -97.696946    1.259688    0.000000    0.000000    0.000000    0.000000
  0.032800000   -7.237761  139.745132  -98.723670   12.945124    0.000000    0.000000    0.000000    0.000000
  0.033000000   -7.237350  139.503464  -98.619372   10.995390    0.000000    0.000000    0.000000    0.000000
  0.033200000   -7.239353  139.301483  -99.896752   11.851232    0.000000    0.000000    0.000000    0.000000
  0.033400000   -7.237585  139.109192  -98.449628   20.345030    0.000000    0.000000    0.000000    0.000000
  0.033600000   -7.242824  138.887650  -98.847720    9.235817    0.000000    0.000000    0.000000    0.000000
  0.033800000   -7.247498  138.681549  -97.857915   14.583333    0.000000    0.000000    0.000000    0.000000
  0.034000000   -7.251278  138.433960  -98.007576   12.830791    0.000000    0.000000    0.000000    0.000000
  0.034200000   -7.257651  138.153763  -99.851101   15.616751    0.000000    0.000000    0.000000    0.000000
  0.034400000   -7.257005  137.883331  -99.473246   -5.885890    0.000000    0.000000    0.000000    0.000000
  0.034600000   -7.259736  137.625641  -97.712037    7.150792    0.000000    0.000000    0.000000    0.000000
  0.034800000   -7.261749  137.361374 -100.381396   18.309999    0.000000    0.000000    0.000000    0.000000
  0.035000000   -7.264476  137.114227  -97.419833   13.175065    0.000000    0.000000    0.000000    0.000000
  0.035200000   -7.261232  136.822403  -98.317005   16.227310    0.000000    0.000000    0.000000    0.000000
  0.035400000   -7.257042  136.551315  -97.798761    5.877543    0.000000    0.000000    0.000000    0.000000
  0.035600000   -7.258928  136.323563  -98.722735   14.518631    0.000000    0.000000    0.000000    0.000000
  0.035800000   -7.253963  136.051086  -97.992581    9.313869    0.000000    0.000000    0.000000    0.000000
  0.036000000   -7.245670  135.762024  -98.786175    9.841464    0.000000    0.000000    0.000000    0.000000
  0.036200000   -7.243330  135.563873  -98.439420   -1.946377    0.000000    0.000000    0.000000    0.000000
  0.036400000   -7.235472  135.321411  -99.868369   22.864725    0.000000    0.000000    0.000000    0.000000
  0.036600000   -7.229391  135.115097 -101.111491    6.825591    0.000000    0.000000    0.000000    0.000000
  0.036800000   -7.228277  134.890961  -99.775245   11.285789    0.000000    0.000000    0.000000    0.000000
  0.037000000   -7.229921  134.662018  -99.605471    6.677656    0.000000    0.000000    0.000000    0.000000
  0.037200000   -7.227694  134.469360  -99.153238   13.308963    0.000000    0.000000    0.000000    0.000000
  0.037400000   -7.234216  134.229767  -98.610983    9.959445    0.000000    0.000000    0.000000    0.000000
  0.037600000   -7.234063  134.028687  -99.143142    8.077360    0.000000    0.000000    0.000000    0.000000
  0.037800000   -7.240759  133.770035  -99.179537    8.930781    0.000000    0.000000    0.000000    0.000000
  0.038000000   -7.239318  133.511169  -98.436888    3.007989    0.000000    0.000000    0.000000    0.000000
  0.038200000   -7.245148  133.260040  -99.153760   -6.798516    0.000000    0.000000    0.000000    0.000000
  0.038400000   -7.247927  133.003433  -99.040742   -2.846367    0.000000    0.000000    0.000000    0.000000
  0.038600000   -7.250095  132.749237 -101.089799   17.873217    0.000000    0.000000    0.000000    0.000000
  0.038800000   -7.249435  132.478851  -99.500226   16.286671    0.000000    0.000000    0.000000    0.000000
  0.039000000   -7.248500  132.257217  -99.659313    3.919434    0.000000    0.000000    0.000000    0.000000
  0.039200000   -7.252712  132.011383 -100.167802    7.616803    0.000000    0.000000    0.000000    0.000000
  0.039400000   -7.239909  131.719879 -102.960162   18.898539    0.000000    0.000000    0.000000    0.000000
  0.039600000   -7.241987  131.474411 -102.442538    3.557528    0.000000    0.000000    0.000000    0.000000
  0.039800000   -7.237751  131.202728 -101.171683   19.763153    0.000000    0.000000    0.000000    0.000000
  0.040000000   -7.225821  130.972244  -99.982204   -1.917045    0.000000    0.000000    0.000000    0.000000
  0.040200000   -7.227206  130.710236 -101.119464   23.206369    0.000000    0.000000    0.000000    0.000000
  0.040400000   -7.220094  130.511200  -98.541494   20.515429    0.000000    0.000000    0.000000    0.000000
  0.040600000   -7.215526  130.344543  -99.190893    4.588808    0.000000    0.000000    0.000000    0.000000
  0.040800000   -7.220188  130.151886 -100.636925   13.117219    0.000000    0.000000    0.000000    0.000000
  0.041000000   -7.226081  129.969452  -98.238933    8.912164    0.000000    0.000000    0.000000    0.000000
  0.041200000   -7.227720  129.751907 -100.743492    5.090349    0.000000    0.000000    0.000000    0.000000
  0.041400000   -7.235533  129.534225  -97.833592    9.183001    0.000000    0.000000    0.000000    0.000000
  0.041600000   -7.244535  129.313339 -100.342660   18.880247    0.000000    0.000000    0.000000    0.000000
  0.041800000   -7.251644  129.031982 -101.519644    4.579737    0.000000    0.000000    0.000000    0.000000
  0.042000000   -7.254520  128.752899  -99.201140   10.956535    0.000000    0.000000    0.000000    0.000000
  0.042200000   -7.257968  128.511139 -100.043633    9.611150    0.000000    0.000000    0.000000    0.000000
  0.042400000   -7.255264  128.222702 -100.915135   15.577447    0.000000    0.000000    0.000000    0.000000
  0.042600000   -7.261401  127.985420 -102.912419    5.706735    0.000000    0.000000    0.000000    0.000000
  0.042800000   -7.258900  127.689949 -103.076248   -7.701663    0.000000    0.000000    0.000000    0.000000
