! Anritsu VNA Master:                     Model: MS2036C/10/77
! SN:                                  1601066
! /card0/usr/msr1.s2p
! Existing Calibration Information:
! TYPE:                         Current Settings,       Active Cal Settings
! TIME:             	   12/20/2017 03:58:31 PM,    12/20/2017 03:36:34 PM
! INTERNAL TEMP:    	                   44.0 C,                    44.5 C
! # POINTS:         	                      501,                       501
! START FREQ:       	               10.000 MHz,                10.000 MHz
! STOP FREQ:        	              110.000 MHz,               110.000 MHz
! SOURCE POWER:     	                     High,                      High
! IFBW:             	                   100 Hz,                    100 Hz
! AVG FACTOR:       	                       1 ,                        1 
! REF PLANE 1:      	                     0 mm,                      0 mm
! REF PLANE 2:      	                     0 mm,                      0 mm
! CAL TYPE:         	                 Full S11,                  Full S11
! CAL METHOD:       	                     SOLT,                      SOLT
! CAL LINE TYPE:    	                     Coax,                      Coax
! DUT PORT 1:       	                K-Conn(F),                 K-Conn(F)
! DUT PORT 2:       	                K-Conn(F),                 K-Conn(F)
! CAL STATUS:       	        OK: Accuracy High,                        --
# GHZ S DB R 50.0
! FREQ.GHZ       S11DB        S11A       S21DB        S21A       S12DB        S12A       S22DB        S22A
  0.010000000   -0.606254  -58.356796  -84.728563   84.651421    0.000000    0.000000    0.000000    0.000000
  0.010200000   -0.594044  -59.546722  -84.490683   82.310974    0.000000    0.000000    0.000000    0.000000
  0.010400000   -0.593657  -60.803219  -84.349817   84.329170    0.000000    0.000000    0.000000    0.000000
  0.010600000   -0.598868  -62.034019  -83.895890   82.518883    0.000000    0.000000    0.000000    0.000000
  0.010800000   -0.599391  -63.304626  -84.432676   85.000282    0.000000    0.000000    0.000000    0.000000
  0.011000000   -0.604023  -64.552475  -84.214953   81.881104    0.000000    0.000000    0.000000    0.000000
  0.011200000   -0.608508  -65.822563  -83.492735   83.474075    0.000000    0.000000    0.000000    0.000000
  0.011400000   -0.602673  -67.070389  -83.782892   78.545403    0.000000    0.000000    0.000000    0.000000
  0.011600000   -0.605043  -68.319000  -83.879170   77.189240    0.000000    0.000000    0.000000    0.000000
  0.011800000   -0.609018  -69.574677  -83.416794   74.928795    0.000000    0.000000    0.000000    0.000000
  0.012000000   -0.610277  -70.836266  -84.079393   73.312004    0.000000    0.000000    0.000000    0.000000
  0.012200000   -0.614607  -72.148193  -84.081060   68.051125    0.000000    0.000000    0.000000    0.000000
  0.012400000   -0.609474  -73.428490  -83.840925   65.286598    0.000000    0.000000    0.000000    0.000000
  0.012600000   -0.606933  -74.720016  -83.771266   63.237606    0.000000    0.000000    0.000000    0.000000
  0.012800000   -0.608407  -75.993492  -84.353709   62.031940    0.000000    0.000000    0.000000    0.000000
  0.013000000   -0.603368  -77.257927  -84.843353   55.864204    0.000000    0.000000    0.000000    0.000000
  0.013200000   -0.604766  -78.547440  -84.822566   58.363434    0.000000    0.000000    0.000000    0.000000
  0.013400000   -0.605914  -79.852654  -85.214622   54.223747    0.000000    0.000000    0.000000    0.000000
  0.013600000   -0.600880  -81.108177  -85.672031   49.968204    0.000000    0.000000    0.000000    0.000000
  0.013800000   -0.599210  -82.428673  -85.981527   50.241238    0.000000    0.000000    0.000000    0.000000
  0.014000000   -0.600261  -83.717102  -86.735855   49.003067    0.000000    0.000000    0.000000    0.000000
  0.014200000   -0.601401  -85.031784  -86.848797   48.134922    0.000000    0.000000    0.000000    0.000000
  0.014400000   -0.602018  -86.325203  -87.248792   45.264328    0.000000    0.000000    0.000000    0.000000
  0.014600000   -0.604298  -87.615631  -87.829047   45.221817    0.000000    0.000000    0.000000    0.000000
  0.014800000   -0.608986  -88.950958  -87.535725   48.193180    0.000000    0.000000    0.000000    0.000000
  0.015000000   -0.607892  -90.299660  -88.410832   50.780792    0.000000    0.000000    0.000000    0.000000
  0.015200000   -0.606790  -91.589996  -88.828624   46.838936    0.000000    0.000000    0.000000    0.000000
  0.015400000   -0.603797  -92.891228  -88.912771   47.184986    0.000000    0.000000    0.000000    0.000000
  0.015600000   -0.608314  -94.265472  -88.973358   53.012291    0.000000    0.000000    0.000000    0.000000
  0.015800000   -0.599720  -95.524750  -89.729899   52.824207    0.000000    0.000000    0.000000    0.000000
  0.016000000   -0.598931  -96.825554  -89.690736   53.940617    0.000000    0.000000    0.000000    0.000000
  0.016200000   -0.594707  -98.161613  -89.322449   52.860184    0.000000    0.000000    0.000000    0.000000
  0.016400000   -0.595823  -99.523422  -88.942328   56.227802    0.000000    0.000000    0.000000    0.000000
  0.016600000   -0.590394 -100.859138  -89.236425   52.454323    0.000000    0.000000    0.000000    0.000000
  0.016800000   -0.584859 -102.257889  -89.491219   57.112556    0.000000    0.000000    0.000000    0.000000
  0.017000000   -0.582666 -103.613754  -88.951593   49.094921    0.000000    0.000000    0.000000    0.000000
  0.017200000   -0.581584 -104.992859  -88.719304   49.958435    0.000000    0.000000    0.000000    0.000000
  0.017400000   -0.583731 -106.330940  -88.987174   55.052998    0.000000    0.000000    0.000000    0.000000
  0.017600000   -0.586341 -107.697510  -88.962641   50.705753    0.000000    0.000000    0.000000    0.000000
  0.017800000   -0.588778 -109.073700  -89.000852   51.641190    0.000000    0.000000    0.000000    0.000000
  0.018000000   -0.592559 -110.464859  -89.428690   47.461773    0.000000    0.000000    0.000000    0.000000
  0.018200000   -0.595753 -111.882164  -89.531812   44.889290    0.000000    0.000000    0.000000    0.000000
  0.018400000   -0.593962 -113.296448  -89.112911   45.739670    0.000000    0.000000    0.000000    0.000000
  0.018600000   -0.592740 -114.724075  -89.127773   38.951591    0.000000    0.000000    0.000000    0.000000
  0.018800000   -0.591611 -116.150970  -89.002156   40.307686    0.000000    0.000000    0.000000    0.000000
  0.019000000   -0.589434 -117.580528  -89.420684   40.213455    0.000000    0.000000    0.000000    0.000000
  0.019200000   -0.590747 -119.028412  -89.504308   42.884377    0.000000    0.000000    0.000000    0.000000
  0.019400000   -0.590682 -120.477669  -90.307616   33.713081    0.000000    0.000000    0.000000    0.000000
  0.019600000   -0.593515 -121.949104  -90.100937   32.656403    0.000000    0.000000    0.000000    0.000000
  0.019800000   -0.591753 -123.434578  -90.840054   33.778084    0.000000    0.000000    0.000000    0.000000
  0.020000000   -0.590011 -124.904922  -91.060691   33.288185    0.000000    0.000000    0.000000    0.000000
  0.020200000   -0.586412 -126.354797  -91.437676   27.704750    0.000000    0.000000    0.000000    0.000000
  0.020400000   -0.583350 -127.816238  -91.649596   29.231243    0.000000    0.000000    0.000000    0.000000
  0.020600000   -0.586073 -129.263168  -90.963345   28.777403    0.000000    0.000000    0.000000    0.000000
  0.020800000   -0.587924 -130.756607  -91.698170   37.054779    0.000000    0.000000    0.000000    0.000000
  0.021000000   -0.596288 -132.264053  -91.895944   28.379950    0.000000    0.000000    0.000000    0.000000
  0.021200000   -0.602115 -133.791550  -93.245426   26.390663    0.000000    0.000000    0.000000    0.000000
  0.021400000   -0.604890 -135.308701  -93.388168   37.714081    0.000000    0.000000    0.000000    0.000000
  0.021600000   -0.606230 -136.827087  -94.215642   35.623642    0.000000    0.000000    0.000000    0.000000
  0.021800000   -0.608315 -138.349945  -93.448323   29.006649    0.000000    0.000000    0.000000    0.000000
  0.022000000   -0.613484 -139.865570  -93.195832   37.703392    0.000000    0.000000    0.000000    0.000000
  0.022200000   -0.618274 -141.400833  -93.958989   31.917740    0.000000    0.000000    0.000000    0.000000
  0.022400000   -0.621854 -142.955826  -92.881944   42.059612    0.000000    0.000000    0.000000    0.000000
  0.022600000   -0.623284 -144.515930  -92.958606   35.087990    0.000000    0.000000    0.000000    0.000000
  0.022800000   -0.627600 -146.122971  -92.197038   33.007896    0.000000    0.000000    0.000000    0.000000
  0.023000000   -0.628570 -147.688461  -92.248205   39.696304    0.000000    0.000000    0.000000    0.000000
  0.023200000   -0.629880 -149.272125  -92.620074   39.428265    0.000000    0.000000    0.000000    0.000000
  0.023400000   -0.634645 -150.930099  -92.397791   30.387840    0.000000    0.000000    0.000000    0.000000
  0.023600000   -0.636687 -152.434830  -92.291783   31.130268    0.000000    0.000000    0.000000    0.000000
  0.023800000   -0.644060 -154.046448  -92.708124   32.545750    0.000000    0.000000    0.000000    0.000000
  0.024000000   -0.652895 -155.664612  -92.683908   32.224075    0.000000    0.000000    0.000000    0.000000
  0.024200000   -0.661516 -157.317551  -92.463631   31.342720    0.000000    0.000000    0.000000    0.000000
  0.024400000   -0.671627 -158.951050  -92.190971   29.805500    0.000000    0.000000    0.000000    0.000000
  0.024600000   -0.679783 -160.605026  -92.902857   26.497253    0.000000    0.000000    0.000000    0.000000
  0.024800000   -0.686696 -162.267731  -92.804857   23.482981    0.000000    0.000000    0.000000    0.000000
  0.025000000   -0.697407 -163.923523  -92.737317   19.018766    0.000000    0.000000    0.000000    0.000000
  0.025200000   -0.708071 -165.599945  -93.361500   22.021339    0.000000    0.000000    0.000000    0.000000
  0.025400000   -0.722438 -167.298767  -94.076298   23.291553    0.000000    0.000000    0.000000    0.000000
  0.025600000   -0.735585 -169.000137  -93.841779   22.848070    0.000000    0.000000    0.000000    0.000000
  0.025800000   -0.748348 -170.711548  -94.693723   18.359262    0.000000    0.000000    0.000000    0.000000
  0.026000000   -0.756462 -172.455002  -95.039319   12.909961    0.000000    0.000000    0.000000    0.000000
  0.026200000   -0.766386 -174.177658  -94.922236   14.171111    0.000000    0.000000    0.000000    0.000000
  0.026400000   -0.781325 -175.903732  -93.767546   16.531155    0.000000    0.000000    0.000000    0.000000
  0.026600000   -0.792510 -177.651611  -95.097068   23.573101    0.000000    0.000000    0.000000    0.000000
  0.026800000   -0.806157 -179.408218  -95.775121   16.872238    0.000000    0.000000    0.000000    0.000000
  0.027000000   -0.823911  178.823578  -95.477103   28.843094    0.000000    0.000000    0.000000    0.000000
  0.027200000   -0.839589  177.053238  -98.156311   13.129495    0.000000    0.000000    0.000000    0.000000
  0.027400000   -0.853345  175.259384  -97.300481   20.869272    0.000000    0.000000    0.000000    0.000000
  0.027600000   -0.869716  173.457428  -95.503930   20.716114    0.000000    0.000000    0.000000    0.000000
  0.027800000   -0.888423  171.654526  -97.090276   26.589685    0.000000    0.000000    0.000000    0.000000
  0.028000000   -0.907391  169.840439  -95.432774   24.074814    0.000000    0.000000    0.000000    0.000000
  0.028200000   -0.929957  168.009705  -96.051582   19.747995    0.000000    0.000000    0.000000    0.000000
  0.028400000   -0.951489  166.184784  -95.753916   25.929182    0.000000    0.000000    0.000000    0.000000
  0.028600000   -0.971549  164.360504  -95.926298   22.875248    0.000000    0.000000    0.000000    0.000000
  0.028800000   -0.988608  162.531906  -96.718560   28.600525    0.000000    0.000000    0.000000    0.000000
  0.029000000   -1.009917  160.702789  -97.158081   23.306511    0.000000    0.000000    0.000000    0.000000
  0.029200000   -1.029383  158.881607  -96.263634   27.589369    0.000000    0.000000    0.000000    0.000000
  0.029400000   -1.053631  157.049744  -96.560619   21.765892    0.000000    0.000000    0.000000    0.000000
  0.029600000   -1.081290  155.197845  -96.027267   18.824221    0.000000    0.000000    0.000000    0.000000
  0.029800000   -1.109977  153.312134  -95.645867   14.453225    0.000000    0.000000    0.000000    0.000000
  0.030000000   -1.140706  151.407898  -95.988130   18.112331    0.000000    0.000000    0.000000    0.000000
  0.030200000   -1.168765  149.485382  -96.484373   18.126616    0.000000    0.000000    0.000000    0.000000
  0.030400000   -1.199417  147.553482  -97.087725   13.448441    0.000000    0.000000    0.000000    0.000000
  0.030600000   -1.229894  145.616165  -97.713018   17.008772    0.000000    0.000000    0.000000    0.000000
  0.030800000   -1.264622  143.699417  -97.019762    9.485033    0.000000    0.000000    0.000000    0.000000
  0.031000000   -1.296569  141.768265  -97.078449   13.505198    0.000000    0.000000    0.000000    0.000000
  0.031200000   -1.326620  139.832458  -98.162860   19.072031    0.000000    0.000000    0.000000    0.000000
  0.031400000   -1.369371  137.860413  -96.439932   17.176897    0.000000    0.000000    0.000000    0.000000
  0.031600000   -1.404506  135.857559  -97.555662   10.867545    0.000000    0.000000    0.000000    0.000000
  0.031800000   -1.438932  133.858612  -95.938168   14.982794    0.000000    0.000000    0.000000    0.000000
  0.032000000   -1.473324  131.881546  -98.154180    4.394473    0.000000    0.000000    0.000000    0.000000
  0.032200000   -1.505537  129.862030  -98.913869    6.867402    0.000000    0.000000    0.000000    0.000000
  0.032400000   -1.537376  127.879257  -97.112959    1.450377    0.000000    0.000000    0.000000    0.000000
  0.032600000   -1.571689  125.896477  -98.070089   15.142154    0.000000    0.000000    0.000000    0.000000
  0.032800000   -1.611835  123.930298  -97.223186   24.933735    0.000000    0.000000    0.000000    0.000000
  0.033000000   -1.654550  121.957413  -98.731228    8.326940    0.000000    0.000000    0.000000    0.000000
  0.033200000   -1.702145  119.980782  -99.858785   12.346557    0.000000    0.000000    0.000000    0.000000
  0.033400000   -1.751578  117.996109  -98.314267   10.122550    0.000000    0.000000    0.000000    0.000000
  0.033600000   -1.803681  115.975494  -98.022808   23.666803    0.000000    0.000000    0.000000    0.000000
  0.033800000   -1.856226  113.952576  -97.274752   25.753420    0.000000    0.000000    0.000000    0.000000
  0.034000000   -1.907606  111.887764  -98.395496   13.323833    0.000000    0.000000    0.000000    0.000000
  0.034200000   -1.959730  109.780739  -99.458589    8.321621    0.000000    0.000000    0.000000    0.000000
  0.034400000   -2.003938  107.660042  -98.130454    9.463781    0.000000    0.000000    0.000000    0.000000
  0.034600000   -2.054198  105.541916  -98.403802   22.367731    0.000000    0.000000    0.000000    0.000000
  0.034800000   -2.097078  103.436226  -99.200459   10.445544    0.000000    0.000000    0.000000    0.000000
  0.035000000   -2.141603  101.300842  -98.580447    9.039675    0.000000    0.000000    0.000000    0.000000
  0.035200000   -2.189343   99.210327  -97.695897    4.417061    0.000000    0.000000    0.000000    0.000000
  0.035400000   -2.229630   97.139778  -98.912920   11.626611    0.000000    0.000000    0.000000    0.000000
  0.035600000   -2.271753   95.059822  -97.935795   14.340079    0.000000    0.000000    0.000000    0.000000
  0.035800000   -2.315436   92.986031  -99.408084    2.404503    0.000000    0.000000    0.000000    0.000000
  0.036000000   -2.366614   90.937599  -99.018689    2.524784    0.000000    0.000000    0.000000    0.000000
  0.036200000   -2.411746   88.892830  -99.802632   12.491793    0.000000    0.000000    0.000000    0.000000
  0.036400000   -2.462124   86.833031  -97.043070   20.785620    0.000000    0.000000    0.000000    0.000000
  0.036600000   -2.514757   84.813263  -99.502640    2.377858    0.000000    0.000000    0.000000    0.000000
  0.036800000   -2.574330   82.781837 -101.042461    7.759851    0.000000    0.000000    0.000000    0.000000
  0.037000000   -2.633694   80.743843 -101.506274   15.293275    0.000000    0.000000    0.000000    0.000000
  0.037200000   -2.696370   78.655060  -99.853129    6.576740    0.000000    0.000000    0.000000    0.000000
  0.037400000   -2.756460   76.576157  -97.612582    5.137676    0.000000    0.000000    0.000000    0.000000
  0.037600000   -2.821729   74.482094 -101.722812   -2.370992    0.000000    0.000000    0.000000    0.000000
  0.037800000   -2.885088   72.345383 -100.554374    9.780457    0.000000    0.000000    0.000000    0.000000
  0.038000000   -2.940649   70.243332  -98.603708    2.520435    0.000000    0.000000    0.000000    0.000000
  0.038200000   -3.000242   68.107483 -101.652360   12.576697    0.000000    0.000000    0.000000    0.000000
  0.038400000   -3.057219   65.972336  -98.939138   -4.911076    0.000000    0.000000    0.000000    0.000000
  0.038600000   -3.109198   63.859566 -102.143149    0.058645    0.000000    0.000000    0.000000    0.000000
  0.038800000   -3.157131   61.760319  -98.405004   11.135572    0.000000    0.000000    0.000000    0.000000
  0.039000000   -3.202547   59.686420  -99.866085   19.898558    0.000000    0.000000    0.000000    0.000000
  0.039200000   -3.252253   57.675381 -100.194100   19.138584    0.000000    0.000000    0.000000    0.000000
  0.039400000   -3.309199   55.668430 -100.474991   17.423166    0.000000    0.000000    0.000000    0.000000
  0.039600000   -3.362243   53.665932 -100.975073   11.720045    0.000000    0.000000    0.000000    0.000000
  0.039800000   -3.425886   51.641605  -98.782608    8.718957    0.000000    0.000000    0.000000    0.000000
  0.040000000   -3.489506   49.595798  -98.579769   26.346727    0.000000    0.000000    0.000000    0.000000
  0.040200000   -3.552352   47.554058  -99.458125    9.800418    0.000000    0.000000    0.000000    0.000000
  0.040400000   -3.615251   45.493031 -102.515833    5.545712    0.000000    0.000000    0.000000    0.000000
  0.040600000   -3.676147   43.453976  -98.653337    2.820888    0.000000    0.000000    0.000000    0.000000
  0.040800000   -3.735877   41.397343 -101.180782    8.095579    0.000000    0.000000    0.000000    0.000000
  0.041000000   -3.800687   39.326992  -99.381490    2.680778    0.000000    0.000000    0.000000    0.000000
  0.041200000   -3.856533   37.271072  -99.595457    7.601329    0.000000    0.000000    0.000000    0.000000
  0.041400000   -3.916836   35.209328 -100.801792   -2.067695    0.000000    0.000000    0.000000    0.000000
  0.041600000   -3.972381   33.152699 -102.691727   15.413249    0.000000    0.000000    0.000000    0.000000
  0.041800000   -4.025481   31.065670 -101.197039    8.035595    0.000000    0.000000    0.000000    0.000000
  0.042000000   -4.073965   29.028025  -98.990226  -11.186591    0.000000    0.000000    0.000000    0.000000
  0.042200000   -4.126670   27.007904 -102.466707  -12.209826    0.000000    0.000000    0.000000    0.000000
  0.042400000   -4.176809   25.003271 -102.262666   -2.011338    0.000000    0.000000    0.000000    0.000000
  0.042600000   -4.226746   23.010416 -102.404018   12.517006    0.000000    0.000000    0.000000    0.000000
  0.042800000   -4.274715   21.026577  -99.674688  -16.878067    0.000000    0.000000    0.000000    0.000000
