! Anritsu VNA Master:                     Model: MS2036C/10/77
! SN:                                  1601066
! /card0/usr/ns.50ohm.s2p
! Existing Calibration Information:
! TYPE:                         Current Settings,       Active Cal Settings
! TIME:             	   12/21/2017 04:56:03 PM,    12/21/2017 04:46:01 PM
! INTERNAL TEMP:    	                   40.8 C,                    41.5 C
! # POINTS:         	                      501,                       501
! START FREQ:       	               10.000 MHz,                10.000 MHz
! STOP FREQ:        	              110.000 MHz,               110.000 MHz
! SOURCE POWER:     	                     High,                      High
! IFBW:             	                   100 Hz,                    100 Hz
! AVG FACTOR:       	                       1 ,                        1 
! REF PLANE 1:      	                     0 mm,                      0 mm
! REF PLANE 2:      	                     0 mm,                      0 mm
! CAL TYPE:         	                 Full S11,                  Full S11
! CAL METHOD:       	                     SOLT,                      SOLT
! CAL LINE TYPE:    	                     Coax,                      Coax
! DUT PORT 1:       	                K-Conn(F),                 K-Conn(F)
! DUT PORT 2:       	                K-Conn(F),                 K-Conn(F)
! CAL STATUS:       	        OK: Accuracy High,                        --
# GHZ S DB R 50.0
! FREQ.GHZ       S11DB        S11A       S21DB        S21A       S12DB        S12A       S22DB        S22A
  0.010000000  -46.025934   68.142059  -83.209874   77.548958    0.000000    0.000000    0.000000    0.000000
  0.010200000  -45.165894   67.747147  -83.564785   76.815781    0.000000    0.000000    0.000000    0.000000
  0.010400000  -45.053018   67.128914  -83.593281   75.426544    0.000000    0.000000    0.000000    0.000000
  0.010600000  -44.723384   67.256157  -84.325106   72.328445    0.000000    0.000000    0.000000    0.000000
  0.010800000  -44.699306   66.234283  -83.794946   72.173859    0.000000    0.000000    0.000000    0.000000
  0.011000000  -44.472485   68.004440  -84.414456   74.438042    0.000000    0.000000    0.000000    0.000000
  0.011200000  -44.343697   65.339745  -84.224865   70.529190    0.000000    0.000000    0.000000    0.000000
  0.011400000  -44.184744   65.503601  -83.925974   71.995293    0.000000    0.000000    0.000000    0.000000
  0.011600000  -44.198214   67.472664  -84.729478   69.224670    0.000000    0.000000    0.000000    0.000000
  0.011800000  -43.755911   68.314766  -85.068802   66.034309    0.000000    0.000000    0.000000    0.000000
  0.012000000  -43.568186   67.522369  -85.773124   67.901672    0.000000    0.000000    0.000000    0.000000
  0.012200000  -43.487071   66.886292  -85.154556   63.165874    0.000000    0.000000    0.000000    0.000000
  0.012400000  -43.508714   66.312836  -85.895133   66.296181    0.000000    0.000000    0.000000    0.000000
  0.012600000  -43.285296   68.941422  -85.830842   67.219620    0.000000    0.000000    0.000000    0.000000
  0.012800000  -43.472525   69.033028  -86.268420   62.745274    0.000000    0.000000    0.000000    0.000000
  0.013000000  -43.256967   67.688049  -85.698617   63.671535    0.000000    0.000000    0.000000    0.000000
  0.013200000  -43.240324   67.650047  -85.907562   61.739063    0.000000    0.000000    0.000000    0.000000
  0.013400000  -42.914709   68.220512  -86.581174   62.347027    0.000000    0.000000    0.000000    0.000000
  0.013600000  -43.133457   68.594383  -86.345457   63.629395    0.000000    0.000000    0.000000    0.000000
  0.013800000  -43.017592   67.574677  -86.839664   60.640747    0.000000    0.000000    0.000000    0.000000
  0.014000000  -43.090289   68.245575  -86.271210   56.789173    0.000000    0.000000    0.000000    0.000000
  0.014200000  -43.075474   68.963974  -86.966726   54.656345    0.000000    0.000000    0.000000    0.000000
  0.014400000  -42.964745   67.425819  -87.221073   60.299313    0.000000    0.000000    0.000000    0.000000
  0.014600000  -42.871933   68.061691  -86.782713   55.088280    0.000000    0.000000    0.000000    0.000000
  0.014800000  -42.927912   66.782516  -87.003911   56.412113    0.000000    0.000000    0.000000    0.000000
  0.015000000  -42.712501   66.026649  -87.386165   51.628620    0.000000    0.000000    0.000000    0.000000
  0.015200000  -42.805450   66.579796  -88.097340   53.356155    0.000000    0.000000    0.000000    0.000000
  0.015400000  -42.695121   65.559677  -88.070223   54.501869    0.000000    0.000000    0.000000    0.000000
  0.015600000  -42.660578   66.219490  -88.400671   52.221313    0.000000    0.000000    0.000000    0.000000
  0.015800000  -42.543426   64.636787  -87.873475   49.588306    0.000000    0.000000    0.000000    0.000000
  0.016000000  -42.566247   64.890709  -88.230600   49.607792    0.000000    0.000000    0.000000    0.000000
  0.016200000  -42.412134   63.600460  -89.081487   51.146313    0.000000    0.000000    0.000000    0.000000
  0.016400000  -42.380613   63.367210  -88.610012   46.728878    0.000000    0.000000    0.000000    0.000000
  0.016600000  -42.208205   63.876312  -88.825378   51.930473    0.000000    0.000000    0.000000    0.000000
  0.016800000  -42.270889   63.261723  -89.058986   44.463120    0.000000    0.000000    0.000000    0.000000
  0.017000000  -42.060914   63.609653  -89.078042   40.935604    0.000000    0.000000    0.000000    0.000000
  0.017200000  -42.035677   62.279850  -88.809691   45.770267    0.000000    0.000000    0.000000    0.000000
  0.017400000  -41.878367   63.175159  -89.755763   46.096115    0.000000    0.000000    0.000000    0.000000
  0.017600000  -41.719088   61.041359  -89.334249   46.240852    0.000000    0.000000    0.000000    0.000000
  0.017800000  -41.726214   62.890476  -89.471329   44.767452    0.000000    0.000000    0.000000    0.000000
  0.018000000  -41.569987   61.053421  -90.299678   45.044426    0.000000    0.000000    0.000000    0.000000
  0.018200000  -41.446853   61.288551  -90.163303   46.154522    0.000000    0.000000    0.000000    0.000000
  0.018400000  -41.344477   61.450775  -90.129235   44.832901    0.000000    0.000000    0.000000    0.000000
  0.018600000  -41.099863   59.956242  -90.265479   43.135830    0.000000    0.000000    0.000000    0.000000
  0.018800000  -41.124292   60.749096  -90.401090   43.862953    0.000000    0.000000    0.000000    0.000000
  0.019000000  -40.978505   60.757652  -89.937685   35.893265    0.000000    0.000000    0.000000    0.000000
  0.019200000  -40.959366   61.105530  -90.464470   40.344883    0.000000    0.000000    0.000000    0.000000
  0.019400000  -40.699777   61.126312  -90.320437   35.059399    0.000000    0.000000    0.000000    0.000000
  0.019600000  -40.743849   60.465805  -90.645863   39.504700    0.000000    0.000000    0.000000    0.000000
  0.019800000  -40.784055   61.866528  -91.740184   41.033318    0.000000    0.000000    0.000000    0.000000
  0.020000000  -40.552823   61.199745  -91.532486   36.048733    0.000000    0.000000    0.000000    0.000000
  0.020200000  -40.484886   60.487354  -90.546600   42.221020    0.000000    0.000000    0.000000    0.000000
  0.020400000  -40.399267   61.046959  -90.978469   34.154701    0.000000    0.000000    0.000000    0.000000
  0.020600000  -40.311572   61.103779  -91.460078   33.344425    0.000000    0.000000    0.000000    0.000000
  0.020800000  -40.429066   61.173702  -91.709705   34.595562    0.000000    0.000000    0.000000    0.000000
  0.021000000  -40.221096   61.044460  -91.873326   33.415924    0.000000    0.000000    0.000000    0.000000
  0.021200000  -40.401496   61.069328  -91.798805   33.333336    0.000000    0.000000    0.000000    0.000000
  0.021400000  -40.137387   60.585773  -91.862355   32.370358    0.000000    0.000000    0.000000    0.000000
  0.021600000  -40.080761   60.922657  -92.209298   31.951635    0.000000    0.000000    0.000000    0.000000
  0.021800000  -40.218779   59.412754  -92.131767   30.535091    0.000000    0.000000    0.000000    0.000000
  0.022000000  -40.010707   60.060463  -92.814182   32.490963    0.000000    0.000000    0.000000    0.000000
  0.022200000  -40.099672   60.997162  -93.039574   31.158648    0.000000    0.000000    0.000000    0.000000
  0.022400000  -40.067697   61.150139  -92.680932   34.722065    0.000000    0.000000    0.000000    0.000000
  0.022600000  -40.025984   61.084492  -92.262071   28.090298    0.000000    0.000000    0.000000    0.000000
  0.022800000  -39.805401   59.406952  -92.797446   25.816523    0.000000    0.000000    0.000000    0.000000
  0.023000000  -39.861206   60.097477  -92.687743   26.919926    0.000000    0.000000    0.000000    0.000000
  0.023200000  -39.700522   59.951031  -92.853478   25.562572    0.000000    0.000000    0.000000    0.000000
  0.023400000  -39.698138   60.158474  -92.658188   23.564411    0.000000    0.000000    0.000000    0.000000
  0.023600000  -39.620489   60.148060  -93.367274   32.840553    0.000000    0.000000    0.000000    0.000000
  0.023800000  -39.692649   58.808830  -93.099814   25.802578    0.000000    0.000000    0.000000    0.000000
  0.024000000  -39.663591   59.395557  -93.129166   32.271484    0.000000    0.000000    0.000000    0.000000
  0.024200000  -39.582781   59.016071  -94.022408   33.758579    0.000000    0.000000    0.000000    0.000000
  0.024400000  -39.491676   58.977749  -93.521994   23.190323    0.000000    0.000000    0.000000    0.000000
  0.024600000  -39.482427   58.088997  -94.474398   26.496506    0.000000    0.000000    0.000000    0.000000
  0.024800000  -39.406471   57.823208  -94.712088   23.698599    0.000000    0.000000    0.000000    0.000000
  0.025000000  -39.413163   58.154449  -93.487496   26.257427    0.000000    0.000000    0.000000    0.000000
  0.025200000  -39.283392   58.332546  -95.435578   23.085804    0.000000    0.000000    0.000000    0.000000
  0.025400000  -39.212084   57.333393  -94.931333   29.845440    0.000000    0.000000    0.000000    0.000000
  0.025600000  -39.195335   56.940491  -94.580808   24.162075    0.000000    0.000000    0.000000    0.000000
  0.025800000  -39.126005   57.550949  -94.774921   25.013943    0.000000    0.000000    0.000000    0.000000
  0.026000000  -39.017822   56.608673  -94.096362   26.050589    0.000000    0.000000    0.000000    0.000000
  0.026200000  -39.037927   56.506721  -94.961797   29.471857    0.000000    0.000000    0.000000    0.000000
  0.026400000  -38.936973   56.855556  -94.765688   26.003567    0.000000    0.000000    0.000000    0.000000
  0.026600000  -38.900167   56.389835  -94.936444   20.626356    0.000000    0.000000    0.000000    0.000000
  0.026800000  -38.796523   56.171154  -95.954620   20.910076    0.000000    0.000000    0.000000    0.000000
  0.027000000  -38.887692   55.958645  -96.382535   16.369591    0.000000    0.000000    0.000000    0.000000
  0.027200000  -38.677718   54.980034  -95.628818   15.566141    0.000000    0.000000    0.000000    0.000000
  0.027400000  -38.548474   56.591316  -94.798041   25.291958    0.000000    0.000000    0.000000    0.000000
  0.027600000  -38.516206   56.185070  -95.529953   21.906689    0.000000    0.000000    0.000000    0.000000
  0.027800000  -38.440324   55.774807  -95.424066   31.841799    0.000000    0.000000    0.000000    0.000000
  0.028000000  -38.472820   55.800526  -94.986089   15.570975    0.000000    0.000000    0.000000    0.000000
  0.028200000  -38.369787   55.381199  -94.765224   18.280134    0.000000    0.000000    0.000000    0.000000
  0.028400000  -38.381165   55.616150  -96.081192   16.466326    0.000000    0.000000    0.000000    0.000000
  0.028600000  -38.268281   55.864040  -96.173015   15.319704    0.000000    0.000000    0.000000    0.000000
  0.028800000  -38.230540   55.367538  -95.342352   17.499884    0.000000    0.000000    0.000000    0.000000
  0.029000000  -38.217567   55.287331  -95.626153   18.074448    0.000000    0.000000    0.000000    0.000000
  0.029200000  -38.039470   55.315628  -96.765967   23.179995    0.000000    0.000000    0.000000    0.000000
  0.029400000  -38.042582   55.656185  -96.416349   19.581938    0.000000    0.000000    0.000000    0.000000
  0.029600000  -38.066735   55.700302  -96.945784   14.231542    0.000000    0.000000    0.000000    0.000000
  0.029800000  -38.062932   55.639980  -95.840083   24.778357    0.000000    0.000000    0.000000    0.000000
  0.030000000  -38.011397   55.929340  -97.770261   15.007065    0.000000    0.000000    0.000000    0.000000
  0.030200000  -37.932986   55.413261  -96.019878   12.496305    0.000000    0.000000    0.000000    0.000000
  0.030400000  -37.888337   55.391674  -95.696178   15.512806    0.000000    0.000000    0.000000    0.000000
  0.030600000  -37.911514   56.109459  -96.649994   20.250271    0.000000    0.000000    0.000000    0.000000
  0.030800000  -37.885790   54.485592  -96.556623   11.383671    0.000000    0.000000    0.000000    0.000000
  0.031000000  -37.789664   54.965256  -97.852670   19.760540    0.000000    0.000000    0.000000    0.000000
  0.031200000  -37.822624   55.813915  -95.197774   15.588198    0.000000    0.000000    0.000000    0.000000
  0.031400000  -37.646106   55.042233  -97.576060   14.142482    0.000000    0.000000    0.000000    0.000000
  0.031600000  -37.687927   55.464539  -96.247522   14.001602    0.000000    0.000000    0.000000    0.000000
  0.031800000  -37.752816   55.628033  -97.361146   19.784203    0.000000    0.000000    0.000000    0.000000
  0.032000000  -37.777694   55.173954  -97.036436   -5.781279    0.000000    0.000000    0.000000    0.000000
  0.032200000  -37.713568   54.562809  -96.955396   15.426153    0.000000    0.000000    0.000000    0.000000
  0.032400000  -37.692184   54.067829  -95.889772    6.211904    0.000000    0.000000    0.000000    0.000000
  0.032600000  -37.706362   55.156013  -97.911671   21.066664    0.000000    0.000000    0.000000    0.000000
  0.032800000  -37.628793   53.789639  -98.490800   22.106174    0.000000    0.000000    0.000000    0.000000
  0.033000000  -37.567873   53.915070  -96.636357   15.679532    0.000000    0.000000    0.000000    0.000000
  0.033200000  -37.641803   53.663162  -97.995216    8.752646    0.000000    0.000000    0.000000    0.000000
  0.033400000  -37.500964   53.000759  -97.134223    6.487820    0.000000    0.000000    0.000000    0.000000
  0.033600000  -37.513157   53.114868  -97.483813   14.760446    0.000000    0.000000    0.000000    0.000000
  0.033800000  -37.399109   52.203529  -96.448413   20.436937    0.000000    0.000000    0.000000    0.000000
  0.034000000  -37.321286   52.798542  -97.701244   11.747163    0.000000    0.000000    0.000000    0.000000
  0.034200000  -37.439863   51.421558  -97.309952   18.385019    0.000000    0.000000    0.000000    0.000000
  0.034400000  -37.343685   51.216423  -97.913329    6.117216    0.000000    0.000000    0.000000    0.000000
  0.034600000  -37.333489   50.971920  -97.762367   16.708025    0.000000    0.000000    0.000000    0.000000
  0.034800000  -37.192557   50.996723  -97.830958   18.517025    0.000000    0.000000    0.000000    0.000000
  0.035000000  -37.054800   50.629566  -99.407086   11.963744    0.000000    0.000000    0.000000    0.000000
  0.035200000  -37.105469   50.788513  -98.698966   12.452643    0.000000    0.000000    0.000000    0.000000
  0.035400000  -37.108334   50.168705  -98.392144   18.826952    0.000000    0.000000    0.000000    0.000000
  0.035600000  -37.010773   50.218140  -99.729466   12.215208    0.000000    0.000000    0.000000    0.000000
  0.035800000  -36.928956   49.915997  -98.034999   12.767695    0.000000    0.000000    0.000000    0.000000
  0.036000000  -36.751253   50.448963 -100.277913    4.999403    0.000000    0.000000    0.000000    0.000000
  0.036200000  -36.800073   50.717525  -99.772558    6.198333    0.000000    0.000000    0.000000    0.000000
  0.036400000  -36.673428   50.264217 -100.048768    6.889425    0.000000    0.000000    0.000000    0.000000
  0.036600000  -36.665607   50.751751  -98.659523   17.249611    0.000000    0.000000    0.000000    0.000000
  0.036800000  -36.656028   49.676743  -98.197148    8.728468    0.000000    0.000000    0.000000    0.000000
  0.037000000  -36.565528   50.102238 -100.417220    2.210301    0.000000    0.000000    0.000000    0.000000
  0.037200000  -36.591563   50.161995  -98.178722   12.833174    0.000000    0.000000    0.000000    0.000000
  0.037400000  -36.552035   49.944473  -99.373384   14.020134    0.000000    0.000000    0.000000    0.000000
  0.037600000  -36.448830   50.723537  -99.638223    2.873301    0.000000    0.000000    0.000000    0.000000
  0.037800000  -36.420344   49.788387  -98.780370    3.060556    0.000000    0.000000    0.000000    0.000000
  0.038000000  -36.473012   50.143353  -98.436792    5.101696    0.000000    0.000000    0.000000    0.000000
  0.038200000  -36.461915   50.087292  -98.592028   10.549225    0.000000    0.000000    0.000000    0.000000
  0.038400000  -36.355815   50.577190  -98.954617   11.408760    0.000000    0.000000    0.000000    0.000000
  0.038600000  -36.344944   50.802128 -100.933977   21.354298    0.000000    0.000000    0.000000    0.000000
  0.038800000  -36.429961   50.171520  -99.893103   -4.622534    0.000000    0.000000    0.000000    0.000000
  0.039000000  -36.460949   50.953800 -102.108834   11.658162    0.000000    0.000000    0.000000    0.000000
  0.039200000  -36.293546   50.279308  -99.364551    7.900174    0.000000    0.000000    0.000000    0.000000
  0.039400000  -36.257478   50.828255  -99.586749   17.756168    0.000000    0.000000    0.000000    0.000000
  0.039600000  -36.294087   49.872772 -101.224032   20.318468    0.000000    0.000000    0.000000    0.000000
  0.039800000  -36.250735   49.825932  -98.302040    7.965139    0.000000    0.000000    0.000000    0.000000
  0.040000000  -36.189260   50.216019 -100.102646   15.314240    0.000000    0.000000    0.000000    0.000000
  0.040200000  -36.263708   50.540947 -101.926422   10.592741    0.000000    0.000000    0.000000    0.000000
  0.040400000  -36.232806   49.854088 -101.581519    5.386266    0.000000    0.000000    0.000000    0.000000
  0.040600000  -36.309957   49.485344 -101.294813   20.887997    0.000000    0.000000    0.000000    0.000000
  0.040800000  -36.300291   48.595631 -101.114231    0.654820    0.000000    0.000000    0.000000    0.000000
  0.041000000  -36.243844   48.969894  -98.699976    2.245429    0.000000    0.000000    0.000000    0.000000
  0.041200000  -36.181485   48.587521  -99.187437   11.219522    0.000000    0.000000    0.000000    0.000000
  0.041400000  -36.305852   46.975719  -98.050545   -6.342431    0.000000    0.000000    0.000000    0.000000
  0.041600000  -36.126424   47.981567 -100.177401  -17.672598    0.000000    0.000000    0.000000    0.000000
  0.041800000  -36.028333   46.771671 -101.229831   13.366212    0.000000    0.000000    0.000000    0.000000
  0.042000000  -36.136448   46.727100 -101.050755    5.132200    0.000000    0.000000    0.000000    0.000000
  0.042200000  -36.016640   46.770054 -100.118418   18.789696    0.000000    0.000000    0.000000    0.000000
  0.042400000  -35.948680   46.748371  -99.417619    7.769978    0.000000    0.000000    0.000000    0.000000
  0.042600000  -35.901466   45.412735 -101.473412    2.906345    0.000000    0.000000    0.000000    0.000000
  0.042800000  -35.860149   45.972263 -101.305508    3.379078    0.000000    0.000000    0.000000    0.000000
