! Anritsu VNA Master:                     Model: MS2036C/10/77
! SN:                                  1601066
! /card0/usr/254.ns.sma.r50.31.s2p
! Existing Calibration Information:
! TYPE:                         Current Settings,       Active Cal Settings
! TIME:             	   12/20/2017 02:10:05 PM,    12/20/2017 02:00:00 PM
! INTERNAL TEMP:    	                   47.3 C,                    47.0 C
! # POINTS:         	                      501,                       501
! START FREQ:       	               10.000 MHz,                10.000 MHz
! STOP FREQ:        	              110.000 MHz,               110.000 MHz
! SOURCE POWER:     	                     High,                      High
! IFBW:             	                   100 Hz,                    100 Hz
! AVG FACTOR:       	                       1 ,                        1 
! REF PLANE 1:      	                     0 mm,                      0 mm
! REF PLANE 2:      	                     0 mm,                      0 mm
! CAL TYPE:         	                 Full S11,                  Full S11
! CAL METHOD:       	                     SOLT,                      SOLT
! CAL LINE TYPE:    	                     Coax,                      Coax
! DUT PORT 1:       	                N-Conn(F),                 N-Conn(F)
! DUT PORT 2:       	                K-Conn(F),                 K-Conn(F)
! CAL STATUS:       	        OK: Accuracy High,                        --
# GHZ S DB R 50.0
! FREQ.GHZ       S11DB        S11A       S21DB        S21A       S12DB        S12A       S22DB        S22A
  0.010000000  -43.781624   61.549465  -83.543928   77.366203    0.000000    0.000000    0.000000    0.000000
  0.010200000  -43.791436   62.725246  -83.644455   74.792267    0.000000    0.000000    0.000000    0.000000
  0.010400000  -43.674802   64.846237  -83.633963   71.730179    0.000000    0.000000    0.000000    0.000000
  0.010600000  -43.573024   62.321323  -83.688916   72.621300    0.000000    0.000000    0.000000    0.000000
  0.010800000  -43.359954   62.283718  -83.817815   72.358704    0.000000    0.000000    0.000000    0.000000
  0.011000000  -43.456848   62.679771  -84.220960   71.508148    0.000000    0.000000    0.000000    0.000000
  0.011200000  -43.203632   63.800068  -84.562259   69.318405    0.000000    0.000000    0.000000    0.000000
  0.011400000  -43.347686   63.698544  -84.843572   64.686188    0.000000    0.000000    0.000000    0.000000
  0.011600000  -43.126643   61.197273  -84.659304   65.572647    0.000000    0.000000    0.000000    0.000000
  0.011800000  -42.942440   62.699902  -84.901548   70.699318    0.000000    0.000000    0.000000    0.000000
  0.012000000  -42.803925   60.691933  -85.236653   68.637146    0.000000    0.000000    0.000000    0.000000
  0.012200000  -42.811246   61.359570  -85.017838   66.848679    0.000000    0.000000    0.000000    0.000000
  0.012400000  -42.554602   60.907803  -85.057014   63.316250    0.000000    0.000000    0.000000    0.000000
  0.012600000  -42.819406   61.573532  -85.228393   65.007736    0.000000    0.000000    0.000000    0.000000
  0.012800000  -42.363807   61.797203  -86.108933   62.995518    0.000000    0.000000    0.000000    0.000000
  0.013000000  -42.301167   61.002415  -85.967877   60.649445    0.000000    0.000000    0.000000    0.000000
  0.013200000  -42.307401   59.888016  -86.182562   60.217556    0.000000    0.000000    0.000000    0.000000
  0.013400000  -42.122878   60.332031  -86.199655   58.578976    0.000000    0.000000    0.000000    0.000000
  0.013600000  -42.171234   61.357826  -86.535519   58.287846    0.000000    0.000000    0.000000    0.000000
  0.013800000  -41.939183   60.828682  -86.698117   57.539509    0.000000    0.000000    0.000000    0.000000
  0.014000000  -41.992406   61.508625  -87.111931   53.974670    0.000000    0.000000    0.000000    0.000000
  0.014200000  -41.654675   60.651443  -86.985101   55.561619    0.000000    0.000000    0.000000    0.000000
  0.014400000  -41.629894   61.043587  -87.578836   54.312313    0.000000    0.000000    0.000000    0.000000
  0.014600000  -41.851412   60.978794  -87.204248   55.557251    0.000000    0.000000    0.000000    0.000000
  0.014800000  -41.633198   60.959972  -87.084522   50.627171    0.000000    0.000000    0.000000    0.000000
  0.015000000  -41.427037   60.445663  -87.989266   53.593651    0.000000    0.000000    0.000000    0.000000
  0.015200000  -41.404136   60.020718  -88.053562   54.456192    0.000000    0.000000    0.000000    0.000000
  0.015400000  -41.301951   60.320919  -88.231731   48.644520    0.000000    0.000000    0.000000    0.000000
  0.015600000  -41.176789   61.248177  -88.485374   46.770344    0.000000    0.000000    0.000000    0.000000
  0.015800000  -41.303536   60.452339  -88.451040   46.635857    0.000000    0.000000    0.000000    0.000000
  0.016000000  -41.171010   59.922043  -88.254143   48.128765    0.000000    0.000000    0.000000    0.000000
  0.016200000  -40.973448   60.493713  -88.451519   48.771133    0.000000    0.000000    0.000000    0.000000
  0.016400000  -41.024184   60.056145  -89.144589   47.799969    0.000000    0.000000    0.000000    0.000000
  0.016600000  -41.045385   59.510994  -88.819822   49.147305    0.000000    0.000000    0.000000    0.000000
  0.016800000  -40.971121   59.454288  -88.981091   46.933983    0.000000    0.000000    0.000000    0.000000
  0.017000000  -40.863195   59.203487  -89.152063   44.300568    0.000000    0.000000    0.000000    0.000000
  0.017200000  -40.814978   59.526142  -89.430971   45.832302    0.000000    0.000000    0.000000    0.000000
  0.017400000  -40.735090   58.920212  -89.005987   43.372898    0.000000    0.000000    0.000000    0.000000
  0.017600000  -40.573890   59.116367  -90.251322   44.964527    0.000000    0.000000    0.000000    0.000000
  0.017800000  -40.577358   58.174526  -90.140991   42.852791    0.000000    0.000000    0.000000    0.000000
  0.018000000  -40.537197   57.609921  -90.175408   47.076855    0.000000    0.000000    0.000000    0.000000
  0.018200000  -40.411488   57.435650  -89.761851   42.957886    0.000000    0.000000    0.000000    0.000000
  0.018400000  -40.248330   56.763851  -90.359817   42.093277    0.000000    0.000000    0.000000    0.000000
  0.018600000  -40.180619   56.903793  -91.019603   40.018684    0.000000    0.000000    0.000000    0.000000
  0.018800000  -40.323387   57.087475  -90.811413   36.797409    0.000000    0.000000    0.000000    0.000000
  0.019000000  -39.981330   57.141338  -90.455652   41.411587    0.000000    0.000000    0.000000    0.000000
  0.019200000  -39.885297   57.014095  -91.209928   39.110165    0.000000    0.000000    0.000000    0.000000
  0.019400000  -39.943125   56.852802  -91.277597   41.029598    0.000000    0.000000    0.000000    0.000000
  0.019600000  -39.763328   56.283348  -90.400078   41.738239    0.000000    0.000000    0.000000    0.000000
  0.019800000  -39.693780   55.347374  -91.140036   37.900459    0.000000    0.000000    0.000000    0.000000
  0.020000000  -39.626548   54.859600  -91.581857   36.186012    0.000000    0.000000    0.000000    0.000000
  0.020200000  -39.465600   55.299629  -91.605840   37.264095    0.000000    0.000000    0.000000    0.000000
  0.020400000  -39.397733   55.806938  -91.441490   37.826004    0.000000    0.000000    0.000000    0.000000
  0.020600000  -39.449700   55.822937  -92.083614   33.568764    0.000000    0.000000    0.000000    0.000000
  0.020800000  -39.328694   55.739830  -92.018299   38.365620    0.000000    0.000000    0.000000    0.000000
  0.021000000  -39.204337   56.016758  -92.068157   31.414331    0.000000    0.000000    0.000000    0.000000
  0.021200000  -38.942366   56.185856  -91.744760   34.450912    0.000000    0.000000    0.000000    0.000000
  0.021400000  -38.993335   56.650940  -91.744329   36.393974    0.000000    0.000000    0.000000    0.000000
  0.021600000  -38.877121   56.629036  -92.004332   33.769943    0.000000    0.000000    0.000000    0.000000
  0.021800000  -38.831148   56.679749  -91.509106   34.340801    0.000000    0.000000    0.000000    0.000000
  0.022000000  -38.796201   55.488071  -92.893645   32.196163    0.000000    0.000000    0.000000    0.000000
  0.022200000  -38.709700   56.040489  -93.425804   30.311792    0.000000    0.000000    0.000000    0.000000
  0.022400000  -38.617299   55.861385  -92.905650   27.528933    0.000000    0.000000    0.000000    0.000000
  0.022600000  -38.706668   56.666531  -92.729578   31.626389    0.000000    0.000000    0.000000    0.000000
  0.022800000  -38.533776   56.381836  -92.160931   25.425533    0.000000    0.000000    0.000000    0.000000
  0.023000000  -38.528031   56.730633  -92.864602   38.123913    0.000000    0.000000    0.000000    0.000000
  0.023200000  -38.454895   56.389542  -93.518931   33.064407    0.000000    0.000000    0.000000    0.000000
  0.023400000  -38.475685   56.499092  -92.356837   28.817532    0.000000    0.000000    0.000000    0.000000
  0.023600000  -38.424393   55.417404  -94.387423   25.203571    0.000000    0.000000    0.000000    0.000000
  0.023800000  -38.370657   56.968109  -94.232208   25.465538    0.000000    0.000000    0.000000    0.000000
  0.024000000  -38.295245   56.697102  -93.529357   26.930340    0.000000    0.000000    0.000000    0.000000
  0.024200000  -38.428098   55.829266  -93.490407   32.204391    0.000000    0.000000    0.000000    0.000000
  0.024400000  -38.303992   56.290989  -93.057420   24.418304    0.000000    0.000000    0.000000    0.000000
  0.024600000  -38.329580   56.628475  -93.568310   29.555296    0.000000    0.000000    0.000000    0.000000
  0.024800000  -38.143228   55.956398  -93.652612   29.614635    0.000000    0.000000    0.000000    0.000000
  0.025000000  -38.014842   55.041294  -94.209885   21.656481    0.000000    0.000000    0.000000    0.000000
  0.025200000  -38.157199   55.541328  -94.717518   26.990747    0.000000    0.000000    0.000000    0.000000
  0.025400000  -38.077195   55.584930  -93.465681   29.272161    0.000000    0.000000    0.000000    0.000000
  0.025600000  -38.118232   54.892441  -94.989009   21.677298    0.000000    0.000000    0.000000    0.000000
  0.025800000  -38.039808   54.362900  -94.068887   20.758224    0.000000    0.000000    0.000000    0.000000
  0.026000000  -38.091716   55.449223  -94.722582   22.435974    0.000000    0.000000    0.000000    0.000000
  0.026200000  -37.878868   54.722107  -94.020900   23.344158    0.000000    0.000000    0.000000    0.000000
  0.026400000  -37.916820   54.777058  -94.729017   17.783417    0.000000    0.000000    0.000000    0.000000
  0.026600000  -37.956143   54.197868  -95.519108   25.046875    0.000000    0.000000    0.000000    0.000000
  0.026800000  -37.736675   53.712395  -96.198854   21.596312    0.000000    0.000000    0.000000    0.000000
  0.027000000  -37.621013   53.553555  -95.967528   26.471567    0.000000    0.000000    0.000000    0.000000
  0.027200000  -37.661417   52.677639  -95.667347   27.586670    0.000000    0.000000    0.000000    0.000000
  0.027400000  -37.496195   52.407871  -95.987422   22.626291    0.000000    0.000000    0.000000    0.000000
  0.027600000  -37.426583   53.292118  -96.676521   30.618731    0.000000    0.000000    0.000000    0.000000
  0.027800000  -37.478805   53.029240  -95.701268   16.627447    0.000000    0.000000    0.000000    0.000000
  0.028000000  -37.401816   52.880558  -94.936124   24.834831    0.000000    0.000000    0.000000    0.000000
  0.028200000  -37.250084   52.681698  -96.190788   16.515860    0.000000    0.000000    0.000000    0.000000
  0.028400000  -37.208591   53.162960  -95.924673   15.280411    0.000000    0.000000    0.000000    0.000000
  0.028600000  -37.170241   52.469368  -95.745469   13.519698    0.000000    0.000000    0.000000    0.000000
  0.028800000  -37.183884   52.511139  -95.790039   21.610657    0.000000    0.000000    0.000000    0.000000
  0.029000000  -37.063604   52.971355  -96.467645   19.434462    0.000000    0.000000    0.000000    0.000000
  0.029200000  -37.019767   52.654274  -96.285220   21.745010    0.000000    0.000000    0.000000    0.000000
  0.029400000  -37.001679   52.767742  -95.856676   20.937672    0.000000    0.000000    0.000000    0.000000
  0.029600000  -36.945713   52.845852  -95.987330   15.668061    0.000000    0.000000    0.000000    0.000000
  0.029800000  -36.901773   52.830894  -96.769997   16.904318    0.000000    0.000000    0.000000    0.000000
  0.030000000  -36.949441   52.769547  -97.512429    9.778106    0.000000    0.000000    0.000000    0.000000
  0.030200000  -36.828678   52.700073  -98.646948   19.427471    0.000000    0.000000    0.000000    0.000000
  0.030400000  -36.737489   52.686756  -97.545391   18.152250    0.000000    0.000000    0.000000    0.000000
  0.030600000  -36.657970   52.614174  -97.047368   19.516472    0.000000    0.000000    0.000000    0.000000
  0.030800000  -36.589203   52.000431  -97.337505   19.959751    0.000000    0.000000    0.000000    0.000000
  0.031000000  -36.582487   52.628849  -97.470557   13.777665    0.000000    0.000000    0.000000    0.000000
  0.031200000  -36.610564   51.732025  -97.622311   25.125641    0.000000    0.000000    0.000000    0.000000
  0.031400000  -36.543080   52.080303  -96.285389    3.716351    0.000000    0.000000    0.000000    0.000000
  0.031600000  -36.572681   52.451679  -97.973887    3.205722    0.000000    0.000000    0.000000    0.000000
  0.031800000  -36.482592   52.546791  -97.061734   18.793333    0.000000    0.000000    0.000000    0.000000
  0.032000000  -36.512367   52.272888  -97.591880   15.940803    0.000000    0.000000    0.000000    0.000000
  0.032200000  -36.477194   52.261333  -97.218260   16.738525    0.000000    0.000000    0.000000    0.000000
  0.032400000  -36.392280   51.975853  -96.283408   15.955209    0.000000    0.000000    0.000000    0.000000
  0.032600000  -36.379415   52.117771  -98.464345   12.859336    0.000000    0.000000    0.000000    0.000000
  0.032800000  -36.413054   52.279133  -99.166483    9.632136    0.000000    0.000000    0.000000    0.000000
  0.033000000  -36.323946   52.194141  -97.205624   22.676600    0.000000    0.000000    0.000000    0.000000
  0.033200000  -36.346666   51.979309  -98.729940   12.179372    0.000000    0.000000    0.000000    0.000000
  0.033400000  -36.340280   51.738716  -98.047846   10.677999    0.000000    0.000000    0.000000    0.000000
  0.033600000  -36.294723   52.095070  -96.570342   18.703449    0.000000    0.000000    0.000000    0.000000
  0.033800000  -36.282161   50.902504  -98.065684    5.715384    0.000000    0.000000    0.000000    0.000000
  0.034000000  -36.210776   50.675419  -98.800846    5.555158    0.000000    0.000000    0.000000    0.000000
  0.034200000  -36.106676   50.801029  -97.259517    3.116768    0.000000    0.000000    0.000000    0.000000
  0.034400000  -36.224639   50.420765  -98.451651    9.662952    0.000000    0.000000    0.000000    0.000000
  0.034600000  -36.087876   50.341667  -99.304239   10.030016    0.000000    0.000000    0.000000    0.000000
  0.034800000  -36.047766   50.753521  -98.484326    8.813518    0.000000    0.000000    0.000000    0.000000
  0.035000000  -35.961738   49.990002  -99.770278   10.969318    0.000000    0.000000    0.000000    0.000000
  0.035200000  -35.868625   50.562725  -97.656292    2.894518    0.000000    0.000000    0.000000    0.000000
  0.035400000  -35.907874   49.854740  -99.283538    9.900690    0.000000    0.000000    0.000000    0.000000
  0.035600000  -35.814685   49.921345 -101.081526    8.441636    0.000000    0.000000    0.000000    0.000000
  0.035800000  -35.713722   49.017365  -98.941830    8.703702    0.000000    0.000000    0.000000    0.000000
  0.036000000  -35.754242   49.594898  -99.053513    0.467488    0.000000    0.000000    0.000000    0.000000
  0.036200000  -35.627526   49.921135  -98.687704   12.168875    0.000000    0.000000    0.000000    0.000000
  0.036400000  -35.676005   49.424164  -97.690159   12.752900    0.000000    0.000000    0.000000    0.000000
  0.036600000  -35.578968   50.386826  -97.716419    2.710918    0.000000    0.000000    0.000000    0.000000
  0.036800000  -35.571228   50.104198  -98.928976   22.276711    0.000000    0.000000    0.000000    0.000000
  0.037000000  -35.499230   49.704002  -99.045118    7.896977    0.000000    0.000000    0.000000    0.000000
  0.037200000  -35.512903   49.738590  -98.655567   17.849838    0.000000    0.000000    0.000000    0.000000
  0.037400000  -35.463005   50.325314  -98.515539   12.898958    0.000000    0.000000    0.000000    0.000000
  0.037600000  -35.306631   50.047802 -101.147159   15.956264    0.000000    0.000000    0.000000    0.000000
  0.037800000  -35.407575   50.301651  -99.605681    4.642996    0.000000    0.000000    0.000000    0.000000
  0.038000000  -35.436899   50.365353 -100.960409   19.360764    0.000000    0.000000    0.000000    0.000000
  0.038200000  -35.305755   49.764721  -99.412696    9.186789    0.000000    0.000000    0.000000    0.000000
  0.038400000  -35.435493   49.738518  -98.363339   21.298309    0.000000    0.000000    0.000000    0.000000
  0.038600000  -35.392641   49.857944 -101.337150    9.600880    0.000000    0.000000    0.000000    0.000000
  0.038800000  -35.408991   49.281116 -100.794008   10.219286    0.000000    0.000000    0.000000    0.000000
  0.039000000  -35.378649   49.505554 -101.452932   23.679993    0.000000    0.000000    0.000000    0.000000
  0.039200000  -35.316282   50.105145 -100.611507   17.800917    0.000000    0.000000    0.000000    0.000000
  0.039400000  -35.318953   49.686131  -99.541517   11.691791    0.000000    0.000000    0.000000    0.000000
  0.039600000  -35.302820   49.431526 -100.171134    7.291244    0.000000    0.000000    0.000000    0.000000
  0.039800000  -35.271407   48.828678  -98.991671    8.360340    0.000000    0.000000    0.000000    0.000000
  0.040000000  -35.348821   49.525520 -101.437031   -5.063979    0.000000    0.000000    0.000000    0.000000
  0.040200000  -35.216001   49.212868  -98.429044    5.066124    0.000000    0.000000    0.000000    0.000000
  0.040400000  -35.247314   49.038921 -100.376771   14.543615    0.000000    0.000000    0.000000    0.000000
  0.040600000  -35.421873   49.142635 -100.978317   -5.211547    0.000000    0.000000    0.000000    0.000000
  0.040800000  -35.208580   48.528851  -99.171774    3.563744    0.000000    0.000000    0.000000    0.000000
  0.041000000  -35.350087   48.470673 -102.184952    8.827236    0.000000    0.000000    0.000000    0.000000
  0.041200000  -35.277068   48.037315 -100.452703   -2.487705    0.000000    0.000000    0.000000    0.000000
  0.041400000  -35.245743   47.415623 -101.774152   -1.435867    0.000000    0.000000    0.000000    0.000000
  0.041600000  -35.224995   47.946331 -100.086651    5.563221    0.000000    0.000000    0.000000    0.000000
  0.041800000  -35.199269   46.689396 -100.645600   21.614477    0.000000    0.000000    0.000000    0.000000
  0.042000000  -35.114314   46.395145 -101.264422   13.916059    0.000000    0.000000    0.000000    0.000000
  0.042200000  -35.124533   46.550529 -101.921085   -1.234383    0.000000    0.000000    0.000000    0.000000
  0.042400000  -35.023096   46.176521 -100.577717    5.587516    0.000000    0.000000    0.000000    0.000000
  0.042600000  -35.146153   45.913612 -100.869399   17.012041    0.000000    0.000000    0.000000    0.000000
  0.042800000  -34.907330   45.235329 -105.004223   -8.376435    0.000000    0.000000    0.000000    0.000000
