! Anritsu VNA Master:                     Model: MS2036C/10/77
! SN:                                  1601066
! /card0/usr/254.ns.sma.r20.22.s2p
! Existing Calibration Information:
! TYPE:                         Current Settings,       Active Cal Settings
! TIME:             	   12/20/2017 01:50:44 PM,    12/20/2017 01:40:30 PM
! INTERNAL TEMP:    	                   46.8 C,                    46.0 C
! # POINTS:         	                      501,                       501
! START FREQ:       	               10.000 MHz,                10.000 MHz
! STOP FREQ:        	              110.000 MHz,               110.000 MHz
! SOURCE POWER:     	                     High,                      High
! IFBW:             	                   100 Hz,                    100 Hz
! AVG FACTOR:       	                       1 ,                        1 
! REF PLANE 1:      	                     0 mm,                      0 mm
! REF PLANE 2:      	                     0 mm,                      0 mm
! CAL TYPE:         	                 Full S11,                  Full S11
! CAL METHOD:       	                     SOLT,                      SOLT
! CAL LINE TYPE:    	                     Coax,                      Coax
! DUT PORT 1:       	                N-Conn(F),                 N-Conn(F)
! DUT PORT 2:       	                K-Conn(F),                 K-Conn(F)
! CAL STATUS:       	        OK: Accuracy High,                        --
# GHZ S DB R 50.0
! FREQ.GHZ       S11DB        S11A       S21DB        S21A       S12DB        S12A       S22DB        S22A
  0.010000000   -7.204664  167.776733  -82.645084   76.588478    0.000000    0.000000    0.000000    0.000000
  0.010200000   -7.190764  167.607025  -82.838611   76.502945    0.000000    0.000000    0.000000    0.000000
  0.010400000   -7.195352  167.347092  -83.126558   72.936638    0.000000    0.000000    0.000000    0.000000
  0.010600000   -7.194120  167.171387  -83.168762   70.884811    0.000000    0.000000    0.000000    0.000000
  0.010800000   -7.195424  166.893066  -83.790552   68.072121    0.000000    0.000000    0.000000    0.000000
  0.011000000   -7.194693  166.656952  -83.297166   66.875275    0.000000    0.000000    0.000000    0.000000
  0.011200000   -7.205428  166.433945  -84.058854   68.850090    0.000000    0.000000    0.000000    0.000000
  0.011400000   -7.204515  166.194931  -84.192741   67.641922    0.000000    0.000000    0.000000    0.000000
  0.011600000   -7.203435  165.942062  -84.216150   65.923843    0.000000    0.000000    0.000000    0.000000
  0.011800000   -7.209406  165.730942  -84.911861   63.756737    0.000000    0.000000    0.000000    0.000000
  0.012000000   -7.213740  165.483841  -85.103240   61.575726    0.000000    0.000000    0.000000    0.000000
  0.012200000   -7.210773  165.211533  -84.969775   60.156837    0.000000    0.000000    0.000000    0.000000
  0.012400000   -7.216054  164.953171  -85.531439   58.198841    0.000000    0.000000    0.000000    0.000000
  0.012600000   -7.216060  164.710083  -86.019614   57.959557    0.000000    0.000000    0.000000    0.000000
  0.012800000   -7.219626  164.471664  -87.258118   56.942646    0.000000    0.000000    0.000000    0.000000
  0.013000000   -7.225404  164.206909  -86.410268   60.546711    0.000000    0.000000    0.000000    0.000000
  0.013200000   -7.226079  163.973755  -86.890350   59.550430    0.000000    0.000000    0.000000    0.000000
  0.013400000   -7.228615  163.748779  -87.022617   60.332085    0.000000    0.000000    0.000000    0.000000
  0.013600000   -7.229521  163.482895  -87.234654   59.449879    0.000000    0.000000    0.000000    0.000000
  0.013800000   -7.227757  163.255753  -87.023120   62.999428    0.000000    0.000000    0.000000    0.000000
  0.014000000   -7.226555  163.004990  -87.576235   56.716209    0.000000    0.000000    0.000000    0.000000
  0.014200000   -7.229114  162.735657  -87.764225   54.870132    0.000000    0.000000    0.000000    0.000000
  0.014400000   -7.225455  162.472763  -87.376228   57.226917    0.000000    0.000000    0.000000    0.000000
  0.014600000   -7.230663  162.244904  -88.084130   56.425041    0.000000    0.000000    0.000000    0.000000
  0.014800000   -7.232298  161.995590  -87.779053   57.251572    0.000000    0.000000    0.000000    0.000000
  0.015000000   -7.230768  161.737869  -88.041528   58.039116    0.000000    0.000000    0.000000    0.000000
  0.015200000   -7.235871  161.484116  -88.292040   56.789753    0.000000    0.000000    0.000000    0.000000
  0.015400000   -7.236489  161.229431  -88.269378   52.534702    0.000000    0.000000    0.000000    0.000000
  0.015600000   -7.232634  161.013336  -88.198973   56.865791    0.000000    0.000000    0.000000    0.000000
  0.015800000   -7.237084  160.737595  -88.259193   54.750099    0.000000    0.000000    0.000000    0.000000
  0.016000000   -7.237502  160.495972  -88.703731   53.352901    0.000000    0.000000    0.000000    0.000000
  0.016200000   -7.234174  160.252350  -88.070563   52.247082    0.000000    0.000000    0.000000    0.000000
  0.016400000   -7.234041  160.019943  -88.236628   49.607742    0.000000    0.000000    0.000000    0.000000
  0.016600000   -7.232660  159.782242  -87.951892   49.637623    0.000000    0.000000    0.000000    0.000000
  0.016800000   -7.230204  159.556152  -88.590423   44.080193    0.000000    0.000000    0.000000    0.000000
  0.017000000   -7.234467  159.300751  -88.457692   48.565067    0.000000    0.000000    0.000000    0.000000
  0.017200000   -7.227428  159.072205  -88.957179   42.161331    0.000000    0.000000    0.000000    0.000000
  0.017400000   -7.228641  158.840714  -88.812388   43.431580    0.000000    0.000000    0.000000    0.000000
  0.017600000   -7.233047  158.601364  -89.705314   40.219421    0.000000    0.000000    0.000000    0.000000
  0.017800000   -7.233761  158.369354  -89.121619   38.258640    0.000000    0.000000    0.000000    0.000000
  0.018000000   -7.233211  158.150360  -89.884158   40.637711    0.000000    0.000000    0.000000    0.000000
  0.018200000   -7.232925  157.914291  -89.694897   40.360573    0.000000    0.000000    0.000000    0.000000
  0.018400000   -7.232886  157.686996  -90.356334   40.723392    0.000000    0.000000    0.000000    0.000000
  0.018600000   -7.239754  157.463684  -90.347996   38.787254    0.000000    0.000000    0.000000    0.000000
  0.018800000   -7.240633  157.200745  -90.143170   37.411552    0.000000    0.000000    0.000000    0.000000
  0.019000000   -7.240314  156.998215  -91.460144   41.779701    0.000000    0.000000    0.000000    0.000000
  0.019200000   -7.239674  156.779373  -90.676396   38.073730    0.000000    0.000000    0.000000    0.000000
  0.019400000   -7.241972  156.541870  -91.707210   36.881721    0.000000    0.000000    0.000000    0.000000
  0.019600000   -7.246869  156.332764  -90.461865   37.035336    0.000000    0.000000    0.000000    0.000000
  0.019800000   -7.247278  156.097076  -91.461969   36.669689    0.000000    0.000000    0.000000    0.000000
  0.020000000   -7.250908  155.864136  -92.284137   35.970207    0.000000    0.000000    0.000000    0.000000
  0.020200000   -7.248368  155.606277  -91.926100   40.961464    0.000000    0.000000    0.000000    0.000000
  0.020400000   -7.248121  155.369843  -92.645448   35.437057    0.000000    0.000000    0.000000    0.000000
  0.020600000   -7.244877  155.155945  -92.764324   35.250759    0.000000    0.000000    0.000000    0.000000
  0.020800000   -7.242990  154.905762  -90.908080   43.431076    0.000000    0.000000    0.000000    0.000000
  0.021000000   -7.243285  154.640625  -91.597253   37.948151    0.000000    0.000000    0.000000    0.000000
  0.021200000   -7.246520  154.391632  -92.205234   33.451885    0.000000    0.000000    0.000000    0.000000
  0.021400000   -7.248943  154.140274  -92.030010   36.674061    0.000000    0.000000    0.000000    0.000000
  0.021600000   -7.250487  153.935333  -92.267975   33.244698    0.000000    0.000000    0.000000    0.000000
  0.021800000   -7.248815  153.717484  -92.627299   38.842381    0.000000    0.000000    0.000000    0.000000
  0.022000000   -7.251972  153.464066  -92.126182   35.463829    0.000000    0.000000    0.000000    0.000000
  0.022200000   -7.254057  153.229156  -93.042312   36.402443    0.000000    0.000000    0.000000    0.000000
  0.022400000   -7.254997  152.997803  -93.172038   40.060329    0.000000    0.000000    0.000000    0.000000
  0.022600000   -7.255663  152.766708  -91.964557   25.489012    0.000000    0.000000    0.000000    0.000000
  0.022800000   -7.256712  152.482986  -92.278959   32.189445    0.000000    0.000000    0.000000    0.000000
  0.023000000   -7.262551  152.273544  -93.490047   37.381798    0.000000    0.000000    0.000000    0.000000
  0.023200000   -7.263041  152.029465  -92.901489   33.597569    0.000000    0.000000    0.000000    0.000000
  0.023400000   -7.256597  151.737335  -92.609981   32.773232    0.000000    0.000000    0.000000    0.000000
  0.023600000   -7.259994  151.509125  -92.924849   34.520191    0.000000    0.000000    0.000000    0.000000
  0.023800000   -7.256749  151.280289  -92.816017   25.048342    0.000000    0.000000    0.000000    0.000000
  0.024000000   -7.252261  151.019867  -92.712401   18.901161    0.000000    0.000000    0.000000    0.000000
  0.024200000   -7.254248  150.772690  -93.428394   30.082544    0.000000    0.000000    0.000000    0.000000
  0.024400000   -7.256420  150.520340  -93.967125   23.414772    0.000000    0.000000    0.000000    0.000000
  0.024600000   -7.255345  150.262421  -92.509950   19.443106    0.000000    0.000000    0.000000    0.000000
  0.024800000   -7.256447  150.007645  -94.493217   21.133741    0.000000    0.000000    0.000000    0.000000
  0.025000000   -7.256785  149.765808  -92.675828   16.562887    0.000000    0.000000    0.000000    0.000000
  0.025200000   -7.251258  149.554214  -94.209914   27.216433    0.000000    0.000000    0.000000    0.000000
  0.025400000   -7.255369  149.342682  -94.262230   22.182440    0.000000    0.000000    0.000000    0.000000
  0.025600000   -7.253971  149.114197  -95.442137   30.072113    0.000000    0.000000    0.000000    0.000000
  0.025800000   -7.254371  148.895218  -94.896655   25.626165    0.000000    0.000000    0.000000    0.000000
  0.026000000   -7.257560  148.667130  -93.709917   26.669456    0.000000    0.000000    0.000000    0.000000
  0.026200000   -7.255592  148.443558  -95.640594   20.795177    0.000000    0.000000    0.000000    0.000000
  0.026400000   -7.260640  148.199112  -95.765655   16.357475    0.000000    0.000000    0.000000    0.000000
  0.026600000   -7.262982  147.966614  -95.511439   20.455029    0.000000    0.000000    0.000000    0.000000
  0.026800000   -7.267211  147.726959  -95.521682   28.368029    0.000000    0.000000    0.000000    0.000000
  0.027000000   -7.264813  147.473206  -95.695429   19.187239    0.000000    0.000000    0.000000    0.000000
  0.027200000   -7.262879  147.212204  -95.576053   21.118364    0.000000    0.000000    0.000000    0.000000
  0.027400000   -7.259660  146.927979  -97.554964   20.306927    0.000000    0.000000    0.000000    0.000000
  0.027600000   -7.254934  146.701447  -96.075004   17.122980    0.000000    0.000000    0.000000    0.000000
  0.027800000   -7.255992  146.442017  -94.554762   26.170006    0.000000    0.000000    0.000000    0.000000
  0.028000000   -7.252786  146.191666  -96.164667   18.982359    0.000000    0.000000    0.000000    0.000000
  0.028200000   -7.256936  145.942734  -94.950784   27.093149    0.000000    0.000000    0.000000    0.000000
  0.028400000   -7.250800  145.719421  -95.221487   27.008461    0.000000    0.000000    0.000000    0.000000
  0.028600000   -7.249674  145.508713  -95.987735   24.287529    0.000000    0.000000    0.000000    0.000000
  0.028800000   -7.249185  145.312424  -96.312444   22.242544    0.000000    0.000000    0.000000    0.000000
  0.029000000   -7.246793  145.117355  -95.873679   23.262487    0.000000    0.000000    0.000000    0.000000
  0.029200000   -7.245335  144.922455  -95.385412   14.005348    0.000000    0.000000    0.000000    0.000000
  0.029400000   -7.243378  144.752258  -95.985518   11.092353    0.000000    0.000000    0.000000    0.000000
  0.029600000   -7.246163  144.536697  -96.813640   17.560284    0.000000    0.000000    0.000000    0.000000
  0.029800000   -7.247461  144.327454  -96.504814   16.613663    0.000000    0.000000    0.000000    0.000000
  0.030000000   -7.251433  144.070419  -97.954198   21.113670    0.000000    0.000000    0.000000    0.000000
  0.030200000   -7.255542  143.849991  -95.888068   17.527769    0.000000    0.000000    0.000000    0.000000
  0.030400000   -7.256565  143.608414  -96.415567   11.036201    0.000000    0.000000    0.000000    0.000000
  0.030600000   -7.258665  143.332108  -96.825645   16.916298    0.000000    0.000000    0.000000    0.000000
  0.030800000   -7.261857  143.081314  -97.274355   14.698367    0.000000    0.000000    0.000000    0.000000
  0.031000000   -7.260666  142.827576  -97.164141   20.214401    0.000000    0.000000    0.000000    0.000000
  0.031200000   -7.256318  142.652145  -97.529702   10.382362    0.000000    0.000000    0.000000    0.000000
  0.031400000   -7.259254  142.374527  -97.560501   11.934667    0.000000    0.000000    0.000000    0.000000
  0.031600000   -7.263953  142.084106  -96.809546   17.128826    0.000000    0.000000    0.000000    0.000000
  0.031800000   -7.266591  141.858612  -95.771410    9.848186    0.000000    0.000000    0.000000    0.000000
  0.032000000   -7.263139  141.602356  -96.967491    2.568254    0.000000    0.000000    0.000000    0.000000
  0.032200000   -7.259599  141.342987  -96.029810   10.159096    0.000000    0.000000    0.000000    0.000000
  0.032400000   -7.258245  141.092850  -97.416308   16.906584    0.000000    0.000000    0.000000    0.000000
  0.032600000   -7.254300  140.883377  -96.000123   11.145374    0.000000    0.000000    0.000000    0.000000
  0.032800000   -7.252729  140.636215  -98.019445   10.714728    0.000000    0.000000    0.000000    0.000000
  0.033000000   -7.246666  140.418625  -96.808076   14.599283    0.000000    0.000000    0.000000    0.000000
  0.033200000   -7.244578  140.184311  -97.876616   10.312131    0.000000    0.000000    0.000000    0.000000
  0.033400000   -7.248355  139.998337 -100.732369   22.379713    0.000000    0.000000    0.000000    0.000000
  0.033600000   -7.254428  139.796448  -99.626026    4.209010    0.000000    0.000000    0.000000    0.000000
  0.033800000   -7.249613  139.563110  -98.861787    6.189388    0.000000    0.000000    0.000000    0.000000
  0.034000000   -7.258444  139.293442  -98.106732   10.261436    0.000000    0.000000    0.000000    0.000000
  0.034200000   -7.257639  139.046402  -98.550393    7.893872    0.000000    0.000000    0.000000    0.000000
  0.034400000   -7.260010  138.766556  -97.620448   18.953829    0.000000    0.000000    0.000000    0.000000
  0.034600000   -7.261888  138.494446  -98.841615   28.796429    0.000000    0.000000    0.000000    0.000000
  0.034800000   -7.267243  138.224701 -100.835183    3.860572    0.000000    0.000000    0.000000    0.000000
  0.035000000   -7.270084  137.962921  -98.564846   16.917849    0.000000    0.000000    0.000000    0.000000
  0.035200000   -7.267743  137.679489  -97.820460    7.923077    0.000000    0.000000    0.000000    0.000000
  0.035400000   -7.265372  137.429932  -98.361769    2.082914    0.000000    0.000000    0.000000    0.000000
  0.035600000   -7.261163  137.185547  -98.858224   23.018000    0.000000    0.000000    0.000000    0.000000
  0.035800000   -7.252390  136.916870  -98.424696    4.933187    0.000000    0.000000    0.000000    0.000000
  0.036000000   -7.249455  136.676208  -98.469957    2.796353    0.000000    0.000000    0.000000    0.000000
  0.036200000   -7.241960  136.456818  -99.342484   21.406160    0.000000    0.000000    0.000000    0.000000
  0.036400000   -7.232611  136.223587  -99.082557    5.998113    0.000000    0.000000    0.000000    0.000000
  0.036600000   -7.228392  135.980194 -100.230903    3.622439    0.000000    0.000000    0.000000    0.000000
  0.036800000   -7.229823  135.797882  -97.523643   -1.549760    0.000000    0.000000    0.000000    0.000000
  0.037000000   -7.221879  135.598495  -98.964926   16.836279    0.000000    0.000000    0.000000    0.000000
  0.037200000   -7.226288  135.387741 -103.488247   14.083751    0.000000    0.000000    0.000000    0.000000
  0.037400000   -7.223196  135.186020  -97.721416   -3.046951    0.000000    0.000000    0.000000    0.000000
  0.037600000   -7.232585  134.968781 -101.157313    9.059921    0.000000    0.000000    0.000000    0.000000
  0.037800000   -7.229537  134.709717 -100.950044    1.310912    0.000000    0.000000    0.000000    0.000000
  0.038000000   -7.235501  134.498138 -100.229910    6.560395    0.000000    0.000000    0.000000    0.000000
  0.038200000   -7.239477  134.245895  -98.297817   21.318748    0.000000    0.000000    0.000000    0.000000
  0.038400000   -7.245266  133.966583  -98.569136   14.674286    0.000000    0.000000    0.000000    0.000000
  0.038600000   -7.243987  133.758301  -99.411906    5.036538    0.000000    0.000000    0.000000    0.000000
  0.038800000   -7.247260  133.505615  -99.812796    6.568207    0.000000    0.000000    0.000000    0.000000
  0.039000000   -7.247735  133.262497 -101.314212   18.933685    0.000000    0.000000    0.000000    0.000000
  0.039200000   -7.245927  133.032272  -99.217020   11.194726    0.000000    0.000000    0.000000    0.000000
  0.039400000   -7.245505  132.823715 -103.386792   -9.322821    0.000000    0.000000    0.000000    0.000000
  0.039600000   -7.237406  132.561096 -100.161883    0.929466    0.000000    0.000000    0.000000    0.000000
  0.039800000   -7.234986  132.295074 -100.731306    6.453123    0.000000    0.000000    0.000000    0.000000
  0.040000000   -7.229373  132.051407 -102.169952    2.265994    0.000000    0.000000    0.000000    0.000000
  0.040200000   -7.224816  131.835876  -97.598156   13.835704    0.000000    0.000000    0.000000    0.000000
  0.040400000   -7.218734  131.637314  -99.861875    7.477110    0.000000    0.000000    0.000000    0.000000
  0.040600000   -7.213596  131.421097 -100.764505   19.329767    0.000000    0.000000    0.000000    0.000000
  0.040800000   -7.218697  131.258041  -98.874222   17.697493    0.000000    0.000000    0.000000    0.000000
  0.041000000   -7.219933  131.021149  -99.744099    0.014671    0.000000    0.000000    0.000000    0.000000
  0.041200000   -7.222495  130.871368 -101.990254   31.989092    0.000000    0.000000    0.000000    0.000000
  0.041400000   -7.228377  130.599365  -99.488612    5.066123    0.000000    0.000000    0.000000    0.000000
  0.041600000   -7.232437  130.402939 -102.964090   23.968473    0.000000    0.000000    0.000000    0.000000
  0.041800000   -7.235704  130.155533  -99.234196   -4.081420    0.000000    0.000000    0.000000    0.000000
  0.042000000   -7.241631  129.888809 -102.504191    9.337934    0.000000    0.000000    0.000000    0.000000
  0.042200000   -7.249411  129.665253  -99.385879   10.754983    0.000000    0.000000    0.000000    0.000000
  0.042400000   -7.249799  129.404785 -101.531434    5.499964    0.000000    0.000000    0.000000    0.000000
  0.042600000   -7.248501  129.150879 -100.701326   -0.747966    0.000000    0.000000    0.000000    0.000000
  0.042800000   -7.245444  128.928925  -99.618124    0.690579    0.000000    0.000000    0.000000    0.000000
