! Anritsu VNA Master:                     Model: MS2036C/10/77
! SN:                                  1601066
! /card0/usr/254.ns.sma.r50.21.s2p
! Existing Calibration Information:
! TYPE:                         Current Settings,       Active Cal Settings
! TIME:             	   12/20/2017 01:47:32 PM,    12/20/2017 01:40:30 PM
! INTERNAL TEMP:    	                   46.5 C,                    46.0 C
! # POINTS:         	                      501,                       501
! START FREQ:       	               10.000 MHz,                10.000 MHz
! STOP FREQ:        	              110.000 MHz,               110.000 MHz
! SOURCE POWER:     	                     High,                      High
! IFBW:             	                   100 Hz,                    100 Hz
! AVG FACTOR:       	                       1 ,                        1 
! REF PLANE 1:      	                     0 mm,                      0 mm
! REF PLANE 2:      	                     0 mm,                      0 mm
! CAL TYPE:         	                 Full S11,                  Full S11
! CAL METHOD:       	                     SOLT,                      SOLT
! CAL LINE TYPE:    	                     Coax,                      Coax
! DUT PORT 1:       	                N-Conn(F),                 N-Conn(F)
! DUT PORT 2:       	                K-Conn(F),                 K-Conn(F)
! CAL STATUS:       	        OK: Accuracy High,                        --
# GHZ S DB R 50.0
! FREQ.GHZ       S11DB        S11A       S21DB        S21A       S12DB        S12A       S22DB        S22A
  0.010000000  -44.668539   64.335732  -83.467934   80.611397    0.000000    0.000000    0.000000    0.000000
  0.010200000  -44.916242   64.017380  -83.315067   75.538315    0.000000    0.000000    0.000000    0.000000
  0.010400000  -44.490259   64.037209  -83.810239   75.123932    0.000000    0.000000    0.000000    0.000000
  0.010600000  -44.527380   63.885853  -83.614803   72.950317    0.000000    0.000000    0.000000    0.000000
  0.010800000  -44.365584   65.653992  -84.046901   73.389946    0.000000    0.000000    0.000000    0.000000
  0.011000000  -44.206954   63.806473  -84.216645   70.671326    0.000000    0.000000    0.000000    0.000000
  0.011200000  -44.297450   61.010754  -84.624221   68.137421    0.000000    0.000000    0.000000    0.000000
  0.011400000  -43.976743   60.688198  -84.472897   65.984444    0.000000    0.000000    0.000000    0.000000
  0.011600000  -43.987830   61.584572  -84.900287   67.834999    0.000000    0.000000    0.000000    0.000000
  0.011800000  -43.693541   61.225414  -84.634881   67.871468    0.000000    0.000000    0.000000    0.000000
  0.012000000  -43.670118   60.395607  -84.831668   67.787842    0.000000    0.000000    0.000000    0.000000
  0.012200000  -43.605930   61.254276  -84.998780   65.605186    0.000000    0.000000    0.000000    0.000000
  0.012400000  -43.416256   57.590748  -85.210452   64.309593    0.000000    0.000000    0.000000    0.000000
  0.012600000  -43.373487   59.903656  -85.375560   63.603569    0.000000    0.000000    0.000000    0.000000
  0.012800000  -43.205909   58.717068  -85.678140   62.439732    0.000000    0.000000    0.000000    0.000000
  0.013000000  -42.946457   58.632721  -85.895764   59.450397    0.000000    0.000000    0.000000    0.000000
  0.013200000  -42.797199   57.685863  -85.859415   61.621918    0.000000    0.000000    0.000000    0.000000
  0.013400000  -42.855796   58.409313  -86.266323   57.469696    0.000000    0.000000    0.000000    0.000000
  0.013600000  -42.417542   58.495831  -86.602947   59.536118    0.000000    0.000000    0.000000    0.000000
  0.013800000  -42.490302   58.279667  -86.755752   56.535038    0.000000    0.000000    0.000000    0.000000
  0.014000000  -42.355272   58.401772  -86.677893   55.789242    0.000000    0.000000    0.000000    0.000000
  0.014200000  -42.129855   58.753555  -87.609628   56.970760    0.000000    0.000000    0.000000    0.000000
  0.014400000  -42.082880   59.003502  -87.106852   57.066071    0.000000    0.000000    0.000000    0.000000
  0.014600000  -41.865277   58.115799  -87.149773   51.067886    0.000000    0.000000    0.000000    0.000000
  0.014800000  -41.769082   58.685429  -87.849817   49.709370    0.000000    0.000000    0.000000    0.000000
  0.015000000  -41.798069   58.389034  -87.719906   53.449165    0.000000    0.000000    0.000000    0.000000
  0.015200000  -41.577166   58.960209  -87.326731   54.754711    0.000000    0.000000    0.000000    0.000000
  0.015400000  -41.557255   58.119396  -88.024643   50.247005    0.000000    0.000000    0.000000    0.000000
  0.015600000  -41.407902   59.332939  -88.163449   49.335495    0.000000    0.000000    0.000000    0.000000
  0.015800000  -41.289907   58.947422  -88.198660   51.574596    0.000000    0.000000    0.000000    0.000000
  0.016000000  -41.285750   59.182175  -88.453040   48.634380    0.000000    0.000000    0.000000    0.000000
  0.016200000  -41.048769   59.545486  -88.532689   47.529106    0.000000    0.000000    0.000000    0.000000
  0.016400000  -40.975021   60.378468  -88.781814   46.174400    0.000000    0.000000    0.000000    0.000000
  0.016600000  -40.965728   60.437885  -88.419014   47.308292    0.000000    0.000000    0.000000    0.000000
  0.016800000  -40.906660   60.262424  -89.107304   46.410164    0.000000    0.000000    0.000000    0.000000
  0.017000000  -40.841975   61.051960  -89.976987   45.872765    0.000000    0.000000    0.000000    0.000000
  0.017200000  -40.887193   61.837055  -89.561576   45.961864    0.000000    0.000000    0.000000    0.000000
  0.017400000  -40.911627   60.728523  -89.460099   42.243191    0.000000    0.000000    0.000000    0.000000
  0.017600000  -40.897630   60.789825  -89.400993   42.597416    0.000000    0.000000    0.000000    0.000000
  0.017800000  -40.695941   59.747242  -89.473694   44.062775    0.000000    0.000000    0.000000    0.000000
  0.018000000  -40.790373   59.908955  -89.632808   45.422237    0.000000    0.000000    0.000000    0.000000
  0.018200000  -40.818855   59.914001  -90.523667   41.170612    0.000000    0.000000    0.000000    0.000000
  0.018400000  -40.598347   60.476223  -90.191857   35.386841    0.000000    0.000000    0.000000    0.000000
  0.018600000  -40.638232   59.436218  -90.194420   39.633812    0.000000    0.000000    0.000000    0.000000
  0.018800000  -40.529567   60.044315  -90.727314   45.620068    0.000000    0.000000    0.000000    0.000000
  0.019000000  -40.615054   58.643040  -90.766625   39.494305    0.000000    0.000000    0.000000    0.000000
  0.019200000  -40.619612   59.348492  -90.151693   37.244225    0.000000    0.000000    0.000000    0.000000
  0.019400000  -40.424288   59.311493  -91.003958   41.948376    0.000000    0.000000    0.000000    0.000000
  0.019600000  -40.567401   58.036560  -91.063982   39.779381    0.000000    0.000000    0.000000    0.000000
  0.019800000  -40.548155   58.682938  -91.159409   38.562763    0.000000    0.000000    0.000000    0.000000
  0.020000000  -40.399412   57.177395  -91.506023   33.704529    0.000000    0.000000    0.000000    0.000000
  0.020200000  -40.339674   57.786667  -91.255613   39.844254    0.000000    0.000000    0.000000    0.000000
  0.020400000  -40.072230   56.398594  -93.833614   33.769058    0.000000    0.000000    0.000000    0.000000
  0.020600000  -40.234156   56.880936  -91.254112   36.603886    0.000000    0.000000    0.000000    0.000000
  0.020800000  -40.062641   55.650150  -91.736847   34.402531    0.000000    0.000000    0.000000    0.000000
  0.021000000  -40.106434   56.467228  -92.074505   35.615906    0.000000    0.000000    0.000000    0.000000
  0.021200000  -39.860698   54.819695  -92.122197   37.906776    0.000000    0.000000    0.000000    0.000000
  0.021400000  -39.774729   54.695728  -92.098001   32.735172    0.000000    0.000000    0.000000    0.000000
  0.021600000  -39.699209   54.944458  -91.907739   28.506227    0.000000    0.000000    0.000000    0.000000
  0.021800000  -39.733730   55.090843  -91.863889   30.219099    0.000000    0.000000    0.000000    0.000000
  0.022000000  -39.489594   54.486076  -93.223389   34.082054    0.000000    0.000000    0.000000    0.000000
  0.022200000  -39.344924   55.185284  -92.284010   33.542015    0.000000    0.000000    0.000000    0.000000
  0.022400000  -39.399610   55.122807  -93.079972   26.391340    0.000000    0.000000    0.000000    0.000000
  0.022600000  -39.233879   54.760380  -91.679810   29.046364    0.000000    0.000000    0.000000    0.000000
  0.022800000  -39.132432   54.095291  -92.749538   32.095398    0.000000    0.000000    0.000000    0.000000
  0.023000000  -39.056804   54.268101  -92.435364   33.384895    0.000000    0.000000    0.000000    0.000000
  0.023200000  -38.979555   53.910908  -93.355093   28.671993    0.000000    0.000000    0.000000    0.000000
  0.023400000  -38.852423   54.843700  -94.187857   33.713261    0.000000    0.000000    0.000000    0.000000
  0.023600000  -38.789406   53.859863  -92.164294   27.072159    0.000000    0.000000    0.000000    0.000000
  0.023800000  -38.827678   54.684570  -93.345526   32.052303    0.000000    0.000000    0.000000    0.000000
  0.024000000  -38.737036   55.095387  -93.207818   31.264683    0.000000    0.000000    0.000000    0.000000
  0.024200000  -38.617677   54.634968  -93.871998   37.384495    0.000000    0.000000    0.000000    0.000000
  0.024400000  -38.623613   53.839035  -93.215425   32.025990    0.000000    0.000000    0.000000    0.000000
  0.024600000  -38.561681   55.203587  -94.501828   26.194775    0.000000    0.000000    0.000000    0.000000
  0.024800000  -38.432698   54.723576  -94.092297   29.165417    0.000000    0.000000    0.000000    0.000000
  0.025000000  -38.320861   54.488148  -93.971088   23.449429    0.000000    0.000000    0.000000    0.000000
  0.025200000  -38.428665   54.667637  -94.693676   20.992231    0.000000    0.000000    0.000000    0.000000
  0.025400000  -38.331475   54.876808  -95.917407   24.476709    0.000000    0.000000    0.000000    0.000000
  0.025600000  -38.320615   55.230152  -94.091054   23.891655    0.000000    0.000000    0.000000    0.000000
  0.025800000  -38.343358   55.222698  -94.133443   25.396057    0.000000    0.000000    0.000000    0.000000
  0.026000000  -38.172000   54.280365  -95.961762   27.531164    0.000000    0.000000    0.000000    0.000000
  0.026200000  -38.259907   54.782917  -95.286171   25.503832    0.000000    0.000000    0.000000    0.000000
  0.026400000  -38.189292   54.489082  -95.299654   28.651121    0.000000    0.000000    0.000000    0.000000
  0.026600000  -38.263563   54.339855  -94.618693   14.461717    0.000000    0.000000    0.000000    0.000000
  0.026800000  -38.165343   54.153568  -96.155954   21.051891    0.000000    0.000000    0.000000    0.000000
  0.027000000  -38.183297   55.270199  -94.972285   25.520010    0.000000    0.000000    0.000000    0.000000
  0.027200000  -38.028114   54.353333  -95.453953   21.347700    0.000000    0.000000    0.000000    0.000000
  0.027400000  -38.018792   53.712261  -95.526846   20.869881    0.000000    0.000000    0.000000    0.000000
  0.027600000  -38.044850   53.795300  -95.292005   22.683182    0.000000    0.000000    0.000000    0.000000
  0.027800000  -37.929432   53.380920  -95.750970   19.454655    0.000000    0.000000    0.000000    0.000000
  0.028000000  -37.917196   53.229584  -95.649375   19.213787    0.000000    0.000000    0.000000    0.000000
  0.028200000  -37.881624   52.811020  -94.945834   18.353491    0.000000    0.000000    0.000000    0.000000
  0.028400000  -37.900432   53.054298  -96.048231   22.503073    0.000000    0.000000    0.000000    0.000000
  0.028600000  -37.909612   52.042145  -96.040647   16.317711    0.000000    0.000000    0.000000    0.000000
  0.028800000  -37.777230   52.031769  -96.346233   25.883633    0.000000    0.000000    0.000000    0.000000
  0.029000000  -37.764620   52.572193  -96.405645   19.531593    0.000000    0.000000    0.000000    0.000000
  0.029200000  -37.666546   50.954853  -96.463834   11.859030    0.000000    0.000000    0.000000    0.000000
  0.029400000  -37.663949   51.681068  -97.016330   19.918810    0.000000    0.000000    0.000000    0.000000
  0.029600000  -37.542114   50.998062  -97.011182   24.117264    0.000000    0.000000    0.000000    0.000000
  0.029800000  -37.590172   51.244320  -96.991661   24.540915    0.000000    0.000000    0.000000    0.000000
  0.030000000  -37.409692   50.610954  -96.429902   20.101318    0.000000    0.000000    0.000000    0.000000
  0.030200000  -37.392880   50.525600  -96.918777   21.414011    0.000000    0.000000    0.000000    0.000000
  0.030400000  -37.231348   50.211342  -98.237268   15.970606    0.000000    0.000000    0.000000    0.000000
  0.030600000  -37.226869   50.164181  -97.313140   22.273062    0.000000    0.000000    0.000000    0.000000
  0.030800000  -37.070544   50.337475  -96.471502   18.775728    0.000000    0.000000    0.000000    0.000000
  0.031000000  -37.029614   50.215546  -98.003973   17.298923    0.000000    0.000000    0.000000    0.000000
  0.031200000  -36.995629   50.024532  -96.541313    9.146924    0.000000    0.000000    0.000000    0.000000
  0.031400000  -36.961726   51.020176  -96.488063    3.706165    0.000000    0.000000    0.000000    0.000000
  0.031600000  -36.957947   50.146034  -97.748147   15.038268    0.000000    0.000000    0.000000    0.000000
  0.031800000  -36.888532   49.267166  -98.439982   11.165759    0.000000    0.000000    0.000000    0.000000
  0.032000000  -36.773181   50.339005  -98.524794   20.037199    0.000000    0.000000    0.000000    0.000000
  0.032200000  -36.636663   50.112080  -95.190763   14.409986    0.000000    0.000000    0.000000    0.000000
  0.032400000  -36.737366   49.884151  -97.459950    7.761926    0.000000    0.000000    0.000000    0.000000
  0.032600000  -36.611422   50.103069  -97.028981   16.586823    0.000000    0.000000    0.000000    0.000000
  0.032800000  -36.498436   50.323357  -97.782743   11.245211    0.000000    0.000000    0.000000    0.000000
  0.033000000  -36.598810   49.997711  -99.091275   11.288426    0.000000    0.000000    0.000000    0.000000
  0.033200000  -36.473098   50.146408  -98.151456   -2.998578    0.000000    0.000000    0.000000    0.000000
  0.033400000  -36.444269   49.712536  -98.540386    8.306080    0.000000    0.000000    0.000000    0.000000
  0.033600000  -36.538132   49.293598  -97.183700   13.086576    0.000000    0.000000    0.000000    0.000000
  0.033800000  -36.365497   49.564369  -99.143330   11.015794    0.000000    0.000000    0.000000    0.000000
  0.034000000  -36.338324   49.516068  -98.096231   14.331190    0.000000    0.000000    0.000000    0.000000
  0.034200000  -36.323584   49.496471  -98.662096    7.644708    0.000000    0.000000    0.000000    0.000000
  0.034400000  -36.296833   49.377316  -98.537456    1.791081    0.000000    0.000000    0.000000    0.000000
  0.034600000  -36.251278   49.298321  -98.585948   10.304285    0.000000    0.000000    0.000000    0.000000
  0.034800000  -36.218074   48.885601  -97.779073   11.021174    0.000000    0.000000    0.000000    0.000000
  0.035000000  -36.227698   48.952778  -99.103477   10.814391    0.000000    0.000000    0.000000    0.000000
  0.035200000  -36.026635   48.835464  -97.774614   -3.471071    0.000000    0.000000    0.000000    0.000000
  0.035400000  -35.993174   48.012356  -98.762304   20.319185    0.000000    0.000000    0.000000    0.000000
  0.035600000  -36.036777   48.293892  -99.368051    4.923236    0.000000    0.000000    0.000000    0.000000
  0.035800000  -35.888081   48.887733  -99.285175   17.142923    0.000000    0.000000    0.000000    0.000000
  0.036000000  -35.902667   48.177795  -99.982095    0.533960    0.000000    0.000000    0.000000    0.000000
  0.036200000  -35.892069   47.842724 -100.569840   20.274666    0.000000    0.000000    0.000000    0.000000
  0.036400000  -35.750718   47.978611  -98.234403   14.053185    0.000000    0.000000    0.000000    0.000000
  0.036600000  -35.650587   48.029514 -100.690578   15.341556    0.000000    0.000000    0.000000    0.000000
  0.036800000  -35.850675   48.117039  -98.257000   11.946511    0.000000    0.000000    0.000000    0.000000
  0.037000000  -35.741317   49.231430  -98.118619   12.913816    0.000000    0.000000    0.000000    0.000000
  0.037200000  -35.512608   47.498539  -99.519677    4.078729    0.000000    0.000000    0.000000    0.000000
  0.037400000  -35.597059   48.715672  -98.458298   12.416425    0.000000    0.000000    0.000000    0.000000
  0.037600000  -35.641940   48.121319  -98.830910   11.843448    0.000000    0.000000    0.000000    0.000000
  0.037800000  -35.452359   47.851269  -98.250947    8.490299    0.000000    0.000000    0.000000    0.000000
  0.038000000  -35.477341   48.354614  -98.562865   -5.776402    0.000000    0.000000    0.000000    0.000000
  0.038200000  -35.385781   48.201313  -99.607343    4.663540    0.000000    0.000000    0.000000    0.000000
  0.038400000  -35.264041   47.734577 -101.159757   11.577953    0.000000    0.000000    0.000000    0.000000
  0.038600000  -35.360003   47.801830 -100.902090   12.488102    0.000000    0.000000    0.000000    0.000000
  0.038800000  -35.288440   47.833767 -100.132282   -5.615724    0.000000    0.000000    0.000000    0.000000
  0.039000000  -35.326035   48.017311 -100.402962   18.690329    0.000000    0.000000    0.000000    0.000000
  0.039200000  -35.292970   48.508102  -99.760350    8.028231    0.000000    0.000000    0.000000    0.000000
  0.039400000  -35.274458   48.086323 -100.419340   -2.257663    0.000000    0.000000    0.000000    0.000000
  0.039600000  -35.198804   48.680664  -98.905101   11.706467    0.000000    0.000000    0.000000    0.000000
  0.039800000  -35.127350   48.404476 -102.041638    5.944941    0.000000    0.000000    0.000000    0.000000
  0.040000000  -35.217968   48.962517 -100.051089   12.214655    0.000000    0.000000    0.000000    0.000000
  0.040200000  -35.117301   48.535637 -102.965152   14.306334    0.000000    0.000000    0.000000    0.000000
  0.040400000  -35.205284   48.633389 -100.925554    7.178807    0.000000    0.000000    0.000000    0.000000
  0.040600000  -35.077163   48.391052 -100.403094   -7.841849    0.000000    0.000000    0.000000    0.000000
  0.040800000  -35.164930   48.301098 -100.611348    4.188904    0.000000    0.000000    0.000000    0.000000
  0.041000000  -35.036770   48.082436  -99.817730    3.173883    0.000000    0.000000    0.000000    0.000000
  0.041200000  -35.090582   48.295757  -99.747103    3.287185    0.000000    0.000000    0.000000    0.000000
  0.041400000  -35.028542   47.925468  -99.123727   -1.376408    0.000000    0.000000    0.000000    0.000000
  0.041600000  -35.032143   47.322124  -99.201727    5.313165    0.000000    0.000000    0.000000    0.000000
  0.041800000  -35.063079   47.832130 -101.595052    8.423466    0.000000    0.000000    0.000000    0.000000
  0.042000000  -35.006706   47.707874  -99.565672    2.283852    0.000000    0.000000    0.000000    0.000000
  0.042200000  -35.025104   46.726944 -101.266585   -0.182338    0.000000    0.000000    0.000000    0.000000
  0.042400000  -34.903746   47.447918 -101.265919    0.883376    0.000000    0.000000    0.000000    0.000000
  0.042600000  -34.910241   46.832840  -99.609572    9.037572    0.000000    0.000000    0.000000    0.000000
  0.042800000  -35.001137   47.130054 -101.180416    9.602771    0.000000    0.000000    0.000000    0.000000
