! Anritsu VNA Master:                     Model: MS2036C/10/77
! SN:                                  1601066
! /card0/usr/254.ew.sma.r50.21.s2p
! Existing Calibration Information:
! TYPE:                         Current Settings,       Active Cal Settings
! TIME:             	   12/20/2017 01:02:43 PM,    12/20/2017 12:55:07 PM
! INTERNAL TEMP:    	                   44.3 C,                    44.3 C
! # POINTS:         	                      501,                       501
! START FREQ:       	               10.000 MHz,                10.000 MHz
! STOP FREQ:        	              110.000 MHz,               110.000 MHz
! SOURCE POWER:     	                     High,                      High
! IFBW:             	                   100 Hz,                    100 Hz
! AVG FACTOR:       	                       1 ,                        1 
! REF PLANE 1:      	                     0 mm,                      0 mm
! REF PLANE 2:      	                     0 mm,                      0 mm
! CAL TYPE:         	                 Full S11,                  Full S11
! CAL METHOD:       	                     SOLT,                      SOLT
! CAL LINE TYPE:    	                     Coax,                      Coax
! DUT PORT 1:       	                N-Conn(F),                 N-Conn(F)
! DUT PORT 2:       	                K-Conn(F),                 K-Conn(F)
! CAL STATUS:       	        OK: Accuracy High,                        --
# GHZ S DB R 50.0
! FREQ.GHZ       S11DB        S11A       S21DB        S21A       S12DB        S12A       S22DB        S22A
  0.010000000  -45.054681   62.411625  -83.178664   78.425812    0.000000    0.000000    0.000000    0.000000
  0.010200000  -44.728222   63.451290  -83.595514   76.365761    0.000000    0.000000    0.000000    0.000000
  0.010400000  -44.918357   63.058846  -83.279555   73.284409    0.000000    0.000000    0.000000    0.000000
  0.010600000  -44.675962   62.458630  -83.976326   70.739105    0.000000    0.000000    0.000000    0.000000
  0.010800000  -44.651883   61.338772  -83.846608   73.738838    0.000000    0.000000    0.000000    0.000000
  0.011000000  -44.471937   62.736496  -84.200896   69.887825    0.000000    0.000000    0.000000    0.000000
  0.011200000  -44.147836   60.845367  -84.528143   71.718948    0.000000    0.000000    0.000000    0.000000
  0.011400000  -43.935692   61.372242  -84.873920   65.969223    0.000000    0.000000    0.000000    0.000000
  0.011600000  -43.950623   61.483887  -84.777834   69.313408    0.000000    0.000000    0.000000    0.000000
  0.011800000  -43.656962   59.805519  -85.033073   68.885391    0.000000    0.000000    0.000000    0.000000
  0.012000000  -43.758311   60.925083  -85.165810   63.700699    0.000000    0.000000    0.000000    0.000000
  0.012200000  -43.601729   60.481190  -84.897567   65.115265    0.000000    0.000000    0.000000    0.000000
  0.012400000  -43.666084   61.014469  -85.345492   66.392097    0.000000    0.000000    0.000000    0.000000
  0.012600000  -43.447255   60.337734  -85.818020   64.675369    0.000000    0.000000    0.000000    0.000000
  0.012800000  -43.314054   60.574379  -86.438698   64.856453    0.000000    0.000000    0.000000    0.000000
  0.013000000  -43.300772   61.522346  -86.232239   64.698616    0.000000    0.000000    0.000000    0.000000
  0.013200000  -43.121628   59.887802  -85.955066   63.752426    0.000000    0.000000    0.000000    0.000000
  0.013400000  -43.126044   60.700752  -86.199224   59.115143    0.000000    0.000000    0.000000    0.000000
  0.013600000  -42.889523   60.035503  -86.381442   58.118210    0.000000    0.000000    0.000000    0.000000
  0.013800000  -42.928761   60.092094  -86.674737   60.802986    0.000000    0.000000    0.000000    0.000000
  0.014000000  -42.648179   60.299278  -87.170011   56.447830    0.000000    0.000000    0.000000    0.000000
  0.014200000  -42.632048   59.665314  -86.806077   58.983921    0.000000    0.000000    0.000000    0.000000
  0.014400000  -42.436216   60.389717  -87.256420   57.122044    0.000000    0.000000    0.000000    0.000000
  0.014600000  -42.384009   60.284241  -87.287660   57.456863    0.000000    0.000000    0.000000    0.000000
  0.014800000  -42.416805   60.023827  -87.576412   53.074535    0.000000    0.000000    0.000000    0.000000
  0.015000000  -42.375610   61.063519  -88.098272   53.003002    0.000000    0.000000    0.000000    0.000000
  0.015200000  -42.171605   59.781048  -87.928971   52.109653    0.000000    0.000000    0.000000    0.000000
  0.015400000  -42.171212   60.210114  -87.724817   55.716393    0.000000    0.000000    0.000000    0.000000
  0.015600000  -42.103415   59.818066  -88.094840   48.479427    0.000000    0.000000    0.000000    0.000000
  0.015800000  -42.027106   59.032791  -88.154421   53.140942    0.000000    0.000000    0.000000    0.000000
  0.016000000  -42.050230   58.675552  -88.348261   49.644730    0.000000    0.000000    0.000000    0.000000
  0.016200000  -41.907665   60.186623  -88.299584   48.521362    0.000000    0.000000    0.000000    0.000000
  0.016400000  -41.865050   59.391602  -88.903915   49.468933    0.000000    0.000000    0.000000    0.000000
  0.016600000  -41.725372   59.924049  -88.996262   47.605358    0.000000    0.000000    0.000000    0.000000
  0.016800000  -41.645036   59.906338  -88.895654   46.641094    0.000000    0.000000    0.000000    0.000000
  0.017000000  -41.688448   59.476822  -88.990250   44.457882    0.000000    0.000000    0.000000    0.000000
  0.017200000  -41.608212   59.015942  -89.040895   46.665562    0.000000    0.000000    0.000000    0.000000
  0.017400000  -41.453403   58.714520  -89.144293   45.576550    0.000000    0.000000    0.000000    0.000000
  0.017600000  -41.386328   58.769276  -89.773463   47.135651    0.000000    0.000000    0.000000    0.000000
  0.017800000  -41.380996   58.063446  -89.898657   42.698116    0.000000    0.000000    0.000000    0.000000
  0.018000000  -41.490210   57.898586  -89.988810   44.727077    0.000000    0.000000    0.000000    0.000000
  0.018200000  -41.175396   57.622173  -90.407959   42.741257    0.000000    0.000000    0.000000    0.000000
  0.018400000  -41.259855   57.855843  -90.055486   40.202400    0.000000    0.000000    0.000000    0.000000
  0.018600000  -40.913168   57.111561  -89.766170   44.924675    0.000000    0.000000    0.000000    0.000000
  0.018800000  -40.967637   58.043644  -89.986559   40.262619    0.000000    0.000000    0.000000    0.000000
  0.019000000  -41.002035   57.342087  -90.289277   36.463856    0.000000    0.000000    0.000000    0.000000
  0.019200000  -41.010481   57.375393  -92.209075   41.549286    0.000000    0.000000    0.000000    0.000000
  0.019400000  -40.767418   57.333359  -90.760543   42.687660    0.000000    0.000000    0.000000    0.000000
  0.019600000  -40.808038   56.773224  -90.505827   42.932270    0.000000    0.000000    0.000000    0.000000
  0.019800000  -40.677221   56.048786  -90.755878   36.457619    0.000000    0.000000    0.000000    0.000000
  0.020000000  -40.669564   56.294155  -91.648145   37.883244    0.000000    0.000000    0.000000    0.000000
  0.020200000  -40.511294   55.843296  -91.242689   38.790367    0.000000    0.000000    0.000000    0.000000
  0.020400000  -40.460417   56.283035  -91.514970   32.882553    0.000000    0.000000    0.000000    0.000000
  0.020600000  -40.446097   56.230858  -92.224051   32.531170    0.000000    0.000000    0.000000    0.000000
  0.020800000  -40.335666   55.459385  -90.764265   33.546844    0.000000    0.000000    0.000000    0.000000
  0.021000000  -40.125357   55.493469  -91.155307   30.932167    0.000000    0.000000    0.000000    0.000000
  0.021200000  -40.116799   56.666542  -91.606717   35.699108    0.000000    0.000000    0.000000    0.000000
  0.021400000  -40.018786   55.899147  -91.504272   33.281166    0.000000    0.000000    0.000000    0.000000
  0.021600000  -40.117769   55.605385  -91.880349   38.736828    0.000000    0.000000    0.000000    0.000000
  0.021800000  -39.858087   54.879543  -93.221595   33.776939    0.000000    0.000000    0.000000    0.000000
  0.022000000  -39.876853   56.122807  -92.009434   25.226038    0.000000    0.000000    0.000000    0.000000
  0.022200000  -39.735467   56.169060  -92.137472   33.040646    0.000000    0.000000    0.000000    0.000000
  0.022400000  -39.762332   55.896317  -91.683009   37.119911    0.000000    0.000000    0.000000    0.000000
  0.022600000  -39.648776   56.593231  -92.780654   30.916340    0.000000    0.000000    0.000000    0.000000
  0.022800000  -39.631691   56.098202  -92.255775   29.762976    0.000000    0.000000    0.000000    0.000000
  0.023000000  -39.656639   56.824570  -93.006399   31.070318    0.000000    0.000000    0.000000    0.000000
  0.023200000  -39.456468   55.230793  -93.630225   25.089558    0.000000    0.000000    0.000000    0.000000
  0.023400000  -39.445715   55.465118  -94.089081   25.309927    0.000000    0.000000    0.000000    0.000000
  0.023600000  -39.410393   56.174595  -94.139422   27.722111    0.000000    0.000000    0.000000    0.000000
  0.023800000  -39.307150   55.805626  -93.089094   27.891399    0.000000    0.000000    0.000000    0.000000
  0.024000000  -39.239770   55.611523  -93.927767   21.488316    0.000000    0.000000    0.000000    0.000000
  0.024200000  -39.220068   56.533737  -93.841072   23.071596    0.000000    0.000000    0.000000    0.000000
  0.024400000  -39.260926   56.029579  -93.971939   25.267765    0.000000    0.000000    0.000000    0.000000
  0.024600000  -39.188878   55.412365  -94.233959   24.068878    0.000000    0.000000    0.000000    0.000000
  0.024800000  -39.153945   54.606693  -93.542790   22.179874    0.000000    0.000000    0.000000    0.000000
  0.025000000  -39.271413   55.605862  -93.705262   28.148518    0.000000    0.000000    0.000000    0.000000
  0.025200000  -39.129221   55.101479  -92.965872   22.433371    0.000000    0.000000    0.000000    0.000000
  0.025400000  -39.081177   55.022568  -95.543637   23.777081    0.000000    0.000000    0.000000    0.000000
  0.025600000  -39.090858   55.152088  -93.777105   25.007748    0.000000    0.000000    0.000000    0.000000
  0.025800000  -38.983322   54.861153  -94.716345   19.448164    0.000000    0.000000    0.000000    0.000000
  0.026000000  -38.936919   54.136986  -95.242844   26.568638    0.000000    0.000000    0.000000    0.000000
  0.026200000  -38.980429   54.139660  -94.876127   23.947109    0.000000    0.000000    0.000000    0.000000
  0.026400000  -38.923597   54.060768  -95.576868   20.243242    0.000000    0.000000    0.000000    0.000000
  0.026600000  -38.804015   53.503628  -94.450632   25.009047    0.000000    0.000000    0.000000    0.000000
  0.026800000  -38.789742   53.250458  -94.990803   19.989292    0.000000    0.000000    0.000000    0.000000
  0.027000000  -38.654798   53.462490  -94.765593   20.976360    0.000000    0.000000    0.000000    0.000000
  0.027200000  -38.710773   53.664303  -95.670537   19.890652    0.000000    0.000000    0.000000    0.000000
  0.027400000  -38.472974   53.662640  -96.126423   22.570114    0.000000    0.000000    0.000000    0.000000
  0.027600000  -38.520233   52.650890  -95.302987   25.091299    0.000000    0.000000    0.000000    0.000000
  0.027800000  -38.373877   52.239189  -94.967343   24.777241    0.000000    0.000000    0.000000    0.000000
  0.028000000  -38.451681   52.627598  -96.825943   22.696535    0.000000    0.000000    0.000000    0.000000
  0.028200000  -38.400624   53.126579  -95.857221   23.100956    0.000000    0.000000    0.000000    0.000000
  0.028400000  -38.244300   52.829456  -95.033153   17.195658    0.000000    0.000000    0.000000    0.000000
  0.028600000  -38.220616   52.496094  -96.305289   24.274372    0.000000    0.000000    0.000000    0.000000
  0.028800000  -38.229451   52.657642  -96.918671   13.205961    0.000000    0.000000    0.000000    0.000000
  0.029000000  -38.149015   52.634064  -95.492603   15.058093    0.000000    0.000000    0.000000    0.000000
  0.029200000  -38.301140   52.170311  -96.243341   16.235378    0.000000    0.000000    0.000000    0.000000
  0.029400000  -38.157748   52.010441  -96.872337   16.160532    0.000000    0.000000    0.000000    0.000000
  0.029600000  -37.967984   51.977966  -95.152932   16.595720    0.000000    0.000000    0.000000    0.000000
  0.029800000  -37.993961   52.846725  -97.320341   20.695881    0.000000    0.000000    0.000000    0.000000
  0.030000000  -38.001198   52.487751  -96.336997   17.886742    0.000000    0.000000    0.000000    0.000000
  0.030200000  -37.946846   51.385185  -95.798569   23.237503    0.000000    0.000000    0.000000    0.000000
  0.030400000  -37.871365   52.087635  -96.566414   24.382101    0.000000    0.000000    0.000000    0.000000
  0.030600000  -37.862008   52.162319  -96.350875   21.319664    0.000000    0.000000    0.000000    0.000000
  0.030800000  -37.838325   51.458691  -97.285937   16.096592    0.000000    0.000000    0.000000    0.000000
  0.031000000  -37.897823   50.971138  -97.976025   10.844584    0.000000    0.000000    0.000000    0.000000
  0.031200000  -37.573984   51.762966  -96.437051   10.519156    0.000000    0.000000    0.000000    0.000000
  0.031400000  -37.687752   51.286232  -97.705970   22.962488    0.000000    0.000000    0.000000    0.000000
  0.031600000  -37.666357   51.965542  -95.560154   18.268122    0.000000    0.000000    0.000000    0.000000
  0.031800000  -37.594228   51.743156  -96.656469    1.747645    0.000000    0.000000    0.000000    0.000000
  0.032000000  -37.722651   51.560734  -98.628485    3.745112    0.000000    0.000000    0.000000    0.000000
  0.032200000  -37.647736   51.064419  -96.239223   11.551233    0.000000    0.000000    0.000000    0.000000
  0.032400000  -37.537524   51.176331  -96.017883   21.259478    0.000000    0.000000    0.000000    0.000000
  0.032600000  -37.572221   50.837154  -97.714356   13.471204    0.000000    0.000000    0.000000    0.000000
  0.032800000  -37.547332   50.445293  -98.141039    1.641782    0.000000    0.000000    0.000000    0.000000
  0.033000000  -37.467685   50.918884  -97.899619   13.262931    0.000000    0.000000    0.000000    0.000000
  0.033200000  -37.353696   49.701279  -96.464463    8.843368    0.000000    0.000000    0.000000    0.000000
  0.033400000  -37.328218   49.854023  -98.138087   10.583699    0.000000    0.000000    0.000000    0.000000
  0.033600000  -37.370489   49.866344  -98.056378   14.723374    0.000000    0.000000    0.000000    0.000000
  0.033800000  -37.250446   49.625904  -97.477656    9.218227    0.000000    0.000000    0.000000    0.000000
  0.034000000  -37.299770   49.909355  -98.025310    3.794962    0.000000    0.000000    0.000000    0.000000
  0.034200000  -37.224911   49.251526  -97.618154   10.953101    0.000000    0.000000    0.000000    0.000000
  0.034400000  -37.157933   48.392525  -99.113381    8.742583    0.000000    0.000000    0.000000    0.000000
  0.034600000  -37.077080   48.743214  -98.511431   -2.670556    0.000000    0.000000    0.000000    0.000000
  0.034800000  -36.980241   49.313519  -98.352434    7.362355    0.000000    0.000000    0.000000    0.000000
  0.035000000  -37.017993   48.413044  -97.632168    6.958283    0.000000    0.000000    0.000000    0.000000
  0.035200000  -36.992628   48.378044  -98.511781   16.544947    0.000000    0.000000    0.000000    0.000000
  0.035400000  -36.963190   48.699051  -99.235680   11.773507    0.000000    0.000000    0.000000    0.000000
  0.035600000  -36.901845   48.275272  -97.715215   11.785959    0.000000    0.000000    0.000000    0.000000
  0.035800000  -36.781167   48.600967  -98.400698   26.128143    0.000000    0.000000    0.000000    0.000000
  0.036000000  -36.836671   48.117588  -98.638630   16.604189    0.000000    0.000000    0.000000    0.000000
  0.036200000  -36.654381   48.285576 -100.501734    2.876698    0.000000    0.000000    0.000000    0.000000
  0.036400000  -36.777066   48.142529  -99.609031   17.548285    0.000000    0.000000    0.000000    0.000000
  0.036600000  -36.680421   48.525539  -99.050121   17.278467    0.000000    0.000000    0.000000    0.000000
  0.036800000  -36.658565   48.225151  -97.420467    3.237575    0.000000    0.000000    0.000000    0.000000
  0.037000000  -36.584889   48.814621 -100.576407    5.410131    0.000000    0.000000    0.000000    0.000000
  0.037200000  -36.693634   48.406200  -98.976309    5.144920    0.000000    0.000000    0.000000    0.000000
  0.037400000  -36.545829   47.714375  -99.231067   20.597685    0.000000    0.000000    0.000000    0.000000
  0.037600000  -36.620569   48.019627 -102.387287   -7.291663    0.000000    0.000000    0.000000    0.000000
  0.037800000  -36.596043   48.107018  -99.629671   12.043065    0.000000    0.000000    0.000000    0.000000
  0.038000000  -36.529464   47.676891  -99.107747   12.820256    0.000000    0.000000    0.000000    0.000000
  0.038200000  -36.396066   47.214024  -99.582761    4.523874    0.000000    0.000000    0.000000    0.000000
  0.038400000  -36.473648   46.986992 -100.234450   23.193993    0.000000    0.000000    0.000000    0.000000
  0.038600000  -36.496963   47.013458  -99.689670    2.019858    0.000000    0.000000    0.000000    0.000000
  0.038800000  -36.489624   47.424232  -98.876353    2.396095    0.000000    0.000000    0.000000    0.000000
  0.039000000  -36.412303   46.778023  -99.674435   14.873186    0.000000    0.000000    0.000000    0.000000
  0.039200000  -36.368623   46.989784 -100.126860    9.165250    0.000000    0.000000    0.000000    0.000000
  0.039400000  -36.326823   46.154961  -99.461366    6.460032    0.000000    0.000000    0.000000    0.000000
  0.039600000  -36.382944   46.245018 -102.714305   12.014326    0.000000    0.000000    0.000000    0.000000
  0.039800000  -36.249772   46.871922 -100.001534    3.289521    0.000000    0.000000    0.000000    0.000000
  0.040000000  -36.226974   46.183487  -98.927634   -1.374424    0.000000    0.000000    0.000000    0.000000
  0.040200000  -36.227043   45.732372 -101.664585   -6.455635    0.000000    0.000000    0.000000    0.000000
  0.040400000  -36.220597   45.547226 -100.882796    5.830718    0.000000    0.000000    0.000000    0.000000
  0.040600000  -36.143297   45.526787  -98.342515   11.653695    0.000000    0.000000    0.000000    0.000000
  0.040800000  -36.129030   44.519745 -100.724597    6.010642    0.000000    0.000000    0.000000    0.000000
  0.041000000  -36.191828   44.288364  -99.603826    8.229311    0.000000    0.000000    0.000000    0.000000
  0.041200000  -36.039124   44.531883  -99.844181   -5.094028    0.000000    0.000000    0.000000    0.000000
  0.041400000  -36.002248   44.413429 -101.942533    3.013950    0.000000    0.000000    0.000000    0.000000
  0.041600000  -35.907211   43.923798 -101.021709    6.078979    0.000000    0.000000    0.000000    0.000000
  0.041800000  -35.882214   43.209957  -99.324004   14.852562    0.000000    0.000000    0.000000    0.000000
  0.042000000  -35.876885   44.127689  -99.538595    9.261600    0.000000    0.000000    0.000000    0.000000
  0.042200000  -35.749636   44.085728 -100.011369    6.397915    0.000000    0.000000    0.000000    0.000000
  0.042400000  -35.674952   43.001865 -101.799131   11.453357    0.000000    0.000000    0.000000    0.000000
  0.042600000  -35.681311   43.696335  -99.500172    0.571511    0.000000    0.000000    0.000000    0.000000
  0.042800000  -35.679490   42.984058 -100.276323    1.829641    0.000000    0.000000    0.000000    0.000000
