! Anritsu VNA Master:                     Model: MS2036C/10/77
! SN:                                  1601066
! /card0/usr/254.ew.sma.r200.11.s2p
! Existing Calibration Information:
! TYPE:                         Current Settings,       Active Cal Settings
! TIME:             	   12/20/2017 12:37:48 PM,    12/20/2017 12:32:09 PM
! INTERNAL TEMP:    	                   45.3 C,                    45.8 C
! # POINTS:         	                      501,                       501
! START FREQ:       	               10.000 MHz,                10.000 MHz
! STOP FREQ:        	              110.000 MHz,               110.000 MHz
! SOURCE POWER:     	                     High,                      High
! IFBW:             	                   100 Hz,                    100 Hz
! AVG FACTOR:       	                       1 ,                        1 
! REF PLANE 1:      	                     0 mm,                      0 mm
! REF PLANE 2:      	                     0 mm,                      0 mm
! CAL TYPE:         	                 Full S11,                  Full S11
! CAL METHOD:       	                     SOLT,                      SOLT
! CAL LINE TYPE:    	                     Coax,                      Coax
! DUT PORT 1:       	                N-Conn(F),                 N-Conn(F)
! DUT PORT 2:       	                K-Conn(F),                 K-Conn(F)
! CAL STATUS:       	        OK: Accuracy High,                        --
# GHZ S DB R 50.0
! FREQ.GHZ       S11DB        S11A       S21DB        S21A       S12DB        S12A       S22DB        S22A
  0.010000000  -47.783738 -104.957375  -84.186801   74.299095    0.000000    0.000000    0.000000    0.000000
  0.010200000  -48.203521 -107.513489  -84.822042   73.945236    0.000000    0.000000    0.000000    0.000000
  0.010400000  -47.326247 -108.266068  -84.656693   76.607903    0.000000    0.000000    0.000000    0.000000
  0.010600000  -47.593768 -109.143600  -85.051695   73.160393    0.000000    0.000000    0.000000    0.000000
  0.010800000  -47.620768 -106.522339  -85.095764   75.363251    0.000000    0.000000    0.000000    0.000000
  0.011000000  -47.234000 -111.799065  -84.999350   74.236938    0.000000    0.000000    0.000000    0.000000
  0.011200000  -47.089492 -109.292572  -85.306021   76.356400    0.000000    0.000000    0.000000    0.000000
  0.011400000  -46.901349 -111.032669  -85.315859   76.304207    0.000000    0.000000    0.000000    0.000000
  0.011600000  -46.839363 -112.500664  -84.908345   75.343498    0.000000    0.000000    0.000000    0.000000
  0.011800000  -46.974560 -112.427780  -84.929478   75.346687    0.000000    0.000000    0.000000    0.000000
  0.012000000  -46.950110 -112.967644  -85.180284   74.405441    0.000000    0.000000    0.000000    0.000000
  0.012200000  -46.812157 -114.528381  -85.133689   71.925232    0.000000    0.000000    0.000000    0.000000
  0.012400000  -46.664495 -116.006081  -84.853319   69.251129    0.000000    0.000000    0.000000    0.000000
  0.012600000  -46.562211 -114.871651  -85.007798   67.988861    0.000000    0.000000    0.000000    0.000000
  0.012800000  -46.482738 -114.824615  -85.481753   65.968781    0.000000    0.000000    0.000000    0.000000
  0.013000000  -46.348561 -117.830063  -85.232093   65.761063    0.000000    0.000000    0.000000    0.000000
  0.013200000  -46.217244 -116.397514  -85.079366   62.499134    0.000000    0.000000    0.000000    0.000000
  0.013400000  -46.200737 -121.076416  -85.215096   61.299423    0.000000    0.000000    0.000000    0.000000
  0.013600000  -45.912301 -117.779778  -85.835896   58.053726    0.000000    0.000000    0.000000    0.000000
  0.013800000  -45.834120 -119.569359  -85.470750   57.200199    0.000000    0.000000    0.000000    0.000000
  0.014000000  -46.031124 -120.907806  -86.164187   55.312614    0.000000    0.000000    0.000000    0.000000
  0.014200000  -45.528262 -122.213097  -86.492996   54.776703    0.000000    0.000000    0.000000    0.000000
  0.014400000  -45.705276 -121.016174  -86.893970   51.931385    0.000000    0.000000    0.000000    0.000000
  0.014600000  -45.528544 -122.519623  -86.527190   49.952766    0.000000    0.000000    0.000000    0.000000
  0.014800000  -45.407751 -122.599243  -86.487624   49.310070    0.000000    0.000000    0.000000    0.000000
  0.015000000  -45.406028 -123.724602  -87.207074   47.540028    0.000000    0.000000    0.000000    0.000000
  0.015200000  -45.024032 -123.432335  -87.659911   45.350437    0.000000    0.000000    0.000000    0.000000
  0.015400000  -45.128057 -123.915085  -87.945646   47.777882    0.000000    0.000000    0.000000    0.000000
  0.015600000  -45.688048 -126.379906  -88.090256   47.912270    0.000000    0.000000    0.000000    0.000000
  0.015800000  -45.008544 -126.269363  -88.804634   44.339718    0.000000    0.000000    0.000000    0.000000
  0.016000000  -44.933547 -126.721527  -88.500879   43.164791    0.000000    0.000000    0.000000    0.000000
  0.016200000  -44.750400 -127.440536  -88.997855   46.220196    0.000000    0.000000    0.000000    0.000000
  0.016400000  -44.605726 -128.003525  -89.512823   47.353111    0.000000    0.000000    0.000000    0.000000
  0.016600000  -44.652277 -127.926613  -89.762410   45.920784    0.000000    0.000000    0.000000    0.000000
  0.016800000  -44.482942 -128.297607  -90.411457   44.613255    0.000000    0.000000    0.000000    0.000000
  0.017000000  -44.670756 -127.884422  -90.285631   45.257385    0.000000    0.000000    0.000000    0.000000
  0.017200000  -44.471661 -129.294800  -89.935483   48.475758    0.000000    0.000000    0.000000    0.000000
  0.017400000  -44.273614 -129.435822  -89.962692   50.716496    0.000000    0.000000    0.000000    0.000000
  0.017600000  -44.404833 -130.431549  -90.399057   47.908077    0.000000    0.000000    0.000000    0.000000
  0.017800000  -44.220411 -130.760605  -91.000031   44.535538    0.000000    0.000000    0.000000    0.000000
  0.018000000  -44.075863 -130.597458  -90.157030   43.169281    0.000000    0.000000    0.000000    0.000000
  0.018200000  -44.016780 -130.355591  -90.351038   44.003841    0.000000    0.000000    0.000000    0.000000
  0.018400000  -44.037846 -131.579163  -90.268533   49.238819    0.000000    0.000000    0.000000    0.000000
  0.018600000  -43.935347 -131.249741  -90.685776   44.793705    0.000000    0.000000    0.000000    0.000000
  0.018800000  -43.880800 -132.193176  -90.321037   44.280235    0.000000    0.000000    0.000000    0.000000
  0.019000000  -43.803812 -132.139267  -89.875000   46.141708    0.000000    0.000000    0.000000    0.000000
  0.019200000  -43.726444 -132.790894  -90.301478   44.846664    0.000000    0.000000    0.000000    0.000000
  0.019400000  -43.740286 -133.437332  -90.616428   47.546429    0.000000    0.000000    0.000000    0.000000
  0.019600000  -43.597026 -133.769379  -90.892300   42.009853    0.000000    0.000000    0.000000    0.000000
  0.019800000  -43.525359 -134.785690  -90.504993   41.444450    0.000000    0.000000    0.000000    0.000000
  0.020000000  -43.439839 -134.478851  -90.209865   39.794140    0.000000    0.000000    0.000000    0.000000
  0.020200000  -43.426869 -134.938324  -90.162852   40.687000    0.000000    0.000000    0.000000    0.000000
  0.020400000  -43.373696 -135.212753  -90.999255   33.019318    0.000000    0.000000    0.000000    0.000000
  0.020600000  -43.396674 -135.702179  -90.714893   34.897739    0.000000    0.000000    0.000000    0.000000
  0.020800000  -43.161527 -136.607895  -90.690643   31.530273    0.000000    0.000000    0.000000    0.000000
  0.021000000  -43.273931 -136.726273  -90.988773   34.268387    0.000000    0.000000    0.000000    0.000000
  0.021200000  -43.003845 -137.414459  -91.428367   32.843643    0.000000    0.000000    0.000000    0.000000
  0.021400000  -43.196637 -138.419434  -91.461918   32.968761    0.000000    0.000000    0.000000    0.000000
  0.021600000  -43.144476 -137.572235  -91.508796   25.771557    0.000000    0.000000    0.000000    0.000000
  0.021800000  -43.046124 -138.538956  -92.305681   35.517464    0.000000    0.000000    0.000000    0.000000
  0.022000000  -42.827022 -138.643982  -91.709663   29.994287    0.000000    0.000000    0.000000    0.000000
  0.022200000  -42.900173 -138.308029  -91.979838   31.759598    0.000000    0.000000    0.000000    0.000000
  0.022400000  -42.808352 -139.408676  -92.626635   25.413206    0.000000    0.000000    0.000000    0.000000
  0.022600000  -42.714050 -139.741821  -92.713682   24.117432    0.000000    0.000000    0.000000    0.000000
  0.022800000  -42.664703 -140.462433  -93.072822   32.370300    0.000000    0.000000    0.000000    0.000000
  0.023000000  -42.915444 -142.087280  -93.371048   29.732954    0.000000    0.000000    0.000000    0.000000
  0.023200000  -42.763988 -141.655899  -93.181259   30.690010    0.000000    0.000000    0.000000    0.000000
  0.023400000  -42.151596 -143.143677  -94.451178   35.320518    0.000000    0.000000    0.000000    0.000000
  0.023600000  -42.573170 -142.221741  -93.586868   32.833839    0.000000    0.000000    0.000000    0.000000
  0.023800000  -42.510242 -143.008606  -93.897859   27.916519    0.000000    0.000000    0.000000    0.000000
  0.024000000  -42.514661 -142.653687  -93.552444   28.625481    0.000000    0.000000    0.000000    0.000000
  0.024200000  -42.497795 -144.041306  -94.082383   26.993584    0.000000    0.000000    0.000000    0.000000
  0.024400000  -42.379229 -143.671387  -94.879344   36.297997    0.000000    0.000000    0.000000    0.000000
  0.024600000  -42.355951 -143.978226  -92.901539   35.696289    0.000000    0.000000    0.000000    0.000000
  0.024800000  -42.402994 -144.420181  -94.221669   25.123520    0.000000    0.000000    0.000000    0.000000
  0.025000000  -42.430121 -145.127960  -94.454637   33.081192    0.000000    0.000000    0.000000    0.000000
  0.025200000  -42.232096 -145.370850  -95.418617   39.274136    0.000000    0.000000    0.000000    0.000000
  0.025400000  -42.179469 -145.558746  -94.035161   30.105200    0.000000    0.000000    0.000000    0.000000
  0.025600000  -42.198573 -145.481140  -94.855340   32.935196    0.000000    0.000000    0.000000    0.000000
  0.025800000  -42.236086 -145.903488  -94.775428   28.716694    0.000000    0.000000    0.000000    0.000000
  0.026000000  -42.145720 -147.068787  -94.232366   27.382908    0.000000    0.000000    0.000000    0.000000
  0.026200000  -42.199112 -146.547287  -93.696475   26.539131    0.000000    0.000000    0.000000    0.000000
  0.026400000  -42.109746 -147.339066  -96.304478   22.481529    0.000000    0.000000    0.000000    0.000000
  0.026600000  -42.014966 -147.698318  -95.025602   23.239244    0.000000    0.000000    0.000000    0.000000
  0.026800000  -41.962325 -147.827118  -93.903570   24.709431    0.000000    0.000000    0.000000    0.000000
  0.027000000  -41.926867 -148.511124  -93.712710   16.364620    0.000000    0.000000    0.000000    0.000000
  0.027200000  -41.943023 -148.954651  -95.109633   22.462408    0.000000    0.000000    0.000000    0.000000
  0.027400000  -41.861306 -149.024216  -94.760798   28.474257    0.000000    0.000000    0.000000    0.000000
  0.027600000  -41.855324 -149.604462  -95.220257   23.766712    0.000000    0.000000    0.000000    0.000000
  0.027800000  -41.787900 -149.901016  -95.858588   15.756081    0.000000    0.000000    0.000000    0.000000
  0.028000000  -41.753335 -150.425949  -95.362141   16.995703    0.000000    0.000000    0.000000    0.000000
  0.028200000  -41.744460 -151.017197  -95.549709   14.891684    0.000000    0.000000    0.000000    0.000000
  0.028400000  -41.747136 -151.031860  -96.427043   12.789727    0.000000    0.000000    0.000000    0.000000
  0.028600000  -41.735503 -151.307877  -96.610805   12.018215    0.000000    0.000000    0.000000    0.000000
  0.028800000  -41.654283 -151.814301  -95.969637   15.048641    0.000000    0.000000    0.000000    0.000000
  0.029000000  -41.621851 -152.125793  -95.925798   18.758785    0.000000    0.000000    0.000000    0.000000
  0.029200000  -41.593364 -151.721085  -97.289218   16.665222    0.000000    0.000000    0.000000    0.000000
  0.029400000  -41.616294 -152.063965  -96.173829   12.282802    0.000000    0.000000    0.000000    0.000000
  0.029600000  -41.593575 -152.496811  -96.610239   13.343973    0.000000    0.000000    0.000000    0.000000
  0.029800000  -41.552881 -153.743484  -97.257438   17.577484    0.000000    0.000000    0.000000    0.000000
  0.030000000  -41.621143 -152.838593  -97.281243   15.068734    0.000000    0.000000    0.000000    0.000000
  0.030200000  -41.563833 -153.138840  -98.033899   18.321835    0.000000    0.000000    0.000000    0.000000
  0.030400000  -41.453896 -154.434219  -98.332922   13.766618    0.000000    0.000000    0.000000    0.000000
  0.030600000  -41.557098 -154.776688  -96.648314   17.948595    0.000000    0.000000    0.000000    0.000000
  0.030800000  -41.528964 -155.345566  -99.861088   15.718690    0.000000    0.000000    0.000000    0.000000
  0.031000000  -41.390864 -154.787018  -97.948257   18.288092    0.000000    0.000000    0.000000    0.000000
  0.031200000  -41.358395 -155.482330  -95.359103   13.021966    0.000000    0.000000    0.000000    0.000000
  0.031400000  -41.385996 -155.279327  -97.719757   26.989510    0.000000    0.000000    0.000000    0.000000
  0.031600000  -41.263003 -155.853577  -98.481951   11.934766    0.000000    0.000000    0.000000    0.000000
  0.031800000  -41.281584 -156.332565  -96.236947   -0.099501    0.000000    0.000000    0.000000    0.000000
  0.032000000  -41.162864 -156.160919  -97.094615   14.243788    0.000000    0.000000    0.000000    0.000000
  0.032200000  -41.225035 -156.988556  -98.121662   16.604155    0.000000    0.000000    0.000000    0.000000
  0.032400000  -41.173860 -156.907074  -96.600725   14.029234    0.000000    0.000000    0.000000    0.000000
  0.032600000  -41.113225 -157.572510  -98.739117   14.155805    0.000000    0.000000    0.000000    0.000000
  0.032800000  -41.129718 -158.089172  -97.377606   13.967031    0.000000    0.000000    0.000000    0.000000
  0.033000000  -41.083738 -157.739975  -96.770424   17.965944    0.000000    0.000000    0.000000    0.000000
  0.033200000  -41.097300 -157.574677  -98.538681   12.059238    0.000000    0.000000    0.000000    0.000000
  0.033400000  -41.120889 -158.772842  -99.007355   28.101177    0.000000    0.000000    0.000000    0.000000
  0.033600000  -40.962331 -158.595825  -97.858478   21.282396    0.000000    0.000000    0.000000    0.000000
  0.033800000  -40.931602 -159.320129  -98.312492   17.792618    0.000000    0.000000    0.000000    0.000000
  0.034000000  -40.895181 -159.365082  -98.926621   17.997746    0.000000    0.000000    0.000000    0.000000
  0.034200000  -41.065060 -159.524933  -97.814261    9.755084    0.000000    0.000000    0.000000    0.000000
  0.034400000  -40.937755 -160.389343  -98.602913   19.335032    0.000000    0.000000    0.000000    0.000000
  0.034600000  -40.871438 -160.117722  -98.856497   -3.638876    0.000000    0.000000    0.000000    0.000000
  0.034800000  -40.961770 -160.664032  -99.857523   12.296159    0.000000    0.000000    0.000000    0.000000
  0.035000000  -40.876453 -160.920868  -99.354822    7.167599    0.000000    0.000000    0.000000    0.000000
  0.035200000  -40.869202 -161.112900  -97.280842    8.543651    0.000000    0.000000    0.000000    0.000000
  0.035400000  -40.846743 -161.347229  -98.166804    4.908746    0.000000    0.000000    0.000000    0.000000
  0.035600000  -40.816058 -161.274780 -101.029202   -7.299327    0.000000    0.000000    0.000000    0.000000
  0.035800000  -40.819649 -162.216034 -100.088424   11.770802    0.000000    0.000000    0.000000    0.000000
  0.036000000  -40.770738 -162.729141  -99.051533    7.095197    0.000000    0.000000    0.000000    0.000000
  0.036200000  -40.741443 -162.528061  -97.448682   10.042778    0.000000    0.000000    0.000000    0.000000
  0.036400000  -40.764006 -162.781387  -99.076861   10.943318    0.000000    0.000000    0.000000    0.000000
  0.036600000  -40.737471 -162.743408  -98.123037   10.319632    0.000000    0.000000    0.000000    0.000000
  0.036800000  -40.676676 -163.353821 -100.011676    6.139912    0.000000    0.000000    0.000000    0.000000
  0.037000000  -40.667287 -163.353470  -99.352570   17.926779    0.000000    0.000000    0.000000    0.000000
  0.037200000  -40.653608 -163.412155  -99.326236   21.571220    0.000000    0.000000    0.000000    0.000000
  0.037400000  -40.699255 -163.766510  -96.800146   17.041677    0.000000    0.000000    0.000000    0.000000
  0.037600000  -40.684935 -164.196854  -98.845083   16.588640    0.000000    0.000000    0.000000    0.000000
  0.037800000  -40.697192 -164.141998  -98.436993    4.809301    0.000000    0.000000    0.000000    0.000000
  0.038000000  -40.739864 -164.431458  -99.606242   21.097939    0.000000    0.000000    0.000000    0.000000
  0.038200000  -40.650495 -164.637070  -98.797044   16.257116    0.000000    0.000000    0.000000    0.000000
  0.038400000  -40.641095 -165.132721  -97.995932    9.997437    0.000000    0.000000    0.000000    0.000000
  0.038600000  -40.708933 -165.424164  -97.441250   15.541957    0.000000    0.000000    0.000000    0.000000
  0.038800000  -40.630622 -165.906891  -99.718554   13.338246    0.000000    0.000000    0.000000    0.000000
  0.039000000  -40.636435 -166.236343  -99.681680   17.634151    0.000000    0.000000    0.000000    0.000000
  0.039200000  -40.568554 -166.006088  -99.434186   14.475095    0.000000    0.000000    0.000000    0.000000
  0.039400000  -40.520749 -166.692856  -99.829272    5.176986    0.000000    0.000000    0.000000    0.000000
  0.039600000  -40.546236 -167.052399  -99.639058   10.615462    0.000000    0.000000    0.000000    0.000000
  0.039800000  -40.583704 -166.929977 -100.090435   13.644169    0.000000    0.000000    0.000000    0.000000
  0.040000000  -40.491076 -167.558884  -98.994018    0.092882    0.000000    0.000000    0.000000    0.000000
  0.040200000  -40.490938 -167.793030 -101.720810   -6.091881    0.000000    0.000000    0.000000    0.000000
  0.040400000  -40.471232 -167.587601 -101.716251   25.141029    0.000000    0.000000    0.000000    0.000000
  0.040600000  -40.432010 -167.946976  -99.847380   -4.308654    0.000000    0.000000    0.000000    0.000000
  0.040800000  -40.452047 -168.143677 -101.047176    5.816947    0.000000    0.000000    0.000000    0.000000
  0.041000000  -40.469914 -168.564026 -100.880342   -2.181500    0.000000    0.000000    0.000000    0.000000
  0.041200000  -40.457970 -168.276749 -101.480670   -4.904623    0.000000    0.000000    0.000000    0.000000
  0.041400000  -40.353742 -168.734940 -101.069466   -0.220585    0.000000    0.000000    0.000000    0.000000
  0.041600000  -40.345170 -169.417450 -102.846885    2.760526    0.000000    0.000000    0.000000    0.000000
  0.041800000  -40.419160 -169.552902 -102.515073    6.055454    0.000000    0.000000    0.000000    0.000000
  0.042000000  -40.337424 -169.787140 -105.620050   22.406574    0.000000    0.000000    0.000000    0.000000
  0.042200000  -40.390004 -170.078598 -101.838896    6.131187    0.000000    0.000000    0.000000    0.000000
  0.042400000  -40.386870 -170.464752 -102.401443   12.206290    0.000000    0.000000    0.000000    0.000000
  0.042600000  -40.377595 -170.635056 -101.122326   -5.889889    0.000000    0.000000    0.000000    0.000000
  0.042800000  -40.365981 -170.939255 -104.571136   11.079475    0.000000    0.000000    0.000000    0.000000
