! Anritsu VNA Master:                     Model: MS2036C/10/77
! SN:                                  1601066
! /card0/usr/254.ew.sma.me.s2p
! Existing Calibration Information:
! TYPE:                         Current Settings,       Active Cal Settings
! TIME:             	   12/20/2017 12:49:54 PM,    12/20/2017 12:32:09 PM
! INTERNAL TEMP:    	                   44.5 C,                    45.8 C
! # POINTS:         	                      501,                       501
! START FREQ:       	               10.000 MHz,                10.000 MHz
! STOP FREQ:        	              110.000 MHz,               110.000 MHz
! SOURCE POWER:     	                     High,                      High
! IFBW:             	                   100 Hz,                    100 Hz
! AVG FACTOR:       	                       1 ,                        1 
! REF PLANE 1:      	                     0 mm,                      0 mm
! REF PLANE 2:      	                     0 mm,                      0 mm
! CAL TYPE:         	                 Full S11,                  Full S11
! CAL METHOD:       	                     SOLT,                      SOLT
! CAL LINE TYPE:    	                     Coax,                      Coax
! DUT PORT 1:       	                N-Conn(F),                 N-Conn(F)
! DUT PORT 2:       	                K-Conn(F),                 K-Conn(F)
! CAL STATUS:       	        OK: Accuracy High,                        --
# GHZ S DB R 50.0
! FREQ.GHZ       S11DB        S11A       S21DB        S21A       S12DB        S12A       S22DB        S22A
  0.010000000  -50.627964  164.384964  -84.880491   85.562569    0.000000    0.000000    0.000000    0.000000
  0.010200000  -51.215317  161.491577  -84.485389   85.178879    0.000000    0.000000    0.000000    0.000000
  0.010400000  -50.484464  160.521042  -84.611592   84.643166    0.000000    0.000000    0.000000    0.000000
  0.010600000  -50.892080  159.336319  -84.656456   80.968071    0.000000    0.000000    0.000000    0.000000
  0.010800000  -51.054454  161.740341  -83.874911   81.127945    0.000000    0.000000    0.000000    0.000000
  0.011000000  -50.793736  156.234650  -84.110702   81.109428    0.000000    0.000000    0.000000    0.000000
  0.011200000  -50.783425  158.459503  -83.713140   81.669304    0.000000    0.000000    0.000000    0.000000
  0.011400000  -50.716108  156.531662  -83.857642   80.502434    0.000000    0.000000    0.000000    0.000000
  0.011600000  -50.774679  154.844788  -83.562864   76.284172    0.000000    0.000000    0.000000    0.000000
  0.011800000  -51.031480  154.686020  -83.800182   75.225899    0.000000    0.000000    0.000000    0.000000
  0.012000000  -51.119996  153.906998  -83.611901   72.996689    0.000000    0.000000    0.000000    0.000000
  0.012200000  -51.097689  152.130615  -83.947195   68.601028    0.000000    0.000000    0.000000    0.000000
  0.012400000  -51.047314  150.408813  -84.444190   64.586815    0.000000    0.000000    0.000000    0.000000
  0.012600000  -51.053120  151.279510  -84.017778   63.068096    0.000000    0.000000    0.000000    0.000000
  0.012800000  -51.068444  151.075516  -84.227356   60.818565    0.000000    0.000000    0.000000    0.000000
  0.013000000  -51.038066  147.777115  -84.242738   59.947937    0.000000    0.000000    0.000000    0.000000
  0.013200000  -51.000025  148.974396  -85.086007   54.164696    0.000000    0.000000    0.000000    0.000000
  0.013400000  -51.075220  144.033188  -84.965591   51.986492    0.000000    0.000000    0.000000    0.000000
  0.013600000  -50.879379  147.026199  -85.428769   50.428753    0.000000    0.000000    0.000000    0.000000
  0.013800000  -50.895245  145.023590  -86.298300   49.147007    0.000000    0.000000    0.000000    0.000000
  0.014000000  -51.176931  143.421112  -86.250283   48.438377    0.000000    0.000000    0.000000    0.000000
  0.014200000  -50.751341  141.880630  -87.052978   49.048519    0.000000    0.000000    0.000000    0.000000
  0.014400000  -51.011562  142.818527  -86.982387   42.554955    0.000000    0.000000    0.000000    0.000000
  0.014600000  -50.914318  141.055115  -87.570113   47.866692    0.000000    0.000000    0.000000    0.000000
  0.014800000  -50.872929  140.744949  -88.653203   47.963970    0.000000    0.000000    0.000000    0.000000
  0.015000000  -50.950985  139.345139  -88.669551   46.722961    0.000000    0.000000    0.000000    0.000000
  0.015200000  -50.640326  139.308105  -89.067522   49.815254    0.000000    0.000000    0.000000    0.000000
  0.015400000  -50.810344  138.582870  -89.325448   48.200104    0.000000    0.000000    0.000000    0.000000
  0.015600000  -51.433388  135.769150  -89.933342   48.755669    0.000000    0.000000    0.000000    0.000000
  0.015800000  -50.817368  135.683258  -90.403982   51.737358    0.000000    0.000000    0.000000    0.000000
  0.016000000  -50.806828  134.955444  -89.530992   49.166370    0.000000    0.000000    0.000000    0.000000
  0.016200000  -50.682415  133.896484  -89.892866   53.730289    0.000000    0.000000    0.000000    0.000000
  0.016400000  -50.592659  133.033920  -89.256769   54.199810    0.000000    0.000000    0.000000    0.000000
  0.016600000  -50.706074  132.832291  -89.617432   55.731876    0.000000    0.000000    0.000000    0.000000
  0.016800000  -50.589801  132.159515  -90.006364   54.983608    0.000000    0.000000    0.000000    0.000000
  0.017000000  -50.833300  132.252777  -89.466772   55.711189    0.000000    0.000000    0.000000    0.000000
  0.017200000  -50.696554  130.582428  -89.905928   53.098450    0.000000    0.000000    0.000000    0.000000
  0.017400000  -50.558338  130.152985  -89.308423   51.627342    0.000000    0.000000    0.000000    0.000000
  0.017600000  -50.733326  128.896957  -88.761202   49.068245    0.000000    0.000000    0.000000    0.000000
  0.017800000  -50.602900  128.242188  -88.704493   47.941532    0.000000    0.000000    0.000000    0.000000
  0.018000000  -50.511347  128.116043  -88.460879   48.367054    0.000000    0.000000    0.000000    0.000000
  0.018200000  -50.495023  128.025604  -89.418862   43.740646    0.000000    0.000000    0.000000    0.000000
  0.018400000  -50.551114  126.482124  -89.126209   45.295784    0.000000    0.000000    0.000000    0.000000
  0.018600000  -50.487551  126.443985  -89.462497   39.333961    0.000000    0.000000    0.000000    0.000000
  0.018800000  -50.467860  125.175896  -88.925323   40.791702    0.000000    0.000000    0.000000    0.000000
  0.019000000  -50.433114  124.889832  -89.055307   35.339787    0.000000    0.000000    0.000000    0.000000
  0.019200000  -50.400383  123.846100  -90.142590   36.837372    0.000000    0.000000    0.000000    0.000000
  0.019400000  -50.446801  122.789070  -89.896133   35.595158    0.000000    0.000000    0.000000    0.000000
  0.019600000  -50.340696  122.104401  -90.738698   33.572708    0.000000    0.000000    0.000000    0.000000
  0.019800000  -50.303851  120.697670  -91.030769   34.410561    0.000000    0.000000    0.000000    0.000000
  0.020000000  -50.252805  120.638283  -90.431215   33.677288    0.000000    0.000000    0.000000    0.000000
  0.020200000  -50.264545  119.775116  -90.906933   33.435699    0.000000    0.000000    0.000000    0.000000
  0.020400000  -50.239902  119.135139  -92.191433   33.283787    0.000000    0.000000    0.000000    0.000000
  0.020600000  -50.293641  118.243759  -91.416712   31.269402    0.000000    0.000000    0.000000    0.000000
  0.020800000  -50.090890  116.953575  -92.235132   29.754852    0.000000    0.000000    0.000000    0.000000
  0.021000000  -50.223473  116.421051  -91.941525   30.419296    0.000000    0.000000    0.000000    0.000000
  0.021200000  -49.972851  115.350258  -93.689896   32.509869    0.000000    0.000000    0.000000    0.000000
  0.021400000  -50.187240  113.933258  -92.991283   28.323318    0.000000    0.000000    0.000000    0.000000
  0.021600000  -50.156226  114.349075  -94.246506   35.944881    0.000000    0.000000    0.000000    0.000000
  0.021800000  -50.067930  112.943184  -94.008948   29.177912    0.000000    0.000000    0.000000    0.000000
  0.022000000  -49.870482  112.379074  -93.008250   37.608471    0.000000    0.000000    0.000000    0.000000
  0.022200000  -49.952800  112.267784  -92.516115   33.662342    0.000000    0.000000    0.000000    0.000000
  0.022400000  -49.877428  110.710289  -92.689889   37.452274    0.000000    0.000000    0.000000    0.000000
  0.022600000  -49.796218  109.908730  -92.992177   35.002037    0.000000    0.000000    0.000000    0.000000
  0.022800000  -49.755666  108.715767  -92.876678   43.236229    0.000000    0.000000    0.000000    0.000000
  0.023000000  -50.007674  106.639038  -92.685432   38.338585    0.000000    0.000000    0.000000    0.000000
  0.023200000  -49.848346  106.588669  -92.684265   31.619596    0.000000    0.000000    0.000000    0.000000
  0.023400000  -49.252208  104.598457  -92.574804   33.455727    0.000000    0.000000    0.000000    0.000000
  0.023600000  -49.667859  105.113449  -92.355539   27.852528    0.000000    0.000000    0.000000    0.000000
  0.023800000  -49.609460  103.916954  -93.157328   21.845545    0.000000    0.000000    0.000000    0.000000
  0.024000000  -49.623036  103.841446  -92.964493   32.948971    0.000000    0.000000    0.000000    0.000000
  0.024200000  -49.610258  102.025673  -92.318468   30.499401    0.000000    0.000000    0.000000    0.000000
  0.024400000  -49.485850  101.931503  -92.865186   32.656418    0.000000    0.000000    0.000000    0.000000
  0.024600000  -49.458714  101.117859  -93.149579   27.299482    0.000000    0.000000    0.000000    0.000000
  0.024800000  -49.501017  100.172813  -93.324124   24.661690    0.000000    0.000000    0.000000    0.000000
  0.025000000  -49.523543   98.998817  -92.860143   26.458731    0.000000    0.000000    0.000000    0.000000
  0.025200000  -49.319623   98.241928  -94.090550   22.188965    0.000000    0.000000    0.000000    0.000000
  0.025400000  -49.264814   97.502304  -93.505231   23.728863    0.000000    0.000000    0.000000    0.000000
  0.025600000  -49.275309   96.979881  -94.099045   22.273594    0.000000    0.000000    0.000000    0.000000
  0.025800000  -49.303542   95.964851  -94.960270   20.513845    0.000000    0.000000    0.000000    0.000000
  0.026000000  -49.197789   94.208412  -94.434611   19.362366    0.000000    0.000000    0.000000    0.000000
  0.026200000  -49.236040   94.124191  -94.830711   22.199265    0.000000    0.000000    0.000000    0.000000
  0.026400000  -49.126425   92.793137  -94.765550   17.205198    0.000000    0.000000    0.000000    0.000000
  0.026600000  -49.016034   91.862076  -95.310055   13.865594    0.000000    0.000000    0.000000    0.000000
  0.026800000  -48.940012   91.153244  -96.014773   14.290702    0.000000    0.000000    0.000000    0.000000
  0.027000000  -48.883445   89.887238  -95.765988   20.402756    0.000000    0.000000    0.000000    0.000000
  0.027200000  -48.873887   88.857346  -96.156847   27.541388    0.000000    0.000000    0.000000    0.000000
  0.027400000  -48.765635   88.187424  -96.307466   20.653967    0.000000    0.000000    0.000000    0.000000
  0.027600000  -48.727631   87.008934  -95.497291   22.229795    0.000000    0.000000    0.000000    0.000000
  0.027800000  -48.632571   86.087578  -96.966927   26.457493    0.000000    0.000000    0.000000    0.000000
  0.028000000  -48.559282   84.935974  -96.182789   28.375666    0.000000    0.000000    0.000000    0.000000
  0.028200000  -48.514012   83.750931  -95.823889   26.266191    0.000000    0.000000    0.000000    0.000000
  0.028400000  -48.485653   83.089722  -96.512989   29.658587    0.000000    0.000000    0.000000    0.000000
  0.028600000  -48.448416   82.194374  -96.263125   24.913464    0.000000    0.000000    0.000000    0.000000
  0.028800000  -48.331978   81.001053  -95.904098   16.392429    0.000000    0.000000    0.000000    0.000000
  0.029000000  -48.264135   80.016151  -96.303707   22.659595    0.000000    0.000000    0.000000    0.000000
  0.029200000  -48.200320   79.696190  -96.739490   16.197212    0.000000    0.000000    0.000000    0.000000
  0.029400000  -48.182603   78.647423  -95.872687   23.371283    0.000000    0.000000    0.000000    0.000000
  0.029600000  -48.109179   77.468674  -96.170088   17.180649    0.000000    0.000000    0.000000    0.000000
  0.029800000  -48.019349   75.461510  -95.732900   17.279852    0.000000    0.000000    0.000000    0.000000
  0.030000000  -48.029397   75.627266  -95.692680   15.975388    0.000000    0.000000    0.000000    0.000000
  0.030200000  -47.910805   74.563057  -96.156781   25.914303    0.000000    0.000000    0.000000    0.000000
  0.030400000  -47.740675   72.538979  -96.931134   15.688470    0.000000    0.000000    0.000000    0.000000
  0.030600000  -47.782154   71.487640  -97.053319   14.147957    0.000000    0.000000    0.000000    0.000000
  0.030800000  -47.690591   70.273987  -97.723195   15.434250    0.000000    0.000000    0.000000    0.000000
  0.031000000  -47.489911   70.135887  -97.024093    8.180987    0.000000    0.000000    0.000000    0.000000
  0.031200000  -47.401015   68.707413  -98.057835   11.782739    0.000000    0.000000    0.000000    0.000000
  0.031400000  -47.354529   68.116714  -96.295649   -0.636375    0.000000    0.000000    0.000000    0.000000
  0.031600000  -47.170806   66.795708  -96.915464   10.846550    0.000000    0.000000    0.000000    0.000000
  0.031800000  -47.119502   65.524521  -97.659892    3.806528    0.000000    0.000000    0.000000    0.000000
  0.032000000  -46.935236   64.898178  -97.459536    8.369460    0.000000    0.000000    0.000000    0.000000
  0.032200000  -46.926137   63.259476  -97.437949   12.284445    0.000000    0.000000    0.000000    0.000000
  0.032400000  -46.807179   62.531742  -96.954575   16.447407    0.000000    0.000000    0.000000    0.000000
  0.032600000  -46.673807   60.983727  -98.201933    7.457831    0.000000    0.000000    0.000000    0.000000
  0.032800000  -46.614696   59.610188  -98.117822   23.131128    0.000000    0.000000    0.000000    0.000000
  0.033000000  -46.491334   59.029232  -97.789090   16.192467    0.000000    0.000000    0.000000    0.000000
  0.033200000  -46.421215   58.280960  -97.114905    6.830587    0.000000    0.000000    0.000000    0.000000
  0.033400000  -46.359623   56.156895  -98.251711    4.941850    0.000000    0.000000    0.000000    0.000000
  0.033600000  -46.112989   55.321014  -98.230599   15.504422    0.000000    0.000000    0.000000    0.000000
  0.033800000  -45.979370   53.618877  -97.573020   17.412626    0.000000    0.000000    0.000000    0.000000
  0.034000000  -45.844727   52.531651  -99.561342    9.045136    0.000000    0.000000    0.000000    0.000000
  0.034200000  -45.900227   51.305496  -99.020533    7.872293    0.000000    0.000000    0.000000    0.000000
  0.034400000  -45.656477   49.376068  -98.318359   19.540520    0.000000    0.000000    0.000000    0.000000
  0.034600000  -45.469803   48.613316 -100.041428   15.888050    0.000000    0.000000    0.000000    0.000000
  0.034800000  -45.424009   46.986660  -97.334372   -0.258338    0.000000    0.000000    0.000000    0.000000
  0.035000000  -45.204906   45.658592  -98.159646    7.759616    0.000000    0.000000    0.000000    0.000000
  0.035200000  -45.065675   44.359795  -98.067855    7.294217    0.000000    0.000000    0.000000    0.000000
  0.035400000  -44.901421   43.066525  -98.560662   11.352300    0.000000    0.000000    0.000000    0.000000
  0.035600000  -44.730688   42.078819  -96.304178   11.585902    0.000000    0.000000    0.000000    0.000000
  0.035800000  -44.594284   40.010342  -98.549201   11.914377    0.000000    0.000000    0.000000    0.000000
  0.036000000  -44.399340   38.412380  -96.965797   10.867074    0.000000    0.000000    0.000000    0.000000
  0.036200000  -44.228486   37.506901  -98.175430    3.502039    0.000000    0.000000    0.000000    0.000000
  0.036400000  -44.102166   36.124603  -96.938113    1.590182    0.000000    0.000000    0.000000    0.000000
  0.036600000  -43.926806   35.025860 -100.164179   25.810982    0.000000    0.000000    0.000000    0.000000
  0.036800000  -43.723647   33.144936 -100.707210   -6.631240    0.000000    0.000000    0.000000    0.000000
  0.037000000  -43.561727   31.841791  -99.978063    9.589191    0.000000    0.000000    0.000000    0.000000
  0.037200000  -43.393051   30.395229  -98.506924   14.825705    0.000000    0.000000    0.000000    0.000000
  0.037400000  -43.266223   28.587502  -99.531329   14.277555    0.000000    0.000000    0.000000    0.000000
  0.037600000  -43.075208   26.739199 -100.453990   21.289658    0.000000    0.000000    0.000000    0.000000
  0.037800000  -42.888119   25.297752  -98.868945   -2.260223    0.000000    0.000000    0.000000    0.000000
  0.038000000  -42.729374   23.505943 -101.103763    3.190756    0.000000    0.000000    0.000000    0.000000
  0.038200000  -42.424582   21.727482 -101.257041   10.537947    0.000000    0.000000    0.000000    0.000000
  0.038400000  -42.200725   19.694481 -100.402612   18.732698    0.000000    0.000000    0.000000    0.000000
  0.038600000  -42.046801   17.838655 -100.175574   17.804110    0.000000    0.000000    0.000000    0.000000
  0.038800000  -41.748160   15.821882 -102.637228    5.478519    0.000000    0.000000    0.000000    0.000000
  0.039000000  -41.519015   13.940309 -100.243748    4.360591    0.000000    0.000000    0.000000    0.000000
  0.039200000  -41.222997   12.605309 -100.383205    7.072186    0.000000    0.000000    0.000000    0.000000
  0.039400000  -40.953768   10.259959 -101.066950   19.445072    0.000000    0.000000    0.000000    0.000000
  0.039600000  -40.751631    8.234305  -98.699858   22.318340    0.000000    0.000000    0.000000    0.000000
  0.039800000  -40.553988    6.520559  -99.928190  -13.860235    0.000000    0.000000    0.000000    0.000000
  0.040000000  -40.232422    3.955612  -98.750723   10.790223    0.000000    0.000000    0.000000    0.000000
  0.040200000  -39.992344    1.740685  -97.545562    9.620141    0.000000    0.000000    0.000000    0.000000
  0.040400000  -39.725138   -0.260653  -99.354016    9.667358    0.000000    0.000000    0.000000    0.000000
  0.040600000  -39.432720   -2.817526  -98.982412   -5.863733    0.000000    0.000000    0.000000    0.000000
  0.040800000  -39.189243   -5.346920  -98.550227   -1.825037    0.000000    0.000000    0.000000    0.000000
  0.041000000  -38.938582   -8.138535 -100.783730   -3.954809    0.000000    0.000000    0.000000    0.000000
  0.041200000  -38.640863  -10.395115 -103.022689   16.680351    0.000000    0.000000    0.000000    0.000000
  0.041400000  -38.253646  -13.476040  -99.921931    9.081196    0.000000    0.000000    0.000000    0.000000
  0.041600000  -37.951681  -16.854223 -100.021643    0.356453    0.000000    0.000000    0.000000    0.000000
  0.041800000  -37.732954  -19.852243  -99.966769   -1.777800    0.000000    0.000000    0.000000    0.000000
  0.042000000  -37.351283  -22.987135 -100.667707    1.201767    0.000000    0.000000    0.000000    0.000000
  0.042200000  -37.120117  -26.334261 -101.144617    4.746309    0.000000    0.000000    0.000000    0.000000
  0.042400000  -36.842491  -29.959255 -100.225648   -9.964466    0.000000    0.000000    0.000000    0.000000
  0.042600000  -36.556231  -33.408310 -101.776813   16.492123    0.000000    0.000000    0.000000    0.000000
  0.042800000  -36.284722  -37.218773 -102.036307   11.535926    0.000000    0.000000    0.000000    0.000000
