! Anritsu VNA Master:                     Model: MS2036C/10/77
! SN:                                  1601066
! /card0/usr/255.ew.sma.r200.22.s2p
! Existing Calibration Information:
! TYPE:                         Current Settings,       Active Cal Settings
! TIME:             	   12/19/2017 06:25:51 PM,    12/19/2017 06:04:41 PM
! INTERNAL TEMP:    	                   42.0 C,                    39.8 C
! # POINTS:         	                      501,                       501
! START FREQ:       	               10.000 MHz,                10.000 MHz
! STOP FREQ:        	              110.000 MHz,               110.000 MHz
! SOURCE POWER:     	                     High,                      High
! IFBW:             	                   100 Hz,                    100 Hz
! AVG FACTOR:       	                       1 ,                        1 
! REF PLANE 1:      	                     0 mm,                      0 mm
! REF PLANE 2:      	                     0 mm,                      0 mm
! CAL TYPE:         	                 Full S11,                  Full S11
! CAL METHOD:       	                     SOLT,                      SOLT
! CAL LINE TYPE:    	                     Coax,                      Coax
! DUT PORT 1:       	                N-Conn(F),                 N-Conn(F)
! DUT PORT 2:       	                K-Conn(F),                 K-Conn(F)
! CAL STATUS:       	        OK: Accuracy High,                        --
# GHZ S DB R 50.0
! FREQ.GHZ       S11DB        S11A       S21DB        S21A       S12DB        S12A       S22DB        S22A
  0.010000000   -4.566368  -10.747967  -84.525173   73.819641    0.000000    0.000000    0.000000    0.000000
  0.010200000   -4.556854  -10.929961  -84.514024   74.972763    0.000000    0.000000    0.000000    0.000000
  0.010400000   -4.558080  -11.188354  -84.423840   74.802132    0.000000    0.000000    0.000000    0.000000
  0.010600000   -4.561240  -11.370079  -85.141337   78.058037    0.000000    0.000000    0.000000    0.000000
  0.010800000   -4.558796  -11.609840  -84.566630   79.562912    0.000000    0.000000    0.000000    0.000000
  0.011000000   -4.564038  -11.838926  -85.239179   72.554512    0.000000    0.000000    0.000000    0.000000
  0.011200000   -4.559867  -12.071257  -85.211870   75.194946    0.000000    0.000000    0.000000    0.000000
  0.011400000   -4.556760  -12.299245  -85.351072   77.439964    0.000000    0.000000    0.000000    0.000000
  0.011600000   -4.560492  -12.504256  -85.423255   73.516228    0.000000    0.000000    0.000000    0.000000
  0.011800000   -4.557907  -12.745672  -85.559994   75.235146    0.000000    0.000000    0.000000    0.000000
  0.012000000   -4.557126  -12.945108  -85.045120   75.219322    0.000000    0.000000    0.000000    0.000000
  0.012200000   -4.558009  -13.178759  -85.060356   72.554787    0.000000    0.000000    0.000000    0.000000
  0.012400000   -4.556211  -13.398309  -84.945830   73.614410    0.000000    0.000000    0.000000    0.000000
  0.012600000   -4.557044  -13.610119  -85.145950   69.741692    0.000000    0.000000    0.000000    0.000000
  0.012800000   -4.557048  -13.828397  -85.041960   68.626114    0.000000    0.000000    0.000000    0.000000
  0.013000000   -4.557511  -14.020086  -85.182887   65.402794    0.000000    0.000000    0.000000    0.000000
  0.013200000   -4.554453  -14.225646  -85.841784   64.439407    0.000000    0.000000    0.000000    0.000000
  0.013400000   -4.556118  -14.432570  -85.428340   61.235455    0.000000    0.000000    0.000000    0.000000
  0.013600000   -4.552039  -14.640072  -85.744134   62.164871    0.000000    0.000000    0.000000    0.000000
  0.013800000   -4.550358  -14.856269  -85.756330   59.256100    0.000000    0.000000    0.000000    0.000000
  0.014000000   -4.552355  -15.053682  -86.070836   57.670319    0.000000    0.000000    0.000000    0.000000
  0.014200000   -4.551186  -15.281478  -86.376432   54.069931    0.000000    0.000000    0.000000    0.000000
  0.014400000   -4.554389  -15.509128  -86.063351   54.228794    0.000000    0.000000    0.000000    0.000000
  0.014600000   -4.554879  -15.708721  -86.928174   53.821980    0.000000    0.000000    0.000000    0.000000
  0.014800000   -4.557987  -15.939943  -87.035878   49.848358    0.000000    0.000000    0.000000    0.000000
  0.015000000   -4.557684  -16.136139  -87.214119   52.053951    0.000000    0.000000    0.000000    0.000000
  0.015200000   -4.561616  -16.355947  -87.537237   47.538540    0.000000    0.000000    0.000000    0.000000
  0.015400000   -4.563197  -16.583107  -87.529291   45.051571    0.000000    0.000000    0.000000    0.000000
  0.015600000   -4.565743  -16.895685  -88.842238   48.992458    0.000000    0.000000    0.000000    0.000000
  0.015800000   -4.564812  -17.029078  -88.406302   42.879181    0.000000    0.000000    0.000000    0.000000
  0.016000000   -4.565724  -17.242485  -88.604741   44.403511    0.000000    0.000000    0.000000    0.000000
  0.016200000   -4.567439  -17.458157  -89.247777   40.448158    0.000000    0.000000    0.000000    0.000000
  0.016400000   -4.570358  -17.688299  -89.859280   42.770981    0.000000    0.000000    0.000000    0.000000
  0.016600000   -4.573882  -17.942820  -89.761148   44.520622    0.000000    0.000000    0.000000    0.000000
  0.016800000   -4.574488  -18.153803  -89.991248   48.441753    0.000000    0.000000    0.000000    0.000000
  0.017000000   -4.577156  -18.375412  -90.170519   46.603111    0.000000    0.000000    0.000000    0.000000
  0.017200000   -4.569749  -18.619600  -89.828750   50.535843    0.000000    0.000000    0.000000    0.000000
  0.017400000   -4.572809  -18.843338  -89.812426   43.799522    0.000000    0.000000    0.000000    0.000000
  0.017600000   -4.572611  -19.097464  -90.269534   44.038128    0.000000    0.000000    0.000000    0.000000
  0.017800000   -4.573296  -19.296034  -89.814792   49.205154    0.000000    0.000000    0.000000    0.000000
  0.018000000   -4.573224  -19.517502  -90.425339   47.903290    0.000000    0.000000    0.000000    0.000000
  0.018200000   -4.573464  -19.754953  -90.352718   46.125660    0.000000    0.000000    0.000000    0.000000
  0.018400000   -4.579004  -19.974508  -90.012407   45.815250    0.000000    0.000000    0.000000    0.000000
  0.018600000   -4.577336  -20.189465  -90.360377   45.145962    0.000000    0.000000    0.000000    0.000000
  0.018800000   -4.577070  -20.410147  -89.877113   48.370705    0.000000    0.000000    0.000000    0.000000
  0.019000000   -4.575724  -20.623264  -90.288824   40.573521    0.000000    0.000000    0.000000    0.000000
  0.019200000   -4.575460  -20.824177  -90.129283   47.556362    0.000000    0.000000    0.000000    0.000000
  0.019400000   -4.574581  -21.030851  -90.556460   41.898491    0.000000    0.000000    0.000000    0.000000
  0.019600000   -4.571959  -21.234867  -90.205595   43.847584    0.000000    0.000000    0.000000    0.000000
  0.019800000   -4.573616  -21.435637  -90.163590   40.140472    0.000000    0.000000    0.000000    0.000000
  0.020000000   -4.572199  -21.652405  -89.730660   44.409763    0.000000    0.000000    0.000000    0.000000
  0.020200000   -4.568338  -21.868704  -90.160037   41.051479    0.000000    0.000000    0.000000    0.000000
  0.020400000   -4.570384  -22.072905  -90.509035   31.241316    0.000000    0.000000    0.000000    0.000000
  0.020600000   -4.565854  -22.263918  -90.638746   36.932224    0.000000    0.000000    0.000000    0.000000
  0.020800000   -4.567143  -22.477051  -90.854455   35.243092    0.000000    0.000000    0.000000    0.000000
  0.021000000   -4.567661  -22.682144  -91.077301   29.674969    0.000000    0.000000    0.000000    0.000000
  0.021200000   -4.570106  -22.913040  -91.473696   32.981064    0.000000    0.000000    0.000000    0.000000
  0.021400000   -4.570820  -23.140423  -92.773011   35.635674    0.000000    0.000000    0.000000    0.000000
  0.021600000   -4.571296  -23.354980  -90.986070   33.923912    0.000000    0.000000    0.000000    0.000000
  0.021800000   -4.575147  -23.577082  -91.116887   35.027431    0.000000    0.000000    0.000000    0.000000
  0.022000000   -4.578477  -23.766521  -91.542380   34.102207    0.000000    0.000000    0.000000    0.000000
  0.022200000   -4.579309  -23.967861  -92.461308   31.285528    0.000000    0.000000    0.000000    0.000000
  0.022400000   -4.578027  -24.179045  -93.305883   32.086311    0.000000    0.000000    0.000000    0.000000
  0.022600000   -4.579523  -24.387308  -92.522873   31.342991    0.000000    0.000000    0.000000    0.000000
  0.022800000   -4.581133  -24.613316  -93.488267   26.543087    0.000000    0.000000    0.000000    0.000000
  0.023000000   -4.583132  -24.835649  -93.465315   28.696980    0.000000    0.000000    0.000000    0.000000
  0.023200000   -4.581586  -25.075745  -92.796270   30.830675    0.000000    0.000000    0.000000    0.000000
  0.023400000   -4.586988  -25.286217  -92.640919   30.932339    0.000000    0.000000    0.000000    0.000000
  0.023600000   -4.589171  -25.510767  -93.924147   34.165913    0.000000    0.000000    0.000000    0.000000
  0.023800000   -4.588055  -25.740679  -93.551237   32.978268    0.000000    0.000000    0.000000    0.000000
  0.024000000   -4.584569  -25.963259  -93.605057   24.101393    0.000000    0.000000    0.000000    0.000000
  0.024200000   -4.579451  -26.191271  -93.863168   30.332129    0.000000    0.000000    0.000000    0.000000
  0.024400000   -4.579550  -26.423006  -93.473688   30.485538    0.000000    0.000000    0.000000    0.000000
  0.024600000   -4.582268  -26.670187  -93.490293   25.716602    0.000000    0.000000    0.000000    0.000000
  0.024800000   -4.584788  -26.876770  -94.558063   34.978374    0.000000    0.000000    0.000000    0.000000
  0.025000000   -4.582900  -27.094290  -94.661353   27.613590    0.000000    0.000000    0.000000    0.000000
  0.025200000   -4.581124  -27.301264  -94.126658   23.882673    0.000000    0.000000    0.000000    0.000000
  0.025400000   -4.583718  -27.487310  -94.476488   29.035780    0.000000    0.000000    0.000000    0.000000
  0.025600000   -4.585619  -27.701115  -94.526614   20.673010    0.000000    0.000000    0.000000    0.000000
  0.025800000   -4.587702  -27.904186  -94.117053   22.633259    0.000000    0.000000    0.000000    0.000000
  0.026000000   -4.589089  -28.089426  -93.792421   28.154961    0.000000    0.000000    0.000000    0.000000
  0.026200000   -4.592753  -28.314816  -93.956653   19.947588    0.000000    0.000000    0.000000    0.000000
  0.026400000   -4.595271  -28.515615  -95.133407   30.366550    0.000000    0.000000    0.000000    0.000000
  0.026600000   -4.596524  -28.738182  -94.590171   20.620766    0.000000    0.000000    0.000000    0.000000
  0.026800000   -4.597169  -28.958284  -95.033157   21.126116    0.000000    0.000000    0.000000    0.000000
  0.027000000   -4.596605  -29.187147  -95.153627   22.946831    0.000000    0.000000    0.000000    0.000000
  0.027200000   -4.598136  -29.417799  -94.243488   20.771841    0.000000    0.000000    0.000000    0.000000
  0.027400000   -4.597758  -29.656219  -95.138590   25.939228    0.000000    0.000000    0.000000    0.000000
  0.027600000   -4.601353  -29.902962  -95.647512   16.560293    0.000000    0.000000    0.000000    0.000000
  0.027800000   -4.602528  -30.146088  -94.977727   16.483833    0.000000    0.000000    0.000000    0.000000
  0.028000000   -4.605517  -30.386955  -97.386718   13.370065    0.000000    0.000000    0.000000    0.000000
  0.028200000   -4.607468  -30.629625  -95.517562   21.428383    0.000000    0.000000    0.000000    0.000000
  0.028400000   -4.605120  -30.879770  -96.557068   20.139753    0.000000    0.000000    0.000000    0.000000
  0.028600000   -4.598485  -31.098934  -95.539914   12.440522    0.000000    0.000000    0.000000    0.000000
  0.028800000   -4.599406  -31.299263  -96.650477   21.363932    0.000000    0.000000    0.000000    0.000000
  0.029000000   -4.598686  -31.507017  -95.637187   12.136951    0.000000    0.000000    0.000000    0.000000
  0.029200000   -4.598728  -31.685022  -95.372871   16.516941    0.000000    0.000000    0.000000    0.000000
  0.029400000   -4.598511  -31.872057  -97.700996   27.218760    0.000000    0.000000    0.000000    0.000000
  0.029600000   -4.601205  -32.080441  -97.754980   19.618694    0.000000    0.000000    0.000000    0.000000
  0.029800000   -4.605190  -32.290665  -96.921151   15.237143    0.000000    0.000000    0.000000    0.000000
  0.030000000   -4.612872  -32.527969  -97.759306   15.590222    0.000000    0.000000    0.000000    0.000000
  0.030200000   -4.616961  -32.763222  -97.114780   23.536716    0.000000    0.000000    0.000000    0.000000
  0.030400000   -4.618546  -33.034630  -96.430747   23.836119    0.000000    0.000000    0.000000    0.000000
  0.030600000   -4.615210  -33.314693  -97.217163   14.849293    0.000000    0.000000    0.000000    0.000000
  0.030800000   -4.616668  -33.569530  -97.131105   16.469450    0.000000    0.000000    0.000000    0.000000
  0.031000000   -4.614564  -33.826118  -97.093731   17.844645    0.000000    0.000000    0.000000    0.000000
  0.031200000   -4.610805  -34.056683  -95.730017   22.366674    0.000000    0.000000    0.000000    0.000000
  0.031400000   -4.605092  -34.300797  -96.816838   19.527672    0.000000    0.000000    0.000000    0.000000
  0.031600000   -4.597513  -34.544365  -96.272495    4.001084    0.000000    0.000000    0.000000    0.000000
  0.031800000   -4.594551  -34.751232  -99.435369   22.809549    0.000000    0.000000    0.000000    0.000000
  0.032000000   -4.584276  -34.956875  -96.336562   12.436574    0.000000    0.000000    0.000000    0.000000
  0.032200000   -4.580570  -35.149803  -97.763113   10.670801    0.000000    0.000000    0.000000    0.000000
  0.032400000   -4.572416  -35.318642  -97.545109   14.147027    0.000000    0.000000    0.000000    0.000000
  0.032600000   -4.565815  -35.502537  -96.010217   18.005968    0.000000    0.000000    0.000000    0.000000
  0.032800000   -4.563882  -35.681705  -97.163602   20.365873    0.000000    0.000000    0.000000    0.000000
  0.033000000   -4.563932  -35.833954  -97.522713    7.343308    0.000000    0.000000    0.000000    0.000000
  0.033200000   -4.566747  -36.051388  -98.218265   15.337461    0.000000    0.000000    0.000000    0.000000
  0.033400000   -4.567209  -36.210957  -98.055605   19.961634    0.000000    0.000000    0.000000    0.000000
  0.033600000   -4.568722  -36.414276  -97.663659   18.780172    0.000000    0.000000    0.000000    0.000000
  0.033800000   -4.571646  -36.620762  -98.231422    6.941910    0.000000    0.000000    0.000000    0.000000
  0.034000000   -4.573388  -36.825489  -97.143483   13.083180    0.000000    0.000000    0.000000    0.000000
  0.034200000   -4.578779  -37.021900  -98.113183    4.527335    0.000000    0.000000    0.000000    0.000000
  0.034400000   -4.583753  -37.236721  -96.264344   13.727636    0.000000    0.000000    0.000000    0.000000
  0.034600000   -4.585941  -37.486900  -98.507718    3.716054    0.000000    0.000000    0.000000    0.000000
  0.034800000   -4.597617  -37.690582  -98.072612    9.810099    0.000000    0.000000    0.000000    0.000000
  0.035000000   -4.597081  -37.922375  -98.488521   13.303107    0.000000    0.000000    0.000000    0.000000
  0.035200000   -4.605467  -38.173649  -98.229833    3.739527    0.000000    0.000000    0.000000    0.000000
  0.035400000   -4.610109  -38.385273 -100.886716   -4.006833    0.000000    0.000000    0.000000    0.000000
  0.035600000   -4.612627  -38.619965  -97.105380    9.471380    0.000000    0.000000    0.000000    0.000000
  0.035800000   -4.610421  -38.857491 -100.082456    6.801906    0.000000    0.000000    0.000000    0.000000
  0.036000000   -4.612244  -39.103600 -100.334703    4.060196    0.000000    0.000000    0.000000    0.000000
  0.036200000   -4.610233  -39.344177  -98.124430    7.436836    0.000000    0.000000    0.000000    0.000000
  0.036400000   -4.606485  -39.583073  -99.589847   18.840805    0.000000    0.000000    0.000000    0.000000
  0.036600000   -4.603495  -39.797859  -99.930887    1.440742    0.000000    0.000000    0.000000    0.000000
  0.036800000   -4.602490  -40.023777  -98.990193   12.705638    0.000000    0.000000    0.000000    0.000000
  0.037000000   -4.600937  -40.183861  -97.790863    8.243722    0.000000    0.000000    0.000000    0.000000
  0.037200000   -4.600473  -40.396484 -101.714842   17.460482    0.000000    0.000000    0.000000    0.000000
  0.037400000   -4.603982  -40.630829  -98.471917    7.940114    0.000000    0.000000    0.000000    0.000000
  0.037600000   -4.612230  -40.846588  -98.551301   13.286120    0.000000    0.000000    0.000000    0.000000
  0.037800000   -4.618444  -41.075787  -98.809392    7.431067    0.000000    0.000000    0.000000    0.000000
  0.038000000   -4.623964  -41.332859  -98.366335   13.499121    0.000000    0.000000    0.000000    0.000000
  0.038200000   -4.627694  -41.611973 -101.874928    7.572983    0.000000    0.000000    0.000000    0.000000
  0.038400000   -4.631156  -41.837204 -100.152122    0.334988    0.000000    0.000000    0.000000    0.000000
  0.038600000   -4.630824  -42.083553  -97.973988   17.090881    0.000000    0.000000    0.000000    0.000000
  0.038800000   -4.629398  -42.294708  -98.997336    5.252307    0.000000    0.000000    0.000000    0.000000
  0.039000000   -4.626018  -42.551628  -99.315595   11.006527    0.000000    0.000000    0.000000    0.000000
  0.039200000   -4.622682  -42.796902 -102.460679   12.483310    0.000000    0.000000    0.000000    0.000000
  0.039400000   -4.613939  -43.020065  -97.277966    4.606552    0.000000    0.000000    0.000000    0.000000
  0.039600000   -4.607478  -43.243114  -99.875214    6.849413    0.000000    0.000000    0.000000    0.000000
  0.039800000   -4.601388  -43.444817  -99.371372    3.003537    0.000000    0.000000    0.000000    0.000000
  0.040000000   -4.593337  -43.625412 -100.483901   11.808238    0.000000    0.000000    0.000000    0.000000
  0.040200000   -4.589556  -43.791050 -102.073671    0.839484    0.000000    0.000000    0.000000    0.000000
  0.040400000   -4.589970  -43.965446  -99.660584    3.409144    0.000000    0.000000    0.000000    0.000000
  0.040600000   -4.588895  -44.134914  -99.684233   11.928432    0.000000    0.000000    0.000000    0.000000
  0.040800000   -4.588238  -44.284023 -102.665733    8.335107    0.000000    0.000000    0.000000    0.000000
  0.041000000   -4.593124  -44.488846 -100.382840   -3.190552    0.000000    0.000000    0.000000    0.000000
  0.041200000   -4.597977  -44.672504 -102.049071   13.387558    0.000000    0.000000    0.000000    0.000000
  0.041400000   -4.603900  -44.878922  -99.719051   11.982215    0.000000    0.000000    0.000000    0.000000
  0.041600000   -4.610876  -45.069027 -101.402596    3.341489    0.000000    0.000000    0.000000    0.000000
  0.041800000   -4.613571  -45.289288 -101.175310    4.551033    0.000000    0.000000    0.000000    0.000000
  0.042000000   -4.616419  -45.495293 -101.654706   18.965572    0.000000    0.000000    0.000000    0.000000
  0.042200000   -4.622213  -45.709953 -102.587164    6.551066    0.000000    0.000000    0.000000    0.000000
  0.042400000   -4.627157  -45.912048  -99.732608   19.498125    0.000000    0.000000    0.000000    0.000000
  0.042600000   -4.629672  -46.131130 -101.255456   -2.641431    0.000000    0.000000    0.000000    0.000000
  0.042800000   -4.630813  -46.321617 -100.820044    1.363653    0.000000    0.000000    0.000000    0.000000
