! Anritsu VNA Master:                     Model: MS2036C/10/77
! SN:                                  1601066
! /card0/usr/256.ew.n.r200.21.s2p
! Existing Calibration Information:
! TYPE:                         Current Settings,       Active Cal Settings
! TIME:             	   12/19/2017 03:09:14 PM,    12/19/2017 02:53:44 PM
! INTERNAL TEMP:    	                   46.8 C,                    46.3 C
! # POINTS:         	                      501,                       501
! START FREQ:       	               10.000 MHz,                10.000 MHz
! STOP FREQ:        	              110.000 MHz,               110.000 MHz
! SOURCE POWER:     	                     High,                      High
! IFBW:             	                   100 Hz,                    100 Hz
! AVG FACTOR:       	                       1 ,                        1 
! REF PLANE 1:      	                     0 mm,                      0 mm
! REF PLANE 2:      	                     0 mm,                      0 mm
! CAL TYPE:         	                 Full S11,                  Full S11
! CAL METHOD:       	                     SOLT,                      SOLT
! CAL LINE TYPE:    	                     Coax,                      Coax
! DUT PORT 1:       	                N-Conn(F),                 N-Conn(F)
! DUT PORT 2:       	                K-Conn(F),                 K-Conn(F)
! CAL STATUS:       	        OK: Accuracy High,                        --
# GHZ S DB R 50.0
! FREQ.GHZ       S11DB        S11A       S21DB        S21A       S12DB        S12A       S22DB        S22A
  0.010000000   -4.553613  -11.356511  -84.806756   72.311066    0.000000    0.000000    0.000000    0.000000
  0.010200000   -4.543997  -11.581610  -84.329474   74.737694    0.000000    0.000000    0.000000    0.000000
  0.010400000   -4.544724  -11.861151  -84.757018   75.922089    0.000000    0.000000    0.000000    0.000000
  0.010600000   -4.542684  -11.994562  -84.984529   74.867615    0.000000    0.000000    0.000000    0.000000
  0.010800000   -4.545661  -12.292101  -84.665262   72.935455    0.000000    0.000000    0.000000    0.000000
  0.011000000   -4.545038  -12.499989  -84.993726   78.422462    0.000000    0.000000    0.000000    0.000000
  0.011200000   -4.546478  -12.763133  -85.019961   74.933014    0.000000    0.000000    0.000000    0.000000
  0.011400000   -4.545178  -13.001023  -85.306137   74.184074    0.000000    0.000000    0.000000    0.000000
  0.011600000   -4.550496  -13.213763  -85.372626   75.655769    0.000000    0.000000    0.000000    0.000000
  0.011800000   -4.545976  -13.451529  -85.083602   74.027557    0.000000    0.000000    0.000000    0.000000
  0.012000000   -4.546642  -13.708064  -84.420829   73.614410    0.000000    0.000000    0.000000    0.000000
  0.012200000   -4.543883  -13.945058  -85.011975   69.576530    0.000000    0.000000    0.000000    0.000000
  0.012400000   -4.546052  -14.192653  -84.938455   72.212273    0.000000    0.000000    0.000000    0.000000
  0.012600000   -4.547988  -14.432858  -85.125734   70.362610    0.000000    0.000000    0.000000    0.000000
  0.012800000   -4.548490  -14.655452  -85.386789   66.932793    0.000000    0.000000    0.000000    0.000000
  0.013000000   -4.550366  -14.891120  -85.281066   64.794243    0.000000    0.000000    0.000000    0.000000
  0.013200000   -4.550686  -15.107935  -85.103188   63.007595    0.000000    0.000000    0.000000    0.000000
  0.013400000   -4.548008  -15.359087  -85.780082   63.099625    0.000000    0.000000    0.000000    0.000000
  0.013600000   -4.544813  -15.569481  -85.786859   59.801044    0.000000    0.000000    0.000000    0.000000
  0.013800000   -4.544065  -15.800873  -86.029535   56.969021    0.000000    0.000000    0.000000    0.000000
  0.014000000   -4.545651  -16.027960  -85.794376   54.500412    0.000000    0.000000    0.000000    0.000000
  0.014200000   -4.545876  -16.248236  -86.052616   52.895287    0.000000    0.000000    0.000000    0.000000
  0.014400000   -4.546170  -16.515905  -86.265223   52.744282    0.000000    0.000000    0.000000    0.000000
  0.014600000   -4.547157  -16.721004  -87.087902   51.920670    0.000000    0.000000    0.000000    0.000000
  0.014800000   -4.545638  -16.962379  -86.701300   51.975712    0.000000    0.000000    0.000000    0.000000
  0.015000000   -4.547932  -17.194660  -87.510022   50.011490    0.000000    0.000000    0.000000    0.000000
  0.015200000   -4.548093  -17.421112  -87.626932   48.827911    0.000000    0.000000    0.000000    0.000000
  0.015400000   -4.550402  -17.673584  -87.973071   45.208485    0.000000    0.000000    0.000000    0.000000
  0.015600000   -4.549457  -17.816233  -87.792061   44.636936    0.000000    0.000000    0.000000    0.000000
  0.015800000   -4.551922  -18.117075  -88.498118   44.450020    0.000000    0.000000    0.000000    0.000000
  0.016000000   -4.553937  -18.369787  -87.931846   44.919323    0.000000    0.000000    0.000000    0.000000
  0.016200000   -4.554483  -18.589586  -89.298446   41.733730    0.000000    0.000000    0.000000    0.000000
  0.016400000   -4.556727  -18.824457  -89.534295   41.696758    0.000000    0.000000    0.000000    0.000000
  0.016600000   -4.557540  -19.045454  -89.504293   43.223404    0.000000    0.000000    0.000000    0.000000
  0.016800000   -4.559434  -19.289392  -89.463471   40.236538    0.000000    0.000000    0.000000    0.000000
  0.017000000   -4.557583  -19.522263  -89.654840   43.795738    0.000000    0.000000    0.000000    0.000000
  0.017200000   -4.555047  -19.767220  -89.924856   50.789986    0.000000    0.000000    0.000000    0.000000
  0.017400000   -4.552560  -19.983692  -89.734883   43.197102    0.000000    0.000000    0.000000    0.000000
  0.017600000   -4.554230  -20.231472  -90.447879   43.432438    0.000000    0.000000    0.000000    0.000000
  0.017800000   -4.554795  -20.450876  -89.610924   47.259331    0.000000    0.000000    0.000000    0.000000
  0.018000000   -4.554577  -20.671883  -90.782547   50.868755    0.000000    0.000000    0.000000    0.000000
  0.018200000   -4.556951  -20.922117  -90.534126   45.505329    0.000000    0.000000    0.000000    0.000000
  0.018400000   -4.560600  -21.151443  -90.330082   46.021442    0.000000    0.000000    0.000000    0.000000
  0.018600000   -4.561582  -21.390865  -90.966707   46.392902    0.000000    0.000000    0.000000    0.000000
  0.018800000   -4.562324  -21.617079  -91.026948   49.662403    0.000000    0.000000    0.000000    0.000000
  0.019000000   -4.563324  -21.843637  -89.718183   49.046398    0.000000    0.000000    0.000000    0.000000
  0.019200000   -4.563062  -22.066395  -91.145455   42.482010    0.000000    0.000000    0.000000    0.000000
  0.019400000   -4.564165  -22.291613  -90.441276   45.276871    0.000000    0.000000    0.000000    0.000000
  0.019600000   -4.564207  -22.519489  -90.835659   38.449646    0.000000    0.000000    0.000000    0.000000
  0.019800000   -4.565786  -22.737072  -90.740272   40.022118    0.000000    0.000000    0.000000    0.000000
  0.020000000   -4.562751  -22.961023  -90.580536   36.131111    0.000000    0.000000    0.000000    0.000000
  0.020200000   -4.562836  -23.216146  -90.962001   36.736835    0.000000    0.000000    0.000000    0.000000
  0.020400000   -4.562926  -23.448643  -90.854878   35.817478    0.000000    0.000000    0.000000    0.000000
  0.020600000   -4.559519  -23.662348  -90.780386   35.418430    0.000000    0.000000    0.000000    0.000000
  0.020800000   -4.560031  -23.894663  -90.676920   37.639065    0.000000    0.000000    0.000000    0.000000
  0.021000000   -4.562473  -24.149055  -90.771042   31.067327    0.000000    0.000000    0.000000    0.000000
  0.021200000   -4.561984  -24.380648  -91.525394   29.185627    0.000000    0.000000    0.000000    0.000000
  0.021400000   -4.562017  -24.622635  -91.864917   33.553532    0.000000    0.000000    0.000000    0.000000
  0.021600000   -4.562354  -24.838264  -93.139492   32.941105    0.000000    0.000000    0.000000    0.000000
  0.021800000   -4.563570  -25.080956  -91.729654   28.230371    0.000000    0.000000    0.000000    0.000000
  0.022000000   -4.567522  -25.296282  -92.809501   27.394239    0.000000    0.000000    0.000000    0.000000
  0.022200000   -4.568456  -25.531578  -91.981232   29.264973    0.000000    0.000000    0.000000    0.000000
  0.022400000   -4.568890  -25.770855  -93.058905   26.558115    0.000000    0.000000    0.000000    0.000000
  0.022600000   -4.570750  -25.966469  -93.391623   30.881245    0.000000    0.000000    0.000000    0.000000
  0.022800000   -4.567407  -26.208393  -93.010488   31.615559    0.000000    0.000000    0.000000    0.000000
  0.023000000   -4.568807  -26.451580  -94.065215   35.622063    0.000000    0.000000    0.000000    0.000000
  0.023200000   -4.571144  -26.686098  -93.142060   26.627249    0.000000    0.000000    0.000000    0.000000
  0.023400000   -4.573890  -26.972433  -93.895713   27.037184    0.000000    0.000000    0.000000    0.000000
  0.023600000   -4.573300  -27.151272  -93.099432   28.849752    0.000000    0.000000    0.000000    0.000000
  0.023800000   -4.573438  -27.384521  -94.294368   25.289017    0.000000    0.000000    0.000000    0.000000
  0.024000000   -4.568572  -27.645979  -93.297705   30.428629    0.000000    0.000000    0.000000    0.000000
  0.024200000   -4.561098  -27.886700  -94.264918   35.204189    0.000000    0.000000    0.000000    0.000000
  0.024400000   -4.561101  -28.107660  -93.194887   28.208698    0.000000    0.000000    0.000000    0.000000
  0.024600000   -4.563150  -28.360794  -93.490232   31.903656    0.000000    0.000000    0.000000    0.000000
  0.024800000   -4.563677  -28.591955  -94.352912   28.513422    0.000000    0.000000    0.000000    0.000000
  0.025000000   -4.564635  -28.828320  -95.139607   27.816916    0.000000    0.000000    0.000000    0.000000
  0.025200000   -4.566087  -29.057325  -95.243959   24.546978    0.000000    0.000000    0.000000    0.000000
  0.025400000   -4.565080  -29.259602  -94.037916   31.371185    0.000000    0.000000    0.000000    0.000000
  0.025600000   -4.566652  -29.470057  -93.650243   26.458448    0.000000    0.000000    0.000000    0.000000
  0.025800000   -4.569082  -29.655355  -94.546662   31.927586    0.000000    0.000000    0.000000    0.000000
  0.026000000   -4.570831  -29.877771  -94.784362   24.005030    0.000000    0.000000    0.000000    0.000000
  0.026200000   -4.573950  -30.082014  -94.438186   22.525547    0.000000    0.000000    0.000000    0.000000
  0.026400000   -4.575569  -30.313070  -94.787131   26.617245    0.000000    0.000000    0.000000    0.000000
  0.026600000   -4.578166  -30.540678  -94.188684   25.503771    0.000000    0.000000    0.000000    0.000000
  0.026800000   -4.579666  -30.786457  -95.061999   15.500759    0.000000    0.000000    0.000000    0.000000
  0.027000000   -4.581516  -31.015978  -93.801913   19.186726    0.000000    0.000000    0.000000    0.000000
  0.027200000   -4.579180  -31.272547  -94.939579   21.977041    0.000000    0.000000    0.000000    0.000000
  0.027400000   -4.580220  -31.524778  -94.967900   10.576485    0.000000    0.000000    0.000000    0.000000
  0.027600000   -4.580895  -31.776031  -95.327196   15.491706    0.000000    0.000000    0.000000    0.000000
  0.027800000   -4.585300  -32.027596  -96.334171   21.591803    0.000000    0.000000    0.000000    0.000000
  0.028000000   -4.590101  -32.287376  -94.830040   13.067314    0.000000    0.000000    0.000000    0.000000
  0.028200000   -4.590520  -32.538158  -96.726137   19.805901    0.000000    0.000000    0.000000    0.000000
  0.028400000   -4.586504  -32.804111  -95.574262   23.466951    0.000000    0.000000    0.000000    0.000000
  0.028600000   -4.582192  -33.039440  -96.374886   12.788382    0.000000    0.000000    0.000000    0.000000
  0.028800000   -4.580136  -33.259960  -97.486817   15.558268    0.000000    0.000000    0.000000    0.000000
  0.029000000   -4.580802  -33.462669  -96.027307   14.983744    0.000000    0.000000    0.000000    0.000000
  0.029200000   -4.576188  -33.655510  -96.528596    9.424109    0.000000    0.000000    0.000000    0.000000
  0.029400000   -4.577365  -33.845806  -95.820202   10.515170    0.000000    0.000000    0.000000    0.000000
  0.029600000   -4.580157  -34.061584  -98.366014   25.172817    0.000000    0.000000    0.000000    0.000000
  0.029800000   -4.582829  -34.289371  -96.972553   13.620041    0.000000    0.000000    0.000000    0.000000
  0.030000000   -4.589456  -34.529152  -95.618502   26.874470    0.000000    0.000000    0.000000    0.000000
  0.030200000   -4.595894  -34.767796  -97.574444   27.008245    0.000000    0.000000    0.000000    0.000000
  0.030400000   -4.599603  -35.032990  -96.660849    7.605985    0.000000    0.000000    0.000000    0.000000
  0.030600000   -4.601776  -35.301884  -97.560773   17.162245    0.000000    0.000000    0.000000    0.000000
  0.030800000   -4.600697  -35.574883  -97.721574   19.246449    0.000000    0.000000    0.000000    0.000000
  0.031000000   -4.597474  -35.836853  -98.066108   21.568115    0.000000    0.000000    0.000000    0.000000
  0.031200000   -4.593778  -36.091194  -97.694227    7.721263    0.000000    0.000000    0.000000    0.000000
  0.031400000   -4.595652  -36.356041  -97.952038   11.505215    0.000000    0.000000    0.000000    0.000000
  0.031600000   -4.589619  -36.610645  -96.492770   10.120776    0.000000    0.000000    0.000000    0.000000
  0.031800000   -4.584102  -36.859524  -97.284696    6.910099    0.000000    0.000000    0.000000    0.000000
  0.032000000   -4.579111  -37.086807  -96.693776    6.863309    0.000000    0.000000    0.000000    0.000000
  0.032200000   -4.573049  -37.304348  -98.006333   12.829860    0.000000    0.000000    0.000000    0.000000
  0.032400000   -4.562276  -37.509460  -97.019898   11.535255    0.000000    0.000000    0.000000    0.000000
  0.032600000   -4.558960  -37.721146  -98.553839   23.423605    0.000000    0.000000    0.000000    0.000000
  0.032800000   -4.553511  -37.925003  -97.062388   11.389614    0.000000    0.000000    0.000000    0.000000
  0.033000000   -4.551875  -38.111023  -98.446087   15.257519    0.000000    0.000000    0.000000    0.000000
  0.033200000   -4.554067  -38.308876 -100.040358    6.150455    0.000000    0.000000    0.000000    0.000000
  0.033400000   -4.551445  -38.541351  -97.296113   10.272714    0.000000    0.000000    0.000000    0.000000
  0.033600000   -4.556349  -38.732628  -99.967949   11.710378    0.000000    0.000000    0.000000    0.000000
  0.033800000   -4.558541  -38.953499  -97.143644   10.191027    0.000000    0.000000    0.000000    0.000000
  0.034000000   -4.560506  -39.177574  -97.549898    7.129915    0.000000    0.000000    0.000000    0.000000
  0.034200000   -4.563016  -39.397385  -98.474742    0.270477    0.000000    0.000000    0.000000    0.000000
  0.034400000   -4.567014  -39.644402  -99.542068    8.535657    0.000000    0.000000    0.000000    0.000000
  0.034600000   -4.569694  -39.862381  -99.571087   12.564369    0.000000    0.000000    0.000000    0.000000
  0.034800000   -4.572909  -40.091133  -98.292135    8.476700    0.000000    0.000000    0.000000    0.000000
  0.035000000   -4.576233  -40.360256  -97.684291  -11.013680    0.000000    0.000000    0.000000    0.000000
  0.035200000   -4.581892  -40.611507  -97.207605  -18.622087    0.000000    0.000000    0.000000    0.000000
  0.035400000   -4.587768  -40.848434  -97.820779    4.413754    0.000000    0.000000    0.000000    0.000000
  0.035600000   -4.585707  -41.080315  -98.646909   18.143131    0.000000    0.000000    0.000000    0.000000
  0.035800000   -4.587461  -41.330494  -99.074748    3.048548    0.000000    0.000000    0.000000    0.000000
  0.036000000   -4.587189  -41.567810 -100.236396   -1.135356    0.000000    0.000000    0.000000    0.000000
  0.036200000   -4.582214  -41.814213  -99.572764    2.825731    0.000000    0.000000    0.000000    0.000000
  0.036400000   -4.580418  -42.060436  -99.044230   -3.334099    0.000000    0.000000    0.000000    0.000000
  0.036600000   -4.575952  -42.297916  -98.863902    9.233377    0.000000    0.000000    0.000000    0.000000
  0.036800000   -4.573529  -42.513523  -97.460298    9.972578    0.000000    0.000000    0.000000    0.000000
  0.037000000   -4.568733  -42.699196  -99.641924    2.640654    0.000000    0.000000    0.000000    0.000000
  0.037200000   -4.566372  -42.865601 -100.932640   19.864565    0.000000    0.000000    0.000000    0.000000
  0.037400000   -4.566586  -43.065601 -100.473267   16.900536    0.000000    0.000000    0.000000    0.000000
  0.037600000   -4.575096  -43.281300 -100.062708    2.675718    0.000000    0.000000    0.000000    0.000000
  0.037800000   -4.584066  -43.502880  -97.404643   13.972486    0.000000    0.000000    0.000000    0.000000
  0.038000000   -4.587072  -43.754498 -100.444199    9.099134    0.000000    0.000000    0.000000    0.000000
  0.038200000   -4.593744  -43.985283 -100.190656   19.333845    0.000000    0.000000    0.000000    0.000000
  0.038400000   -4.600248  -44.257641 -101.262990   11.456962    0.000000    0.000000    0.000000    0.000000
  0.038600000   -4.605181  -44.496605  -98.692768    3.211917    0.000000    0.000000    0.000000    0.000000
  0.038800000   -4.607625  -44.749062 -100.081286    6.280674    0.000000    0.000000    0.000000    0.000000
  0.039000000   -4.605547  -45.024990  -99.763280   26.737772    0.000000    0.000000    0.000000    0.000000
  0.039200000   -4.607704  -45.299904  -98.997216   11.968400    0.000000    0.000000    0.000000    0.000000
  0.039400000   -4.601309  -45.555748 -100.936758   12.195641    0.000000    0.000000    0.000000    0.000000
  0.039600000   -4.597388  -45.764400 -100.970783   12.614808    0.000000    0.000000    0.000000    0.000000
  0.039800000   -4.591845  -46.011677  -98.458523    1.051518    0.000000    0.000000    0.000000    0.000000
  0.040000000   -4.586895  -46.226444  -99.486821    5.167724    0.000000    0.000000    0.000000    0.000000
  0.040200000   -4.583046  -46.437733 -100.876301   13.579816    0.000000    0.000000    0.000000    0.000000
  0.040400000   -4.582601  -46.648674  -99.605960  -15.845139    0.000000    0.000000    0.000000    0.000000
  0.040600000   -4.578096  -46.848312 -102.324330    3.505824    0.000000    0.000000    0.000000    0.000000
  0.040800000   -4.580073  -47.027176  -99.898358    8.848163    0.000000    0.000000    0.000000    0.000000
  0.041000000   -4.582392  -47.227463  -99.284194    4.602149    0.000000    0.000000    0.000000    0.000000
  0.041200000   -4.588278  -47.462852 -102.077107    5.556194    0.000000    0.000000    0.000000    0.000000
  0.041400000   -4.590313  -47.685986  -98.867274   -1.236645    0.000000    0.000000    0.000000    0.000000
  0.041600000   -4.597286  -47.955406 -103.832125   -4.410247    0.000000    0.000000    0.000000    0.000000
  0.041800000   -4.602614  -48.179016 -100.442993   -1.885020    0.000000    0.000000    0.000000    0.000000
  0.042000000   -4.605801  -48.409206 -100.229155   10.918940    0.000000    0.000000    0.000000    0.000000
  0.042200000   -4.612995  -48.666237 -100.338672    9.274828    0.000000    0.000000    0.000000    0.000000
  0.042400000   -4.612123  -48.882198 -100.735300   -7.074758    0.000000    0.000000    0.000000    0.000000
  0.042600000   -4.612151  -49.109924 -100.176133  -12.826973    0.000000    0.000000    0.000000    0.000000
  0.042800000   -4.612637  -49.369598 -100.602697   -3.023339    0.000000    0.000000    0.000000    0.000000
