! Anritsu VNA Master:                     Model: MS2036C/10/77
! SN:                                  1601066
! /card0/usr/256.ns.n.r20.21.s2p
! Existing Calibration Information:
! TYPE:                         Current Settings,       Active Cal Settings
! TIME:             	   12/19/2017 04:13:00 PM,    12/19/2017 03:58:02 PM
! INTERNAL TEMP:    	                   46.5 C,                    47.0 C
! # POINTS:         	                      501,                       501
! START FREQ:       	               10.000 MHz,                10.000 MHz
! STOP FREQ:        	              110.000 MHz,               110.000 MHz
! SOURCE POWER:     	                     High,                      High
! IFBW:             	                   100 Hz,                    100 Hz
! AVG FACTOR:       	                       1 ,                        1 
! REF PLANE 1:      	                     0 mm,                      0 mm
! REF PLANE 2:      	                     0 mm,                      0 mm
! CAL TYPE:         	                 Full S11,                  Full S11
! CAL METHOD:       	                     SOLT,                      SOLT
! CAL LINE TYPE:    	                     Coax,                      Coax
! DUT PORT 1:       	                N-Conn(F),                 N-Conn(F)
! DUT PORT 2:       	                K-Conn(F),                 K-Conn(F)
! CAL STATUS:       	        OK: Accuracy High,                        --
# GHZ S DB R 50.0
! FREQ.GHZ       S11DB        S11A       S21DB        S21A       S12DB        S12A       S22DB        S22A
  0.010000000   -7.223160  166.937332  -82.775706   79.005470    0.000000    0.000000    0.000000    0.000000
  0.010200000   -7.208587  166.724457  -82.699391   75.347443    0.000000    0.000000    0.000000    0.000000
  0.010400000   -7.206596  166.442337  -82.636296   74.426888    0.000000    0.000000    0.000000    0.000000
  0.010600000   -7.216045  166.229172  -83.091621   70.240753    0.000000    0.000000    0.000000    0.000000
  0.010800000   -7.214484  165.969208  -82.970275   70.603012    0.000000    0.000000    0.000000    0.000000
  0.011000000   -7.217552  165.724609  -83.633875   66.906967    0.000000    0.000000    0.000000    0.000000
  0.011200000   -7.219253  165.413544  -84.210724   67.355873    0.000000    0.000000    0.000000    0.000000
  0.011400000   -7.216216  165.180710  -84.248762   64.033813    0.000000    0.000000    0.000000    0.000000
  0.011600000   -7.221734  164.905609  -84.299845   66.241821    0.000000    0.000000    0.000000    0.000000
  0.011800000   -7.221819  164.684418  -84.308067   64.018562    0.000000    0.000000    0.000000    0.000000
  0.012000000   -7.225034  164.364441  -85.518210   62.880219    0.000000    0.000000    0.000000    0.000000
  0.012200000   -7.222510  164.121750  -85.751896   63.177078    0.000000    0.000000    0.000000    0.000000
  0.012400000   -7.227095  163.868637  -85.486601   58.873169    0.000000    0.000000    0.000000    0.000000
  0.012600000   -7.226655  163.601074  -85.711263   56.533394    0.000000    0.000000    0.000000    0.000000
  0.012800000   -7.230008  163.350159  -86.248149   59.159649    0.000000    0.000000    0.000000    0.000000
  0.013000000   -7.231567  163.090881  -86.611815   55.511307    0.000000    0.000000    0.000000    0.000000
  0.013200000   -7.237014  162.841995  -86.912454   59.413692    0.000000    0.000000    0.000000    0.000000
  0.013400000   -7.238558  162.569168  -87.039339   56.565201    0.000000    0.000000    0.000000    0.000000
  0.013600000   -7.234152  162.310425  -87.697294   59.213970    0.000000    0.000000    0.000000    0.000000
  0.013800000   -7.231331  162.068146  -87.650733   59.942001    0.000000    0.000000    0.000000    0.000000
  0.014000000   -7.232943  161.812210  -87.600367   56.349197    0.000000    0.000000    0.000000    0.000000
  0.014200000   -7.237863  161.542969  -86.847043   58.510933    0.000000    0.000000    0.000000    0.000000
  0.014400000   -7.239359  161.303329  -87.864192   55.285286    0.000000    0.000000    0.000000    0.000000
  0.014600000   -7.238791  161.046768  -88.780834   59.066677    0.000000    0.000000    0.000000    0.000000
  0.014800000   -7.240204  160.762512  -87.677699   56.994770    0.000000    0.000000    0.000000    0.000000
  0.015000000   -7.245502  160.502747  -87.883915   59.213329    0.000000    0.000000    0.000000    0.000000
  0.015200000   -7.247064  160.247604  -88.667827   54.547981    0.000000    0.000000    0.000000    0.000000
  0.015400000   -7.249142  159.965851  -88.274049   54.250355    0.000000    0.000000    0.000000    0.000000
  0.015600000   -7.249740  159.707764  -87.781137   54.390507    0.000000    0.000000    0.000000    0.000000
  0.015800000   -7.248975  159.459213  -87.907203   56.030369    0.000000    0.000000    0.000000    0.000000
  0.016000000   -7.251269  159.182281  -88.086765   52.355923    0.000000    0.000000    0.000000    0.000000
  0.016200000   -7.251755  158.942001  -87.935252   50.000751    0.000000    0.000000    0.000000    0.000000
  0.016400000   -7.253024  158.688080  -88.175597   51.352673    0.000000    0.000000    0.000000    0.000000
  0.016600000   -7.248420  158.422989  -88.927346   49.827190    0.000000    0.000000    0.000000    0.000000
  0.016800000   -7.250767  158.164902  -88.305102   50.102989    0.000000    0.000000    0.000000    0.000000
  0.017000000   -7.252038  157.915939  -88.239459   48.010963    0.000000    0.000000    0.000000    0.000000
  0.017200000   -7.247680  157.665314  -89.408575   43.633198    0.000000    0.000000    0.000000    0.000000
  0.017400000   -7.248055  157.415649  -88.721669   41.311256    0.000000    0.000000    0.000000    0.000000
  0.017600000   -7.252813  157.146027  -89.149236   44.949120    0.000000    0.000000    0.000000    0.000000
  0.017800000   -7.247994  156.866653  -89.288804   40.602165    0.000000    0.000000    0.000000    0.000000
  0.018000000   -7.251795  156.609451  -89.401787   39.905788    0.000000    0.000000    0.000000    0.000000
  0.018200000   -7.255383  156.383698  -89.917519   37.919910    0.000000    0.000000    0.000000    0.000000
  0.018400000   -7.253296  156.139114  -89.446178   38.225311    0.000000    0.000000    0.000000    0.000000
  0.018600000   -7.254441  155.884521  -91.074280   37.955151    0.000000    0.000000    0.000000    0.000000
  0.018800000   -7.252913  155.603973  -90.569620   37.449608    0.000000    0.000000    0.000000    0.000000
  0.019000000   -7.254154  155.387909  -90.245155   36.274578    0.000000    0.000000    0.000000    0.000000
  0.019200000   -7.251412  155.156052  -90.693525   37.892075    0.000000    0.000000    0.000000    0.000000
  0.019400000   -7.254004  154.914001  -91.347302   32.764530    0.000000    0.000000    0.000000    0.000000
  0.019600000   -7.258718  154.666458  -92.240000   39.785244    0.000000    0.000000    0.000000    0.000000
  0.019800000   -7.259312  154.431168  -91.376431   33.588024    0.000000    0.000000    0.000000    0.000000
  0.020000000   -7.260369  154.159821  -91.806745   37.312313    0.000000    0.000000    0.000000    0.000000
  0.020200000   -7.259596  153.921082  -91.664417   34.488224    0.000000    0.000000    0.000000    0.000000
  0.020400000   -7.258229  153.659210  -92.251813   45.174999    0.000000    0.000000    0.000000    0.000000
  0.020600000   -7.255770  153.432648  -91.963459   37.802494    0.000000    0.000000    0.000000    0.000000
  0.020800000   -7.252948  153.148514  -90.572255   43.870979    0.000000    0.000000    0.000000    0.000000
  0.021000000   -7.258727  152.902176  -92.375475   37.509129    0.000000    0.000000    0.000000    0.000000
  0.021200000   -7.257734  152.651428  -92.780530   38.362095    0.000000    0.000000    0.000000    0.000000
  0.021400000   -7.263011  152.384674  -92.779248   37.875267    0.000000    0.000000    0.000000    0.000000
  0.021600000   -7.263805  152.137817  -92.861210   34.869411    0.000000    0.000000    0.000000    0.000000
  0.021800000   -7.266176  151.901733  -91.826788   29.880524    0.000000    0.000000    0.000000    0.000000
  0.022000000   -7.270247  151.646042  -92.434228   37.345600    0.000000    0.000000    0.000000    0.000000
  0.022200000   -7.273732  151.386475  -93.341763   38.475307    0.000000    0.000000    0.000000    0.000000
  0.022400000   -7.273312  151.123779  -93.096438   33.131794    0.000000    0.000000    0.000000    0.000000
  0.022600000   -7.272361  150.888000  -92.345708   32.006763    0.000000    0.000000    0.000000    0.000000
  0.022800000   -7.275731  150.620972  -91.967876   31.884600    0.000000    0.000000    0.000000    0.000000
  0.023000000   -7.279785  150.381256  -92.506630   25.635799    0.000000    0.000000    0.000000    0.000000
  0.023200000   -7.284080  150.084656  -92.252791   27.989811    0.000000    0.000000    0.000000    0.000000
  0.023400000   -7.281784  149.848495  -92.867137   27.882843    0.000000    0.000000    0.000000    0.000000
  0.023600000   -7.282951  149.570847  -93.193835   30.612103    0.000000    0.000000    0.000000    0.000000
  0.023800000   -7.279525  149.303543  -93.357551   23.821299    0.000000    0.000000    0.000000    0.000000
  0.024000000   -7.279072  149.037216  -92.470233   28.529154    0.000000    0.000000    0.000000    0.000000
  0.024200000   -7.278895  148.755295  -93.338182   28.803413    0.000000    0.000000    0.000000    0.000000
  0.024400000   -7.278631  148.471176  -94.090813   20.851650    0.000000    0.000000    0.000000    0.000000
  0.024600000   -7.280269  148.169846  -93.613890   24.698668    0.000000    0.000000    0.000000    0.000000
  0.024800000   -7.280431  147.926239  -94.314781   19.490681    0.000000    0.000000    0.000000    0.000000
  0.025000000   -7.277955  147.666183  -95.106591   24.744196    0.000000    0.000000    0.000000    0.000000
  0.025200000   -7.275363  147.423141  -94.390100   16.757874    0.000000    0.000000    0.000000    0.000000
  0.025400000   -7.272720  147.188141  -94.294114   21.429264    0.000000    0.000000    0.000000    0.000000
  0.025600000   -7.274239  146.940186  -94.776639   21.251112    0.000000    0.000000    0.000000    0.000000
  0.025800000   -7.278904  146.713303  -94.678534   22.483767    0.000000    0.000000    0.000000    0.000000
  0.026000000   -7.276775  146.467133  -94.350706   22.635201    0.000000    0.000000    0.000000    0.000000
  0.026200000   -7.277522  146.254364  -96.438258   22.735558    0.000000    0.000000    0.000000    0.000000
  0.026400000   -7.279298  145.986450  -96.241018   17.932838    0.000000    0.000000    0.000000    0.000000
  0.026600000   -7.280253  145.739395  -95.089519   19.573248    0.000000    0.000000    0.000000    0.000000
  0.026800000   -7.286682  145.482010  -95.535587   25.183622    0.000000    0.000000    0.000000    0.000000
  0.027000000   -7.286066  145.204544  -95.131003   15.321878    0.000000    0.000000    0.000000    0.000000
  0.027200000   -7.283082  144.918549  -95.347005   28.350605    0.000000    0.000000    0.000000    0.000000
  0.027400000   -7.281222  144.656189  -95.999445   20.876562    0.000000    0.000000    0.000000    0.000000
  0.027600000   -7.277370  144.373199  -95.034787   25.584290    0.000000    0.000000    0.000000    0.000000
  0.027800000   -7.275208  144.129913  -96.917103   21.104378    0.000000    0.000000    0.000000    0.000000
  0.028000000   -7.272807  143.837509  -96.405544   23.819136    0.000000    0.000000    0.000000    0.000000
  0.028200000   -7.274250  143.571182  -95.531977   16.129946    0.000000    0.000000    0.000000    0.000000
  0.028400000   -7.270005  143.345337  -95.996901   16.979204    0.000000    0.000000    0.000000    0.000000
  0.028600000   -7.266146  143.096954  -96.234645   22.397282    0.000000    0.000000    0.000000    0.000000
  0.028800000   -7.265023  142.907135  -95.977060   21.245951    0.000000    0.000000    0.000000    0.000000
  0.029000000   -7.263547  142.664978  -95.873710   23.594463    0.000000    0.000000    0.000000    0.000000
  0.029200000   -7.264053  142.480927  -96.334108   15.187685    0.000000    0.000000    0.000000    0.000000
  0.029400000   -7.260530  142.270157  -95.581809   15.940114    0.000000    0.000000    0.000000    0.000000
  0.029600000   -7.263799  142.060425  -95.394928   23.866108    0.000000    0.000000    0.000000    0.000000
  0.029800000   -7.267127  141.832291  -96.583114   22.591476    0.000000    0.000000    0.000000    0.000000
  0.030000000   -7.268090  141.577988  -97.813964   15.132774    0.000000    0.000000    0.000000    0.000000
  0.030200000   -7.272636  141.338913  -96.556308   13.741148    0.000000    0.000000    0.000000    0.000000
  0.030400000   -7.276706  141.056030  -96.084212   20.963217    0.000000    0.000000    0.000000    0.000000
  0.030600000   -7.277266  140.786240  -96.959142   11.662268    0.000000    0.000000    0.000000    0.000000
  0.030800000   -7.279079  140.510269  -96.733326   16.850330    0.000000    0.000000    0.000000    0.000000
  0.031000000   -7.286260  140.249130  -97.524713   19.047188    0.000000    0.000000    0.000000    0.000000
  0.031200000   -7.273827  140.018860  -96.267246   12.918900    0.000000    0.000000    0.000000    0.000000
  0.031400000   -7.277193  139.747894  -97.146813    1.397204    0.000000    0.000000    0.000000    0.000000
  0.031600000   -7.282927  139.489136  -96.540061   16.404755    0.000000    0.000000    0.000000    0.000000
  0.031800000   -7.280891  139.197113  -97.792640    8.134212    0.000000    0.000000    0.000000    0.000000
  0.032000000   -7.281419  138.946304  -97.781372   13.644567    0.000000    0.000000    0.000000    0.000000
  0.032200000   -7.275762  138.660355 -100.624808   23.113188    0.000000    0.000000    0.000000    0.000000
  0.032400000   -7.276132  138.405167  -98.533498    7.914590    0.000000    0.000000    0.000000    0.000000
  0.032600000   -7.265868  138.133438  -98.123582    1.594242    0.000000    0.000000    0.000000    0.000000
  0.032800000   -7.262735  137.914917  -97.699253   15.217694    0.000000    0.000000    0.000000    0.000000
  0.033000000   -7.262559  137.668045  -99.043934   -5.308165    0.000000    0.000000    0.000000    0.000000
  0.033200000   -7.260367  137.449310  -99.926338    1.586551    0.000000    0.000000    0.000000    0.000000
  0.033400000   -7.256203  137.235992  -98.307243    5.682866    0.000000    0.000000    0.000000    0.000000
  0.033600000   -7.258592  137.005005  -97.476722    9.869970    0.000000    0.000000    0.000000    0.000000
  0.033800000   -7.267689  136.797836  -97.746869   12.187725    0.000000    0.000000    0.000000    0.000000
  0.034000000   -7.266688  136.535828  -96.560945   10.805487    0.000000    0.000000    0.000000    0.000000
  0.034200000   -7.271203  136.258423  -99.846688   13.989795    0.000000    0.000000    0.000000    0.000000
  0.034400000   -7.274726  135.985062  -98.972006   22.671785    0.000000    0.000000    0.000000    0.000000
  0.034600000   -7.275604  135.699112  -96.383798    6.964023    0.000000    0.000000    0.000000    0.000000
  0.034800000   -7.283815  135.406052  -97.727309   27.848940    0.000000    0.000000    0.000000    0.000000
  0.035000000   -7.282767  135.150482  -97.889292   12.303286    0.000000    0.000000    0.000000    0.000000
  0.035200000   -7.284231  134.851456  -99.015946   15.357322    0.000000    0.000000    0.000000    0.000000
  0.035400000   -7.278018  134.604980  -98.803153   12.805612    0.000000    0.000000    0.000000    0.000000
  0.035600000   -7.277344  134.352814  -99.664672    8.579585    0.000000    0.000000    0.000000    0.000000
  0.035800000   -7.270469  134.059784  -97.291018   -2.514264    0.000000    0.000000    0.000000    0.000000
  0.036000000   -7.263278  133.781616  -98.178231    6.030839    0.000000    0.000000    0.000000    0.000000
  0.036200000   -7.256900  133.533936  -98.894071   11.245329    0.000000    0.000000    0.000000    0.000000
  0.036400000   -7.249284  133.294968  -97.914727    9.840701    0.000000    0.000000    0.000000    0.000000
  0.036600000   -7.244284  133.053925  -99.190550    5.231091    0.000000    0.000000    0.000000    0.000000
  0.036800000   -7.241065  132.854126  -98.761377   12.689859    0.000000    0.000000    0.000000    0.000000
  0.037000000   -7.240518  132.623306  -99.322176    6.722459    0.000000    0.000000    0.000000    0.000000
  0.037200000   -7.244182  132.445175  -97.259165    2.939280    0.000000    0.000000    0.000000    0.000000
  0.037400000   -7.241895  132.206268  -99.521913   13.348480    0.000000    0.000000    0.000000    0.000000
  0.037600000   -7.248582  131.980286  -97.191840    8.010514    0.000000    0.000000    0.000000    0.000000
  0.037800000   -7.249277  131.725327  -99.499934    6.351463    0.000000    0.000000    0.000000    0.000000
  0.038000000   -7.249180  131.521133  -98.575077   -1.383721    0.000000    0.000000    0.000000    0.000000
  0.038200000   -7.256779  131.222656  -99.906454   -3.389322    0.000000    0.000000    0.000000    0.000000
  0.038400000   -7.262561  130.962372 -100.757782   10.981864    0.000000    0.000000    0.000000    0.000000
  0.038600000   -7.264813  130.699280 -101.807952   -0.498400    0.000000    0.000000    0.000000    0.000000
  0.038800000   -7.268519  130.463333  -99.484430    0.387146    0.000000    0.000000    0.000000    0.000000
  0.039000000   -7.269084  130.199738 -104.153136    6.226243    0.000000    0.000000    0.000000    0.000000
  0.039200000   -7.268913  129.907898 -100.592936    8.439716    0.000000    0.000000    0.000000    0.000000
  0.039400000   -7.270249  129.692902 -102.360891   -2.241067    0.000000    0.000000    0.000000    0.000000
  0.039600000   -7.261090  129.428391  -99.525381   12.039954    0.000000    0.000000    0.000000    0.000000
  0.039800000   -7.262438  129.118896 -100.834297    9.592930    0.000000    0.000000    0.000000    0.000000
  0.040000000   -7.259878  128.872559 -102.890753   25.036982    0.000000    0.000000    0.000000    0.000000
  0.040200000   -7.250581  128.583099  -99.281745    3.636753    0.000000    0.000000    0.000000    0.000000
  0.040400000   -7.247490  128.380722 -100.274735  -19.236677    0.000000    0.000000    0.000000    0.000000
  0.040600000   -7.242734  128.158691 -100.283135   15.521338    0.000000    0.000000    0.000000    0.000000
  0.040800000   -7.244415  127.965645 -100.747239   10.080477    0.000000    0.000000    0.000000    0.000000
  0.041000000   -7.247664  127.707451 -100.272248   10.512978    0.000000    0.000000    0.000000    0.000000
  0.041200000   -7.256042  127.529305 -100.180523   30.830944    0.000000    0.000000    0.000000    0.000000
  0.041400000   -7.259312  127.277679 -100.941394   -4.913747    0.000000    0.000000    0.000000    0.000000
  0.041600000   -7.269213  127.021576 -103.181565   21.955702    0.000000    0.000000    0.000000    0.000000
  0.041800000   -7.277259  126.748627 -100.168303   13.817145    0.000000    0.000000    0.000000    0.000000
  0.042000000   -7.273549  126.484314 -100.384008    3.023174    0.000000    0.000000    0.000000    0.000000
  0.042200000   -7.282788  126.198990 -100.702646    8.680053    0.000000    0.000000    0.000000    0.000000
  0.042400000   -7.283679  125.904945 -101.373495   -3.525044    0.000000    0.000000    0.000000    0.000000
  0.042600000   -7.284328  125.616661 -101.132626   20.942751    0.000000    0.000000    0.000000    0.000000
  0.042800000   -7.283490  125.331184 -100.650514   15.532417    0.000000    0.000000    0.000000    0.000000
