! Anritsu VNA Master:                     Model: MS2036C/10/77
! SN:                                  1601066
! /card0/usr/256.ns.sma.r200.11.s2p
! Existing Calibration Information:
! TYPE:                         Current Settings,       Active Cal Settings
! TIME:             	   12/19/2017 03:40:02 PM,    12/19/2017 03:30:41 PM
! INTERNAL TEMP:    	                   47.8 C,                    48.0 C
! # POINTS:         	                      501,                       501
! START FREQ:       	               10.000 MHz,                10.000 MHz
! STOP FREQ:        	              110.000 MHz,               110.000 MHz
! SOURCE POWER:     	                     High,                      High
! IFBW:             	                   100 Hz,                    100 Hz
! AVG FACTOR:       	                       1 ,                        1 
! REF PLANE 1:      	                     0 mm,                      0 mm
! REF PLANE 2:      	                     0 mm,                      0 mm
! CAL TYPE:         	                 Full S11,                  Full S11
! CAL METHOD:       	                     SOLT,                      SOLT
! CAL LINE TYPE:    	                     Coax,                      Coax
! DUT PORT 1:       	                N-Conn(F),                 N-Conn(F)
! DUT PORT 2:       	                K-Conn(F),                 K-Conn(F)
! CAL STATUS:       	        OK: Accuracy High,                        --
# GHZ S DB R 50.0
! FREQ.GHZ       S11DB        S11A       S21DB        S21A       S12DB        S12A       S22DB        S22A
  0.010000000  -50.653488 -106.708900  -84.450192   71.804733    0.000000    0.000000    0.000000    0.000000
  0.010200000  -50.710093 -108.988991  -84.782539   73.777817    0.000000    0.000000    0.000000    0.000000
  0.010400000  -51.055395 -105.064087  -84.659933   75.323227    0.000000    0.000000    0.000000    0.000000
  0.010600000  -50.448672 -105.861153  -85.074994   74.304443    0.000000    0.000000    0.000000    0.000000
  0.010800000  -50.129742 -107.917999  -84.622424   79.835823    0.000000    0.000000    0.000000    0.000000
  0.011000000  -50.456066 -108.348656  -85.310112   77.429916    0.000000    0.000000    0.000000    0.000000
  0.011200000  -49.859721 -106.852898  -85.002984   75.536911    0.000000    0.000000    0.000000    0.000000
  0.011400000  -49.872070 -108.762016  -85.171358   73.492691    0.000000    0.000000    0.000000    0.000000
  0.011600000  -50.091870 -114.486961  -84.535076   77.299927    0.000000    0.000000    0.000000    0.000000
  0.011800000  -49.921660 -110.009529  -85.007654   72.870377    0.000000    0.000000    0.000000    0.000000
  0.012000000  -50.014588 -114.823242  -85.283465   71.670006    0.000000    0.000000    0.000000    0.000000
  0.012200000  -49.465932 -114.253311  -85.101939   69.339043    0.000000    0.000000    0.000000    0.000000
  0.012400000  -49.490668 -115.495193  -84.958217   68.567841    0.000000    0.000000    0.000000    0.000000
  0.012600000  -49.595680 -117.063843  -85.085840   66.842903    0.000000    0.000000    0.000000    0.000000
  0.012800000  -49.270766 -116.050224  -85.123133   63.633820    0.000000    0.000000    0.000000    0.000000
  0.013000000  -48.943663 -117.215553  -84.972203   65.393433    0.000000    0.000000    0.000000    0.000000
  0.013200000  -49.097090 -119.473862  -85.337384   63.785969    0.000000    0.000000    0.000000    0.000000
  0.013400000  -49.106432 -119.930351  -85.715631   59.826050    0.000000    0.000000    0.000000    0.000000
  0.013600000  -49.013465 -120.040550  -85.614918   58.364403    0.000000    0.000000    0.000000    0.000000
  0.013800000  -48.976368 -118.838898  -85.657884   59.074791    0.000000    0.000000    0.000000    0.000000
  0.014000000  -48.828572 -121.109428  -85.950776   59.593803    0.000000    0.000000    0.000000    0.000000
  0.014200000  -48.498397 -120.814842  -86.497541   54.890900    0.000000    0.000000    0.000000    0.000000
  0.014400000  -48.365937 -121.716103  -86.425440   52.728523    0.000000    0.000000    0.000000    0.000000
  0.014600000  -48.591869 -120.516815  -87.033570   51.116512    0.000000    0.000000    0.000000    0.000000
  0.014800000  -48.265471 -122.422424  -87.029951   50.212608    0.000000    0.000000    0.000000    0.000000
  0.015000000  -48.347207 -122.518486  -87.348858   47.385948    0.000000    0.000000    0.000000    0.000000
  0.015200000  -48.289113 -122.963745  -87.726962   46.372601    0.000000    0.000000    0.000000    0.000000
  0.015400000  -48.212295 -123.894836  -87.753316   45.661083    0.000000    0.000000    0.000000    0.000000
  0.015600000  -47.922551 -124.773582  -88.179437   47.319801    0.000000    0.000000    0.000000    0.000000
  0.015800000  -48.084577 -125.577179  -88.063257   46.905827    0.000000    0.000000    0.000000    0.000000
  0.016000000  -48.048865 -126.949677  -88.854623   44.037300    0.000000    0.000000    0.000000    0.000000
  0.016200000  -47.841836 -126.877022  -88.842081   44.407619    0.000000    0.000000    0.000000    0.000000
  0.016400000  -47.860293 -127.575027  -89.135744   45.002438    0.000000    0.000000    0.000000    0.000000
  0.016600000  -47.825898 -127.259796  -89.281000   43.091747    0.000000    0.000000    0.000000    0.000000
  0.016800000  -47.561218 -129.080612  -89.692083   43.408230    0.000000    0.000000    0.000000    0.000000
  0.017000000  -47.619565 -129.255493  -89.987987   44.742836    0.000000    0.000000    0.000000    0.000000
  0.017200000  -47.500988 -128.360641  -90.044509   44.446133    0.000000    0.000000    0.000000    0.000000
  0.017400000  -47.513720 -129.666763  -89.566868   49.532028    0.000000    0.000000    0.000000    0.000000
  0.017600000  -47.453780 -130.146500  -90.434255   41.977741    0.000000    0.000000    0.000000    0.000000
  0.017800000  -47.535428 -129.748123  -90.646135   38.283634    0.000000    0.000000    0.000000    0.000000
  0.018000000  -47.375977 -131.441559  -90.530383   46.808689    0.000000    0.000000    0.000000    0.000000
  0.018200000  -47.372097 -132.080246  -90.427702   47.941002    0.000000    0.000000    0.000000    0.000000
  0.018400000  -47.164829 -130.804031  -90.130991   46.941315    0.000000    0.000000    0.000000    0.000000
  0.018600000  -47.174082 -131.212418  -90.490429   49.531727    0.000000    0.000000    0.000000    0.000000
  0.018800000  -46.915227 -131.496033  -90.510627   47.220478    0.000000    0.000000    0.000000    0.000000
  0.019000000  -46.947279 -133.924438  -90.472988   45.429134    0.000000    0.000000    0.000000    0.000000
  0.019200000  -47.051522 -132.212524  -90.903406   47.564999    0.000000    0.000000    0.000000    0.000000
  0.019400000  -46.880520 -132.031250  -90.163279   42.599033    0.000000    0.000000    0.000000    0.000000
  0.019600000  -46.881924 -132.868652  -90.159515   43.479721    0.000000    0.000000    0.000000    0.000000
  0.019800000  -46.827861 -133.089462  -90.036975   42.147118    0.000000    0.000000    0.000000    0.000000
  0.020000000  -46.554327 -134.063522  -90.171871   42.680099    0.000000    0.000000    0.000000    0.000000
  0.020200000  -46.790333 -134.559341  -90.910913   38.194118    0.000000    0.000000    0.000000    0.000000
  0.020400000  -46.550191 -134.694427  -90.544059   34.810856    0.000000    0.000000    0.000000    0.000000
  0.020600000  -46.933278 -135.369217  -90.327582   36.197590    0.000000    0.000000    0.000000    0.000000
  0.020800000  -46.441869 -135.821228  -92.122721   36.854351    0.000000    0.000000    0.000000    0.000000
  0.021000000  -46.478940 -137.287018  -91.499286   34.244987    0.000000    0.000000    0.000000    0.000000
  0.021200000  -46.330108 -137.247299  -91.908075   26.151922    0.000000    0.000000    0.000000    0.000000
  0.021400000  -46.330374 -137.711319  -91.320726   31.356449    0.000000    0.000000    0.000000    0.000000
  0.021600000  -46.258009 -137.695724  -91.611428   32.236752    0.000000    0.000000    0.000000    0.000000
  0.021800000  -46.205950 -139.045395  -92.553450   22.929575    0.000000    0.000000    0.000000    0.000000
  0.022000000  -46.047553 -139.128296  -92.984777   23.906927    0.000000    0.000000    0.000000    0.000000
  0.022200000  -45.891278 -139.192398  -92.658632   32.591087    0.000000    0.000000    0.000000    0.000000
  0.022400000  -45.895534 -138.998184  -92.065791   29.411089    0.000000    0.000000    0.000000    0.000000
  0.022600000  -45.829470 -140.212204  -93.321526   30.766813    0.000000    0.000000    0.000000    0.000000
  0.022800000  -45.924248 -140.829346  -94.157750   24.720802    0.000000    0.000000    0.000000    0.000000
  0.023000000  -45.878879 -139.932526  -93.514377   23.295610    0.000000    0.000000    0.000000    0.000000
  0.023200000  -45.698114 -140.608826  -94.064526   28.844456    0.000000    0.000000    0.000000    0.000000
  0.023400000  -44.784616 -141.715683  -94.614697   28.514694    0.000000    0.000000    0.000000    0.000000
  0.023600000  -45.601305 -141.705536  -93.736501   28.579866    0.000000    0.000000    0.000000    0.000000
  0.023800000  -45.504445 -143.342758  -94.578314   25.487448    0.000000    0.000000    0.000000    0.000000
  0.024000000  -45.625431 -142.349625  -95.056093   31.367077    0.000000    0.000000    0.000000    0.000000
  0.024200000  -45.472924 -142.724503  -93.861568   28.495304    0.000000    0.000000    0.000000    0.000000
  0.024400000  -45.456060 -143.591019  -93.368480   35.940247    0.000000    0.000000    0.000000    0.000000
  0.024600000  -45.417366 -143.482132  -93.650114   28.496307    0.000000    0.000000    0.000000    0.000000
  0.024800000  -45.512060 -144.889801  -93.781912   26.630274    0.000000    0.000000    0.000000    0.000000
  0.025000000  -45.223573 -144.886520  -94.324649   24.874168    0.000000    0.000000    0.000000    0.000000
  0.025200000  -45.212513 -145.396713  -94.844992   33.158581    0.000000    0.000000    0.000000    0.000000
  0.025400000  -45.298117 -145.741486  -93.989905   28.435003    0.000000    0.000000    0.000000    0.000000
  0.025600000  -45.219712 -146.221649  -94.802761   25.472418    0.000000    0.000000    0.000000    0.000000
  0.025800000  -45.203595 -146.388901  -94.549756   29.515539    0.000000    0.000000    0.000000    0.000000
  0.026000000  -45.319977 -146.766953  -94.132933   20.821636    0.000000    0.000000    0.000000    0.000000
  0.026200000  -45.053393 -147.050125  -93.859942   27.348375    0.000000    0.000000    0.000000    0.000000
  0.026400000  -45.156116 -147.390182  -94.547129   24.516413    0.000000    0.000000    0.000000    0.000000
  0.026600000  -45.191055 -148.001511  -95.861509   13.582253    0.000000    0.000000    0.000000    0.000000
  0.026800000  -45.238536 -147.656189  -94.996310   17.010994    0.000000    0.000000    0.000000    0.000000
  0.027000000  -45.138040 -148.934616  -95.163512   19.880903    0.000000    0.000000    0.000000    0.000000
  0.027200000  -45.042839 -149.025833  -95.304778   22.412418    0.000000    0.000000    0.000000    0.000000
  0.027400000  -45.130028 -148.941315  -94.199549   22.975533    0.000000    0.000000    0.000000    0.000000
  0.027600000  -45.154699 -149.172699  -95.342561   19.239889    0.000000    0.000000    0.000000    0.000000
  0.027800000  -44.965046 -148.971008  -95.837505   20.432941    0.000000    0.000000    0.000000    0.000000
  0.028000000  -45.074721 -149.745636  -96.731011   13.632447    0.000000    0.000000    0.000000    0.000000
  0.028200000  -45.020877 -150.663025  -95.699249   11.218743    0.000000    0.000000    0.000000    0.000000
  0.028400000  -44.980069 -150.013687  -95.171392   16.378630    0.000000    0.000000    0.000000    0.000000
  0.028600000  -45.075915 -151.417877  -96.103857   16.034357    0.000000    0.000000    0.000000    0.000000
  0.028800000  -45.064776 -152.386887  -97.108302    9.755903    0.000000    0.000000    0.000000    0.000000
  0.029000000  -45.012230 -151.760513  -96.382702   13.414840    0.000000    0.000000    0.000000    0.000000
  0.029200000  -44.920972 -152.230316  -96.276136   20.301144    0.000000    0.000000    0.000000    0.000000
  0.029400000  -44.944190 -152.598587  -96.930807    7.665802    0.000000    0.000000    0.000000    0.000000
  0.029600000  -44.936189 -152.625809  -96.576235   15.974142    0.000000    0.000000    0.000000    0.000000
  0.029800000  -44.974575 -152.543579  -98.748646   18.311111    0.000000    0.000000    0.000000    0.000000
  0.030000000  -44.829374 -153.013489  -96.406661   22.589552    0.000000    0.000000    0.000000    0.000000
  0.030200000  -44.960153 -153.204315  -97.045273   17.414040    0.000000    0.000000    0.000000    0.000000
  0.030400000  -44.940503 -154.451691  -97.879538   20.363487    0.000000    0.000000    0.000000    0.000000
  0.030600000  -44.769140 -153.796173  -96.029589   11.166691    0.000000    0.000000    0.000000    0.000000
  0.030800000  -44.891047 -155.177124  -97.487704   22.215591    0.000000    0.000000    0.000000    0.000000
  0.031000000  -44.815811 -155.094528  -97.365989   17.299978    0.000000    0.000000    0.000000    0.000000
  0.031200000  -44.641123 -156.128998  -96.064508   19.694551    0.000000    0.000000    0.000000    0.000000
  0.031400000  -44.571973 -156.400421  -96.829469   20.189692    0.000000    0.000000    0.000000    0.000000
  0.031600000  -44.582381 -156.169174  -96.660721   21.012728    0.000000    0.000000    0.000000    0.000000
  0.031800000  -44.438507 -155.931610  -96.534445    7.530597    0.000000    0.000000    0.000000    0.000000
  0.032000000  -44.579434 -156.438217  -96.943539   19.128368    0.000000    0.000000    0.000000    0.000000
  0.032200000  -44.526170 -157.003616  -95.876930    9.652807    0.000000    0.000000    0.000000    0.000000
  0.032400000  -44.340216 -155.995743  -96.192083   18.060358    0.000000    0.000000    0.000000    0.000000
  0.032600000  -44.262841 -157.526917  -96.576296   15.303469    0.000000    0.000000    0.000000    0.000000
  0.032800000  -44.182827 -157.884094  -96.690092   20.380508    0.000000    0.000000    0.000000    0.000000
  0.033000000  -44.308906 -158.356522  -97.147290    8.938684    0.000000    0.000000    0.000000    0.000000
  0.033200000  -44.357062 -158.148438  -97.243377    9.121237    0.000000    0.000000    0.000000    0.000000
  0.033400000  -44.123046 -159.186172  -96.818805   11.932150    0.000000    0.000000    0.000000    0.000000
  0.033600000  -44.273952 -159.023346  -98.914124   20.948040    0.000000    0.000000    0.000000    0.000000
  0.033800000  -44.174873 -159.453079  -98.491072   12.371014    0.000000    0.000000    0.000000    0.000000
  0.034000000  -44.155474 -159.906006  -99.226791    1.452839    0.000000    0.000000    0.000000    0.000000
  0.034200000  -43.923413 -159.940338  -97.425590    9.874328    0.000000    0.000000    0.000000    0.000000
  0.034400000  -44.053358 -159.650604  -98.886859   11.497255    0.000000    0.000000    0.000000    0.000000
  0.034600000  -44.101883 -159.652878  -98.250826    9.776104    0.000000    0.000000    0.000000    0.000000
  0.034800000  -44.067242 -160.047226  -98.797545   14.082949    0.000000    0.000000    0.000000    0.000000
  0.035000000  -44.000065 -161.007690  -99.491256    8.196212    0.000000    0.000000    0.000000    0.000000
  0.035200000  -44.006509 -161.513000  -97.075441    7.200046    0.000000    0.000000    0.000000    0.000000
  0.035400000  -43.996190 -161.241608 -101.670757   11.960216    0.000000    0.000000    0.000000    0.000000
  0.035600000  -43.992998 -162.072662  -97.650296    6.908288    0.000000    0.000000    0.000000    0.000000
  0.035800000  -44.056213 -162.018036 -100.614837    1.799674    0.000000    0.000000    0.000000    0.000000
  0.036000000  -44.040835 -162.104355  -97.979859   11.294572    0.000000    0.000000    0.000000    0.000000
  0.036200000  -44.043747 -161.952682 -100.608241    7.481492    0.000000    0.000000    0.000000    0.000000
  0.036400000  -43.951764 -162.920593 -100.673377    9.315200    0.000000    0.000000    0.000000    0.000000
  0.036600000  -44.007605 -163.385529  -98.365177   10.760191    0.000000    0.000000    0.000000    0.000000
  0.036800000  -43.926141 -163.614334  -98.874765   26.135059    0.000000    0.000000    0.000000    0.000000
  0.037000000  -43.899274 -163.623138  -99.318885   13.822731    0.000000    0.000000    0.000000    0.000000
  0.037200000  -43.914934 -163.471405 -101.091489   12.819227    0.000000    0.000000    0.000000    0.000000
  0.037400000  -43.885755 -162.530777 -100.420599   22.383913    0.000000    0.000000    0.000000    0.000000
  0.037600000  -44.092519 -163.563919 -100.882197   17.398226    0.000000    0.000000    0.000000    0.000000
  0.037800000  -43.968772 -163.884644 -100.871575   14.118666    0.000000    0.000000    0.000000    0.000000
  0.038000000  -43.944479 -164.638840  -97.804095   12.429920    0.000000    0.000000    0.000000    0.000000
  0.038200000  -44.019445 -164.660492  -99.390725   12.685646    0.000000    0.000000    0.000000    0.000000
  0.038400000  -44.052257 -165.375443  -98.824886   13.101028    0.000000    0.000000    0.000000    0.000000
  0.038600000  -43.962339 -165.428604 -100.800920   13.264904    0.000000    0.000000    0.000000    0.000000
  0.038800000  -43.861412 -165.815475  -98.700667   -6.436118    0.000000    0.000000    0.000000    0.000000
  0.039000000  -43.776815 -166.285278  -98.396306   13.537312    0.000000    0.000000    0.000000    0.000000
  0.039200000  -43.806840 -165.947083 -101.017508   -3.079419    0.000000    0.000000    0.000000    0.000000
  0.039400000  -43.863796 -166.768570 -101.533029   -0.901121    0.000000    0.000000    0.000000    0.000000
  0.039600000  -43.782036 -167.190094  -97.989735   -1.538025    0.000000    0.000000    0.000000    0.000000
  0.039800000  -43.663144 -166.896362  -98.518048   -4.304369    0.000000    0.000000    0.000000    0.000000
  0.040000000  -43.775649 -168.045135  -99.961476   -1.099887    0.000000    0.000000    0.000000    0.000000
  0.040200000  -43.680044 -167.557770  -99.376190    4.982907    0.000000    0.000000    0.000000    0.000000
  0.040400000  -43.561464 -167.585068  -98.766953    1.510188    0.000000    0.000000    0.000000    0.000000
  0.040600000  -43.632489 -168.073502 -102.868772   -3.980504    0.000000    0.000000    0.000000    0.000000
  0.040800000  -43.477505 -169.103607 -103.180035    1.864115    0.000000    0.000000    0.000000    0.000000
  0.041000000  -43.553043 -168.945755 -100.525545  -11.199904    0.000000    0.000000    0.000000    0.000000
  0.041200000  -43.537499 -168.076126 -102.150293    4.898220    0.000000    0.000000    0.000000    0.000000
  0.041400000  -43.414601 -169.286285 -101.843586    3.171746    0.000000    0.000000    0.000000    0.000000
  0.041600000  -43.426306 -169.767090 -103.986240    0.739893    0.000000    0.000000    0.000000    0.000000
  0.041800000  -43.475999 -169.109009 -103.464678    9.467880    0.000000    0.000000    0.000000    0.000000
  0.042000000  -43.413606 -170.256638 -103.266478   20.610069    0.000000    0.000000    0.000000    0.000000
  0.042200000  -43.372583 -170.377899 -103.307173   -9.714229    0.000000    0.000000    0.000000    0.000000
  0.042400000  -43.435684 -170.286346 -100.053300   -4.987624    0.000000    0.000000    0.000000    0.000000
  0.042600000  -43.314921 -170.810883  -99.198836    5.264063    0.000000    0.000000    0.000000    0.000000
  0.042800000  -43.314635 -171.719223 -102.871404    6.706881    0.000000    0.000000    0.000000    0.000000
