! Anritsu VNA Master:                     Model: MS2036C/10/77
! SN:                                  1601066
! /card0/usr/256.ew.n.r20.22.s2p
! Existing Calibration Information:
! TYPE:                         Current Settings,       Active Cal Settings
! TIME:             	   12/19/2017 03:10:25 PM,    12/19/2017 02:53:44 PM
! INTERNAL TEMP:    	                   46.8 C,                    46.3 C
! # POINTS:         	                      501,                       501
! START FREQ:       	               10.000 MHz,                10.000 MHz
! STOP FREQ:        	              110.000 MHz,               110.000 MHz
! SOURCE POWER:     	                     High,                      High
! IFBW:             	                   100 Hz,                    100 Hz
! AVG FACTOR:       	                       1 ,                        1 
! REF PLANE 1:      	                     0 mm,                      0 mm
! REF PLANE 2:      	                     0 mm,                      0 mm
! CAL TYPE:         	                 Full S11,                  Full S11
! CAL METHOD:       	                     SOLT,                      SOLT
! CAL LINE TYPE:    	                     Coax,                      Coax
! DUT PORT 1:       	                N-Conn(F),                 N-Conn(F)
! DUT PORT 2:       	                K-Conn(F),                 K-Conn(F)
! CAL STATUS:       	        OK: Accuracy High,                        --
# GHZ S DB R 50.0
! FREQ.GHZ       S11DB        S11A       S21DB        S21A       S12DB        S12A       S22DB        S22A
  0.010000000   -7.219001  167.104187  -82.353653   78.632317    0.000000    0.000000    0.000000    0.000000
  0.010200000   -7.208682  166.923660  -82.554715   78.571396    0.000000    0.000000    0.000000    0.000000
  0.010400000   -7.201889  166.659195  -83.120532   74.034584    0.000000    0.000000    0.000000    0.000000
  0.010600000   -7.214683  166.432037  -82.997701   73.676933    0.000000    0.000000    0.000000    0.000000
  0.010800000   -7.210304  166.206650  -83.163715   70.676514    0.000000    0.000000    0.000000    0.000000
  0.011000000   -7.212813  165.909485  -83.905613   68.948074    0.000000    0.000000    0.000000    0.000000
  0.011200000   -7.215981  165.671204  -83.981053   66.971359    0.000000    0.000000    0.000000    0.000000
  0.011400000   -7.218295  165.399704  -83.833989   66.571533    0.000000    0.000000    0.000000    0.000000
  0.011600000   -7.217276  165.167023  -84.357153   66.562019    0.000000    0.000000    0.000000    0.000000
  0.011800000   -7.219875  164.917770  -85.064731   62.822224    0.000000    0.000000    0.000000    0.000000
  0.012000000   -7.219941  164.650696  -84.797077   61.928574    0.000000    0.000000    0.000000    0.000000
  0.012200000   -7.225209  164.400345  -85.095548   61.905575    0.000000    0.000000    0.000000    0.000000
  0.012400000   -7.222738  164.141983  -85.596481   62.188572    0.000000    0.000000    0.000000    0.000000
  0.012600000   -7.227653  163.862915  -85.860242   60.329185    0.000000    0.000000    0.000000    0.000000
  0.012800000   -7.227185  163.613922  -86.564971   59.342957    0.000000    0.000000    0.000000    0.000000
  0.013000000   -7.234788  163.362732  -86.173546   58.238285    0.000000    0.000000    0.000000    0.000000
  0.013200000   -7.236256  163.123352  -87.143033   58.541695    0.000000    0.000000    0.000000    0.000000
  0.013400000   -7.239514  162.861877  -87.366310   58.442608    0.000000    0.000000    0.000000    0.000000
  0.013600000   -7.236886  162.607590  -87.325229   61.165951    0.000000    0.000000    0.000000    0.000000
  0.013800000   -7.231397  162.351898  -87.714561   55.068745    0.000000    0.000000    0.000000    0.000000
  0.014000000   -7.232745  162.100449  -87.088381   60.629253    0.000000    0.000000    0.000000    0.000000
  0.014200000   -7.235121  161.832733  -87.775471   59.862442    0.000000    0.000000    0.000000    0.000000
  0.014400000   -7.237926  161.590057  -87.570932   58.588448    0.000000    0.000000    0.000000    0.000000
  0.014600000   -7.236282  161.323135  -87.581635   58.176544    0.000000    0.000000    0.000000    0.000000
  0.014800000   -7.240916  161.056717  -87.521644   57.363342    0.000000    0.000000    0.000000    0.000000
  0.015000000   -7.242696  160.806076  -88.062591   56.185539    0.000000    0.000000    0.000000    0.000000
  0.015200000   -7.245647  160.546646  -87.699056   55.432495    0.000000    0.000000    0.000000    0.000000
  0.015400000   -7.247327  160.283295  -87.941351   53.889114    0.000000    0.000000    0.000000    0.000000
  0.015600000   -7.251208  160.041534  -88.070029   54.787415    0.000000    0.000000    0.000000    0.000000
  0.015800000   -7.246089  159.759140  -87.993135   53.080864    0.000000    0.000000    0.000000    0.000000
  0.016000000   -7.250186  159.514847  -87.642628   50.919453    0.000000    0.000000    0.000000    0.000000
  0.016200000   -7.252792  159.253052  -88.478552   48.949638    0.000000    0.000000    0.000000    0.000000
  0.016400000   -7.252744  159.027466  -87.924625   50.381805    0.000000    0.000000    0.000000    0.000000
  0.016600000   -7.248287  158.748993  -88.595462   47.538193    0.000000    0.000000    0.000000    0.000000
  0.016800000   -7.253790  158.542709  -89.040644   47.653278    0.000000    0.000000    0.000000    0.000000
  0.017000000   -7.252931  158.257172  -88.532343   44.042931    0.000000    0.000000    0.000000    0.000000
  0.017200000   -7.251070  158.007843  -88.785011   47.986908    0.000000    0.000000    0.000000    0.000000
  0.017400000   -7.250982  157.753265  -89.331624   40.508636    0.000000    0.000000    0.000000    0.000000
  0.017600000   -7.254573  157.510315  -89.099233   45.361507    0.000000    0.000000    0.000000    0.000000
  0.017800000   -7.256912  157.241699  -89.070781   38.569321    0.000000    0.000000    0.000000    0.000000
  0.018000000   -7.253772  157.002670  -89.962174   40.282841    0.000000    0.000000    0.000000    0.000000
  0.018200000   -7.257585  156.765152  -89.542029   39.015697    0.000000    0.000000    0.000000    0.000000
  0.018400000   -7.258599  156.502426  -89.637585   41.632454    0.000000    0.000000    0.000000    0.000000
  0.018600000   -7.260158  156.260101  -89.937489   35.973198    0.000000    0.000000    0.000000    0.000000
  0.018800000   -7.262608  156.019516  -90.609976   39.827099    0.000000    0.000000    0.000000    0.000000
  0.019000000   -7.263670  155.753616  -90.938756   33.954441    0.000000    0.000000    0.000000    0.000000
  0.019200000   -7.266464  155.507446  -91.157640   36.091160    0.000000    0.000000    0.000000    0.000000
  0.019400000   -7.267221  155.241226  -91.961916   36.189213    0.000000    0.000000    0.000000    0.000000
  0.019600000   -7.269306  155.022690  -91.599848   41.193630    0.000000    0.000000    0.000000    0.000000
  0.019800000   -7.270822  154.769882  -91.447514   38.789139    0.000000    0.000000    0.000000    0.000000
  0.020000000   -7.271015  154.500397  -91.585308   36.260902    0.000000    0.000000    0.000000    0.000000
  0.020200000   -7.269811  154.268677  -91.966145   38.198612    0.000000    0.000000    0.000000    0.000000
  0.020400000   -7.269759  154.007111  -91.925568   38.930321    0.000000    0.000000    0.000000    0.000000
  0.020600000   -7.266138  153.753174  -91.451882   38.317402    0.000000    0.000000    0.000000    0.000000
  0.020800000   -7.265101  153.502975  -90.746445   35.453602    0.000000    0.000000    0.000000    0.000000
  0.021000000   -7.263014  153.243027  -92.739081   38.066669    0.000000    0.000000    0.000000    0.000000
  0.021200000   -7.262231  152.984909  -92.802783   39.482037    0.000000    0.000000    0.000000    0.000000
  0.021400000   -7.263235  152.727753  -93.187072   41.339798    0.000000    0.000000    0.000000    0.000000
  0.021600000   -7.268179  152.473404  -91.946847   32.364628    0.000000    0.000000    0.000000    0.000000
  0.021800000   -7.266894  152.220078  -93.038301   36.812317    0.000000    0.000000    0.000000    0.000000
  0.022000000   -7.274994  151.987259  -93.664436   36.190075    0.000000    0.000000    0.000000    0.000000
  0.022200000   -7.272422  151.746094  -91.723598   35.914051    0.000000    0.000000    0.000000    0.000000
  0.022400000   -7.273642  151.500595  -92.032304   33.304562    0.000000    0.000000    0.000000    0.000000
  0.022600000   -7.278941  151.254486  -92.737849   32.373737    0.000000    0.000000    0.000000    0.000000
  0.022800000   -7.274848  151.006393  -92.855379   31.382349    0.000000    0.000000    0.000000    0.000000
  0.023000000   -7.277347  150.754105  -92.507537   30.107611    0.000000    0.000000    0.000000    0.000000
  0.023200000   -7.275829  150.496857  -91.872816   31.416298    0.000000    0.000000    0.000000    0.000000
  0.023400000   -7.277281  150.184799  -92.308654   27.677389    0.000000    0.000000    0.000000    0.000000
  0.023600000   -7.275342  150.007172  -92.943204   25.477716    0.000000    0.000000    0.000000    0.000000
  0.023800000   -7.279057  149.720993  -93.256776   26.425871    0.000000    0.000000    0.000000    0.000000
  0.024000000   -7.272137  149.479126  -93.401811   25.018885    0.000000    0.000000    0.000000    0.000000
  0.024200000   -7.274990  149.216705  -93.530104   24.362488    0.000000    0.000000    0.000000    0.000000
  0.024400000   -7.277913  148.928375  -94.122572   19.633236    0.000000    0.000000    0.000000    0.000000
  0.024600000   -7.272399  148.675354  -93.287557   17.920746    0.000000    0.000000    0.000000    0.000000
  0.024800000   -7.275749  148.411362  -94.101544   28.597919    0.000000    0.000000    0.000000    0.000000
  0.025000000   -7.277847  148.164963  -93.751637   25.825558    0.000000    0.000000    0.000000    0.000000
  0.025200000   -7.272606  147.932648  -94.031430   20.637512    0.000000    0.000000    0.000000    0.000000
  0.025400000   -7.273802  147.694946  -93.823977   16.744175    0.000000    0.000000    0.000000    0.000000
  0.025600000   -7.277439  147.464508  -95.162202   18.010046    0.000000    0.000000    0.000000    0.000000
  0.025800000   -7.277005  147.246948  -94.936338   30.791706    0.000000    0.000000    0.000000    0.000000
  0.026000000   -7.279801  146.995148  -95.197596   21.781366    0.000000    0.000000    0.000000    0.000000
  0.026200000   -7.279088  146.752579  -95.240824   16.703430    0.000000    0.000000    0.000000    0.000000
  0.026400000   -7.281249  146.510498  -95.717533   21.844494    0.000000    0.000000    0.000000    0.000000
  0.026600000   -7.286858  146.247787  -95.496442   17.211777    0.000000    0.000000    0.000000    0.000000
  0.026800000   -7.294898  145.976807  -94.701230   24.811476    0.000000    0.000000    0.000000    0.000000
  0.027000000   -7.288556  145.696442  -95.712216   21.869925    0.000000    0.000000    0.000000    0.000000
  0.027200000   -7.290241  145.435898  -95.688130   28.665483    0.000000    0.000000    0.000000    0.000000
  0.027400000   -7.288796  145.142441  -95.031988   15.087444    0.000000    0.000000    0.000000    0.000000
  0.027600000   -7.282606  144.889664  -96.235017   23.288895    0.000000    0.000000    0.000000    0.000000
  0.027800000   -7.280572  144.594101  -96.126366   20.133858    0.000000    0.000000    0.000000    0.000000
  0.028000000   -7.273345  144.333908  -96.076534   15.912704    0.000000    0.000000    0.000000    0.000000
  0.028200000   -7.277956  144.065308  -96.601244   21.127077    0.000000    0.000000    0.000000    0.000000
  0.028400000   -7.276677  143.850006  -95.845537   16.627369    0.000000    0.000000    0.000000    0.000000
  0.028600000   -7.270848  143.610764  -96.531985   27.101891    0.000000    0.000000    0.000000    0.000000
  0.028800000   -7.268727  143.397430  -96.900497   15.431870    0.000000    0.000000    0.000000    0.000000
  0.029000000   -7.267301  143.191589  -95.709832   21.434708    0.000000    0.000000    0.000000    0.000000
  0.029200000   -7.266569  143.010452  -96.695630   18.153097    0.000000    0.000000    0.000000    0.000000
  0.029400000   -7.265644  142.811142  -96.274174   25.484583    0.000000    0.000000    0.000000    0.000000
  0.029600000   -7.263955  142.609009  -96.768960   11.681438    0.000000    0.000000    0.000000    0.000000
  0.029800000   -7.267093  142.401108  -96.131067   18.181883    0.000000    0.000000    0.000000    0.000000
  0.030000000   -7.267648  142.150101  -96.275328   15.680408    0.000000    0.000000    0.000000    0.000000
  0.030200000   -7.273489  141.921143  -97.381144   19.230564    0.000000    0.000000    0.000000    0.000000
  0.030400000   -7.274658  141.646317  -96.462508   18.171980    0.000000    0.000000    0.000000    0.000000
  0.030600000   -7.278645  141.388092  -96.956763   22.561819    0.000000    0.000000    0.000000    0.000000
  0.030800000   -7.279017  141.127640  -97.206062   14.052523    0.000000    0.000000    0.000000    0.000000
  0.031000000   -7.282300  140.865982  -97.693868    4.764985    0.000000    0.000000    0.000000    0.000000
  0.031200000   -7.275894  140.654907  -96.024207   17.802814    0.000000    0.000000    0.000000    0.000000
  0.031400000   -7.278325  140.383820  -96.652232   17.756512    0.000000    0.000000    0.000000    0.000000
  0.031600000   -7.283987  140.111313  -99.029913   21.724905    0.000000    0.000000    0.000000    0.000000
  0.031800000   -7.288071  139.854156  -96.652783    8.473300    0.000000    0.000000    0.000000    0.000000
  0.032000000   -7.287606  139.602341  -97.937041   16.302172    0.000000    0.000000    0.000000    0.000000
  0.032200000   -7.285672  139.336090  -97.317026   17.929653    0.000000    0.000000    0.000000    0.000000
  0.032400000   -7.282850  139.096588  -98.387083   19.420141    0.000000    0.000000    0.000000    0.000000
  0.032600000   -7.278075  138.835800  -97.410998    8.630610    0.000000    0.000000    0.000000    0.000000
  0.032800000   -7.273839  138.589676  -96.795277   19.649305    0.000000    0.000000    0.000000    0.000000
  0.033000000   -7.271925  138.374924  -96.818651   19.528416    0.000000    0.000000    0.000000    0.000000
  0.033200000   -7.270713  138.143341  -97.142740   10.837824    0.000000    0.000000    0.000000    0.000000
  0.033400000   -7.271737  137.940445  -97.189070   15.179573    0.000000    0.000000    0.000000    0.000000
  0.033600000   -7.278340  137.730942  -98.176210    2.837918    0.000000    0.000000    0.000000    0.000000
  0.033800000   -7.276729  137.506317  -98.826848    9.878467    0.000000    0.000000    0.000000    0.000000
  0.034000000   -7.281496  137.214111  -98.114696    7.241820    0.000000    0.000000    0.000000    0.000000
  0.034200000   -7.290513  136.953354  -96.857906    9.525077    0.000000    0.000000    0.000000    0.000000
  0.034400000   -7.289474  136.649246  -99.812538   12.228384    0.000000    0.000000    0.000000    0.000000
  0.034600000   -7.295245  136.357285  -98.074519   24.224817    0.000000    0.000000    0.000000    0.000000
  0.034800000   -7.303211  136.090683  -97.479014    3.647039    0.000000    0.000000    0.000000    0.000000
  0.035000000   -7.303846  135.816833  -99.508184   24.827875    0.000000    0.000000    0.000000    0.000000
  0.035200000   -7.303528  135.521759  -98.287746   18.508322    0.000000    0.000000    0.000000    0.000000
  0.035400000   -7.300951  135.260574  -96.625350   16.760010    0.000000    0.000000    0.000000    0.000000
  0.035600000   -7.300201  134.995300  -97.808655    9.186481    0.000000    0.000000    0.000000    0.000000
  0.035800000   -7.292327  134.717636  -98.051965    5.680935    0.000000    0.000000    0.000000    0.000000
  0.036000000   -7.287196  134.447800  -98.784726   25.669622    0.000000    0.000000    0.000000    0.000000
  0.036200000   -7.281914  134.196106  -99.081577   14.161588    0.000000    0.000000    0.000000    0.000000
  0.036400000   -7.273325  133.948074  -98.513249    5.672351    0.000000    0.000000    0.000000    0.000000
  0.036600000   -7.271379  133.717590  -99.037371   12.024107    0.000000    0.000000    0.000000    0.000000
  0.036800000   -7.266866  133.515610  -97.889355   10.664837    0.000000    0.000000    0.000000    0.000000
  0.037000000   -7.266383  133.322495 -100.742430   15.425726    0.000000    0.000000    0.000000    0.000000
  0.037200000   -7.268146  133.081696  -98.509060    4.358256    0.000000    0.000000    0.000000    0.000000
  0.037400000   -7.268793  132.826477  -99.303327    6.822255    0.000000    0.000000    0.000000    0.000000
  0.037600000   -7.273144  132.597763  -97.925889    8.766390    0.000000    0.000000    0.000000    0.000000
  0.037800000   -7.275725  132.360977  -99.579588    3.195718    0.000000    0.000000    0.000000    0.000000
  0.038000000   -7.284558  132.122025 -100.404068    9.062491    0.000000    0.000000    0.000000    0.000000
  0.038200000   -7.290546  131.819977  -99.073374   -4.073120    0.000000    0.000000    0.000000    0.000000
  0.038400000   -7.289828  131.570282  -99.670929    5.813900    0.000000    0.000000    0.000000    0.000000
  0.038600000   -7.291232  131.308487  -99.806865    6.623497    0.000000    0.000000    0.000000    0.000000
  0.038800000   -7.296077  131.039780 -101.389466   -1.011914    0.000000    0.000000    0.000000    0.000000
  0.039000000   -7.298333  130.780792 -101.037583    8.076056    0.000000    0.000000    0.000000    0.000000
  0.039200000   -7.298182  130.527252 -102.313488    2.328978    0.000000    0.000000    0.000000    0.000000
  0.039400000   -7.295488  130.286224 -100.987777   15.080796    0.000000    0.000000    0.000000    0.000000
  0.039600000   -7.293382  129.996429 -101.567859    5.310474    0.000000    0.000000    0.000000    0.000000
  0.039800000   -7.286733  129.715378 -100.022596   29.099417    0.000000    0.000000    0.000000    0.000000
  0.040000000   -7.285747  129.419189 -100.986429    7.927468    0.000000    0.000000    0.000000    0.000000
  0.040200000   -7.274049  129.181763 -100.304017   21.825354    0.000000    0.000000    0.000000    0.000000
  0.040400000   -7.264646  128.962173 -100.094567   17.092768    0.000000    0.000000    0.000000    0.000000
  0.040600000   -7.268653  128.743820  -99.846887   10.843575    0.000000    0.000000    0.000000    0.000000
  0.040800000   -7.261473  128.520935  -99.965281   18.426991    0.000000    0.000000    0.000000    0.000000
  0.041000000   -7.267540  128.317062  -99.694004   24.666428    0.000000    0.000000    0.000000    0.000000
  0.041200000   -7.272939  128.108810  -98.908270   14.792224    0.000000    0.000000    0.000000    0.000000
  0.041400000   -7.274577  127.882095  -99.022816    7.796697    0.000000    0.000000    0.000000    0.000000
  0.041600000   -7.276047  127.638229  -99.772114    2.322760    0.000000    0.000000    0.000000    0.000000
  0.041800000   -7.287395  127.349304 -101.327748    9.445333    0.000000    0.000000    0.000000    0.000000
  0.042000000   -7.294167  127.083267  -99.879231    2.402298    0.000000    0.000000    0.000000    0.000000
  0.042200000   -7.293321  126.861679 -100.719900    4.555793    0.000000    0.000000    0.000000    0.000000
  0.042400000   -7.297387  126.536560 -101.045467    6.290937    0.000000    0.000000    0.000000    0.000000
  0.042600000   -7.294682  126.276550  -99.699325   10.156639    0.000000    0.000000    0.000000    0.000000
  0.042800000   -7.292253  126.038071 -101.301138   16.094603    0.000000    0.000000    0.000000    0.000000
