! Anritsu VNA Master:                     Model: MS2036C/10/77
! SN:                                  1601066
! /card0/usr/256.ns.n.r200.11.s2p
! Existing Calibration Information:
! TYPE:                         Current Settings,       Active Cal Settings
! TIME:             	   12/19/2017 04:04:02 PM,    12/19/2017 03:58:02 PM
! INTERNAL TEMP:    	                   47.0 C,                    47.0 C
! # POINTS:         	                      501,                       501
! START FREQ:       	               10.000 MHz,                10.000 MHz
! STOP FREQ:        	              110.000 MHz,               110.000 MHz
! SOURCE POWER:     	                     High,                      High
! IFBW:             	                   100 Hz,                    100 Hz
! AVG FACTOR:       	                       1 ,                        1 
! REF PLANE 1:      	                     0 mm,                      0 mm
! REF PLANE 2:      	                     0 mm,                      0 mm
! CAL TYPE:         	                 Full S11,                  Full S11
! CAL METHOD:       	                     SOLT,                      SOLT
! CAL LINE TYPE:    	                     Coax,                      Coax
! DUT PORT 1:       	                N-Conn(F),                 N-Conn(F)
! DUT PORT 2:       	                K-Conn(F),                 K-Conn(F)
! CAL STATUS:       	        OK: Accuracy High,                        --
# GHZ S DB R 50.0
! FREQ.GHZ       S11DB        S11A       S21DB        S21A       S12DB        S12A       S22DB        S22A
  0.010000000   -4.540220  -11.352877  -84.386075   74.112396    0.000000    0.000000    0.000000    0.000000
  0.010200000   -4.528663  -11.555087  -84.334428   73.133118    0.000000    0.000000    0.000000    0.000000
  0.010400000   -4.525629  -11.719721  -84.959442   78.050232    0.000000    0.000000    0.000000    0.000000
  0.010600000   -4.528939  -12.024354  -85.256133   74.487411    0.000000    0.000000    0.000000    0.000000
  0.010800000   -4.531188  -12.246026  -85.124212   77.008392    0.000000    0.000000    0.000000    0.000000
  0.011000000   -4.532538  -12.490722  -85.336090   78.955032    0.000000    0.000000    0.000000    0.000000
  0.011200000   -4.531357  -12.711860  -84.971779   76.084183    0.000000    0.000000    0.000000    0.000000
  0.011400000   -4.529904  -12.940937  -84.790763   73.080315    0.000000    0.000000    0.000000    0.000000
  0.011600000   -4.532465  -13.184180  -85.262025   74.580246    0.000000    0.000000    0.000000    0.000000
  0.011800000   -4.533499  -13.416769  -85.133022   73.381508    0.000000    0.000000    0.000000    0.000000
  0.012000000   -4.533575  -13.656447  -84.915453   72.974876    0.000000    0.000000    0.000000    0.000000
  0.012200000   -4.531690  -13.900535  -85.512191   70.755516    0.000000    0.000000    0.000000    0.000000
  0.012400000   -4.533575  -14.134113  -84.881411   70.395142    0.000000    0.000000    0.000000    0.000000
  0.012600000   -4.536452  -14.373597  -85.375868   69.306984    0.000000    0.000000    0.000000    0.000000
  0.012800000   -4.536088  -14.604527  -85.099267   67.785866    0.000000    0.000000    0.000000    0.000000
  0.013000000   -4.538034  -14.808640  -84.945462   65.517357    0.000000    0.000000    0.000000    0.000000
  0.013200000   -4.535682  -15.055035  -85.025727   65.703491    0.000000    0.000000    0.000000    0.000000
  0.013400000   -4.539024  -15.283813  -85.435355   62.395771    0.000000    0.000000    0.000000    0.000000
  0.013600000   -4.538399  -15.500440  -85.478967   62.874973    0.000000    0.000000    0.000000    0.000000
  0.013800000   -4.533478  -15.724637  -85.558474   57.609715    0.000000    0.000000    0.000000    0.000000
  0.014000000   -4.537898  -15.960816  -85.976893   55.373425    0.000000    0.000000    0.000000    0.000000
  0.014200000   -4.538173  -16.196611  -86.137237   55.469921    0.000000    0.000000    0.000000    0.000000
  0.014400000   -4.537667  -16.436016  -86.730633   51.431896    0.000000    0.000000    0.000000    0.000000
  0.014600000   -4.538395  -16.663708  -86.628596   51.318695    0.000000    0.000000    0.000000    0.000000
  0.014800000   -4.538586  -16.904772  -86.502183   51.452553    0.000000    0.000000    0.000000    0.000000
  0.015000000   -4.540229  -17.110481  -87.150563   49.933609    0.000000    0.000000    0.000000    0.000000
  0.015200000   -4.540460  -17.349930  -87.003902   48.828754    0.000000    0.000000    0.000000    0.000000
  0.015400000   -4.542287  -17.588182  -87.901131   47.369057    0.000000    0.000000    0.000000    0.000000
  0.015600000   -4.543343  -17.834244  -88.048364   42.688946    0.000000    0.000000    0.000000    0.000000
  0.015800000   -4.545049  -18.057093  -88.034152   44.806286    0.000000    0.000000    0.000000    0.000000
  0.016000000   -4.548816  -18.298553  -89.359478   46.878780    0.000000    0.000000    0.000000    0.000000
  0.016200000   -4.546611  -18.518986  -88.963987   44.432568    0.000000    0.000000    0.000000    0.000000
  0.016400000   -4.552620  -18.727936  -88.805435   47.516178    0.000000    0.000000    0.000000    0.000000
  0.016600000   -4.553856  -18.967358  -89.104647   45.594959    0.000000    0.000000    0.000000    0.000000
  0.016800000   -4.551597  -19.213402  -90.075479   46.110069    0.000000    0.000000    0.000000    0.000000
  0.017000000   -4.553734  -19.461107  -89.928130   42.905304    0.000000    0.000000    0.000000    0.000000
  0.017200000   -4.549812  -19.674864  -89.884158   45.669659    0.000000    0.000000    0.000000    0.000000
  0.017400000   -4.550491  -19.922634  -90.885904   50.914440    0.000000    0.000000    0.000000    0.000000
  0.017600000   -4.546934  -20.162222  -90.384930   43.658237    0.000000    0.000000    0.000000    0.000000
  0.017800000   -4.549425  -20.378218  -90.144973   48.242805    0.000000    0.000000    0.000000    0.000000
  0.018000000   -4.548990  -20.616016  -90.706930   48.812687    0.000000    0.000000    0.000000    0.000000
  0.018200000   -4.550951  -20.848280  -90.560602   47.838608    0.000000    0.000000    0.000000    0.000000
  0.018400000   -4.555400  -21.093245  -90.487082   50.713085    0.000000    0.000000    0.000000    0.000000
  0.018600000   -4.558081  -21.313204  -90.527623   46.591423    0.000000    0.000000    0.000000    0.000000
  0.018800000   -4.557872  -21.550465  -90.007088   46.103031    0.000000    0.000000    0.000000    0.000000
  0.019000000   -4.556530  -21.796377  -90.475200   45.854050    0.000000    0.000000    0.000000    0.000000
  0.019200000   -4.557481  -22.014603  -90.285426   44.401424    0.000000    0.000000    0.000000    0.000000
  0.019400000   -4.558242  -22.238247  -90.274925   44.448296    0.000000    0.000000    0.000000    0.000000
  0.019600000   -4.561486  -22.492441  -90.387577   40.111237    0.000000    0.000000    0.000000    0.000000
  0.019800000   -4.559906  -22.708538  -90.598493   41.906113    0.000000    0.000000    0.000000    0.000000
  0.020000000   -4.559454  -22.948767  -90.678494   39.784626    0.000000    0.000000    0.000000    0.000000
  0.020200000   -4.558569  -23.166254  -89.973006   42.027393    0.000000    0.000000    0.000000    0.000000
  0.020400000   -4.558896  -23.407669  -90.630230   34.872078    0.000000    0.000000    0.000000    0.000000
  0.020600000   -4.554654  -23.651880  -91.217679   36.096596    0.000000    0.000000    0.000000    0.000000
  0.020800000   -4.553992  -23.876282  -91.388654   33.036736    0.000000    0.000000    0.000000    0.000000
  0.021000000   -4.555409  -24.130829  -91.386053   39.618866    0.000000    0.000000    0.000000    0.000000
  0.021200000   -4.557457  -24.381786  -91.777504   34.636517    0.000000    0.000000    0.000000    0.000000
  0.021400000   -4.558111  -24.607954  -91.236075   34.075581    0.000000    0.000000    0.000000    0.000000
  0.021600000   -4.557073  -24.841135  -91.989292   34.104439    0.000000    0.000000    0.000000    0.000000
  0.021800000   -4.557362  -25.069283  -91.888344   31.257145    0.000000    0.000000    0.000000    0.000000
  0.022000000   -4.557862  -25.285997  -91.582685   24.569521    0.000000    0.000000    0.000000    0.000000
  0.022200000   -4.560721  -25.519674  -92.455615   24.849701    0.000000    0.000000    0.000000    0.000000
  0.022400000   -4.560323  -25.728970  -93.409882   24.939520    0.000000    0.000000    0.000000    0.000000
  0.022600000   -4.561152  -25.960758  -93.269842   28.260866    0.000000    0.000000    0.000000    0.000000
  0.022800000   -4.560971  -26.171532  -93.994511   27.147263    0.000000    0.000000    0.000000    0.000000
  0.023000000   -4.563976  -26.414635  -93.724192   24.909924    0.000000    0.000000    0.000000    0.000000
  0.023200000   -4.565868  -26.626209  -93.546672   30.009079    0.000000    0.000000    0.000000    0.000000
  0.023400000   -4.563482  -26.796965  -94.179532   33.178558    0.000000    0.000000    0.000000    0.000000
  0.023600000   -4.562757  -27.116285  -93.382784   22.158464    0.000000    0.000000    0.000000    0.000000
  0.023800000   -4.563644  -27.347366  -94.770488   21.641167    0.000000    0.000000    0.000000    0.000000
  0.024000000   -4.562149  -27.585426  -94.469752   37.037098    0.000000    0.000000    0.000000    0.000000
  0.024200000   -4.554949  -27.814016  -93.804257   34.825077    0.000000    0.000000    0.000000    0.000000
  0.024400000   -4.556418  -28.045414  -93.886289   30.952139    0.000000    0.000000    0.000000    0.000000
  0.024600000   -4.554490  -28.280834  -94.214461   28.790190    0.000000    0.000000    0.000000    0.000000
  0.024800000   -4.558140  -28.520247  -93.901013   28.545076    0.000000    0.000000    0.000000    0.000000
  0.025000000   -4.558991  -28.747618  -94.603964   33.322765    0.000000    0.000000    0.000000    0.000000
  0.025200000   -4.559943  -28.968592  -94.663884   29.684032    0.000000    0.000000    0.000000    0.000000
  0.025400000   -4.559943  -29.155415  -94.581301   22.207903    0.000000    0.000000    0.000000    0.000000
  0.025600000   -4.561540  -29.370834  -93.252021   26.782745    0.000000    0.000000    0.000000    0.000000
  0.025800000   -4.563328  -29.541836  -93.653512   20.012730    0.000000    0.000000    0.000000    0.000000
  0.026000000   -4.564545  -29.760818  -93.906855   22.925751    0.000000    0.000000    0.000000    0.000000
  0.026200000   -4.569467  -29.982019  -94.605503   29.919439    0.000000    0.000000    0.000000    0.000000
  0.026400000   -4.572729  -30.212170  -94.519520   17.504610    0.000000    0.000000    0.000000    0.000000
  0.026600000   -4.574005  -30.434101  -94.427396   18.798382    0.000000    0.000000    0.000000    0.000000
  0.026800000   -4.575385  -30.681261  -94.492308   23.519793    0.000000    0.000000    0.000000    0.000000
  0.027000000   -4.577341  -30.923594  -94.950048   18.093937    0.000000    0.000000    0.000000    0.000000
  0.027200000   -4.580292  -31.165298  -94.661739   23.531918    0.000000    0.000000    0.000000    0.000000
  0.027400000   -4.579309  -31.434586  -95.083498   21.527819    0.000000    0.000000    0.000000    0.000000
  0.027600000   -4.579608  -31.676960  -95.541831   29.346882    0.000000    0.000000    0.000000    0.000000
  0.027800000   -4.584539  -31.921173  -95.497404   14.299159    0.000000    0.000000    0.000000    0.000000
  0.028000000   -4.588008  -32.179184  -96.220771   22.328087    0.000000    0.000000    0.000000    0.000000
  0.028200000   -4.588717  -32.438869  -95.471920   14.162333    0.000000    0.000000    0.000000    0.000000
  0.028400000   -4.586538  -32.700867  -96.478838   12.191322    0.000000    0.000000    0.000000    0.000000
  0.028600000   -4.584011  -32.941059  -95.920266   15.370190    0.000000    0.000000    0.000000    0.000000
  0.028800000   -4.581127  -33.159924  -96.480907   15.359426    0.000000    0.000000    0.000000    0.000000
  0.029000000   -4.580516  -33.362560  -95.829726   16.108667    0.000000    0.000000    0.000000    0.000000
  0.029200000   -4.579804  -33.563686  -96.746467   18.278837    0.000000    0.000000    0.000000    0.000000
  0.029400000   -4.581818  -33.746784  -97.127147   17.499235    0.000000    0.000000    0.000000    0.000000
  0.029600000   -4.580212  -33.957596  -97.421491   21.588955    0.000000    0.000000    0.000000    0.000000
  0.029800000   -4.585359  -34.189594  -97.123676   20.702179    0.000000    0.000000    0.000000    0.000000
  0.030000000   -4.592420  -34.400864  -96.223422   22.971869    0.000000    0.000000    0.000000    0.000000
  0.030200000   -4.597575  -34.654434  -97.909451   16.827028    0.000000    0.000000    0.000000    0.000000
  0.030400000   -4.601918  -34.912689  -97.228861   13.833426    0.000000    0.000000    0.000000    0.000000
  0.030600000   -4.603737  -35.172066  -97.452405   23.805550    0.000000    0.000000    0.000000    0.000000
  0.030800000   -4.602870  -35.449409  -98.199505   27.066599    0.000000    0.000000    0.000000    0.000000
  0.031000000   -4.601101  -35.729607  -97.501303   17.972713    0.000000    0.000000    0.000000    0.000000
  0.031200000   -4.595600  -35.953133  -96.900327   14.356487    0.000000    0.000000    0.000000    0.000000
  0.031400000   -4.592761  -36.246834  -97.618534    8.499365    0.000000    0.000000    0.000000    0.000000
  0.031600000   -4.592727  -36.499760  -97.833039   10.249302    0.000000    0.000000    0.000000    0.000000
  0.031800000   -4.588855  -36.732292  -96.686762   15.542034    0.000000    0.000000    0.000000    0.000000
  0.032000000   -4.580995  -36.967648  -97.591694   16.049088    0.000000    0.000000    0.000000    0.000000
  0.032200000   -4.578504  -37.195793  -96.105560   26.559980    0.000000    0.000000    0.000000    0.000000
  0.032400000   -4.567661  -37.403484  -98.673739   15.801938    0.000000    0.000000    0.000000    0.000000
  0.032600000   -4.565494  -37.605843  -99.237251    6.631976    0.000000    0.000000    0.000000    0.000000
  0.032800000   -4.561592  -37.799160  -97.875754   21.562551    0.000000    0.000000    0.000000    0.000000
  0.033000000   -4.557502  -37.987411  -97.023746   16.465767    0.000000    0.000000    0.000000    0.000000
  0.033200000   -4.557769  -38.208176  -98.259535   10.875450    0.000000    0.000000    0.000000    0.000000
  0.033400000   -4.561247  -38.387585  -98.647076    6.160036    0.000000    0.000000    0.000000    0.000000
  0.033600000   -4.565381  -38.604382  -98.089124   12.541790    0.000000    0.000000    0.000000    0.000000
  0.033800000   -4.562958  -38.815224  -97.800397  -10.521891    0.000000    0.000000    0.000000    0.000000
  0.034000000   -4.565923  -39.031307  -99.002042   18.258068    0.000000    0.000000    0.000000    0.000000
  0.034200000   -4.567675  -39.278851 -102.001763   14.997343    0.000000    0.000000    0.000000    0.000000
  0.034400000   -4.571000  -39.502865  -98.326195   16.631218    0.000000    0.000000    0.000000    0.000000
  0.034600000   -4.578730  -39.723522  -98.094846   12.613409    0.000000    0.000000    0.000000    0.000000
  0.034800000   -4.579158  -39.977356  -97.074755    9.724611    0.000000    0.000000    0.000000    0.000000
  0.035000000   -4.587989  -40.233387  -99.875637    2.729524    0.000000    0.000000    0.000000    0.000000
  0.035200000   -4.591954  -40.463345  -96.664813    6.103665    0.000000    0.000000    0.000000    0.000000
  0.035400000   -4.597614  -40.728813  -97.215142    3.102693    0.000000    0.000000    0.000000    0.000000
  0.035600000   -4.593540  -40.961540  -99.562400   12.135395    0.000000    0.000000    0.000000    0.000000
  0.035800000   -4.596016  -41.188625  -98.626392   13.480922    0.000000    0.000000    0.000000    0.000000
  0.036000000   -4.597864  -41.447605  -98.119154   12.546464    0.000000    0.000000    0.000000    0.000000
  0.036200000   -4.594078  -41.681141  -98.513002    1.917253    0.000000    0.000000    0.000000    0.000000
  0.036400000   -4.595845  -41.944954  -96.949036    8.374401    0.000000    0.000000    0.000000    0.000000
  0.036600000   -4.591069  -42.174644  -98.588190   28.086437    0.000000    0.000000    0.000000    0.000000
  0.036800000   -4.585791  -42.400818 -100.342650   17.633146    0.000000    0.000000    0.000000    0.000000
  0.037000000   -4.581877  -42.609676  -98.040033   11.377677    0.000000    0.000000    0.000000    0.000000
  0.037200000   -4.582597  -42.802101  -99.637487   15.752856    0.000000    0.000000    0.000000    0.000000
  0.037400000   -4.586751  -42.998344  -98.336853    2.702499    0.000000    0.000000    0.000000    0.000000
  0.037600000   -4.589581  -43.213593 -102.298502    6.028769    0.000000    0.000000    0.000000    0.000000
  0.037800000   -4.599285  -43.438656 -101.092640   20.095524    0.000000    0.000000    0.000000    0.000000
  0.038000000   -4.609594  -43.720673 -100.922915    5.776335    0.000000    0.000000    0.000000    0.000000
  0.038200000   -4.616637  -43.951305 -101.044751   21.774111    0.000000    0.000000    0.000000    0.000000
  0.038400000   -4.624704  -44.237400 -100.499322    6.584414    0.000000    0.000000    0.000000    0.000000
  0.038600000   -4.625672  -44.496040  -99.086394    4.143467    0.000000    0.000000    0.000000    0.000000
  0.038800000   -4.626413  -44.778332  -99.848007    5.463286    0.000000    0.000000    0.000000    0.000000
  0.039000000   -4.623083  -45.066090 -100.478874   14.086302    0.000000    0.000000    0.000000    0.000000
  0.039200000   -4.624382  -45.311729 -100.852661   24.197264    0.000000    0.000000    0.000000    0.000000
  0.039400000   -4.620742  -45.592857 -100.619479    4.993219    0.000000    0.000000    0.000000    0.000000
  0.039600000   -4.618776  -45.841312  -97.486088    4.305377    0.000000    0.000000    0.000000    0.000000
  0.039800000   -4.610866  -46.082794  -99.403215   -0.831803    0.000000    0.000000    0.000000    0.000000
  0.040000000   -4.605606  -46.342304  -98.720320    0.873577    0.000000    0.000000    0.000000    0.000000
  0.040200000   -4.598818  -46.537998 -102.101475   -3.824386    0.000000    0.000000    0.000000    0.000000
  0.040400000   -4.593510  -46.750969  -99.890694   16.269762    0.000000    0.000000    0.000000    0.000000
  0.040600000   -4.593224  -46.967926 -101.040925    5.348789    0.000000    0.000000    0.000000    0.000000
  0.040800000   -4.591510  -47.157715 -100.218789    9.700221    0.000000    0.000000    0.000000    0.000000
  0.041000000   -4.593533  -47.353352  -99.802748    2.072930    0.000000    0.000000    0.000000    0.000000
  0.041200000   -4.597017  -47.569706 -101.717774   -4.686870    0.000000    0.000000    0.000000    0.000000
  0.041400000   -4.599005  -47.791157 -102.039064   -9.891446    0.000000    0.000000    0.000000    0.000000
  0.041600000   -4.605062  -48.039127 -102.782862    2.914240    0.000000    0.000000    0.000000    0.000000
  0.041800000   -4.604295  -48.276917  -99.588146    2.728278    0.000000    0.000000    0.000000    0.000000
  0.042000000   -4.612175  -48.522640 -101.692486   21.499269    0.000000    0.000000    0.000000    0.000000
  0.042200000   -4.608203  -48.732395 -100.447820   18.428137    0.000000    0.000000    0.000000    0.000000
  0.042400000   -4.613113  -48.941280 -102.239536    4.178479    0.000000    0.000000    0.000000    0.000000
  0.042600000   -4.614986  -49.187416  -99.546433    3.733795    0.000000    0.000000    0.000000    0.000000
  0.042800000   -4.611130  -49.407257  -98.622125    7.284420    0.000000    0.000000    0.000000    0.000000
