! Anritsu VNA Master:                     Model: MS2036C/10/77
! SN:                                  1601066
! /card0/usr/256.ns.sma.r200.21.s2p
! Existing Calibration Information:
! TYPE:                         Current Settings,       Active Cal Settings
! TIME:             	   12/19/2017 03:50:54 PM,    12/19/2017 03:30:41 PM
! INTERNAL TEMP:    	                   47.3 C,                    48.0 C
! # POINTS:         	                      501,                       501
! START FREQ:       	               10.000 MHz,                10.000 MHz
! STOP FREQ:        	              110.000 MHz,               110.000 MHz
! SOURCE POWER:     	                     High,                      High
! IFBW:             	                   100 Hz,                    100 Hz
! AVG FACTOR:       	                       1 ,                        1 
! REF PLANE 1:      	                     0 mm,                      0 mm
! REF PLANE 2:      	                     0 mm,                      0 mm
! CAL TYPE:         	                 Full S11,                  Full S11
! CAL METHOD:       	                     SOLT,                      SOLT
! CAL LINE TYPE:    	                     Coax,                      Coax
! DUT PORT 1:       	                N-Conn(F),                 N-Conn(F)
! DUT PORT 2:       	                K-Conn(F),                 K-Conn(F)
! CAL STATUS:       	        OK: Accuracy High,                        --
# GHZ S DB R 50.0
! FREQ.GHZ       S11DB        S11A       S21DB        S21A       S12DB        S12A       S22DB        S22A
  0.010000000  -50.666045 -106.550415  -84.728026   74.424278    0.000000    0.000000    0.000000    0.000000
  0.010200000  -50.718583 -108.873001  -84.825369   73.001015    0.000000    0.000000    0.000000    0.000000
  0.010400000  -51.061381 -104.862434  -84.959852   73.436584    0.000000    0.000000    0.000000    0.000000
  0.010600000  -50.456449 -105.750702  -84.768193   75.398247    0.000000    0.000000    0.000000    0.000000
  0.010800000  -50.144645 -107.829651  -85.280442   79.772781    0.000000    0.000000    0.000000    0.000000
  0.011000000  -50.464141 -108.200150  -84.932867   78.536697    0.000000    0.000000    0.000000    0.000000
  0.011200000  -49.871808 -106.723885  -84.861379   72.118744    0.000000    0.000000    0.000000    0.000000
  0.011400000  -49.885380 -108.625732  -85.380979   74.871765    0.000000    0.000000    0.000000    0.000000
  0.011600000  -50.104041 -114.415779  -85.019303   77.936920    0.000000    0.000000    0.000000    0.000000
  0.011800000  -49.935188 -109.889557  -85.041818   74.884079    0.000000    0.000000    0.000000    0.000000
  0.012000000  -50.024734 -114.744133  -85.158928   74.085152    0.000000    0.000000    0.000000    0.000000
  0.012200000  -49.478413 -114.172928  -85.564307   71.190796    0.000000    0.000000    0.000000    0.000000
  0.012400000  -49.508307 -115.458557  -85.057307   68.858643    0.000000    0.000000    0.000000    0.000000
  0.012600000  -49.608016 -116.983147  -85.088555   69.306404    0.000000    0.000000    0.000000    0.000000
  0.012800000  -49.282469 -116.054008  -85.129050   66.920197    0.000000    0.000000    0.000000    0.000000
  0.013000000  -48.956763 -117.167160  -85.032333   64.562271    0.000000    0.000000    0.000000    0.000000
  0.013200000  -49.107813 -119.471222  -85.177530   63.965034    0.000000    0.000000    0.000000    0.000000
  0.013400000  -49.114603 -119.894379  -85.795307   61.650143    0.000000    0.000000    0.000000    0.000000
  0.013600000  -49.024112 -119.974594  -85.719301   58.196079    0.000000    0.000000    0.000000    0.000000
  0.013800000  -48.980904 -118.831657  -85.898063   57.152576    0.000000    0.000000    0.000000    0.000000
  0.014000000  -48.836115 -121.078766  -85.691652   56.251732    0.000000    0.000000    0.000000    0.000000
  0.014200000  -48.505110 -120.801308  -86.457389   54.556458    0.000000    0.000000    0.000000    0.000000
  0.014400000  -48.367871 -121.660286  -86.124379   51.690685    0.000000    0.000000    0.000000    0.000000
  0.014600000  -48.598354 -120.457214  -86.748311   50.753265    0.000000    0.000000    0.000000    0.000000
  0.014800000  -48.267959 -122.376060  -86.792434   52.426109    0.000000    0.000000    0.000000    0.000000
  0.015000000  -48.352403 -122.517403  -87.019056   48.436783    0.000000    0.000000    0.000000    0.000000
  0.015200000  -48.292336 -122.904640  -87.292616   43.177006    0.000000    0.000000    0.000000    0.000000
  0.015400000  -48.209563 -123.854500  -88.198140   51.338234    0.000000    0.000000    0.000000    0.000000
  0.015600000  -47.902756 -124.572899  -88.241753   48.392403    0.000000    0.000000    0.000000    0.000000
  0.015800000  -48.080287 -125.546051  -88.597057   45.055592    0.000000    0.000000    0.000000    0.000000
  0.016000000  -48.044591 -126.885056  -88.579562   44.513599    0.000000    0.000000    0.000000    0.000000
  0.016200000  -47.841679 -126.774200  -89.660785   46.091461    0.000000    0.000000    0.000000    0.000000
  0.016400000  -47.851111 -127.474266  -89.528831   48.985641    0.000000    0.000000    0.000000    0.000000
  0.016600000  -47.819927 -127.151474  -89.229614   44.885338    0.000000    0.000000    0.000000    0.000000
  0.016800000  -47.556044 -128.934326  -89.642790   44.628551    0.000000    0.000000    0.000000    0.000000
  0.017000000  -47.611042 -129.130966  -90.141929   50.097984    0.000000    0.000000    0.000000    0.000000
  0.017200000  -47.494846 -128.238815  -90.159512   47.686897    0.000000    0.000000    0.000000    0.000000
  0.017400000  -47.504032 -129.520172  -90.261746   41.875652    0.000000    0.000000    0.000000    0.000000
  0.017600000  -47.448596 -129.997849  -90.297286   46.845276    0.000000    0.000000    0.000000    0.000000
  0.017800000  -47.530466 -129.577118  -90.563338   44.769794    0.000000    0.000000    0.000000    0.000000
  0.018000000  -47.370824 -131.304916  -90.624640   51.440685    0.000000    0.000000    0.000000    0.000000
  0.018200000  -47.367156 -131.937241  -90.510857   47.278740    0.000000    0.000000    0.000000    0.000000
  0.018400000  -47.160862 -130.659531  -89.822356   45.990181    0.000000    0.000000    0.000000    0.000000
  0.018600000  -47.175794 -131.065002  -90.727371   49.248886    0.000000    0.000000    0.000000    0.000000
  0.018800000  -46.915692 -131.359146  -90.762430   44.673119    0.000000    0.000000    0.000000    0.000000
  0.019000000  -46.946958 -133.778305  -90.576103   45.684258    0.000000    0.000000    0.000000    0.000000
  0.019200000  -47.050936 -132.081818  -91.167316   43.549923    0.000000    0.000000    0.000000    0.000000
  0.019400000  -46.881588 -131.903839  -90.843844   48.474804    0.000000    0.000000    0.000000    0.000000
  0.019600000  -46.889260 -132.715759  -90.837867   40.551430    0.000000    0.000000    0.000000    0.000000
  0.019800000  -46.834045 -132.973862  -91.672346   37.796440    0.000000    0.000000    0.000000    0.000000
  0.020000000  -46.562007 -133.971283  -90.766117   38.491684    0.000000    0.000000    0.000000    0.000000
  0.020200000  -46.802083 -134.503082  -91.040765   41.029289    0.000000    0.000000    0.000000    0.000000
  0.020400000  -46.558787 -134.635513  -91.220537   34.081081    0.000000    0.000000    0.000000    0.000000
  0.020600000  -46.942100 -135.305252  -91.451366   38.137264    0.000000    0.000000    0.000000    0.000000
  0.020800000  -46.449970 -135.772797  -91.181886   30.818678    0.000000    0.000000    0.000000    0.000000
  0.021000000  -46.484667 -137.226761  -91.326273   29.568579    0.000000    0.000000    0.000000    0.000000
  0.021200000  -46.337531 -137.198593  -92.125778   32.818520    0.000000    0.000000    0.000000    0.000000
  0.021400000  -46.341881 -137.678558  -91.945449   32.038948    0.000000    0.000000    0.000000    0.000000
  0.021600000  -46.268996 -137.685364  -91.012570   31.530052    0.000000    0.000000    0.000000    0.000000
  0.021800000  -46.215645 -139.032059  -91.695103   26.978909    0.000000    0.000000    0.000000    0.000000
  0.022000000  -46.056611 -139.126175  -92.646811   25.121449    0.000000    0.000000    0.000000    0.000000
  0.022200000  -45.894077 -139.183014  -92.930297   33.354328    0.000000    0.000000    0.000000    0.000000
  0.022400000  -45.904479 -138.988373  -93.186586   29.246433    0.000000    0.000000    0.000000    0.000000
  0.022600000  -45.833400 -140.241241  -93.159640   31.133953    0.000000    0.000000    0.000000    0.000000
  0.022800000  -45.925854 -140.836792  -92.833978   28.525434    0.000000    0.000000    0.000000    0.000000
  0.023000000  -45.879019 -139.942200  -92.595891   31.646936    0.000000    0.000000    0.000000    0.000000
  0.023200000  -45.699280 -140.631088  -93.237852   25.071692    0.000000    0.000000    0.000000    0.000000
  0.023400000  -44.789412 -141.789230  -93.349270   28.881994    0.000000    0.000000    0.000000    0.000000
  0.023600000  -45.597113 -141.674927  -94.970603   22.894110    0.000000    0.000000    0.000000    0.000000
  0.023800000  -45.502540 -143.322632  -94.699938   22.795343    0.000000    0.000000    0.000000    0.000000
  0.024000000  -45.623069 -142.337311  -93.706948   29.405029    0.000000    0.000000    0.000000    0.000000
  0.024200000  -45.465614 -142.715668  -93.336487   31.321373    0.000000    0.000000    0.000000    0.000000
  0.024400000  -45.450549 -143.569397  -94.106723   33.992584    0.000000    0.000000    0.000000    0.000000
  0.024600000  -45.408573 -143.462341  -93.559540   31.233353    0.000000    0.000000    0.000000    0.000000
  0.024800000  -45.504431 -144.839890  -94.133005   25.617445    0.000000    0.000000    0.000000    0.000000
  0.025000000  -45.212175 -144.836334  -94.335881   22.990948    0.000000    0.000000    0.000000    0.000000
  0.025200000  -45.201269 -145.347504  -94.331754   30.008593    0.000000    0.000000    0.000000    0.000000
  0.025400000  -45.282653 -145.690018  -93.831425   22.473312    0.000000    0.000000    0.000000    0.000000
  0.025600000  -45.204898 -146.170471  -93.977180   31.960510    0.000000    0.000000    0.000000    0.000000
  0.025800000  -45.188498 -146.286194  -94.391412   27.460041    0.000000    0.000000    0.000000    0.000000
  0.026000000  -45.306399 -146.669205  -94.046117   21.317833    0.000000    0.000000    0.000000    0.000000
  0.026200000  -45.037851 -146.935349  -93.993347   23.739717    0.000000    0.000000    0.000000    0.000000
  0.026400000  -45.138565 -147.286392  -94.077050   22.100857    0.000000    0.000000    0.000000    0.000000
  0.026600000  -45.172081 -147.882629  -95.802110   27.528582    0.000000    0.000000    0.000000    0.000000
  0.026800000  -45.220593 -147.515839  -94.329113   13.318089    0.000000    0.000000    0.000000    0.000000
  0.027000000  -45.115915 -148.788193  -95.568443   22.187742    0.000000    0.000000    0.000000    0.000000
  0.027200000  -45.023442 -148.884277  -94.611521   17.212893    0.000000    0.000000    0.000000    0.000000
  0.027400000  -45.114202 -148.758224  -94.893487   22.568657    0.000000    0.000000    0.000000    0.000000
  0.027600000  -45.137204 -148.999542  -95.112005   22.301001    0.000000    0.000000    0.000000    0.000000
  0.027800000  -44.946550 -148.767807  -95.695447    8.113456    0.000000    0.000000    0.000000    0.000000
  0.028000000  -45.054818 -149.567474  -95.341229   13.497460    0.000000    0.000000    0.000000    0.000000
  0.028200000  -44.996916 -150.482269  -96.153434   15.938627    0.000000    0.000000    0.000000    0.000000
  0.028400000  -44.962484 -149.815292  -96.005382   24.949564    0.000000    0.000000    0.000000    0.000000
  0.028600000  -45.057235 -151.227692  -96.048399   18.438042    0.000000    0.000000    0.000000    0.000000
  0.028800000  -45.045682 -152.210739  -97.269186   17.253605    0.000000    0.000000    0.000000    0.000000
  0.029000000  -44.998360 -151.577484  -97.369920   21.237804    0.000000    0.000000    0.000000    0.000000
  0.029200000  -44.905658 -152.049820  -97.613055   22.446613    0.000000    0.000000    0.000000    0.000000
  0.029400000  -44.934002 -152.408752  -96.084584   19.885466    0.000000    0.000000    0.000000    0.000000
  0.029600000  -44.926205 -152.429901  -98.195770   23.924805    0.000000    0.000000    0.000000    0.000000
  0.029800000  -44.962210 -152.350601  -97.104051   22.214504    0.000000    0.000000    0.000000    0.000000
  0.030000000  -44.818576 -152.807785  -96.762197   28.045706    0.000000    0.000000    0.000000    0.000000
  0.030200000  -44.950405 -153.011200  -97.108787   24.000633    0.000000    0.000000    0.000000    0.000000
  0.030400000  -44.928681 -154.272858  -96.559211   16.059027    0.000000    0.000000    0.000000    0.000000
  0.030600000  -44.763054 -153.644989  -96.163385   16.425827    0.000000    0.000000    0.000000    0.000000
  0.030800000  -44.886247 -155.028137  -95.953920   21.414106    0.000000    0.000000    0.000000    0.000000
  0.031000000  -44.809108 -154.926025  -96.654304   13.109867    0.000000    0.000000    0.000000    0.000000
  0.031200000  -44.634704 -155.997238  -96.260452   19.070608    0.000000    0.000000    0.000000    0.000000
  0.031400000  -44.565423 -156.243942  -99.925224   11.389552    0.000000    0.000000    0.000000    0.000000
  0.031600000  -44.579288 -156.030396  -96.134328    6.509619    0.000000    0.000000    0.000000    0.000000
  0.031800000  -44.435156 -155.777740  -99.096691    5.137395    0.000000    0.000000    0.000000    0.000000
  0.032000000  -44.571995 -156.315125  -98.934244   24.229986    0.000000    0.000000    0.000000    0.000000
  0.032200000  -44.520703 -156.899902  -97.442485   20.973839    0.000000    0.000000    0.000000    0.000000
  0.032400000  -44.336026 -155.879868  -95.154315   13.165271    0.000000    0.000000    0.000000    0.000000
  0.032600000  -44.260018 -157.439713  -98.540174   17.228043    0.000000    0.000000    0.000000    0.000000
  0.032800000  -44.174968 -157.822632  -97.948421   14.866764    0.000000    0.000000    0.000000    0.000000
  0.033000000  -44.304875 -158.289871  -97.681635   17.842945    0.000000    0.000000    0.000000    0.000000
  0.033200000  -44.352828 -158.055878  -97.310077    9.745969    0.000000    0.000000    0.000000    0.000000
  0.033400000  -44.116718 -159.091629  -96.482265    7.769548    0.000000    0.000000    0.000000    0.000000
  0.033600000  -44.266401 -158.958191  -98.153821   10.890972    0.000000    0.000000    0.000000    0.000000
  0.033800000  -44.164790 -159.381317  -96.825401   23.770147    0.000000    0.000000    0.000000    0.000000
  0.034000000  -44.147083 -159.826691  -97.435033   14.333567    0.000000    0.000000    0.000000    0.000000
  0.034200000  -43.908782 -159.819397  -98.910006   -1.946377    0.000000    0.000000    0.000000    0.000000
  0.034400000  -44.040559 -159.546707  -98.215683    6.882519    0.000000    0.000000    0.000000    0.000000
  0.034600000  -44.088072 -159.542770  -98.152140    5.089019    0.000000    0.000000    0.000000    0.000000
  0.034800000  -44.054497 -159.928360  -97.330318   12.363972    0.000000    0.000000    0.000000    0.000000
  0.035000000  -43.978223 -160.860962  -98.189741   12.992489    0.000000    0.000000    0.000000    0.000000
  0.035200000  -43.988630 -161.375351  -98.459386    0.116683    0.000000    0.000000    0.000000    0.000000
  0.035400000  -43.975710 -161.110001  -98.940427    2.470933    0.000000    0.000000    0.000000    0.000000
  0.035600000  -43.973878 -161.912476  -98.447907   10.985937    0.000000    0.000000    0.000000    0.000000
  0.035800000  -44.035694 -161.851517  -98.208189   12.031446    0.000000    0.000000    0.000000    0.000000
  0.036000000  -44.022329 -161.908173  -99.587596    8.543058    0.000000    0.000000    0.000000    0.000000
  0.036200000  -44.019564 -161.766434  -97.956225   11.883280    0.000000    0.000000    0.000000    0.000000
  0.036400000  -43.933546 -162.719437 -100.023273    5.308861    0.000000    0.000000    0.000000    0.000000
  0.036600000  -43.988284 -163.172699  -98.140199   15.104757    0.000000    0.000000    0.000000    0.000000
  0.036800000  -43.904705 -163.401855  -98.871051   17.251131    0.000000    0.000000    0.000000    0.000000
  0.037000000  -43.874784 -163.394180 -101.063788   19.043577    0.000000    0.000000    0.000000    0.000000
  0.037200000  -43.895853 -163.234833  -98.475051   10.947450    0.000000    0.000000    0.000000    0.000000
  0.037400000  -43.869076 -162.296539  -97.382725   16.369232    0.000000    0.000000    0.000000    0.000000
  0.037600000  -44.076425 -163.342453  -99.277234   14.507465    0.000000    0.000000    0.000000    0.000000
  0.037800000  -43.957415 -163.628159  -98.170470   -1.611905    0.000000    0.000000    0.000000    0.000000
  0.038000000  -43.933302 -164.417755  -98.722828   11.105016    0.000000    0.000000    0.000000    0.000000
  0.038200000  -44.005819 -164.443146  -98.919834   21.704119    0.000000    0.000000    0.000000    0.000000
  0.038400000  -44.044321 -165.176971 -100.378804   20.262581    0.000000    0.000000    0.000000    0.000000
  0.038600000  -43.958629 -165.218124  -98.554693    9.105290    0.000000    0.000000    0.000000    0.000000
  0.038800000  -43.857413 -165.621658 -101.062293   17.897188    0.000000    0.000000    0.000000    0.000000
  0.039000000  -43.773605 -166.081696  -98.737091   10.790649    0.000000    0.000000    0.000000    0.000000
  0.039200000  -43.808908 -165.754486  -99.416016    2.223572    0.000000    0.000000    0.000000    0.000000
  0.039400000  -43.865952 -166.607758  -99.014099   10.525440    0.000000    0.000000    0.000000    0.000000
  0.039600000  -43.784694 -167.041519 -100.853645   14.205118    0.000000    0.000000    0.000000    0.000000
  0.039800000  -43.667897 -166.798584 -101.999496   14.539306    0.000000    0.000000    0.000000    0.000000
  0.040000000  -43.780997 -167.945053  -99.795892    3.937949    0.000000    0.000000    0.000000    0.000000
  0.040200000  -43.687623 -167.472092 -103.457973    3.632902    0.000000    0.000000    0.000000    0.000000
  0.040400000  -43.568929 -167.502457 -104.850785   -4.481747    0.000000    0.000000    0.000000    0.000000
  0.040600000  -43.636455 -168.035217  -99.640608   17.265438    0.000000    0.000000    0.000000    0.000000
  0.040800000  -43.481812 -169.059464  -99.578502    9.692233    0.000000    0.000000    0.000000    0.000000
  0.041000000  -43.557789 -168.948074 -101.347528   11.355769    0.000000    0.000000    0.000000    0.000000
  0.041200000  -43.540641 -168.073410 -102.589335   -7.927962    0.000000    0.000000    0.000000    0.000000
  0.041400000  -43.415461 -169.289795 -102.972382   -4.437951    0.000000    0.000000    0.000000    0.000000
  0.041600000  -43.426949 -169.748444 -100.766305   -8.346225    0.000000    0.000000    0.000000    0.000000
  0.041800000  -43.475428 -169.087189 -101.791097    9.587950    0.000000    0.000000    0.000000    0.000000
  0.042000000  -43.406857 -170.263596 -100.901245    4.619234    0.000000    0.000000    0.000000    0.000000
  0.042200000  -43.367648 -170.363281 -102.894077   -4.535329    0.000000    0.000000    0.000000    0.000000
  0.042400000  -43.428349 -170.281937 -100.193891   12.985074    0.000000    0.000000    0.000000    0.000000
  0.042600000  -43.306183 -170.794464 -100.584401   -8.988734    0.000000    0.000000    0.000000    0.000000
  0.042800000  -43.297205 -171.691910 -102.580469    1.051216    0.000000    0.000000    0.000000    0.000000
