! Anritsu VNA Master:                     Model: MS2036C/10/77
! SN:                                  1601066
! /card0/usr/256.ns.n.r20.22.s2p
! Existing Calibration Information:
! TYPE:                         Current Settings,       Active Cal Settings
! TIME:             	   12/19/2017 04:17:31 PM,    12/19/2017 03:58:02 PM
! INTERNAL TEMP:    	                   46.3 C,                    47.0 C
! # POINTS:         	                      501,                       501
! START FREQ:       	               10.000 MHz,                10.000 MHz
! STOP FREQ:        	              110.000 MHz,               110.000 MHz
! SOURCE POWER:     	                     High,                      High
! IFBW:             	                   100 Hz,                    100 Hz
! AVG FACTOR:       	                       1 ,                        1 
! REF PLANE 1:      	                     0 mm,                      0 mm
! REF PLANE 2:      	                     0 mm,                      0 mm
! CAL TYPE:         	                 Full S11,                  Full S11
! CAL METHOD:       	                     SOLT,                      SOLT
! CAL LINE TYPE:    	                     Coax,                      Coax
! DUT PORT 1:       	                N-Conn(F),                 N-Conn(F)
! DUT PORT 2:       	                K-Conn(F),                 K-Conn(F)
! CAL STATUS:       	        OK: Accuracy High,                        --
# GHZ S DB R 50.0
! FREQ.GHZ       S11DB        S11A       S21DB        S21A       S12DB        S12A       S22DB        S22A
  0.010000000   -7.217174  166.915024  -82.521076   78.671082    0.000000    0.000000    0.000000    0.000000
  0.010200000   -7.203259  166.720184  -82.257943   74.469444    0.000000    0.000000    0.000000    0.000000
  0.010400000   -7.200967  166.463715  -82.931455   75.866852    0.000000    0.000000    0.000000    0.000000
  0.010600000   -7.208928  166.197784  -83.065698   70.654381    0.000000    0.000000    0.000000    0.000000
  0.010800000   -7.209865  165.957321  -82.930636   70.331940    0.000000    0.000000    0.000000    0.000000
  0.011000000   -7.216636  165.673767  -83.790792   70.696930    0.000000    0.000000    0.000000    0.000000
  0.011200000   -7.208806  165.390457  -83.728403   67.677292    0.000000    0.000000    0.000000    0.000000
  0.011400000   -7.212974  165.129242  -84.745201   65.550369    0.000000    0.000000    0.000000    0.000000
  0.011600000   -7.216609  164.872772  -84.252899   64.180153    0.000000    0.000000    0.000000    0.000000
  0.011800000   -7.215224  164.628296  -84.507386   62.532814    0.000000    0.000000    0.000000    0.000000
  0.012000000   -7.221265  164.329865  -84.845186   62.326870    0.000000    0.000000    0.000000    0.000000
  0.012200000   -7.220432  164.083252  -85.494528   60.752335    0.000000    0.000000    0.000000    0.000000
  0.012400000   -7.223497  163.792465  -85.712208   61.571239    0.000000    0.000000    0.000000    0.000000
  0.012600000   -7.223639  163.531326  -86.235792   60.259056    0.000000    0.000000    0.000000    0.000000
  0.012800000   -7.226038  163.272919  -86.139431   58.752739    0.000000    0.000000    0.000000    0.000000
  0.013000000   -7.228536  163.020279  -86.442975   58.255627    0.000000    0.000000    0.000000    0.000000
  0.013200000   -7.231810  162.766266  -87.219275   59.509068    0.000000    0.000000    0.000000    0.000000
  0.013400000   -7.233326  162.505127  -86.479981   56.151909    0.000000    0.000000    0.000000    0.000000
  0.013600000   -7.226789  162.250168  -87.720989   58.561714    0.000000    0.000000    0.000000    0.000000
  0.013800000   -7.227474  162.001617  -87.749362   54.926559    0.000000    0.000000    0.000000    0.000000
  0.014000000   -7.228509  161.734329  -87.697965   60.128811    0.000000    0.000000    0.000000    0.000000
  0.014200000   -7.231577  161.494156  -87.723576   58.145447    0.000000    0.000000    0.000000    0.000000
  0.014400000   -7.234344  161.234100  -87.553776   57.109447    0.000000    0.000000    0.000000    0.000000
  0.014600000   -7.234877  160.976181  -87.818307   60.395061    0.000000    0.000000    0.000000    0.000000
  0.014800000   -7.234892  160.718201  -88.157525   56.886841    0.000000    0.000000    0.000000    0.000000
  0.015000000   -7.237836  160.456436  -87.715713   55.663738    0.000000    0.000000    0.000000    0.000000
  0.015200000   -7.238486  160.207947  -87.740453   53.657108    0.000000    0.000000    0.000000    0.000000
  0.015400000   -7.239758  159.940552  -87.865980   51.988556    0.000000    0.000000    0.000000    0.000000
  0.015600000   -7.243325  159.759262  -88.018070   54.245312    0.000000    0.000000    0.000000    0.000000
  0.015800000   -7.243694  159.434341  -88.014825   54.067947    0.000000    0.000000    0.000000    0.000000
  0.016000000   -7.246941  159.142166  -87.877916   51.916126    0.000000    0.000000    0.000000    0.000000
  0.016200000   -7.250850  158.914001  -88.148108   53.555271    0.000000    0.000000    0.000000    0.000000
  0.016400000   -7.248297  158.664108  -88.231587   51.094898    0.000000    0.000000    0.000000    0.000000
  0.016600000   -7.247911  158.415222  -88.285034   51.172752    0.000000    0.000000    0.000000    0.000000
  0.016800000   -7.249031  158.153717  -88.259524   47.834198    0.000000    0.000000    0.000000    0.000000
  0.017000000   -7.252232  157.902588  -89.171786   45.941200    0.000000    0.000000    0.000000    0.000000
  0.017200000   -7.251185  157.652817  -88.788424   46.391647    0.000000    0.000000    0.000000    0.000000
  0.017400000   -7.247397  157.391144  -89.350661   45.255016    0.000000    0.000000    0.000000    0.000000
  0.017600000   -7.253086  157.120758  -88.516450   45.093098    0.000000    0.000000    0.000000    0.000000
  0.017800000   -7.250910  156.851547  -89.022351   41.816540    0.000000    0.000000    0.000000    0.000000
  0.018000000   -7.253884  156.592407  -89.669082   40.499573    0.000000    0.000000    0.000000    0.000000
  0.018200000   -7.257068  156.337601  -89.528757   35.995338    0.000000    0.000000    0.000000    0.000000
  0.018400000   -7.256980  156.092545  -90.408146   41.308475    0.000000    0.000000    0.000000    0.000000
  0.018600000   -7.255555  155.835342  -90.379370   40.660606    0.000000    0.000000    0.000000    0.000000
  0.018800000   -7.257196  155.577377  -90.056882   33.768875    0.000000    0.000000    0.000000    0.000000
  0.019000000   -7.257111  155.313843  -90.921456   35.294861    0.000000    0.000000    0.000000    0.000000
  0.019200000   -7.255873  155.077332  -90.211850   40.057331    0.000000    0.000000    0.000000    0.000000
  0.019400000   -7.259183  154.845886  -90.947425   37.646095    0.000000    0.000000    0.000000    0.000000
  0.019600000   -7.260577  154.582550  -90.552313   41.114285    0.000000    0.000000    0.000000    0.000000
  0.019800000   -7.263737  154.347397  -91.135229   34.692421    0.000000    0.000000    0.000000    0.000000
  0.020000000   -7.260147  154.079590  -91.257716   32.876087    0.000000    0.000000    0.000000    0.000000
  0.020200000   -7.264822  153.827759  -91.679358   38.554268    0.000000    0.000000    0.000000    0.000000
  0.020400000   -7.262887  153.568283  -91.091445   35.968903    0.000000    0.000000    0.000000    0.000000
  0.020600000   -7.260264  153.310471  -91.635454   35.173622    0.000000    0.000000    0.000000    0.000000
  0.020800000   -7.259020  153.038559  -92.571712   29.119228    0.000000    0.000000    0.000000    0.000000
  0.021000000   -7.260051  152.802185  -92.335907   35.576733    0.000000    0.000000    0.000000    0.000000
  0.021200000   -7.260109  152.530914  -91.748822   28.304644    0.000000    0.000000    0.000000    0.000000
  0.021400000   -7.265163  152.262558  -91.591109   40.353012    0.000000    0.000000    0.000000    0.000000
  0.021600000   -7.264358  152.005524  -93.018919   36.316589    0.000000    0.000000    0.000000    0.000000
  0.021800000   -7.269653  151.775574  -91.938733   36.757011    0.000000    0.000000    0.000000    0.000000
  0.022000000   -7.271748  151.507813  -92.287239   37.172672    0.000000    0.000000    0.000000    0.000000
  0.022200000   -7.272662  151.250015  -92.117396   35.953468    0.000000    0.000000    0.000000    0.000000
  0.022400000   -7.270248  150.982513  -92.509216   29.686590    0.000000    0.000000    0.000000    0.000000
  0.022600000   -7.270782  150.750732  -92.143607   35.347706    0.000000    0.000000    0.000000    0.000000
  0.022800000   -7.278479  150.490906  -92.419948   29.988253    0.000000    0.000000    0.000000    0.000000
  0.023000000   -7.281016  150.233429  -91.652034   31.878252    0.000000    0.000000    0.000000    0.000000
  0.023200000   -7.282712  149.965012  -93.528088   31.509258    0.000000    0.000000    0.000000    0.000000
  0.023400000   -7.281062  149.715271  -92.261911   28.736013    0.000000    0.000000    0.000000    0.000000
  0.023600000   -7.281144  149.435471  -93.385292   24.216509    0.000000    0.000000    0.000000    0.000000
  0.023800000   -7.280099  149.155579  -93.441442   29.203369    0.000000    0.000000    0.000000    0.000000
  0.024000000   -7.276787  148.887848  -92.276024   21.249424    0.000000    0.000000    0.000000    0.000000
  0.024200000   -7.277607  148.620789  -93.077121   27.411871    0.000000    0.000000    0.000000    0.000000
  0.024400000   -7.279020  148.331512  -93.024130   23.626877    0.000000    0.000000    0.000000    0.000000
  0.024600000   -7.276992  148.047104  -94.257857   21.816240    0.000000    0.000000    0.000000    0.000000
  0.024800000   -7.274095  147.759491  -93.685524   23.238667    0.000000    0.000000    0.000000    0.000000
  0.025000000   -7.275315  147.535919  -93.314439   25.381111    0.000000    0.000000    0.000000    0.000000
  0.025200000   -7.269547  147.300919  -94.535465   16.561255    0.000000    0.000000    0.000000    0.000000
  0.025400000   -7.270443  147.053986  -95.098130   21.524452    0.000000    0.000000    0.000000    0.000000
  0.025600000   -7.270370  146.819199  -94.037844   28.381760    0.000000    0.000000    0.000000    0.000000
  0.025800000   -7.275666  146.570557  -93.663611   23.878811    0.000000    0.000000    0.000000    0.000000
  0.026000000   -7.273476  146.355377  -94.316954   32.590134    0.000000    0.000000    0.000000    0.000000
  0.026200000   -7.271459  146.126602  -95.405804   24.989073    0.000000    0.000000    0.000000    0.000000
  0.026400000   -7.276050  145.869675  -96.513223   25.443451    0.000000    0.000000    0.000000    0.000000
  0.026600000   -7.277232  145.618118  -95.253705   14.539321    0.000000    0.000000    0.000000    0.000000
  0.026800000   -7.281788  145.365829  -95.232123   23.470505    0.000000    0.000000    0.000000    0.000000
  0.027000000   -7.284556  145.081940  -96.049192   25.834280    0.000000    0.000000    0.000000    0.000000
  0.027200000   -7.280118  144.795700  -95.444253   29.248680    0.000000    0.000000    0.000000    0.000000
  0.027400000   -7.276554  144.544510  -96.437141   17.888969    0.000000    0.000000    0.000000    0.000000
  0.027600000   -7.272246  144.270493  -98.709830   23.660917    0.000000    0.000000    0.000000    0.000000
  0.027800000   -7.271533  143.992523  -95.502972   21.063950    0.000000    0.000000    0.000000    0.000000
  0.028000000   -7.271503  143.712234  -95.410315   21.148932    0.000000    0.000000    0.000000    0.000000
  0.028200000   -7.269685  143.473465  -96.096049   25.537321    0.000000    0.000000    0.000000    0.000000
  0.028400000   -7.265007  143.226349  -94.752769   28.439816    0.000000    0.000000    0.000000    0.000000
  0.028600000   -7.263891  142.999756  -95.917841   20.629881    0.000000    0.000000    0.000000    0.000000
  0.028800000   -7.261871  142.801956  -94.882232   19.125429    0.000000    0.000000    0.000000    0.000000
  0.029000000   -7.262495  142.574432  -96.587694   22.915390    0.000000    0.000000    0.000000    0.000000
  0.029200000   -7.261422  142.378357  -96.821419   24.078304    0.000000    0.000000    0.000000    0.000000
  0.029400000   -7.257868  142.177612  -95.689005   24.256134    0.000000    0.000000    0.000000    0.000000
  0.029600000   -7.263619  141.973602  -97.062308   22.591263    0.000000    0.000000    0.000000    0.000000
  0.029800000   -7.265771  141.733276  -96.950620   18.385246    0.000000    0.000000    0.000000    0.000000
  0.030000000   -7.270246  141.492523  -96.716322   19.915749    0.000000    0.000000    0.000000    0.000000
  0.030200000   -7.273442  141.235901  -96.604310   16.637920    0.000000    0.000000    0.000000    0.000000
  0.030400000   -7.277162  140.954941  -96.512041   19.628241    0.000000    0.000000    0.000000    0.000000
  0.030600000   -7.276921  140.686157  -95.993466   15.815962    0.000000    0.000000    0.000000    0.000000
  0.030800000   -7.281212  140.404327  -98.349836    6.699880    0.000000    0.000000    0.000000    0.000000
  0.031000000   -7.286269  140.134506  -96.391894   10.340257    0.000000    0.000000    0.000000    0.000000
  0.031200000   -7.274750  139.899979  -98.557925   10.035359    0.000000    0.000000    0.000000    0.000000
  0.031400000   -7.279683  139.648697  -98.143446   13.693050    0.000000    0.000000    0.000000    0.000000
  0.031600000   -7.286895  139.349960  -96.918163   10.612350    0.000000    0.000000    0.000000    0.000000
  0.031800000   -7.284199  139.073273  -97.435208   10.680722    0.000000    0.000000    0.000000    0.000000
  0.032000000   -7.286728  138.778091  -96.183440    9.522525    0.000000    0.000000    0.000000    0.000000
  0.032200000   -7.278253  138.519623  -96.504790   11.709496    0.000000    0.000000    0.000000    0.000000
  0.032400000   -7.278776  138.243713  -97.088797   10.504070    0.000000    0.000000    0.000000    0.000000
  0.032600000   -7.268760  137.997513  -97.319449    9.143681    0.000000    0.000000    0.000000    0.000000
  0.032800000   -7.262750  137.748230 -101.005487   13.550416    0.000000    0.000000    0.000000    0.000000
  0.033000000   -7.259825  137.506027  -97.776702   14.299451    0.000000    0.000000    0.000000    0.000000
  0.033200000   -7.259242  137.282425  -97.731849   11.028150    0.000000    0.000000    0.000000    0.000000
  0.033400000   -7.255162  137.055130  -98.328601    2.266056    0.000000    0.000000    0.000000    0.000000
  0.033600000   -7.257092  136.834244  -97.293844   15.530763    0.000000    0.000000    0.000000    0.000000
  0.033800000   -7.265382  136.621002  -98.738581   17.726643    0.000000    0.000000    0.000000    0.000000
  0.034000000   -7.260932  136.373810  -98.347238   15.536732    0.000000    0.000000    0.000000    0.000000
  0.034200000   -7.268346  136.081924  -97.575907   21.985117    0.000000    0.000000    0.000000    0.000000
  0.034400000   -7.270476  135.795074  -97.312931   11.621579    0.000000    0.000000    0.000000    0.000000
  0.034600000   -7.270251  135.526031  -98.523582    3.875002    0.000000    0.000000    0.000000    0.000000
  0.034800000   -7.274387  135.215683  -97.621376   -0.763023    0.000000    0.000000    0.000000    0.000000
  0.035000000   -7.277315  134.985962  -98.572086   11.613330    0.000000    0.000000    0.000000    0.000000
  0.035200000   -7.272817  134.689270  -98.841225    9.932407    0.000000    0.000000    0.000000    0.000000
  0.035400000   -7.270525  134.446625  -96.640384    9.111635    0.000000    0.000000    0.000000    0.000000
  0.035600000   -7.267673  134.187302  -98.301999   29.622335    0.000000    0.000000    0.000000    0.000000
  0.035800000   -7.263047  133.899841  -98.658640   20.112270    0.000000    0.000000    0.000000    0.000000
  0.036000000   -7.256250  133.636383 -100.193858   -0.865081    0.000000    0.000000    0.000000    0.000000
  0.036200000   -7.248341  133.416351 -100.312514    3.668811    0.000000    0.000000    0.000000    0.000000
  0.036400000   -7.239639  133.198364  -98.112801   13.386259    0.000000    0.000000    0.000000    0.000000
  0.036600000   -7.235627  132.962448 -101.573983    7.916618    0.000000    0.000000    0.000000    0.000000
  0.036800000   -7.234340  132.734009 -100.389550    2.944368    0.000000    0.000000    0.000000    0.000000
  0.037000000   -7.234412  132.531143  -99.356213   11.296734    0.000000    0.000000    0.000000    0.000000
  0.037200000   -7.235144  132.339157  -98.970233   10.126923    0.000000    0.000000    0.000000    0.000000
  0.037400000   -7.238696  132.121338  -99.203168    4.131466    0.000000    0.000000    0.000000    0.000000
  0.037600000   -7.243110  131.895889 -101.068386   11.495346    0.000000    0.000000    0.000000    0.000000
  0.037800000   -7.245404  131.634537 -100.596217    4.380067    0.000000    0.000000    0.000000    0.000000
  0.038000000   -7.248867  131.409058 -102.073044   19.479803    0.000000    0.000000    0.000000    0.000000
  0.038200000   -7.255818  131.145844 -100.348632    0.445376    0.000000    0.000000    0.000000    0.000000
  0.038400000   -7.262278  130.880966 -100.123384   -2.860324    0.000000    0.000000    0.000000    0.000000
  0.038600000   -7.267931  130.608322  -98.572165   14.226720    0.000000    0.000000    0.000000    0.000000
  0.038800000   -7.269264  130.339996 -101.118930   32.502350    0.000000    0.000000    0.000000    0.000000
  0.039000000   -7.271961  130.111176 -101.769577   12.509280    0.000000    0.000000    0.000000    0.000000
  0.039200000   -7.273887  129.808929 -100.083374    7.583661    0.000000    0.000000    0.000000    0.000000
  0.039400000   -7.272088  129.566010  -99.281916    2.688997    0.000000    0.000000    0.000000    0.000000
  0.039600000   -7.268031  129.289780 -100.073580   15.425412    0.000000    0.000000    0.000000    0.000000
  0.039800000   -7.263950  128.986343  -98.964833   -1.344906    0.000000    0.000000    0.000000    0.000000
  0.040000000   -7.260959  128.739883 -102.277886    0.255439    0.000000    0.000000    0.000000    0.000000
  0.040200000   -7.252057  128.434952  -99.544582    6.425911    0.000000    0.000000    0.000000    0.000000
  0.040400000   -7.251956  128.219467 -101.773521   10.541109    0.000000    0.000000    0.000000    0.000000
  0.040600000   -7.250055  127.988335 -100.652686   10.731223    0.000000    0.000000    0.000000    0.000000
  0.040800000   -7.248402  127.791496  -99.097753    5.619382    0.000000    0.000000    0.000000    0.000000
  0.041000000   -7.247862  127.542305 -101.815957   37.084507    0.000000    0.000000    0.000000    0.000000
  0.041200000   -7.257995  127.333359  -99.141954   -3.027054    0.000000    0.000000    0.000000    0.000000
  0.041400000   -7.258564  127.082359 -100.106300    1.730308    0.000000    0.000000    0.000000    0.000000
  0.041600000   -7.269672  126.812683 -101.521161    1.714431    0.000000    0.000000    0.000000    0.000000
  0.041800000   -7.272697  126.553299  -99.266535    1.206053    0.000000    0.000000    0.000000    0.000000
  0.042000000   -7.273315  126.273720  -99.630504   -0.822573    0.000000    0.000000    0.000000    0.000000
  0.042200000   -7.277235  125.994247 -100.587682   16.433277    0.000000    0.000000    0.000000    0.000000
  0.042400000   -7.281139  125.719826  -99.334141    2.422208    0.000000    0.000000    0.000000    0.000000
  0.042600000   -7.278425  125.432899 -100.290720    3.207129    0.000000    0.000000    0.000000    0.000000
  0.042800000   -7.279327  125.166412  -99.612596   16.362968    0.000000    0.000000    0.000000    0.000000
