! Anritsu VNA Master:                     Model: MS2036C/10/77
! SN:                                  1601066
! /card0/usr/mar18_10dB.s2p
! Existing Calibration Information:
! TYPE:                         Current Settings,       Active Cal Settings
! TIME:             	   03/18/2016 01:39:25 PM,    03/18/2016 01:23:09 PM
! INTERNAL TEMP:    	                   47.8 C,                    46.8 C
! # POINTS:         	                     1087,                      1087
! START FREQ:       	               10.000 MHz,                 5.000 kHz
! STOP FREQ:        	              110.000 MHz,                 6.000 GHz
! SOURCE POWER:     	                      Low,                       Low
! IFBW:             	                    1 kHz,                     1 kHz
! AVG FACTOR:       	                       1 ,                        1 
! REF PLANE 1:      	                -6.095 mm,                 -6.095 mm
! REF PLANE 2:      	                     0 mm,                      0 mm
! CAL TYPE:         	              Full 2 Port,               Full 2 Port
! CAL METHOD:       	                     SOLT,                      SOLT
! CAL LINE TYPE:    	                     Coax,                      Coax
! DUT PORT 1:       	                K-Conn(M),                 K-Conn(M)
! DUT PORT 2:       	                N-Conn(M),                 N-Conn(M)
! CAL STATUS:       	        OK: Accuracy High,                        --
# GHZ S MA R 50.0
! FREQ.GHZ       S11M         S11A         S21M         S21A         S12M         S12A         S22M         S22A
  0.010000000  2.232809E-02    8.896031  3.063309E-01    0.325633  3.300370E-01   -1.352641  8.513245E-03  -57.771725
  0.010092081  1.550851E-02    2.982592  3.038954E-01   -1.697553  3.126347E-01   -0.734545  1.183189E-02   33.728291
  0.010184162  1.856679E-02    6.259505  3.136832E-01   -0.054338  3.158493E-01   -0.506358  1.568923E-02    0.103478
  0.010276243  2.524306E-02    1.518388  3.160636E-01   -0.181820  3.075180E-01    1.257322  2.413333E-02   20.502176
  0.010368324  1.791345E-02   -0.135374  3.176343E-01   -1.660106  3.115860E-01   -0.003760  2.177033E-02   11.147321
  0.010460405  1.378475E-02   15.348548  3.113388E-01    0.578139  3.251755E-01    0.173081  1.611227E-02   49.852993
  0.010552486  1.916138E-02  -28.087097  3.107396E-01   -1.034247  3.196084E-01    2.048976  1.700785E-02  -12.348039
  0.010644567  1.110419E-02    5.791971  3.146534E-01    0.884050  3.188190E-01   -1.781017  1.220661E-02   16.053577
  0.010736648  1.767206E-02  -21.927631  3.036403E-01    1.913584  3.166223E-01    0.649741  2.077954E-02   23.903933
  0.010828729  1.909278E-02  -20.106298  3.133336E-01    0.589466  3.204461E-01   -0.047628  2.240313E-02  -22.769756
  0.010920810  2.200374E-02  -16.736879  3.136522E-01   -0.482553  3.192267E-01   -2.106277  2.222160E-02  -11.074394
  0.011012891  2.374503E-02    6.140421  3.038032E-01    0.920404  3.186544E-01   -0.391937  1.291210E-02  -28.785852
  0.011104972  2.032181E-02  -12.780816  3.043017E-01    1.552492  3.239150E-01    0.696793  1.611603E-02   28.220406
  0.011197053  1.490672E-02  -11.893719  3.117251E-01    0.292978  3.188574E-01   -0.264749  1.187012E-02  -30.527046
  0.011289134  1.404260E-02   42.093117  3.146159E-01    0.285072  3.222663E-01   -0.592985  2.952458E-03  -52.437172
  0.011381215  1.113822E-02    6.496314  3.216672E-01    1.279794  3.172887E-01    0.551740  1.059772E-02  -89.628204
  0.011473297  2.534775E-02   20.163198  3.172080E-01    0.733844  3.058506E-01   -0.116362  1.577014E-02   11.726515
  0.011565378  1.538313E-02   -8.204103  3.184474E-01    0.362217  3.069763E-01   -0.169169  1.903504E-02  -20.457775
  0.011657459  2.636547E-02   16.497923  3.074297E-01   -1.578948  3.183617E-01   -1.865492  1.091215E-02   19.257090
  0.011749540  2.008157E-02  -10.383558  3.008357E-01   -0.383877  3.081225E-01   -1.190591  2.708857E-03    4.982624
  0.011841621  1.974953E-02    1.067904  3.115382E-01   -1.712589  3.172770E-01    0.144216  1.092217E-02  -10.022189
  0.011933702  2.433219E-02   -3.756840  3.101502E-01    1.128987  3.130896E-01   -0.608262  1.069635E-02   33.265095
  0.012025783  2.303760E-02    3.916356  3.175555E-01   -1.704535  3.140645E-01    1.057129  1.024345E-02  -80.682320
  0.012117864  1.524930E-02   25.176851  3.057481E-01   -0.258507  3.166867E-01    0.115855  1.898307E-02  -22.244415
  0.012209945  1.553748E-02   14.795675  3.121579E-01   -0.432657  3.143575E-01   -1.115174  2.321475E-02   -0.987307
  0.012302026  2.343618E-02   -4.365058  3.107451E-01    0.651485  3.043590E-01   -1.668528  1.068856E-02  -16.693289
  0.012394107  2.796311E-02    0.933561  3.125554E-01    0.093629  3.233693E-01    0.809920  1.597455E-02   12.087151
  0.012486188  2.274250E-02   22.425034  3.098016E-01    0.184693  3.107079E-01    1.047578  1.066905E-02  -16.002808
  0.012578269  1.894420E-02  -16.259491  3.172902E-01    0.579557  3.170868E-01   -0.590537  1.819650E-02   -1.983620
  0.012670350  1.907656E-02    5.970031  3.181997E-01    1.667385  3.161002E-01   -0.947375  2.094135E-02  -11.882764
  0.012762431  2.179843E-02   25.722818  3.159352E-01    1.099659  3.187358E-01   -0.400977  8.650866E-03   -0.310253
  0.012854512  1.555246E-02   -5.024569  3.171822E-01    0.541030  3.119429E-01    0.455735  5.965798E-03   56.551632
  0.012946593  2.427971E-02   -7.458234  3.137268E-01    0.283448  3.118103E-01    0.861962  1.733495E-02   20.852610
  0.013038674  1.946218E-02  -16.848017  3.111534E-01    0.227113  3.162169E-01    1.691954  1.234139E-02   10.839391
  0.013130755  3.307970E-02   -6.855407  3.157129E-01    0.453559  3.152871E-01   -0.290357  1.457803E-02   25.784409
  0.013222836  2.418683E-02   20.787781  3.127989E-01   -0.541222  3.081116E-01    0.116263  1.778287E-02   23.383015
  0.013314917  2.903073E-02    5.833313  3.182053E-01    0.261739  3.191139E-01    0.553909  8.092374E-03  -11.818674
  0.013406998  2.543627E-02   -8.143160  3.018245E-01   -0.714523  3.148230E-01    0.540782  1.395436E-02    6.340478
  0.013499079  2.105853E-02   17.539568  3.112586E-01    2.077368  3.147409E-01   -0.498362  1.657841E-02   -5.024758
  0.013591160  1.851725E-02  -20.996029  3.173093E-01    0.678984  3.020983E-01    0.711184  1.753942E-02   -4.336746
  0.013683241  1.408383E-02   39.830318  3.161261E-01   -0.039053  3.133040E-01   -0.016711  1.278348E-02   28.072908
  0.013775322  1.662063E-02  -12.351942  3.054964E-01    0.086493  3.071559E-01    0.251118  1.247158E-02    1.603405
  0.013867403  2.093307E-02   -7.704577  3.155386E-01    0.836872  3.076704E-01   -0.535727  1.553246E-02  -16.553497
  0.013959484  1.789488E-02    8.411234  3.085616E-01    0.182508  3.117282E-01    1.452609  1.640289E-02  -28.050491
  0.014051565  2.077456E-02   22.494204  3.116633E-01    0.603125  3.217430E-01    0.019640  1.945778E-02   -7.308386
  0.014143646  2.269504E-02   19.725531  3.099083E-01   -0.082353  3.184430E-01    0.799523  9.276045E-03   43.463154
  0.014235727  2.706723E-02    0.081486  3.073711E-01    1.170580  3.167157E-01   -0.312808  2.489734E-02   12.143818
  0.014327808  2.908554E-02   12.297210  3.158258E-01   -0.240919  3.114172E-01    0.060658  1.339848E-02  -15.125713
  0.014419890  1.713090E-02    2.775628  3.137024E-01   -0.302551  3.079775E-01    0.102921  1.944374E-02    0.961112
  0.014511971  1.817910E-02    8.360724  3.152442E-01    0.856725  3.127441E-01   -0.150067  9.095804E-03   -0.512762
  0.014604052  2.220626E-02   25.407211  3.218644E-01   -0.387867  3.198505E-01    1.114150  2.027037E-02    3.058424
  0.014696133  2.001708E-02   18.363016  3.137303E-01    0.076665  3.163051E-01    0.044603  2.592054E-02  -27.051416
  0.014788214  1.959939E-02   19.586485  3.173545E-01    0.103689  3.079285E-01   -2.138981  7.180282E-03  -20.360115
  0.014880295  2.381441E-02    1.319105  3.107541E-01    0.943009  3.137395E-01    1.170651  1.337551E-02  -18.074244
  0.014972376  2.181573E-02    3.114628  3.187775E-01    1.917494  3.101277E-01   -0.347046  2.111882E-02   -4.413346
  0.015064457  2.473002E-02   10.111597  3.152628E-01    0.280238  3.116832E-01   -0.507595  1.651501E-02  -29.602903
  0.015156538  1.815314E-02    7.090730  3.183154E-01   -0.225015  3.133391E-01    0.207573  2.020139E-02  -21.028648
  0.015248619  2.860640E-02   18.013599  3.082802E-01   -1.835369  3.188255E-01    1.748938  4.914194E-03  -21.335331
  0.015340700  2.092449E-02   -4.786986  3.086730E-01    1.480372  3.035496E-01   -1.622015  8.926630E-03  -40.622231
  0.015432781  2.011794E-02  -11.603361  3.090556E-01    0.517905  3.100837E-01    0.892903  1.694502E-02  -25.488424
  0.015524862  2.017607E-02   -2.132378  3.112627E-01   -0.750885  3.128314E-01   -0.862260  2.366100E-02  -16.553934
  0.015616943  1.437264E-02    1.674754  3.086973E-01    0.301188  3.149169E-01   -0.246057  1.363186E-02    0.947749
  0.015709024  2.591825E-02  -17.029074  3.138412E-01    0.711032  3.167179E-01   -0.199694  1.843381E-02   13.696771
  0.015801105  1.975410E-02  -14.399864  3.077570E-01    0.208396  3.116552E-01    0.602010  2.214360E-02   29.270660
  0.015893186  2.178251E-02   31.086500  3.107751E-01   -0.152186  3.059399E-01    0.901548  1.883501E-02   24.891935
  0.015985267  1.667246E-02    2.538621  3.128350E-01    0.598208  3.086681E-01    0.786356  2.117000E-02   24.578079
  0.016077348  1.557691E-02   -0.294873  3.137835E-01    0.270521  3.102679E-01    1.497139  2.215201E-02   11.039492
  0.016169429  2.260048E-02   -7.875807  3.112812E-01    1.191058  3.108963E-01    0.082026  9.222716E-03  -24.498716
  0.016261510  2.168621E-02   -1.758591  3.109384E-01   -1.634228  3.216183E-01    1.886558  2.367858E-02  -12.635724
  0.016353591  1.972793E-02    4.166341  3.054203E-01   -0.965038  3.129650E-01    0.249670  1.327900E-02   12.879694
  0.016445672  2.159016E-02   -1.434261  3.056020E-01    0.547345  3.116178E-01   -0.677016  2.014074E-02   19.266804
  0.016537753  2.129075E-02   -2.998755  3.101231E-01    0.149331  3.110515E-01   -1.052029  1.796569E-02  -25.605457
  0.016629834  2.438889E-02  -11.230249  3.122535E-01   -0.468721  3.111478E-01    0.982904  2.018444E-02    0.708249
  0.016721915  3.215511E-02    0.207234  3.070784E-01    0.306931  3.090988E-01   -0.129561  2.438826E-02    0.351138
  0.016813996  2.016135E-02    6.224206  3.064222E-01    1.046997  3.044620E-01    0.567730  1.193011E-02  -11.783322
  0.016906077  1.750311E-02  -25.856195  3.143791E-01    1.828685  3.097833E-01    0.467777  2.036276E-02   -7.010983
  0.016998158  1.431833E-02   -0.537198  3.086551E-01    0.054740  3.159488E-01    1.255437  2.094441E-02   -6.528239
  0.017090239  1.851676E-02  -20.167280  3.135279E-01   -0.196883  3.086230E-01    1.604211  2.281051E-02  -36.781082
  0.017182320  2.210491E-02   11.020030  3.157588E-01    0.554174  3.138154E-01    0.549006  1.226064E-02   -2.976689
  0.017274401  2.828523E-02   -3.394553  3.127338E-01   -0.676780  3.103810E-01   -0.437223  1.442323E-02  -21.561962
  0.017366483  1.371694E-02  -29.695532  3.119160E-01    0.356168  3.111078E-01   -1.025143  1.319283E-02  -20.228647
  0.017458564  1.728677E-02    0.539425  3.068221E-01    0.442069  3.147872E-01   -0.360174  1.122837E-02   16.395187
  0.017550645  2.470342E-02   17.281740  3.143236E-01   -0.672579  3.135014E-01   -0.089592  1.429190E-02   23.187668
  0.017642726  2.097832E-02    5.976325  3.157876E-01   -0.758303  3.122189E-01   -0.136241  1.050005E-02   17.799841
  0.017734807  2.641411E-02    1.105330  3.056656E-01    1.371660  3.077471E-01   -0.360760  9.586545E-03   25.831785
  0.017826888  2.251832E-02  -10.532742  3.097714E-01   -0.445973  3.147660E-01    0.249685  1.652674E-02  -12.630528
  0.017918969  2.283328E-02    7.142465  3.081438E-01   -0.130380  3.087474E-01   -0.791107  6.354439E-03    6.964715
  0.018011050  2.077493E-02   -4.638053  3.157469E-01   -0.404974  3.153503E-01    0.526928  2.206354E-02    8.599502
  0.018103131  2.521375E-02    6.283052  3.049870E-01    0.142414  3.141395E-01    0.097382  1.797544E-02  -19.066589
  0.018195212  2.834187E-02   12.439660  3.120247E-01   -1.873004  3.154096E-01   -0.114915  1.735363E-02    8.777349
  0.018287293  2.603140E-02    4.196837  3.072720E-01    0.669829  3.149305E-01    0.305188  1.263428E-02  -39.994789
  0.018379374  2.504609E-02    5.364167  3.128206E-01   -0.310040  3.141412E-01   -0.066607  1.765593E-02    8.561028
  0.018471455  2.207595E-02   -7.399595  3.092175E-01    0.179819  3.193218E-01   -0.569252  1.103062E-02   18.399815
  0.018563536  3.049888E-02    1.225832  3.086712E-01   -0.161140  3.128942E-01   -0.061818  1.930437E-02  -19.496468
  0.018655617  2.939897E-02   -9.965571  3.095488E-01    0.664260  3.170907E-01    0.895133  1.127646E-02  -32.872242
  0.018747698  2.840469E-02   14.413830  3.118022E-01    0.584542  3.032393E-01   -0.163855  1.708548E-02  -20.815523
  0.018839779  2.189162E-02   -8.055784  3.137296E-01    0.512320  3.130713E-01   -0.466023  1.512535E-02   17.118135
  0.018931860  2.247401E-02  -23.838594  3.154745E-01    0.883509  3.133567E-01    0.775918  1.393273E-02    2.899202
  0.019023941  2.220560E-02    7.808503  3.156266E-01    0.530900  3.167613E-01    0.902806  1.280266E-02    4.882646
  0.019116022  1.949367E-02   -8.790260  3.052001E-01    0.417288  3.095401E-01    0.041898  1.254604E-02  -15.120294
  0.019208103  2.291638E-02   -9.679972  3.113545E-01    0.180891  3.156328E-01   -1.077778  2.468103E-02   -8.188580
  0.019300184  3.247195E-02  -10.058047  3.078220E-01    0.015738  3.119419E-01    1.568358  1.545311E-02  -38.768612
  0.019392265  2.350420E-02   12.916168  3.092703E-01    1.945616  3.062931E-01    0.879996  1.973242E-02   -5.672253
  0.019484346  2.641538E-02  -12.308397  3.099252E-01    1.464630  3.192454E-01   -0.483187  1.501208E-02  -14.129607
  0.019576427  1.775916E-02    1.113697  3.180501E-01   -0.049072  3.136732E-01   -0.064799  1.825148E-02    2.720977
  0.019668508  1.915630E-02  -20.336029  3.144290E-01   -0.204756  3.114280E-01   -0.481280  1.752496E-02    0.308707
  0.019760589  2.739745E-02    2.692637  3.066521E-01    0.949419  3.160918E-01    0.624447  1.956652E-02  -11.371754
  0.019852670  1.628032E-02    6.163774  3.117622E-01    0.797855  3.055397E-01   -0.968834  1.635394E-02    0.645745
  0.019944751  1.401884E-02  -15.574520  3.090554E-01    0.626202  3.139037E-01    0.747740  1.810799E-02   -4.952056
  0.020036832  1.558856E-02   -2.788785  3.166783E-01    2.093434  3.110645E-01    1.957151  1.047379E-02  -24.345531
  0.020128913  1.947623E-02   37.690166  3.075221E-01   -0.732330  3.141954E-01    0.872354  1.185322E-02   45.094337
  0.020220994  2.337119E-02    5.079706  3.123712E-01   -0.822720  3.136798E-01    0.592738  2.261886E-02   10.295204
  0.020313076  1.984726E-02    8.014565  3.131792E-01    2.007451  3.043475E-01    0.696846  2.196009E-02   10.093748
  0.020405157  1.958514E-02   -8.649499  3.175370E-01    1.689468  3.125390E-01    0.501270  1.868120E-02    5.563587
  0.020497238  2.087163E-02   19.144625  3.137016E-01    0.114492  3.145016E-01   -0.273475  2.238028E-02   -3.044317
  0.020589319  1.409724E-02   14.241436  3.115147E-01    0.736127  3.176089E-01   -0.717388  1.079651E-02   -1.847422
  0.020681400  2.309585E-02   18.639725  3.160514E-01   -0.666152  3.100622E-01    1.184134  1.256886E-02   11.171496
  0.020773481  2.294967E-02   19.764622  3.089235E-01    1.075940  3.140566E-01    1.937931  1.523842E-02   23.035933
  0.020865562  2.213573E-02    4.280042  3.152510E-01    0.145387  3.044945E-01    1.632038  1.642510E-02   23.547205
  0.020957643  1.789284E-02   11.260383  3.087122E-01   -0.063223  3.196392E-01    0.257560  1.640568E-02   26.950491
  0.021049724  1.718340E-02   13.594266  3.055694E-01   -0.087894  3.053715E-01    0.679096  1.414314E-02   20.890779
  0.021141805  1.843416E-02   -5.240620  3.040420E-01   -0.012122  3.161180E-01   -0.027082  1.488785E-02    2.559321
  0.021233886  1.940963E-02   -4.232451  3.040552E-01   -0.070891  3.139611E-01   -0.042778  1.946509E-02   37.213760
  0.021325967  2.220415E-02    5.118725  3.127638E-01    0.404978  3.080130E-01    0.565509  1.651777E-02   16.990759
  0.021418048  1.672522E-02    5.237050  3.117431E-01    0.439290  3.069046E-01   -0.373984  1.996626E-02   -8.117765
  0.021510129  2.789985E-02  -15.114513  3.053574E-01   -0.661399  3.118109E-01    0.458129  1.903855E-02    2.738985
  0.021602210  1.580583E-02  -15.510555  3.088194E-01    0.270534  3.177910E-01    1.227629  1.442563E-02   32.084778
  0.021694291  1.816423E-02  -30.189859  3.062848E-01    0.812330  3.160287E-01    2.259339  1.303325E-02   16.112303
  0.021786372  2.045137E-02   -7.866771  3.062893E-01    0.084515  3.170123E-01    1.305965  1.176869E-02    4.910090
  0.021878453  1.632126E-02   -1.413137  3.126501E-01   -0.617285  3.219769E-01    0.316457  1.106643E-02   29.984480
  0.021970534  1.952599E-02  -17.915503  3.104182E-01   -0.668819  3.082762E-01    1.240000  2.128547E-02    8.264964
  0.022062615  2.096459E-02   19.082973  3.123771E-01    0.050982  3.104831E-01    1.633238  1.367956E-02   33.286106
  0.022154696  1.960503E-02   18.657925  3.043953E-01   -0.767550  3.169821E-01   -1.609893  1.254756E-02   29.175112
  0.022246777  2.163761E-02    2.127197  3.123856E-01   -0.641833  3.059983E-01   -1.613394  2.396505E-02   18.118143
  0.022338858  1.319653E-02  -24.015287  3.111353E-01    0.730954  3.189838E-01   -0.471401  1.919843E-02   20.477280
  0.022430939  2.082382E-02    9.980363  3.097366E-01    2.133061  3.150384E-01    0.699457  1.880291E-02   19.294476
  0.022523020  1.802222E-02   -4.144169  3.118041E-01    0.741280  3.112102E-01    0.547040  1.243965E-02    3.137918
  0.022615101  1.950059E-02   -2.764340  3.153632E-01    0.155105  3.102003E-01    0.550369  1.806478E-02   16.432482
  0.022707182  1.773597E-02   -5.537526  3.129616E-01    1.424002  3.107995E-01    0.447698  2.143532E-02    9.406303
  0.022799263  2.015754E-02  -11.721354  3.077545E-01   -0.106682  3.168492E-01    0.066364  1.803335E-02   -8.882003
  0.022891344  1.927861E-02   -9.457006  3.089323E-01   -0.853646  3.162823E-01    0.332858  1.202571E-02   10.464284
  0.022983425  2.022774E-02  -10.599310  3.109188E-01    1.196914  3.079536E-01    0.645985  6.144396E-03    4.882551
  0.023075506  1.860169E-02   34.802494  3.137686E-01    0.369986  3.145634E-01    1.373381  1.576536E-02   -6.194886
  0.023167587  1.484287E-02   -4.655719  3.107780E-01    0.680883  3.126973E-01    0.684129  1.765338E-02    1.374597
  0.023259669  1.663728E-02   10.018312  3.103484E-01    1.083037  3.052268E-01    0.948918  1.125231E-02    4.065335
  0.023351750  2.291777E-02   -5.305252  3.062992E-01    0.748653  3.115095E-01    0.230326  2.261565E-02  -13.453055
  0.023443831  1.867716E-02   19.873957  3.174351E-01    0.251638  3.134362E-01    1.441347  1.941738E-02   -5.083517
  0.023535912  1.095874E-02   -6.259972  3.043663E-01   -0.266371  3.095144E-01    1.195501  1.192152E-02   -2.646655
  0.023627993  2.303725E-02   -6.899993  3.055488E-01   -0.481658  3.085298E-01    1.485953  1.954659E-02    2.136230
  0.023720074  1.646107E-02  -15.022426  3.160893E-01    0.632954  3.162802E-01    1.638003  2.383136E-02   -0.917825
  0.023812155  2.198365E-02    5.471121  3.129423E-01    0.872379  3.158327E-01    0.236048  9.988699E-03   20.396996
  0.023904236  1.608421E-02    0.049250  3.124835E-01    0.639369  3.137520E-01    0.146480  1.800781E-02  -14.511649
  0.023996317  2.335816E-02   -4.873899  3.143029E-01    0.677053  3.242612E-01   -0.208631  1.556717E-02  -11.410157
  0.024088398  1.966888E-02    2.280760  3.144575E-01   -0.551079  3.201014E-01    1.660301  1.305957E-02  -49.733387
