! Anritsu VNA Master:                     Model: MS2036C/10/77
! SN:                                  1601066
! /bd0/18may07/256.ns.m3.s2p
! Existing Calibration Information:
! TYPE:                         Current Settings,       Active Cal Settings
! TIME:             	   05/07/2018 03:04:05 PM,    05/07/2018 02:58:54 PM
! INTERNAL TEMP:    	                   59.5 C,                    58.8 C
! # POINTS:         	                      500,                       500
! START FREQ:       	               20.000 MHz,                20.000 MHz
! STOP FREQ:        	              120.000 MHz,               120.000 MHz
! SOURCE POWER:     	                     High,                      High
! IFBW:             	                    50 Hz,                     50 Hz
! AVG FACTOR:       	                       1 ,                        1 
! REF PLANE 1:      	                     0 mm,                      0 mm
! REF PLANE 2:      	                     0 mm,                      0 mm
! CAL TYPE:         	                 Full S11,                  Full S11
! CAL METHOD:       	                     SOLT,                      SOLT
! CAL LINE TYPE:    	                     Coax,                      Coax
! DUT PORT 1:       	                K-Conn(F),                 K-Conn(F)
! DUT PORT 2:       	                K-Conn(F),                 K-Conn(F)
! CAL STATUS:       	        OK: Accuracy High,                        --
# GHZ S DB R 50.0
! FREQ.GHZ       S11DB        S11A       S21DB        S21A       S12DB        S12A       S22DB        S22A
  0.020000000   -0.632311 -125.901779  -91.538753   31.378153    0.000000    0.000000    0.000000    0.000000
  0.020200401   -0.630770 -127.370491  -91.354613   27.025602    0.000000    0.000000    0.000000    0.000000
  0.020400802   -0.631457 -128.834824  -91.986943   27.184242    0.000000    0.000000    0.000000    0.000000
  0.020601202   -0.633896 -130.307083  -92.168955   28.430428    0.000000    0.000000    0.000000    0.000000
  0.020801603   -0.638966 -131.817535  -92.510623   25.555630    0.000000    0.000000    0.000000    0.000000
  0.021002004   -0.643425 -133.341721  -92.496274   26.136909    0.000000    0.000000    0.000000    0.000000
  0.021202405   -0.651987 -134.876312  -93.309844   31.797310    0.000000    0.000000    0.000000    0.000000
  0.021402806   -0.656470 -136.418747  -92.818112   32.308880    0.000000    0.000000    0.000000    0.000000
  0.021603206   -0.660377 -137.963989  -92.908734   29.236904    0.000000    0.000000    0.000000    0.000000
  0.021803607   -0.665212 -139.508835  -92.734534   29.154587    0.000000    0.000000    0.000000    0.000000
  0.022004008   -0.670684 -141.065201  -93.429059   33.757412    0.000000    0.000000    0.000000    0.000000
  0.022204409   -0.678876 -142.646469  -93.309761   30.671921    0.000000    0.000000    0.000000    0.000000
  0.022404810   -0.685222 -144.216064  -93.014892   33.940567    0.000000    0.000000    0.000000    0.000000
  0.022605210   -0.689037 -145.820465  -93.311876   32.777229    0.000000    0.000000    0.000000    0.000000
  0.022805611   -0.692066 -147.429077  -93.174877   30.009668    0.000000    0.000000    0.000000    0.000000
  0.023006012   -0.694743 -149.021729  -93.458209   30.965469    0.000000    0.000000    0.000000    0.000000
  0.023206413   -0.694832 -150.627670  -92.510473   35.223114    0.000000    0.000000    0.000000    0.000000
  0.023406814   -0.700439 -152.232803  -93.095581   32.248459    0.000000    0.000000    0.000000    0.000000
  0.023607214   -0.706499 -153.836639  -93.061313   32.624374    0.000000    0.000000    0.000000    0.000000
  0.023807615   -0.711837 -155.441284  -92.624078   27.732126    0.000000    0.000000    0.000000    0.000000
  0.024008016   -0.721244 -157.084778  -93.591447   28.067989    0.000000    0.000000    0.000000    0.000000
  0.024208417   -0.731217 -158.718185  -93.136203   21.796511    0.000000    0.000000    0.000000    0.000000
  0.024408818   -0.740866 -160.377914  -93.092414   22.030264    0.000000    0.000000    0.000000    0.000000
  0.024609218   -0.749531 -162.030289  -92.782587   22.262230    0.000000    0.000000    0.000000    0.000000
  0.024809619   -0.760791 -163.695053  -93.348322   19.988756    0.000000    0.000000    0.000000    0.000000
  0.025010020   -0.773293 -165.352112  -93.923086   17.842295    0.000000    0.000000    0.000000    0.000000
  0.025210421   -0.783659 -167.044540  -93.765045   16.596416    0.000000    0.000000    0.000000    0.000000
  0.025410822   -0.799227 -168.729263  -94.259649   15.695918    0.000000    0.000000    0.000000    0.000000
  0.025611222   -0.813349 -170.430588  -94.912281   12.263350    0.000000    0.000000    0.000000    0.000000
  0.025811623   -0.827176 -172.155487  -95.046538   13.608599    0.000000    0.000000    0.000000    0.000000
  0.026012024   -0.838711 -173.899765  -95.075959   10.056928    0.000000    0.000000    0.000000    0.000000
  0.026212425   -0.849784 -175.637283  -96.577767   16.329493    0.000000    0.000000    0.000000    0.000000
  0.026412826   -0.863374 -177.378036  -95.988883   13.273282    0.000000    0.000000    0.000000    0.000000
  0.026613226   -0.878771 -179.137894  -95.684445   16.365599    0.000000    0.000000    0.000000    0.000000
  0.026813627   -0.894920  179.099045  -96.302945   14.353707    0.000000    0.000000    0.000000    0.000000
  0.027014028   -0.911365  177.317947  -96.610292   18.503960    0.000000    0.000000    0.000000    0.000000
  0.027214429   -0.929850  175.521667  -95.987829   17.397532    0.000000    0.000000    0.000000    0.000000
  0.027414830   -0.945823  173.713760  -96.449341   18.225122    0.000000    0.000000    0.000000    0.000000
  0.027615230   -0.961507  171.911591  -97.157682   17.301886    0.000000    0.000000    0.000000    0.000000
  0.027815631   -0.981789  170.067078  -95.748468   20.920452    0.000000    0.000000    0.000000    0.000000
  0.028016032   -1.001975  168.237106  -96.673411   24.605654    0.000000    0.000000    0.000000    0.000000
  0.028216433   -1.022544  166.390488  -95.950326   24.159990    0.000000    0.000000    0.000000    0.000000
  0.028416834   -1.043819  164.545578  -95.637166   18.936035    0.000000    0.000000    0.000000    0.000000
  0.028617234   -1.063311  162.687241  -95.803784   18.388386    0.000000    0.000000    0.000000    0.000000
  0.028817635   -1.082234  160.832916  -96.005610   19.255936    0.000000    0.000000    0.000000    0.000000
  0.029018036   -1.100724  159.001556  -97.073222   17.984867    0.000000    0.000000    0.000000    0.000000
  0.029218437   -1.120550  157.162323  -96.366310   15.706343    0.000000    0.000000    0.000000    0.000000
  0.029418838   -1.142936  155.338333  -96.674881   14.068179    0.000000    0.000000    0.000000    0.000000
  0.029619238   -1.167526  153.478592  -96.861719   14.487352    0.000000    0.000000    0.000000    0.000000
  0.029819639   -1.193012  151.581985  -96.695722   14.746778    0.000000    0.000000    0.000000    0.000000
  0.030020040   -1.225286  149.677368  -97.047225   19.572784    0.000000    0.000000    0.000000    0.000000
  0.030220441   -1.254869  147.758240  -97.004068   12.555957    0.000000    0.000000    0.000000    0.000000
  0.030420842   -1.285503  145.818115  -97.086413   14.861629    0.000000    0.000000    0.000000    0.000000
  0.030621242   -1.316552  143.910782  -97.744846   14.658109    0.000000    0.000000    0.000000    0.000000
  0.030821643   -1.348290  141.996765  -97.266012    8.993869    0.000000    0.000000    0.000000    0.000000
  0.031022044   -1.385079  140.054337  -96.600539    4.035263    0.000000    0.000000    0.000000    0.000000
  0.031222445   -1.414719  138.125931  -97.415543    8.390011    0.000000    0.000000    0.000000    0.000000
  0.031422846   -1.452798  136.165298  -97.184049    9.451071    0.000000    0.000000    0.000000    0.000000
  0.031623246   -1.491155  134.141678  -96.697297    7.562519    0.000000    0.000000    0.000000    0.000000
  0.031823647   -1.529641  132.149109  -98.193064    4.527266    0.000000    0.000000    0.000000    0.000000
  0.032024048   -1.565930  130.130386  -98.129027    8.944235    0.000000    0.000000    0.000000    0.000000
  0.032224449   -1.604600  128.117935  -97.542903    9.165206    0.000000    0.000000    0.000000    0.000000
  0.032424850   -1.640434  126.102043  -98.295244    7.511443    0.000000    0.000000    0.000000    0.000000
  0.032625251   -1.675033  124.080589  -99.016948   14.313293    0.000000    0.000000    0.000000    0.000000
  0.032825651   -1.712754  122.074348  -98.664523   13.240765    0.000000    0.000000    0.000000    0.000000
  0.033026052   -1.752336  120.069099  -98.012610   12.065261    0.000000    0.000000    0.000000    0.000000
  0.033226453   -1.794748  118.073860  -98.212561   10.707749    0.000000    0.000000    0.000000    0.000000
  0.033426854   -1.839688  116.085747  -98.025746   10.153918    0.000000    0.000000    0.000000    0.000000
  0.033627255   -1.890068  114.081383  -98.916509   11.664534    0.000000    0.000000    0.000000    0.000000
  0.033827655   -1.940438  112.042030  -97.000499    4.911575    0.000000    0.000000    0.000000    0.000000
  0.034028056   -1.993494  110.012360  -98.129988    9.532545    0.000000    0.000000    0.000000    0.000000
  0.034228457   -2.044078  107.890152  -97.355641    1.879697    0.000000    0.000000    0.000000    0.000000
  0.034428858   -2.095006  105.780289  -98.856608   11.080607    0.000000    0.000000    0.000000    0.000000
  0.034629259   -2.142240  103.653778  -98.946708   19.967512    0.000000    0.000000    0.000000    0.000000
  0.034829659   -2.189676  101.526344  -98.632002   11.296158    0.000000    0.000000    0.000000    0.000000
  0.035030060   -2.234317   99.410934  -98.124206   21.297009    0.000000    0.000000    0.000000    0.000000
  0.035230461   -2.280710   97.312790  -98.402148    4.446083    0.000000    0.000000    0.000000    0.000000
  0.035430862   -2.323421   95.196266  -98.387032   -2.089703    0.000000    0.000000    0.000000    0.000000
  0.035631263   -2.365377   93.122009  -98.794223   11.432967    0.000000    0.000000    0.000000    0.000000
  0.035831663   -2.410929   91.039673  -99.403993    7.791143    0.000000    0.000000    0.000000    0.000000
  0.036032064   -2.452850   88.973640  -97.778751    3.386464    0.000000    0.000000    0.000000    0.000000
  0.036232465   -2.497324   86.940361  -99.498072    1.216813    0.000000    0.000000    0.000000    0.000000
  0.036432866   -2.545244   84.895851  -98.810659   -2.387587    0.000000    0.000000    0.000000    0.000000
  0.036633267   -2.597303   82.832626  -99.683833    2.414299    0.000000    0.000000    0.000000    0.000000
  0.036833667   -2.651106   80.787727 -101.318131   -2.829334    0.000000    0.000000    0.000000    0.000000
  0.037034068   -2.710623   78.737968 -100.690844    4.327768    0.000000    0.000000    0.000000    0.000000
  0.037234469   -2.772855   76.655350  -99.207907   -4.155917    0.000000    0.000000    0.000000    0.000000
  0.037434870   -2.838027   74.560448  -99.907184   13.653879    0.000000    0.000000    0.000000    0.000000
  0.037635271   -2.909579   72.471710 -101.353231    5.410389    0.000000    0.000000    0.000000    0.000000
  0.037835671   -2.982299   70.448425  -99.877208    6.367772    0.000000    0.000000    0.000000    0.000000
  0.038036072   -3.041943   68.416687 -101.019395    9.028287    0.000000    0.000000    0.000000    0.000000
  0.038236473   -3.091973   66.332245  -99.955471   17.924541    0.000000    0.000000    0.000000    0.000000
  0.038436874   -3.138687   64.180206 -101.492087   18.662722    0.000000    0.000000    0.000000    0.000000
  0.038637275   -3.188621   62.020206 -100.356826    0.206666    0.000000    0.000000    0.000000    0.000000
  0.038837675   -3.237941   59.877155  -99.782642    6.196286    0.000000    0.000000    0.000000    0.000000
  0.039038076   -3.280485   57.793877  -99.053976    5.377542    0.000000    0.000000    0.000000    0.000000
  0.039238477   -3.324699   55.708508  -99.637143    5.430839    0.000000    0.000000    0.000000    0.000000
  0.039438878   -3.369821   53.649696  -99.082613    7.574339    0.000000    0.000000    0.000000    0.000000
  0.039639279   -3.420446   51.617779  -99.206361   18.381817    0.000000    0.000000    0.000000    0.000000
  0.039839679   -3.475053   49.574619  -99.587569    7.918303    0.000000    0.000000    0.000000    0.000000
  0.040040080   -3.531817   47.519096 -100.732909    4.627998    0.000000    0.000000    0.000000    0.000000
  0.040240481   -3.587253   45.458260  -99.789268    2.275970    0.000000    0.000000    0.000000    0.000000
  0.040440882   -3.645825   43.378822 -101.509765    3.669179    0.000000    0.000000    0.000000    0.000000
  0.040641283   -3.701521   41.314976 -101.234334   -2.155098    0.000000    0.000000    0.000000    0.000000
  0.040841683   -3.759039   39.257431 -101.191681   -4.443267    0.000000    0.000000    0.000000    0.000000
  0.041042084   -3.811069   37.207493 -102.405208   10.378663    0.000000    0.000000    0.000000    0.000000
  0.041242485   -3.865125   35.157021  -99.296482    6.313281    0.000000    0.000000    0.000000    0.000000
  0.041442886   -3.917727   33.112534 -101.674507   -1.137390    0.000000    0.000000    0.000000    0.000000
  0.041643287   -3.970272   31.058493 -100.499204   -1.414066    0.000000    0.000000    0.000000    0.000000
  0.041843687   -4.020696   29.026730 -100.656338   -3.276501    0.000000    0.000000    0.000000    0.000000
  0.042044088   -4.070170   26.978548 -101.123408   -1.064132    0.000000    0.000000    0.000000    0.000000
  0.042244489   -4.117588   24.983496 -101.301938   -3.642145    0.000000    0.000000    0.000000    0.000000
  0.042444890   -4.166873   22.983061 -101.848990   -7.011208    0.000000    0.000000    0.000000    0.000000
  0.042645291   -4.216828   21.000479 -101.108194  -10.251248    0.000000    0.000000    0.000000    0.000000
  0.042845691   -4.267844   19.011507 -102.014997    0.909883    0.000000    0.000000    0.000000    0.000000
  0.043046092   -4.317126   17.035032 -102.330267    6.963764    0.000000    0.000000    0.000000    0.000000
  0.043246493   -4.365508   15.066740 -104.442624   -3.632896    0.000000    0.000000    0.000000    0.000000
  0.043446894   -4.413759   13.083012 -102.502117    3.825498    0.000000    0.000000    0.000000    0.000000
  0.043647295   -4.462214   11.119031 -103.205703    9.089020    0.000000    0.000000    0.000000    0.000000
  0.043847695   -4.507707    9.133033 -102.958024   11.689647    0.000000    0.000000    0.000000    0.000000
  0.044048096   -4.557084    7.173746 -103.244225    3.861220    0.000000    0.000000    0.000000    0.000000
  0.044248497   -4.604504    5.214130 -101.115846    0.149605    0.000000    0.000000    0.000000    0.000000
  0.044448898   -4.650992    3.259247 -101.872371   16.179213    0.000000    0.000000    0.000000    0.000000
  0.044649299   -4.698267    1.302263 -100.606747   13.049346    0.000000    0.000000    0.000000    0.000000
  0.044849699   -4.741748   -0.621637 -102.006872   19.027069    0.000000    0.000000    0.000000    0.000000
  0.045050100   -4.787230   -2.540746 -101.053315   10.128757    0.000000    0.000000    0.000000    0.000000
  0.045250501   -4.827656   -4.474994 -101.745966   16.745207    0.000000    0.000000    0.000000    0.000000
  0.045450902   -4.866242   -6.410020 -100.386229   14.708766    0.000000    0.000000    0.000000    0.000000
  0.045651303   -4.906594   -8.326116 -102.018533    7.969453    0.000000    0.000000    0.000000    0.000000
  0.045851703   -4.947629  -10.226828 -102.411799    5.204229    0.000000    0.000000    0.000000    0.000000
  0.046052104   -4.984327  -12.099993 -101.121661   15.400867    0.000000    0.000000    0.000000    0.000000
  0.046252505   -5.023434  -13.970926 -101.244375    8.800861    0.000000    0.000000    0.000000    0.000000
  0.046452906   -5.062249  -15.827835 -101.423536   15.168993    0.000000    0.000000    0.000000    0.000000
  0.046653307   -5.099509  -17.686604 -101.159043   12.702950    0.000000    0.000000    0.000000    0.000000
  0.046853707   -5.134893  -19.540110 -101.158736    4.811734    0.000000    0.000000    0.000000    0.000000
  0.047054108   -5.172587  -21.381073 -101.294611  -12.959484    0.000000    0.000000    0.000000    0.000000
  0.047254509   -5.203627  -23.216022 -100.474563   -7.827760    0.000000    0.000000    0.000000    0.000000
  0.047454910   -5.236328  -24.991947 -100.636480   -2.286543    0.000000    0.000000    0.000000    0.000000
  0.047655311   -5.266734  -26.808443 -104.698165    0.823950    0.000000    0.000000    0.000000    0.000000
  0.047855711   -5.295707  -28.560854 -101.267217    0.548403    0.000000    0.000000    0.000000    0.000000
  0.048056112   -5.324440  -30.288895 -102.831754    2.549427    0.000000    0.000000    0.000000    0.000000
  0.048256513   -5.355465  -32.024612 -102.936447   -9.493336    0.000000    0.000000    0.000000    0.000000
  0.048456914   -5.389586  -33.729527 -105.238090   -5.418937    0.000000    0.000000    0.000000    0.000000
  0.048657315   -5.417511  -35.460106 -102.354292    7.853241    0.000000    0.000000    0.000000    0.000000
  0.048857715   -5.444338  -37.188454 -103.299627   -0.016603    0.000000    0.000000    0.000000    0.000000
  0.049058116   -5.474508  -38.897690 -106.335010  -11.415046    0.000000    0.000000    0.000000    0.000000
  0.049258517   -5.501084  -40.612114 -104.604803    6.355702    0.000000    0.000000    0.000000    0.000000
  0.049458918   -5.528510  -42.291939 -105.304246   22.464563    0.000000    0.000000    0.000000    0.000000
  0.049659319   -5.554690  -43.978935 -107.038521   -1.325386    0.000000    0.000000    0.000000    0.000000
  0.049859719   -5.582378  -45.645008 -103.983001   10.815204    0.000000    0.000000    0.000000    0.000000
  0.050060120   -5.609779  -47.325840 -103.745941   11.471889    0.000000    0.000000    0.000000    0.000000
  0.050260521   -5.635611  -48.989536 -103.004808    7.363391    0.000000    0.000000    0.000000    0.000000
  0.050460922   -5.655445  -50.679539 -101.166345    6.010725    0.000000    0.000000    0.000000    0.000000
  0.050661323   -5.675798  -52.348080 -102.301321    4.963225    0.000000    0.000000    0.000000    0.000000
  0.050861723   -5.692941  -54.010082 -103.252860    7.575369    0.000000    0.000000    0.000000    0.000000
  0.051062124   -5.714257  -55.630585 -103.660914    7.798134    0.000000    0.000000    0.000000    0.000000
  0.051262525   -5.730884  -57.246235 -104.667798    9.690309    0.000000    0.000000    0.000000    0.000000
  0.051462926   -5.744088  -58.811520 -105.461242    4.960962    0.000000    0.000000    0.000000    0.000000
  0.051663327   -5.760302  -60.367786 -103.905487    4.349899    0.000000    0.000000    0.000000    0.000000
  0.051863727   -5.775287  -61.936253 -105.867636    3.318510    0.000000    0.000000    0.000000    0.000000
  0.052064128   -5.792419  -63.476730 -102.453942   13.315606    0.000000    0.000000    0.000000    0.000000
  0.052264529   -5.810780  -65.004044 -101.017617   -6.806693    0.000000    0.000000    0.000000    0.000000
  0.052464930   -5.826854  -66.507912 -102.491841   11.881774    0.000000    0.000000    0.000000    0.000000
  0.052665331   -5.842935  -68.071411 -102.258757   -2.104045    0.000000    0.000000    0.000000    0.000000
  0.052865731   -5.860974  -69.574142 -103.614990   -7.227254    0.000000    0.000000    0.000000    0.000000
