! Anritsu VNA Master:                     Model: MS2036C/10/77
! SN:                                  1601066
! /bd0/18may07/256.ns.m9.s2p
! Existing Calibration Information:
! TYPE:                         Current Settings,       Active Cal Settings
! TIME:             	   05/07/2018 03:21:34 PM,    05/07/2018 03:13:55 PM
! INTERNAL TEMP:    	                   61.5 C,                    60.5 C
! # POINTS:         	                      500,                       500
! START FREQ:       	               20.000 MHz,                20.000 MHz
! STOP FREQ:        	              120.000 MHz,               120.000 MHz
! SOURCE POWER:     	                     High,                      High
! IFBW:             	                    50 Hz,                     50 Hz
! AVG FACTOR:       	                       1 ,                        1 
! REF PLANE 1:      	                     0 mm,                      0 mm
! REF PLANE 2:      	                     0 mm,                      0 mm
! CAL TYPE:         	                 Full S11,                  Full S11
! CAL METHOD:       	                     SOLT,                      SOLT
! CAL LINE TYPE:    	                     Coax,                      Coax
! DUT PORT 1:       	                K-Conn(F),                 K-Conn(F)
! DUT PORT 2:       	                K-Conn(F),                 K-Conn(F)
! CAL STATUS:       	        OK: Accuracy High,                        --
# GHZ S DB R 50.0
! FREQ.GHZ       S11DB        S11A       S21DB        S21A       S12DB        S12A       S22DB        S22A
  0.020000000   -0.623187 -125.882408  -91.617711   27.727158    0.000000    0.000000    0.000000    0.000000
  0.020200401   -0.622925 -127.369247  -91.047884   27.357214    0.000000    0.000000    0.000000    0.000000
  0.020400802   -0.623060 -128.832214  -92.194075   25.504122    0.000000    0.000000    0.000000    0.000000
  0.020601202   -0.627730 -130.298355  -91.940476   24.583294    0.000000    0.000000    0.000000    0.000000
  0.020801603   -0.630053 -131.808197  -92.556688   27.599422    0.000000    0.000000    0.000000    0.000000
  0.021002004   -0.636498 -133.324997  -93.144594   27.502626    0.000000    0.000000    0.000000    0.000000
  0.021202405   -0.644233 -134.846146  -92.967978   29.925978    0.000000    0.000000    0.000000    0.000000
  0.021402806   -0.650193 -136.398712  -93.711696   28.399055    0.000000    0.000000    0.000000    0.000000
  0.021603206   -0.654817 -137.940399  -93.208496   28.253029    0.000000    0.000000    0.000000    0.000000
  0.021803607   -0.659765 -139.484390  -92.959495   28.432812    0.000000    0.000000    0.000000    0.000000
  0.022004008   -0.663063 -141.021515  -93.720941   33.648033    0.000000    0.000000    0.000000    0.000000
  0.022204409   -0.671022 -142.586899  -93.554456   32.869190    0.000000    0.000000    0.000000    0.000000
  0.022404810   -0.677994 -144.159821  -93.347950   35.295326    0.000000    0.000000    0.000000    0.000000
  0.022605210   -0.683454 -145.736099  -92.759667   31.088165    0.000000    0.000000    0.000000    0.000000
  0.022805611   -0.687892 -147.339310  -93.418091   35.993099    0.000000    0.000000    0.000000    0.000000
  0.023006012   -0.688915 -148.937332  -93.427429   30.233700    0.000000    0.000000    0.000000    0.000000
  0.023206413   -0.689602 -150.540192  -92.904416   32.569233    0.000000    0.000000    0.000000    0.000000
  0.023406814   -0.691556 -152.140610  -93.633927   31.132030    0.000000    0.000000    0.000000    0.000000
  0.023607214   -0.699900 -153.717499  -92.650131   24.990467    0.000000    0.000000    0.000000    0.000000
  0.023807615   -0.706533 -155.337555  -93.697544   26.881720    0.000000    0.000000    0.000000    0.000000
  0.024008016   -0.716037 -156.961502  -93.061205   26.000036    0.000000    0.000000    0.000000    0.000000
  0.024208417   -0.726238 -158.607056  -93.432044   23.885563    0.000000    0.000000    0.000000    0.000000
  0.024408818   -0.735895 -160.267136  -93.996181   25.198065    0.000000    0.000000    0.000000    0.000000
  0.024609218   -0.745294 -161.925186  -93.331285   20.360237    0.000000    0.000000    0.000000    0.000000
  0.024809619   -0.754524 -163.590179  -93.926719   20.929951    0.000000    0.000000    0.000000    0.000000
  0.025010020   -0.766533 -165.254410  -93.824014   18.146677    0.000000    0.000000    0.000000    0.000000
  0.025210421   -0.779652 -166.942673  -95.149426   19.147249    0.000000    0.000000    0.000000    0.000000
  0.025410822   -0.793465 -168.637924  -94.326733   13.079444    0.000000    0.000000    0.000000    0.000000
  0.025611222   -0.808645 -170.344162  -94.475287   12.679355    0.000000    0.000000    0.000000    0.000000
  0.025811623   -0.822899 -172.078506  -95.351704   18.462353    0.000000    0.000000    0.000000    0.000000
  0.026012024   -0.835847 -173.826752  -94.924460   17.192451    0.000000    0.000000    0.000000    0.000000
  0.026212425   -0.846020 -175.572220  -95.055421   18.769775    0.000000    0.000000    0.000000    0.000000
  0.026412826   -0.859283 -177.315048  -95.345269   15.692501    0.000000    0.000000    0.000000    0.000000
  0.026613226   -0.874772 -179.075974  -95.835576   16.410742    0.000000    0.000000    0.000000    0.000000
  0.026813627   -0.891396  179.139969  -96.605982   14.526219    0.000000    0.000000    0.000000    0.000000
  0.027014028   -0.907659  177.364883  -96.583768   14.791135    0.000000    0.000000    0.000000    0.000000
  0.027214429   -0.925731  175.557770  -96.625766   21.982714    0.000000    0.000000    0.000000    0.000000
  0.027414830   -0.942380  173.745102  -96.212814   22.012922    0.000000    0.000000    0.000000    0.000000
  0.027615230   -0.959397  171.931458  -97.732988   25.838303    0.000000    0.000000    0.000000    0.000000
  0.027815631   -0.979732  170.088547  -96.044248   25.503582    0.000000    0.000000    0.000000    0.000000
  0.028016032   -1.000255  168.252014  -95.966823   19.757673    0.000000    0.000000    0.000000    0.000000
  0.028216433   -1.021061  166.413925  -97.163824   22.943197    0.000000    0.000000    0.000000    0.000000
  0.028416834   -1.042001  164.562576  -95.731045   24.644707    0.000000    0.000000    0.000000    0.000000
  0.028617234   -1.061273  162.702209  -96.634797   20.669308    0.000000    0.000000    0.000000    0.000000
  0.028817635   -1.078870  160.850708  -96.654973   24.071579    0.000000    0.000000    0.000000    0.000000
  0.029018036   -1.098951  159.015381  -96.363643   29.136808    0.000000    0.000000    0.000000    0.000000
  0.029218437   -1.118758  157.167175  -95.652342   18.730680    0.000000    0.000000    0.000000    0.000000
  0.029418838   -1.142799  155.344498  -96.598589   17.364223    0.000000    0.000000    0.000000    0.000000
  0.029619238   -1.166843  153.476303  -96.560109   17.388653    0.000000    0.000000    0.000000    0.000000
  0.029819639   -1.194772  151.592667  -96.986973   16.757822    0.000000    0.000000    0.000000    0.000000
  0.030020040   -1.225523  149.691803  -97.068647   20.560516    0.000000    0.000000    0.000000    0.000000
  0.030220441   -1.255704  147.762741  -97.006741   15.918046    0.000000    0.000000    0.000000    0.000000
  0.030420842   -1.285732  145.839264  -97.545169   10.450257    0.000000    0.000000    0.000000    0.000000
  0.030621242   -1.316341  143.912033  -97.782516   15.720688    0.000000    0.000000    0.000000    0.000000
  0.030821643   -1.349041  141.997559  -97.323418   11.847163    0.000000    0.000000    0.000000    0.000000
  0.031022044   -1.383527  140.070877  -96.844239    8.684093    0.000000    0.000000    0.000000    0.000000
  0.031222445   -1.413745  138.137650  -97.990042    6.582872    0.000000    0.000000    0.000000    0.000000
  0.031422846   -1.450476  136.160019  -97.485077   18.534370    0.000000    0.000000    0.000000    0.000000
  0.031623246   -1.488912  134.178696  -98.505562    2.661623    0.000000    0.000000    0.000000    0.000000
  0.031823647   -1.528810  132.165329  -97.990252    3.010213    0.000000    0.000000    0.000000    0.000000
  0.032024048   -1.564402  130.158417  -97.223208   10.340732    0.000000    0.000000    0.000000    0.000000
  0.032224449   -1.601349  128.139557  -97.437578    6.468114    0.000000    0.000000    0.000000    0.000000
  0.032424850   -1.638996  126.144051  -98.664916   10.419368    0.000000    0.000000    0.000000    0.000000
  0.032625251   -1.672978  124.129478  -99.762106   12.884380    0.000000    0.000000    0.000000    0.000000
  0.032825651   -1.713444  122.132896  -97.573804   13.067165    0.000000    0.000000    0.000000    0.000000
  0.033026052   -1.750881  120.119766  -98.590309    4.253156    0.000000    0.000000    0.000000    0.000000
  0.033226453   -1.790302  118.124146  -98.474741   12.561842    0.000000    0.000000    0.000000    0.000000
  0.033426854   -1.836949  116.139336  -97.304510   10.716031    0.000000    0.000000    0.000000    0.000000
  0.033627255   -1.885657  114.141853  -99.089729   14.232908    0.000000    0.000000    0.000000    0.000000
  0.033827655   -1.937005  112.113304  -97.883741    6.778729    0.000000    0.000000    0.000000    0.000000
  0.034028056   -1.989945  110.061203  -98.222717    9.319219    0.000000    0.000000    0.000000    0.000000
  0.034228457   -2.038945  107.973587  -97.257167    2.714684    0.000000    0.000000    0.000000    0.000000
  0.034428858   -2.092882  105.855133  -97.690983    9.982715    0.000000    0.000000    0.000000    0.000000
  0.034629259   -2.141781  103.738388  -97.649040    2.517286    0.000000    0.000000    0.000000    0.000000
  0.034829659   -2.186862  101.607864  -98.726501   10.481260    0.000000    0.000000    0.000000    0.000000
  0.035030060   -2.234333   99.476234 -100.131144    7.624618    0.000000    0.000000    0.000000    0.000000
  0.035230461   -2.279256   97.359299  -97.230367   13.072206    0.000000    0.000000    0.000000    0.000000
  0.035430862   -2.322740   95.256920  -98.739646    9.192815    0.000000    0.000000    0.000000    0.000000
  0.035631263   -2.366325   93.145409  -98.663121    5.269948    0.000000    0.000000    0.000000    0.000000
  0.035831663   -2.409946   91.079300  -99.331848    4.097060    0.000000    0.000000    0.000000    0.000000
  0.036032064   -2.456315   89.006859 -100.150115    2.169964    0.000000    0.000000    0.000000    0.000000
  0.036232465   -2.499757   86.948662  -98.909870    8.379081    0.000000    0.000000    0.000000    0.000000
  0.036432866   -2.548715   84.890533  -99.072929   -2.013764    0.000000    0.000000    0.000000    0.000000
  0.036633267   -2.597398   82.843773  -99.076508    3.992291    0.000000    0.000000    0.000000    0.000000
  0.036833667   -2.650685   80.797791 -100.396794    5.132297    0.000000    0.000000    0.000000    0.000000
  0.037034068   -2.709179   78.735001  -98.911600    8.135028    0.000000    0.000000    0.000000    0.000000
  0.037234469   -2.769837   76.660561  -99.419779    2.430907    0.000000    0.000000    0.000000    0.000000
  0.037434870   -2.838505   74.579933 -100.562327   10.098811    0.000000    0.000000    0.000000    0.000000
  0.037635271   -2.908676   72.492485  -99.240044    9.260477    0.000000    0.000000    0.000000    0.000000
  0.037835671   -2.981910   70.447968 -100.185317   13.255825    0.000000    0.000000    0.000000    0.000000
  0.038036072   -3.041131   68.446259 -101.946633    1.358453    0.000000    0.000000    0.000000    0.000000
  0.038236473   -3.090986   66.355721  -98.391214    9.656254    0.000000    0.000000    0.000000    0.000000
  0.038436874   -3.141014   64.231255 -100.949894   -3.863554    0.000000    0.000000    0.000000    0.000000
  0.038637275   -3.192169   62.106213 -101.221382    8.701485    0.000000    0.000000    0.000000    0.000000
  0.038837675   -3.239475   59.993275  -99.143417   11.522978    0.000000    0.000000    0.000000    0.000000
  0.039038076   -3.281779   57.894459  -99.722970    8.662951    0.000000    0.000000    0.000000    0.000000
  0.039238477   -3.327344   55.828556 -100.637483    7.134928    0.000000    0.000000    0.000000    0.000000
  0.039438878   -3.375349   53.777298 -102.392145   11.178529    0.000000    0.000000    0.000000    0.000000
  0.039639279   -3.424129   51.745537 -100.568552    8.990915    0.000000    0.000000    0.000000    0.000000
  0.039839679   -3.480697   49.709949 -101.482958    0.756977    0.000000    0.000000    0.000000    0.000000
  0.040040080   -3.535792   47.662643 -100.062266    5.643880    0.000000    0.000000    0.000000    0.000000
  0.040240481   -3.595479   45.633678 -101.250369   10.503448    0.000000    0.000000    0.000000    0.000000
  0.040440882   -3.652186   43.556541  -99.072332    5.767927    0.000000    0.000000    0.000000    0.000000
  0.040641283   -3.711675   41.480873 -100.182122    3.566721    0.000000    0.000000    0.000000    0.000000
  0.040841683   -3.769339   39.407249 -100.348715    9.083799    0.000000    0.000000    0.000000    0.000000
  0.041042084   -3.821517   37.359421 -100.176956   -0.340434    0.000000    0.000000    0.000000    0.000000
  0.041242485   -3.876990   35.306282 -100.578668   -2.451286    0.000000    0.000000    0.000000    0.000000
  0.041442886   -3.930732   33.233677 -101.593411    7.557673    0.000000    0.000000    0.000000    0.000000
  0.041643287   -3.984243   31.185865 -100.259978    7.459016    0.000000    0.000000    0.000000    0.000000
  0.041843687   -4.033107   29.109859 -101.516739   -2.279011    0.000000    0.000000    0.000000    0.000000
  0.042044088   -4.083388   27.061470 -102.507734   -9.647887    0.000000    0.000000    0.000000    0.000000
  0.042244489   -4.133438   25.039188 -101.828153    0.896459    0.000000    0.000000    0.000000    0.000000
  0.042444890   -4.181992   23.025301 -102.323844   -7.975406    0.000000    0.000000    0.000000    0.000000
  0.042645291   -4.230278   21.015583 -102.733750   -0.152674    0.000000    0.000000    0.000000    0.000000
  0.042845691   -4.278323   19.033554 -104.331923    0.528530    0.000000    0.000000    0.000000    0.000000
  0.043046092   -4.326529   17.038469 -103.223306   -1.612138    0.000000    0.000000    0.000000    0.000000
  0.043246493   -4.371884   15.049702 -102.426783    7.102578    0.000000    0.000000    0.000000    0.000000
  0.043446894   -4.418804   13.070298 -102.979141   -9.183941    0.000000    0.000000    0.000000    0.000000
  0.043647295   -4.464835   11.085135 -103.490785    7.033859    0.000000    0.000000    0.000000    0.000000
  0.043847695   -4.510341    9.110496 -103.750731    2.919918    0.000000    0.000000    0.000000    0.000000
  0.044048096   -4.557213    7.160776 -104.713525   -7.752086    0.000000    0.000000    0.000000    0.000000
  0.044248497   -4.602563    5.189496 -102.195925    1.635216    0.000000    0.000000    0.000000    0.000000
  0.044448898   -4.647051    3.235425 -101.781773   13.735793    0.000000    0.000000    0.000000    0.000000
  0.044649299   -4.692082    1.317773 -102.185505   15.969720    0.000000    0.000000    0.000000    0.000000
  0.044849699   -4.737332   -0.599466 -103.206641   14.042274    0.000000    0.000000    0.000000    0.000000
  0.045050100   -4.778229   -2.509153 -102.574938   13.780935    0.000000    0.000000    0.000000    0.000000
  0.045250501   -4.817148   -4.425173 -102.229781   11.661258    0.000000    0.000000    0.000000    0.000000
  0.045450902   -4.856449   -6.323447 -103.043890    8.375037    0.000000    0.000000    0.000000    0.000000
  0.045651303   -4.893011   -8.219279 -102.748443   12.725577    0.000000    0.000000    0.000000    0.000000
  0.045851703   -4.934104  -10.082052 -101.572259    9.842441    0.000000    0.000000    0.000000    0.000000
  0.046052104   -4.973455  -11.945362 -101.189943    5.843848    0.000000    0.000000    0.000000    0.000000
  0.046252505   -5.012289  -13.819588 -100.743596   -1.136138    0.000000    0.000000    0.000000    0.000000
  0.046452906   -5.050087  -15.663827 -100.712559   -9.005766    0.000000    0.000000    0.000000    0.000000
  0.046653307   -5.089961  -17.507669 -104.213005  -11.058799    0.000000    0.000000    0.000000    0.000000
  0.046853707   -5.126715  -19.361452 -101.495735    2.293490    0.000000    0.000000    0.000000    0.000000
  0.047054108   -5.165088  -21.176292 -101.646837   -8.111523    0.000000    0.000000    0.000000    0.000000
  0.047254509   -5.198614  -22.988451 -103.360722  -15.217131    0.000000    0.000000    0.000000    0.000000
  0.047454910   -5.233822  -24.791786 -100.552068  -12.526020    0.000000    0.000000    0.000000    0.000000
  0.047655311   -5.263871  -26.576136 -100.812049   -5.204320    0.000000    0.000000    0.000000    0.000000
  0.047855711   -5.296275  -28.337955 -100.066444  -10.711472    0.000000    0.000000    0.000000    0.000000
  0.048056112   -5.326593  -30.066868 -102.952577  -19.081793    0.000000    0.000000    0.000000    0.000000
  0.048256513   -5.358856  -31.811783 -102.511592    3.196437    0.000000    0.000000    0.000000    0.000000
  0.048456914   -5.388244  -33.547398 -103.650029    0.823920    0.000000    0.000000    0.000000    0.000000
  0.048657315   -5.422429  -35.268993 -101.796961    8.365789    0.000000    0.000000    0.000000    0.000000
  0.048857715   -5.448094  -36.992584 -104.228980    8.521365    0.000000    0.000000    0.000000    0.000000
  0.049058116   -5.480411  -38.737671 -104.992749   -8.000549    0.000000    0.000000    0.000000    0.000000
  0.049258517   -5.506965  -40.433624 -104.677197    5.993613    0.000000    0.000000    0.000000    0.000000
  0.049458918   -5.530472  -42.132618 -104.879378    3.556409    0.000000    0.000000    0.000000    0.000000
  0.049659319   -5.561082  -43.844128 -103.453466  -10.468845    0.000000    0.000000    0.000000    0.000000
  0.049859719   -5.587010  -45.493721 -103.282808    6.564424    0.000000    0.000000    0.000000    0.000000
  0.050060120   -5.613973  -47.183113 -104.617403    7.760236    0.000000    0.000000    0.000000    0.000000
  0.050260521   -5.636666  -48.872524 -104.564611   24.672705    0.000000    0.000000    0.000000    0.000000
  0.050460922   -5.660880  -50.537888 -102.123196   14.642649    0.000000    0.000000    0.000000    0.000000
  0.050661323   -5.677395  -52.197182 -102.569410   20.971041    0.000000    0.000000    0.000000    0.000000
  0.050861723   -5.695427  -53.838234 -103.724435    7.410386    0.000000    0.000000    0.000000    0.000000
  0.051062124   -5.713687  -55.475693 -104.634664   15.630223    0.000000    0.000000    0.000000    0.000000
  0.051262525   -5.729942  -57.083523 -103.486278   29.691788    0.000000    0.000000    0.000000    0.000000
  0.051462926   -5.748651  -58.652302 -102.209751   -4.049905    0.000000    0.000000    0.000000    0.000000
  0.051663327   -5.760776  -60.198509 -103.505839   15.615396    0.000000    0.000000    0.000000    0.000000
  0.051863727   -5.776180  -61.743298 -101.371990   27.504824    0.000000    0.000000    0.000000    0.000000
  0.052064128   -5.795141  -63.292038 -102.297788    5.756741    0.000000    0.000000    0.000000    0.000000
  0.052264529   -5.812666  -64.799820 -102.863765   -5.197811    0.000000    0.000000    0.000000    0.000000
  0.052464930   -5.825824  -66.324295 -102.150393   -3.642598    0.000000    0.000000    0.000000    0.000000
  0.052665331   -5.847345  -67.850891 -102.261804   15.842017    0.000000    0.000000    0.000000    0.000000
  0.052865731   -5.863197  -69.351891 -103.836927   -0.036835    0.000000    0.000000    0.000000    0.000000
