! Anritsu VNA Master:                     Model: MS2036C/10/77
! SN:                                  1601066
! /bd0/18may07/256.ns.m6.s2p
! Existing Calibration Information:
! TYPE:                         Current Settings,       Active Cal Settings
! TIME:             	   05/07/2018 03:10:31 PM,    05/07/2018 02:58:54 PM
! INTERNAL TEMP:    	                   60.3 C,                    58.8 C
! # POINTS:         	                      500,                       500
! START FREQ:       	               20.000 MHz,                20.000 MHz
! STOP FREQ:        	              120.000 MHz,               120.000 MHz
! SOURCE POWER:     	                     High,                      High
! IFBW:             	                    50 Hz,                     50 Hz
! AVG FACTOR:       	                       1 ,                        1 
! REF PLANE 1:      	                     0 mm,                      0 mm
! REF PLANE 2:      	                     0 mm,                      0 mm
! CAL TYPE:         	                 Full S11,                  Full S11
! CAL METHOD:       	                     SOLT,                      SOLT
! CAL LINE TYPE:    	                     Coax,                      Coax
! DUT PORT 1:       	                K-Conn(F),                 K-Conn(F)
! DUT PORT 2:       	                K-Conn(F),                 K-Conn(F)
! CAL STATUS:       	        OK: Accuracy High,                        --
# GHZ S DB R 50.0
! FREQ.GHZ       S11DB        S11A       S21DB        S21A       S12DB        S12A       S22DB        S22A
  0.020000000   -0.635436 -125.879486  -91.187511   28.003937    0.000000    0.000000    0.000000    0.000000
  0.020200401   -0.635784 -127.359764  -91.626035   28.560205    0.000000    0.000000    0.000000    0.000000
  0.020400802   -0.636741 -128.824341  -91.898873   27.901247    0.000000    0.000000    0.000000    0.000000
  0.020601202   -0.639049 -130.297028  -91.557108   29.518988    0.000000    0.000000    0.000000    0.000000
  0.020801603   -0.644593 -131.812500  -92.344614   27.517572    0.000000    0.000000    0.000000    0.000000
  0.021002004   -0.649306 -133.336670  -92.359891   29.244122    0.000000    0.000000    0.000000    0.000000
  0.021202405   -0.658417 -134.873474  -93.274777   26.757540    0.000000    0.000000    0.000000    0.000000
  0.021402806   -0.662022 -136.421448  -93.568600   29.181385    0.000000    0.000000    0.000000    0.000000
  0.021603206   -0.667758 -137.971817  -93.291260   28.209517    0.000000    0.000000    0.000000    0.000000
  0.021803607   -0.671991 -139.522812  -93.342358   30.229628    0.000000    0.000000    0.000000    0.000000
  0.022004008   -0.678159 -141.076462  -93.386497   28.370237    0.000000    0.000000    0.000000    0.000000
  0.022204409   -0.683893 -142.653259  -93.503839   33.841942    0.000000    0.000000    0.000000    0.000000
  0.022404810   -0.691825 -144.228027  -93.765022   31.245653    0.000000    0.000000    0.000000    0.000000
  0.022605210   -0.693215 -145.836334  -92.930265   34.690079    0.000000    0.000000    0.000000    0.000000
  0.022805611   -0.695597 -147.442474  -93.306928   35.581600    0.000000    0.000000    0.000000    0.000000
  0.023006012   -0.698112 -149.048859  -93.565844   36.984135    0.000000    0.000000    0.000000    0.000000
  0.023206413   -0.698211 -150.647385  -93.152604   31.417650    0.000000    0.000000    0.000000    0.000000
  0.023406814   -0.702891 -152.248718  -92.864450   33.606209    0.000000    0.000000    0.000000    0.000000
  0.023607214   -0.709276 -153.848282  -92.996475   29.550083    0.000000    0.000000    0.000000    0.000000
  0.023807615   -0.716049 -155.460327  -92.995244   30.627466    0.000000    0.000000    0.000000    0.000000
  0.024008016   -0.723663 -157.091949  -92.282829   27.614534    0.000000    0.000000    0.000000    0.000000
  0.024208417   -0.733913 -158.732071  -93.427098   23.285509    0.000000    0.000000    0.000000    0.000000
  0.024408818   -0.744105 -160.384140  -93.883846   22.758377    0.000000    0.000000    0.000000    0.000000
  0.024609218   -0.753800 -162.035080  -93.905597   21.439007    0.000000    0.000000    0.000000    0.000000
  0.024809619   -0.762783 -163.698318  -93.266412   26.333918    0.000000    0.000000    0.000000    0.000000
  0.025010020   -0.776967 -165.362076  -93.781557   19.317799    0.000000    0.000000    0.000000    0.000000
  0.025210421   -0.787610 -167.041183  -93.757233   23.902113    0.000000    0.000000    0.000000    0.000000
  0.025410822   -0.803178 -168.731430  -94.271256   19.766970    0.000000    0.000000    0.000000    0.000000
  0.025611222   -0.817234 -170.429657  -94.388934   18.808615    0.000000    0.000000    0.000000    0.000000
  0.025811623   -0.830502 -172.155396  -94.356387   15.503679    0.000000    0.000000    0.000000    0.000000
  0.026012024   -0.844053 -173.901047  -95.295466   15.692573    0.000000    0.000000    0.000000    0.000000
  0.026212425   -0.855898 -175.634995  -95.421428   16.060526    0.000000    0.000000    0.000000    0.000000
  0.026412826   -0.868456 -177.384964  -96.498674   12.698668    0.000000    0.000000    0.000000    0.000000
  0.026613226   -0.884350 -179.143265  -94.977383   19.125950    0.000000    0.000000    0.000000    0.000000
  0.026813627   -0.900033  179.093857  -94.951332   17.034180    0.000000    0.000000    0.000000    0.000000
  0.027014028   -0.917301  177.302399  -96.068533   23.195641    0.000000    0.000000    0.000000    0.000000
  0.027214429   -0.935333  175.495789  -96.066660   13.903040    0.000000    0.000000    0.000000    0.000000
  0.027414830   -0.951128  173.690643  -96.389392   21.502562    0.000000    0.000000    0.000000    0.000000
  0.027615230   -0.967518  171.878967  -96.204592   25.429434    0.000000    0.000000    0.000000    0.000000
  0.027815631   -0.986941  170.046539  -96.069899   22.145395    0.000000    0.000000    0.000000    0.000000
  0.028016032   -1.007567  168.209503  -96.582908   21.339003    0.000000    0.000000    0.000000    0.000000
  0.028216433   -1.027638  166.364883  -96.114295   24.689957    0.000000    0.000000    0.000000    0.000000
  0.028416834   -1.048003  164.520035  -96.925760   24.984095    0.000000    0.000000    0.000000    0.000000
  0.028617234   -1.067433  162.669998  -97.014715   24.504766    0.000000    0.000000    0.000000    0.000000
  0.028817635   -1.085281  160.814438  -95.821786   20.682167    0.000000    0.000000    0.000000    0.000000
  0.029018036   -1.102930  158.983215  -95.678783   20.464455    0.000000    0.000000    0.000000    0.000000
  0.029218437   -1.123032  157.148788  -97.294268   25.839573    0.000000    0.000000    0.000000    0.000000
  0.029418838   -1.145075  155.314865  -96.561860   16.279856    0.000000    0.000000    0.000000    0.000000
  0.029619238   -1.169737  153.455414  -96.702586   17.403021    0.000000    0.000000    0.000000    0.000000
  0.029819639   -1.197266  151.582718  -96.938361   15.198431    0.000000    0.000000    0.000000    0.000000
  0.030020040   -1.228824  149.677933  -96.376582   12.939508    0.000000    0.000000    0.000000    0.000000
  0.030220441   -1.258583  147.762421  -95.989946   15.039344    0.000000    0.000000    0.000000    0.000000
  0.030420842   -1.287898  145.829086  -96.939447    8.652680    0.000000    0.000000    0.000000    0.000000
  0.030621242   -1.320406  143.917007  -96.141122   11.694950    0.000000    0.000000    0.000000    0.000000
  0.030821643   -1.352577  142.011871  -96.278520   12.585221    0.000000    0.000000    0.000000    0.000000
  0.031022044   -1.387785  140.074188  -96.613098    5.984788    0.000000    0.000000    0.000000    0.000000
  0.031222445   -1.420468  138.145203  -97.538131   12.730948    0.000000    0.000000    0.000000    0.000000
  0.031422846   -1.458994  136.181946  -98.412924   14.425257    0.000000    0.000000    0.000000    0.000000
  0.031623246   -1.497962  134.167435  -97.310197    3.568080    0.000000    0.000000    0.000000    0.000000
  0.031823647   -1.536714  132.158890  -97.836880    7.180760    0.000000    0.000000    0.000000    0.000000
  0.032024048   -1.574283  130.144058  -98.309842   10.982491    0.000000    0.000000    0.000000    0.000000
  0.032224449   -1.612467  128.137360  -97.314939    4.368802    0.000000    0.000000    0.000000    0.000000
  0.032424850   -1.648905  126.119324  -98.087162   15.586796    0.000000    0.000000    0.000000    0.000000
  0.032625251   -1.685252  124.089767  -98.970609    7.554353    0.000000    0.000000    0.000000    0.000000
  0.032825651   -1.722181  122.081764  -97.179043   17.832388    0.000000    0.000000    0.000000    0.000000
  0.033026052   -1.758829  120.064400  -98.441139    4.239168    0.000000    0.000000    0.000000    0.000000
  0.033226453   -1.802038  118.070107  -98.114633   17.249319    0.000000    0.000000    0.000000    0.000000
  0.033426854   -1.847914  116.091415  -98.409085    2.370283    0.000000    0.000000    0.000000    0.000000
  0.033627255   -1.895636  114.060646  -99.116034   13.392984    0.000000    0.000000    0.000000    0.000000
  0.033827655   -1.946113  112.047913  -97.885340   14.982207    0.000000    0.000000    0.000000    0.000000
  0.034028056   -1.998061  109.995171  -98.126926   12.404488    0.000000    0.000000    0.000000    0.000000
  0.034228457   -2.046682  107.891205  -98.432971    5.722779    0.000000    0.000000    0.000000    0.000000
  0.034428858   -2.098225  105.776199  -97.969118   10.498383    0.000000    0.000000    0.000000    0.000000
  0.034629259   -2.143631  103.650200  -98.682823   13.523874    0.000000    0.000000    0.000000    0.000000
  0.034829659   -2.191410  101.535980  -99.268960    3.182157    0.000000    0.000000    0.000000    0.000000
  0.035030060   -2.237991   99.411125  -98.602504    5.027542    0.000000    0.000000    0.000000    0.000000
  0.035230461   -2.281609   97.325737  -98.911540   13.152417    0.000000    0.000000    0.000000    0.000000
  0.035430862   -2.323273   95.208618  -99.293095    0.980540    0.000000    0.000000    0.000000    0.000000
  0.035631263   -2.365852   93.139168  -99.629361    6.108247    0.000000    0.000000    0.000000    0.000000
  0.035831663   -2.411287   91.059418  -98.552434    6.266746    0.000000    0.000000    0.000000    0.000000
  0.036032064   -2.454433   89.009895  -97.789016    5.727654    0.000000    0.000000    0.000000    0.000000
  0.036232465   -2.499319   86.964928  -98.821588   -2.733782    0.000000    0.000000    0.000000    0.000000
  0.036432866   -2.546553   84.929558  -99.297279    3.538003    0.000000    0.000000    0.000000    0.000000
  0.036633267   -2.600292   82.864990  -99.800431    3.620506    0.000000    0.000000    0.000000    0.000000
  0.036833667   -2.654694   80.820061  -98.984969    4.002775    0.000000    0.000000    0.000000    0.000000
  0.037034068   -2.715378   78.772842 -100.640278    1.428131    0.000000    0.000000    0.000000    0.000000
  0.037234469   -2.777157   76.699203 -100.015168   -2.220124    0.000000    0.000000    0.000000    0.000000
  0.037434870   -2.844601   74.602318  -99.775767   10.789843    0.000000    0.000000    0.000000    0.000000
  0.037635271   -2.916909   72.512581 -100.477058    2.697360    0.000000    0.000000    0.000000    0.000000
  0.037835671   -2.991517   70.489799 -101.975334    1.945362    0.000000    0.000000    0.000000    0.000000
  0.038036072   -3.050374   68.453583 -101.095659    2.354563    0.000000    0.000000    0.000000    0.000000
  0.038236473   -3.102762   66.371124 -101.019400   11.324274    0.000000    0.000000    0.000000    0.000000
  0.038436874   -3.149539   64.204636 -100.435515   -2.083376    0.000000    0.000000    0.000000    0.000000
  0.038637275   -3.198544   62.037262 -100.936659   13.120073    0.000000    0.000000    0.000000    0.000000
  0.038837675   -3.247025   59.908497 -101.185632    5.706541    0.000000    0.000000    0.000000    0.000000
  0.039038076   -3.291375   57.799644 -100.155227   -1.238647    0.000000    0.000000    0.000000    0.000000
  0.039238477   -3.335354   55.713696  -99.334590    5.515788    0.000000    0.000000    0.000000    0.000000
  0.039438878   -3.377685   53.646343  -99.598709   13.894532    0.000000    0.000000    0.000000    0.000000
  0.039639279   -3.430277   51.621494 -100.036238    8.240396    0.000000    0.000000    0.000000    0.000000
  0.039839679   -3.482796   49.566269 -101.643143    6.484929    0.000000    0.000000    0.000000    0.000000
  0.040040080   -3.538258   47.522793  -98.973024    1.688082    0.000000    0.000000    0.000000    0.000000
  0.040240481   -3.593279   45.465931 -101.216660   13.758475    0.000000    0.000000    0.000000    0.000000
  0.040440882   -3.649617   43.397182  -99.461830   13.154879    0.000000    0.000000    0.000000    0.000000
  0.040641283   -3.705888   41.340424 -101.037742   -1.793657    0.000000    0.000000    0.000000    0.000000
  0.040841683   -3.760564   39.280033 -100.205626   16.825636    0.000000    0.000000    0.000000    0.000000
  0.041042084   -3.811922   37.247372  -99.903258   -0.845228    0.000000    0.000000    0.000000    0.000000
  0.041242485   -3.864038   35.205673 -100.417024   -3.672814    0.000000    0.000000    0.000000    0.000000
  0.041442886   -3.919055   33.180244 -100.860661   -1.580595    0.000000    0.000000    0.000000    0.000000
  0.041643287   -3.970911   31.134382 -100.039740    9.745301    0.000000    0.000000    0.000000    0.000000
  0.041843687   -4.021597   29.108036 -101.241024    0.297724    0.000000    0.000000    0.000000    0.000000
  0.042044088   -4.071456   27.083801 -100.999542    1.977594    0.000000    0.000000    0.000000    0.000000
  0.042244489   -4.117577   25.093691 -100.759558    0.667035    0.000000    0.000000    0.000000    0.000000
  0.042444890   -4.169469   23.109772 -101.860110    1.497822    0.000000    0.000000    0.000000    0.000000
  0.042645291   -4.220008   21.132799 -101.273697   -1.645142    0.000000    0.000000    0.000000    0.000000
  0.042845691   -4.272446   19.153545 -102.031791   12.559181    0.000000    0.000000    0.000000    0.000000
  0.043046092   -4.322671   17.176905 -102.905037   -5.546679    0.000000    0.000000    0.000000    0.000000
  0.043246493   -4.374101   15.212440 -101.504112  -10.271879    0.000000    0.000000    0.000000    0.000000
  0.043446894   -4.423573   13.218502 -102.763780  -12.487024    0.000000    0.000000    0.000000    0.000000
  0.043647295   -4.472794   11.244284 -103.529086    7.913041    0.000000    0.000000    0.000000    0.000000
  0.043847695   -4.519016    9.253960 -103.507611    8.822351    0.000000    0.000000    0.000000    0.000000
  0.044048096   -4.570755    7.282126 -100.800588    7.895026    0.000000    0.000000    0.000000    0.000000
  0.044248497   -4.617654    5.303878 -101.265618   16.987549    0.000000    0.000000    0.000000    0.000000
  0.044448898   -4.668752    3.343091 -103.198017   27.911501    0.000000    0.000000    0.000000    0.000000
  0.044649299   -4.713072    1.372946 -101.637550   18.752899    0.000000    0.000000    0.000000    0.000000
  0.044849699   -4.758438   -0.563983 -103.070389   12.117705    0.000000    0.000000    0.000000    0.000000
  0.045050100   -4.800295   -2.519895 -100.334158    4.017196    0.000000    0.000000    0.000000    0.000000
  0.045250501   -4.838370   -4.466033 -101.412671    5.493421    0.000000    0.000000    0.000000    0.000000
  0.045450902   -4.876443   -6.387423 -101.753901    7.977546    0.000000    0.000000    0.000000    0.000000
  0.045651303   -4.915916   -8.315469 -100.801816   17.658815    0.000000    0.000000    0.000000    0.000000
  0.045851703   -4.954031  -10.229506 -100.445753    4.814194    0.000000    0.000000    0.000000    0.000000
  0.046052104   -4.992459  -12.117225 -101.560924   12.856834    0.000000    0.000000    0.000000    0.000000
  0.046252505   -5.029833  -13.991759 -100.381210   -7.011740    0.000000    0.000000    0.000000    0.000000
  0.046452906   -5.066852  -15.843809 -101.505117    4.499527    0.000000    0.000000    0.000000    0.000000
  0.046653307   -5.102612  -17.716724 -101.770757    5.427692    0.000000    0.000000    0.000000    0.000000
  0.046853707   -5.134186  -19.560963 -100.704962    1.686870    0.000000    0.000000    0.000000    0.000000
  0.047054108   -5.169264  -21.384321 -102.456205   -1.912356    0.000000    0.000000    0.000000    0.000000
  0.047254509   -5.199195  -23.214607 -100.739543  -11.967275    0.000000    0.000000    0.000000    0.000000
  0.047454910   -5.229418  -24.986179 -102.227234   -0.798588    0.000000    0.000000    0.000000    0.000000
  0.047655311   -5.259253  -26.766827 -101.651382   -8.431107    0.000000    0.000000    0.000000    0.000000
  0.047855711   -5.287074  -28.518250 -101.121909   -7.382621    0.000000    0.000000    0.000000    0.000000
  0.048056112   -5.317518  -30.224068 -104.044918   10.968447    0.000000    0.000000    0.000000    0.000000
  0.048256513   -5.346689  -31.945057 -101.841600  -12.222935    0.000000    0.000000    0.000000    0.000000
  0.048456914   -5.382367  -33.642345 -101.381697    1.429464    0.000000    0.000000    0.000000    0.000000
  0.048657315   -5.412950  -35.347462 -105.120610   -1.134859    0.000000    0.000000    0.000000    0.000000
  0.048857715   -5.441785  -37.066639 -103.540985    0.767907    0.000000    0.000000    0.000000    0.000000
  0.049058116   -5.473100  -38.755283 -102.906892    5.777884    0.000000    0.000000    0.000000    0.000000
  0.049258517   -5.501066  -40.464443 -104.892903    5.170821    0.000000    0.000000    0.000000    0.000000
  0.049458918   -5.530447  -42.138603 -104.682791  -10.411767    0.000000    0.000000    0.000000    0.000000
  0.049659319   -5.558210  -43.831062 -102.075467    1.836827    0.000000    0.000000    0.000000    0.000000
  0.049859719   -5.588921  -45.507015 -103.685704    9.232181    0.000000    0.000000    0.000000    0.000000
  0.050060120   -5.616525  -47.182129 -103.718022    1.012654    0.000000    0.000000    0.000000    0.000000
  0.050260521   -5.642873  -48.862389 -103.019551   10.864124    0.000000    0.000000    0.000000    0.000000
  0.050460922   -5.666366  -50.557968 -104.448962   19.176828    0.000000    0.000000    0.000000    0.000000
  0.050661323   -5.686511  -52.239674 -102.425822    4.730853    0.000000    0.000000    0.000000    0.000000
  0.050861723   -5.704642  -53.903526 -102.512392   21.604780    0.000000    0.000000    0.000000    0.000000
  0.051062124   -5.725645  -55.546528 -102.661937   16.005348    0.000000    0.000000    0.000000    0.000000
  0.051262525   -5.743357  -57.171196 -103.524807   11.603429    0.000000    0.000000    0.000000    0.000000
  0.051462926   -5.757640  -58.756695 -102.018486   21.439697    0.000000    0.000000    0.000000    0.000000
  0.051663327   -5.772368  -60.332596 -100.780135    3.957003    0.000000    0.000000    0.000000    0.000000
  0.051863727   -5.786459  -61.877831 -101.801850    8.643854    0.000000    0.000000    0.000000    0.000000
  0.052064128   -5.804629  -63.437500 -103.764748   -0.099952    0.000000    0.000000    0.000000    0.000000
  0.052264529   -5.819307  -64.968414 -104.459572   -0.513707    0.000000    0.000000    0.000000    0.000000
  0.052464930   -5.833547  -66.504852 -101.194005    0.699270    0.000000    0.000000    0.000000    0.000000
  0.052665331   -5.847850  -68.058121 -101.527852    2.272311    0.000000    0.000000    0.000000    0.000000
  0.052865731   -5.864901  -69.563416 -104.355461    0.457717    0.000000    0.000000    0.000000    0.000000
