! Anritsu VNA Master:                     Model: MS2036C/10/77
! SN:                                  1601066
! /bd0/18may10/top20.s2p
! Existing Calibration Information:
! TYPE:                         Current Settings,       Active Cal Settings
! TIME:             	   05/10/2018 01:08:52 PM,    05/10/2018 01:05:27 PM
! INTERNAL TEMP:    	                   50.5 C,                    49.8 C
! # POINTS:         	                      492,                       492
! START FREQ:       	               20.000 MHz,                20.000 MHz
! STOP FREQ:        	          118.396 793 MHz,           118.396 793 MHz
! SOURCE POWER:     	                     High,                      High
! IFBW:             	                    50 Hz,                     50 Hz
! AVG FACTOR:       	                       1 ,                        1 
! REF PLANE 1:      	                     0 mm,                      0 mm
! REF PLANE 2:      	                     0 mm,                      0 mm
! CAL TYPE:         	                 Full S22,                  Full S22
! CAL METHOD:       	                     SOLT,                      SOLT
! CAL LINE TYPE:    	                     Coax,                      Coax
! DUT PORT 1:       	                K-Conn(M),                 K-Conn(M)
! DUT PORT 2:       	                K-Conn(M),                 K-Conn(M)
! CAL STATUS:       	        OK: Accuracy High,                        --
# GHZ S DB R 50.0
! FREQ.GHZ       S11DB        S11A       S21DB        S21A       S12DB        S12A       S22DB        S22A
  0.020000000    0.000000    0.000000    0.000000    0.000000  -89.686758   47.313786   -7.261097  154.567596
  0.020200401    0.000000    0.000000    0.000000    0.000000  -89.343494   45.086597   -7.259098  154.323090
  0.020400802    0.000000    0.000000    0.000000    0.000000  -89.937860   43.771751   -7.258219  154.065201
  0.020601202    0.000000    0.000000    0.000000    0.000000  -90.104999   45.990253   -7.255430  153.811386
  0.020801603    0.000000    0.000000    0.000000    0.000000  -89.708830   42.557190   -7.258190  153.570984
  0.021002004    0.000000    0.000000    0.000000    0.000000  -90.035034   41.444305   -7.259441  153.315857
  0.021202405    0.000000    0.000000    0.000000    0.000000  -90.047982   42.011276   -7.256666  153.067810
  0.021402806    0.000000    0.000000    0.000000    0.000000  -90.364703   43.212257   -7.258491  152.829315
  0.021603206    0.000000    0.000000    0.000000    0.000000  -89.881272   40.674145   -7.256602  152.575256
  0.021803607    0.000000    0.000000    0.000000    0.000000  -90.211739   41.804726   -7.258796  152.324478
  0.022004008    0.000000    0.000000    0.000000    0.000000  -90.399513   41.966175   -7.258968  152.082611
  0.022204409    0.000000    0.000000    0.000000    0.000000  -90.641028   41.003269   -7.258483  151.836823
  0.022404810    0.000000    0.000000    0.000000    0.000000  -90.681994   39.766376   -7.261039  151.580109
  0.022605210    0.000000    0.000000    0.000000    0.000000  -90.419655   40.571346   -7.259392  151.322861
  0.022805611    0.000000    0.000000    0.000000    0.000000  -91.001042   38.628334   -7.257542  151.059616
  0.023006012    0.000000    0.000000    0.000000    0.000000  -90.952685   37.956200   -7.256644  150.825607
  0.023206413    0.000000    0.000000    0.000000    0.000000  -91.385827   40.310863   -7.257500  150.574875
  0.023406814    0.000000    0.000000    0.000000    0.000000  -91.034476   33.771923   -7.258465  150.332367
  0.023607214    0.000000    0.000000    0.000000    0.000000  -90.792861   35.450939   -7.261085  150.080307
  0.023807615    0.000000    0.000000    0.000000    0.000000  -91.314467   37.763039   -7.260198  149.839691
  0.024008016    0.000000    0.000000    0.000000    0.000000  -92.018887   33.867527   -7.259355  149.587509
  0.024208417    0.000000    0.000000    0.000000    0.000000  -91.450014   34.379562   -7.258374  149.325089
  0.024408818    0.000000    0.000000    0.000000    0.000000  -91.628972   33.139889   -7.263345  149.081665
  0.024609218    0.000000    0.000000    0.000000    0.000000  -91.553805   31.110983   -7.260718  148.837509
  0.024809619    0.000000    0.000000    0.000000    0.000000  -91.879567   31.859735   -7.261048  148.583298
  0.025010020    0.000000    0.000000    0.000000    0.000000  -92.524072   33.173847   -7.263157  148.338043
  0.025210421    0.000000    0.000000    0.000000    0.000000  -91.959052   28.503815   -7.262847  148.094040
  0.025410822    0.000000    0.000000    0.000000    0.000000  -92.880563   32.806469   -7.261792  147.845612
  0.025611222    0.000000    0.000000    0.000000    0.000000  -92.241202   32.677792   -7.264035  147.594498
  0.025811623    0.000000    0.000000    0.000000    0.000000  -92.801488   31.692949   -7.263611  147.332947
  0.026012024    0.000000    0.000000    0.000000    0.000000  -92.647537   32.263748   -7.266371  147.084320
  0.026212425    0.000000    0.000000    0.000000    0.000000  -92.940482   31.711859   -7.264814  146.831299
  0.026412826    0.000000    0.000000    0.000000    0.000000  -92.698527   33.019527   -7.266611  146.587921
  0.026613226    0.000000    0.000000    0.000000    0.000000  -93.439695   28.411325   -7.263243  146.341370
  0.026813627    0.000000    0.000000    0.000000    0.000000  -93.075626   30.176731   -7.263904  146.082779
  0.027014028    0.000000    0.000000    0.000000    0.000000  -94.142832   27.958868   -7.264572  145.837723
  0.027214429    0.000000    0.000000    0.000000    0.000000  -93.636647   33.187325   -7.265481  145.591324
  0.027414830    0.000000    0.000000    0.000000    0.000000  -93.532149   26.674255   -7.266088  145.342621
  0.027615230    0.000000    0.000000    0.000000    0.000000  -93.249833   23.830141   -7.266671  145.083878
  0.027815631    0.000000    0.000000    0.000000    0.000000  -93.309098   28.405600   -7.268180  144.847824
  0.028016032    0.000000    0.000000    0.000000    0.000000  -93.682135   27.818846   -7.266017  144.586975
  0.028216433    0.000000    0.000000    0.000000    0.000000  -93.257795   27.722357   -7.266753  144.334824
  0.028416834    0.000000    0.000000    0.000000    0.000000  -93.338858   26.722286   -7.267209  144.098526
  0.028617234    0.000000    0.000000    0.000000    0.000000  -93.642466   30.413483   -7.265170  143.823532
  0.028817635    0.000000    0.000000    0.000000    0.000000  -93.571878   28.822769   -7.267548  143.592606
  0.029018036    0.000000    0.000000    0.000000    0.000000  -93.442999   24.411882   -7.265013  143.333878
  0.029218437    0.000000    0.000000    0.000000    0.000000  -94.408818   28.566307   -7.266433  143.086929
  0.029418838    0.000000    0.000000    0.000000    0.000000  -94.045537   23.358246   -7.267105  142.848801
  0.029619238    0.000000    0.000000    0.000000    0.000000  -94.433586   27.292799   -7.265923  142.591599
  0.029819639    0.000000    0.000000    0.000000    0.000000  -93.769201   25.451151   -7.267198  142.354141
  0.030020040    0.000000    0.000000    0.000000    0.000000  -94.569037   25.729380   -7.264927  142.098373
  0.030220441    0.000000    0.000000    0.000000    0.000000  -94.004895   26.957577   -7.265358  141.843979
  0.030420842    0.000000    0.000000    0.000000    0.000000  -94.702396   25.131977   -7.266537  141.605530
  0.030621242    0.000000    0.000000    0.000000    0.000000  -95.085836   28.367058   -7.265897  141.348373
  0.030821643    0.000000    0.000000    0.000000    0.000000  -95.306953   24.162909   -7.266644  141.109283
  0.031022044    0.000000    0.000000    0.000000    0.000000  -95.337895   25.379034   -7.265942  140.851898
  0.031222445    0.000000    0.000000    0.000000    0.000000  -95.015473   21.283873   -7.250406  140.672516
  0.031422846    0.000000    0.000000    0.000000    0.000000  -94.912324   23.624779   -7.249962  140.432495
  0.031623246    0.000000    0.000000    0.000000    0.000000  -94.890401   18.533878   -7.252615  140.183594
  0.031823647    0.000000    0.000000    0.000000    0.000000  -93.768201   21.489784   -7.252239  139.934204
  0.032024048    0.000000    0.000000    0.000000    0.000000  -95.022400   19.612200   -7.253874  139.686874
  0.032224449    0.000000    0.000000    0.000000    0.000000  -95.417589   20.597250   -7.250971  139.433746
  0.032424850    0.000000    0.000000    0.000000    0.000000  -95.796309   27.517166   -7.254373  139.169022
  0.032625250    0.000000    0.000000    0.000000    0.000000  -95.004244   18.197985   -7.255298  138.933411
  0.032825651    0.000000    0.000000    0.000000    0.000000  -95.139493   23.662712   -7.252603  138.687454
  0.033026052    0.000000    0.000000    0.000000    0.000000  -95.336728   24.201401   -7.254221  138.433167
  0.033226453    0.000000    0.000000    0.000000    0.000000  -95.333997   21.644632   -7.253313  138.173874
  0.033426854    0.000000    0.000000    0.000000    0.000000  -95.197439   24.045986   -7.253465  137.930603
  0.033627254    0.000000    0.000000    0.000000    0.000000  -95.616050   19.183292   -7.253884  137.681564
  0.033827655    0.000000    0.000000    0.000000    0.000000  -96.720873   23.358328   -7.253772  137.432205
  0.034028056    0.000000    0.000000    0.000000    0.000000  -95.584392   18.782061   -7.254664  137.174286
  0.034228457    0.000000    0.000000    0.000000    0.000000  -95.926012   21.671215   -7.253839  136.935211
  0.034428858    0.000000    0.000000    0.000000    0.000000  -95.725915   21.092619   -7.253754  136.680862
  0.034629258    0.000000    0.000000    0.000000    0.000000  -95.302451   25.246300   -7.252172  136.432465
  0.034829659    0.000000    0.000000    0.000000    0.000000  -96.626997   21.091051   -7.257124  136.188644
  0.035030060    0.000000    0.000000    0.000000    0.000000  -96.386278   23.139202   -7.253684  135.947647
  0.035230461    0.000000    0.000000    0.000000    0.000000  -96.579514   19.942211   -7.252972  135.703262
  0.035430862    0.000000    0.000000    0.000000    0.000000  -96.807166   25.970232   -7.251176  135.452698
  0.035631262    0.000000    0.000000    0.000000    0.000000  -95.838904   19.898302   -7.252286  135.197952
  0.035831663    0.000000    0.000000    0.000000    0.000000  -96.549458   22.212730   -7.254869  134.949280
  0.036032064    0.000000    0.000000    0.000000    0.000000  -96.230574   20.965174   -7.252814  134.718460
  0.036232465    0.000000    0.000000    0.000000    0.000000  -96.741185   18.602457   -7.252725  134.476059
  0.036432866    0.000000    0.000000    0.000000    0.000000  -97.337611   12.728004   -7.252690  134.217850
  0.036633266    0.000000    0.000000    0.000000    0.000000  -97.230614   16.876108   -7.252475  133.990097
  0.036833667    0.000000    0.000000    0.000000    0.000000  -96.610809   21.685165   -7.252393  133.741028
  0.037034068    0.000000    0.000000    0.000000    0.000000  -95.922563   26.643953   -7.252313  133.494476
  0.037234469    0.000000    0.000000    0.000000    0.000000  -96.375699   17.176126   -7.251192  133.253876
  0.037434870    0.000000    0.000000    0.000000    0.000000  -96.865387   19.954704   -7.252393  133.007095
  0.037635270    0.000000    0.000000    0.000000    0.000000  -97.776430   26.295635   -7.252440  132.757767
  0.037835671    0.000000    0.000000    0.000000    0.000000  -97.362022   24.021717   -7.249878  132.517868
  0.038036072    0.000000    0.000000    0.000000    0.000000  -97.264630   26.003222   -7.252242  132.281097
  0.038236473    0.000000    0.000000    0.000000    0.000000  -98.185623   32.855404   -7.252035  132.020706
  0.038436874    0.000000    0.000000    0.000000    0.000000  -98.112310   25.101898   -7.251169  131.777161
  0.038637274    0.000000    0.000000    0.000000    0.000000  -99.748225   28.048794   -7.251372  131.532867
  0.038837675    0.000000    0.000000    0.000000    0.000000  -98.022151   24.108183   -7.250769  131.277496
  0.039038076    0.000000    0.000000    0.000000    0.000000  -97.986208   23.708218   -7.251929  131.040222
  0.039238477    0.000000    0.000000    0.000000    0.000000  -97.282944   25.513979   -7.251025  130.806839
  0.039438878    0.000000    0.000000    0.000000    0.000000  -98.998148   22.876040   -7.249762  130.572113
  0.039639278    0.000000    0.000000    0.000000    0.000000  -97.853324   24.088037   -7.249391  130.324921
  0.039839679    0.000000    0.000000    0.000000    0.000000  -97.440911   26.778913   -7.249587  130.086792
  0.040040080    0.000000    0.000000    0.000000    0.000000  -97.647885   25.897854   -7.247637  129.846085
  0.040240481    0.000000    0.000000    0.000000    0.000000  -98.006820   21.372501   -7.246918  129.597992
  0.040440882    0.000000    0.000000    0.000000    0.000000  -97.925145   30.340975   -7.246151  129.340485
  0.040641283    0.000000    0.000000    0.000000    0.000000  -99.054081   21.625267   -7.246549  129.102280
  0.040841683    0.000000    0.000000    0.000000    0.000000  -97.732477   20.484198   -7.246767  128.862213
  0.041042084    0.000000    0.000000    0.000000    0.000000 -101.014511   34.622498   -7.245254  128.621429
  0.041242485    0.000000    0.000000    0.000000    0.000000  -98.881400   27.674583   -7.244621  128.372314
  0.041442886    0.000000    0.000000    0.000000    0.000000  -99.765566   21.755821   -7.245625  128.146149
  0.041643287    0.000000    0.000000    0.000000    0.000000  -99.048748   21.697134   -7.245999  127.886971
  0.041843687    0.000000    0.000000    0.000000    0.000000  -98.448401   37.554070   -7.244773  127.649025
  0.042044088    0.000000    0.000000    0.000000    0.000000  -98.981145   22.135372   -7.244153  127.418953
  0.042244489    0.000000    0.000000    0.000000    0.000000  -98.371331   30.099014   -7.245443  127.161263
  0.042444890    0.000000    0.000000    0.000000    0.000000  -98.846070   24.630135   -7.244216  126.921432
  0.042645291    0.000000    0.000000    0.000000    0.000000  -99.064476   37.007492   -7.244520  126.673820
  0.042845691    0.000000    0.000000    0.000000    0.000000  -99.388126   28.333326   -7.244950  126.424973
  0.043046092    0.000000    0.000000    0.000000    0.000000  -99.326037   32.426460   -7.245542  126.177841
  0.043246493    0.000000    0.000000    0.000000    0.000000 -100.832190   26.803314   -7.243064  125.930626
  0.043446894    0.000000    0.000000    0.000000    0.000000  -98.622640   32.082298   -7.245319  125.668907
  0.043647295    0.000000    0.000000    0.000000    0.000000  -99.530800   41.880085   -7.242525  125.437637
  0.043847695    0.000000    0.000000    0.000000    0.000000  -99.028719   29.982170   -7.243364  125.189552
  0.044048096    0.000000    0.000000    0.000000    0.000000 -100.877194   27.456011   -7.243915  124.945351
  0.044248497    0.000000    0.000000    0.000000    0.000000  -98.102790   39.423027   -7.243502  124.712509
  0.044448898    0.000000    0.000000    0.000000    0.000000 -100.264421   18.329882   -7.242884  124.463737
  0.044649299    0.000000    0.000000    0.000000    0.000000  -99.341144   33.967278   -7.243281  124.212959
  0.044849699    0.000000    0.000000    0.000000    0.000000  -99.669775   43.556625   -7.243808  123.959030
  0.045050100    0.000000    0.000000    0.000000    0.000000  -99.531332   22.853579   -7.238829  123.709824
  0.045250501    0.000000    0.000000    0.000000    0.000000  -99.758369   30.597267   -7.237610  123.456177
  0.045450902    0.000000    0.000000    0.000000    0.000000  -99.765122   27.208961   -7.237063  123.193649
  0.045651303    0.000000    0.000000    0.000000    0.000000 -100.993111   35.790989   -7.237273  122.955292
  0.045851703    0.000000    0.000000    0.000000    0.000000  -99.493966   33.343819   -7.241745  122.729179
  0.046052104    0.000000    0.000000    0.000000    0.000000 -100.207061   37.549946   -7.240771  122.484459
  0.046252505    0.000000    0.000000    0.000000    0.000000  -98.870121   35.514378   -7.239166  122.223465
  0.046452906    0.000000    0.000000    0.000000    0.000000  -99.348761   34.568718   -7.240664  121.985413
  0.046653307    0.000000    0.000000    0.000000    0.000000 -101.507541   29.987215   -7.239382  121.728203
  0.046853707    0.000000    0.000000    0.000000    0.000000  -99.779693   26.701799   -7.237544  121.481728
  0.047054108    0.000000    0.000000    0.000000    0.000000  -99.842300   38.336189   -7.238119  121.242729
  0.047254509    0.000000    0.000000    0.000000    0.000000  -99.329660   42.556923   -7.236096  120.998314
  0.047454910    0.000000    0.000000    0.000000    0.000000  -98.337987   28.513977   -7.235378  120.749641
  0.047655311    0.000000    0.000000    0.000000    0.000000  -99.697243   36.303478   -7.233601  120.496780
  0.047855711    0.000000    0.000000    0.000000    0.000000  -98.380652   36.596828   -7.233589  120.256927
  0.048056112    0.000000    0.000000    0.000000    0.000000  -99.396864   30.735060   -7.234181  120.004761
  0.048256513    0.000000    0.000000    0.000000    0.000000  -99.640306   28.314672   -7.231806  119.754608
  0.048456914    0.000000    0.000000    0.000000    0.000000  -98.650526   29.045332   -7.232064  119.513680
  0.048657315    0.000000    0.000000    0.000000    0.000000  -99.712034   40.532639   -7.231740  119.271606
  0.048857715    0.000000    0.000000    0.000000    0.000000  -98.880322   33.829727   -7.231293  119.023193
  0.049058116    0.000000    0.000000    0.000000    0.000000  -99.838852   24.835585   -7.232819  118.779243
  0.049258517    0.000000    0.000000    0.000000    0.000000  -99.888478   23.132227   -7.232931  118.541359
  0.049458918    0.000000    0.000000    0.000000    0.000000  -99.425570   27.826359   -7.227179  118.291252
  0.049659319    0.000000    0.000000    0.000000    0.000000 -100.555558   32.903404   -7.228562  118.031471
  0.049859719    0.000000    0.000000    0.000000    0.000000  -98.491946   34.052677   -7.229545  117.809700
  0.050060120    0.000000    0.000000    0.000000    0.000000  -99.566921   26.945486   -7.227527  117.566406
  0.050260521    0.000000    0.000000    0.000000    0.000000  -99.163789   37.830910   -7.226164  117.319168
  0.050460922    0.000000    0.000000    0.000000    0.000000  -99.131831   26.946720   -7.227152  117.061859
  0.050661323    0.000000    0.000000    0.000000    0.000000  -99.680701   36.394768   -7.227297  116.829567
  0.050861723    0.000000    0.000000    0.000000    0.000000  -99.033350   30.213358   -7.225926  116.575645
  0.051062124    0.000000    0.000000    0.000000    0.000000  -97.830635   41.565426   -7.225494  116.327209
  0.051262525    0.000000    0.000000    0.000000    0.000000  -99.030513   28.927736   -7.222894  116.081261
  0.051462926    0.000000    0.000000    0.000000    0.000000  -98.113083   30.849413   -7.223093  115.861290
  0.051663327    0.000000    0.000000    0.000000    0.000000  -98.525869   42.044113   -7.222873  115.603615
  0.051863727    0.000000    0.000000    0.000000    0.000000  -98.510303   29.206917   -7.221738  115.354424
  0.052064128    0.000000    0.000000    0.000000    0.000000  -99.652499   31.764484   -7.221272  115.113396
  0.052264529    0.000000    0.000000    0.000000    0.000000 -100.638643   49.881596   -7.220914  114.878700
  0.052464930    0.000000    0.000000    0.000000    0.000000  -98.516582   36.544186   -7.220700  114.636375
  0.052665331    0.000000    0.000000    0.000000    0.000000  -99.938943   31.092554   -7.219124  114.385841
  0.052865731    0.000000    0.000000    0.000000    0.000000  -99.899552   37.259426   -7.218501  114.134666
