! Anritsu VNA Master:                     Model: MS2036C/10/77
! SN:                                  1601066
! /bd0/18may10/top200.s2p
! Existing Calibration Information:
! TYPE:                         Current Settings,       Active Cal Settings
! TIME:             	   05/10/2018 01:11:43 PM,    05/10/2018 01:05:27 PM
! INTERNAL TEMP:    	                   51.0 C,                    49.8 C
! # POINTS:         	                      492,                       492
! START FREQ:       	               20.000 MHz,                20.000 MHz
! STOP FREQ:        	          118.396 793 MHz,           118.396 793 MHz
! SOURCE POWER:     	                     High,                      High
! IFBW:             	                    50 Hz,                     50 Hz
! AVG FACTOR:       	                       1 ,                        1 
! REF PLANE 1:      	                     0 mm,                      0 mm
! REF PLANE 2:      	                     0 mm,                      0 mm
! CAL TYPE:         	                 Full S22,                  Full S22
! CAL METHOD:       	                     SOLT,                      SOLT
! CAL LINE TYPE:    	                     Coax,                      Coax
! DUT PORT 1:       	                K-Conn(M),                 K-Conn(M)
! DUT PORT 2:       	                K-Conn(M),                 K-Conn(M)
! CAL STATUS:       	        OK: Accuracy High,                        --
# GHZ S DB R 50.0
! FREQ.GHZ       S11DB        S11A       S21DB        S21A       S12DB        S12A       S22DB        S22A
  0.020000000    0.000000    0.000000    0.000000    0.000000  -90.051093   39.788792   -4.562744  -22.289967
  0.020200401    0.000000    0.000000    0.000000    0.000000  -90.634991   36.416412   -4.561681  -22.515934
  0.020400802    0.000000    0.000000    0.000000    0.000000  -90.532671   37.958092   -4.558289  -22.748798
  0.020601202    0.000000    0.000000    0.000000    0.000000  -90.787376   39.541973   -4.561826  -22.973173
  0.020801603    0.000000    0.000000    0.000000    0.000000  -90.326916   42.319107   -4.560775  -23.204836
  0.021002004    0.000000    0.000000    0.000000    0.000000  -91.060241   36.344776   -4.559906  -23.415197
  0.021202405    0.000000    0.000000    0.000000    0.000000  -91.002671   31.590475   -4.561724  -23.657400
  0.021402806    0.000000    0.000000    0.000000    0.000000  -90.756956   35.209244   -4.559960  -23.885666
  0.021603206    0.000000    0.000000    0.000000    0.000000  -92.236127   37.542267   -4.560307  -24.112722
  0.021803607    0.000000    0.000000    0.000000    0.000000  -91.443140   35.301094   -4.560504  -24.343262
  0.022004008    0.000000    0.000000    0.000000    0.000000  -91.826194   38.144314   -4.562254  -24.569868
  0.022204409    0.000000    0.000000    0.000000    0.000000  -91.728932   39.057720   -4.562898  -24.795197
  0.022404810    0.000000    0.000000    0.000000    0.000000  -91.784313   34.554554   -4.560038  -25.024406
  0.022605210    0.000000    0.000000    0.000000    0.000000  -91.816679   34.305782   -4.559621  -25.253244
  0.022805611    0.000000    0.000000    0.000000    0.000000  -91.674477   31.741562   -4.561611  -25.483084
  0.023006012    0.000000    0.000000    0.000000    0.000000  -91.880152   35.518898   -4.564451  -25.706596
  0.023206413    0.000000    0.000000    0.000000    0.000000  -92.078747   34.409618   -4.563871  -25.940290
  0.023406814    0.000000    0.000000    0.000000    0.000000  -92.571354   30.056377   -4.564138  -26.160423
  0.023607214    0.000000    0.000000    0.000000    0.000000  -92.153077   32.017418   -4.564221  -26.386766
  0.023807615    0.000000    0.000000    0.000000    0.000000  -92.754143   34.720657   -4.562661  -26.628613
  0.024008016    0.000000    0.000000    0.000000    0.000000  -92.448494   34.757175   -4.564980  -26.854954
  0.024208417    0.000000    0.000000    0.000000    0.000000  -92.855004   33.290699   -4.566602  -27.077776
  0.024408818    0.000000    0.000000    0.000000    0.000000  -92.944790   32.046009   -4.565772  -27.298662
  0.024609218    0.000000    0.000000    0.000000    0.000000  -92.839794   33.142338   -4.565707  -27.529140
  0.024809619    0.000000    0.000000    0.000000    0.000000  -92.891759   29.958071   -4.567392  -27.756750
  0.025010020    0.000000    0.000000    0.000000    0.000000  -92.974504   33.387295   -4.569191  -27.981920
  0.025210421    0.000000    0.000000    0.000000    0.000000  -93.404272   30.678337   -4.567485  -28.205379
  0.025410822    0.000000    0.000000    0.000000    0.000000  -93.337686   31.410633   -4.568604  -28.434671
  0.025611222    0.000000    0.000000    0.000000    0.000000  -93.976778   33.333340   -4.568268  -28.657845
  0.025811623    0.000000    0.000000    0.000000    0.000000  -93.027579   30.997263   -4.569949  -28.881613
  0.026012024    0.000000    0.000000    0.000000    0.000000  -93.752728   32.109966   -4.569371  -29.112524
  0.026212425    0.000000    0.000000    0.000000    0.000000  -93.622737   36.551941   -4.572568  -29.344135
  0.026412826    0.000000    0.000000    0.000000    0.000000  -93.914664   31.979311   -4.570938  -29.559040
  0.026613226    0.000000    0.000000    0.000000    0.000000  -93.476248   33.111263   -4.573067  -29.819138
  0.026813627    0.000000    0.000000    0.000000    0.000000  -94.019965   30.172281   -4.572789  -30.033091
  0.027014028    0.000000    0.000000    0.000000    0.000000  -93.966267   36.226280   -4.571400  -30.272850
  0.027214429    0.000000    0.000000    0.000000    0.000000  -94.323296   30.640837   -4.573601  -30.496798
  0.027414830    0.000000    0.000000    0.000000    0.000000  -94.923771   29.858547   -4.575627  -30.719440
  0.027615230    0.000000    0.000000    0.000000    0.000000  -94.250674   32.094860   -4.574461  -30.946037
  0.027815631    0.000000    0.000000    0.000000    0.000000  -94.450104   28.332205   -4.575655  -31.173677
  0.028016032    0.000000    0.000000    0.000000    0.000000  -94.020641   31.181948   -4.576456  -31.401712
  0.028216433    0.000000    0.000000    0.000000    0.000000  -94.478432   26.166433   -4.576421  -31.626720
  0.028416834    0.000000    0.000000    0.000000    0.000000  -94.963719   33.657730   -4.577690  -31.859446
  0.028617234    0.000000    0.000000    0.000000    0.000000  -95.161100   30.357466   -4.579347  -32.087551
  0.028817635    0.000000    0.000000    0.000000    0.000000  -95.327038   28.596956   -4.578271  -32.312851
  0.029018036    0.000000    0.000000    0.000000    0.000000  -94.629943   28.537022   -4.577451  -32.541451
  0.029218437    0.000000    0.000000    0.000000    0.000000  -94.992588   26.557795   -4.578592  -32.765526
  0.029418838    0.000000    0.000000    0.000000    0.000000  -94.892637   31.554787   -4.578810  -32.998772
  0.029619238    0.000000    0.000000    0.000000    0.000000  -94.639897   29.775105   -4.580089  -33.230156
  0.029819639    0.000000    0.000000    0.000000    0.000000  -94.655228   29.615877   -4.579411  -33.470562
  0.030020040    0.000000    0.000000    0.000000    0.000000  -94.512694   31.190777   -4.579818  -33.683472
  0.030220441    0.000000    0.000000    0.000000    0.000000  -96.007904   26.201244   -4.581254  -33.920094
  0.030420842    0.000000    0.000000    0.000000    0.000000  -94.729025   25.604332   -4.580911  -34.151016
  0.030621242    0.000000    0.000000    0.000000    0.000000  -95.100958   30.735588   -4.581866  -34.368404
  0.030821643    0.000000    0.000000    0.000000    0.000000  -96.158002   31.160429   -4.582907  -34.594944
  0.031022044    0.000000    0.000000    0.000000    0.000000  -95.314880   31.986465   -4.582441  -34.826363
  0.031222445    0.000000    0.000000    0.000000    0.000000  -95.357483   24.578321   -4.575254  -35.007885
  0.031422846    0.000000    0.000000    0.000000    0.000000  -95.563497   25.818150   -4.577286  -35.247364
  0.031623246    0.000000    0.000000    0.000000    0.000000  -96.315887   22.658710   -4.577314  -35.477173
  0.031823647    0.000000    0.000000    0.000000    0.000000  -95.629570   30.182398   -4.578486  -35.701351
  0.032024048    0.000000    0.000000    0.000000    0.000000  -95.765007   31.299604   -4.580293  -35.943405
  0.032224449    0.000000    0.000000    0.000000    0.000000  -95.759302   28.977415   -4.580259  -36.159985
  0.032424850    0.000000    0.000000    0.000000    0.000000  -97.259520   19.158001   -4.579097  -36.384220
  0.032625250    0.000000    0.000000    0.000000    0.000000  -94.789254   28.618652   -4.582445  -36.620747
  0.032825651    0.000000    0.000000    0.000000    0.000000  -96.586771   26.942341   -4.581478  -36.846672
  0.033026052    0.000000    0.000000    0.000000    0.000000  -96.677900   30.031139   -4.582921  -37.060642
  0.033226453    0.000000    0.000000    0.000000    0.000000  -95.795017   25.906395   -4.583189  -37.300156
  0.033426854    0.000000    0.000000    0.000000    0.000000  -96.159866   31.773720   -4.584473  -37.525509
  0.033627254    0.000000    0.000000    0.000000    0.000000  -95.898854   24.994549   -4.585625  -37.758053
  0.033827655    0.000000    0.000000    0.000000    0.000000  -95.843182   25.628555   -4.584294  -37.987366
  0.034028056    0.000000    0.000000    0.000000    0.000000  -95.976673   22.438496   -4.587074  -38.217907
  0.034228457    0.000000    0.000000    0.000000    0.000000  -96.328191   25.642576   -4.588276  -38.443665
  0.034428858    0.000000    0.000000    0.000000    0.000000  -96.211877   30.745943   -4.587054  -38.681034
  0.034629258    0.000000    0.000000    0.000000    0.000000  -95.903488   29.870588   -4.588897  -38.895622
  0.034829659    0.000000    0.000000    0.000000    0.000000  -97.507111   32.917004   -4.587812  -39.133827
  0.035030060    0.000000    0.000000    0.000000    0.000000  -96.772551   31.068624   -4.588802  -39.368797
  0.035230461    0.000000    0.000000    0.000000    0.000000  -97.347091   27.294086   -4.590514  -39.594299
  0.035430862    0.000000    0.000000    0.000000    0.000000  -96.107136   27.798439   -4.590716  -39.822571
  0.035631262    0.000000    0.000000    0.000000    0.000000  -96.302015   25.163763   -4.590840  -40.051437
  0.035831663    0.000000    0.000000    0.000000    0.000000  -96.759442   32.851303   -4.591703  -40.278587
  0.036032064    0.000000    0.000000    0.000000    0.000000  -96.738252   22.146599   -4.593550  -40.503269
  0.036232465    0.000000    0.000000    0.000000    0.000000  -97.075080   25.043106   -4.593221  -40.725807
  0.036432866    0.000000    0.000000    0.000000    0.000000  -96.371279   24.653654   -4.594508  -40.963089
  0.036633266    0.000000    0.000000    0.000000    0.000000  -97.979432   27.977793   -4.593771  -41.183544
  0.036833667    0.000000    0.000000    0.000000    0.000000  -97.244761   25.671051   -4.596010  -41.415012
  0.037034068    0.000000    0.000000    0.000000    0.000000  -96.792557   27.167055   -4.595128  -41.629906
  0.037234469    0.000000    0.000000    0.000000    0.000000  -96.467617   25.330620   -4.594352  -41.853413
  0.037434870    0.000000    0.000000    0.000000    0.000000  -97.415188   30.886372   -4.595982  -42.075611
  0.037635270    0.000000    0.000000    0.000000    0.000000  -97.048066   22.402042   -4.598314  -42.298935
  0.037835671    0.000000    0.000000    0.000000    0.000000  -97.736120   26.744253   -4.598963  -42.537556
  0.038036072    0.000000    0.000000    0.000000    0.000000  -96.869779   32.767284   -4.597185  -42.763371
  0.038236473    0.000000    0.000000    0.000000    0.000000  -96.345648   26.748529   -4.599779  -42.989006
  0.038436874    0.000000    0.000000    0.000000    0.000000  -97.470141   28.388260   -4.600528  -43.217125
  0.038637274    0.000000    0.000000    0.000000    0.000000  -97.978154   20.705139   -4.600564  -43.444897
  0.038837675    0.000000    0.000000    0.000000    0.000000  -96.650770   27.101475   -4.601063  -43.659775
  0.039038076    0.000000    0.000000    0.000000    0.000000  -98.031116   32.177246   -4.602343  -43.897549
  0.039238477    0.000000    0.000000    0.000000    0.000000  -97.197472   34.566750   -4.603044  -44.125725
  0.039438878    0.000000    0.000000    0.000000    0.000000  -96.994901   26.990118   -4.603468  -44.345547
  0.039639278    0.000000    0.000000    0.000000    0.000000  -97.082920   28.090313   -4.603377  -44.574490
  0.039839679    0.000000    0.000000    0.000000    0.000000  -98.246466   27.625433   -4.602978  -44.796825
  0.040040080    0.000000    0.000000    0.000000    0.000000  -97.428724   28.743547   -4.604493  -45.017624
  0.040240481    0.000000    0.000000    0.000000    0.000000  -97.678879   30.024832   -4.606454  -45.237339
  0.040440882    0.000000    0.000000    0.000000    0.000000  -96.951155   22.979368   -4.605805  -45.456200
  0.040641283    0.000000    0.000000    0.000000    0.000000  -96.910157   28.669405   -4.606599  -45.688984
  0.040841683    0.000000    0.000000    0.000000    0.000000  -97.484366   33.481190   -4.607564  -45.905174
  0.041042084    0.000000    0.000000    0.000000    0.000000  -99.614245   35.157444   -4.607174  -46.141773
  0.041242485    0.000000    0.000000    0.000000    0.000000  -97.045847   31.471575   -4.609666  -46.360226
  0.041442886    0.000000    0.000000    0.000000    0.000000  -96.964223   22.843843   -4.607994  -46.590736
  0.041643287    0.000000    0.000000    0.000000    0.000000  -97.834512   26.601595   -4.609183  -46.815800
  0.041843687    0.000000    0.000000    0.000000    0.000000  -98.190920   28.981066   -4.609012  -47.051384
  0.042044088    0.000000    0.000000    0.000000    0.000000  -97.212139   30.809641   -4.611298  -47.279572
  0.042244489    0.000000    0.000000    0.000000    0.000000  -97.603675   27.125055   -4.611036  -47.512142
  0.042444890    0.000000    0.000000    0.000000    0.000000  -97.697032   34.531097   -4.612356  -47.741722
  0.042645291    0.000000    0.000000    0.000000    0.000000  -98.728162   30.205057   -4.612780  -47.963799
  0.042845691    0.000000    0.000000    0.000000    0.000000  -98.561338   26.627758   -4.612607  -48.186821
  0.043046092    0.000000    0.000000    0.000000    0.000000  -98.664538   33.403545   -4.613252  -48.423805
  0.043246493    0.000000    0.000000    0.000000    0.000000  -98.879127   23.692154   -4.613930  -48.655098
  0.043446894    0.000000    0.000000    0.000000    0.000000  -97.679691   28.241169   -4.615109  -48.880913
  0.043647295    0.000000    0.000000    0.000000    0.000000  -98.305538   27.291265   -4.616266  -49.111046
  0.043847695    0.000000    0.000000    0.000000    0.000000  -99.851928   36.513458   -4.618237  -49.338264
  0.044048096    0.000000    0.000000    0.000000    0.000000  -96.992594   31.073399   -4.616601  -49.586502
  0.044248497    0.000000    0.000000    0.000000    0.000000  -97.137954   30.123232   -4.617298  -49.805801
  0.044448898    0.000000    0.000000    0.000000    0.000000  -98.105911   28.288473   -4.618464  -50.041191
  0.044649299    0.000000    0.000000    0.000000    0.000000  -97.911308   29.695065   -4.618978  -50.272041
  0.044849699    0.000000    0.000000    0.000000    0.000000  -98.443703   25.042242   -4.618142  -50.513157
  0.045050100    0.000000    0.000000    0.000000    0.000000  -98.801932   34.853199   -4.620317  -50.752651
  0.045250501    0.000000    0.000000    0.000000    0.000000  -98.162342   23.769785   -4.620084  -50.975582
  0.045450902    0.000000    0.000000    0.000000    0.000000  -97.969813   33.465874   -4.621379  -51.208092
  0.045651303    0.000000    0.000000    0.000000    0.000000  -99.018571   30.038889   -4.622965  -51.447365
  0.045851703    0.000000    0.000000    0.000000    0.000000  -98.312230   27.756607   -4.624099  -51.675102
  0.046052104    0.000000    0.000000    0.000000    0.000000  -99.092941   33.307259   -4.624367  -51.909397
  0.046252505    0.000000    0.000000    0.000000    0.000000  -98.085262   27.516178   -4.623772  -52.132061
  0.046452906    0.000000    0.000000    0.000000    0.000000  -98.969045   28.093550   -4.626053  -52.370190
  0.046653307    0.000000    0.000000    0.000000    0.000000  -98.356121   31.816250   -4.624993  -52.601936
  0.046853707    0.000000    0.000000    0.000000    0.000000  -98.685979   31.375795   -4.625140  -52.842304
  0.047054108    0.000000    0.000000    0.000000    0.000000  -99.295264   26.994846   -4.626007  -53.076523
  0.047254509    0.000000    0.000000    0.000000    0.000000  -98.986095   26.148394   -4.626259  -53.317101
  0.047454910    0.000000    0.000000    0.000000    0.000000  -98.791614   25.333616   -4.626891  -53.542717
  0.047655311    0.000000    0.000000    0.000000    0.000000  -98.163724   29.635607   -4.627723  -53.785744
  0.047855711    0.000000    0.000000    0.000000    0.000000  -99.423006   34.694622   -4.627755  -54.015491
  0.048056112    0.000000    0.000000    0.000000    0.000000  -98.336245   31.294861   -4.628832  -54.238049
  0.048256513    0.000000    0.000000    0.000000    0.000000  -99.219899   26.901493   -4.631677  -54.474506
  0.048456914    0.000000    0.000000    0.000000    0.000000 -100.474726   25.745371   -4.630197  -54.707165
  0.048657315    0.000000    0.000000    0.000000    0.000000  -99.034826   31.152777   -4.630729  -54.940624
  0.048857715    0.000000    0.000000    0.000000    0.000000  -99.519526   30.529528   -4.630794  -55.169167
  0.049058116    0.000000    0.000000    0.000000    0.000000  -99.369505   30.951511   -4.632056  -55.422001
  0.049258517    0.000000    0.000000    0.000000    0.000000  -98.088236   36.013142   -4.631421  -55.649567
  0.049458918    0.000000    0.000000    0.000000    0.000000 -100.098171   30.250120   -4.632001  -55.873188
  0.049659319    0.000000    0.000000    0.000000    0.000000  -99.486137   26.815575   -4.634396  -56.099846
  0.049859719    0.000000    0.000000    0.000000    0.000000  -99.439161   22.614460   -4.632559  -56.342983
  0.050060120    0.000000    0.000000    0.000000    0.000000  -97.855394   28.509232   -4.636200  -56.577759
  0.050260521    0.000000    0.000000    0.000000    0.000000  -98.395242   30.703384   -4.635228  -56.807129
  0.050460922    0.000000    0.000000    0.000000    0.000000  -98.380212   23.383278   -4.634800  -57.035858
  0.050661323    0.000000    0.000000    0.000000    0.000000  -98.956073   31.362965   -4.636299  -57.266949
  0.050861723    0.000000    0.000000    0.000000    0.000000  -98.722784   30.341784   -4.635724  -57.498478
  0.051062124    0.000000    0.000000    0.000000    0.000000  -99.101292   29.393118   -4.638618  -57.723595
  0.051262525    0.000000    0.000000    0.000000    0.000000  -99.761384   27.072515   -4.638822  -57.967960
  0.051462926    0.000000    0.000000    0.000000    0.000000  -99.835881   30.249855   -4.637386  -58.206768
  0.051663327    0.000000    0.000000    0.000000    0.000000  -98.087303   20.960730   -4.639816  -58.418438
  0.051863727    0.000000    0.000000    0.000000    0.000000  -98.300452   31.380318   -4.640178  -58.655117
  0.052064128    0.000000    0.000000    0.000000    0.000000  -98.514919   24.147682   -4.641092  -58.894951
  0.052264529    0.000000    0.000000    0.000000    0.000000  -99.603438   24.332264   -4.640788  -59.130852
  0.052464930    0.000000    0.000000    0.000000    0.000000  -98.553838   31.985270   -4.640320  -59.368488
  0.052665331    0.000000    0.000000    0.000000    0.000000  -98.838030   33.007988   -4.640277  -59.595158
  0.052865731    0.000000    0.000000    0.000000    0.000000  -97.454781   27.003593   -4.640932  -59.825844
