! Anritsu VNA Master:                     Model: MS2036C/10/77
! SN:                                  1601066
! /bd0/18may23.rg316.s11.pre.field/18may23.24.balun/20m.cable.s2p
! Existing Calibration Information:
! TYPE:                         Current Settings,       Active Cal Settings
! TIME:             	   05/23/2018 05:16:03 PM,    05/23/2018 05:06:53 PM
! INTERNAL TEMP:    	                   47.0 C,                    47.3 C
! # POINTS:         	                      500,                       500
! START FREQ:       	               20.000 MHz,                20.000 MHz
! STOP FREQ:        	              120.000 MHz,               120.000 MHz
! SOURCE POWER:     	                     High,                      High
! IFBW:             	                    50 Hz,                     50 Hz
! AVG FACTOR:       	                       1 ,                        1 
! REF PLANE 1:      	                     0 mm,                      0 mm
! REF PLANE 2:      	                     0 mm,                      0 mm
! CAL TYPE:         	              Full 2 Port,               Full 2 Port
! CAL METHOD:       	                     SOLT,                      SOLT
! CAL LINE TYPE:    	                     Coax,                      Coax
! DUT PORT 1:       	                K-Conn(M),                 K-Conn(M)
! DUT PORT 2:       	                K-Conn(M),                 K-Conn(M)
! CAL STATUS:       	        OK: Accuracy High,                        --
# GHZ S DB R 50.0
! FREQ.GHZ       S11DB        S11A       S21DB        S21A       S12DB        S12A       S22DB        S22A
  0.020000000  -41.027748  142.175568   -0.997909   33.307774   -1.008273   33.256954  -39.948108  153.434464
  0.020200401  -41.712987  133.237549   -1.006364   26.449478   -1.012788   26.414410  -40.886806  142.061691
  0.020400802  -42.322341  124.006058   -1.013067   19.598354   -1.017479   19.576513  -42.154663  129.659485
  0.020601202  -43.301681  113.186752   -1.017977   12.758643   -1.022333   12.734689  -43.355776  116.636162
  0.020801603  -44.239389  100.580597   -1.024703    5.907573   -1.026653    5.891634  -44.630125  100.441345
  0.021002004  -45.298480   85.330513   -1.030024   -0.939933   -1.031931   -0.951826  -45.698236   81.079521
  0.021202405  -46.230279   68.233772   -1.034902   -7.794230   -1.037310   -7.801031  -46.663438   59.303036
  0.021402806  -47.002707   49.396381   -1.040008  -14.648415   -1.043788  -14.653664  -46.904476   37.010391
  0.021603206  -47.511396   28.312174   -1.044641  -21.499578   -1.048273  -21.509295  -46.400949   12.928429
  0.021803607  -47.083398    7.974552   -1.048046  -28.347897   -1.052586  -28.367958  -45.668584   -5.321163
  0.022004008  -46.517736  -11.789043   -1.053586  -35.203709   -1.057643  -35.207069  -44.671374  -21.867741
  0.022204409  -45.759553  -28.008358   -1.056110  -42.044052   -1.061273  -42.060211  -43.993391  -36.874146
  0.022404810  -44.645207  -44.147060   -1.061422  -48.877300   -1.064130  -48.905548  -43.110823  -48.995541
  0.022605210  -43.902743  -56.290081   -1.066760  -55.718323   -1.070173  -55.737793  -42.463063  -59.643116
  0.022805611  -42.958192  -68.407593   -1.071152  -62.556946   -1.074194  -62.570122  -42.050135  -69.325447
  0.023006012  -42.291869  -76.415886   -1.075990  -69.389862   -1.079300  -69.406815  -41.797897  -78.736191
  0.023206413  -41.715260  -86.168800   -1.081688  -76.233086   -1.084456  -76.255280  -41.594103  -88.477890
  0.023406814  -41.316174  -93.887100   -1.085797  -83.084808   -1.089595  -83.108589  -41.572795  -95.732094
  0.023607214  -40.880150 -101.898117   -1.092475  -89.940201   -1.096171  -89.949905  -41.943724 -104.175224
  0.023807615  -40.778926 -110.894073   -1.097180  -96.789162   -1.101302  -96.789581  -42.104944 -112.866783
  0.024008016  -40.558753 -116.806618   -1.101166 -103.639290   -1.105030 -103.639053  -42.748677 -119.489395
  0.024208417  -40.537837 -123.758110   -1.104764 -110.477036   -1.109422 -110.493729  -43.588198 -126.906174
  0.024408818  -40.618169 -129.856735   -1.108385 -117.323242   -1.113917 -117.334183  -44.490430 -133.872986
  0.024609218  -40.682825 -136.145813   -1.113761 -124.159286   -1.117251 -124.175949  -46.059576 -138.338821
  0.024809619  -40.907083 -140.632523   -1.119048 -130.997849   -1.122392 -131.002686  -47.998285 -144.651611
  0.025010020  -41.196558 -145.877106   -1.123136 -137.829330   -1.127226 -137.834641  -50.997626 -146.053680
  0.025210421  -41.612668 -150.262268   -1.128625 -144.662949   -1.132732 -144.673752  -54.748244 -137.952164
  0.025410822  -41.881686 -153.657669   -1.135435 -151.501007   -1.137402 -151.521378  -59.640381 -101.956421
  0.025611222  -42.423731 -156.227005   -1.140070 -158.347855   -1.142523 -158.362244  -56.047058  -47.956486
  0.025811623  -43.033781 -159.040649   -1.144719 -165.198624   -1.147421 -165.211823  -51.218334  -36.166344
  0.026012024  -43.366509 -159.635757   -1.150104 -172.054092   -1.152959 -172.061768  -47.832763  -35.980000
  0.026212425  -44.033700 -159.630386   -1.154287 -178.902756   -1.156133 -178.910004  -45.274163  -39.677235
  0.026412826  -44.344871 -157.260239   -1.158228  174.243484   -1.160322  174.239548  -43.314334  -45.049015
  0.026613226  -44.597185 -155.225693   -1.161287  167.406952   -1.165079  167.391830  -41.823415  -50.284859
  0.026813627  -44.663856 -153.414566   -1.166162  160.573151   -1.167599  160.553116  -40.564823  -57.115799
  0.027014028  -44.626317 -151.056381   -1.170560  153.730209   -1.171243  153.720367  -39.448391  -63.310841
  0.027214429  -44.387664 -148.552429   -1.175421  146.901550   -1.177493  146.881195  -38.727850  -70.117409
  0.027414830  -44.014472 -146.602585   -1.181322  140.050262   -1.180964  140.042740  -38.016639  -76.947098
  0.027615230  -43.514289 -146.091400   -1.185416  133.214020   -1.185340  133.196518  -37.533300  -83.654442
  0.027815631  -43.005418 -147.876938   -1.191632  126.369522   -1.189867  126.352295  -37.153360  -91.403343
  0.028016032  -42.561869 -148.590729   -1.195719  119.522942   -1.194613  119.512611  -36.776369  -98.046013
  0.028216433  -42.116864 -151.504608   -1.200159  112.672768   -1.199112  112.665245  -36.576623 -104.819733
  0.028416834  -41.769103 -153.709808   -1.205566  105.816673   -1.203619  105.811058  -36.557115 -112.597672
  0.028617234  -41.299062 -158.073883   -1.209323   98.962761   -1.208139   98.962395  -36.628391 -119.407486
  0.028817635  -41.105554 -160.112762   -1.212974   92.127747   -1.212323   92.119095  -36.716808 -126.608704
  0.029018036  -40.896333 -164.628113   -1.216526   85.285614   -1.216740   85.282661  -37.053122 -133.940002
  0.029218437  -40.878540 -168.517410   -1.221052   78.446953   -1.220516   78.440887  -37.301090 -141.274582
  0.029418838  -40.832842 -173.480194   -1.226433   71.608932   -1.225335   71.606407  -37.859544 -148.463226
  0.029619238  -40.840034 -177.114410   -1.230264   64.767563   -1.230115   64.765320  -38.500382 -155.986603
  0.029819639  -41.032514  178.667862   -1.234938   57.926418   -1.234565   57.920006  -39.311269 -164.058365
  0.030020040  -41.226563  175.096436   -1.239983   51.081745   -1.239155   51.080036  -40.351303 -172.031113
  0.030220441  -41.538561  170.934219   -1.245271   44.227509   -1.244394   44.235348  -41.632388  179.032730
  0.030420842  -41.882407  168.567474   -1.249157   37.372704   -1.249330   37.388645  -43.356032  169.606293
  0.030621242  -42.403912  164.978485   -1.254022   30.522385   -1.253937   30.532200  -45.585978  159.566483
  0.030821643  -42.964786  163.051849   -1.256851   23.680548   -1.258033   23.685850  -48.518171  144.553802
  0.031022044  -43.745229  162.136917   -1.258967   16.836882   -1.261415   16.839554  -53.010716  118.730652
  0.031222445  -44.282988  161.873047   -1.258731   10.018493   -1.260349   10.026229  -56.498645   63.493855
  0.031422846  -44.901814  162.060944   -1.262255    3.189397   -1.264311    3.192529  -52.469596    8.172890
  0.031623246  -45.630359  165.088150   -1.267072   -3.651901   -1.268954   -3.647830  -48.345022  -15.271010
  0.031823647  -45.985172  167.019714   -1.270916  -10.480985   -1.272673  -10.485422  -45.417119  -28.576189
  0.032024048  -46.209235  171.345093   -1.275371  -17.318142   -1.276178  -17.322239  -43.022744  -40.395863
  0.032224449  -46.246048  175.989365   -1.280244  -24.163038   -1.281213  -24.155279  -41.286352  -49.963253
  0.032424850  -45.803368  179.133987   -1.283585  -31.012989   -1.286867  -31.000576  -40.111326  -58.905575
  0.032625251  -45.639671 -177.884628   -1.289751  -37.856113   -1.291654  -37.850464  -39.036724  -66.536407
  0.032825651  -44.983028 -176.438583   -1.294143  -44.702435   -1.297129  -44.691978  -38.133749  -74.066360
  0.033026052  -44.367702 -176.777451   -1.298094  -51.552334   -1.301754  -51.541325  -37.460135  -81.920959
  0.033226453  -43.886828 -178.713593   -1.299584  -58.395721   -1.306223  -58.376965  -36.869947  -89.335381
  0.033426854  -43.309890  178.739090   -1.303960  -65.229622   -1.308469  -65.219856  -36.523638  -96.327232
  0.033627255  -42.942053  175.663208   -1.309064  -72.065285   -1.312434  -72.052620  -36.149903 -103.672874
  0.033827655  -42.633776  173.069733   -1.311603  -78.903114   -1.316866  -78.889992  -36.044247 -110.508530
  0.034028056  -42.392373  168.136261   -1.316004  -85.739594   -1.320919  -85.731430  -35.936555 -117.749496
  0.034228457  -42.322931  164.866348   -1.319495  -92.585358   -1.324185  -92.558266  -36.016714 -124.602882
  0.034428858  -42.198608  160.059738   -1.324646  -99.420280   -1.328608  -99.402214  -36.187426 -130.792938
  0.034629259  -42.112564  156.045944   -1.328992 -106.269669   -1.333978 -106.241554  -36.446540 -137.622894
  0.034829659  -42.425869  151.149918   -1.333753 -113.112595   -1.338726 -113.082199  -36.868956 -144.635788
  0.035030060  -42.783437  145.595566   -1.339221 -119.949036   -1.342459 -119.928711  -37.366912 -151.224869
  0.035230461  -43.125560  141.606079   -1.342881 -126.800613   -1.346012 -126.774879  -38.028337 -158.043518
  0.035430862  -43.907752  137.075546   -1.343749 -133.641373   -1.348674 -133.614868  -38.948063 -163.470444
  0.035631263  -44.493829  131.587051   -1.349376 -140.477707   -1.350655 -140.466583  -40.064608 -169.196045
  0.035831663  -45.314303  127.897919   -1.351610 -147.304932   -1.354049 -147.297134  -41.344031 -174.880600
  0.036032064  -46.799436  124.617744   -1.355036 -154.131790   -1.357609 -154.127365  -42.950895 -179.689224
  0.036232465  -48.408540  123.566887   -1.359207 -160.969315   -1.360354 -160.962875  -45.059359  177.111984
  0.036432866  -50.389073  122.177917   -1.361636 -167.806213   -1.364089 -167.796692  -47.899389  178.455307
  0.036633267  -52.807794  125.913391   -1.366116 -174.643860   -1.366171 -174.631943  -51.528577 -172.787277
  0.036833667  -55.264485  139.813492   -1.370521  178.512863   -1.370312  178.529785  -54.691629 -137.461899
  0.037034068  -57.225394  167.565689   -1.374248  171.676376   -1.374543  171.690689  -52.887606 -101.590866
  0.037234469  -55.120105 -163.684479   -1.377687  164.828476   -1.378814  164.856430  -48.677671  -88.219803
  0.037434870  -52.346310 -148.264404   -1.380864  157.982620   -1.381904  157.998688  -45.768983  -84.327896
  0.037635271  -49.683333 -145.926041   -1.384334  151.138489   -1.385129  151.160538  -43.703335  -87.179695
  0.037835671  -47.804198 -147.389908   -1.386981  144.300018   -1.387290  144.316666  -42.099429  -90.924835
  0.038036072  -46.034053 -150.354813   -1.390724  137.468414   -1.391520  137.485703  -40.766921  -96.837326
  0.038236473  -44.697931 -153.061966   -1.392971  130.634903   -1.395013  130.651962  -39.735749 -101.858315
  0.038436874  -43.763217 -157.529526   -1.398715  123.792755   -1.398225  123.819595  -38.964335 -107.808701
  0.038637275  -42.660399 -162.703064   -1.400989  116.966629   -1.401163  116.991554  -38.300922 -114.685066
  0.038837675  -42.047976 -167.539307   -1.407692  110.130424   -1.406088  110.152237  -37.914832 -121.634071
  0.039038076  -41.438094 -173.917633   -1.410669  103.296417   -1.409374  103.318779  -37.513057 -128.157730
  0.039238477  -41.008638 -178.280396   -1.414754   96.457298   -1.415058   96.479095  -37.426107 -136.246506
  0.039438878  -40.606937  175.274185   -1.417701   89.604408   -1.417753   89.635803  -37.379459 -143.097946
  0.039639279  -40.285762  169.688644   -1.421453   82.768013   -1.421454   82.797127  -37.435076 -150.204651
  0.039839679  -40.291666  165.104462   -1.424863   75.920975   -1.425967   75.949768  -37.556100 -158.358383
  0.040040080  -40.111896  159.543655   -1.427873   69.093094   -1.428193   69.114914  -37.962567 -166.257904
  0.040240481  -40.218175  155.587250   -1.430622   62.261642   -1.430778   62.282623  -38.433287 -175.565170
  0.040440882  -40.250687  149.962173   -1.434398   55.428986   -1.434272   55.440643  -38.950791  175.811981
  0.040641283  -40.481459  145.752090   -1.438151   48.605934   -1.438905   48.621288  -39.699307  165.876053
  0.040841683  -40.855219  141.167374   -1.443655   41.769238   -1.443194   41.793560  -40.666357  155.632767
  0.041042084  -41.081450  135.813995   -1.445865   34.938667   -1.446828   34.953922  -41.734958  143.638367
  0.041242485  -41.453185  133.939117   -1.450861   28.097427   -1.451538   28.130753  -42.856551  129.013657
  0.041442886  -41.897176  129.361969   -1.454187   21.263428   -1.456497   21.292839  -44.070362  112.364326
  0.041643287  -42.494271  126.412148   -1.458194   14.423161   -1.459039   14.462386  -45.148713   90.887390
  0.041843687  -43.155235  124.736259   -1.462551    7.584356   -1.463394    7.613419  -45.930348   66.128975
  0.042044088  -43.735109  123.262169   -1.464872    0.741959   -1.467128    0.770965  -45.556659   40.588898
  0.042244489  -44.385099  122.935066   -1.468223   -6.099647   -1.470151   -6.069353  -44.529262   17.424561
  0.042444890  -44.884464  123.726593   -1.472129  -12.926513   -1.472895  -12.901417  -43.072179   -1.208733
  0.042645291  -45.464839  124.065376   -1.476209  -19.766863   -1.476566  -19.726147  -41.543604  -16.471416
  0.042845691  -46.058773  126.863937   -1.480109  -26.598017   -1.480041  -26.565355  -40.394275  -28.290861
  0.043046092  -46.134179  129.380875   -1.483517  -33.423973   -1.483129  -33.398590  -39.214545  -39.722309
  0.043246493  -46.365635  131.993149   -1.487481  -40.256348   -1.488405  -40.222408  -38.257825  -49.406284
  0.043446894  -46.109832  133.522415   -1.492439  -47.095825   -1.492101  -47.065849  -37.457098  -59.173870
  0.043647295  -45.763911  134.827087   -1.495933  -53.937656   -1.495158  -53.898514  -36.755530  -67.132202
  0.043847695  -45.508651  135.734207   -1.499782  -60.776443   -1.498704  -60.743515  -36.253791  -75.139313
  0.044048096  -45.062571  135.280045   -1.503445  -67.621635   -1.502546  -67.589005  -35.772230  -83.576653
  0.044248497  -44.721222  134.699432   -1.507103  -74.463524   -1.504439  -74.425056  -35.482670  -90.981583
  0.044448898  -44.494863  131.847214   -1.510292  -81.299957   -1.509450  -81.276741  -35.255133  -98.434181
  0.044649299  -44.145867  129.915604   -1.512682  -88.138298   -1.510797  -88.114716  -35.088176 -104.949234
  0.044849699  -44.146881  125.540520   -1.516164  -94.968582   -1.512202  -94.944756  -35.111794 -112.759201
  0.045050100  -44.080215  122.298897   -1.519861 -101.799370   -1.517192 -101.777847  -35.214580 -119.122093
  0.045250501  -44.248503  119.858673   -1.524604 -108.632957   -1.520198 -108.607384  -35.293196 -125.935669
  0.045450902  -44.376014  116.878021   -1.528230 -115.467873   -1.526142 -115.436729  -35.589481 -132.323029
  0.045651303  -44.694125  111.334763   -1.533544 -122.304085   -1.529026 -122.279350  -36.020331 -138.737915
  0.045851703  -45.118902  108.204796   -1.536508 -129.148758   -1.532400 -129.121521  -36.521658 -144.895584
  0.046052104  -45.487735  102.589676   -1.539903 -135.980713   -1.534941 -135.959747  -37.262072 -149.992874
  0.046252505  -46.200643   98.315300   -1.544274 -142.829681   -1.537971 -142.806671  -38.160739 -155.253143
  0.046452906  -47.055185   94.370384   -1.547078 -149.677750   -1.542117 -149.650818  -39.184743 -160.449600
  0.046653307  -48.299363   91.168571   -1.549234 -156.518982   -1.544737 -156.497604  -40.537249 -164.160858
  0.046853707  -49.947138   88.471710   -1.551849 -163.354263   -1.547355 -163.333542  -42.183271 -166.442551
  0.047054108  -51.925871   86.201363   -1.553368 -170.188049   -1.549173 -170.171158  -44.440275 -165.208710
  0.047254509  -54.813051   90.908966   -1.556355 -177.019669   -1.551965 -176.998489  -46.798788 -157.864899
  0.047454910  -58.346747  101.925529   -1.559964  176.144150   -1.554665  176.165894  -48.846902 -138.150192
  0.047655311  -60.470982  140.074051   -1.563691  169.307999   -1.559690  169.333847  -49.427315 -110.423027
  0.047855711  -58.123441  174.187805   -1.567983  162.469986   -1.563347  162.498703  -46.861559  -91.921120
  0.048056112  -53.250618 -177.297348   -1.570906  155.627747   -1.565903  155.658356  -44.179115  -85.044472
  0.048256513  -50.402225 -173.707764   -1.574129  148.784058   -1.568991  148.822876  -42.051107  -82.533180
  0.048456914  -48.216932 -176.650055   -1.577967  141.947632   -1.573349  141.973465  -40.167601  -85.062241
  0.048657315  -46.397802 -178.964188   -1.581793  135.099945   -1.577323  135.120300  -38.765407  -88.407082
  0.048857715  -44.995238  174.566879   -1.582529  128.259476   -1.580378  128.279007  -37.578758  -92.604057
  0.049058116  -43.782493  171.041016   -1.586173  121.420288   -1.584182  121.436760  -36.647646  -97.045326
  0.049258517  -42.936131  164.204544   -1.588580  114.585564   -1.586547  114.601967  -35.857013 -102.553757
  0.049458918  -41.982268  157.762665   -1.592693  107.758560   -1.588842  107.765022  -35.201501 -108.349014
  0.049659319  -41.285564  151.533340   -1.597986  100.922218   -1.593941  100.938385  -34.707178 -113.810104
  0.049859719  -40.868343  144.495850   -1.600835   94.095528   -1.598216   94.112083  -34.285525 -119.293869
  0.050060120  -40.301586  137.778351   -1.605128   87.254890   -1.602733   87.272255  -33.953901 -125.513672
  0.050260521  -39.866572  131.014145   -1.607894   80.428680   -1.606367   80.441498  -33.783648 -131.642792
  0.050460922  -39.562932  122.334450   -1.611664   73.592972   -1.609442   73.613747  -33.718106 -137.167877
  0.050661323  -39.337761  114.879494   -1.615207   66.751152   -1.611958   66.768913  -33.791018 -143.524368
  0.050861723  -39.296153  107.278564   -1.617909   59.916058   -1.615715   59.932095  -33.891928 -149.017273
  0.051062124  -39.364386   98.530083   -1.620995   53.071159   -1.618777   53.084663  -34.072791 -154.206604
  0.051262525  -39.321070   90.068344   -1.623185   46.233768   -1.621845   46.242516  -34.399995 -160.019485
  0.051462926  -39.352140   81.650673   -1.624899   39.394226   -1.625213   39.415867  -34.811983 -165.329681
  0.051663327  -39.503246   71.927673   -1.628458   32.577591   -1.630484   32.588512  -35.326296 -170.753357
  0.051863727  -39.758744   63.107029   -1.632061   25.736147   -1.631984   25.752329  -35.988889 -175.167175
  0.052064128  -40.008632   53.473740   -1.637048   18.915207   -1.635611   18.936016  -36.704323 -179.577866
  0.052264529  -40.454504   42.638157   -1.640447   12.077626   -1.638925   12.095786  -37.651175  177.087494
  0.052464930  -40.845024   31.991930   -1.643889    5.244588   -1.641911    5.255652  -38.609906  174.871353
  0.052665331  -41.247109   20.158394   -1.645415   -1.591314   -1.645552   -1.578669  -39.806112  173.737000
  0.052865731  -41.633004    7.286900   -1.649349   -8.428000   -1.646540   -8.416013  -40.990752  175.043427
