! Anritsu VNA Master:                     Model: MS2036C/10/77
! SN:                                  1601066
! /bd0/18may8/255.ns.m9.s2p
! Existing Calibration Information:
! TYPE:                         Current Settings,       Active Cal Settings
! TIME:             	   05/08/2018 01:06:17 PM,    05/08/2018 01:00:27 PM
! INTERNAL TEMP:    	                   60.0 C,                    60.0 C
! # POINTS:         	                      500,                       500
! START FREQ:       	               20.000 MHz,                20.000 MHz
! STOP FREQ:        	              120.000 MHz,               120.000 MHz
! SOURCE POWER:     	                     High,                      High
! IFBW:             	                    50 Hz,                     50 Hz
! AVG FACTOR:       	                       1 ,                        1 
! REF PLANE 1:      	                     0 mm,                      0 mm
! REF PLANE 2:      	                     0 mm,                      0 mm
! CAL TYPE:         	                 Full S11,                  Full S11
! CAL METHOD:       	                     SOLT,                      SOLT
! CAL LINE TYPE:    	                     Coax,                      Coax
! DUT PORT 1:       	                K-Conn(F),                 K-Conn(F)
! DUT PORT 2:       	                K-Conn(F),                 K-Conn(F)
! CAL STATUS:       	        OK: Accuracy High,                        --
# GHZ S DB R 50.0
! FREQ.GHZ       S11DB        S11A       S21DB        S21A       S12DB        S12A       S22DB        S22A
  0.020000000   -0.634929 -124.282570  -91.032616   27.216553    0.000000    0.000000    0.000000    0.000000
  0.020200401   -0.633317 -125.715012  -90.611658   29.525114    0.000000    0.000000    0.000000    0.000000
  0.020400802   -0.630261 -127.150406  -91.482267   26.351311    0.000000    0.000000    0.000000    0.000000
  0.020601202   -0.632711 -128.590790  -92.031855   26.163193    0.000000    0.000000    0.000000    0.000000
  0.020801603   -0.636202 -130.069458  -92.113303   29.474726    0.000000    0.000000    0.000000    0.000000
  0.021002004   -0.642747 -131.552002  -92.451222   25.441933    0.000000    0.000000    0.000000    0.000000
  0.021202405   -0.647524 -133.079391  -93.754065   26.621752    0.000000    0.000000    0.000000    0.000000
  0.021402806   -0.651595 -134.580017  -93.410061   28.861292    0.000000    0.000000    0.000000    0.000000
  0.021603206   -0.655622 -136.098663  -93.744479   30.400526    0.000000    0.000000    0.000000    0.000000
  0.021803607   -0.658982 -137.623428  -93.661816   32.893608    0.000000    0.000000    0.000000    0.000000
  0.022004008   -0.665261 -139.143356  -93.152331   30.742022    0.000000    0.000000    0.000000    0.000000
  0.022204409   -0.670023 -140.678101  -93.077313   35.417519    0.000000    0.000000    0.000000    0.000000
  0.022404810   -0.675428 -142.224792  -92.961096   33.926373    0.000000    0.000000    0.000000    0.000000
  0.022605210   -0.677071 -143.814758  -93.308679   34.125195    0.000000    0.000000    0.000000    0.000000
  0.022805611   -0.677348 -145.393341  -93.473887   30.439592    0.000000    0.000000    0.000000    0.000000
  0.023006012   -0.678840 -146.971252  -93.292689   34.331585    0.000000    0.000000    0.000000    0.000000
  0.023206413   -0.677898 -148.536346  -93.661882   30.292503    0.000000    0.000000    0.000000    0.000000
  0.023406814   -0.681737 -150.106400  -92.482220   33.458347    0.000000    0.000000    0.000000    0.000000
  0.023607214   -0.684258 -151.679626  -93.730351   28.767231    0.000000    0.000000    0.000000    0.000000
  0.023807615   -0.687598 -153.266418  -93.385653   27.379261    0.000000    0.000000    0.000000    0.000000
  0.024008016   -0.694369 -154.855301  -93.295542   29.979383    0.000000    0.000000    0.000000    0.000000
  0.024208417   -0.704295 -156.478638  -93.314067   27.012157    0.000000    0.000000    0.000000    0.000000
  0.024408818   -0.710026 -158.101532  -92.633771   22.857687    0.000000    0.000000    0.000000    0.000000
  0.024609218   -0.716834 -159.735504  -93.098630   20.801043    0.000000    0.000000    0.000000    0.000000
  0.024809619   -0.724511 -161.363098  -93.502884   20.970222    0.000000    0.000000    0.000000    0.000000
  0.025010020   -0.734221 -163.003128  -93.916565   22.369915    0.000000    0.000000    0.000000    0.000000
  0.025210421   -0.745177 -164.645035  -93.686870   22.460089    0.000000    0.000000    0.000000    0.000000
  0.025410822   -0.756598 -166.306625  -94.690893   17.749237    0.000000    0.000000    0.000000    0.000000
  0.025611222   -0.769329 -167.978973  -94.399362   17.218210    0.000000    0.000000    0.000000    0.000000
  0.025811623   -0.782289 -169.676071  -94.184142   13.123539    0.000000    0.000000    0.000000    0.000000
  0.026012024   -0.792211 -171.393478  -95.178795   15.262031    0.000000    0.000000    0.000000    0.000000
  0.026212425   -0.801296 -173.107651  -95.538369   16.649664    0.000000    0.000000    0.000000    0.000000
  0.026412826   -0.812849 -174.825943  -96.037805   15.465797    0.000000    0.000000    0.000000    0.000000
  0.026613226   -0.825170 -176.561752  -96.069996   14.967887    0.000000    0.000000    0.000000    0.000000
  0.026813627   -0.839341 -178.304749  -96.860297   16.760607    0.000000    0.000000    0.000000    0.000000
  0.027014028   -0.854383  179.940125  -96.171634   19.998104    0.000000    0.000000    0.000000    0.000000
  0.027214429   -0.870886  178.168442  -96.063391   16.869947    0.000000    0.000000    0.000000    0.000000
  0.027414830   -0.885973  176.389587  -96.416639   13.239990    0.000000    0.000000    0.000000    0.000000
  0.027615230   -0.903261  174.602676  -96.460689   22.743000    0.000000    0.000000    0.000000    0.000000
  0.027815631   -0.921299  172.794220  -96.401389   21.774025    0.000000    0.000000    0.000000    0.000000
  0.028016032   -0.940851  170.975891  -97.091011   19.572027    0.000000    0.000000    0.000000    0.000000
  0.028216433   -0.962073  169.152786  -96.574985   23.785406    0.000000    0.000000    0.000000    0.000000
  0.028416834   -0.981510  167.314636  -96.088358   27.499939    0.000000    0.000000    0.000000    0.000000
  0.028617234   -1.001586  165.483841  -95.853924   19.301353    0.000000    0.000000    0.000000    0.000000
  0.028817635   -1.020636  163.649231  -96.700420   19.649971    0.000000    0.000000    0.000000    0.000000
  0.029018036   -1.038378  161.827362  -95.520926   20.736576    0.000000    0.000000    0.000000    0.000000
  0.029218437   -1.056814  160.002502  -97.528144   21.214514    0.000000    0.000000    0.000000    0.000000
  0.029418838   -1.080198  158.186996  -96.291227   23.347477    0.000000    0.000000    0.000000    0.000000
  0.029619238   -1.103316  156.342026  -96.633157   16.325897    0.000000    0.000000    0.000000    0.000000
  0.029819639   -1.131169  154.489502  -96.470386   20.154909    0.000000    0.000000    0.000000    0.000000
  0.030020040   -1.160329  152.601334  -96.255297   16.086212    0.000000    0.000000    0.000000    0.000000
  0.030220441   -1.187922  150.697250  -95.838957   15.888579    0.000000    0.000000    0.000000    0.000000
  0.030420842   -1.217572  148.783646  -96.902937    7.253397    0.000000    0.000000    0.000000    0.000000
  0.030621242   -1.247863  146.884857  -97.369182   15.238441    0.000000    0.000000    0.000000    0.000000
  0.030821643   -1.276363  144.991119  -97.299215    8.814157    0.000000    0.000000    0.000000    0.000000
  0.031022044   -1.309073  143.082291  -98.049187   15.722533    0.000000    0.000000    0.000000    0.000000
  0.031222445   -1.337591  141.183105  -98.055539   11.368096    0.000000    0.000000    0.000000    0.000000
  0.031422846   -1.375251  139.235992  -98.037663    7.571340    0.000000    0.000000    0.000000    0.000000
  0.031623246   -1.411510  137.261017  -97.324534    9.019154    0.000000    0.000000    0.000000    0.000000
  0.031823647   -1.448000  135.290909  -97.516331   15.944484    0.000000    0.000000    0.000000    0.000000
  0.032024048   -1.484939  133.311615  -98.236245    1.944962    0.000000    0.000000    0.000000    0.000000
  0.032224449   -1.520662  131.334641  -97.002233    9.550848    0.000000    0.000000    0.000000    0.000000
  0.032424850   -1.553518  129.357834  -98.077816    8.441483    0.000000    0.000000    0.000000    0.000000
  0.032625251   -1.591340  127.363098  -97.651851    5.106363    0.000000    0.000000    0.000000    0.000000
  0.032825651   -1.626285  125.368042  -98.117752   12.596398    0.000000    0.000000    0.000000    0.000000
  0.033026052   -1.663576  123.385384  -97.962808   13.609062    0.000000    0.000000    0.000000    0.000000
  0.033226453   -1.705097  121.410454 -100.059644   16.327349    0.000000    0.000000    0.000000    0.000000
  0.033426854   -1.745332  119.451073  -97.697337   11.554307    0.000000    0.000000    0.000000    0.000000
  0.033627255   -1.795860  117.447327  -98.143675   10.582870    0.000000    0.000000    0.000000    0.000000
  0.033827655   -1.845803  115.466629  -97.697663   19.043156    0.000000    0.000000    0.000000    0.000000
  0.034028056   -1.897025  113.422684  -97.840178   13.005747    0.000000    0.000000    0.000000    0.000000
  0.034228457   -1.947566  111.355736  -98.282256   12.414049    0.000000    0.000000    0.000000    0.000000
  0.034428858   -1.998229  109.256874  -98.035530   17.257813    0.000000    0.000000    0.000000    0.000000
  0.034629259   -2.047228  107.126259  -99.435706   18.725187    0.000000    0.000000    0.000000    0.000000
  0.034829659   -2.094502  105.030006  -98.842245   10.344836    0.000000    0.000000    0.000000    0.000000
  0.035030060   -2.140657  102.908470  -97.486725   15.165343    0.000000    0.000000    0.000000    0.000000
  0.035230461   -2.182827  100.791222  -98.264422   16.054615    0.000000    0.000000    0.000000    0.000000
  0.035430862   -2.228030   98.696297  -98.684364   15.960229    0.000000    0.000000    0.000000    0.000000
  0.035631263   -2.271022   96.612511  -98.484412    5.096433    0.000000    0.000000    0.000000    0.000000
  0.035831663   -2.313407   94.540833  -99.913639   18.867558    0.000000    0.000000    0.000000    0.000000
  0.036032064   -2.360414   92.474709  -98.183388    2.107684    0.000000    0.000000    0.000000    0.000000
  0.036232465   -2.407826   90.420296  -99.250063   -2.244917    0.000000    0.000000    0.000000    0.000000
  0.036432866   -2.455271   88.391945  -99.594810   -4.354452    0.000000    0.000000    0.000000    0.000000
  0.036633267   -2.504516   86.358383 -100.629018    8.215178    0.000000    0.000000    0.000000    0.000000
  0.036833667   -2.556761   84.320877  -99.534876    1.708733    0.000000    0.000000    0.000000    0.000000
  0.037034068   -2.616987   82.274231  -99.754586    9.421995    0.000000    0.000000    0.000000    0.000000
  0.037234469   -2.676870   80.218063 -101.347779   11.939352    0.000000    0.000000    0.000000    0.000000
  0.037434870   -2.739149   78.138672  -99.264126    8.594825    0.000000    0.000000    0.000000    0.000000
  0.037635271   -2.801813   76.054237 -101.341541    3.435328    0.000000    0.000000    0.000000    0.000000
  0.037835671   -2.864610   73.967987  -99.381134    4.814703    0.000000    0.000000    0.000000    0.000000
  0.038036072   -2.929844   71.853096 -100.381530    5.436843    0.000000    0.000000    0.000000    0.000000
  0.038236473   -2.991594   69.712021 -101.035099    9.391076    0.000000    0.000000    0.000000    0.000000
  0.038436874   -3.051167   67.563683 -101.886472    6.454127    0.000000    0.000000    0.000000    0.000000
  0.038637275   -3.109360   65.451370 -100.099724   -2.028515    0.000000    0.000000    0.000000    0.000000
  0.038837675   -3.161304   63.337902 -100.089292    3.471828    0.000000    0.000000    0.000000    0.000000
  0.039038076   -3.213319   61.258049 -101.598842    9.646617    0.000000    0.000000    0.000000    0.000000
  0.039238477   -3.259963   59.186695  -99.732282   13.370184    0.000000    0.000000    0.000000    0.000000
  0.039438878   -3.310723   57.133163 -100.111211   22.429668    0.000000    0.000000    0.000000    0.000000
  0.039639279   -3.365315   55.122520 -100.256453    7.156827    0.000000    0.000000    0.000000    0.000000
  0.039839679   -3.425270   53.102615 -101.068396    1.741340    0.000000    0.000000    0.000000    0.000000
  0.040040080   -3.486626   51.070080 -100.054351    3.667469    0.000000    0.000000    0.000000    0.000000
  0.040240481   -3.546918   49.034134  -99.411569    7.609256    0.000000    0.000000    0.000000    0.000000
  0.040440882   -3.610451   46.970909 -100.982481   13.251022    0.000000    0.000000    0.000000    0.000000
  0.040641283   -3.672810   44.915222 -101.666941   -2.070817    0.000000    0.000000    0.000000    0.000000
  0.040841683   -3.732398   42.862591  -99.615476   18.490677    0.000000    0.000000    0.000000    0.000000
  0.041042084   -3.790685   40.818916  -99.531764    5.566631    0.000000    0.000000    0.000000    0.000000
  0.041242485   -3.848451   38.800117 -101.964280   -6.359160    0.000000    0.000000    0.000000    0.000000
  0.041442886   -3.905298   36.737568  -99.685055    4.916253    0.000000    0.000000    0.000000    0.000000
  0.041643287   -3.960502   34.695251 -101.552494   -0.285532    0.000000    0.000000    0.000000    0.000000
  0.041843687   -4.017159   32.655266 -100.683111    3.460030    0.000000    0.000000    0.000000    0.000000
  0.042044088   -4.068773   30.616972 -101.023920   -9.628635    0.000000    0.000000    0.000000    0.000000
  0.042244489   -4.119550   28.626795 -101.631752   -7.005947    0.000000    0.000000    0.000000    0.000000
  0.042444890   -4.171556   26.622833 -101.499783   -2.492621    0.000000    0.000000    0.000000    0.000000
  0.042645291   -4.223685   24.642668 -102.909947   -8.407152    0.000000    0.000000    0.000000    0.000000
  0.042845691   -4.272148   22.670605 -101.951968    6.514964    0.000000    0.000000    0.000000    0.000000
  0.043046092   -4.325215   20.701271 -102.505640   -9.470165    0.000000    0.000000    0.000000    0.000000
  0.043246493   -4.374462   18.718090 -101.177355    8.359203    0.000000    0.000000    0.000000    0.000000
  0.043446894   -4.421178   16.759502 -102.044460   -5.706755    0.000000    0.000000    0.000000    0.000000
  0.043647295   -4.471186   14.808532 -103.092089   -0.885794    0.000000    0.000000    0.000000    0.000000
  0.043847695   -4.519645   12.847467 -102.172770   -0.652535    0.000000    0.000000    0.000000    0.000000
  0.044048096   -4.570411   10.891939 -103.077242    7.130714    0.000000    0.000000    0.000000    0.000000
  0.044248497   -4.617555    8.941689 -100.032945   12.238500    0.000000    0.000000    0.000000    0.000000
  0.044448898   -4.666851    7.015659 -104.189775   11.946460    0.000000    0.000000    0.000000    0.000000
  0.044649299   -4.717175    5.081540 -101.658689   18.945200    0.000000    0.000000    0.000000    0.000000
  0.044849699   -4.760264    3.141005 -101.848056   -0.819815    0.000000    0.000000    0.000000    0.000000
  0.045050100   -4.801837    1.204865 -100.162518    6.748669    0.000000    0.000000    0.000000    0.000000
  0.045250501   -4.844558   -0.714578 -102.431756    5.798554    0.000000    0.000000    0.000000    0.000000
  0.045450902   -4.885334   -2.630169 -101.594942    7.353634    0.000000    0.000000    0.000000    0.000000
  0.045651303   -4.924386   -4.519832 -101.594742    6.095574    0.000000    0.000000    0.000000    0.000000
  0.045851703   -4.967170   -6.404549 -100.351853   17.686773    0.000000    0.000000    0.000000    0.000000
  0.046052104   -5.007046   -8.271000 -100.607758   -0.617335    0.000000    0.000000    0.000000    0.000000
  0.046252505   -5.046898  -10.146408 -100.862986    7.049854    0.000000    0.000000    0.000000    0.000000
  0.046452906   -5.084829  -12.018298 -101.474313    7.871850    0.000000    0.000000    0.000000    0.000000
  0.046653307   -5.123708  -13.854566 -100.758915   -3.308134    0.000000    0.000000    0.000000    0.000000
  0.046853707   -5.158670  -15.723684 -101.218446   -0.475663    0.000000    0.000000    0.000000    0.000000
  0.047054108   -5.191168  -17.566275 -102.998500    8.170406    0.000000    0.000000    0.000000    0.000000
  0.047254509   -5.223654  -19.413445  -99.301407   -6.082570    0.000000    0.000000    0.000000    0.000000
  0.047454910   -5.255067  -21.238880 -102.202558   -1.902051    0.000000    0.000000    0.000000    0.000000
  0.047655311   -5.286255  -23.032724 -103.318943   -0.847971    0.000000    0.000000    0.000000    0.000000
  0.047855711   -5.315792  -24.826828 -104.857519    3.389376    0.000000    0.000000    0.000000    0.000000
  0.048056112   -5.345234  -26.575954 -103.842547   -1.334521    0.000000    0.000000    0.000000    0.000000
  0.048256513   -5.376869  -28.341541 -102.341002  -16.251036    0.000000    0.000000    0.000000    0.000000
  0.048456914   -5.407345  -30.086601 -101.328488    5.720325    0.000000    0.000000    0.000000    0.000000
  0.048657315   -5.438135  -31.830479 -104.076928  -13.420559    0.000000    0.000000    0.000000    0.000000
  0.048857715   -5.465685  -33.573044 -102.068227   -0.572427    0.000000    0.000000    0.000000    0.000000
  0.049058116   -5.492791  -35.300087 -104.587358    2.259104    0.000000    0.000000    0.000000    0.000000
  0.049258517   -5.515608  -37.031059 -104.232839   -3.772812    0.000000    0.000000    0.000000    0.000000
  0.049458918   -5.540925  -38.750412 -103.710637   14.248055    0.000000    0.000000    0.000000    0.000000
  0.049659319   -5.568690  -40.446514 -103.746308  -10.716626    0.000000    0.000000    0.000000    0.000000
  0.049859719   -5.593099  -42.131542 -103.011327   11.311697    0.000000    0.000000    0.000000    0.000000
  0.050060120   -5.621055  -43.820404 -103.058285    8.485070    0.000000    0.000000    0.000000    0.000000
  0.050260521   -5.640211  -45.488377 -105.678803    6.683874    0.000000    0.000000    0.000000    0.000000
  0.050460922   -5.664121  -47.187901 -102.983144   16.745644    0.000000    0.000000    0.000000    0.000000
  0.050661323   -5.683401  -48.878448 -103.215096   12.501138    0.000000    0.000000    0.000000    0.000000
  0.050861723   -5.700842  -50.540985 -103.562702    7.548775    0.000000    0.000000    0.000000    0.000000
  0.051062124   -5.715624  -52.194084 -102.646888    8.551096    0.000000    0.000000    0.000000    0.000000
  0.051262525   -5.731940  -53.840866 -102.385741   10.353562    0.000000    0.000000    0.000000    0.000000
  0.051462926   -5.748158  -55.445789 -104.316725   10.985668    0.000000    0.000000    0.000000    0.000000
  0.051663327   -5.762768  -57.024029 -101.207982    4.370725    0.000000    0.000000    0.000000    0.000000
  0.051863727   -5.777801  -58.593277 -101.664925    9.391982    0.000000    0.000000    0.000000    0.000000
  0.052064128   -5.795132  -60.169712 -102.507927    8.100415    0.000000    0.000000    0.000000    0.000000
  0.052264529   -5.809085  -61.718464 -102.036905    7.005792    0.000000    0.000000    0.000000    0.000000
  0.052464930   -5.824901  -63.283535 -101.990909    7.901861    0.000000    0.000000    0.000000    0.000000
  0.052665331   -5.843135  -64.854095 -102.310495    0.451440    0.000000    0.000000    0.000000    0.000000
  0.052865731   -5.861040  -66.406471 -102.097891   -2.257118    0.000000    0.000000    0.000000    0.000000
