! Anritsu VNA Master:                     Model: MS2036C/10/77
! SN:                                  1601066
! /bd0/18may8/255.ns.m2.s2p
! Existing Calibration Information:
! TYPE:                         Current Settings,       Active Cal Settings
! TIME:             	   05/08/2018 11:04:10 AM,    05/08/2018 10:55:57 AM
! INTERNAL TEMP:    	                   50.5 C,                    49.3 C
! # POINTS:         	                      500,                       500
! START FREQ:       	               20.000 MHz,                20.000 MHz
! STOP FREQ:        	              120.000 MHz,               120.000 MHz
! SOURCE POWER:     	                     High,                      High
! IFBW:             	                    50 Hz,                     50 Hz
! AVG FACTOR:       	                       1 ,                        1 
! REF PLANE 1:      	                     0 mm,                      0 mm
! REF PLANE 2:      	                     0 mm,                      0 mm
! CAL TYPE:         	                 Full S11,                  Full S11
! CAL METHOD:       	                     SOLT,                      SOLT
! CAL LINE TYPE:    	                     Coax,                      Coax
! DUT PORT 1:       	                K-Conn(F),                 K-Conn(F)
! DUT PORT 2:       	                K-Conn(F),                 K-Conn(F)
! CAL STATUS:       	        OK: Accuracy High,                        --
# GHZ S DB R 50.0
! FREQ.GHZ       S11DB        S11A       S21DB        S21A       S12DB        S12A       S22DB        S22A
  0.020000000   -0.662230 -124.172951  -90.951334   28.052332    0.000000    0.000000    0.000000    0.000000
  0.020200401   -0.664150 -125.610413  -91.481106   29.921392    0.000000    0.000000    0.000000    0.000000
  0.020400802   -0.668923 -127.033211  -91.693354   30.965681    0.000000    0.000000    0.000000    0.000000
  0.020601202   -0.674666 -128.485062  -91.674070   27.249392    0.000000    0.000000    0.000000    0.000000
  0.020801603   -0.681609 -129.983383  -92.320415   31.209726    0.000000    0.000000    0.000000    0.000000
  0.021002004   -0.692392 -131.483765  -92.344404   31.826647    0.000000    0.000000    0.000000    0.000000
  0.021202405   -0.702388 -133.016724  -93.165256   29.958288    0.000000    0.000000    0.000000    0.000000
  0.021402806   -0.710894 -134.547501  -93.859196   33.206169    0.000000    0.000000    0.000000    0.000000
  0.021603206   -0.716272 -136.069977  -93.470513   32.847332    0.000000    0.000000    0.000000    0.000000
  0.021803607   -0.721487 -137.604385  -94.189014   27.752026    0.000000    0.000000    0.000000    0.000000
  0.022004008   -0.725081 -139.140244  -92.951727   33.143345    0.000000    0.000000    0.000000    0.000000
  0.022204409   -0.728116 -140.713409  -93.475294   33.464169    0.000000    0.000000    0.000000    0.000000
  0.022404810   -0.730967 -142.282944  -92.611824   33.937355    0.000000    0.000000    0.000000    0.000000
  0.022605210   -0.737653 -143.862976  -93.154871   37.169621    0.000000    0.000000    0.000000    0.000000
  0.022805611   -0.737850 -145.470261  -92.904772   32.836369    0.000000    0.000000    0.000000    0.000000
  0.023006012   -0.735088 -147.063004  -93.351070   35.509674    0.000000    0.000000    0.000000    0.000000
  0.023206413   -0.730271 -148.636749  -92.641629   31.859005    0.000000    0.000000    0.000000    0.000000
  0.023406814   -0.727165 -150.211945  -92.722673   34.355598    0.000000    0.000000    0.000000    0.000000
  0.023607214   -0.728072 -151.784607  -92.250313   33.861710    0.000000    0.000000    0.000000    0.000000
  0.023807615   -0.729355 -153.371918  -92.244207   33.022007    0.000000    0.000000    0.000000    0.000000
  0.024008016   -0.732768 -154.986679  -93.233441   24.829401    0.000000    0.000000    0.000000    0.000000
  0.024208417   -0.736817 -156.597183  -93.761112   28.565834    0.000000    0.000000    0.000000    0.000000
  0.024408818   -0.737489 -158.212891  -92.866645   25.751696    0.000000    0.000000    0.000000    0.000000
  0.024609218   -0.739209 -159.836853  -93.195881   21.785831    0.000000    0.000000    0.000000    0.000000
  0.024809619   -0.743457 -161.457764  -93.272479   21.594706    0.000000    0.000000    0.000000    0.000000
  0.025010020   -0.748958 -163.073959  -93.716055   23.242180    0.000000    0.000000    0.000000    0.000000
  0.025210421   -0.756712 -164.706192  -93.741209   20.001331    0.000000    0.000000    0.000000    0.000000
  0.025410822   -0.764293 -166.350464  -94.363426   24.626192    0.000000    0.000000    0.000000    0.000000
  0.025611222   -0.772810 -168.018967  -94.475661   20.662458    0.000000    0.000000    0.000000    0.000000
  0.025811623   -0.782196 -169.699310  -94.934578   17.121443    0.000000    0.000000    0.000000    0.000000
  0.026012024   -0.791038 -171.401062  -94.472590   18.161098    0.000000    0.000000    0.000000    0.000000
  0.026212425   -0.798236 -173.097748  -95.056240   16.176626    0.000000    0.000000    0.000000    0.000000
  0.026412826   -0.811433 -174.800964  -94.660409   15.283772    0.000000    0.000000    0.000000    0.000000
  0.026613226   -0.825897 -176.529282  -95.075621   11.301805    0.000000    0.000000    0.000000    0.000000
  0.026813627   -0.842794 -178.261826  -96.019991   18.569138    0.000000    0.000000    0.000000    0.000000
  0.027014028   -0.859958 -179.997986  -96.111598   25.217808    0.000000    0.000000    0.000000    0.000000
  0.027214429   -0.878034  178.232681  -95.832553   16.232758    0.000000    0.000000    0.000000    0.000000
  0.027414830   -0.896928  176.454620  -95.998610   24.781084    0.000000    0.000000    0.000000    0.000000
  0.027615230   -0.916216  174.668915  -95.985905   20.923151    0.000000    0.000000    0.000000    0.000000
  0.027815631   -0.940048  172.866852  -96.617942   16.026201    0.000000    0.000000    0.000000    0.000000
  0.028016032   -0.964021  171.041031  -96.673487   24.090982    0.000000    0.000000    0.000000    0.000000
  0.028216433   -0.989998  169.211975  -96.056107   23.476614    0.000000    0.000000    0.000000    0.000000
  0.028416834   -1.015200  167.374359  -95.994079   20.888239    0.000000    0.000000    0.000000    0.000000
  0.028617234   -1.039531  165.536560  -96.673098   25.459446    0.000000    0.000000    0.000000    0.000000
  0.028817635   -1.061555  163.697098  -96.305112   24.582983    0.000000    0.000000    0.000000    0.000000
  0.029018036   -1.086266  161.871811  -95.889413   20.360622    0.000000    0.000000    0.000000    0.000000
  0.029218437   -1.110026  160.045929  -96.328474   23.747694    0.000000    0.000000    0.000000    0.000000
  0.029418838   -1.135925  158.207214  -96.507774   19.063820    0.000000    0.000000    0.000000    0.000000
  0.029619238   -1.162833  156.361725  -96.048310   19.019461    0.000000    0.000000    0.000000    0.000000
  0.029819639   -1.192447  154.495895  -96.687898   14.932401    0.000000    0.000000    0.000000    0.000000
  0.030020040   -1.223939  152.601196  -95.755155   12.797353    0.000000    0.000000    0.000000    0.000000
  0.030220441   -1.253353  150.687653  -95.657981   16.963331    0.000000    0.000000    0.000000    0.000000
  0.030420842   -1.280166  148.777466  -97.155887   16.579590    0.000000    0.000000    0.000000    0.000000
  0.030621242   -1.309504  146.881485  -96.558361   13.282230    0.000000    0.000000    0.000000    0.000000
  0.030821643   -1.339463  144.996429  -96.942463   13.723882    0.000000    0.000000    0.000000    0.000000
  0.031022044   -1.371423  143.077316  -97.203427    9.883830    0.000000    0.000000    0.000000    0.000000
  0.031222445   -1.400589  141.170975  -96.915344   11.182785    0.000000    0.000000    0.000000    0.000000
  0.031422846   -1.432698  139.219406  -97.750417    5.896286    0.000000    0.000000    0.000000    0.000000
  0.031623246   -1.466257  137.238983  -97.968242    9.966210    0.000000    0.000000    0.000000    0.000000
  0.031823647   -1.497820  135.258072  -96.315161   12.891911    0.000000    0.000000    0.000000    0.000000
  0.032024048   -1.526270  133.290451  -98.081431    9.015599    0.000000    0.000000    0.000000    0.000000
  0.032224449   -1.555309  131.339203  -96.476823   12.810635    0.000000    0.000000    0.000000    0.000000
  0.032424850   -1.581681  129.376038  -98.001719   13.791169    0.000000    0.000000    0.000000    0.000000
  0.032625251   -1.612399  127.387703  -97.479332   10.487100    0.000000    0.000000    0.000000    0.000000
  0.032825651   -1.642560  125.432709  -98.499061   11.856869    0.000000    0.000000    0.000000    0.000000
  0.033026052   -1.677637  123.481239  -99.202883   12.180099    0.000000    0.000000    0.000000    0.000000
  0.033226453   -1.718246  121.518425  -98.077938   13.754593    0.000000    0.000000    0.000000    0.000000
  0.033426854   -1.759442  119.527870  -97.882597   15.668397    0.000000    0.000000    0.000000    0.000000
  0.033627255   -1.806982  117.536530  -98.241128   15.814566    0.000000    0.000000    0.000000    0.000000
  0.033827655   -1.858269  115.501419  -98.061486    8.972105    0.000000    0.000000    0.000000    0.000000
  0.034028056   -1.906055  113.434814  -98.919230   11.767341    0.000000    0.000000    0.000000    0.000000
  0.034228457   -1.952598  111.356316  -98.423580    9.401423    0.000000    0.000000    0.000000    0.000000
  0.034428858   -2.001476  109.223099  -98.157253   11.097530    0.000000    0.000000    0.000000    0.000000
  0.034629259   -2.046007  107.102371  -97.269674    9.707136    0.000000    0.000000    0.000000    0.000000
  0.034829659   -2.092506  104.979149  -98.442693    9.595869    0.000000    0.000000    0.000000    0.000000
  0.035030060   -2.139288  102.874680  -97.799780   16.850344    0.000000    0.000000    0.000000    0.000000
  0.035230461   -2.182735  100.758560  -97.384535   15.293704    0.000000    0.000000    0.000000    0.000000
  0.035430862   -2.225231   98.672951  -98.383509   11.079052    0.000000    0.000000    0.000000    0.000000
  0.035631263   -2.271444   96.604683  -99.617994    4.314666    0.000000    0.000000    0.000000    0.000000
  0.035831663   -2.318419   94.530914  -97.971071   11.939418    0.000000    0.000000    0.000000    0.000000
  0.036032064   -2.366031   92.496979  -97.243118   10.556751    0.000000    0.000000    0.000000    0.000000
  0.036232465   -2.420356   90.455025  -98.492900    7.820899    0.000000    0.000000    0.000000    0.000000
  0.036432866   -2.470830   88.437416  -99.497480    4.426879    0.000000    0.000000    0.000000    0.000000
  0.036633267   -2.528005   86.414246 -100.372388   13.209967    0.000000    0.000000    0.000000    0.000000
  0.036833667   -2.591509   84.405701  -99.013148    4.236563    0.000000    0.000000    0.000000    0.000000
  0.037034068   -2.654319   82.376877 -100.009332    0.597181    0.000000    0.000000    0.000000    0.000000
  0.037234469   -2.723362   80.316109  -98.745172    5.882404    0.000000    0.000000    0.000000    0.000000
  0.037434870   -2.791029   78.240067  -99.358355    4.574033    0.000000    0.000000    0.000000    0.000000
  0.037635271   -2.855266   76.164856 -100.269869    5.865836    0.000000    0.000000    0.000000    0.000000
  0.037835671   -2.926154   74.050865  -99.035593    1.862088    0.000000    0.000000    0.000000    0.000000
  0.038036072   -2.991278   71.925346 -100.433604   -0.399707    0.000000    0.000000    0.000000    0.000000
  0.038236473   -3.051618   69.797050 -100.164536   11.036732    0.000000    0.000000    0.000000    0.000000
  0.038436874   -3.115055   67.658905 -100.247893    7.572928    0.000000    0.000000    0.000000    0.000000
  0.038637275   -3.170998   65.537651 -100.451116   14.092756    0.000000    0.000000    0.000000    0.000000
  0.038837675   -3.222134   63.427410 -101.204269    1.301538    0.000000    0.000000    0.000000    0.000000
  0.039038076   -3.269766   61.324997 -101.928763    8.934193    0.000000    0.000000    0.000000    0.000000
  0.039238477   -3.319329   59.272572 -100.067806    7.813042    0.000000    0.000000    0.000000    0.000000
  0.039438878   -3.371321   57.230537  -99.977160   23.534468    0.000000    0.000000    0.000000    0.000000
  0.039639279   -3.424740   55.207893 -100.341606   19.570225    0.000000    0.000000    0.000000    0.000000
  0.039839679   -3.484161   53.141792  -98.827742   13.740223    0.000000    0.000000    0.000000    0.000000
  0.040040080   -3.542371   51.074638 -100.434676   28.629999    0.000000    0.000000    0.000000    0.000000
  0.040240481   -3.602331   48.999489  -98.992750    9.939639    0.000000    0.000000    0.000000    0.000000
  0.040440882   -3.663633   46.914043 -100.536689    5.426136    0.000000    0.000000    0.000000    0.000000
  0.040641283   -3.724001   44.823528 -100.055394   14.388811    0.000000    0.000000    0.000000    0.000000
  0.040841683   -3.778882   42.713673 -100.980598   11.495796    0.000000    0.000000    0.000000    0.000000
  0.041042084   -3.832403   40.652035 -100.469238    7.938139    0.000000    0.000000    0.000000    0.000000
  0.041242485   -3.888273   38.564049 -100.529052   12.165094    0.000000    0.000000    0.000000    0.000000
  0.041442886   -3.940297   36.478416 -100.323921   -0.660550    0.000000    0.000000    0.000000    0.000000
  0.041643287   -3.989519   34.398079 -101.299841    5.079628    0.000000    0.000000    0.000000    0.000000
  0.041843687   -4.042368   32.316734 -101.194666    0.879531    0.000000    0.000000    0.000000    0.000000
  0.042044088   -4.087463   30.259743 -100.629831   11.379946    0.000000    0.000000    0.000000    0.000000
  0.042244489   -4.135084   28.239546 -100.251758   -3.553132    0.000000    0.000000    0.000000    0.000000
  0.042444890   -4.183960   26.229729 -102.767509   -3.018642    0.000000    0.000000    0.000000    0.000000
  0.042645291   -4.232186   24.239000 -103.169334    8.812971    0.000000    0.000000    0.000000    0.000000
  0.042845691   -4.280945   22.268831 -101.295457    4.374207    0.000000    0.000000    0.000000    0.000000
  0.043046092   -4.327720   20.298466 -102.309862    4.057109    0.000000    0.000000    0.000000    0.000000
  0.043246493   -4.376084   18.339771 -102.985784   -1.355394    0.000000    0.000000    0.000000    0.000000
  0.043446894   -4.424682   16.392763 -104.605495   -3.730987    0.000000    0.000000    0.000000    0.000000
  0.043647295   -4.473690   14.460252 -101.688456    7.034256    0.000000    0.000000    0.000000    0.000000
  0.043847695   -4.523823   12.539940 -103.523187    0.265258    0.000000    0.000000    0.000000    0.000000
  0.044048096   -4.574607   10.622040 -101.900811   10.084601    0.000000    0.000000    0.000000    0.000000
  0.044248497   -4.627203    8.731079 -102.328479   28.163605    0.000000    0.000000    0.000000    0.000000
  0.044448898   -4.678695    6.820647 -102.333282   19.046143    0.000000    0.000000    0.000000    0.000000
  0.044649299   -4.730255    4.930071 -102.366831    7.150877    0.000000    0.000000    0.000000    0.000000
  0.044849699   -4.777966    3.030125 -101.945398   14.154286    0.000000    0.000000    0.000000    0.000000
  0.045050100   -4.828067    1.145046 -101.748963   10.889129    0.000000    0.000000    0.000000    0.000000
  0.045250501   -4.874833   -0.731931 -101.246018   12.488424    0.000000    0.000000    0.000000    0.000000
  0.045450902   -4.917541   -2.604242 -101.767460    7.989523    0.000000    0.000000    0.000000    0.000000
  0.045651303   -4.962524   -4.481666 -101.501430    3.832788    0.000000    0.000000    0.000000    0.000000
  0.045851703   -5.006975   -6.316373 -101.446615    8.413250    0.000000    0.000000    0.000000    0.000000
  0.046052104   -5.054091   -8.168791 -101.666516    7.439602    0.000000    0.000000    0.000000    0.000000
  0.046252505   -5.098058  -10.010207 -101.418143    5.009989    0.000000    0.000000    0.000000    0.000000
  0.046452906   -5.143993  -11.860338 -100.263805   -2.855982    0.000000    0.000000    0.000000    0.000000
  0.046653307   -5.182218  -13.707072 -101.666806    2.245686    0.000000    0.000000    0.000000    0.000000
  0.046853707   -5.221741  -15.578624 -101.182871   10.546288    0.000000    0.000000    0.000000    0.000000
  0.047054108   -5.260985  -17.408104 -102.128530   -0.115943    0.000000    0.000000    0.000000    0.000000
  0.047254509   -5.295441  -19.255741 -102.717411   -1.934986    0.000000    0.000000    0.000000    0.000000
  0.047454910   -5.329181  -21.096888 -101.677204   -3.276409    0.000000    0.000000    0.000000    0.000000
  0.047655311   -5.358478  -22.909651 -103.695540    3.455443    0.000000    0.000000    0.000000    0.000000
  0.047855711   -5.385236  -24.692301 -104.284986    4.254271    0.000000    0.000000    0.000000    0.000000
  0.048056112   -5.413359  -26.485058 -102.094839    9.012630    0.000000    0.000000    0.000000    0.000000
  0.048256513   -5.441270  -28.280325 -104.316292   -4.471321    0.000000    0.000000    0.000000    0.000000
  0.048456914   -5.465663  -30.064116 -103.666106  -12.065365    0.000000    0.000000    0.000000    0.000000
  0.048657315   -5.493522  -31.827496 -104.045848    0.299715    0.000000    0.000000    0.000000    0.000000
  0.048857715   -5.515191  -33.603172 -104.215080  -10.929762    0.000000    0.000000    0.000000    0.000000
  0.049058116   -5.534116  -35.371986 -106.281667   -5.400081    0.000000    0.000000    0.000000    0.000000
  0.049258517   -5.554126  -37.111794 -102.045532   -3.331176    0.000000    0.000000    0.000000    0.000000
  0.049458918   -5.572998  -38.824974 -102.013312    1.246651    0.000000    0.000000    0.000000    0.000000
  0.049659319   -5.594853  -40.544037 -102.774329   -3.069210    0.000000    0.000000    0.000000    0.000000
  0.049859719   -5.614182  -42.239147 -103.669787    0.651424    0.000000    0.000000    0.000000    0.000000
  0.050060120   -5.631340  -43.922852 -100.672210   26.181993    0.000000    0.000000    0.000000    0.000000
  0.050260521   -5.647722  -45.620380 -105.429741    6.669698    0.000000    0.000000    0.000000    0.000000
  0.050460922   -5.664559  -47.290985 -107.053468   10.899359    0.000000    0.000000    0.000000    0.000000
  0.050661323   -5.678637  -48.969860 -101.405281    1.113660    0.000000    0.000000    0.000000    0.000000
  0.050861723   -5.692848  -50.611057 -102.579033    6.534688    0.000000    0.000000    0.000000    0.000000
  0.051062124   -5.705006  -52.230618 -104.615425   11.261740    0.000000    0.000000    0.000000    0.000000
  0.051262525   -5.718250  -53.812496 -102.809425   18.973919    0.000000    0.000000    0.000000    0.000000
  0.051462926   -5.732636  -55.386600 -101.051045    3.707836    0.000000    0.000000    0.000000    0.000000
  0.051663327   -5.748419  -56.923294 -103.245064   -6.574382    0.000000    0.000000    0.000000    0.000000
  0.051863727   -5.768414  -58.461815 -103.502441   -0.859345    0.000000    0.000000    0.000000    0.000000
  0.052064128   -5.785634  -60.000404 -104.143379   16.923758    0.000000    0.000000    0.000000    0.000000
  0.052264529   -5.805015  -61.541214 -102.524918   10.760405    0.000000    0.000000    0.000000    0.000000
  0.052464930   -5.829880  -63.058945 -100.529010    7.700039    0.000000    0.000000    0.000000    0.000000
  0.052665331   -5.852621  -64.626572 -102.556045   -0.190962    0.000000    0.000000    0.000000    0.000000
  0.052865731   -5.877725  -66.158371 -102.036664    3.077041    0.000000    0.000000    0.000000    0.000000
