! Anritsu VNA Master:                     Model: MS2036C/10/77
! SN:                                  1601066
! /bd0/18may26.balun/4b.47.s2p
! Existing Calibration Information:
! TYPE:                         Current Settings,       Active Cal Settings
! TIME:             	   05/26/2018 04:35:58 PM,    05/26/2018 04:28:16 PM
! INTERNAL TEMP:    	                   56.0 C,                    56.3 C
! # POINTS:         	                      500,                       500
! START FREQ:       	               20.000 MHz,                20.000 MHz
! STOP FREQ:        	              120.000 MHz,               120.000 MHz
! SOURCE POWER:     	                     High,                      High
! IFBW:             	                    50 Hz,                     50 Hz
! AVG FACTOR:       	                       1 ,                        1 
! REF PLANE 1:      	                     0 mm,                      0 mm
! REF PLANE 2:      	                     0 mm,                      0 mm
! CAL TYPE:         	                 Full S11,                  Full S11
! CAL METHOD:       	                     SOLT,                      SOLT
! CAL LINE TYPE:    	                     Coax,                      Coax
! DUT PORT 1:       	                K-Conn(M),                 K-Conn(M)
! DUT PORT 2:       	                K-Conn(M),                 K-Conn(M)
! CAL STATUS:       	        OK: Accuracy High,                        --
# GHZ S DB R 50.0
! FREQ.GHZ       S11DB        S11A       S21DB        S21A       S12DB        S12A       S22DB        S22A
  0.020000000   -0.020405  -55.824749  -90.909310   35.035252    0.000000    0.000000    0.000000    0.000000
  0.020200401   -0.017420  -56.363243  -90.172545   33.936886    0.000000    0.000000    0.000000    0.000000
  0.020400802   -0.015481  -56.899895  -91.251272   30.576056    0.000000    0.000000    0.000000    0.000000
  0.020601202   -0.016035  -57.427116  -90.899082   34.038116    0.000000    0.000000    0.000000    0.000000
  0.020801603   -0.018251  -57.975624  -90.783499   29.404688    0.000000    0.000000    0.000000    0.000000
  0.021002004   -0.017378  -58.532536  -92.358400   30.715569    0.000000    0.000000    0.000000    0.000000
  0.021202405   -0.017651  -59.104599  -92.112375   26.055695    0.000000    0.000000    0.000000    0.000000
  0.021402806   -0.024055  -59.651894  -92.355012   25.843071    0.000000    0.000000    0.000000    0.000000
  0.021603206   -0.025001  -60.196724  -93.078302   28.444216    0.000000    0.000000    0.000000    0.000000
  0.021803607   -0.031333  -60.725861  -93.451587   19.782942    0.000000    0.000000    0.000000    0.000000
  0.022004008   -0.035295  -61.265499  -93.391289   24.426613    0.000000    0.000000    0.000000    0.000000
  0.022204409   -0.036888  -61.814049  -93.547765   25.450733    0.000000    0.000000    0.000000    0.000000
  0.022404810   -0.039559  -62.402779  -93.691654   31.208063    0.000000    0.000000    0.000000    0.000000
  0.022605210   -0.041728  -62.969284  -93.511933   27.767698    0.000000    0.000000    0.000000    0.000000
  0.022805611   -0.041514  -63.547226  -93.997768   30.501585    0.000000    0.000000    0.000000    0.000000
  0.023006012   -0.033594  -64.102722  -93.410886   32.994583    0.000000    0.000000    0.000000    0.000000
  0.023206413   -0.022075  -64.683228  -93.848845   34.216671    0.000000    0.000000    0.000000    0.000000
  0.023406814   -0.016534  -65.248199  -93.305209   31.249754    0.000000    0.000000    0.000000    0.000000
  0.023607214   -0.014866  -65.812271  -93.380476   36.158463    0.000000    0.000000    0.000000    0.000000
  0.023807615   -0.012192  -66.320671  -93.256146   33.826630    0.000000    0.000000    0.000000    0.000000
  0.024008016   -0.016350  -66.829910  -93.793310   31.030983    0.000000    0.000000    0.000000    0.000000
  0.024208417   -0.021010  -67.291328  -93.314206   32.905571    0.000000    0.000000    0.000000    0.000000
  0.024408818   -0.028083  -67.757912  -93.147813   25.935600    0.000000    0.000000    0.000000    0.000000
  0.024609218   -0.032150  -68.247055  -93.767794   26.096071    0.000000    0.000000    0.000000    0.000000
  0.024809619   -0.036438  -68.776344  -93.355101   23.315502    0.000000    0.000000    0.000000    0.000000
  0.025010020   -0.039219  -69.315842  -93.122225   23.191139    0.000000    0.000000    0.000000    0.000000
  0.025210421   -0.040517  -69.865875  -93.941185   18.945217    0.000000    0.000000    0.000000    0.000000
  0.025410822   -0.043611  -70.436890  -94.071385   20.617090    0.000000    0.000000    0.000000    0.000000
  0.025611222   -0.046024  -70.997902  -94.346888   15.436356    0.000000    0.000000    0.000000    0.000000
  0.025811623   -0.045850  -71.554909  -94.707812   20.176405    0.000000    0.000000    0.000000    0.000000
  0.026012024   -0.047048  -72.105827  -94.749655   15.661104    0.000000    0.000000    0.000000    0.000000
  0.026212425   -0.042634  -72.655724  -95.405039   15.529055    0.000000    0.000000    0.000000    0.000000
  0.026412826   -0.040643  -73.199310  -95.487828   13.871305    0.000000    0.000000    0.000000    0.000000
  0.026613226   -0.043064  -73.688217  -96.244244   15.128895    0.000000    0.000000    0.000000    0.000000
  0.026813627   -0.048052  -74.204979  -96.116078   16.178816    0.000000    0.000000    0.000000    0.000000
  0.027014028   -0.052191  -74.687111  -96.411682   18.878168    0.000000    0.000000    0.000000    0.000000
  0.027214429   -0.061580  -75.181679  -96.626049   17.161751    0.000000    0.000000    0.000000    0.000000
  0.027414830   -0.071527  -75.730240  -97.087591   17.719954    0.000000    0.000000    0.000000    0.000000
  0.027615230   -0.078921  -76.316483  -96.445101   18.928408    0.000000    0.000000    0.000000    0.000000
  0.027815631   -0.083694  -76.924225  -96.611853   18.351587    0.000000    0.000000    0.000000    0.000000
  0.028016032   -0.083158  -77.539719  -96.172197   24.413755    0.000000    0.000000    0.000000    0.000000
  0.028216433   -0.076459  -78.162903  -96.117508   19.486895    0.000000    0.000000    0.000000    0.000000
  0.028416834   -0.069482  -78.794220  -96.915467   19.977942    0.000000    0.000000    0.000000    0.000000
  0.028617234   -0.059371  -79.384758  -96.795485   22.833754    0.000000    0.000000    0.000000    0.000000
  0.028817635   -0.049552  -79.922485  -95.690625   23.496874    0.000000    0.000000    0.000000    0.000000
  0.029018036   -0.038755  -80.441345  -96.466959   20.787159    0.000000    0.000000    0.000000    0.000000
  0.029218437   -0.028576  -80.887810  -95.865677   17.471149    0.000000    0.000000    0.000000    0.000000
  0.029418838   -0.022411  -81.305466  -95.902262   17.183905    0.000000    0.000000    0.000000    0.000000
  0.029619238   -0.018119  -81.716034  -95.677239   21.903997    0.000000    0.000000    0.000000    0.000000
  0.029819639   -0.017511  -82.152550  -96.171247   16.119240    0.000000    0.000000    0.000000    0.000000
  0.030020040   -0.022592  -82.611938  -97.024375   15.285407    0.000000    0.000000    0.000000    0.000000
  0.030220441   -0.031311  -83.105705  -96.369330   12.709291    0.000000    0.000000    0.000000    0.000000
  0.030420842   -0.041326  -83.613953  -97.534842    6.570187    0.000000    0.000000    0.000000    0.000000
  0.030621242   -0.051506  -84.149063  -96.597320   15.305168    0.000000    0.000000    0.000000    0.000000
  0.030821643   -0.054066  -84.695656  -97.241304   11.142139    0.000000    0.000000    0.000000    0.000000
  0.031022044   -0.056855  -85.258621  -97.515925    6.974210    0.000000    0.000000    0.000000    0.000000
  0.031222445   -0.052564  -85.790382  -97.300603   13.957785    0.000000    0.000000    0.000000    0.000000
  0.031422846   -0.054423  -86.338165  -97.099747   11.484710    0.000000    0.000000    0.000000    0.000000
  0.031623246   -0.056673  -86.870659  -96.940343   12.915519    0.000000    0.000000    0.000000    0.000000
  0.031823647   -0.059194  -87.387665  -97.584312    4.421139    0.000000    0.000000    0.000000    0.000000
  0.032024048   -0.053488  -87.899399  -97.762148   17.808289    0.000000    0.000000    0.000000    0.000000
  0.032224449   -0.057312  -88.354996  -97.663181   14.037687    0.000000    0.000000    0.000000    0.000000
  0.032424850   -0.063956  -88.821991  -97.554580   15.648534    0.000000    0.000000    0.000000    0.000000
  0.032625251   -0.073721  -89.321732  -97.968741    7.811500    0.000000    0.000000    0.000000    0.000000
  0.032825651   -0.086700  -89.838280  -97.605152   17.850664    0.000000    0.000000    0.000000    0.000000
  0.033026052   -0.092334  -90.381508  -98.249265    9.177779    0.000000    0.000000    0.000000    0.000000
  0.033226453   -0.097355  -90.947525  -99.017621   10.981635    0.000000    0.000000    0.000000    0.000000
  0.033426854   -0.105217  -91.530769  -97.738356   19.945757    0.000000    0.000000    0.000000    0.000000
  0.033627255   -0.108647  -92.134949  -98.036126   12.287594    0.000000    0.000000    0.000000    0.000000
  0.033827655   -0.109202  -92.727043  -99.012070   21.109583    0.000000    0.000000    0.000000    0.000000
  0.034028056   -0.105643  -93.304932  -98.248116    7.216815    0.000000    0.000000    0.000000    0.000000
  0.034228457   -0.098370  -93.886375  -97.848849    7.233317    0.000000    0.000000    0.000000    0.000000
  0.034428858   -0.088398  -94.411285  -99.158977   14.065356    0.000000    0.000000    0.000000    0.000000
  0.034629259   -0.074927  -94.910477  -98.243810   13.224111    0.000000    0.000000    0.000000    0.000000
  0.034829659   -0.065039  -95.397057  -98.690016   -0.648217    0.000000    0.000000    0.000000    0.000000
  0.035030060   -0.057613  -95.863297  -98.801944   10.862233    0.000000    0.000000    0.000000    0.000000
  0.035230461   -0.053974  -96.282448  -98.040014   13.670300    0.000000    0.000000    0.000000    0.000000
  0.035430862   -0.050331  -96.725319  -99.698412   -3.770846    0.000000    0.000000    0.000000    0.000000
  0.035631263   -0.055181  -97.175499  -99.436285    4.508889    0.000000    0.000000    0.000000    0.000000
  0.035831663   -0.064958  -97.636284  -98.662635    5.394170    0.000000    0.000000    0.000000    0.000000
  0.036032064   -0.069747  -98.142807  -99.593289   -4.587928    0.000000    0.000000    0.000000    0.000000
  0.036232465   -0.080142  -98.685226  -98.798917    5.799167    0.000000    0.000000    0.000000    0.000000
  0.036432866   -0.086845  -99.237427  -99.581314   10.313089    0.000000    0.000000    0.000000    0.000000
  0.036633267   -0.088232  -99.810440 -100.095615    4.986469    0.000000    0.000000    0.000000    0.000000
  0.036833667   -0.092956 -100.346451  -99.662702   13.190216    0.000000    0.000000    0.000000    0.000000
  0.037034068   -0.090536 -100.919777  -99.289681   10.278486    0.000000    0.000000    0.000000    0.000000
  0.037234469   -0.082149 -101.441673  -99.898551    2.019209    0.000000    0.000000    0.000000    0.000000
  0.037434870   -0.071444 -101.907433 -101.181841   10.092485    0.000000    0.000000    0.000000    0.000000
  0.037635271   -0.067957 -102.360344  -98.864644    6.952631    0.000000    0.000000    0.000000    0.000000
  0.037835671   -0.069139 -102.813560  -99.294781   19.363218    0.000000    0.000000    0.000000    0.000000
  0.038036072   -0.076501 -103.295517  -98.953720    6.350967    0.000000    0.000000    0.000000    0.000000
  0.038236473   -0.086100 -103.786255  -99.207633   11.877509    0.000000    0.000000    0.000000    0.000000
  0.038436874   -0.092690 -104.288033  -99.035342    0.976600    0.000000    0.000000    0.000000    0.000000
  0.038637275   -0.099124 -104.794708  -98.390538    6.599355    0.000000    0.000000    0.000000    0.000000
  0.038837675   -0.108334 -105.303467  -99.147470   10.956879    0.000000    0.000000    0.000000    0.000000
  0.039038076   -0.119347 -105.856476  -99.618505   12.080572    0.000000    0.000000    0.000000    0.000000
  0.039238477   -0.125223 -106.399994  -99.092570    9.405490    0.000000    0.000000    0.000000    0.000000
  0.039438878   -0.130661 -106.953148 -100.317186   12.162004    0.000000    0.000000    0.000000    0.000000
  0.039639279   -0.125815 -107.485100 -100.130684    2.340929    0.000000    0.000000    0.000000    0.000000
  0.039839679   -0.118019 -108.012115  -99.287935    2.524598    0.000000    0.000000    0.000000    0.000000
  0.040040080   -0.110781 -108.507568  -99.451049   -4.057678    0.000000    0.000000    0.000000    0.000000
  0.040240481   -0.103045 -108.984451  -99.348831    3.534523    0.000000    0.000000    0.000000    0.000000
  0.040440882   -0.096071 -109.433014 -101.116118   13.370485    0.000000    0.000000    0.000000    0.000000
  0.040641283   -0.093462 -109.915604 -100.438864    3.056027    0.000000    0.000000    0.000000    0.000000
  0.040841683   -0.093127 -110.356827 -100.332590   -1.670419    0.000000    0.000000    0.000000    0.000000
  0.041042084   -0.095172 -110.823097 -103.377360    6.832226    0.000000    0.000000    0.000000    0.000000
  0.041242485   -0.099982 -111.273201 -100.917281    8.159758    0.000000    0.000000    0.000000    0.000000
  0.041442886   -0.111752 -111.739670  -99.169408    1.330645    0.000000    0.000000    0.000000    0.000000
  0.041643287   -0.120422 -112.253876 -101.886518   17.173376    0.000000    0.000000    0.000000    0.000000
  0.041843687   -0.127597 -112.780602 -103.687431   17.467255    0.000000    0.000000    0.000000    0.000000
  0.042044088   -0.127545 -113.330597 -102.243237    5.821658    0.000000    0.000000    0.000000    0.000000
  0.042244489   -0.123335 -113.858910 -103.776988   24.954487    0.000000    0.000000    0.000000    0.000000
  0.042444890   -0.116149 -114.376083 -100.941601   14.441848    0.000000    0.000000    0.000000    0.000000
  0.042645291   -0.105720 -114.850632 -102.357004   24.628662    0.000000    0.000000    0.000000    0.000000
  0.042845691   -0.098051 -115.308159 -101.861559   15.775898    0.000000    0.000000    0.000000    0.000000
  0.043046092   -0.097090 -115.751923 -100.582238    5.759443    0.000000    0.000000    0.000000    0.000000
  0.043246493   -0.100131 -116.197128 -100.368815   16.555115    0.000000    0.000000    0.000000    0.000000
  0.043446894   -0.102570 -116.661499 -100.981153    1.615277    0.000000    0.000000    0.000000    0.000000
  0.043647295   -0.108868 -117.094467  -99.954982    9.505418    0.000000    0.000000    0.000000    0.000000
  0.043847695   -0.113690 -117.549538  -99.865940    0.533037    0.000000    0.000000    0.000000    0.000000
  0.044048096   -0.122619 -118.003784 -100.801683   13.901934    0.000000    0.000000    0.000000    0.000000
  0.044248497   -0.129631 -118.478142  -99.416684   -0.137758    0.000000    0.000000    0.000000    0.000000
  0.044448898   -0.136989 -118.984138 -100.983817    1.414172    0.000000    0.000000    0.000000    0.000000
  0.044649299   -0.140618 -119.488846 -100.622174    0.075734    0.000000    0.000000    0.000000    0.000000
  0.044849699   -0.140529 -119.984360 -101.234836   -8.037050    0.000000    0.000000    0.000000    0.000000
  0.045050100   -0.142403 -120.482681 -102.592382   -2.341919    0.000000    0.000000    0.000000    0.000000
  0.045250501   -0.139907 -120.956009 -101.545639   -3.487199    0.000000    0.000000    0.000000    0.000000
  0.045450902   -0.138346 -121.426407 -103.604170    5.544275    0.000000    0.000000    0.000000    0.000000
  0.045651303   -0.140470 -121.929558 -102.678886   -5.390754    0.000000    0.000000    0.000000    0.000000
  0.045851703   -0.136500 -122.431580 -102.313730    9.960253    0.000000    0.000000    0.000000    0.000000
  0.046052104   -0.136996 -122.921112 -105.713096  -10.093552    0.000000    0.000000    0.000000    0.000000
  0.046252505   -0.136144 -123.405319 -105.874615   20.384489    0.000000    0.000000    0.000000    0.000000
  0.046452906   -0.139945 -123.851479 -102.355527  -16.677076    0.000000    0.000000    0.000000    0.000000
  0.046653307   -0.144929 -124.307312 -103.550453    7.113100    0.000000    0.000000    0.000000    0.000000
  0.046853707   -0.157478 -124.813248 -103.284599    1.744201    0.000000    0.000000    0.000000    0.000000
  0.047054108   -0.162060 -125.352943 -102.225795    1.932674    0.000000    0.000000    0.000000    0.000000
  0.047254509   -0.168379 -125.903976 -102.162612   17.586950    0.000000    0.000000    0.000000    0.000000
  0.047454910   -0.164780 -126.452812 -102.148972   15.212031    0.000000    0.000000    0.000000    0.000000
  0.047655311   -0.157053 -126.990868 -100.793316   10.881854    0.000000    0.000000    0.000000    0.000000
  0.047855711   -0.149886 -127.499374 -103.223830   21.259010    0.000000    0.000000    0.000000    0.000000
  0.048056112   -0.142380 -127.996109 -102.341722   13.543862    0.000000    0.000000    0.000000    0.000000
  0.048256513   -0.139766 -128.465652 -101.708932    6.811400    0.000000    0.000000    0.000000    0.000000
  0.048456914   -0.136182 -128.934616 -101.958001    4.643006    0.000000    0.000000    0.000000    0.000000
  0.048657315   -0.135891 -129.382050 -100.162676   -5.964194    0.000000    0.000000    0.000000    0.000000
  0.048857715   -0.137312 -129.822052 -100.876992    0.970001    0.000000    0.000000    0.000000    0.000000
  0.049058116   -0.141780 -130.268326 -100.398498   -1.987880    0.000000    0.000000    0.000000    0.000000
  0.049258517   -0.146927 -130.699722 -100.813970   -3.351317    0.000000    0.000000    0.000000    0.000000
  0.049458918   -0.153853 -131.166763  -99.721237   -6.088349    0.000000    0.000000    0.000000    0.000000
  0.049659319   -0.156557 -131.644897 -104.443642    5.858708    0.000000    0.000000    0.000000    0.000000
  0.049859719   -0.156094 -132.108246 -102.220620   -6.521267    0.000000    0.000000    0.000000    0.000000
  0.050060120   -0.155490 -132.553284 -100.269653   -3.582037    0.000000    0.000000    0.000000    0.000000
  0.050260521   -0.157112 -133.004868 -102.090940   -3.956166    0.000000    0.000000    0.000000    0.000000
  0.050460922   -0.157734 -133.445007 -102.779841    8.581527    0.000000    0.000000    0.000000    0.000000
  0.050661323   -0.160024 -133.901138 -103.362048   -6.872170    0.000000    0.000000    0.000000    0.000000
  0.050861723   -0.161044 -134.390884 -105.022744   -6.508455    0.000000    0.000000    0.000000    0.000000
  0.051062124   -0.159598 -134.870087 -104.162986   -2.380044    0.000000    0.000000    0.000000    0.000000
  0.051262525   -0.158611 -135.324265 -104.816347   10.696537    0.000000    0.000000    0.000000    0.000000
  0.051462926   -0.159148 -135.788574 -104.722051   -9.452274    0.000000    0.000000    0.000000    0.000000
  0.051663327   -0.162032 -136.213928 -104.396005   18.211906    0.000000    0.000000    0.000000    0.000000
  0.051863727   -0.167792 -136.670212 -105.074526   16.622753    0.000000    0.000000    0.000000    0.000000
  0.052064128   -0.175942 -137.123138 -103.480616   -0.760765    0.000000    0.000000    0.000000    0.000000
  0.052264529   -0.183614 -137.615829 -103.022463   14.684492    0.000000    0.000000    0.000000    0.000000
  0.052464930   -0.186022 -138.128464 -105.270873    8.540427    0.000000    0.000000    0.000000    0.000000
  0.052665331   -0.185778 -138.640137 -101.438441   21.532953    0.000000    0.000000    0.000000    0.000000
  0.052865731   -0.184468 -139.168503 -101.236234   12.674747    0.000000    0.000000    0.000000    0.000000
