! Anritsu VNA Master:                     Model: MS2036C/10/77
! SN:                                  1601066
! /bd0/18may26.balun/4b.r50.3.s2p
! Existing Calibration Information:
! TYPE:                         Current Settings,       Active Cal Settings
! TIME:             	   05/26/2018 05:19:48 PM,    05/26/2018 05:08:07 PM
! INTERNAL TEMP:    	                   52.8 C,                    52.5 C
! # POINTS:         	                      500,                       500
! START FREQ:       	               20.000 MHz,                20.000 MHz
! STOP FREQ:        	              120.000 MHz,               120.000 MHz
! SOURCE POWER:     	                     High,                      High
! IFBW:             	                    50 Hz,                     50 Hz
! AVG FACTOR:       	                       1 ,                        1 
! REF PLANE 1:      	                     0 mm,                      0 mm
! REF PLANE 2:      	                     0 mm,                      0 mm
! CAL TYPE:         	                 Full S11,                  Full S11
! CAL METHOD:       	                     SOLT,                      SOLT
! CAL LINE TYPE:    	                     Coax,                      Coax
! DUT PORT 1:       	                K-Conn(M),                 K-Conn(M)
! DUT PORT 2:       	                K-Conn(M),                 K-Conn(M)
! CAL STATUS:       	        OK: Accuracy High,                        --
# GHZ S DB R 50.0
! FREQ.GHZ       S11DB        S11A       S21DB        S21A       S12DB        S12A       S22DB        S22A
  0.020000000  -38.766637   51.553341  -91.420672   36.059532    0.000000    0.000000    0.000000    0.000000
  0.020200401  -38.790180   51.828537  -91.306553   35.912148    0.000000    0.000000    0.000000    0.000000
  0.020400802  -38.760360   52.415535  -91.608477   33.865387    0.000000    0.000000    0.000000    0.000000
  0.020601202  -38.862994   52.962921  -91.092608   36.449173    0.000000    0.000000    0.000000    0.000000
  0.020801603  -38.776561   52.310581  -91.961941   33.128471    0.000000    0.000000    0.000000    0.000000
  0.021002004  -38.851827   52.189583  -91.706686   33.131340    0.000000    0.000000    0.000000    0.000000
  0.021202405  -38.874330   52.657978  -91.056048   32.313732    0.000000    0.000000    0.000000    0.000000
  0.021402806  -38.763589   51.376835  -91.824452   31.860586    0.000000    0.000000    0.000000    0.000000
  0.021603206  -38.966776   52.161652  -92.170826   33.031952    0.000000    0.000000    0.000000    0.000000
  0.021803607  -38.943848   51.095036  -92.057936   28.824749    0.000000    0.000000    0.000000    0.000000
  0.022004008  -38.821144   50.398136  -92.575836   31.497755    0.000000    0.000000    0.000000    0.000000
  0.022204409  -38.769295   49.626991  -92.328415   34.098598    0.000000    0.000000    0.000000    0.000000
  0.022404810  -38.693334   48.878326  -92.604204   29.479916    0.000000    0.000000    0.000000    0.000000
  0.022605210  -38.627422   48.397739  -93.331982   28.491003    0.000000    0.000000    0.000000    0.000000
  0.022805611  -38.479102   47.557156  -93.122255   29.941395    0.000000    0.000000    0.000000    0.000000
  0.023006012  -38.478722   47.677616  -92.557530   27.549915    0.000000    0.000000    0.000000    0.000000
  0.023206413  -38.298177   48.390949  -93.314965   29.684015    0.000000    0.000000    0.000000    0.000000
  0.023406814  -38.204186   47.640457  -94.336549   26.777950    0.000000    0.000000    0.000000    0.000000
  0.023607214  -38.188877   47.786869  -93.597909   29.638813    0.000000    0.000000    0.000000    0.000000
  0.023807615  -38.088246   47.783741  -93.161434   23.955954    0.000000    0.000000    0.000000    0.000000
  0.024008016  -37.956679   48.506298  -93.542574   22.965429    0.000000    0.000000    0.000000    0.000000
  0.024208417  -37.940724   47.584103  -93.646690   24.363781    0.000000    0.000000    0.000000    0.000000
  0.024408818  -37.790569   48.475868  -94.551875   23.756783    0.000000    0.000000    0.000000    0.000000
  0.024609218  -37.899430   48.791153  -94.696533   23.156044    0.000000    0.000000    0.000000    0.000000
  0.024809619  -37.886941   48.242851  -94.099389   25.636957    0.000000    0.000000    0.000000    0.000000
  0.025010020  -37.800774   48.907429  -93.880061   27.126419    0.000000    0.000000    0.000000    0.000000
  0.025210421  -37.812843   49.034454  -94.159244   23.709238    0.000000    0.000000    0.000000    0.000000
  0.025410822  -37.777479   48.619186  -94.957413   22.675371    0.000000    0.000000    0.000000    0.000000
  0.025611222  -37.799164   48.094250  -94.333769   20.458490    0.000000    0.000000    0.000000    0.000000
  0.025811623  -37.870413   48.954475  -94.991004   19.222025    0.000000    0.000000    0.000000    0.000000
  0.026012024  -37.833904   47.790874  -94.827961   23.381014    0.000000    0.000000    0.000000    0.000000
  0.026212425  -37.838753   47.673138  -94.817476   19.949430    0.000000    0.000000    0.000000    0.000000
  0.026412826  -37.795861   46.128208  -95.533068   18.773396    0.000000    0.000000    0.000000    0.000000
  0.026613226  -37.728645   46.257504  -94.698000   21.290255    0.000000    0.000000    0.000000    0.000000
  0.026813627  -37.720766   45.322483  -95.461467   17.743832    0.000000    0.000000    0.000000    0.000000
  0.027014028  -37.722480   44.816444  -95.003214   17.676836    0.000000    0.000000    0.000000    0.000000
  0.027214429  -37.718795   44.558201  -95.335340   13.049318    0.000000    0.000000    0.000000    0.000000
  0.027414830  -37.561465   43.373024  -95.605347   19.107370    0.000000    0.000000    0.000000    0.000000
  0.027615230  -37.464133   43.108704  -94.957944   23.868309    0.000000    0.000000    0.000000    0.000000
  0.027815631  -37.263332   42.314774  -95.982985   15.987489    0.000000    0.000000    0.000000    0.000000
  0.028016032  -37.146924   42.322865  -95.481934   17.834162    0.000000    0.000000    0.000000    0.000000
  0.028216433  -37.026906   41.669563  -96.115287   18.573095    0.000000    0.000000    0.000000    0.000000
  0.028416834  -36.840148   41.419891  -95.368273   16.107023    0.000000    0.000000    0.000000    0.000000
  0.028617234  -36.658633   41.891293  -96.147868   21.036848    0.000000    0.000000    0.000000    0.000000
  0.028817635  -36.560547   42.041817  -96.316250   15.898341    0.000000    0.000000    0.000000    0.000000
  0.029018036  -36.446816   42.552132  -96.037400   17.398884    0.000000    0.000000    0.000000    0.000000
  0.029218437  -36.415748   42.488949  -97.160272   18.332891    0.000000    0.000000    0.000000    0.000000
  0.029418838  -36.293910   43.098167  -96.068194   19.362267    0.000000    0.000000    0.000000    0.000000
  0.029619238  -36.218965   43.488773  -96.644189   21.792877    0.000000    0.000000    0.000000    0.000000
  0.029819639  -36.095836   43.977722  -96.197940   16.898758    0.000000    0.000000    0.000000    0.000000
  0.030020040  -36.113340   43.966076  -96.909373   18.897224    0.000000    0.000000    0.000000    0.000000
  0.030220441  -36.061669   45.031925  -95.893042   16.465399    0.000000    0.000000    0.000000    0.000000
  0.030420842  -36.103338   45.687347  -97.184828   17.675159    0.000000    0.000000    0.000000    0.000000
  0.030621242  -36.070202   45.321098  -97.300672   14.030643    0.000000    0.000000    0.000000    0.000000
  0.030821643  -36.149515   45.560711  -96.788967   15.376586    0.000000    0.000000    0.000000    0.000000
  0.031022044  -36.079432   46.105755  -98.048149   15.220583    0.000000    0.000000    0.000000    0.000000
  0.031222445  -36.199077   46.199837  -98.463088   14.937540    0.000000    0.000000    0.000000    0.000000
  0.031422846  -36.207461   45.663170  -97.022127   20.072886    0.000000    0.000000    0.000000    0.000000
  0.031623246  -36.187873   45.415337  -97.904154    7.911026    0.000000    0.000000    0.000000    0.000000
  0.031823647  -36.171257   45.288094  -98.377517   20.465540    0.000000    0.000000    0.000000    0.000000
  0.032024048  -36.158548   45.128868  -96.509562   14.208233    0.000000    0.000000    0.000000    0.000000
  0.032224449  -36.209398   44.513710  -97.948910   16.487803    0.000000    0.000000    0.000000    0.000000
  0.032424850  -36.147334   44.249878  -97.686319    7.227629    0.000000    0.000000    0.000000    0.000000
  0.032625251  -36.103632   43.905392  -96.897358    6.753772    0.000000    0.000000    0.000000    0.000000
  0.032825651  -36.089932   42.885693  -97.185773    2.648667    0.000000    0.000000    0.000000    0.000000
  0.033026052  -36.011117   42.773144  -98.195701   13.146216    0.000000    0.000000    0.000000    0.000000
  0.033226453  -35.906950   42.121758  -99.211900   12.502819    0.000000    0.000000    0.000000    0.000000
  0.033426854  -35.805140   42.138058  -98.310562   16.236561    0.000000    0.000000    0.000000    0.000000
  0.033627255  -35.749102   41.827702  -97.879226   13.444373    0.000000    0.000000    0.000000    0.000000
  0.033827655  -35.665728   41.364731  -98.435168   11.444221    0.000000    0.000000    0.000000    0.000000
  0.034028056  -35.566326   41.575478  -97.295661    9.805661    0.000000    0.000000    0.000000    0.000000
  0.034228457  -35.436388   41.641022  -98.211412   17.710855    0.000000    0.000000    0.000000    0.000000
  0.034428858  -35.316478   41.637424  -98.730861    8.257744    0.000000    0.000000    0.000000    0.000000
  0.034629259  -35.305128   41.842724 -100.206460    8.186858    0.000000    0.000000    0.000000    0.000000
  0.034829659  -35.239378   42.407051  -98.341160   12.668227    0.000000    0.000000    0.000000    0.000000
  0.035030060  -35.123406   42.733589  -98.615355   11.626150    0.000000    0.000000    0.000000    0.000000
  0.035230461  -35.169042   43.078705  -98.538750   12.268576    0.000000    0.000000    0.000000    0.000000
  0.035430862  -35.096317   43.905678  -98.726137    2.206967    0.000000    0.000000    0.000000    0.000000
  0.035631263  -35.051103   44.304447  -99.513845   12.004238    0.000000    0.000000    0.000000    0.000000
  0.035831663  -35.102894   44.632050  -99.055926    9.056366    0.000000    0.000000    0.000000    0.000000
  0.036032064  -35.138194   44.631016  -99.473800    0.519972    0.000000    0.000000    0.000000    0.000000
  0.036232465  -35.300590   44.892448  -98.933898    3.330727    0.000000    0.000000    0.000000    0.000000
  0.036432866  -35.361305   44.703831  -98.731755   11.514622    0.000000    0.000000    0.000000    0.000000
  0.036633267  -35.358583   44.849232  -98.986982    8.275769    0.000000    0.000000    0.000000    0.000000
  0.036833667  -35.376149   44.005005  -99.298492   11.816777    0.000000    0.000000    0.000000    0.000000
  0.037034068  -35.426300   43.955204  -99.468157    5.627689    0.000000    0.000000    0.000000    0.000000
  0.037234469  -35.477049   43.143944  -99.135536   13.040122    0.000000    0.000000    0.000000    0.000000
  0.037434870  -35.428417   42.825008  -99.971538    3.602191    0.000000    0.000000    0.000000    0.000000
  0.037635271  -35.390089   42.113285 -100.276155    9.024967    0.000000    0.000000    0.000000    0.000000
  0.037835671  -35.482896   41.600048  -99.828521    9.493371    0.000000    0.000000    0.000000    0.000000
  0.038036072  -35.468361   40.939480 -100.314117    4.263492    0.000000    0.000000    0.000000    0.000000
  0.038236473  -35.461576   40.592117  -98.972513    6.247500    0.000000    0.000000    0.000000    0.000000
  0.038436874  -35.393754   39.308762  -99.896577    9.161098    0.000000    0.000000    0.000000    0.000000
  0.038637275  -35.338349   38.521324  -99.208999   13.533211    0.000000    0.000000    0.000000    0.000000
  0.038837675  -35.174931   37.584427 -100.252972    9.048615    0.000000    0.000000    0.000000    0.000000
  0.039038076  -35.070065   37.196396 -101.294813    3.177001    0.000000    0.000000    0.000000    0.000000
  0.039238477  -35.008947   37.001877 -100.882113   15.244333    0.000000    0.000000    0.000000    0.000000
  0.039438878  -34.833727   36.505318  -99.069972   11.743242    0.000000    0.000000    0.000000    0.000000
  0.039639279  -34.696275   36.255661 -100.156586    4.725827    0.000000    0.000000    0.000000    0.000000
  0.039839679  -34.529750   36.395035  -99.143173    2.743925    0.000000    0.000000    0.000000    0.000000
  0.040040080  -34.436913   36.782448 -100.414968    7.235305    0.000000    0.000000    0.000000    0.000000
  0.040240481  -34.256808   37.101315 -100.571633   13.812565    0.000000    0.000000    0.000000    0.000000
  0.040440882  -34.210109   37.572739 -100.706749    7.365602    0.000000    0.000000    0.000000    0.000000
  0.040641283  -34.074346   37.782494  -99.950963    3.826162    0.000000    0.000000    0.000000    0.000000
  0.040841683  -34.109048   38.338417 -100.667533    0.379997    0.000000    0.000000    0.000000    0.000000
  0.041042084  -33.994003   38.318798 -101.075436    6.361292    0.000000    0.000000    0.000000    0.000000
  0.041242485  -33.961267   39.140617  -99.713690    7.380167    0.000000    0.000000    0.000000    0.000000
  0.041442886  -33.915120   39.270199 -100.679997   -1.044234    0.000000    0.000000    0.000000    0.000000
  0.041643287  -33.890041   39.949337 -101.098595    1.963525    0.000000    0.000000    0.000000    0.000000
  0.041843687  -33.865427   40.059998 -100.723513   -4.061256    0.000000    0.000000    0.000000    0.000000
  0.042044088  -33.879182   40.538383 -101.625731    5.260865    0.000000    0.000000    0.000000    0.000000
  0.042244489  -33.888213   41.044876 -100.358817   21.258673    0.000000    0.000000    0.000000    0.000000
  0.042444890  -33.917433   41.186352 -102.583007   18.366989    0.000000    0.000000    0.000000    0.000000
  0.042645291  -33.988749   41.555374 -101.907509    4.597118    0.000000    0.000000    0.000000    0.000000
  0.042845691  -33.980558   41.682224 -100.883074   -4.010186    0.000000    0.000000    0.000000    0.000000
  0.043046092  -34.033153   41.419456 -101.752892   17.177494    0.000000    0.000000    0.000000    0.000000
  0.043246493  -34.102093   41.308949 -101.782829   -2.080770    0.000000    0.000000    0.000000    0.000000
  0.043446894  -34.133359   40.707569 -101.924614  -14.419392    0.000000    0.000000    0.000000    0.000000
  0.043647295  -34.119434   41.177162 -102.071632    7.467423    0.000000    0.000000    0.000000    0.000000
  0.043847695  -34.194596   40.648819  -99.686610    4.708758    0.000000    0.000000    0.000000    0.000000
  0.044048096  -34.173650   40.370285 -101.654299    7.908400    0.000000    0.000000    0.000000    0.000000
  0.044248497  -34.179111   40.140442 -102.133218   23.392790    0.000000    0.000000    0.000000    0.000000
  0.044448898  -34.156219   40.332504 -101.446537    0.542774    0.000000    0.000000    0.000000    0.000000
  0.044649299  -34.220807   39.311066 -100.904297   11.160822    0.000000    0.000000    0.000000    0.000000
  0.044849699  -34.192985   38.894352 -100.794871    1.816353    0.000000    0.000000    0.000000    0.000000
  0.045050100  -34.159534   38.781036 -106.070235   18.392199    0.000000    0.000000    0.000000    0.000000
  0.045250501  -34.213073   38.680672 -101.474123   11.436147    0.000000    0.000000    0.000000    0.000000
  0.045450902  -34.133443   38.303402 -102.507734    6.585027    0.000000    0.000000    0.000000    0.000000
  0.045651303  -34.156503   37.982533 -100.792117   18.721601    0.000000    0.000000    0.000000    0.000000
  0.045851703  -34.118737   37.743034 -101.065212    0.382111    0.000000    0.000000    0.000000    0.000000
  0.046052104  -34.023559   37.444172 -101.979035    3.655207    0.000000    0.000000    0.000000    0.000000
  0.046252505  -34.010055   37.052227 -102.915615    7.571731    0.000000    0.000000    0.000000    0.000000
  0.046452906  -33.989128   37.023968 -102.048617    3.774702    0.000000    0.000000    0.000000    0.000000
  0.046653307  -33.995302   36.758942 -101.717297  -11.557955    0.000000    0.000000    0.000000    0.000000
  0.046853707  -34.002590   36.371693 -101.769477    6.685694    0.000000    0.000000    0.000000    0.000000
  0.047054108  -33.888346   36.047009 -107.146498   21.217186    0.000000    0.000000    0.000000    0.000000
  0.047254509  -33.838163   35.814449 -103.042756    5.404375    0.000000    0.000000    0.000000    0.000000
  0.047454910  -33.850853   36.063251 -101.793119   16.864752    0.000000    0.000000    0.000000    0.000000
  0.047655311  -33.788752   35.734097 -102.620566    1.571421    0.000000    0.000000    0.000000    0.000000
  0.047855711  -33.771208   35.429600 -102.426845   -5.504797    0.000000    0.000000    0.000000    0.000000
  0.048056112  -33.723973   35.220413 -103.417148   -3.038395    0.000000    0.000000    0.000000    0.000000
  0.048256513  -33.643458   35.617039 -103.296917    6.792772    0.000000    0.000000    0.000000    0.000000
  0.048456914  -33.622043   35.365189 -102.098800   -0.031916    0.000000    0.000000    0.000000    0.000000
  0.048657315  -33.586692   35.084660  -99.868345    8.837328    0.000000    0.000000    0.000000    0.000000
  0.048857715  -33.567037   34.871117 -103.798790   12.068152    0.000000    0.000000    0.000000    0.000000
  0.049058116  -33.473114   34.966827 -101.752197   -9.468223    0.000000    0.000000    0.000000    0.000000
  0.049258517  -33.496267   34.822594 -104.983883   -0.926901    0.000000    0.000000    0.000000    0.000000
  0.049458918  -33.452891   34.787632 -104.632185  -16.719927    0.000000    0.000000    0.000000    0.000000
  0.049659319  -33.416717   34.429436 -102.834518    0.353611    0.000000    0.000000    0.000000    0.000000
  0.049859719  -33.433068   34.310768 -102.589384    2.207464    0.000000    0.000000    0.000000    0.000000
  0.050060120  -33.392203   34.747528 -102.860451    3.392389    0.000000    0.000000    0.000000    0.000000
  0.050260521  -33.406439   34.380730 -101.414873    6.535048    0.000000    0.000000    0.000000    0.000000
  0.050460922  -33.372227   34.703377 -102.401851    7.792692    0.000000    0.000000    0.000000    0.000000
  0.050661323  -33.342940   34.208588 -104.992235    5.677754    0.000000    0.000000    0.000000    0.000000
  0.050861723  -33.295747   34.358837 -104.499313   -1.220809    0.000000    0.000000    0.000000    0.000000
  0.051062124  -33.318658   34.491020 -102.396845   -3.154929    0.000000    0.000000    0.000000    0.000000
  0.051262525  -33.265522   34.052631 -101.905298   10.697167    0.000000    0.000000    0.000000    0.000000
  0.051462926  -33.345122   33.781506 -103.965414   -2.668178    0.000000    0.000000    0.000000    0.000000
  0.051663327  -33.323922   34.214306 -105.075894    3.123593    0.000000    0.000000    0.000000    0.000000
  0.051863727  -33.267387   33.926292 -104.948167   -7.949375    0.000000    0.000000    0.000000    0.000000
  0.052064128  -33.362736   33.746315 -101.178044   -1.007312    0.000000    0.000000    0.000000    0.000000
  0.052264529  -33.347935   33.232868 -102.192911   -0.757777    0.000000    0.000000    0.000000    0.000000
  0.052464930  -33.268414   33.400887 -103.490072    5.708531    0.000000    0.000000    0.000000    0.000000
  0.052665331  -33.292572   32.817799 -102.965249   18.049143    0.000000    0.000000    0.000000    0.000000
  0.052865731  -33.189243   32.800404 -102.705643   -6.817092    0.000000    0.000000    0.000000    0.000000
