! Anritsu VNA Master:                     Model: MS2036C/10/77
! SN:                                  1601066
! /bd0/18may10/255.ew.m10.s2p
! Existing Calibration Information:
! TYPE:                         Current Settings,       Active Cal Settings
! TIME:             	   05/10/2018 02:00:06 PM,    05/10/2018 01:50:32 PM
! INTERNAL TEMP:    	                   56.8 C,                    56.0 C
! # POINTS:         	                      492,                       492
! START FREQ:       	               20.000 MHz,                20.000 MHz
! STOP FREQ:        	          118.396 793 MHz,           118.396 793 MHz
! SOURCE POWER:     	                     High,                      High
! IFBW:             	                    50 Hz,                     50 Hz
! AVG FACTOR:       	                       1 ,                        1 
! REF PLANE 1:      	                     0 mm,                      0 mm
! REF PLANE 2:      	                     0 mm,                      0 mm
! CAL TYPE:         	                 Full S22,                  Full S22
! CAL METHOD:       	                     SOLT,                      SOLT
! CAL LINE TYPE:    	                     Coax,                      Coax
! DUT PORT 1:       	                K-Conn(M),                 K-Conn(M)
! DUT PORT 2:       	                K-Conn(M),                 K-Conn(M)
! CAL STATUS:       	        OK: Accuracy High,                        --
# GHZ S DB R 50.0
! FREQ.GHZ       S11DB        S11A       S21DB        S21A       S12DB        S12A       S22DB        S22A
  0.020000000    0.000000    0.000000    0.000000    0.000000  -89.222705   34.506996   -0.927409 -125.589981
  0.020200401    0.000000    0.000000    0.000000    0.000000  -89.942385   33.495380   -0.936136 -127.039047
  0.020400802    0.000000    0.000000    0.000000    0.000000  -90.275068   31.636307   -0.944605 -128.467651
  0.020601202    0.000000    0.000000    0.000000    0.000000  -91.094190   34.870583   -0.952543 -129.940216
  0.020801603    0.000000    0.000000    0.000000    0.000000  -90.584400   35.531506   -0.964058 -131.420944
  0.021002004    0.000000    0.000000    0.000000    0.000000  -90.765364   31.427080   -0.972474 -132.932922
  0.021202405    0.000000    0.000000    0.000000    0.000000  -91.361658   36.896519   -0.981967 -134.433807
  0.021402806    0.000000    0.000000    0.000000    0.000000  -91.465302   35.464825   -0.990623 -135.925385
  0.021603206    0.000000    0.000000    0.000000    0.000000  -91.797595   33.676842   -0.999554 -137.414261
  0.021803607    0.000000    0.000000    0.000000    0.000000  -92.084708   43.779190   -1.009036 -138.905991
  0.022004008    0.000000    0.000000    0.000000    0.000000  -91.485561   40.908997   -1.017790 -140.409134
  0.022204409    0.000000    0.000000    0.000000    0.000000  -91.734707   41.350487   -1.027820 -141.918625
  0.022404810    0.000000    0.000000    0.000000    0.000000  -92.161286   43.835434   -1.040659 -143.455368
  0.022605210    0.000000    0.000000    0.000000    0.000000  -91.721088   40.687813   -1.053259 -144.992310
  0.022805611    0.000000    0.000000    0.000000    0.000000  -91.896272   42.273174   -1.060575 -146.556168
  0.023006012    0.000000    0.000000    0.000000    0.000000  -91.749543   41.693554   -1.069403 -148.105881
  0.023206413    0.000000    0.000000    0.000000    0.000000  -91.454274   41.333027   -1.075904 -149.658768
  0.023406814    0.000000    0.000000    0.000000    0.000000  -90.972098   40.407261   -1.085479 -151.207840
  0.023607214    0.000000    0.000000    0.000000    0.000000  -91.617880   43.113831   -1.100124 -152.768982
  0.023807615    0.000000    0.000000    0.000000    0.000000  -91.149243   38.028603   -1.113129 -154.347824
  0.024008016    0.000000    0.000000    0.000000    0.000000  -90.751403   37.075199   -1.125906 -155.937988
  0.024208417    0.000000    0.000000    0.000000    0.000000  -90.881186   34.497658   -1.136344 -157.565094
  0.024408818    0.000000    0.000000    0.000000    0.000000  -91.641976   35.444881   -1.145775 -159.187485
  0.024609218    0.000000    0.000000    0.000000    0.000000  -91.696038   37.225124   -1.156807 -160.814957
  0.024809619    0.000000    0.000000    0.000000    0.000000  -91.262824   31.085361   -1.169588 -162.457260
  0.025010020    0.000000    0.000000    0.000000    0.000000  -92.074217   30.112501   -1.185961 -164.103455
  0.025210421    0.000000    0.000000    0.000000    0.000000  -91.935549   33.769253   -1.199202 -165.738678
  0.025410822    0.000000    0.000000    0.000000    0.000000  -91.988052   24.734365   -1.216622 -167.396988
  0.025611222    0.000000    0.000000    0.000000    0.000000  -92.376678   23.043512   -1.231441 -169.072784
  0.025811623    0.000000    0.000000    0.000000    0.000000  -92.841679   24.998949   -1.246624 -170.757462
  0.026012024    0.000000    0.000000    0.000000    0.000000  -92.848908   27.200251   -1.263598 -172.449478
  0.026212425    0.000000    0.000000    0.000000    0.000000  -93.582100   25.029226   -1.279378 -174.161270
  0.026412826    0.000000    0.000000    0.000000    0.000000  -93.300886   25.111280   -1.296215 -175.868851
  0.026613226    0.000000    0.000000    0.000000    0.000000  -93.459373   24.712534   -1.316264 -177.575897
  0.026813627    0.000000    0.000000    0.000000    0.000000  -94.205956   25.519440   -1.335573 -179.318069
  0.027014028    0.000000    0.000000    0.000000    0.000000  -93.999095   28.578339   -1.356628  178.946045
  0.027214429    0.000000    0.000000    0.000000    0.000000  -94.686419   25.601137   -1.378744  177.207016
  0.027414830    0.000000    0.000000    0.000000    0.000000  -93.965752   26.322086   -1.399918  175.463882
  0.027615230    0.000000    0.000000    0.000000    0.000000  -94.641751   29.686361   -1.422927  173.692139
  0.027815631    0.000000    0.000000    0.000000    0.000000  -94.755714   28.163267   -1.447198  171.914246
  0.028016032    0.000000    0.000000    0.000000    0.000000  -94.815830   29.011608   -1.471320  170.123886
  0.028216433    0.000000    0.000000    0.000000    0.000000  -94.706484   30.597397   -1.496737  168.320190
  0.028416834    0.000000    0.000000    0.000000    0.000000  -93.564414   31.109518   -1.523880  166.516968
  0.028617234    0.000000    0.000000    0.000000    0.000000  -95.691152   36.372734   -1.550077  164.696243
  0.028817635    0.000000    0.000000    0.000000    0.000000  -94.993527   38.745186   -1.577549  162.877213
  0.029018036    0.000000    0.000000    0.000000    0.000000  -94.141483   32.983990   -1.606355  161.066605
  0.029218437    0.000000    0.000000    0.000000    0.000000  -94.707925   32.157185   -1.635852  159.224304
  0.029418838    0.000000    0.000000    0.000000    0.000000  -94.304913   33.997173   -1.666876  157.367462
  0.029619238    0.000000    0.000000    0.000000    0.000000  -94.446667   30.594769   -1.696850  155.498260
  0.029819639    0.000000    0.000000    0.000000    0.000000  -93.934016   27.183882   -1.729456  153.613373
  0.030020040    0.000000    0.000000    0.000000    0.000000  -93.838423   25.849270   -1.761191  151.729965
  0.030220441    0.000000    0.000000    0.000000    0.000000  -94.472234   26.942341   -1.792740  149.825577
  0.030420842    0.000000    0.000000    0.000000    0.000000  -94.189108   26.054699   -1.826345  147.943634
  0.030621242    0.000000    0.000000    0.000000    0.000000  -93.875858   25.065060   -1.860864  146.041962
  0.030821643    0.000000    0.000000    0.000000    0.000000  -94.260106   23.883188   -1.896180  144.142822
  0.031022044    0.000000    0.000000    0.000000    0.000000  -94.505823   25.547646   -1.933110  142.216766
  0.031222445    0.000000    0.000000    0.000000    0.000000  -93.717035   24.958691   -1.961866  140.289337
  0.031422846    0.000000    0.000000    0.000000    0.000000  -95.339491   21.224228   -1.999193  138.335480
  0.031623246    0.000000    0.000000    0.000000    0.000000  -94.078124   25.292532   -2.037785  136.365540
  0.031823647    0.000000    0.000000    0.000000    0.000000  -94.667472   13.973639   -2.073481  134.397812
  0.032024048    0.000000    0.000000    0.000000    0.000000  -94.479343   17.689291   -2.112539  132.419067
  0.032224449    0.000000    0.000000    0.000000    0.000000  -94.683499   13.589514   -2.154564  130.452682
  0.032424850    0.000000    0.000000    0.000000    0.000000  -95.179701   18.887274   -2.195846  128.463120
  0.032625250    0.000000    0.000000    0.000000    0.000000  -95.515285   19.147480   -2.234756  126.468056
  0.032825651    0.000000    0.000000    0.000000    0.000000  -95.454014   17.054560   -2.274492  124.453789
  0.033026052    0.000000    0.000000    0.000000    0.000000  -96.354011   17.419954   -2.314429  122.423355
  0.033226453    0.000000    0.000000    0.000000    0.000000  -97.597620   25.119389   -2.357079  120.417915
  0.033426854    0.000000    0.000000    0.000000    0.000000  -96.360224   20.847731   -2.399608  118.396469
  0.033627254    0.000000    0.000000    0.000000    0.000000  -95.889344   19.175617   -2.440052  116.384285
  0.033827655    0.000000    0.000000    0.000000    0.000000  -95.646233   23.821846   -2.484557  114.371124
  0.034028056    0.000000    0.000000    0.000000    0.000000  -97.057180   21.234003   -2.528481  112.369415
  0.034228457    0.000000    0.000000    0.000000    0.000000  -95.979740   27.003006   -2.573506  110.322784
  0.034428858    0.000000    0.000000    0.000000    0.000000  -96.044960   26.702276   -2.620636  108.275482
  0.034629258    0.000000    0.000000    0.000000    0.000000  -96.082785   27.744997   -2.666287  106.206276
  0.034829659    0.000000    0.000000    0.000000    0.000000  -95.989969   25.055561   -2.712515  104.155388
  0.035030060    0.000000    0.000000    0.000000    0.000000  -96.733887   23.662565   -2.764851  102.108864
  0.035230461    0.000000    0.000000    0.000000    0.000000  -96.483724   22.493439   -2.812560  100.054680
  0.035430862    0.000000    0.000000    0.000000    0.000000  -95.803515   33.177647   -2.860730   97.986557
  0.035631262    0.000000    0.000000    0.000000    0.000000  -98.259420   22.777874   -2.910989   95.925827
  0.035831663    0.000000    0.000000    0.000000    0.000000  -96.375072   28.048695   -2.959982   93.845161
  0.036032064    0.000000    0.000000    0.000000    0.000000  -97.299212   20.831085   -3.009370   91.772797
  0.036232465    0.000000    0.000000    0.000000    0.000000  -96.426391   16.076199   -3.058861   89.687477
  0.036432866    0.000000    0.000000    0.000000    0.000000  -96.203926   21.731585   -3.108400   87.593658
  0.036633266    0.000000    0.000000    0.000000    0.000000  -95.946601   26.380749   -3.151112   85.497726
  0.036833667    0.000000    0.000000    0.000000    0.000000  -97.199615   24.088593   -3.200031   83.385857
  0.037034068    0.000000    0.000000    0.000000    0.000000  -97.785242   18.563559   -3.242211   81.273445
  0.037234469    0.000000    0.000000    0.000000    0.000000  -96.644979   20.578121   -3.282550   79.127640
  0.037434870    0.000000    0.000000    0.000000    0.000000  -96.784434   18.435486   -3.320474   76.957115
  0.037635270    0.000000    0.000000    0.000000    0.000000  -99.026398   13.562684   -3.354303   74.736542
  0.037835671    0.000000    0.000000    0.000000    0.000000  -98.703575   28.338318   -3.395979   72.410828
  0.038036072    0.000000    0.000000    0.000000    0.000000  -97.149535   11.967629   -3.449934   70.012375
  0.038236473    0.000000    0.000000    0.000000    0.000000  -97.084483   22.853016   -3.524718   67.665573
  0.038436874    0.000000    0.000000    0.000000    0.000000  -97.722797   23.964378   -3.605600   65.382889
  0.038637274    0.000000    0.000000    0.000000    0.000000  -97.646264   21.093807   -3.685057   63.193619
  0.038837675    0.000000    0.000000    0.000000    0.000000  -97.715650   21.473139   -3.757565   61.064636
  0.039038076    0.000000    0.000000    0.000000    0.000000  -98.080711   27.518105   -3.821679   58.943897
  0.039238477    0.000000    0.000000    0.000000    0.000000  -97.297859   28.063633   -3.883660   56.848995
  0.039438878    0.000000    0.000000    0.000000    0.000000  -97.189542   26.127943   -3.944846   54.737144
  0.039639278    0.000000    0.000000    0.000000    0.000000  -98.067975   23.042620   -4.001574   52.656433
  0.039839679    0.000000    0.000000    0.000000    0.000000  -96.665576   33.863205   -4.058350   50.544788
  0.040040080    0.000000    0.000000    0.000000    0.000000  -98.047723   30.683733   -4.109373   48.421791
  0.040240481    0.000000    0.000000    0.000000    0.000000  -98.934139   25.784060   -4.161035   46.309212
  0.040440882    0.000000    0.000000    0.000000    0.000000  -97.101775   27.970102   -4.210533   44.222122
  0.040641283    0.000000    0.000000    0.000000    0.000000  -97.671106   19.425337   -4.260722   42.125874
  0.040841683    0.000000    0.000000    0.000000    0.000000  -97.854597   33.420589   -4.310340   40.048710
  0.041042084    0.000000    0.000000    0.000000    0.000000  -97.035928   33.621048   -4.359831   37.973305
  0.041242485    0.000000    0.000000    0.000000    0.000000  -98.061410   23.712502   -4.412073   35.883015
  0.041442886    0.000000    0.000000    0.000000    0.000000  -97.373456   26.942430   -4.463399   33.796597
  0.041643287    0.000000    0.000000    0.000000    0.000000  -96.564271   28.202152   -4.511169   31.705622
  0.041843687    0.000000    0.000000    0.000000    0.000000  -99.551420   21.867592   -4.559935   29.611893
  0.042044088    0.000000    0.000000    0.000000    0.000000  -97.809059   25.266632   -4.607148   27.524036
  0.042244489    0.000000    0.000000    0.000000    0.000000  -98.726431   28.953978   -4.655573   25.469957
  0.042444890    0.000000    0.000000    0.000000    0.000000  -99.086553   26.997974   -4.702282   23.411549
  0.042645291    0.000000    0.000000    0.000000    0.000000  -98.906503   32.321293   -4.751053   21.353939
  0.042845691    0.000000    0.000000    0.000000    0.000000  -98.613080   22.202097   -4.798629   19.297131
  0.043046092    0.000000    0.000000    0.000000    0.000000 -100.081937   27.909134   -4.844594   17.251150
  0.043246493    0.000000    0.000000    0.000000    0.000000  -98.192177   24.191381   -4.889953   15.193776
  0.043446894    0.000000    0.000000    0.000000    0.000000  -99.076801   34.718033   -4.932899   13.157637
  0.043647295    0.000000    0.000000    0.000000    0.000000  -98.612742   17.367491   -4.976222   11.113789
  0.043847695    0.000000    0.000000    0.000000    0.000000  -99.922778   23.350662   -5.015831    9.080250
  0.044048096    0.000000    0.000000    0.000000    0.000000 -100.218711   26.634815   -5.053815    7.061351
  0.044248497    0.000000    0.000000    0.000000    0.000000  -98.588158   23.475760   -5.095531    5.045731
  0.044448898    0.000000    0.000000    0.000000    0.000000  -99.005056   21.934717   -5.133808    3.025296
  0.044649299    0.000000    0.000000    0.000000    0.000000 -100.329045   29.539724   -5.171945    1.045086
  0.044849699    0.000000    0.000000    0.000000    0.000000  -99.115792   26.274391   -5.208944   -0.936476
  0.045050100    0.000000    0.000000    0.000000    0.000000  -98.737059   29.055235   -5.244150   -2.919493
  0.045250501    0.000000    0.000000    0.000000    0.000000  -98.911664   29.773388   -5.276184   -4.893859
  0.045450902    0.000000    0.000000    0.000000    0.000000  -99.159003   24.247097   -5.307619   -6.856719
  0.045651303    0.000000    0.000000    0.000000    0.000000  -99.803694   27.195642   -5.335784   -8.820874
  0.045851703    0.000000    0.000000    0.000000    0.000000  -98.194777   38.712334   -5.365518  -10.760731
  0.046052104    0.000000    0.000000    0.000000    0.000000  -98.558231   39.018978   -5.392400  -12.698388
  0.046252505    0.000000    0.000000    0.000000    0.000000  -98.885256   35.221500   -5.420977  -14.604230
  0.046452906    0.000000    0.000000    0.000000    0.000000  -97.794544   31.176390   -5.448911  -16.506516
  0.046653307    0.000000    0.000000    0.000000    0.000000  -98.965886   28.156595   -5.476814  -18.407139
  0.046853707    0.000000    0.000000    0.000000    0.000000  -97.934621   34.071182   -5.503901  -20.284454
  0.047054108    0.000000    0.000000    0.000000    0.000000  -99.431995   27.756882   -5.529535  -22.148561
  0.047254509    0.000000    0.000000    0.000000    0.000000  -99.237792   36.446835   -5.553590  -24.022943
  0.047454910    0.000000    0.000000    0.000000    0.000000  -98.303035   26.264168   -5.575017  -25.895140
  0.047655311    0.000000    0.000000    0.000000    0.000000  -97.590001   29.108282   -5.596873  -27.739527
  0.047855711    0.000000    0.000000    0.000000    0.000000  -99.764338   22.408747   -5.619590  -29.551764
  0.048056112    0.000000    0.000000    0.000000    0.000000  -97.442205   35.883217   -5.640862  -31.351637
  0.048256513    0.000000    0.000000    0.000000    0.000000  -99.106531   30.860977   -5.665146  -33.167397
  0.048456914    0.000000    0.000000    0.000000    0.000000  -96.871665   33.631405   -5.686515  -34.951984
  0.048657315    0.000000    0.000000    0.000000    0.000000  -98.997198   29.155148   -5.707851  -36.761261
  0.048857715    0.000000    0.000000    0.000000    0.000000  -99.573237   43.362907   -5.726550  -38.527756
  0.049058116    0.000000    0.000000    0.000000    0.000000 -100.353628   30.470501   -5.744072  -40.300831
  0.049258517    0.000000    0.000000    0.000000    0.000000  -98.046106   28.503639   -5.760967  -42.079536
  0.049458918    0.000000    0.000000    0.000000    0.000000 -100.302440   28.486017   -5.778269  -43.796650
  0.049659319    0.000000    0.000000    0.000000    0.000000  -98.905446   34.535728   -5.799369  -45.556263
  0.049859719    0.000000    0.000000    0.000000    0.000000  -99.530954   33.190258   -5.815876  -47.267979
  0.050060120    0.000000    0.000000    0.000000    0.000000  -99.912187   41.014030   -5.831787  -48.989487
  0.050260521    0.000000    0.000000    0.000000    0.000000  -98.658799   34.306862   -5.848735  -50.705818
  0.050460922    0.000000    0.000000    0.000000    0.000000  -99.255802   38.092537   -5.860369  -52.393833
  0.050661323    0.000000    0.000000    0.000000    0.000000  -99.854800   36.052483   -5.870605  -54.089863
  0.050861723    0.000000    0.000000    0.000000    0.000000 -100.145323   30.703852   -5.881399  -55.768085
  0.051062124    0.000000    0.000000    0.000000    0.000000  -99.778521   40.448677   -5.895193  -57.462318
  0.051262525    0.000000    0.000000    0.000000    0.000000 -100.464648   45.756443   -5.908938  -59.099457
  0.051462926    0.000000    0.000000    0.000000    0.000000  -99.751308   33.118626   -5.920384  -60.743862
  0.051663327    0.000000    0.000000    0.000000    0.000000  -99.190183   32.654633   -5.929960  -62.383873
  0.051863727    0.000000    0.000000    0.000000    0.000000  -99.651282   36.218723   -5.938434  -64.012352
  0.052064128    0.000000    0.000000    0.000000    0.000000  -98.945457   41.640926   -5.944158  -65.619583
  0.052264529    0.000000    0.000000    0.000000    0.000000  -98.679488   23.992100   -5.948654  -67.226303
  0.052464930    0.000000    0.000000    0.000000    0.000000  -98.560390   25.401974   -5.954218  -68.813477
  0.052665331    0.000000    0.000000    0.000000    0.000000  -98.357492   31.574158   -5.961120  -70.394112
  0.052865731    0.000000    0.000000    0.000000    0.000000  -98.590057   31.526316   -5.968477  -71.947586
