! Anritsu VNA Master:                     Model: MS2036C/10/77
! SN:                                  1601066
! /card0/usr/18may27.balun/5a..r50.s2p
! Existing Calibration Information:
! TYPE:                         Current Settings,       Active Cal Settings
! TIME:             	   05/27/2018 04:57:59 PM,    05/27/2018 04:42:15 PM
! INTERNAL TEMP:    	                   53.5 C,                    52.0 C
! # POINTS:         	                      500,                       500
! START FREQ:       	               20.000 MHz,                20.000 MHz
! STOP FREQ:        	              120.000 MHz,               120.000 MHz
! SOURCE POWER:     	                     High,                      High
! IFBW:             	                    50 Hz,                     50 Hz
! AVG FACTOR:       	                       1 ,                        1 
! REF PLANE 1:      	                     0 mm,                      0 mm
! REF PLANE 2:      	                     0 mm,                      0 mm
! CAL TYPE:         	                 Full S11,                  Full S11
! CAL METHOD:       	                     SOLT,                      SOLT
! CAL LINE TYPE:    	                     Coax,                      Coax
! DUT PORT 1:       	                K-Conn(M),                 K-Conn(M)
! DUT PORT 2:       	                K-Conn(M),                 K-Conn(M)
! CAL STATUS:       	        OK: Accuracy High,                        --
# GHZ S DB R 50.0
! FREQ.GHZ       S11DB        S11A       S21DB        S21A       S12DB        S12A       S22DB        S22A
  0.020000000  -39.557408   48.910557  -91.105517   34.378376    0.000000    0.000000    0.000000    0.000000
  0.020200401  -39.286560   48.108482  -91.463258   37.666058    0.000000    0.000000    0.000000    0.000000
  0.020400802  -39.038144   47.900406  -91.683677   33.742100    0.000000    0.000000    0.000000    0.000000
  0.020601202  -38.841134   47.420555  -91.463565   36.619263    0.000000    0.000000    0.000000    0.000000
  0.020801603  -38.653192   48.433189  -91.611481   34.088860    0.000000    0.000000    0.000000    0.000000
  0.021002004  -38.402913   48.889870  -91.171387   33.030907    0.000000    0.000000    0.000000    0.000000
  0.021202405  -38.213109   48.802658  -92.335802   29.163460    0.000000    0.000000    0.000000    0.000000
  0.021402806  -37.952089   48.885513  -92.704916   32.288746    0.000000    0.000000    0.000000    0.000000
  0.021603206  -37.907892   49.807243  -91.974532   31.329149    0.000000    0.000000    0.000000    0.000000
  0.021803607  -37.713671   50.940002  -92.548379   34.676178    0.000000    0.000000    0.000000    0.000000
  0.022004008  -37.735366   51.317062  -92.340900   32.520206    0.000000    0.000000    0.000000    0.000000
  0.022204409  -37.686155   52.645111  -92.381955   25.922165    0.000000    0.000000    0.000000    0.000000
  0.022404810  -37.715918   53.002949  -93.111735   28.623617    0.000000    0.000000    0.000000    0.000000
  0.022605210  -37.655496   54.518974  -92.936969   29.140165    0.000000    0.000000    0.000000    0.000000
  0.022805611  -37.599040   54.929440  -92.837469   28.746317    0.000000    0.000000    0.000000    0.000000
  0.023006012  -37.651559   55.686470  -92.755257   27.998545    0.000000    0.000000    0.000000    0.000000
  0.023206413  -37.630410   55.160873  -93.025336   27.416822    0.000000    0.000000    0.000000    0.000000
  0.023406814  -37.792954   56.456161  -93.661144   22.686733    0.000000    0.000000    0.000000    0.000000
  0.023607214  -37.827719   56.497547  -93.002224   26.601116    0.000000    0.000000    0.000000    0.000000
  0.023807615  -37.919867   56.051655  -93.873917   21.377754    0.000000    0.000000    0.000000    0.000000
  0.024008016  -37.912659   55.829216  -93.285721   23.297262    0.000000    0.000000    0.000000    0.000000
  0.024208417  -38.061698   55.577778  -93.487481   26.958752    0.000000    0.000000    0.000000    0.000000
  0.024408818  -38.234795   55.125885  -93.667599   26.111313    0.000000    0.000000    0.000000    0.000000
  0.024609218  -38.162378   53.966507  -94.563735   23.800987    0.000000    0.000000    0.000000    0.000000
  0.024809619  -38.195686   53.432652  -94.047940   24.106989    0.000000    0.000000    0.000000    0.000000
  0.025010020  -38.115850   52.733013  -94.331344   25.153322    0.000000    0.000000    0.000000    0.000000
  0.025210421  -38.086627   51.489441  -94.048587   24.799351    0.000000    0.000000    0.000000    0.000000
  0.025410822  -37.976921   50.578400  -94.458057   25.413631    0.000000    0.000000    0.000000    0.000000
  0.025611222  -37.886778   50.658092  -94.344505   25.254898    0.000000    0.000000    0.000000    0.000000
  0.025811623  -37.759978   49.581062  -94.805407   21.004398    0.000000    0.000000    0.000000    0.000000
  0.026012024  -37.621917   49.558804  -94.779049   24.230181    0.000000    0.000000    0.000000    0.000000
  0.026212425  -37.526182   48.947990  -94.823435   22.759647    0.000000    0.000000    0.000000    0.000000
  0.026412826  -37.367331   49.059921  -95.427676   20.935991    0.000000    0.000000    0.000000    0.000000
  0.026613226  -37.174809   48.638882  -95.078476   24.604952    0.000000    0.000000    0.000000    0.000000
  0.026813627  -37.143580   49.186516  -95.179996   19.067743    0.000000    0.000000    0.000000    0.000000
  0.027014028  -36.997304   49.254276  -95.069253   17.845217    0.000000    0.000000    0.000000    0.000000
  0.027214429  -36.917309   49.206005  -95.900880   23.460842    0.000000    0.000000    0.000000    0.000000
  0.027414830  -36.925276   49.855347  -96.219614   21.992950    0.000000    0.000000    0.000000    0.000000
  0.027615230  -36.791423   49.821358  -95.406186   19.132050    0.000000    0.000000    0.000000    0.000000
  0.027815631  -36.740047   50.317665  -95.573626   20.059704    0.000000    0.000000    0.000000    0.000000
  0.028016032  -36.691528   51.020287  -96.225988   17.504911    0.000000    0.000000    0.000000    0.000000
  0.028216433  -36.660650   51.237724  -97.028263   21.251040    0.000000    0.000000    0.000000    0.000000
  0.028416834  -36.645994   52.129993  -95.443425   20.525614    0.000000    0.000000    0.000000    0.000000
  0.028617234  -36.640525   52.131809  -96.783760   18.315813    0.000000    0.000000    0.000000    0.000000
  0.028817635  -36.665601   52.112759  -95.763922   20.948122    0.000000    0.000000    0.000000    0.000000
  0.029018036  -36.713631   52.162560  -97.041063   17.165844    0.000000    0.000000    0.000000    0.000000
  0.029218437  -36.805698   52.115780  -96.673591   16.221701    0.000000    0.000000    0.000000    0.000000
  0.029418838  -36.865120   51.943306  -96.410065   18.269728    0.000000    0.000000    0.000000    0.000000
  0.029619238  -36.898700   51.854221  -97.370450   16.037624    0.000000    0.000000    0.000000    0.000000
  0.029819639  -36.969877   51.313774  -97.430739   14.588506    0.000000    0.000000    0.000000    0.000000
  0.030020040  -36.956297   50.662289  -96.834325   18.529886    0.000000    0.000000    0.000000    0.000000
  0.030220441  -36.971253   50.241264  -97.043656   18.374578    0.000000    0.000000    0.000000    0.000000
  0.030420842  -36.914050   49.148556  -96.861392   10.810005    0.000000    0.000000    0.000000    0.000000
  0.030621242  -36.885429   47.779839  -97.359273   21.682400    0.000000    0.000000    0.000000    0.000000
  0.030821643  -36.840117   47.385231  -96.290935   14.875443    0.000000    0.000000    0.000000    0.000000
  0.031022044  -36.722969   46.987637  -97.153055   12.472728    0.000000    0.000000    0.000000    0.000000
  0.031222445  -36.685079   46.598434  -96.887763   10.656567    0.000000    0.000000    0.000000    0.000000
  0.031422846  -36.542568   46.119785  -98.220194   12.596097    0.000000    0.000000    0.000000    0.000000
  0.031623246  -36.428792   45.668468  -96.825726   19.862623    0.000000    0.000000    0.000000    0.000000
  0.031823647  -36.257841   45.017906  -97.104635   14.414393    0.000000    0.000000    0.000000    0.000000
  0.032024048  -36.069356   45.460217  -96.114493   11.196283    0.000000    0.000000    0.000000    0.000000
  0.032224449  -35.966741   45.276295  -97.016309   12.458228    0.000000    0.000000    0.000000    0.000000
  0.032424850  -35.883889   45.483280  -99.361442    0.726838    0.000000    0.000000    0.000000    0.000000
  0.032625251  -35.706122   45.606449  -98.023563   11.082786    0.000000    0.000000    0.000000    0.000000
  0.032825651  -35.608591   46.122681  -98.425972    7.166766    0.000000    0.000000    0.000000    0.000000
  0.033026052  -35.490920   46.902920  -97.574046    9.559793    0.000000    0.000000    0.000000    0.000000
  0.033226453  -35.411073   47.403019  -96.559970    8.365635    0.000000    0.000000    0.000000    0.000000
  0.033426854  -35.378255   48.031471  -97.562853   13.006742    0.000000    0.000000    0.000000    0.000000
  0.033627255  -35.364993   48.028748  -97.278857   17.016870    0.000000    0.000000    0.000000    0.000000
  0.033827655  -35.338251   49.077938  -98.872722    7.776426    0.000000    0.000000    0.000000    0.000000
  0.034028056  -35.396703   49.219093  -99.945246   10.676551    0.000000    0.000000    0.000000    0.000000
  0.034228457  -35.407228   50.111073  -98.757263   12.567879    0.000000    0.000000    0.000000    0.000000
  0.034428858  -35.524322   49.858982  -99.898782   12.230663    0.000000    0.000000    0.000000    0.000000
  0.034629259  -35.482447   50.556953  -98.767979    9.723245    0.000000    0.000000    0.000000    0.000000
  0.034829659  -35.606352   50.782646  -98.620487   16.681639    0.000000    0.000000    0.000000    0.000000
  0.035030060  -35.630587   50.890717  -98.169532    2.420803    0.000000    0.000000    0.000000    0.000000
  0.035230461  -35.679328   50.859833  -99.267613    9.883280    0.000000    0.000000    0.000000    0.000000
  0.035430862  -35.802417   50.829464  -98.805931    4.664382    0.000000    0.000000    0.000000    0.000000
  0.035631263  -35.902747   49.873432  -99.265033    7.463119    0.000000    0.000000    0.000000    0.000000
  0.035831663  -35.906988   49.615952  -98.416360    2.828733    0.000000    0.000000    0.000000    0.000000
  0.036032064  -35.984012   48.602390  -99.580138   11.114701    0.000000    0.000000    0.000000    0.000000
  0.036232465  -36.079057   47.871838  -99.062138   11.869745    0.000000    0.000000    0.000000    0.000000
  0.036432866  -36.108602   46.828785  -98.768108    6.446820    0.000000    0.000000    0.000000    0.000000
  0.036633267  -36.060741   46.083298  -99.436735    5.047134    0.000000    0.000000    0.000000    0.000000
  0.036833667  -36.083511   44.947605  -98.687947    3.884063    0.000000    0.000000    0.000000    0.000000
  0.037034068  -35.949148   44.343048  -99.265335   -1.392869    0.000000    0.000000    0.000000    0.000000
  0.037234469  -35.866154   43.281513  -99.362794    4.507940    0.000000    0.000000    0.000000    0.000000
  0.037434870  -35.721314   42.537052  -99.796295    4.335599    0.000000    0.000000    0.000000    0.000000
  0.037635271  -35.644742   41.952625  -99.078646    7.111990    0.000000    0.000000    0.000000    0.000000
  0.037835671  -35.527639   41.926315 -100.432015    1.985283    0.000000    0.000000    0.000000    0.000000
  0.038036072  -35.431666   40.740570 -100.366484   16.215403    0.000000    0.000000    0.000000    0.000000
  0.038236473  -35.286197   41.004772 -100.763317   13.349129    0.000000    0.000000    0.000000    0.000000
  0.038436874  -35.176619   40.810184 -100.798551   14.683857    0.000000    0.000000    0.000000    0.000000
  0.038637275  -34.984348   40.763889  -99.993697    0.657505    0.000000    0.000000    0.000000    0.000000
  0.038837675  -34.919625   40.622002  -98.563685    6.990318    0.000000    0.000000    0.000000    0.000000
  0.039038076  -34.709660   40.870365 -100.268646    0.288866    0.000000    0.000000    0.000000    0.000000
  0.039238477  -34.704000   41.484581 -101.587802    6.611751    0.000000    0.000000    0.000000    0.000000
  0.039438878  -34.498946   41.387001 -100.988738   -0.936856    0.000000    0.000000    0.000000    0.000000
  0.039639279  -34.453583   41.698189 -101.239837   10.973057    0.000000    0.000000    0.000000    0.000000
  0.039839679  -34.343694   42.150356 -100.607009   12.418998    0.000000    0.000000    0.000000    0.000000
  0.040040080  -34.368097   42.386021  -99.812586    4.182525    0.000000    0.000000    0.000000    0.000000
  0.040240481  -34.210892   43.518154 -101.839134    2.591518    0.000000    0.000000    0.000000    0.000000
  0.040440882  -34.191103   44.058632 -100.462622    2.957950    0.000000    0.000000    0.000000    0.000000
  0.040641283  -34.154660   44.131622 -101.691454   19.791941    0.000000    0.000000    0.000000    0.000000
  0.040841683  -34.198675   44.630199  -99.220096    8.010546    0.000000    0.000000    0.000000    0.000000
  0.041042084  -34.192446   45.365379 -100.906071    5.282330    0.000000    0.000000    0.000000    0.000000
  0.041242485  -34.185672   45.532505 -100.396362   -3.784740    0.000000    0.000000    0.000000    0.000000
  0.041442886  -34.193849   45.872723  -99.949436   10.487342    0.000000    0.000000    0.000000    0.000000
  0.041643287  -34.328740   46.139484 -101.598527   12.972445    0.000000    0.000000    0.000000    0.000000
  0.041843687  -34.332642   46.405472 -103.152175    5.632565    0.000000    0.000000    0.000000    0.000000
  0.042044088  -34.368355   46.799522 -102.097189    4.709342    0.000000    0.000000    0.000000    0.000000
  0.042244489  -34.391957   46.676483 -100.722962    9.270000    0.000000    0.000000    0.000000    0.000000
  0.042444890  -34.491222   46.657280 -100.446768   11.229869    0.000000    0.000000    0.000000    0.000000
  0.042645291  -34.534525   46.877506 -101.431914    1.993960    0.000000    0.000000    0.000000    0.000000
  0.042845691  -34.637940   46.660820 -100.547592   11.095565    0.000000    0.000000    0.000000    0.000000
  0.043046092  -34.691739   46.301170 -102.026629    8.742970    0.000000    0.000000    0.000000    0.000000
  0.043246493  -34.791517   46.277714 -102.333720    6.159141    0.000000    0.000000    0.000000    0.000000
  0.043446894  -34.897409   45.593739 -100.731250    8.795934    0.000000    0.000000    0.000000    0.000000
  0.043647295  -34.821670   44.278824 -100.848313    3.144085    0.000000    0.000000    0.000000    0.000000
  0.043847695  -34.932320   44.246746 -100.406728    7.410862    0.000000    0.000000    0.000000    0.000000
  0.044048096  -34.969277   43.045628 -102.375905    1.033901    0.000000    0.000000    0.000000    0.000000
  0.044248497  -35.000660   41.713577 -101.127077    6.294935    0.000000    0.000000    0.000000    0.000000
  0.044448898  -34.937498   40.749069 -103.411211    4.401036    0.000000    0.000000    0.000000    0.000000
  0.044649299  -34.884174   40.141647 -100.708345   11.904357    0.000000    0.000000    0.000000    0.000000
  0.044849699  -34.827755   38.560307 -101.608004    7.733731    0.000000    0.000000    0.000000    0.000000
  0.045050100  -34.807269   37.832531 -100.241900    9.489936    0.000000    0.000000    0.000000    0.000000
  0.045250501  -34.671244   37.266254 -100.631216    2.292588    0.000000    0.000000    0.000000    0.000000
  0.045450902  -34.542844   36.287937 -102.249642    9.161271    0.000000    0.000000    0.000000    0.000000
  0.045651303  -34.390012   36.268108 -101.576054    9.573585    0.000000    0.000000    0.000000    0.000000
  0.045851703  -34.297688   35.806202 -102.573207    2.576041    0.000000    0.000000    0.000000    0.000000
  0.046052104  -34.081903   35.111732 -103.308086    6.363822    0.000000    0.000000    0.000000    0.000000
  0.046252505  -33.925794   34.950153 -102.857331   16.549219    0.000000    0.000000    0.000000    0.000000
  0.046452906  -33.838397   35.125443 -103.495657    5.048604    0.000000    0.000000    0.000000    0.000000
  0.046653307  -33.606049   35.302181 -102.632542   -5.361469    0.000000    0.000000    0.000000    0.000000
  0.046853707  -33.458969   36.059391 -100.779706    8.879661    0.000000    0.000000    0.000000    0.000000
  0.047054108  -33.250276   35.952076 -103.372574    4.253479    0.000000    0.000000    0.000000    0.000000
  0.047254509  -33.179025   36.747837 -101.389701   -9.709218    0.000000    0.000000    0.000000    0.000000
  0.047454910  -33.068834   37.401882 -102.098863   -0.727921    0.000000    0.000000    0.000000    0.000000
  0.047655311  -33.023955   38.236877 -101.686749   15.409315    0.000000    0.000000    0.000000    0.000000
  0.047855711  -32.968607   39.024811 -102.209111   -9.041636    0.000000    0.000000    0.000000    0.000000
  0.048056112  -33.036104   40.228409 -103.704960    0.599199    0.000000    0.000000    0.000000    0.000000
  0.048256513  -32.926393   41.185448 -102.145934    1.974774    0.000000    0.000000    0.000000    0.000000
  0.048456914  -33.037570   41.950165 -103.012144   10.388942    0.000000    0.000000    0.000000    0.000000
  0.048657315  -33.049462   42.510132 -102.342388  -11.928615    0.000000    0.000000    0.000000    0.000000
  0.048857715  -33.136468   43.183945 -103.841706    4.013031    0.000000    0.000000    0.000000    0.000000
  0.049058116  -33.301507   43.795921 -102.490436    5.473842    0.000000    0.000000    0.000000    0.000000
  0.049258517  -33.413252   44.184639 -103.358545    0.970305    0.000000    0.000000    0.000000    0.000000
  0.049458918  -33.574698   44.254810 -101.835084   -7.846216    0.000000    0.000000    0.000000    0.000000
  0.049659319  -33.703234   44.062164 -101.944066   12.345610    0.000000    0.000000    0.000000    0.000000
  0.049859719  -33.842833   43.682377 -102.549479    2.149334    0.000000    0.000000    0.000000    0.000000
  0.050060120  -34.019909   43.636909 -106.461153    7.820269    0.000000    0.000000    0.000000    0.000000
  0.050260521  -34.198009   42.585415 -102.801808  -10.456921    0.000000    0.000000    0.000000    0.000000
  0.050460922  -34.267760   41.353611 -105.366038   -6.320114    0.000000    0.000000    0.000000    0.000000
  0.050661323  -34.385392   40.583710 -103.429932    2.868457    0.000000    0.000000    0.000000    0.000000
  0.050861723  -34.493720   39.044365 -102.351629   16.314913    0.000000    0.000000    0.000000    0.000000
  0.051062124  -34.522942   37.039040 -102.415997   -1.251973    0.000000    0.000000    0.000000    0.000000
  0.051262525  -34.542233   35.991283 -102.115712    0.583220    0.000000    0.000000    0.000000    0.000000
  0.051462926  -34.415632   33.637264 -103.709036    4.102042    0.000000    0.000000    0.000000    0.000000
  0.051663327  -34.270858   32.655788 -102.695042    1.193092    0.000000    0.000000    0.000000    0.000000
  0.051863727  -34.087281   31.296848 -103.657595   22.963364    0.000000    0.000000    0.000000    0.000000
  0.052064128  -33.896301   29.761986 -102.509553   -9.605474    0.000000    0.000000    0.000000    0.000000
  0.052264529  -33.731860   29.351734 -104.714499   -4.755291    0.000000    0.000000    0.000000    0.000000
  0.052464930  -33.500842   28.997196 -102.326016   -3.015660    0.000000    0.000000    0.000000    0.000000
  0.052665331  -33.243007   29.115341 -103.704867   20.102438    0.000000    0.000000    0.000000    0.000000
  0.052865731  -32.972184   28.857615 -104.303322   11.207120    0.000000    0.000000    0.000000    0.000000
