! Anritsu VNA Master:                     Model: MS2036C/10/77
! SN:                                  1601066
! /card0/usr/18may27.balun/252b.47.3.s2p
! Existing Calibration Information:
! TYPE:                         Current Settings,       Active Cal Settings
! TIME:             	   05/27/2018 12:56:17 PM,    05/27/2018 12:49:51 PM
! INTERNAL TEMP:    	                   52.3 C,                    52.5 C
! # POINTS:         	                      500,                       500
! START FREQ:       	               20.000 MHz,                20.000 MHz
! STOP FREQ:        	              120.000 MHz,               120.000 MHz
! SOURCE POWER:     	                     High,                      High
! IFBW:             	                    50 Hz,                     50 Hz
! AVG FACTOR:       	                       1 ,                        1 
! REF PLANE 1:      	                     0 mm,                      0 mm
! REF PLANE 2:      	                     0 mm,                      0 mm
! CAL TYPE:         	                 Full S11,                  Full S11
! CAL METHOD:       	                     SOLT,                      SOLT
! CAL LINE TYPE:    	                     Coax,                      Coax
! DUT PORT 1:       	                K-Conn(M),                 K-Conn(M)
! DUT PORT 2:       	                K-Conn(M),                 K-Conn(M)
! CAL STATUS:       	        OK: Accuracy High,                        --
# GHZ S DB R 50.0
! FREQ.GHZ       S11DB        S11A       S21DB        S21A       S12DB        S12A       S22DB        S22A
  0.020000000   -0.029970  -56.161140  -89.878513   37.428028    0.000000    0.000000    0.000000    0.000000
  0.020200401   -0.026410  -56.735405  -90.661764   33.692020    0.000000    0.000000    0.000000    0.000000
  0.020400802   -0.024758  -57.277508  -90.782241   32.964050    0.000000    0.000000    0.000000    0.000000
  0.020601202   -0.024082  -57.824772  -90.937460   30.297726    0.000000    0.000000    0.000000    0.000000
  0.020801603   -0.022779  -58.374336  -91.143052   26.755356    0.000000    0.000000    0.000000    0.000000
  0.021002004   -0.023670  -58.958466  -91.233812   29.754957    0.000000    0.000000    0.000000    0.000000
  0.021202405   -0.026314  -59.514744  -91.694087   28.729931    0.000000    0.000000    0.000000    0.000000
  0.021402806   -0.028095  -60.062061  -92.440473   23.675547    0.000000    0.000000    0.000000    0.000000
  0.021603206   -0.031469  -60.602798  -92.204869   30.385395    0.000000    0.000000    0.000000    0.000000
  0.021803607   -0.034654  -61.132790  -92.855993   24.557335    0.000000    0.000000    0.000000    0.000000
  0.022004008   -0.035974  -61.644554  -93.246884   29.508589    0.000000    0.000000    0.000000    0.000000
  0.022204409   -0.040228  -62.202770  -93.638027   31.245295    0.000000    0.000000    0.000000    0.000000
  0.022404810   -0.041616  -62.767246  -93.168237   25.676155    0.000000    0.000000    0.000000    0.000000
  0.022605210   -0.041929  -63.313034  -94.279496   31.350941    0.000000    0.000000    0.000000    0.000000
  0.022805611   -0.041154  -63.867725  -93.574447   37.549988    0.000000    0.000000    0.000000    0.000000
  0.023006012   -0.034376  -64.419266  -93.190072   31.039705    0.000000    0.000000    0.000000    0.000000
  0.023206413   -0.026856  -64.970924  -93.613363   36.000355    0.000000    0.000000    0.000000    0.000000
  0.023406814   -0.020354  -65.523766  -93.521535   30.773827    0.000000    0.000000    0.000000    0.000000
  0.023607214   -0.017675  -66.075439  -93.802834   32.774441    0.000000    0.000000    0.000000    0.000000
  0.023807615   -0.019396  -66.598625  -93.408095   35.193356    0.000000    0.000000    0.000000    0.000000
  0.024008016   -0.022071  -67.082939  -92.694900   35.787693    0.000000    0.000000    0.000000    0.000000
  0.024208417   -0.027351  -67.570862  -92.939243   26.527430    0.000000    0.000000    0.000000    0.000000
  0.024408818   -0.032794  -68.047806  -93.166719   28.234425    0.000000    0.000000    0.000000    0.000000
  0.024609218   -0.038519  -68.559334  -93.495882   27.033733    0.000000    0.000000    0.000000    0.000000
  0.024809619   -0.041702  -69.089363  -93.274839   21.924042    0.000000    0.000000    0.000000    0.000000
  0.025010020   -0.046622  -69.661629  -93.896879   21.849466    0.000000    0.000000    0.000000    0.000000
  0.025210421   -0.047539  -70.229576  -93.232309   23.174833    0.000000    0.000000    0.000000    0.000000
  0.025410822   -0.050968  -70.802963  -93.890261   20.333265    0.000000    0.000000    0.000000    0.000000
  0.025611222   -0.051078  -71.380615  -94.416705   15.388233    0.000000    0.000000    0.000000    0.000000
  0.025811623   -0.052480  -71.957237  -94.365477   16.250290    0.000000    0.000000    0.000000    0.000000
  0.026012024   -0.048823  -72.525452  -93.842027   16.470125    0.000000    0.000000    0.000000    0.000000
  0.026212425   -0.044606  -73.079903  -94.909094   14.418307    0.000000    0.000000    0.000000    0.000000
  0.026412826   -0.044236  -73.627625  -96.103915   19.222898    0.000000    0.000000    0.000000    0.000000
  0.026613226   -0.047067  -74.141487  -95.103290   25.035969    0.000000    0.000000    0.000000    0.000000
  0.026813627   -0.048800  -74.635635  -96.199615   20.769535    0.000000    0.000000    0.000000    0.000000
  0.027014028   -0.053018  -75.109787  -96.851712   12.865145    0.000000    0.000000    0.000000    0.000000
  0.027214429   -0.064316  -75.611931  -96.168266   17.333668    0.000000    0.000000    0.000000    0.000000
  0.027414830   -0.073474  -76.149910  -97.224229   18.927412    0.000000    0.000000    0.000000    0.000000
  0.027615230   -0.081340  -76.732475  -96.407997   22.908518    0.000000    0.000000    0.000000    0.000000
  0.027815631   -0.083692  -77.343765  -96.658376   23.981951    0.000000    0.000000    0.000000    0.000000
  0.028016032   -0.083398  -77.939545  -96.292298   27.517467    0.000000    0.000000    0.000000    0.000000
  0.028216433   -0.074127  -78.548096  -96.080716   27.759958    0.000000    0.000000    0.000000    0.000000
  0.028416834   -0.065653  -79.152466  -96.106112   23.829510    0.000000    0.000000    0.000000    0.000000
  0.028617234   -0.056423  -79.742172  -96.755207   18.464153    0.000000    0.000000    0.000000    0.000000
  0.028817635   -0.048819  -80.279541  -95.866740   24.479237    0.000000    0.000000    0.000000    0.000000
  0.029018036   -0.039677  -80.780441  -95.860690   20.451916    0.000000    0.000000    0.000000    0.000000
  0.029218437   -0.031685  -81.222969  -96.602637   18.811045    0.000000    0.000000    0.000000    0.000000
  0.029418838   -0.025552  -81.658661  -95.677372   19.408175    0.000000    0.000000    0.000000    0.000000
  0.029619238   -0.023858  -82.063896  -96.191224   15.611029    0.000000    0.000000    0.000000    0.000000
  0.029819639   -0.026134  -82.516632  -95.348096   16.179199    0.000000    0.000000    0.000000    0.000000
  0.030020040   -0.031763  -82.996147  -96.666618   16.961416    0.000000    0.000000    0.000000    0.000000
  0.030220441   -0.039361  -83.508881  -96.726665   18.183609    0.000000    0.000000    0.000000    0.000000
  0.030420842   -0.051304  -84.038765  -96.844127   11.478898    0.000000    0.000000    0.000000    0.000000
  0.030621242   -0.061049  -84.623840  -97.387014   10.115761    0.000000    0.000000    0.000000    0.000000
  0.030821643   -0.063958  -85.176468  -97.481758   14.097222    0.000000    0.000000    0.000000    0.000000
  0.031022044   -0.065554  -85.728989  -98.644622   14.170513    0.000000    0.000000    0.000000    0.000000
  0.031222445   -0.061901  -86.281097  -96.702628   11.793192    0.000000    0.000000    0.000000    0.000000
  0.031422846   -0.063182  -86.841217  -96.285259    6.363063    0.000000    0.000000    0.000000    0.000000
  0.031623246   -0.066640  -87.366379  -96.912213    7.780599    0.000000    0.000000    0.000000    0.000000
  0.031823647   -0.064337  -87.876999  -97.666486   14.022690    0.000000    0.000000    0.000000    0.000000
  0.032024048   -0.061111  -88.361443  -98.248959    8.852762    0.000000    0.000000    0.000000    0.000000
  0.032224449   -0.062725  -88.820084  -98.086818   15.445474    0.000000    0.000000    0.000000    0.000000
  0.032424850   -0.072305  -89.280815  -97.291694   11.880540    0.000000    0.000000    0.000000    0.000000
  0.032625251   -0.081826  -89.775040  -97.615789    5.896723    0.000000    0.000000    0.000000    0.000000
  0.032825651   -0.092646  -90.298683  -97.642613   15.125464    0.000000    0.000000    0.000000    0.000000
  0.033026052   -0.100045  -90.838760  -97.384000   13.388680    0.000000    0.000000    0.000000    0.000000
  0.033226453   -0.107026  -91.402107  -99.923306   15.615756    0.000000    0.000000    0.000000    0.000000
  0.033426854   -0.110814  -91.976036  -98.529725   16.512983    0.000000    0.000000    0.000000    0.000000
  0.033627255   -0.115114  -92.581429  -98.139315   15.877328    0.000000    0.000000    0.000000    0.000000
  0.033827655   -0.115627  -93.198372  -98.664737   15.863581    0.000000    0.000000    0.000000    0.000000
  0.034028056   -0.112236  -93.772026  -97.453245   24.928520    0.000000    0.000000    0.000000    0.000000
  0.034228457   -0.101932  -94.312492  -97.523340   13.638895    0.000000    0.000000    0.000000    0.000000
  0.034428858   -0.091552  -94.845245  -97.034335    6.667173    0.000000    0.000000    0.000000    0.000000
  0.034629259   -0.079564  -95.340744  -98.343828    6.986415    0.000000    0.000000    0.000000    0.000000
  0.034829659   -0.069830  -95.833900  -97.345549   13.365495    0.000000    0.000000    0.000000    0.000000
  0.035030060   -0.064679  -96.283669  -98.029817    6.150290    0.000000    0.000000    0.000000    0.000000
  0.035230461   -0.062369  -96.731956  -98.048864   12.271434    0.000000    0.000000    0.000000    0.000000
  0.035430862   -0.059949  -97.157890  -98.195822    8.852041    0.000000    0.000000    0.000000    0.000000
  0.035631263   -0.067235  -97.618080 -100.104067   10.551007    0.000000    0.000000    0.000000    0.000000
  0.035831663   -0.074942  -98.111221  -98.796888   11.564198    0.000000    0.000000    0.000000    0.000000
  0.036032064   -0.084314  -98.655891  -99.685156    6.340533    0.000000    0.000000    0.000000    0.000000
  0.036232465   -0.091720  -99.178719  -99.792620    8.137760    0.000000    0.000000    0.000000    0.000000
  0.036432866   -0.097247  -99.766876  -98.831172   12.711604    0.000000    0.000000    0.000000    0.000000
  0.036633267   -0.099736 -100.328522  -98.788115   -4.081337    0.000000    0.000000    0.000000    0.000000
  0.036833667   -0.102772 -100.899582  -99.842072    7.852319    0.000000    0.000000    0.000000    0.000000
  0.037034068   -0.095292 -101.430862 -100.226820   15.681030    0.000000    0.000000    0.000000    0.000000
  0.037234469   -0.086000 -101.939056  -99.630398    8.080629    0.000000    0.000000    0.000000    0.000000
  0.037434870   -0.079107 -102.396652 -100.590651    9.548363    0.000000    0.000000    0.000000    0.000000
  0.037635271   -0.072662 -102.848358 -101.311715   16.879847    0.000000    0.000000    0.000000    0.000000
  0.037835671   -0.075161 -103.269081  -99.183262    5.183737    0.000000    0.000000    0.000000    0.000000
  0.038036072   -0.083394 -103.737030  -97.744043   14.104044    0.000000    0.000000    0.000000    0.000000
  0.038236473   -0.091488 -104.228241  -99.831911    6.640842    0.000000    0.000000    0.000000    0.000000
  0.038436874   -0.097912 -104.723152  -98.135156   11.744267    0.000000    0.000000    0.000000    0.000000
  0.038637275   -0.107097 -105.227158  -98.716800   13.090653    0.000000    0.000000    0.000000    0.000000
  0.038837675   -0.116848 -105.745155  -99.492223    7.821273    0.000000    0.000000    0.000000    0.000000
  0.039038076   -0.125275 -106.300743  -98.821879    6.761361    0.000000    0.000000    0.000000    0.000000
  0.039238477   -0.132859 -106.842583  -99.130399    4.481722    0.000000    0.000000    0.000000    0.000000
  0.039438878   -0.132877 -107.393852  -99.351262   -4.925169    0.000000    0.000000    0.000000    0.000000
  0.039639279   -0.128586 -107.953049  -99.098089    0.229356    0.000000    0.000000    0.000000    0.000000
  0.039839679   -0.124265 -108.472519 -100.800359   10.519686    0.000000    0.000000    0.000000    0.000000
  0.040040080   -0.117747 -108.965637  -99.634977   -4.749020    0.000000    0.000000    0.000000    0.000000
  0.040240481   -0.109756 -109.437698  -99.564699    1.586446    0.000000    0.000000    0.000000    0.000000
  0.040440882   -0.106044 -109.915535 -100.528368   -7.361294    0.000000    0.000000    0.000000    0.000000
  0.040641283   -0.102601 -110.384300 -100.462941   -1.013740    0.000000    0.000000    0.000000    0.000000
  0.040841683   -0.103626 -110.854500 -102.189536   -4.254676    0.000000    0.000000    0.000000    0.000000
  0.041042084   -0.106820 -111.321281 -101.420429   15.233081    0.000000    0.000000    0.000000    0.000000
  0.041242485   -0.112622 -111.783386 -101.541950    0.335490    0.000000    0.000000    0.000000    0.000000
  0.041442886   -0.125346 -112.281746 -102.559362    5.556557    0.000000    0.000000    0.000000    0.000000
  0.041643287   -0.134642 -112.800194 -101.990090   18.696144    0.000000    0.000000    0.000000    0.000000
  0.041843687   -0.141926 -113.338257 -102.072693    5.246605    0.000000    0.000000    0.000000    0.000000
  0.042044088   -0.144216 -113.899338 -101.263630    4.708998    0.000000    0.000000    0.000000    0.000000
  0.042244489   -0.138493 -114.444122 -100.074522   18.543701    0.000000    0.000000    0.000000    0.000000
  0.042444890   -0.127242 -114.969963 -101.522561   13.836612    0.000000    0.000000    0.000000    0.000000
  0.042645291   -0.114302 -115.453377 -101.454659    5.912176    0.000000    0.000000    0.000000    0.000000
  0.042845691   -0.109500 -115.918526 -101.270908    4.800452    0.000000    0.000000    0.000000    0.000000
  0.043046092   -0.109302 -116.340416 -101.132635   15.573978    0.000000    0.000000    0.000000    0.000000
  0.043246493   -0.110726 -116.794647 -100.252892    5.253777    0.000000    0.000000    0.000000    0.000000
  0.043446894   -0.116030 -117.253326 -101.522674    7.553731    0.000000    0.000000    0.000000    0.000000
  0.043647295   -0.118932 -117.730087 -100.674404   12.971031    0.000000    0.000000    0.000000    0.000000
  0.043847695   -0.123765 -118.187927  -99.649809   10.334719    0.000000    0.000000    0.000000    0.000000
  0.044048096   -0.132738 -118.657997 -100.370389    5.661218    0.000000    0.000000    0.000000    0.000000
  0.044248497   -0.140649 -119.173820 -100.860832   -1.006568    0.000000    0.000000    0.000000    0.000000
  0.044448898   -0.144009 -119.667961 -101.559538   -3.662276    0.000000    0.000000    0.000000    0.000000
  0.044649299   -0.147346 -120.178108 -101.045940   -1.768977    0.000000    0.000000    0.000000    0.000000
  0.044849699   -0.146576 -120.688225 -101.674671   -3.163873    0.000000    0.000000    0.000000    0.000000
  0.045050100   -0.143238 -121.177307 -103.023904  -17.385300    0.000000    0.000000    0.000000    0.000000
  0.045250501   -0.142144 -121.665955 -102.909881  -20.836987    0.000000    0.000000    0.000000    0.000000
  0.045450902   -0.140175 -122.145409 -101.665486  -10.791921    0.000000    0.000000    0.000000    0.000000
  0.045651303   -0.140536 -122.646278 -101.276083   -9.594901    0.000000    0.000000    0.000000    0.000000
  0.045851703   -0.136598 -123.132111 -101.627161    2.681405    0.000000    0.000000    0.000000    0.000000
  0.046052104   -0.134618 -123.619431 -101.712525   10.322416    0.000000    0.000000    0.000000    0.000000
  0.046252505   -0.134937 -124.075157 -104.748488   -8.296277    0.000000    0.000000    0.000000    0.000000
  0.046452906   -0.137807 -124.541206 -104.164228    9.006505    0.000000    0.000000    0.000000    0.000000
  0.046653307   -0.148394 -124.971436 -106.541844    7.875613    0.000000    0.000000    0.000000    0.000000
  0.046853707   -0.159570 -125.468811 -102.783602   24.913679    0.000000    0.000000    0.000000    0.000000
  0.047054108   -0.166830 -125.981857 -104.071612    6.328825    0.000000    0.000000    0.000000    0.000000
  0.047254509   -0.170927 -126.528145 -104.649732   25.849695    0.000000    0.000000    0.000000    0.000000
  0.047454910   -0.168962 -127.071106 -103.102953   27.488718    0.000000    0.000000    0.000000    0.000000
  0.047655311   -0.161613 -127.571899 -101.241355    8.449001    0.000000    0.000000    0.000000    0.000000
  0.047855711   -0.152592 -128.073441 -104.146778   11.182675    0.000000    0.000000    0.000000    0.000000
  0.048056112   -0.147612 -128.535706 -100.411841    9.153485    0.000000    0.000000    0.000000    0.000000
  0.048256513   -0.146034 -128.992340 -101.645618   13.268002    0.000000    0.000000    0.000000    0.000000
  0.048456914   -0.147908 -129.444550  -99.977779   19.270512    0.000000    0.000000    0.000000    0.000000
  0.048657315   -0.150058 -129.895126 -100.921855   -3.860400    0.000000    0.000000    0.000000    0.000000
  0.048857715   -0.150295 -130.339111 -100.470641   10.279117    0.000000    0.000000    0.000000    0.000000
  0.049058116   -0.157332 -130.771393 -101.034550   -4.658699    0.000000    0.000000    0.000000    0.000000
  0.049258517   -0.164467 -131.244827 -101.614250    0.991624    0.000000    0.000000    0.000000    0.000000
  0.049458918   -0.167819 -131.726074 -101.054705   -0.849160    0.000000    0.000000    0.000000    0.000000
  0.049659319   -0.171799 -132.200623 -101.327181   -5.903261    0.000000    0.000000    0.000000    0.000000
  0.049859719   -0.172889 -132.686981 -101.960212    6.062062    0.000000    0.000000    0.000000    0.000000
  0.050060120   -0.172615 -133.156845 -101.561783    5.348608    0.000000    0.000000    0.000000    0.000000
  0.050260521   -0.174399 -133.608948 -103.534820  -10.835392    0.000000    0.000000    0.000000    0.000000
  0.050460922   -0.174282 -134.083847 -103.552190   -1.014566    0.000000    0.000000    0.000000    0.000000
  0.050661323   -0.173912 -134.557632 -105.844046  -11.828491    0.000000    0.000000    0.000000    0.000000
  0.050861723   -0.174036 -135.048065 -107.130703  -19.692522    0.000000    0.000000    0.000000    0.000000
  0.051062124   -0.170978 -135.512787 -104.424676   -8.113434    0.000000    0.000000    0.000000    0.000000
  0.051262525   -0.168558 -135.980255 -104.421385   12.777919    0.000000    0.000000    0.000000    0.000000
  0.051462926   -0.167530 -136.413620 -103.780813    2.530496    0.000000    0.000000    0.000000    0.000000
  0.051663327   -0.169972 -136.845398 -105.147299   18.224068    0.000000    0.000000    0.000000    0.000000
  0.051863727   -0.174967 -137.276505 -105.725335    6.927149    0.000000    0.000000    0.000000    0.000000
  0.052064128   -0.183000 -137.741318 -104.638074    8.173420    0.000000    0.000000    0.000000    0.000000
  0.052264529   -0.191817 -138.222900 -105.273588   15.994300    0.000000    0.000000    0.000000    0.000000
  0.052464930   -0.193177 -138.739136 -103.309672   14.992763    0.000000    0.000000    0.000000    0.000000
  0.052665331   -0.193322 -139.222458 -102.140204   18.722279    0.000000    0.000000    0.000000    0.000000
  0.052865731   -0.188461 -139.728729 -101.966724   12.336658    0.000000    0.000000    0.000000    0.000000
