! Anritsu VNA Master:                     Model: MS2036C/10/77
! SN:                                  1601066
! /card0/usr/18may27.balun/252b.66.s2p
! Existing Calibration Information:
! TYPE:                         Current Settings,       Active Cal Settings
! TIME:             	   05/27/2018 12:02:47 PM,    05/27/2018 11:54:56 AM
! INTERNAL TEMP:    	                   50.5 C,                    49.3 C
! # POINTS:         	                      500,                       500
! START FREQ:       	               20.000 MHz,                20.000 MHz
! STOP FREQ:        	              120.000 MHz,               120.000 MHz
! SOURCE POWER:     	                     High,                      High
! IFBW:             	                    50 Hz,                     50 Hz
! AVG FACTOR:       	                       1 ,                        1 
! REF PLANE 1:      	                     0 mm,                      0 mm
! REF PLANE 2:      	                     0 mm,                      0 mm
! CAL TYPE:         	                 Full S11,                  Full S11
! CAL METHOD:       	                     SOLT,                      SOLT
! CAL LINE TYPE:    	                     Coax,                      Coax
! DUT PORT 1:       	                K-Conn(M),                 K-Conn(M)
! DUT PORT 2:       	                K-Conn(M),                 K-Conn(M)
! CAL STATUS:       	        OK: Accuracy High,                        --
# GHZ S DB R 50.0
! FREQ.GHZ       S11DB        S11A       S21DB        S21A       S12DB        S12A       S22DB        S22A
  0.020000000   -0.020775  -67.576141  -90.184930   35.215866    0.000000    0.000000    0.000000    0.000000
  0.020200401   -0.022653  -68.211853  -90.485911   34.939560    0.000000    0.000000    0.000000    0.000000
  0.020400802   -0.019878  -68.821983  -90.501227   34.379662    0.000000    0.000000    0.000000    0.000000
  0.020601202   -0.020330  -69.437065  -90.494157   29.744194    0.000000    0.000000    0.000000    0.000000
  0.020801603   -0.017836  -70.070282  -91.210765   26.635565    0.000000    0.000000    0.000000    0.000000
  0.021002004   -0.018435  -70.692375  -91.979782   28.584927    0.000000    0.000000    0.000000    0.000000
  0.021202405   -0.019607  -71.313339  -92.067934   25.689899    0.000000    0.000000    0.000000    0.000000
  0.021402806   -0.022479  -71.961121  -92.265414   22.825333    0.000000    0.000000    0.000000    0.000000
  0.021603206   -0.026280  -72.582802  -92.466066   25.796106    0.000000    0.000000    0.000000    0.000000
  0.021803607   -0.028083  -73.201736  -92.766847   28.934160    0.000000    0.000000    0.000000    0.000000
  0.022004008   -0.028996  -73.836655  -93.280171   32.080276    0.000000    0.000000    0.000000    0.000000
  0.022204409   -0.032738  -74.496719  -93.362615   31.240896    0.000000    0.000000    0.000000    0.000000
  0.022404810   -0.036742  -75.151161  -93.252826   35.440582    0.000000    0.000000    0.000000    0.000000
  0.022605210   -0.040279  -75.813095  -93.935969   35.384621    0.000000    0.000000    0.000000    0.000000
  0.022805611   -0.033712  -76.440193  -93.446120   33.896976    0.000000    0.000000    0.000000    0.000000
  0.023006012   -0.027080  -77.104668  -93.110925   35.453999    0.000000    0.000000    0.000000    0.000000
  0.023206413   -0.018541  -77.782150  -93.980752   30.403324    0.000000    0.000000    0.000000    0.000000
  0.023406814   -0.017369  -78.415894  -93.012056   32.878651    0.000000    0.000000    0.000000    0.000000
  0.023607214   -0.018765  -79.047096  -93.170649   39.062386    0.000000    0.000000    0.000000    0.000000
  0.023807615   -0.020926  -79.641502  -93.086733   34.108627    0.000000    0.000000    0.000000    0.000000
  0.024008016   -0.025768  -80.218620  -92.874526   34.325218    0.000000    0.000000    0.000000    0.000000
  0.024208417   -0.035498  -80.783745  -93.085864   28.025837    0.000000    0.000000    0.000000    0.000000
  0.024408818   -0.041119  -81.340263  -92.517835   25.712675    0.000000    0.000000    0.000000    0.000000
  0.024609218   -0.049659  -81.917343  -92.949572   26.889362    0.000000    0.000000    0.000000    0.000000
  0.024809619   -0.052116  -82.511940  -93.846631   27.157522    0.000000    0.000000    0.000000    0.000000
  0.025010020   -0.055764  -83.122948  -93.616519   24.493790    0.000000    0.000000    0.000000    0.000000
  0.025210421   -0.059640  -83.754639  -93.645435   22.709938    0.000000    0.000000    0.000000    0.000000
  0.025410822   -0.061107  -84.387390  -94.045411   20.883247    0.000000    0.000000    0.000000    0.000000
  0.025611222   -0.057281  -85.031425  -94.629274   17.740572    0.000000    0.000000    0.000000    0.000000
  0.025811623   -0.054811  -85.641655  -94.338652   21.447809    0.000000    0.000000    0.000000    0.000000
  0.026012024   -0.048670  -86.240997  -94.847784   18.971928    0.000000    0.000000    0.000000    0.000000
  0.026212425   -0.045337  -86.816643  -94.999344   17.557053    0.000000    0.000000    0.000000    0.000000
  0.026412826   -0.047735  -87.415779  -95.377746   14.630938    0.000000    0.000000    0.000000    0.000000
  0.026613226   -0.052562  -87.997726  -96.153725   16.453129    0.000000    0.000000    0.000000    0.000000
  0.026813627   -0.056577  -88.577003  -95.797937   23.582296    0.000000    0.000000    0.000000    0.000000
  0.027014028   -0.063250  -89.153008  -95.812620   18.045010    0.000000    0.000000    0.000000    0.000000
  0.027214429   -0.073721  -89.736694  -96.920221   17.753721    0.000000    0.000000    0.000000    0.000000
  0.027414830   -0.084993  -90.386551  -96.558151   25.425493    0.000000    0.000000    0.000000    0.000000
  0.027615230   -0.089671  -91.059975  -95.977467   17.024376    0.000000    0.000000    0.000000    0.000000
  0.027815631   -0.090905  -91.754112  -95.410457   20.339643    0.000000    0.000000    0.000000    0.000000
  0.028016032   -0.086747  -92.464310  -95.848957   19.454494    0.000000    0.000000    0.000000    0.000000
  0.028216433   -0.074353  -93.152397  -96.488697   23.477421    0.000000    0.000000    0.000000    0.000000
  0.028416834   -0.065697  -93.838058  -96.380706   24.527756    0.000000    0.000000    0.000000    0.000000
  0.028617234   -0.059314  -94.475571  -96.350025   19.350403    0.000000    0.000000    0.000000    0.000000
  0.028817635   -0.052053  -95.079033  -95.120827   25.436632    0.000000    0.000000    0.000000    0.000000
  0.029018036   -0.042448  -95.616272  -96.064270   16.934780    0.000000    0.000000    0.000000    0.000000
  0.029218437   -0.039409  -96.120369  -95.372839   15.672062    0.000000    0.000000    0.000000    0.000000
  0.029418838   -0.035143  -96.611343  -94.934682   14.079274    0.000000    0.000000    0.000000    0.000000
  0.029619238   -0.036074  -97.090309  -95.854459   13.686471    0.000000    0.000000    0.000000    0.000000
  0.029819639   -0.036929  -97.573914  -96.457466   17.731714    0.000000    0.000000    0.000000    0.000000
  0.030020040   -0.045087  -98.079483  -96.518788   14.575999    0.000000    0.000000    0.000000    0.000000
  0.030220441   -0.054457  -98.624916  -97.243834    9.575456    0.000000    0.000000    0.000000    0.000000
  0.030420842   -0.065786  -99.197144  -97.148095   11.934788    0.000000    0.000000    0.000000    0.000000
  0.030621242   -0.073003  -99.788979  -96.170312   12.366545    0.000000    0.000000    0.000000    0.000000
  0.030821643   -0.074401 -100.410080  -97.531578   12.139675    0.000000    0.000000    0.000000    0.000000
  0.031022044   -0.072001 -100.983231  -98.464915   13.563890    0.000000    0.000000    0.000000    0.000000
  0.031222445   -0.067558 -101.563690  -96.501347   11.607261    0.000000    0.000000    0.000000    0.000000
  0.031422846   -0.066210 -102.135269  -99.052380    9.496037    0.000000    0.000000    0.000000    0.000000
  0.031623246   -0.064301 -102.674873  -97.471414   14.655103    0.000000    0.000000    0.000000    0.000000
  0.031823647   -0.064487 -103.203156  -98.519491   11.938230    0.000000    0.000000    0.000000    0.000000
  0.032024048   -0.067338 -103.709793  -97.267708   12.248052    0.000000    0.000000    0.000000    0.000000
  0.032224449   -0.073603 -104.238594  -97.895218   12.107639    0.000000    0.000000    0.000000    0.000000
  0.032424850   -0.084811 -104.783028  -97.306439    3.976018    0.000000    0.000000    0.000000    0.000000
  0.032625251   -0.095716 -105.358856  -98.808057   10.864074    0.000000    0.000000    0.000000    0.000000
  0.032825651   -0.105520 -105.981590  -97.909657   19.015610    0.000000    0.000000    0.000000    0.000000
  0.033026052   -0.109570 -106.631966  -97.628822   11.197044    0.000000    0.000000    0.000000    0.000000
  0.033226453   -0.113822 -107.287514  -97.557252   11.104032    0.000000    0.000000    0.000000    0.000000
  0.033426854   -0.113557 -107.955734  -99.023564   13.238987    0.000000    0.000000    0.000000    0.000000
  0.033627255   -0.116339 -108.630112  -97.685157   12.343403    0.000000    0.000000    0.000000    0.000000
  0.033827655   -0.116749 -109.294548  -98.915423    9.031703    0.000000    0.000000    0.000000    0.000000
  0.034028056   -0.108420 -109.944290  -98.861711    7.573654    0.000000    0.000000    0.000000    0.000000
  0.034228457   -0.106284 -110.554176  -98.872949   10.264328    0.000000    0.000000    0.000000    0.000000
  0.034428858   -0.097922 -111.138565  -98.469413   11.823489    0.000000    0.000000    0.000000    0.000000
  0.034629259   -0.084521 -111.679062  -97.687659   10.297394    0.000000    0.000000    0.000000    0.000000
  0.034829659   -0.077530 -112.188995  -98.873808   11.571494    0.000000    0.000000    0.000000    0.000000
  0.035030060   -0.074402 -112.663513  -99.586759    6.052590    0.000000    0.000000    0.000000    0.000000
  0.035230461   -0.073022 -113.152367  -98.812374   14.831561    0.000000    0.000000    0.000000    0.000000
  0.035430862   -0.077514 -113.627625  -98.735099   10.953626    0.000000    0.000000    0.000000    0.000000
  0.035631263   -0.083664 -114.123055  -99.526131   11.235985    0.000000    0.000000    0.000000    0.000000
  0.035831663   -0.093213 -114.635849  -99.939885    4.788757    0.000000    0.000000    0.000000    0.000000
  0.036032064   -0.101535 -115.185646  -99.626726    6.017249    0.000000    0.000000    0.000000    0.000000
  0.036232465   -0.112631 -115.760040  -99.241096    3.834219    0.000000    0.000000    0.000000    0.000000
  0.036432866   -0.115431 -116.350853  -99.622246    3.694070    0.000000    0.000000    0.000000    0.000000
  0.036633267   -0.114293 -116.944588 -100.205563   20.545004    0.000000    0.000000    0.000000    0.000000
  0.036833667   -0.109917 -117.492790 -100.730660    4.561990    0.000000    0.000000    0.000000    0.000000
  0.037034068   -0.100528 -118.029190 -100.255373   11.042459    0.000000    0.000000    0.000000    0.000000
  0.037234469   -0.088451 -118.513741  -98.768530   16.887413    0.000000    0.000000    0.000000    0.000000
  0.037434870   -0.087267 -118.959305  -99.656303    2.490817    0.000000    0.000000    0.000000    0.000000
  0.037635271   -0.085839 -119.410408  -98.111105   16.661625    0.000000    0.000000    0.000000    0.000000
  0.037835671   -0.093271 -119.885201 -100.625674    1.481038    0.000000    0.000000    0.000000    0.000000
  0.038036072   -0.100469 -120.432106  -99.237817   11.135832    0.000000    0.000000    0.000000    0.000000
  0.038236473   -0.107340 -120.981705  -99.989166    8.286447    0.000000    0.000000    0.000000    0.000000
  0.038436874   -0.113507 -121.542564  -99.972330   13.540930    0.000000    0.000000    0.000000    0.000000
  0.038637275   -0.117357 -122.076424  -99.218900    8.218011    0.000000    0.000000    0.000000    0.000000
  0.038837675   -0.127274 -122.649925  -99.390482    3.369186    0.000000    0.000000    0.000000    0.000000
  0.039038076   -0.132555 -123.240944 -100.922853    2.563918    0.000000    0.000000    0.000000    0.000000
  0.039238477   -0.139408 -123.816086  -98.829147    0.621264    0.000000    0.000000    0.000000    0.000000
  0.039438878   -0.137469 -124.424561 -100.073952   -1.428448    0.000000    0.000000    0.000000    0.000000
  0.039639279   -0.134344 -124.972572  -99.501658   -2.416246    0.000000    0.000000    0.000000    0.000000
  0.039839679   -0.131155 -125.504700 -100.131194   -2.865031    0.000000    0.000000    0.000000    0.000000
  0.040040080   -0.124949 -126.025352  -99.562638   -0.672718    0.000000    0.000000    0.000000    0.000000
  0.040240481   -0.123691 -126.532303 -101.517893  -14.367042    0.000000    0.000000    0.000000    0.000000
  0.040440882   -0.120423 -127.054947 -101.108540   -6.218530    0.000000    0.000000    0.000000    0.000000
  0.040641283   -0.121925 -127.572838 -101.992184    1.717805    0.000000    0.000000    0.000000    0.000000
  0.040841683   -0.121527 -128.074982 -102.055992   -0.585518    0.000000    0.000000    0.000000    0.000000
  0.041042084   -0.127775 -128.575668 -100.637060   -0.355055    0.000000    0.000000    0.000000    0.000000
  0.041242485   -0.138217 -129.067429 -101.462570   11.883961    0.000000    0.000000    0.000000    0.000000
  0.041442886   -0.151144 -129.595016 -102.017945   -1.917477    0.000000    0.000000    0.000000    0.000000
  0.041643287   -0.158961 -130.201706 -102.259120   14.656772    0.000000    0.000000    0.000000    0.000000
  0.041843687   -0.164071 -130.809113 -101.585338   23.404099    0.000000    0.000000    0.000000    0.000000
  0.042044088   -0.161298 -131.404861 -100.630782    9.305811    0.000000    0.000000    0.000000    0.000000
  0.042244489   -0.148705 -131.967438 -100.886965    9.137154    0.000000    0.000000    0.000000    0.000000
  0.042444890   -0.134171 -132.501297 -100.349056    2.850116    0.000000    0.000000    0.000000    0.000000
  0.042645291   -0.127502 -133.006195 -100.665987   23.527130    0.000000    0.000000    0.000000    0.000000
  0.042845691   -0.124137 -133.482880 -101.616855   12.139805    0.000000    0.000000    0.000000    0.000000
  0.043046092   -0.123764 -133.980972 -101.660678    7.172459    0.000000    0.000000    0.000000    0.000000
  0.043246493   -0.126588 -134.471863 -100.406184    4.366427    0.000000    0.000000    0.000000    0.000000
  0.043446894   -0.126521 -134.993210 -102.191606    0.855637    0.000000    0.000000    0.000000    0.000000
  0.043647295   -0.131001 -135.462677  -99.861899   10.393679    0.000000    0.000000    0.000000    0.000000
  0.043847695   -0.131255 -135.950592 -101.102802    4.477136    0.000000    0.000000    0.000000    0.000000
  0.044048096   -0.135695 -136.435257  -99.446624    5.945533    0.000000    0.000000    0.000000    0.000000
  0.044248497   -0.140808 -136.921570 -100.457884   -7.658319    0.000000    0.000000    0.000000    0.000000
  0.044448898   -0.142210 -137.434647 -100.674336   -5.725041    0.000000    0.000000    0.000000    0.000000
  0.044649299   -0.140491 -137.912231  -99.433666    3.190310    0.000000    0.000000    0.000000    0.000000
  0.044849699   -0.139539 -138.377838 -101.533714    0.070507    0.000000    0.000000    0.000000    0.000000
  0.045050100   -0.140558 -138.816879 -101.317295   -4.298475    0.000000    0.000000    0.000000    0.000000
  0.045250501   -0.138417 -139.245621 -102.545125   -2.851233    0.000000    0.000000    0.000000    0.000000
  0.045450902   -0.137222 -139.708542 -103.017340    0.866889    0.000000    0.000000    0.000000    0.000000
  0.045651303   -0.138394 -140.158890 -104.423772   -8.282543    0.000000    0.000000    0.000000    0.000000
  0.045851703   -0.137967 -140.622894 -102.771059    3.360402    0.000000    0.000000    0.000000    0.000000
  0.046052104   -0.139660 -141.066071 -103.687212    5.720913    0.000000    0.000000    0.000000    0.000000
  0.046252505   -0.141156 -141.494705 -101.893908    6.761126    0.000000    0.000000    0.000000    0.000000
  0.046452906   -0.151877 -141.920639 -102.597416   15.646106    0.000000    0.000000    0.000000    0.000000
  0.046653307   -0.166534 -142.368240 -102.173705   12.791639    0.000000    0.000000    0.000000    0.000000
  0.046853707   -0.179721 -142.868256 -103.103418   16.304600    0.000000    0.000000    0.000000    0.000000
  0.047054108   -0.188688 -143.418411 -102.731798   13.764578    0.000000    0.000000    0.000000    0.000000
  0.047254509   -0.188628 -143.992416 -101.795409   18.533043    0.000000    0.000000    0.000000    0.000000
  0.047454910   -0.185772 -144.551819 -100.979900    3.444468    0.000000    0.000000    0.000000    0.000000
  0.047655311   -0.181976 -145.084290 -101.087996    8.875093    0.000000    0.000000    0.000000    0.000000
  0.047855711   -0.178465 -145.623688 -101.782246   22.290068    0.000000    0.000000    0.000000    0.000000
  0.048056112   -0.177601 -146.167435 -101.203343    8.897451    0.000000    0.000000    0.000000    0.000000
  0.048256513   -0.179507 -146.709656 -102.249010    7.384748    0.000000    0.000000    0.000000    0.000000
  0.048456914   -0.181020 -147.253189 -100.581653   11.139092    0.000000    0.000000    0.000000    0.000000
  0.048657315   -0.182446 -147.796890 -101.576633    3.424757    0.000000    0.000000    0.000000    0.000000
  0.048857715   -0.183201 -148.316269  -99.380894    4.304303    0.000000    0.000000    0.000000    0.000000
  0.049058116   -0.186963 -148.861481 -101.252922   -0.798320    0.000000    0.000000    0.000000    0.000000
  0.049258517   -0.189175 -149.398605  -99.977708   -7.841053    0.000000    0.000000    0.000000    0.000000
  0.049458918   -0.190240 -149.943375 -100.937229  -18.259617    0.000000    0.000000    0.000000    0.000000
  0.049659319   -0.186415 -150.480957  -99.422048  -17.188070    0.000000    0.000000    0.000000    0.000000
  0.049859719   -0.184873 -150.991684 -102.162629   -5.516872    0.000000    0.000000    0.000000    0.000000
  0.050060120   -0.180183 -151.475189 -103.043271  -15.805685    0.000000    0.000000    0.000000    0.000000
  0.050260521   -0.178225 -151.928955 -101.866937   -7.730537    0.000000    0.000000    0.000000    0.000000
  0.050460922   -0.179660 -152.387436 -106.184449    0.483388    0.000000    0.000000    0.000000    0.000000
  0.050661323   -0.177687 -152.841690 -103.911909   -5.968339    0.000000    0.000000    0.000000    0.000000
  0.050861723   -0.174237 -153.303116 -105.889454    1.853574    0.000000    0.000000    0.000000    0.000000
  0.051062124   -0.168287 -153.748627 -105.138340   14.029867    0.000000    0.000000    0.000000    0.000000
  0.051262525   -0.167680 -154.166748 -103.635121   12.676366    0.000000    0.000000    0.000000    0.000000
  0.051462926   -0.167033 -154.562195 -104.682185    4.937263    0.000000    0.000000    0.000000    0.000000
  0.051663327   -0.169316 -154.955109 -104.607139    8.201777    0.000000    0.000000    0.000000    0.000000
  0.051863727   -0.177057 -155.338043 -107.526841   26.426998    0.000000    0.000000    0.000000    0.000000
  0.052064128   -0.184736 -155.773666 -102.612348   12.915920    0.000000    0.000000    0.000000    0.000000
  0.052264529   -0.189982 -156.193832 -102.922128   13.318262    0.000000    0.000000    0.000000    0.000000
  0.052464930   -0.190616 -156.657822 -101.990837   26.797676    0.000000    0.000000    0.000000    0.000000
  0.052665331   -0.192466 -157.117645 -102.637578    8.059888    0.000000    0.000000    0.000000    0.000000
  0.052865731   -0.190264 -157.571732 -102.418960   21.891497    0.000000    0.000000    0.000000    0.000000
