! Anritsu VNA Master:                     Model: MS2036C/10/77
! SN:                                  1601066
! /card0/usr/18may27.balun/252b.r20.s2p
! Existing Calibration Information:
! TYPE:                         Current Settings,       Active Cal Settings
! TIME:             	   05/27/2018 12:04:22 PM,    05/27/2018 11:54:56 AM
! INTERNAL TEMP:    	                   50.8 C,                    49.3 C
! # POINTS:         	                      500,                       500
! START FREQ:       	               20.000 MHz,                20.000 MHz
! STOP FREQ:        	              120.000 MHz,               120.000 MHz
! SOURCE POWER:     	                     High,                      High
! IFBW:             	                    50 Hz,                     50 Hz
! AVG FACTOR:       	                       1 ,                        1 
! REF PLANE 1:      	                     0 mm,                      0 mm
! REF PLANE 2:      	                     0 mm,                      0 mm
! CAL TYPE:         	                 Full S11,                  Full S11
! CAL METHOD:       	                     SOLT,                      SOLT
! CAL LINE TYPE:    	                     Coax,                      Coax
! DUT PORT 1:       	                K-Conn(M),                 K-Conn(M)
! DUT PORT 2:       	                K-Conn(M),                 K-Conn(M)
! CAL STATUS:       	        OK: Accuracy High,                        --
# GHZ S DB R 50.0
! FREQ.GHZ       S11DB        S11A       S21DB        S21A       S12DB        S12A       S22DB        S22A
  0.020000000   -7.304425  155.333740  -91.956916   32.531578    0.000000    0.000000    0.000000    0.000000
  0.020200401   -7.311421  155.039932  -91.300113   33.721352    0.000000    0.000000    0.000000    0.000000
  0.020400802   -7.315282  154.783539  -91.758608   38.480099    0.000000    0.000000    0.000000    0.000000
  0.020601202   -7.312499  154.484024  -91.440349   34.409050    0.000000    0.000000    0.000000    0.000000
  0.020801603   -7.312268  154.218521  -91.820658   37.247776    0.000000    0.000000    0.000000    0.000000
  0.021002004   -7.306645  153.930313  -92.507555   33.332516    0.000000    0.000000    0.000000    0.000000
  0.021202405   -7.307211  153.641876  -92.127285   32.314060    0.000000    0.000000    0.000000    0.000000
  0.021402806   -7.302574  153.410599  -92.361468   37.037163    0.000000    0.000000    0.000000    0.000000
  0.021603206   -7.304158  153.171600  -92.732821   32.565964    0.000000    0.000000    0.000000    0.000000
  0.021803607   -7.303444  152.916473  -92.342935   33.874664    0.000000    0.000000    0.000000    0.000000
  0.022004008   -7.301503  152.696823  -92.348391   34.057461    0.000000    0.000000    0.000000    0.000000
  0.022204409   -7.296055  152.496841  -92.082955   35.230167    0.000000    0.000000    0.000000    0.000000
  0.022404810   -7.292602  152.233917  -92.415269   30.444994    0.000000    0.000000    0.000000    0.000000
  0.022605210   -7.294288  152.048264  -92.508234   33.766399    0.000000    0.000000    0.000000    0.000000
  0.022805611   -7.292715  151.803284  -91.986424   33.040977    0.000000    0.000000    0.000000    0.000000
  0.023006012   -7.287991  151.621384  -92.618699   27.276094    0.000000    0.000000    0.000000    0.000000
  0.023206413   -7.286017  151.386490  -92.778691   25.709700    0.000000    0.000000    0.000000    0.000000
  0.023406814   -7.287051  151.166122  -93.208660   29.868082    0.000000    0.000000    0.000000    0.000000
  0.023607214   -7.286463  150.948441  -92.635431   27.314014    0.000000    0.000000    0.000000    0.000000
  0.023807615   -7.289082  150.734741  -92.963769   27.641535    0.000000    0.000000    0.000000    0.000000
  0.024008016   -7.293586  150.504440  -93.870298   27.086969    0.000000    0.000000    0.000000    0.000000
  0.024208417   -7.294453  150.307098  -93.442969   25.764624    0.000000    0.000000    0.000000    0.000000
  0.024408818   -7.302914  150.091995  -93.761979   23.653711    0.000000    0.000000    0.000000    0.000000
  0.024609218   -7.309778  149.881104  -93.735221   25.368212    0.000000    0.000000    0.000000    0.000000
  0.024809619   -7.315656  149.646866  -95.117713   24.574211    0.000000    0.000000    0.000000    0.000000
  0.025010020   -7.319674  149.398621  -94.729161   21.713404    0.000000    0.000000    0.000000    0.000000
  0.025210421   -7.329237  149.117096  -94.002191   24.478064    0.000000    0.000000    0.000000    0.000000
  0.025410822   -7.332672  148.817184  -95.018775   23.987396    0.000000    0.000000    0.000000    0.000000
  0.025611222   -7.332409  148.542572  -95.353551   21.582088    0.000000    0.000000    0.000000    0.000000
  0.025811623   -7.331711  148.213303  -95.232746   21.707293    0.000000    0.000000    0.000000    0.000000
  0.026012024   -7.329021  147.924332  -94.752872   19.124817    0.000000    0.000000    0.000000    0.000000
  0.026212425   -7.323294  147.617691  -95.326765   17.683462    0.000000    0.000000    0.000000    0.000000
  0.026412826   -7.320490  147.330475  -95.006146   25.892143    0.000000    0.000000    0.000000    0.000000
  0.026613226   -7.314515  147.052277  -95.038359   25.150934    0.000000    0.000000    0.000000    0.000000
  0.026813627   -7.309312  146.838394  -95.395750   25.343683    0.000000    0.000000    0.000000    0.000000
  0.027014028   -7.306596  146.622375  -95.265053   24.481747    0.000000    0.000000    0.000000    0.000000
  0.027214429   -7.301272  146.444473  -94.926166   17.919378    0.000000    0.000000    0.000000    0.000000
  0.027414830   -7.298503  146.272278  -94.642037   23.133730    0.000000    0.000000    0.000000    0.000000
  0.027615230   -7.295785  146.046494  -95.853661   18.495371    0.000000    0.000000    0.000000    0.000000
  0.027815631   -7.296039  145.852020  -95.330025   18.896843    0.000000    0.000000    0.000000    0.000000
  0.028016032   -7.295385  145.631607  -95.591797   14.795077    0.000000    0.000000    0.000000    0.000000
  0.028216433   -7.296121  145.416901  -95.742029   20.940104    0.000000    0.000000    0.000000    0.000000
  0.028416834   -7.292410  145.199692  -95.320602   19.689922    0.000000    0.000000    0.000000    0.000000
  0.028617234   -7.296359  144.971786  -95.883627   20.403919    0.000000    0.000000    0.000000    0.000000
  0.028817635   -7.294974  144.742096  -95.633676   17.313658    0.000000    0.000000    0.000000    0.000000
  0.029018036   -7.299828  144.526001  -96.358685   18.460718    0.000000    0.000000    0.000000    0.000000
  0.029218437   -7.299747  144.301880  -95.900476   21.724724    0.000000    0.000000    0.000000    0.000000
  0.029418838   -7.301618  144.107162  -96.529475   16.968422    0.000000    0.000000    0.000000    0.000000
  0.029619238   -7.301581  143.925339  -96.710790   14.775723    0.000000    0.000000    0.000000    0.000000
  0.029819639   -7.307294  143.765030  -96.716584   14.600488    0.000000    0.000000    0.000000    0.000000
  0.030020040   -7.312760  143.572189  -97.044861   12.206614    0.000000    0.000000    0.000000    0.000000
  0.030220441   -7.321563  143.356461  -97.211097   17.513134    0.000000    0.000000    0.000000    0.000000
  0.030420842   -7.336964  143.120926  -97.883486   16.484745    0.000000    0.000000    0.000000    0.000000
  0.030621242   -7.350964  142.832474  -96.744416    8.762561    0.000000    0.000000    0.000000    0.000000
  0.030821643   -7.357391  142.505585  -97.044227   20.308796    0.000000    0.000000    0.000000    0.000000
  0.031022044   -7.363646  142.154480  -97.792226   14.033441    0.000000    0.000000    0.000000    0.000000
  0.031222445   -7.356983  141.835724  -97.723441   18.662300    0.000000    0.000000    0.000000    0.000000
  0.031422846   -7.353943  141.492813  -97.026136   13.326777    0.000000    0.000000    0.000000    0.000000
  0.031623246   -7.356232  141.170776  -97.265506   18.484940    0.000000    0.000000    0.000000    0.000000
  0.031823647   -7.344793  140.847488  -98.221970   18.127905    0.000000    0.000000    0.000000    0.000000
  0.032024048   -7.335112  140.575211  -97.131930   19.806726    0.000000    0.000000    0.000000    0.000000
  0.032224449   -7.324782  140.289642  -97.898541   13.159371    0.000000    0.000000    0.000000    0.000000
  0.032424850   -7.309687  140.046478  -97.757446   11.563643    0.000000    0.000000    0.000000    0.000000
  0.032625251   -7.297059  139.827728  -97.645751   15.083993    0.000000    0.000000    0.000000    0.000000
  0.032825651   -7.292642  139.601059  -98.076809   14.168987    0.000000    0.000000    0.000000    0.000000
  0.033026052   -7.287910  139.436600  -97.425931   14.825176    0.000000    0.000000    0.000000    0.000000
  0.033226453   -7.282275  139.235077  -97.947976   10.144213    0.000000    0.000000    0.000000    0.000000
  0.033426854   -7.277046  139.010025  -98.944687   11.499401    0.000000    0.000000    0.000000    0.000000
  0.033627255   -7.277327  138.807037  -98.867888   10.672048    0.000000    0.000000    0.000000    0.000000
  0.033827655   -7.277406  138.624176  -98.787736   15.173883    0.000000    0.000000    0.000000    0.000000
  0.034028056   -7.278004  138.405716  -99.214580   -0.419117    0.000000    0.000000    0.000000    0.000000
  0.034228457   -7.278463  138.190308  -98.388059   12.369752    0.000000    0.000000    0.000000    0.000000
  0.034428858   -7.280073  137.990158  -98.555898    2.570438    0.000000    0.000000    0.000000    0.000000
  0.034629259   -7.283684  137.780014  -97.569865   18.828720    0.000000    0.000000    0.000000    0.000000
  0.034829659   -7.283735  137.599045  -99.319252    7.570506    0.000000    0.000000    0.000000    0.000000
  0.035030060   -7.279328  137.390259  -98.310864    0.824650    0.000000    0.000000    0.000000    0.000000
  0.035230461   -7.278337  137.183212  -99.122773    3.111136    0.000000    0.000000    0.000000    0.000000
  0.035430862   -7.274706  136.991959 -100.369881    8.329489    0.000000    0.000000    0.000000    0.000000
  0.035631263   -7.281239  136.820328  -98.682459   12.193750    0.000000    0.000000    0.000000    0.000000
  0.035831663   -7.287695  136.659409  -99.791866    2.028269    0.000000    0.000000    0.000000    0.000000
  0.036032064   -7.298568  136.428604 -100.791517   13.974000    0.000000    0.000000    0.000000    0.000000
  0.036232465   -7.309822  136.185333  -98.940044    8.092478    0.000000    0.000000    0.000000    0.000000
  0.036432866   -7.324633  135.922287  -98.537321   13.305506    0.000000    0.000000    0.000000    0.000000
  0.036633267   -7.335957  135.606689 -100.733329   11.302291    0.000000    0.000000    0.000000    0.000000
  0.036833667   -7.345531  135.285400 -100.318562    9.673118    0.000000    0.000000    0.000000    0.000000
  0.037034068   -7.349073  134.981873  -99.868592   19.009007    0.000000    0.000000    0.000000    0.000000
  0.037234469   -7.352029  134.661957  -97.846333    8.415177    0.000000    0.000000    0.000000    0.000000
  0.037434870   -7.343991  134.349060  -99.161916    6.925979    0.000000    0.000000    0.000000    0.000000
  0.037635271   -7.336326  134.063187  -98.580938    1.269183    0.000000    0.000000    0.000000    0.000000
  0.037835671   -7.329021  133.781418 -101.496689    7.311988    0.000000    0.000000    0.000000    0.000000
  0.038036072   -7.319423  133.549820  -99.238678    3.296616    0.000000    0.000000    0.000000    0.000000
  0.038236473   -7.313637  133.326965  -99.482084    6.769949    0.000000    0.000000    0.000000    0.000000
  0.038436874   -7.311765  133.119934  -99.473716    4.200549    0.000000    0.000000    0.000000    0.000000
  0.038637275   -7.312187  132.891800  -98.730995   12.189382    0.000000    0.000000    0.000000    0.000000
  0.038837675   -7.314671  132.634354 -101.596478    9.477570    0.000000    0.000000    0.000000    0.000000
  0.039038076   -7.316159  132.388031 -100.348323    3.143223    0.000000    0.000000    0.000000    0.000000
  0.039238477   -7.320114  132.126434  -99.309533    8.890263    0.000000    0.000000    0.000000    0.000000
  0.039438878   -7.323422  131.861664 -103.925065    7.205670    0.000000    0.000000    0.000000    0.000000
  0.039639279   -7.325064  131.616516 -100.480306    5.568233    0.000000    0.000000    0.000000    0.000000
  0.039839679   -7.320517  131.373138  -99.933472   10.284687    0.000000    0.000000    0.000000    0.000000
  0.040040080   -7.318662  131.126129 -102.974387   11.228589    0.000000    0.000000    0.000000    0.000000
  0.040240481   -7.311867  130.862991 -100.343243    7.343913    0.000000    0.000000    0.000000    0.000000
  0.040440882   -7.307776  130.606094 -103.009772    2.943218    0.000000    0.000000    0.000000    0.000000
  0.040641283   -7.294474  130.347031 -101.841046   18.647715    0.000000    0.000000    0.000000    0.000000
  0.040841683   -7.287518  130.142761  -99.058817   11.166052    0.000000    0.000000    0.000000    0.000000
  0.041042084   -7.283852  129.954819 -100.070995   12.175500    0.000000    0.000000    0.000000    0.000000
  0.041242485   -7.281770  129.747086  -99.495631   13.380141    0.000000    0.000000    0.000000    0.000000
  0.041442886   -7.287497  129.574219 -100.216388   -4.530150    0.000000    0.000000    0.000000    0.000000
  0.041643287   -7.293172  129.354721 -102.037751    5.164277    0.000000    0.000000    0.000000    0.000000
  0.041843687   -7.293034  129.109573  -99.533512    4.860752    0.000000    0.000000    0.000000    0.000000
  0.042044088   -7.296393  128.859665 -100.383291   15.811743    0.000000    0.000000    0.000000    0.000000
  0.042244489   -7.299769  128.619354 -100.556353    3.836275    0.000000    0.000000    0.000000    0.000000
  0.042444890   -7.295120  128.384125 -100.490478    0.474504    0.000000    0.000000    0.000000    0.000000
  0.042645291   -7.291546  128.144516  -99.801862    5.885962    0.000000    0.000000    0.000000    0.000000
  0.042845691   -7.281423  127.916573 -101.284604   11.359841    0.000000    0.000000    0.000000    0.000000
  0.043046092   -7.275051  127.675125 -102.117679    5.189353    0.000000    0.000000    0.000000    0.000000
  0.043246493   -7.268816  127.484009 -102.551109   -3.450809    0.000000    0.000000    0.000000    0.000000
  0.043446894   -7.259673  127.343468 -100.843850   -4.767996    0.000000    0.000000    0.000000    0.000000
  0.043647295   -7.257751  127.180733 -101.861493  -11.406553    0.000000    0.000000    0.000000    0.000000
  0.043847695   -7.263924  127.056396 -101.305686    0.098341    0.000000    0.000000    0.000000    0.000000
  0.044048096   -7.273972  126.905243 -102.737694   -2.405979    0.000000    0.000000    0.000000    0.000000
  0.044248497   -7.286588  126.708900 -102.238545   -1.882386    0.000000    0.000000    0.000000    0.000000
  0.044448898   -7.295556  126.514076 -101.333523   -4.687862    0.000000    0.000000    0.000000    0.000000
  0.044649299   -7.307046  126.302345 -103.297569    1.892327    0.000000    0.000000    0.000000    0.000000
  0.044849699   -7.319286  126.082779 -102.900306   14.888620    0.000000    0.000000    0.000000    0.000000
  0.045050100   -7.330658  125.841743 -102.940290   15.896562    0.000000    0.000000    0.000000    0.000000
  0.045250501   -7.336776  125.572975 -104.158984   -1.312303    0.000000    0.000000    0.000000    0.000000
  0.045450902   -7.350354  125.261192 -103.365043   11.824074    0.000000    0.000000    0.000000    0.000000
  0.045651303   -7.352448  124.951233 -102.176144    7.642406    0.000000    0.000000    0.000000    0.000000
  0.045851703   -7.352164  124.611809  -99.933467   17.744598    0.000000    0.000000    0.000000    0.000000
  0.046052104   -7.356781  124.288719 -102.509654    7.351372    0.000000    0.000000    0.000000    0.000000
  0.046252505   -7.360088  123.989052  -99.947539   15.097954    0.000000    0.000000    0.000000    0.000000
  0.046452906   -7.361437  123.703308 -103.601568   14.017310    0.000000    0.000000    0.000000    0.000000
  0.046653307   -7.362040  123.422546 -103.279774    6.971422    0.000000    0.000000    0.000000    0.000000
  0.046853707   -7.367963  123.111549 -101.868607    9.877301    0.000000    0.000000    0.000000    0.000000
  0.047054108   -7.370052  122.757217 -101.306589   13.011374    0.000000    0.000000    0.000000    0.000000
  0.047254509   -7.372200  122.430374 -101.870854   11.229053    0.000000    0.000000    0.000000    0.000000
  0.047454910   -7.368721  122.099129 -102.799220    9.142556    0.000000    0.000000    0.000000    0.000000
  0.047655311   -7.361141  121.750854 -101.495271    9.399205    0.000000    0.000000    0.000000    0.000000
  0.047855711   -7.347714  121.441162 -103.639264   22.709665    0.000000    0.000000    0.000000    0.000000
  0.048056112   -7.332260  121.100990 -100.386744    0.569152    0.000000    0.000000    0.000000    0.000000
  0.048256513   -7.317217  120.814445 -102.530619  -11.212220    0.000000    0.000000    0.000000    0.000000
  0.048456914   -7.296137  120.548546 -102.887225   12.085791    0.000000    0.000000    0.000000    0.000000
  0.048657315   -7.277859  120.324547 -100.986620    1.294871    0.000000    0.000000    0.000000    0.000000
  0.048857715   -7.259897  120.144775 -103.953479  -16.480978    0.000000    0.000000    0.000000    0.000000
  0.049058116   -7.245252  119.996681 -106.258376   16.493376    0.000000    0.000000    0.000000    0.000000
  0.049258517   -7.242103  119.870705 -103.907791   -7.850269    0.000000    0.000000    0.000000    0.000000
  0.049458918   -7.235149  119.721848 -103.579416   -5.910855    0.000000    0.000000    0.000000    0.000000
  0.049659319   -7.229783  119.613876 -102.474529    7.971568    0.000000    0.000000    0.000000    0.000000
  0.049859719   -7.229383  119.470825 -105.475740    9.696335    0.000000    0.000000    0.000000    0.000000
  0.050060120   -7.231049  119.363922 -104.415608   18.337681    0.000000    0.000000    0.000000    0.000000
  0.050260521   -7.236534  119.221046 -101.568770   23.544863    0.000000    0.000000    0.000000    0.000000
  0.050460922   -7.238429  119.088242 -105.646409    3.844783    0.000000    0.000000    0.000000    0.000000
  0.050661323   -7.243538  118.927940 -102.730521   14.948131    0.000000    0.000000    0.000000    0.000000
  0.050861723   -7.247880  118.703949 -104.323389   -6.914106    0.000000    0.000000    0.000000    0.000000
  0.051062124   -7.250620  118.512016 -103.003205   -1.174214    0.000000    0.000000    0.000000    0.000000
  0.051262525   -7.254394  118.311691 -102.916504   -1.365504    0.000000    0.000000    0.000000    0.000000
  0.051462926   -7.259736  118.116333 -101.973906   13.009035    0.000000    0.000000    0.000000    0.000000
  0.051663327   -7.269500  117.883095 -103.079652  -11.116318    0.000000    0.000000    0.000000    0.000000
  0.051863727   -7.277472  117.706108 -103.243238    7.928056    0.000000    0.000000    0.000000    0.000000
  0.052064128   -7.281756  117.481888 -102.510138    8.090206    0.000000    0.000000    0.000000    0.000000
  0.052264529   -7.295396  117.252968 -104.140974   10.421284    0.000000    0.000000    0.000000    0.000000
  0.052464930   -7.306067  116.995270 -101.252728   -0.881326    0.000000    0.000000    0.000000    0.000000
  0.052665331   -7.318663  116.681145 -102.754576   -7.061251    0.000000    0.000000    0.000000    0.000000
  0.052865731   -7.326491  116.385536 -101.449846   11.133044    0.000000    0.000000    0.000000    0.000000
