! Anritsu VNA Master:                     Model: MS2036C/10/77
! SN:                                  1601066
! /bd0/18may09/254.ew.m1_1.s2p
! Existing Calibration Information:
! TYPE:                         Current Settings,       Active Cal Settings
! TIME:             	   05/09/2018 10:11:29 AM,    05/09/2018 10:08:40 AM
! INTERNAL TEMP:    	                   48.3 C,                    48.0 C
! # POINTS:         	                      500,                       500
! START FREQ:       	               20.000 MHz,                20.000 MHz
! STOP FREQ:        	              120.000 MHz,               120.000 MHz
! SOURCE POWER:     	                     High,                      High
! IFBW:             	                    50 Hz,                     50 Hz
! AVG FACTOR:       	                       1 ,                        1 
! REF PLANE 1:      	                     0 mm,                      0 mm
! REF PLANE 2:      	                     0 mm,                      0 mm
! CAL TYPE:         	                 Full S11,                  Full S11
! CAL METHOD:       	                     SOLT,                      SOLT
! CAL LINE TYPE:    	                     Coax,                      Coax
! DUT PORT 1:       	                K-Conn(F),                 K-Conn(F)
! DUT PORT 2:       	                K-Conn(F),                 K-Conn(F)
! CAL STATUS:       	        OK: Accuracy High,                        --
# GHZ S DB R 50.0
! FREQ.GHZ       S11DB        S11A       S21DB        S21A       S12DB        S12A       S22DB        S22A
  0.020000000   -0.609472 -125.122070  -90.647776   30.771217    0.000000    0.000000    0.000000    0.000000
  0.020200401   -0.607435 -126.573799  -91.636183   28.238768    0.000000    0.000000    0.000000    0.000000
  0.020400802   -0.606873 -128.024612  -92.253944   30.468235    0.000000    0.000000    0.000000    0.000000
  0.020601202   -0.607283 -129.496567  -91.845828   30.496632    0.000000    0.000000    0.000000    0.000000
  0.020801603   -0.609826 -130.976166  -92.428256   30.954510    0.000000    0.000000    0.000000    0.000000
  0.021002004   -0.615362 -132.488297  -93.029775   33.070385    0.000000    0.000000    0.000000    0.000000
  0.021202405   -0.620385 -134.023849  -92.626011   30.333744    0.000000    0.000000    0.000000    0.000000
  0.021402806   -0.626475 -135.543320  -92.564035   34.729946    0.000000    0.000000    0.000000    0.000000
  0.021603206   -0.627805 -137.083374  -92.127366   34.648773    0.000000    0.000000    0.000000    0.000000
  0.021803607   -0.633389 -138.613739  -93.618759   35.821922    0.000000    0.000000    0.000000    0.000000
  0.022004008   -0.637015 -140.149094  -93.576934   34.552219    0.000000    0.000000    0.000000    0.000000
  0.022204409   -0.644706 -141.710846  -92.744486   35.770809    0.000000    0.000000    0.000000    0.000000
  0.022404810   -0.648912 -143.264282  -93.441983   31.946213    0.000000    0.000000    0.000000    0.000000
  0.022605210   -0.651327 -144.869614  -92.770056   36.205196    0.000000    0.000000    0.000000    0.000000
  0.022805611   -0.653895 -146.464462  -93.162636   33.251999    0.000000    0.000000    0.000000    0.000000
  0.023006012   -0.657442 -148.049728  -93.628087   34.844570    0.000000    0.000000    0.000000    0.000000
  0.023206413   -0.658274 -149.631989  -92.920199   34.765385    0.000000    0.000000    0.000000    0.000000
  0.023406814   -0.661519 -151.210770  -93.260591   35.733639    0.000000    0.000000    0.000000    0.000000
  0.023607214   -0.665745 -152.804794  -92.628524   28.150335    0.000000    0.000000    0.000000    0.000000
  0.023807615   -0.672239 -154.409271  -92.781521   26.853682    0.000000    0.000000    0.000000    0.000000
  0.024008016   -0.679787 -156.019730  -92.816026   28.095259    0.000000    0.000000    0.000000    0.000000
  0.024208417   -0.688402 -157.659576  -92.918090   27.586332    0.000000    0.000000    0.000000    0.000000
  0.024408818   -0.696557 -159.303329  -92.809965   26.282866    0.000000    0.000000    0.000000    0.000000
  0.024609218   -0.702613 -160.945297  -93.280645   21.557648    0.000000    0.000000    0.000000    0.000000
  0.024809619   -0.710821 -162.603577  -93.514941   22.669231    0.000000    0.000000    0.000000    0.000000
  0.025010020   -0.718851 -164.253510  -94.272038   23.375278    0.000000    0.000000    0.000000    0.000000
  0.025210421   -0.729961 -165.908691  -93.691234   19.066898    0.000000    0.000000    0.000000    0.000000
  0.025410822   -0.741062 -167.581619  -93.952646   20.905014    0.000000    0.000000    0.000000    0.000000
  0.025611222   -0.752935 -169.280975  -93.945856   19.841490    0.000000    0.000000    0.000000    0.000000
  0.025811623   -0.763241 -170.990952  -95.335064   11.674882    0.000000    0.000000    0.000000    0.000000
  0.026012024   -0.773012 -172.716461  -94.819423   13.786320    0.000000    0.000000    0.000000    0.000000
  0.026212425   -0.782227 -174.433350  -95.172886   18.635246    0.000000    0.000000    0.000000    0.000000
  0.026412826   -0.793324 -176.150696  -95.420113   14.533437    0.000000    0.000000    0.000000    0.000000
  0.026613226   -0.805828 -177.886368  -95.304327   23.017546    0.000000    0.000000    0.000000    0.000000
  0.026813627   -0.819082 -179.645248  -95.784706   13.758688    0.000000    0.000000    0.000000    0.000000
  0.027014028   -0.833928  178.599518  -97.185198   24.437841    0.000000    0.000000    0.000000    0.000000
  0.027214429   -0.850243  176.826447  -95.310558   19.832840    0.000000    0.000000    0.000000    0.000000
  0.027414830   -0.863512  175.035568  -96.576008   19.238581    0.000000    0.000000    0.000000    0.000000
  0.027615230   -0.877554  173.242691  -96.787463   20.578838    0.000000    0.000000    0.000000    0.000000
  0.027815631   -0.896728  171.450272  -96.028161   17.113129    0.000000    0.000000    0.000000    0.000000
  0.028016032   -0.916080  169.622055  -96.180649   25.001341    0.000000    0.000000    0.000000    0.000000
  0.028216433   -0.935646  167.795166  -96.456705   28.652790    0.000000    0.000000    0.000000    0.000000
  0.028416834   -0.953893  165.965256  -95.109473   29.808048    0.000000    0.000000    0.000000    0.000000
  0.028617234   -0.972528  164.130646  -95.800144   24.280970    0.000000    0.000000    0.000000    0.000000
  0.028817635   -0.989741  162.302155  -96.488343   22.610458    0.000000    0.000000    0.000000    0.000000
  0.029018036   -1.008777  160.477142  -96.992222   19.325581    0.000000    0.000000    0.000000    0.000000
  0.029218437   -1.027480  158.650040  -96.010686   23.857380    0.000000    0.000000    0.000000    0.000000
  0.029418838   -1.048823  156.811890  -96.284091   18.842836    0.000000    0.000000    0.000000    0.000000
  0.029619238   -1.073240  154.977554  -95.944586   18.404778    0.000000    0.000000    0.000000    0.000000
  0.029819639   -1.099490  153.099091  -96.487630   19.885124    0.000000    0.000000    0.000000    0.000000
  0.030020040   -1.128663  151.203735  -96.350455   15.691388    0.000000    0.000000    0.000000    0.000000
  0.030220441   -1.156793  149.281326  -96.606051   15.232493    0.000000    0.000000    0.000000    0.000000
  0.030420842   -1.183772  147.345123  -96.727545   14.238842    0.000000    0.000000    0.000000    0.000000
  0.030621242   -1.212096  145.439453  -96.745824   10.875562    0.000000    0.000000    0.000000    0.000000
  0.030821643   -1.242231  143.531097  -96.542840    6.877765    0.000000    0.000000    0.000000    0.000000
  0.031022044   -1.273804  141.606918  -97.280947   11.699024    0.000000    0.000000    0.000000    0.000000
  0.031222445   -1.302377  139.677872  -97.542086    8.355303    0.000000    0.000000    0.000000    0.000000
  0.031422846   -1.336995  137.700974  -96.599949   13.162139    0.000000    0.000000    0.000000    0.000000
  0.031623246   -1.371826  135.709671  -98.228396   13.178356    0.000000    0.000000    0.000000    0.000000
  0.031823647   -1.404344  133.724380  -97.623703   13.197996    0.000000    0.000000    0.000000    0.000000
  0.032024048   -1.435147  131.727310  -98.469221    7.865519    0.000000    0.000000    0.000000    0.000000
  0.032224449   -1.468628  129.732651  -97.182946   16.118061    0.000000    0.000000    0.000000    0.000000
  0.032424850   -1.499219  127.754143  -99.744786   18.477755    0.000000    0.000000    0.000000    0.000000
  0.032625251   -1.528537  125.786430  -98.405028   10.960553    0.000000    0.000000    0.000000    0.000000
  0.032825651   -1.563802  123.807190  -99.351747    7.158403    0.000000    0.000000    0.000000    0.000000
  0.033026052   -1.603924  121.835388  -97.972404   16.148718    0.000000    0.000000    0.000000    0.000000
  0.033226453   -1.644370  119.851257  -98.417016   15.907755    0.000000    0.000000    0.000000    0.000000
  0.033426854   -1.691759  117.878654  -98.349808   14.138889    0.000000    0.000000    0.000000    0.000000
  0.033627255   -1.738312  115.867683  -99.769526    1.714025    0.000000    0.000000    0.000000    0.000000
  0.033827655   -1.787972  113.824203 -101.492599    9.786913    0.000000    0.000000    0.000000    0.000000
  0.034028056   -1.834894  111.740417  -99.245059    5.312118    0.000000    0.000000    0.000000    0.000000
  0.034228457   -1.878679  109.624191  -98.972187    5.291570    0.000000    0.000000    0.000000    0.000000
  0.034428858   -1.926833  107.511574  -97.713731   10.863739    0.000000    0.000000    0.000000    0.000000
  0.034629259   -1.970093  105.375748  -98.820498    7.692171    0.000000    0.000000    0.000000    0.000000
  0.034829659   -2.011176  103.266823  -97.983842   11.586068    0.000000    0.000000    0.000000    0.000000
  0.035030060   -2.051067  101.148575  -97.393440    5.212216    0.000000    0.000000    0.000000    0.000000
  0.035230461   -2.092725   99.033455  -98.303865    8.500678    0.000000    0.000000    0.000000    0.000000
  0.035430862   -2.132340   96.945786  -97.745997    8.927534    0.000000    0.000000    0.000000    0.000000
  0.035631263   -2.172175   94.876457  -98.120911    8.046165    0.000000    0.000000    0.000000    0.000000
  0.035831663   -2.211067   92.795647  -98.613783    7.890029    0.000000    0.000000    0.000000    0.000000
  0.036032064   -2.254034   90.738808  -98.658188    7.025723    0.000000    0.000000    0.000000    0.000000
  0.036232465   -2.297271   88.686653  -99.472077   -1.693950    0.000000    0.000000    0.000000    0.000000
  0.036432866   -2.345926   86.660904  -98.883913    7.098167    0.000000    0.000000    0.000000    0.000000
  0.036633267   -2.395548   84.611115  -99.166730    8.273757    0.000000    0.000000    0.000000    0.000000
  0.036833667   -2.447817   82.592621  -99.450563    3.707769    0.000000    0.000000    0.000000    0.000000
  0.037034068   -2.504105   80.535553  -99.103527   -1.566919    0.000000    0.000000    0.000000    0.000000
  0.037234469   -2.563139   78.458923  -99.346273    0.479468    0.000000    0.000000    0.000000    0.000000
  0.037434870   -2.619282   76.364830  -99.819490    3.648634    0.000000    0.000000    0.000000    0.000000
  0.037635271   -2.674687   74.258247  -99.717514   20.569698    0.000000    0.000000    0.000000    0.000000
  0.037835671   -2.733265   72.118355 -100.510235    6.766533    0.000000    0.000000    0.000000    0.000000
  0.038036072   -2.792076   69.954651 -100.807688   15.298944    0.000000    0.000000    0.000000    0.000000
  0.038236473   -2.852541   67.821716 -100.327502   16.368870    0.000000    0.000000    0.000000    0.000000
  0.038436874   -2.902159   65.672340 -100.398302    8.596234    0.000000    0.000000    0.000000    0.000000
  0.038637275   -2.955053   63.561230 -100.556328   20.505676    0.000000    0.000000    0.000000    0.000000
  0.038837675   -2.997973   61.456936 -101.769338    0.750228    0.000000    0.000000    0.000000    0.000000
  0.039038076   -3.043298   59.408199  -99.151794   14.558133    0.000000    0.000000    0.000000    0.000000
  0.039238477   -3.087710   57.369457  -99.750175    6.511853    0.000000    0.000000    0.000000    0.000000
  0.039438878   -3.135720   55.333855  -99.281729   14.070530    0.000000    0.000000    0.000000    0.000000
  0.039639279   -3.187272   53.340202 -100.292618    4.355491    0.000000    0.000000    0.000000    0.000000
  0.039839679   -3.243988   51.330833  -99.962462   10.042970    0.000000    0.000000    0.000000    0.000000
  0.040040080   -3.301346   49.287464  -99.507848   -2.436898    0.000000    0.000000    0.000000    0.000000
  0.040240481   -3.359216   47.243973  -99.463975   11.405855    0.000000    0.000000    0.000000    0.000000
  0.040440882   -3.419147   45.173084  -99.650718    3.981174    0.000000    0.000000    0.000000    0.000000
  0.040641283   -3.476202   43.127193 -101.105587    8.501344    0.000000    0.000000    0.000000    0.000000
  0.040841683   -3.531943   41.053093  -99.540064    8.192151    0.000000    0.000000    0.000000    0.000000
  0.041042084   -3.586805   39.009476  -99.169268    1.610200    0.000000    0.000000    0.000000    0.000000
  0.041242485   -3.641489   36.952171 -100.573640    2.236190    0.000000    0.000000    0.000000    0.000000
  0.041442886   -3.693992   34.893852 -100.768104    0.924061    0.000000    0.000000    0.000000    0.000000
  0.041643287   -3.744942   32.814556  -99.464597    7.953125    0.000000    0.000000    0.000000    0.000000
  0.041843687   -3.793856   30.764223 -100.719726   10.216146    0.000000    0.000000    0.000000    0.000000
  0.042044088   -3.842760   28.717623 -100.767568    5.328890    0.000000    0.000000    0.000000    0.000000
  0.042244489   -3.890943   26.692259 -101.847862    2.838591    0.000000    0.000000    0.000000    0.000000
  0.042444890   -3.937386   24.686424 -103.554396   -6.355167    0.000000    0.000000    0.000000    0.000000
  0.042645291   -3.985191   22.679195 -100.294299   -2.498783    0.000000    0.000000    0.000000    0.000000
  0.042845691   -4.032014   20.689377 -101.379855   -8.438255    0.000000    0.000000    0.000000    0.000000
  0.043046092   -4.077923   18.695024 -102.097003    8.964827    0.000000    0.000000    0.000000    0.000000
  0.043246493   -4.124431   16.695257 -103.638856    3.965208    0.000000    0.000000    0.000000    0.000000
  0.043446894   -4.169710   14.694500 -101.585604    8.764849    0.000000    0.000000    0.000000    0.000000
  0.043647295   -4.213444   12.713698 -101.775945   -0.985912    0.000000    0.000000    0.000000    0.000000
  0.043847695   -4.259343   10.739648 -100.822555    6.403788    0.000000    0.000000    0.000000    0.000000
  0.044048096   -4.306753    8.786165 -100.132750   27.256266    0.000000    0.000000    0.000000    0.000000
  0.044248497   -4.353965    6.816300 -103.960944    1.123259    0.000000    0.000000    0.000000    0.000000
  0.044448898   -4.399573    4.887631 -103.316319   14.241505    0.000000    0.000000    0.000000    0.000000
  0.044649299   -4.443553    2.946842 -102.371265    5.285646    0.000000    0.000000    0.000000    0.000000
  0.044849699   -4.485019    1.013793 -102.226129   16.473526    0.000000    0.000000    0.000000    0.000000
  0.045050100   -4.522770   -0.902461 -100.707273   10.673095    0.000000    0.000000    0.000000    0.000000
  0.045250501   -4.562121   -2.827829 -101.355977   10.432523    0.000000    0.000000    0.000000    0.000000
  0.045450902   -4.599838   -4.720759 -101.053025   -2.512656    0.000000    0.000000    0.000000    0.000000
  0.045651303   -4.640340   -6.587118 -103.008053    9.978238    0.000000    0.000000    0.000000    0.000000
  0.045851703   -4.680004   -8.462872 -100.626460    1.561711    0.000000    0.000000    0.000000    0.000000
  0.046052104   -4.717716  -10.321326 -100.087613   -6.907221    0.000000    0.000000    0.000000    0.000000
  0.046252505   -4.756706  -12.160334 -100.925064   -9.203622    0.000000    0.000000    0.000000    0.000000
  0.046452906   -4.793308  -14.001762 -101.190749    6.092574    0.000000    0.000000    0.000000    0.000000
  0.046653307   -4.828210  -15.864180 -101.760685    6.502037    0.000000    0.000000    0.000000    0.000000
  0.046853707   -4.859933  -17.687086 -103.561780    4.175164    0.000000    0.000000    0.000000    0.000000
  0.047054108   -4.893119  -19.504326 -101.697977   -1.238648    0.000000    0.000000    0.000000    0.000000
  0.047254509   -4.924543  -21.301355 -103.487517    9.519685    0.000000    0.000000    0.000000    0.000000
  0.047454910   -4.953804  -23.103096 -100.853443   -0.515309    0.000000    0.000000    0.000000    0.000000
  0.047655311   -4.983266  -24.888405 -102.388166  -13.036504    0.000000    0.000000    0.000000    0.000000
  0.047855711   -5.010062  -26.617468 -102.953585    0.737596    0.000000    0.000000    0.000000    0.000000
  0.048056112   -5.039602  -28.351437 -102.402423   13.535975    0.000000    0.000000    0.000000    0.000000
  0.048256513   -5.072716  -30.087997 -104.820045  -10.303168    0.000000    0.000000    0.000000    0.000000
  0.048456914   -5.100654  -31.821598 -102.923275    3.450837    0.000000    0.000000    0.000000    0.000000
  0.048657315   -5.130041  -33.548912 -102.222348   -7.070861    0.000000    0.000000    0.000000    0.000000
  0.048857715   -5.152208  -35.274788 -102.775478    2.968771    0.000000    0.000000    0.000000    0.000000
  0.049058116   -5.180638  -36.990360 -103.693420   -9.364371    0.000000    0.000000    0.000000    0.000000
  0.049258517   -5.202660  -38.674992 -102.693987    1.700758    0.000000    0.000000    0.000000    0.000000
  0.049458918   -5.228070  -40.376625 -102.117485    2.674508    0.000000    0.000000    0.000000    0.000000
  0.049659319   -5.251382  -42.054947 -105.641080   33.493961    0.000000    0.000000    0.000000    0.000000
  0.049859719   -5.273787  -43.727722 -103.823139   13.842755    0.000000    0.000000    0.000000    0.000000
  0.050060120   -5.298059  -45.388466 -103.284811   -0.159332    0.000000    0.000000    0.000000    0.000000
  0.050260521   -5.316827  -47.083710 -101.794143    4.689360    0.000000    0.000000    0.000000    0.000000
  0.050460922   -5.337164  -48.740780 -107.159098  -12.109003    0.000000    0.000000    0.000000    0.000000
  0.050661323   -5.352539  -50.399113 -102.628911   19.334797    0.000000    0.000000    0.000000    0.000000
  0.050861723   -5.366899  -52.038055 -101.244086   26.193390    0.000000    0.000000    0.000000    0.000000
  0.051062124   -5.380362  -53.654221 -104.635586   14.687594    0.000000    0.000000    0.000000    0.000000
  0.051262525   -5.395271  -55.228336 -101.521373   20.403202    0.000000    0.000000    0.000000    0.000000
  0.051462926   -5.407378  -56.785091 -103.639098   11.285263    0.000000    0.000000    0.000000    0.000000
  0.051663327   -5.418641  -58.331535 -103.002776   -4.919914    0.000000    0.000000    0.000000    0.000000
  0.051863727   -5.433013  -59.855118 -103.505058    8.129869    0.000000    0.000000    0.000000    0.000000
  0.052064128   -5.448333  -61.403942 -101.355468    3.577325    0.000000    0.000000    0.000000    0.000000
  0.052264529   -5.465023  -62.922638 -100.917513    1.362095    0.000000    0.000000    0.000000    0.000000
  0.052464930   -5.479445  -64.438095 -107.190348   12.141457    0.000000    0.000000    0.000000    0.000000
  0.052665331   -5.496681  -65.987679 -102.448459    7.675747    0.000000    0.000000    0.000000    0.000000
  0.052865731   -5.509986  -67.518158 -101.858166   11.774249    0.000000    0.000000    0.000000    0.000000
