! Anritsu VNA Master:                     Model: MS2036C/10/77
! SN:                                  1601066
! /bd0/18may09/254.ew.m8.s2p
! Existing Calibration Information:
! TYPE:                         Current Settings,       Active Cal Settings
! TIME:             	   05/09/2018 11:59:46 AM,    05/09/2018 11:52:33 AM
! INTERNAL TEMP:    	                   54.3 C,                    53.5 C
! # POINTS:         	                      494,                       494
! START FREQ:       	               20.000 MHz,                20.000 MHz
! STOP FREQ:        	          118.797 594 MHz,           118.797 594 MHz
! SOURCE POWER:     	                     High,                      High
! IFBW:             	                    50 Hz,                     50 Hz
! AVG FACTOR:       	                       1 ,                        1 
! REF PLANE 1:      	                     0 mm,                      0 mm
! REF PLANE 2:      	                     0 mm,                      0 mm
! CAL TYPE:         	                 Full S22,                  Full S22
! CAL METHOD:       	                     SOLT,                      SOLT
! CAL LINE TYPE:    	                     Coax,                      Coax
! DUT PORT 1:       	                K-Conn(M),                 K-Conn(M)
! DUT PORT 2:       	                K-Conn(M),                 K-Conn(M)
! CAL STATUS:       	        OK: Accuracy High,                        --
# GHZ S DB R 50.0
! FREQ.GHZ       S11DB        S11A       S21DB        S21A       S12DB        S12A       S22DB        S22A
  0.020000000    0.000000    0.000000    0.000000    0.000000  -89.502107   33.858574   -0.638559 -126.610466
  0.020200401    0.000000    0.000000    0.000000    0.000000  -89.573588   35.031506   -0.639517 -128.087891
  0.020400802    0.000000    0.000000    0.000000    0.000000  -89.878849   33.028534   -0.642906 -129.558990
  0.020601202    0.000000    0.000000    0.000000    0.000000  -90.186547   34.095619   -0.645136 -131.065643
  0.020801603    0.000000    0.000000    0.000000    0.000000  -90.408961   34.795139   -0.648245 -132.595688
  0.021002004    0.000000    0.000000    0.000000    0.000000  -91.306435   35.895985   -0.648606 -134.143051
  0.021202405    0.000000    0.000000    0.000000    0.000000  -91.501875   32.424492   -0.650999 -135.694229
  0.021402806    0.000000    0.000000    0.000000    0.000000  -91.062506   35.511875   -0.655716 -137.234283
  0.021603206    0.000000    0.000000    0.000000    0.000000  -91.933326   37.891262   -0.655986 -138.758286
  0.021803607    0.000000    0.000000    0.000000    0.000000  -91.847955   39.349667   -0.659689 -140.305801
  0.022004008    0.000000    0.000000    0.000000    0.000000  -91.675368   41.741001   -0.665974 -141.853378
  0.022204409    0.000000    0.000000    0.000000    0.000000  -91.905973   43.372974   -0.668428 -143.425583
  0.022404810    0.000000    0.000000    0.000000    0.000000  -91.638979   37.550594   -0.677451 -145.002625
  0.022605210    0.000000    0.000000    0.000000    0.000000  -91.575921   43.477448   -0.680880 -146.597626
  0.022805611    0.000000    0.000000    0.000000    0.000000  -91.293149   43.582298   -0.680329 -148.191010
  0.023006012    0.000000    0.000000    0.000000    0.000000  -91.559405   41.095016   -0.683698 -149.782974
  0.023206413    0.000000    0.000000    0.000000    0.000000  -91.628110   44.156235   -0.688930 -151.366837
  0.023406814    0.000000    0.000000    0.000000    0.000000  -91.786566   41.648987   -0.694121 -152.955917
  0.023607214    0.000000    0.000000    0.000000    0.000000  -91.434941   38.079201   -0.701975 -154.531036
  0.023807615    0.000000    0.000000    0.000000    0.000000  -90.709091   39.305603   -0.710230 -156.132446
  0.024008016    0.000000    0.000000    0.000000    0.000000  -90.864364   41.612381   -0.715908 -157.762527
  0.024208417    0.000000    0.000000    0.000000    0.000000  -91.308595   36.948006   -0.722343 -159.410065
  0.024408818    0.000000    0.000000    0.000000    0.000000  -91.111524   31.752859   -0.728083 -161.060440
  0.024609218    0.000000    0.000000    0.000000    0.000000  -91.470834   33.801853   -0.735588 -162.704086
  0.024809619    0.000000    0.000000    0.000000    0.000000  -91.415606   32.880737   -0.742421 -164.355026
  0.025010020    0.000000    0.000000    0.000000    0.000000  -91.416478   28.678885   -0.752071 -166.022034
  0.025210421    0.000000    0.000000    0.000000    0.000000  -92.182353   30.772003   -0.762647 -167.689590
  0.025410822    0.000000    0.000000    0.000000    0.000000  -91.908154   25.914305   -0.771560 -169.381378
  0.025611222    0.000000    0.000000    0.000000    0.000000  -92.464328   28.646910   -0.782749 -171.079193
  0.025811623    0.000000    0.000000    0.000000    0.000000  -92.748398   22.832703   -0.793744 -172.790863
  0.026012024    0.000000    0.000000    0.000000    0.000000  -92.236226   26.315578   -0.804332 -174.516098
  0.026212425    0.000000    0.000000    0.000000    0.000000  -93.913779   26.540257   -0.817100 -176.251587
  0.026412826    0.000000    0.000000    0.000000    0.000000  -93.445069   26.575581   -0.829087 -178.008850
  0.026613226    0.000000    0.000000    0.000000    0.000000  -94.027380   24.736996   -0.844211 -179.766693
  0.026813627    0.000000    0.000000    0.000000    0.000000  -93.826048   26.122168   -0.858321  178.461288
  0.027014028    0.000000    0.000000    0.000000    0.000000  -94.629969   26.854582   -0.872957  176.688095
  0.027214429    0.000000    0.000000    0.000000    0.000000  -94.514843   28.123308   -0.888886  174.905991
  0.027414830    0.000000    0.000000    0.000000    0.000000  -95.051003   33.282711   -0.904808  173.114288
  0.027615230    0.000000    0.000000    0.000000    0.000000  -95.320312   29.772364   -0.921549  171.298996
  0.027815631    0.000000    0.000000    0.000000    0.000000  -94.415005   32.321030   -0.938598  169.483307
  0.028016032    0.000000    0.000000    0.000000    0.000000  -94.806052   29.265852   -0.955987  167.648010
  0.028216433    0.000000    0.000000    0.000000    0.000000  -94.459255   32.465805   -0.974153  165.805756
  0.028416834    0.000000    0.000000    0.000000    0.000000  -94.421312   35.155102   -0.993581  163.967224
  0.028617234    0.000000    0.000000    0.000000    0.000000  -94.765287   30.366024   -1.013479  162.113129
  0.028817635    0.000000    0.000000    0.000000    0.000000  -94.563050   33.640610   -1.032208  160.265213
  0.029018036    0.000000    0.000000    0.000000    0.000000  -94.453025   36.527729   -1.053451  158.425079
  0.029218437    0.000000    0.000000    0.000000    0.000000  -94.617968   33.124367   -1.076096  156.556107
  0.029418838    0.000000    0.000000    0.000000    0.000000  -94.097252   30.997824   -1.100748  154.672577
  0.029619238    0.000000    0.000000    0.000000    0.000000  -94.433491   31.431767   -1.123775  152.791260
  0.029819639    0.000000    0.000000    0.000000    0.000000  -93.741469   29.310015   -1.148533  150.900742
  0.030020040    0.000000    0.000000    0.000000    0.000000  -94.254888   30.873737   -1.173190  148.996643
  0.030220441    0.000000    0.000000    0.000000    0.000000  -94.316275   30.349607   -1.197779  147.103470
  0.030420842    0.000000    0.000000    0.000000    0.000000  -94.288803   24.687283   -1.224740  145.204407
  0.030621242    0.000000    0.000000    0.000000    0.000000  -94.023281   25.606394   -1.252508  143.306229
  0.030821643    0.000000    0.000000    0.000000    0.000000  -94.129626   28.002859   -1.282939  141.400299
  0.031022044    0.000000    0.000000    0.000000    0.000000  -94.361311   24.802591   -1.313336  139.483856
  0.031222445    0.000000    0.000000    0.000000    0.000000  -94.387017   20.864843   -1.337122  137.552750
  0.031422846    0.000000    0.000000    0.000000    0.000000  -94.949529   23.570000   -1.370711  135.597427
  0.031623246    0.000000    0.000000    0.000000    0.000000  -95.318646   23.313799   -1.404017  133.626968
  0.031823647    0.000000    0.000000    0.000000    0.000000  -94.752434   17.080618   -1.438094  131.656097
  0.032024048    0.000000    0.000000    0.000000    0.000000  -96.300675   24.005451   -1.472354  129.673416
  0.032224449    0.000000    0.000000    0.000000    0.000000  -94.906621   18.183153   -1.507096  127.697090
  0.032424850    0.000000    0.000000    0.000000    0.000000  -94.235163   19.333921   -1.544502  125.713524
  0.032625250    0.000000    0.000000    0.000000    0.000000  -96.518699   20.196341   -1.581217  123.695572
  0.032825651    0.000000    0.000000    0.000000    0.000000  -95.625411   26.218683   -1.618343  121.659904
  0.033026052    0.000000    0.000000    0.000000    0.000000  -97.331409   19.620790   -1.653241  119.623566
  0.033226453    0.000000    0.000000    0.000000    0.000000  -95.597881   21.591694   -1.692235  117.580330
  0.033426854    0.000000    0.000000    0.000000    0.000000  -97.454527   17.399889   -1.730255  115.545036
  0.033627254    0.000000    0.000000    0.000000    0.000000  -98.329889   12.039262   -1.769125  113.496437
  0.033827655    0.000000    0.000000    0.000000    0.000000  -96.620365   28.759455   -1.808771  111.467339
  0.034028056    0.000000    0.000000    0.000000    0.000000  -97.029421   28.399572   -1.847379  109.400749
  0.034228457    0.000000    0.000000    0.000000    0.000000  -95.887827   27.487667   -1.890275  107.339157
  0.034428858    0.000000    0.000000    0.000000    0.000000  -96.332953   23.263584   -1.931916  105.255836
  0.034629258    0.000000    0.000000    0.000000    0.000000  -96.419702   25.781696   -1.973316  103.167091
  0.034829659    0.000000    0.000000    0.000000    0.000000  -96.392298   26.781691   -2.016126  101.091980
  0.035030060    0.000000    0.000000    0.000000    0.000000  -96.466612   31.187887   -2.061459   99.020432
  0.035230461    0.000000    0.000000    0.000000    0.000000  -96.535667   20.175774   -2.106637   96.937569
  0.035430862    0.000000    0.000000    0.000000    0.000000  -96.243811   21.424402   -2.152836   94.859550
  0.035631262    0.000000    0.000000    0.000000    0.000000  -96.494691   28.539396   -2.199596   92.776382
  0.035831663    0.000000    0.000000    0.000000    0.000000  -96.667435   23.971458   -2.249884   90.713371
  0.036032064    0.000000    0.000000    0.000000    0.000000  -96.118425   21.244934   -2.297587   88.616539
  0.036232465    0.000000    0.000000    0.000000    0.000000  -96.571718   19.526144   -2.345604   86.531723
  0.036432866    0.000000    0.000000    0.000000    0.000000  -96.636718   21.577692   -2.397184   84.431793
  0.036633266    0.000000    0.000000    0.000000    0.000000  -95.550980   16.228334   -2.447259   82.361641
  0.036833667    0.000000    0.000000    0.000000    0.000000  -95.860642   26.725203   -2.498800   80.286186
  0.037034068    0.000000    0.000000    0.000000    0.000000  -96.481815   21.348467   -2.553116   78.193680
  0.037234469    0.000000    0.000000    0.000000    0.000000  -97.248428   19.718006   -2.606210   76.108788
  0.037434870    0.000000    0.000000    0.000000    0.000000  -97.661348   25.770626   -2.658799   74.033455
  0.037635270    0.000000    0.000000    0.000000    0.000000  -96.447553   21.832508   -2.712735   71.971550
  0.037835671    0.000000    0.000000    0.000000    0.000000  -97.785642   19.100533   -2.767713   69.866737
  0.038036072    0.000000    0.000000    0.000000    0.000000  -97.387606   15.917927   -2.823620   67.733871
  0.038236473    0.000000    0.000000    0.000000    0.000000  -97.622389   14.729962   -2.880084   65.619293
  0.038436874    0.000000    0.000000    0.000000    0.000000  -97.849356   21.530300   -2.937913   63.498375
  0.038637274    0.000000    0.000000    0.000000    0.000000  -97.838531   30.057907   -2.995652   61.393143
  0.038837675    0.000000    0.000000    0.000000    0.000000  -98.250363   28.172400   -3.050541   59.292019
  0.039038076    0.000000    0.000000    0.000000    0.000000  -97.251270   16.221375   -3.105168   57.185642
  0.039238477    0.000000    0.000000    0.000000    0.000000  -98.862156   28.484438   -3.159114   55.095158
  0.039438878    0.000000    0.000000    0.000000    0.000000  -98.026564   30.566896   -3.212679   52.997402
  0.039639278    0.000000    0.000000    0.000000    0.000000  -98.079227   28.581667   -3.267712   50.899231
  0.039839679    0.000000    0.000000    0.000000    0.000000  -98.958329   30.019949   -3.320650   48.780319
  0.040040080    0.000000    0.000000    0.000000    0.000000  -98.205841   28.409470   -3.373334   46.678730
  0.040240481    0.000000    0.000000    0.000000    0.000000  -97.493203   30.200102   -3.424756   44.564964
  0.040440882    0.000000    0.000000    0.000000    0.000000  -98.922267   24.607376   -3.474192   42.480148
  0.040641283    0.000000    0.000000    0.000000    0.000000  -97.863912   31.194311   -3.523841   40.413586
  0.040841683    0.000000    0.000000    0.000000    0.000000  -97.297252   25.727434   -3.576677   38.340130
  0.041042084    0.000000    0.000000    0.000000    0.000000  -98.667246   26.405928   -3.629339   36.271038
  0.041242485    0.000000    0.000000    0.000000    0.000000  -97.088249   32.132813   -3.681475   34.211044
  0.041442886    0.000000    0.000000    0.000000    0.000000  -98.966760   25.332924   -3.732000   32.143322
  0.041643287    0.000000    0.000000    0.000000    0.000000  -96.991750   28.740417   -3.781868   30.078794
  0.041843687    0.000000    0.000000    0.000000    0.000000  -97.371563   22.182140   -3.829247   28.011665
  0.042044088    0.000000    0.000000    0.000000    0.000000  -98.763992   17.581217   -3.878624   25.965658
  0.042244489    0.000000    0.000000    0.000000    0.000000  -97.819998   31.812353   -3.928408   23.935003
  0.042444890    0.000000    0.000000    0.000000    0.000000  -98.057785   26.145100   -3.977402   21.915575
  0.042645291    0.000000    0.000000    0.000000    0.000000  -98.517947   33.525417   -4.028545   19.881559
  0.042845691    0.000000    0.000000    0.000000    0.000000  -98.445799   21.754171   -4.079245   17.884048
  0.043046092    0.000000    0.000000    0.000000    0.000000  -99.277015   25.340818   -4.127575   15.856956
  0.043246493    0.000000    0.000000    0.000000    0.000000  -98.712074   21.845261   -4.179650   13.829926
  0.043446894    0.000000    0.000000    0.000000    0.000000  -98.671899   29.905788   -4.226602   11.838695
  0.043647295    0.000000    0.000000    0.000000    0.000000 -101.851574   31.567513   -4.273009    9.830158
  0.043847695    0.000000    0.000000    0.000000    0.000000  -98.967246   27.331234   -4.320166    7.867685
  0.044048096    0.000000    0.000000    0.000000    0.000000  -98.109652   34.538879   -4.368764    5.876886
  0.044248497    0.000000    0.000000    0.000000    0.000000 -100.689544   28.324020   -4.418387    3.902817
  0.044448898    0.000000    0.000000    0.000000    0.000000  -98.262090   23.862513   -4.465642    1.951923
  0.044649299    0.000000    0.000000    0.000000    0.000000  -99.119978   36.810772   -4.511880   -0.017701
  0.044849699    0.000000    0.000000    0.000000    0.000000  -99.619911   36.826069   -4.556284   -1.958710
  0.045050100    0.000000    0.000000    0.000000    0.000000  -99.637018   36.587826   -4.598961   -3.910467
  0.045250501    0.000000    0.000000    0.000000    0.000000  -99.456193   34.494354   -4.641535   -5.872619
  0.045450902    0.000000    0.000000    0.000000    0.000000  -98.161483   31.480341   -4.682280   -7.815358
  0.045651303    0.000000    0.000000    0.000000    0.000000  -99.960822   31.995365   -4.720718   -9.736341
  0.045851703    0.000000    0.000000    0.000000    0.000000  -99.374552   29.338627   -4.762975  -11.642659
  0.046052104    0.000000    0.000000    0.000000    0.000000  -99.368097   29.931057   -4.803662  -13.538198
  0.046252505    0.000000    0.000000    0.000000    0.000000  -99.069317   26.832201   -4.844963  -15.417900
  0.046452906    0.000000    0.000000    0.000000    0.000000  -98.389289   29.869934   -4.880344  -17.273918
  0.046653307    0.000000    0.000000    0.000000    0.000000  -98.481196   32.196575   -4.919995  -19.136984
  0.046853707    0.000000    0.000000    0.000000    0.000000  -99.589317   38.748184   -4.956146  -21.005413
  0.047054108    0.000000    0.000000    0.000000    0.000000  -99.754713   33.624950   -4.990255  -22.836916
  0.047254509    0.000000    0.000000    0.000000    0.000000  -98.247725   35.883484   -5.023873  -24.691797
  0.047454910    0.000000    0.000000    0.000000    0.000000  -99.449761   32.262280   -5.054909  -26.521168
  0.047655311    0.000000    0.000000    0.000000    0.000000  -98.835635   32.987038   -5.086938  -28.335739
  0.047855711    0.000000    0.000000    0.000000    0.000000  -99.255757   27.296429   -5.118517  -30.113823
  0.048056112    0.000000    0.000000    0.000000    0.000000  -99.776398   25.091652   -5.151567  -31.883976
  0.048256513    0.000000    0.000000    0.000000    0.000000  -99.202860   23.996510   -5.181601  -33.658962
  0.048456914    0.000000    0.000000    0.000000    0.000000  -99.651622   29.616472   -5.214385  -35.405010
  0.048657315    0.000000    0.000000    0.000000    0.000000  -98.214883   28.472639   -5.244073  -37.168659
  0.048857715    0.000000    0.000000    0.000000    0.000000 -100.207905   32.470253   -5.271238  -38.917606
  0.049058116    0.000000    0.000000    0.000000    0.000000  -99.439805   31.458967   -5.297149  -40.678314
  0.049258517    0.000000    0.000000    0.000000    0.000000  -99.121050   25.665209   -5.323498  -42.387493
  0.049458918    0.000000    0.000000    0.000000    0.000000  -98.334026   33.373409   -5.349669  -44.090675
  0.049659319    0.000000    0.000000    0.000000    0.000000 -100.649544   29.657640   -5.375991  -45.787109
  0.049859719    0.000000    0.000000    0.000000    0.000000  -99.668579   40.726200   -5.404888  -47.475571
  0.050060120    0.000000    0.000000    0.000000    0.000000 -100.755469   31.116184   -5.428305  -49.147800
  0.050260521    0.000000    0.000000    0.000000    0.000000  -98.485836   36.296162   -5.451445  -50.844643
  0.050460922    0.000000    0.000000    0.000000    0.000000  -99.783135   42.494133   -5.473659  -52.524891
  0.050661323    0.000000    0.000000    0.000000    0.000000 -100.175352   35.717373   -5.494124  -54.175938
  0.050861723    0.000000    0.000000    0.000000    0.000000  -99.543894   34.641644   -5.514104  -55.842754
  0.051062124    0.000000    0.000000    0.000000    0.000000 -100.170994   46.535580   -5.534394  -57.493156
  0.051262525    0.000000    0.000000    0.000000    0.000000  -99.467246   33.901188   -5.554659  -59.098587
  0.051462926    0.000000    0.000000    0.000000    0.000000  -97.903832   37.126675   -5.575652  -60.689953
  0.051663327    0.000000    0.000000    0.000000    0.000000  -98.841618   31.375055   -5.591406  -62.311462
  0.051863727    0.000000    0.000000    0.000000    0.000000  -99.496179   34.997799   -5.610253  -63.882473
  0.052064128    0.000000    0.000000    0.000000    0.000000  -99.929880   33.827381   -5.625057  -65.469696
  0.052264529    0.000000    0.000000    0.000000    0.000000  -98.451510   24.276554   -5.634799  -67.047943
  0.052464930    0.000000    0.000000    0.000000    0.000000  -99.842645   33.037125   -5.646378  -68.590370
  0.052665331    0.000000    0.000000    0.000000    0.000000  -98.469980   34.737614   -5.659567  -70.134697
  0.052865731    0.000000    0.000000    0.000000    0.000000  -98.893599   34.249901   -5.671241  -71.646957
