! Anritsu VNA Master:                     Model: MS2036C/10/77
! SN:                                  1601066
! /bd0/18may09/254.ew.m6.s2p
! Existing Calibration Information:
! TYPE:                         Current Settings,       Active Cal Settings
! TIME:             	   05/09/2018 11:55:50 AM,    05/09/2018 11:52:33 AM
! INTERNAL TEMP:    	                   53.8 C,                    53.5 C
! # POINTS:         	                      494,                       494
! START FREQ:       	               20.000 MHz,                20.000 MHz
! STOP FREQ:        	          118.797 594 MHz,           118.797 594 MHz
! SOURCE POWER:     	                     High,                      High
! IFBW:             	                    50 Hz,                     50 Hz
! AVG FACTOR:       	                       1 ,                        1 
! REF PLANE 1:      	                     0 mm,                      0 mm
! REF PLANE 2:      	                     0 mm,                      0 mm
! CAL TYPE:         	                 Full S22,                  Full S22
! CAL METHOD:       	                     SOLT,                      SOLT
! CAL LINE TYPE:    	                     Coax,                      Coax
! DUT PORT 1:       	                K-Conn(M),                 K-Conn(M)
! DUT PORT 2:       	                K-Conn(M),                 K-Conn(M)
! CAL STATUS:       	        OK: Accuracy High,                        --
# GHZ S DB R 50.0
! FREQ.GHZ       S11DB        S11A       S21DB        S21A       S12DB        S12A       S22DB        S22A
  0.020000000    0.000000    0.000000    0.000000    0.000000  -89.445044   30.816956   -0.633441 -126.675476
  0.020200401    0.000000    0.000000    0.000000    0.000000  -89.454291   36.264488   -0.633512 -128.147156
  0.020400802    0.000000    0.000000    0.000000    0.000000  -90.306689   31.444033   -0.637369 -129.610428
  0.020601202    0.000000    0.000000    0.000000    0.000000  -90.344002   34.515263   -0.640214 -131.112076
  0.020801603    0.000000    0.000000    0.000000    0.000000  -90.595052   33.687756   -0.642140 -132.635437
  0.021002004    0.000000    0.000000    0.000000    0.000000  -91.120636   32.416462   -0.643285 -134.169006
  0.021202405    0.000000    0.000000    0.000000    0.000000  -91.176158   36.067089   -0.645375 -135.718018
  0.021402806    0.000000    0.000000    0.000000    0.000000  -91.366997   35.346401   -0.650306 -137.248093
  0.021603206    0.000000    0.000000    0.000000    0.000000  -91.796671   41.810787   -0.651336 -138.769485
  0.021803607    0.000000    0.000000    0.000000    0.000000  -91.892187   38.901943   -0.654824 -140.306824
  0.022004008    0.000000    0.000000    0.000000    0.000000  -91.533547   37.890587   -0.660834 -141.848236
  0.022204409    0.000000    0.000000    0.000000    0.000000  -91.532745   42.455860   -0.664101 -143.415573
  0.022404810    0.000000    0.000000    0.000000    0.000000  -92.017903   37.738911   -0.670723 -144.992126
  0.022605210    0.000000    0.000000    0.000000    0.000000  -91.284150   40.507111   -0.676201 -146.572998
  0.022805611    0.000000    0.000000    0.000000    0.000000  -91.360556   44.345173   -0.679025 -148.167755
  0.023006012    0.000000    0.000000    0.000000    0.000000  -91.771374   43.205624   -0.681964 -149.757935
  0.023206413    0.000000    0.000000    0.000000    0.000000  -91.878639   42.799606   -0.686497 -151.342255
  0.023406814    0.000000    0.000000    0.000000    0.000000  -91.759481   41.937561   -0.690017 -152.937683
  0.023607214    0.000000    0.000000    0.000000    0.000000  -91.391678   41.473755   -0.698656 -154.528381
  0.023807615    0.000000    0.000000    0.000000    0.000000  -91.226815   36.314404   -0.707475 -156.133621
  0.024008016    0.000000    0.000000    0.000000    0.000000  -90.883316   38.103241   -0.713291 -157.776703
  0.024208417    0.000000    0.000000    0.000000    0.000000  -91.111121   37.039612   -0.721233 -159.427032
  0.024408818    0.000000    0.000000    0.000000    0.000000  -91.461830   33.717003   -0.726519 -161.086823
  0.024609218    0.000000    0.000000    0.000000    0.000000  -91.693078   33.900200   -0.733219 -162.737625
  0.024809619    0.000000    0.000000    0.000000    0.000000  -92.076513   29.282005   -0.742043 -164.399399
  0.025010020    0.000000    0.000000    0.000000    0.000000  -91.906125   29.901278   -0.750428 -166.065994
  0.025210421    0.000000    0.000000    0.000000    0.000000  -91.628893   25.174530   -0.760876 -167.747696
  0.025410822    0.000000    0.000000    0.000000    0.000000  -91.666989   26.950674   -0.770390 -169.441315
  0.025611222    0.000000    0.000000    0.000000    0.000000  -91.986867   28.936499   -0.781641 -171.145630
  0.025811623    0.000000    0.000000    0.000000    0.000000  -92.415689   24.734129   -0.792623 -172.859756
  0.026012024    0.000000    0.000000    0.000000    0.000000  -92.889736   20.893782   -0.802302 -174.586868
  0.026212425    0.000000    0.000000    0.000000    0.000000  -93.805605   26.741440   -0.814610 -176.327118
  0.026412826    0.000000    0.000000    0.000000    0.000000  -93.316032   21.837166   -0.827643 -178.069489
  0.026613226    0.000000    0.000000    0.000000    0.000000  -93.183087   25.784502   -0.841448 -179.825348
  0.026813627    0.000000    0.000000    0.000000    0.000000  -94.593224   23.378523   -0.855863  178.409546
  0.027014028    0.000000    0.000000    0.000000    0.000000  -94.369095   26.305983   -0.869891  176.647995
  0.027214429    0.000000    0.000000    0.000000    0.000000  -94.317314   26.509560   -0.886617  174.866196
  0.027414830    0.000000    0.000000    0.000000    0.000000  -94.813849   27.963083   -0.901985  173.085785
  0.027615230    0.000000    0.000000    0.000000    0.000000  -94.955815   30.930635   -0.918739  171.286118
  0.027815631    0.000000    0.000000    0.000000    0.000000  -94.464501   32.317406   -0.934429  169.474335
  0.028016032    0.000000    0.000000    0.000000    0.000000  -95.640637   33.195015   -0.952760  167.661118
  0.028216433    0.000000    0.000000    0.000000    0.000000  -94.740795   29.605215   -0.971759  165.821701
  0.028416834    0.000000    0.000000    0.000000    0.000000  -95.040958   32.273365   -0.990809  163.988724
  0.028617234    0.000000    0.000000    0.000000    0.000000  -94.764431   38.705894   -1.010663  162.152466
  0.028817635    0.000000    0.000000    0.000000    0.000000  -94.463200   36.451241   -1.029817  160.303833
  0.029018036    0.000000    0.000000    0.000000    0.000000  -94.523241   34.905869   -1.052167  158.459793
  0.029218437    0.000000    0.000000    0.000000    0.000000  -93.584951   32.248962   -1.074787  156.600128
  0.029418838    0.000000    0.000000    0.000000    0.000000  -93.858230   29.055464   -1.099116  154.712479
  0.029619238    0.000000    0.000000    0.000000    0.000000  -93.904499   31.264877   -1.122262  152.836044
  0.029819639    0.000000    0.000000    0.000000    0.000000  -94.002630   32.948341   -1.146888  150.940948
  0.030020040    0.000000    0.000000    0.000000    0.000000  -93.990684   32.430161   -1.173346  149.028915
  0.030220441    0.000000    0.000000    0.000000    0.000000  -94.139272   29.663441   -1.198014  147.131668
  0.030420842    0.000000    0.000000    0.000000    0.000000  -93.986423   28.508638   -1.225180  145.230667
  0.030621242    0.000000    0.000000    0.000000    0.000000  -94.319435   24.594130   -1.253065  143.325455
  0.030821643    0.000000    0.000000    0.000000    0.000000  -94.347289   27.129560   -1.283950  141.415024
  0.031022044    0.000000    0.000000    0.000000    0.000000  -94.493847   24.254951   -1.313583  139.479919
  0.031222445    0.000000    0.000000    0.000000    0.000000  -94.666684   20.759274   -1.336673  137.550217
  0.031422846    0.000000    0.000000    0.000000    0.000000  -95.166635   17.095596   -1.370395  135.579086
  0.031623246    0.000000    0.000000    0.000000    0.000000  -94.746961   22.901522   -1.402161  133.603210
  0.031823647    0.000000    0.000000    0.000000    0.000000  -95.738451   20.436502   -1.436738  131.630936
  0.032024048    0.000000    0.000000    0.000000    0.000000  -95.283665   17.309958   -1.469787  129.641296
  0.032224449    0.000000    0.000000    0.000000    0.000000  -95.374676   24.907934   -1.504596  127.666618
  0.032424850    0.000000    0.000000    0.000000    0.000000  -95.167476   17.033875   -1.540951  125.681862
  0.032625250    0.000000    0.000000    0.000000    0.000000  -96.330255   18.357193   -1.576813  123.656151
  0.032825651    0.000000    0.000000    0.000000    0.000000  -96.294976   18.961964   -1.614467  121.628906
  0.033026052    0.000000    0.000000    0.000000    0.000000  -96.880896   24.416998   -1.650638  119.583923
  0.033226453    0.000000    0.000000    0.000000    0.000000  -96.222984   34.166393   -1.687195  117.557076
  0.033426854    0.000000    0.000000    0.000000    0.000000  -97.205299   26.832218   -1.725632  115.528770
  0.033627254    0.000000    0.000000    0.000000    0.000000  -97.401118   22.922359   -1.763851  113.496849
  0.033827655    0.000000    0.000000    0.000000    0.000000  -96.591851   31.315157   -1.804774  111.456902
  0.034028056    0.000000    0.000000    0.000000    0.000000  -95.897263   24.772629   -1.843479  109.403412
  0.034228457    0.000000    0.000000    0.000000    0.000000  -96.893808   19.516249   -1.885818  107.341095
  0.034428858    0.000000    0.000000    0.000000    0.000000  -95.659825   27.358688   -1.926886  105.271187
  0.034629258    0.000000    0.000000    0.000000    0.000000  -96.745096   30.830576   -1.970034  103.195541
  0.034829659    0.000000    0.000000    0.000000    0.000000  -96.294289   23.766136   -2.012770  101.125992
  0.035030060    0.000000    0.000000    0.000000    0.000000  -95.881764   27.045082   -2.058878   99.061340
  0.035230461    0.000000    0.000000    0.000000    0.000000  -97.006713   24.888792   -2.104396   96.988190
  0.035430862    0.000000    0.000000    0.000000    0.000000  -96.358503   24.775444   -2.151509   94.913696
  0.035631262    0.000000    0.000000    0.000000    0.000000  -96.017018   27.560011   -2.197143   92.820259
  0.035831663    0.000000    0.000000    0.000000    0.000000  -96.402704   23.382401   -2.249696   90.752266
  0.036032064    0.000000    0.000000    0.000000    0.000000  -95.831559   25.139599   -2.295561   88.654221
  0.036232465    0.000000    0.000000    0.000000    0.000000  -96.536804   24.465635   -2.345273   86.562790
  0.036432866    0.000000    0.000000    0.000000    0.000000  -95.945668   27.906370   -2.395988   84.457558
  0.036633266    0.000000    0.000000    0.000000    0.000000  -97.172217   30.822092   -2.447431   82.381027
  0.036833667    0.000000    0.000000    0.000000    0.000000  -95.830433   15.370723   -2.498670   80.282532
  0.037034068    0.000000    0.000000    0.000000    0.000000  -96.025360   23.002651   -2.553152   78.189545
  0.037234469    0.000000    0.000000    0.000000    0.000000  -98.063552   20.564573   -2.605223   76.102425
  0.037434870    0.000000    0.000000    0.000000    0.000000  -98.098363   16.646866   -2.659412   74.024437
  0.037635270    0.000000    0.000000    0.000000    0.000000  -97.584453   29.261921   -2.711212   71.942467
  0.037835671    0.000000    0.000000    0.000000    0.000000  -97.468779   16.043255   -2.765954   69.822319
  0.038036072    0.000000    0.000000    0.000000    0.000000  -98.334438   20.700298   -2.821881   67.690414
  0.038236473    0.000000    0.000000    0.000000    0.000000  -98.165703   23.097034   -2.876167   65.575279
  0.038436874    0.000000    0.000000    0.000000    0.000000  -98.129651   18.890667   -2.934131   63.464046
  0.038637274    0.000000    0.000000    0.000000    0.000000  -98.256500   28.459822   -2.991879   61.353287
  0.038837675    0.000000    0.000000    0.000000    0.000000  -98.822203   17.277031   -3.044274   59.248436
  0.039038076    0.000000    0.000000    0.000000    0.000000  -98.852672   27.024036   -3.098527   57.149487
  0.039238477    0.000000    0.000000    0.000000    0.000000  -97.906339   18.626162   -3.153284   55.057789
  0.039438878    0.000000    0.000000    0.000000    0.000000  -97.615432   26.710896   -3.206172   52.980545
  0.039639278    0.000000    0.000000    0.000000    0.000000  -98.543689   18.863028   -3.258860   50.877792
  0.039839679    0.000000    0.000000    0.000000    0.000000  -97.306373   28.369350   -3.312495   48.778790
  0.040040080    0.000000    0.000000    0.000000    0.000000  -97.793552   31.181210   -3.366457   46.681225
  0.040240481    0.000000    0.000000    0.000000    0.000000  -97.642845   27.606167   -3.417871   44.571972
  0.040440882    0.000000    0.000000    0.000000    0.000000  -97.372805   29.138498   -3.467926   42.489223
  0.040641283    0.000000    0.000000    0.000000    0.000000  -97.966827   21.825277   -3.520283   40.424305
  0.040841683    0.000000    0.000000    0.000000    0.000000  -97.902613   28.430101   -3.573066   38.363407
  0.041042084    0.000000    0.000000    0.000000    0.000000  -96.610019   29.230816   -3.625217   36.293373
  0.041242485    0.000000    0.000000    0.000000    0.000000  -97.521592   27.648066   -3.677402   34.236694
  0.041442886    0.000000    0.000000    0.000000    0.000000  -98.154997   31.906040   -3.729293   32.166927
  0.041643287    0.000000    0.000000    0.000000    0.000000  -98.507179   25.024982   -3.780933   30.088732
  0.041843687    0.000000    0.000000    0.000000    0.000000  -97.329824   32.508854   -3.830690   28.029032
  0.042044088    0.000000    0.000000    0.000000    0.000000  -98.064136   33.587700   -3.879157   25.972750
  0.042244489    0.000000    0.000000    0.000000    0.000000  -97.245645   23.716755   -3.929492   23.944189
  0.042444890    0.000000    0.000000    0.000000    0.000000  -98.719759   27.132229   -3.979565   21.917505
  0.042645291    0.000000    0.000000    0.000000    0.000000  -98.894013   25.770555   -4.030538   19.867710
  0.042845691    0.000000    0.000000    0.000000    0.000000  -98.008859   20.302435   -4.081645   17.861227
  0.043046092    0.000000    0.000000    0.000000    0.000000  -99.552954   25.799572   -4.131779   15.839246
  0.043246493    0.000000    0.000000    0.000000    0.000000  -98.200466   29.174324   -4.181580   13.795246
  0.043446894    0.000000    0.000000    0.000000    0.000000  -96.772585   18.961189   -4.230501   11.783114
  0.043647295    0.000000    0.000000    0.000000    0.000000  -99.133277   32.419960   -4.276393    9.770859
  0.043847695    0.000000    0.000000    0.000000    0.000000  -98.897706   23.556637   -4.321881    7.790240
  0.044048096    0.000000    0.000000    0.000000    0.000000  -99.261680   35.000904   -4.371588    5.802881
  0.044248497    0.000000    0.000000    0.000000    0.000000  -99.772579   29.915138   -4.417741    3.820159
  0.044448898    0.000000    0.000000    0.000000    0.000000  -97.707592   25.408007   -4.465044    1.854189
  0.044649299    0.000000    0.000000    0.000000    0.000000  -99.655686   26.817362   -4.510392   -0.098747
  0.044849699    0.000000    0.000000    0.000000    0.000000  -99.078553   29.916765   -4.555359   -2.058173
  0.045050100    0.000000    0.000000    0.000000    0.000000  -99.605526   41.397289   -4.598500   -4.005145
  0.045250501    0.000000    0.000000    0.000000    0.000000  -98.446423   29.735577   -4.640842   -5.950865
  0.045450902    0.000000    0.000000    0.000000    0.000000  -98.536499   30.628914   -4.681254   -7.890306
  0.045651303    0.000000    0.000000    0.000000    0.000000  -98.764090   34.287491   -4.719873   -9.803628
  0.045851703    0.000000    0.000000    0.000000    0.000000  -99.050641   28.896919   -4.760637  -11.718226
  0.046052104    0.000000    0.000000    0.000000    0.000000  -97.803239   36.301472   -4.801669  -13.600291
  0.046252505    0.000000    0.000000    0.000000    0.000000  -99.501196   28.878426   -4.840553  -15.476611
  0.046452906    0.000000    0.000000    0.000000    0.000000  -99.250734   31.163055   -4.878048  -17.339083
  0.046653307    0.000000    0.000000    0.000000    0.000000 -100.231750   31.550467   -4.915465  -19.194981
  0.046853707    0.000000    0.000000    0.000000    0.000000  -99.917106   30.384459   -4.952306  -21.056047
  0.047054108    0.000000    0.000000    0.000000    0.000000  -98.147483   26.383247   -4.988387  -22.891800
  0.047254509    0.000000    0.000000    0.000000    0.000000  -98.834961   34.950562   -5.022966  -24.748762
  0.047454910    0.000000    0.000000    0.000000    0.000000  -99.418495   14.472640   -5.053689  -26.575138
  0.047655311    0.000000    0.000000    0.000000    0.000000  -96.999790   30.652536   -5.088260  -28.372023
  0.047855711    0.000000    0.000000    0.000000    0.000000  -99.523570   26.679781   -5.118258  -30.173740
  0.048056112    0.000000    0.000000    0.000000    0.000000  -98.997047   27.784634   -5.152019  -31.942745
  0.048256513    0.000000    0.000000    0.000000    0.000000  -98.851829   30.691456   -5.183886  -33.715527
  0.048456914    0.000000    0.000000    0.000000    0.000000  -99.797757   20.588455   -5.215823  -35.470219
  0.048657315    0.000000    0.000000    0.000000    0.000000  -99.316141   30.760696   -5.244638  -37.229633
  0.048857715    0.000000    0.000000    0.000000    0.000000  -99.555077   31.760891   -5.273298  -38.994434
  0.049058116    0.000000    0.000000    0.000000    0.000000  -99.369113   26.698204   -5.298957  -40.747555
  0.049258517    0.000000    0.000000    0.000000    0.000000 -100.381864   31.842434   -5.324859  -42.470638
  0.049458918    0.000000    0.000000    0.000000    0.000000  -99.647235   29.178940   -5.348925  -44.172359
  0.049659319    0.000000    0.000000    0.000000    0.000000  -99.224431   23.640490   -5.376942  -45.878170
  0.049859719    0.000000    0.000000    0.000000    0.000000 -101.002309   33.073635   -5.403576  -47.562378
  0.050060120    0.000000    0.000000    0.000000    0.000000  -99.669728   39.500061   -5.427965  -49.260868
  0.050260521    0.000000    0.000000    0.000000    0.000000 -100.260204   36.102379   -5.451948  -50.936691
  0.050460922    0.000000    0.000000    0.000000    0.000000  -99.204715   43.814266   -5.472655  -52.611122
  0.050661323    0.000000    0.000000    0.000000    0.000000  -98.773813   31.520250   -5.492127  -54.280331
  0.050861723    0.000000    0.000000    0.000000    0.000000  -99.403649   43.613129   -5.510530  -55.934952
  0.051062124    0.000000    0.000000    0.000000    0.000000  -98.962436   43.458244   -5.532260  -57.576588
  0.051262525    0.000000    0.000000    0.000000    0.000000  -98.833288   23.723661   -5.554966  -59.176067
  0.051462926    0.000000    0.000000    0.000000    0.000000  -99.116985   27.061991   -5.574967  -60.770733
  0.051663327    0.000000    0.000000    0.000000    0.000000  -98.929699   33.388302   -5.589921  -62.386772
  0.051863727    0.000000    0.000000    0.000000    0.000000  -98.661839   33.563927   -5.609431  -63.962147
  0.052064128    0.000000    0.000000    0.000000    0.000000  -98.303671   27.047903   -5.622816  -65.548973
  0.052264529    0.000000    0.000000    0.000000    0.000000  -98.140375   37.381390   -5.635012  -67.118279
  0.052464930    0.000000    0.000000    0.000000    0.000000  -99.974488   34.781338   -5.648423  -68.647102
  0.052665331    0.000000    0.000000    0.000000    0.000000  -98.129317   23.315014   -5.660728  -70.203583
  0.052865731    0.000000    0.000000    0.000000    0.000000  -98.187255   25.213661   -5.673440  -71.706512
