! Anritsu VNA Master:                     Model: MS2036C/10/77
! SN:                                  1601066
! /card0/usr/256.ew.sma.r50.21.s2p
! Existing Calibration Information:
! TYPE:                         Current Settings,       Active Cal Settings
! TIME:             	   12/19/2017 02:42:59 PM,    12/19/2017 02:22:10 PM
! INTERNAL TEMP:    	                   46.3 C,                    45.0 C
! # POINTS:         	                      501,                       501
! START FREQ:       	               10.000 MHz,                10.000 MHz
! STOP FREQ:        	              110.000 MHz,               110.000 MHz
! SOURCE POWER:     	                     High,                      High
! IFBW:             	                   100 Hz,                    100 Hz
! AVG FACTOR:       	                       1 ,                        1 
! REF PLANE 1:      	                     0 mm,                      0 mm
! REF PLANE 2:      	                     0 mm,                      0 mm
! CAL TYPE:         	                 Full S11,                  Full S11
! CAL METHOD:       	                     SOLT,                      SOLT
! CAL LINE TYPE:    	                     Coax,                      Coax
! DUT PORT 1:       	                N-Conn(F),                 N-Conn(F)
! DUT PORT 2:       	                K-Conn(F),                 K-Conn(F)
! CAL STATUS:       	        OK: Accuracy High,                        --
# GHZ S DB R 50.0
! FREQ.GHZ       S11DB        S11A       S21DB        S21A       S12DB        S12A       S22DB        S22A
  0.010000000  -44.777386   63.157413  -83.422759   77.498108    0.000000    0.000000    0.000000    0.000000
  0.010200000  -44.749037   64.864105  -83.633794   75.686157    0.000000    0.000000    0.000000    0.000000
  0.010400000  -44.720987   66.198608  -83.429362   74.536140    0.000000    0.000000    0.000000    0.000000
  0.010600000  -44.849328   64.941231  -83.899124   74.395157    0.000000    0.000000    0.000000    0.000000
  0.010800000  -44.807137   63.450680  -84.135366   73.437698    0.000000    0.000000    0.000000    0.000000
  0.011000000  -44.588787   62.596035  -83.956459   73.061981    0.000000    0.000000    0.000000    0.000000
  0.011200000  -44.488734   64.679626  -84.355581   71.805908    0.000000    0.000000    0.000000    0.000000
  0.011400000  -44.268797   64.200333  -84.681365   66.993309    0.000000    0.000000    0.000000    0.000000
  0.011600000  -44.637629   61.210743  -84.765750   69.634048    0.000000    0.000000    0.000000    0.000000
  0.011800000  -44.819708   61.097004  -84.401539   66.318336    0.000000    0.000000    0.000000    0.000000
  0.012000000  -44.513646   62.809696  -84.962626   67.664146    0.000000    0.000000    0.000000    0.000000
  0.012200000  -44.495605   60.084976  -85.182224   62.764973    0.000000    0.000000    0.000000    0.000000
  0.012400000  -44.282750   59.169682  -85.416802   66.184677    0.000000    0.000000    0.000000    0.000000
  0.012600000  -44.080828   60.555004  -85.463343   63.084862    0.000000    0.000000    0.000000    0.000000
  0.012800000  -44.181090   58.381405  -85.956455   61.637470    0.000000    0.000000    0.000000    0.000000
  0.013000000  -43.903131   58.838158  -86.706557   61.773911    0.000000    0.000000    0.000000    0.000000
  0.013200000  -43.662659   57.889164  -86.016475   60.901730    0.000000    0.000000    0.000000    0.000000
  0.013400000  -43.586218   58.393883  -86.326548   59.173241    0.000000    0.000000    0.000000    0.000000
  0.013600000  -43.584516   56.644573  -86.172322   58.958069    0.000000    0.000000    0.000000    0.000000
  0.013800000  -43.149839   55.101479  -86.673987   56.633770    0.000000    0.000000    0.000000    0.000000
  0.014000000  -43.126278   55.215580  -86.977842   57.144920    0.000000    0.000000    0.000000    0.000000
  0.014200000  -42.880604   55.308655  -86.778855   59.342590    0.000000    0.000000    0.000000    0.000000
  0.014400000  -42.680141   54.765022  -87.164552   56.004692    0.000000    0.000000    0.000000    0.000000
  0.014600000  -42.543190   54.920494  -87.387283   52.660873    0.000000    0.000000    0.000000    0.000000
  0.014800000  -42.447787   55.087475  -87.626573   53.792885    0.000000    0.000000    0.000000    0.000000
  0.015000000  -42.155886   54.775661  -87.399323   52.020630    0.000000    0.000000    0.000000    0.000000
  0.015200000  -41.948432   55.102871  -88.087031   52.832035    0.000000    0.000000    0.000000    0.000000
  0.015400000  -41.912410   55.716370  -87.824469   50.398254    0.000000    0.000000    0.000000    0.000000
  0.015600000  -41.840481   56.865620  -87.954787   47.400871    0.000000    0.000000    0.000000    0.000000
  0.015800000  -41.778311   55.598343  -88.440844   51.067284    0.000000    0.000000    0.000000    0.000000
  0.016000000  -41.685619   56.644135  -88.673262   47.389442    0.000000    0.000000    0.000000    0.000000
  0.016200000  -41.459375   56.163681  -88.990552   48.669785    0.000000    0.000000    0.000000    0.000000
  0.016400000  -41.470956   57.045025  -88.773333   50.629181    0.000000    0.000000    0.000000    0.000000
  0.016600000  -41.444843   57.046291  -88.673411   46.595886    0.000000    0.000000    0.000000    0.000000
  0.016800000  -41.317555   58.150448  -89.170521   46.337067    0.000000    0.000000    0.000000    0.000000
  0.017000000  -41.137743   58.009964  -89.332166   45.940117    0.000000    0.000000    0.000000    0.000000
  0.017200000  -41.081391   57.863552  -89.161371   45.248356    0.000000    0.000000    0.000000    0.000000
  0.017400000  -41.344578   57.970936  -88.942977   47.797459    0.000000    0.000000    0.000000    0.000000
  0.017600000  -41.267032   58.016666  -90.260561   50.383324    0.000000    0.000000    0.000000    0.000000
  0.017800000  -41.369938   58.056950  -90.007287   43.440208    0.000000    0.000000    0.000000    0.000000
  0.018000000  -41.188683   58.537022  -89.938888   40.823135    0.000000    0.000000    0.000000    0.000000
  0.018200000  -41.127758   57.814110  -89.845021   46.383495    0.000000    0.000000    0.000000    0.000000
  0.018400000  -41.083093   57.737679  -89.882110   40.653446    0.000000    0.000000    0.000000    0.000000
  0.018600000  -41.133401   57.728390  -91.193616   40.965164    0.000000    0.000000    0.000000    0.000000
  0.018800000  -40.950915   58.087440  -90.262668   44.754116    0.000000    0.000000    0.000000    0.000000
  0.019000000  -41.075886   57.567429  -90.716376   37.923027    0.000000    0.000000    0.000000    0.000000
  0.019200000  -41.073313   56.895210  -90.796729   36.092113    0.000000    0.000000    0.000000    0.000000
  0.019400000  -40.903706   56.294060  -90.769011   40.710865    0.000000    0.000000    0.000000    0.000000
  0.019600000  -40.987457   55.947205  -91.241264   39.526226    0.000000    0.000000    0.000000    0.000000
  0.019800000  -40.915319   55.562756  -90.715804   33.695141    0.000000    0.000000    0.000000    0.000000
  0.020000000  -40.760611   55.344933  -91.304224   37.098503    0.000000    0.000000    0.000000    0.000000
  0.020200000  -40.820889   54.296013  -92.019034   36.589725    0.000000    0.000000    0.000000    0.000000
  0.020400000  -40.571230   54.966351  -90.973694   33.927174    0.000000    0.000000    0.000000    0.000000
  0.020600000  -40.574334   53.628326  -91.845647   30.912914    0.000000    0.000000    0.000000    0.000000
  0.020800000  -40.356995   53.868073  -92.061011   37.203339    0.000000    0.000000    0.000000    0.000000
  0.021000000  -40.211834   53.414474  -91.819510   35.938694    0.000000    0.000000    0.000000    0.000000
  0.021200000  -40.166475   52.091404  -91.842608   37.862545    0.000000    0.000000    0.000000    0.000000
  0.021400000  -40.087521   52.432507  -92.243805   28.041756    0.000000    0.000000    0.000000    0.000000
  0.021600000  -39.980943   52.308472  -92.680086   38.454205    0.000000    0.000000    0.000000    0.000000
  0.021800000  -39.875595   52.071770  -93.068684   34.589939    0.000000    0.000000    0.000000    0.000000
  0.022000000  -39.759462   51.615116  -92.906784   35.492260    0.000000    0.000000    0.000000    0.000000
  0.022200000  -39.685012   52.065937  -92.984459   29.803282    0.000000    0.000000    0.000000    0.000000
  0.022400000  -39.572112   52.531857  -92.723815   36.048409    0.000000    0.000000    0.000000    0.000000
  0.022600000  -39.446434   52.480671  -92.208554   34.285271    0.000000    0.000000    0.000000    0.000000
  0.022800000  -39.430520   52.773876  -92.443980   28.302057    0.000000    0.000000    0.000000    0.000000
  0.023000000  -39.289497   52.521980  -92.898351   31.083273    0.000000    0.000000    0.000000    0.000000
  0.023200000  -39.183408   53.149773  -93.738333   32.863453    0.000000    0.000000    0.000000    0.000000
  0.023400000  -39.018482   53.304031  -93.913543   28.033003    0.000000    0.000000    0.000000    0.000000
  0.023600000  -39.070396   52.794357  -92.615788   33.937538    0.000000    0.000000    0.000000    0.000000
  0.023800000  -38.975298   54.094868  -93.727885   23.095858    0.000000    0.000000    0.000000    0.000000
  0.024000000  -38.783615   52.829784  -93.092062   27.538273    0.000000    0.000000    0.000000    0.000000
  0.024200000  -38.796773   53.584518  -93.836855   24.311472    0.000000    0.000000    0.000000    0.000000
  0.024400000  -38.721575   54.746819  -95.358593   30.743809    0.000000    0.000000    0.000000    0.000000
  0.024600000  -38.655558   54.374287  -93.979035   25.622593    0.000000    0.000000    0.000000    0.000000
  0.024800000  -38.565436   54.012486  -93.690062   28.656366    0.000000    0.000000    0.000000    0.000000
  0.025000000  -38.549028   54.212151  -93.042636   17.790318    0.000000    0.000000    0.000000    0.000000
  0.025200000  -38.567923   54.443630  -94.525441   26.756737    0.000000    0.000000    0.000000    0.000000
  0.025400000  -38.436511   54.635914  -94.304756   26.205477    0.000000    0.000000    0.000000    0.000000
  0.025600000  -38.527501   55.025017  -94.381825   30.713917    0.000000    0.000000    0.000000    0.000000
  0.025800000  -38.616484   55.217297  -95.576958   23.853580    0.000000    0.000000    0.000000    0.000000
  0.026000000  -38.521927   55.527199  -94.078010   20.711330    0.000000    0.000000    0.000000    0.000000
  0.026200000  -38.578591   54.994335  -94.668440   16.935905    0.000000    0.000000    0.000000    0.000000
  0.026400000  -38.644596   55.129242  -95.578695   23.026388    0.000000    0.000000    0.000000    0.000000
  0.026600000  -38.373270   55.263298  -95.770265   24.506384    0.000000    0.000000    0.000000    0.000000
  0.026800000  -38.476088   55.215240  -94.629276   20.257620    0.000000    0.000000    0.000000    0.000000
  0.027000000  -38.517013   55.209652  -96.070656   24.056561    0.000000    0.000000    0.000000    0.000000
  0.027200000  -38.445682   54.385830  -95.589681   23.302912    0.000000    0.000000    0.000000    0.000000
  0.027400000  -38.395111   54.619587  -94.987344   21.643925    0.000000    0.000000    0.000000    0.000000
  0.027600000  -38.396895   53.995934  -95.253492   19.697397    0.000000    0.000000    0.000000    0.000000
  0.027800000  -38.504639   53.969643  -96.026752   21.197948    0.000000    0.000000    0.000000    0.000000
  0.028000000  -38.393582   53.252384  -96.463154   19.802700    0.000000    0.000000    0.000000    0.000000
  0.028200000  -38.356156   53.315285  -96.704656   13.632910    0.000000    0.000000    0.000000    0.000000
  0.028400000  -38.439286   52.919254  -95.492443   22.028635    0.000000    0.000000    0.000000    0.000000
  0.028600000  -38.207077   53.104755  -95.720012   14.520661    0.000000    0.000000    0.000000    0.000000
  0.028800000  -38.234060   52.943634  -95.903439   19.007488    0.000000    0.000000    0.000000    0.000000
  0.029000000  -38.170401   52.868462  -95.743262   20.384439    0.000000    0.000000    0.000000    0.000000
  0.029200000  -38.113811   52.302811  -96.200367   23.055140    0.000000    0.000000    0.000000    0.000000
  0.029400000  -37.969705   51.738003  -95.489388   11.211361    0.000000    0.000000    0.000000    0.000000
  0.029600000  -37.922965   51.899044  -96.764633   18.083336    0.000000    0.000000    0.000000    0.000000
  0.029800000  -37.947880   51.265575  -96.249864   18.764542    0.000000    0.000000    0.000000    0.000000
  0.030000000  -37.848686   51.710327  -96.847610   18.795647    0.000000    0.000000    0.000000    0.000000
  0.030200000  -37.830667   51.526443  -96.189737   17.193773    0.000000    0.000000    0.000000    0.000000
  0.030400000  -37.725080   51.288822  -96.919275   19.947613    0.000000    0.000000    0.000000    0.000000
  0.030600000  -37.717551   51.184727  -97.000072   15.654494    0.000000    0.000000    0.000000    0.000000
  0.030800000  -37.633328   51.391670  -98.395002   19.865772    0.000000    0.000000    0.000000    0.000000
  0.031000000  -37.543017   51.359478  -95.810820   14.506637    0.000000    0.000000    0.000000    0.000000
  0.031200000  -37.425479   51.614624  -95.868536    5.483512    0.000000    0.000000    0.000000    0.000000
  0.031400000  -37.582096   52.297314  -97.807465   16.441591    0.000000    0.000000    0.000000    0.000000
  0.031600000  -37.413959   50.811256  -98.126553   19.498655    0.000000    0.000000    0.000000    0.000000
  0.031800000  -37.501643   51.217339  -98.049178    9.821773    0.000000    0.000000    0.000000    0.000000
  0.032000000  -37.504374   51.159500  -97.579650    0.210775    0.000000    0.000000    0.000000    0.000000
  0.032200000  -37.404384   51.527546  -98.122140   10.573173    0.000000    0.000000    0.000000    0.000000
  0.032400000  -37.365877   51.311119  -96.736451   18.563179    0.000000    0.000000    0.000000    0.000000
  0.032600000  -37.312624   51.484268  -97.758686    7.709979    0.000000    0.000000    0.000000    0.000000
  0.032800000  -37.296558   51.412624  -99.556094   18.085295    0.000000    0.000000    0.000000    0.000000
  0.033000000  -37.256041   51.110931  -97.536911   11.000004    0.000000    0.000000    0.000000    0.000000
  0.033200000  -37.301253   51.547928 -100.633674   15.987793    0.000000    0.000000    0.000000    0.000000
  0.033400000  -37.189552   50.957123  -98.529708   17.745186    0.000000    0.000000    0.000000    0.000000
  0.033600000  -37.278558   51.511211 -100.099838   17.005676    0.000000    0.000000    0.000000    0.000000
  0.033800000  -37.161273   51.162884  -97.449604   11.913587    0.000000    0.000000    0.000000    0.000000
  0.034000000  -37.139273   51.380360  -97.445327    6.543399    0.000000    0.000000    0.000000    0.000000
  0.034200000  -37.187900   50.193859  -97.134556    7.611331    0.000000    0.000000    0.000000    0.000000
  0.034400000  -37.147182   50.142349 -100.276910   11.886703    0.000000    0.000000    0.000000    0.000000
  0.034600000  -37.184520   49.262936 -101.523922    7.789292    0.000000    0.000000    0.000000    0.000000
  0.034800000  -37.136734   50.366425  -97.421968   -0.750372    0.000000    0.000000    0.000000    0.000000
  0.035000000  -37.075743   49.134914  -98.570303   22.454416    0.000000    0.000000    0.000000    0.000000
  0.035200000  -37.033923   48.520626  -99.319451    7.013452    0.000000    0.000000    0.000000    0.000000
  0.035400000  -37.009843   47.974453  -99.412911    9.617516    0.000000    0.000000    0.000000    0.000000
  0.035600000  -37.053892   47.607021  -98.587601    7.942285    0.000000    0.000000    0.000000    0.000000
  0.035800000  -36.826958   47.518383  -99.315982    8.399183    0.000000    0.000000    0.000000    0.000000
  0.036000000  -36.837275   47.960678  -98.625923   17.948353    0.000000    0.000000    0.000000    0.000000
  0.036200000  -36.831162   47.659611  -98.319541   19.615805    0.000000    0.000000    0.000000    0.000000
  0.036400000  -36.749120   47.456799  -98.693200    1.957380    0.000000    0.000000    0.000000    0.000000
  0.036600000  -36.650484   46.915955  -98.389655    8.450153    0.000000    0.000000    0.000000    0.000000
  0.036800000  -36.640450   46.998550  -98.259519   -2.504815    0.000000    0.000000    0.000000    0.000000
  0.037000000  -36.559597   46.114891  -97.644446   14.344445    0.000000    0.000000    0.000000    0.000000
  0.037200000  -36.379408   46.248516  -99.571353    4.212224    0.000000    0.000000    0.000000    0.000000
  0.037400000  -36.470832   46.537617 -100.233987    1.544874    0.000000    0.000000    0.000000    0.000000
  0.037600000  -36.213978   46.402905 -100.460703   10.226161    0.000000    0.000000    0.000000    0.000000
  0.037800000  -36.237931   46.045448 -100.718706   18.474705    0.000000    0.000000    0.000000    0.000000
  0.038000000  -36.235856   46.017876 -102.391901    5.690140    0.000000    0.000000    0.000000    0.000000
  0.038200000  -36.258918   46.085117 -101.340962    4.198689    0.000000    0.000000    0.000000    0.000000
  0.038400000  -36.025074   46.745098  -97.479522   15.178361    0.000000    0.000000    0.000000    0.000000
  0.038600000  -36.030981   46.256641  -99.629145   -3.530691    0.000000    0.000000    0.000000    0.000000
  0.038800000  -36.034663   46.201210  -99.710282   12.989716    0.000000    0.000000    0.000000    0.000000
  0.039000000  -35.755102   45.942928  -98.528269    1.869413    0.000000    0.000000    0.000000    0.000000
  0.039200000  -35.999840   46.850266 -100.138690   12.064034    0.000000    0.000000    0.000000    0.000000
  0.039400000  -35.849645   46.900230 -101.940439  -15.324434    0.000000    0.000000    0.000000    0.000000
  0.039600000  -35.789281   46.866093 -100.504455   18.985516    0.000000    0.000000    0.000000    0.000000
  0.039800000  -35.763606   47.231232  -99.998482    9.319907    0.000000    0.000000    0.000000    0.000000
  0.040000000  -35.712181   47.266808 -102.364476   24.825945    0.000000    0.000000    0.000000    0.000000
  0.040200000  -35.658707   47.207882  -98.161290    0.626700    0.000000    0.000000    0.000000    0.000000
  0.040400000  -35.670618   48.081367  -99.739645   12.459596    0.000000    0.000000    0.000000    0.000000
  0.040600000  -35.668501   47.776588 -100.909965   12.905936    0.000000    0.000000    0.000000    0.000000
  0.040800000  -35.649876   47.882240 -100.584308   -0.449695    0.000000    0.000000    0.000000    0.000000
  0.041000000  -35.631180   48.409966 -101.654923   -1.189263    0.000000    0.000000    0.000000    0.000000
  0.041200000  -35.732563   47.512787 -102.706869   13.531205    0.000000    0.000000    0.000000    0.000000
  0.041400000  -35.641723   48.160793 -101.723585    7.835014    0.000000    0.000000    0.000000    0.000000
  0.041600000  -35.597001   47.383232 -103.315826   12.894713    0.000000    0.000000    0.000000    0.000000
  0.041800000  -35.724780   47.881191 -100.677627    8.352877    0.000000    0.000000    0.000000    0.000000
  0.042000000  -35.680275   47.254055 -100.851994   11.466750    0.000000    0.000000    0.000000    0.000000
  0.042200000  -35.687134   47.834896 -103.937969   16.437109    0.000000    0.000000    0.000000    0.000000
  0.042400000  -35.674782   47.358101  -99.906381    7.139077    0.000000    0.000000    0.000000    0.000000
  0.042600000  -35.644248   46.958920 -103.727183    1.755906    0.000000    0.000000    0.000000    0.000000
  0.042800000  -35.741208   47.270676 -100.449530    6.843513    0.000000    0.000000    0.000000    0.000000
