! Anritsu VNA Master:                     Model: MS2036C/10/77
! SN:                                  1601066
! /card0/usr/256.ew.sma.r200.11.s2p
! Existing Calibration Information:
! TYPE:                         Current Settings,       Active Cal Settings
! TIME:             	   12/19/2017 02:31:30 PM,    12/19/2017 02:22:10 PM
! INTERNAL TEMP:    	                   46.0 C,                    45.0 C
! # POINTS:         	                      501,                       501
! START FREQ:       	               10.000 MHz,                10.000 MHz
! STOP FREQ:        	              110.000 MHz,               110.000 MHz
! SOURCE POWER:     	                     High,                      High
! IFBW:             	                   100 Hz,                    100 Hz
! AVG FACTOR:       	                       1 ,                        1 
! REF PLANE 1:      	                     0 mm,                      0 mm
! REF PLANE 2:      	                     0 mm,                      0 mm
! CAL TYPE:         	                 Full S11,                  Full S11
! CAL METHOD:       	                     SOLT,                      SOLT
! CAL LINE TYPE:    	                     Coax,                      Coax
! DUT PORT 1:       	                N-Conn(F),                 N-Conn(F)
! DUT PORT 2:       	                K-Conn(F),                 K-Conn(F)
! CAL STATUS:       	        OK: Accuracy High,                        --
# GHZ S RI R 50.0
! FREQ.GHZ      S11RE         S11IM         S21RE         S21IM         S12RE         S12IM         S22RE         S22IM
  0.010000000  5.813200E-01 -1.102210E-01  1.586560E-05  5.676100E-05  1.000000E+00  0.000000E+00  1.000000E+00  0.000000E+00
  0.010200000  5.813700E-01 -1.121470E-01  1.528130E-05  5.841050E-05  1.000000E+00  0.000000E+00  1.000000E+00  0.000000E+00
  0.010400000  5.810950E-01 -1.147080E-01  1.042120E-05  5.359530E-05  1.000000E+00  0.000000E+00  1.000000E+00  0.000000E+00
  0.010600000  5.805030E-01 -1.166860E-01  1.558230E-05  5.436620E-05  1.000000E+00  0.000000E+00  1.000000E+00  0.000000E+00
  0.010800000  5.799780E-01 -1.191370E-01  1.467210E-05  5.504000E-05  1.000000E+00  0.000000E+00  1.000000E+00  0.000000E+00
  0.011000000  5.793500E-01 -1.210500E-01  1.183440E-05  5.222010E-05  1.000000E+00  0.000000E+00  1.000000E+00  0.000000E+00
  0.011200000  5.791520E-01 -1.235550E-01  1.504640E-05  5.422930E-05  1.000000E+00  0.000000E+00  1.000000E+00  0.000000E+00
  0.011400000  5.783550E-01 -1.257660E-01  1.343560E-05  5.633720E-05  1.000000E+00  0.000000E+00  1.000000E+00  0.000000E+00
  0.011600000  5.777520E-01 -1.282100E-01  1.328740E-05  5.528600E-05  1.000000E+00  0.000000E+00  1.000000E+00  0.000000E+00
  0.011800000  5.776600E-01 -1.304460E-01  1.777510E-05  5.196580E-05  1.000000E+00  0.000000E+00  1.000000E+00  0.000000E+00
  0.012000000  5.770870E-01 -1.325740E-01  1.639670E-05  5.058400E-05  1.000000E+00  0.000000E+00  1.000000E+00  0.000000E+00
  0.012200000  5.765930E-01 -1.349030E-01  1.891440E-05  5.348920E-05  1.000000E+00  0.000000E+00  1.000000E+00  0.000000E+00
  0.012400000  5.760170E-01 -1.372900E-01  2.068160E-05  5.601130E-05  1.000000E+00  0.000000E+00  1.000000E+00  0.000000E+00
  0.012600000  5.754350E-01 -1.396250E-01  2.000610E-05  5.117430E-05  1.000000E+00  0.000000E+00  1.000000E+00  0.000000E+00
  0.012800000  5.748440E-01 -1.416050E-01  1.940120E-05  5.035050E-05  1.000000E+00  0.000000E+00  1.000000E+00  0.000000E+00
  0.013000000  5.740540E-01 -1.437390E-01  2.531300E-05  5.001680E-05  1.000000E+00  0.000000E+00  1.000000E+00  0.000000E+00
  0.013200000  5.736280E-01 -1.458900E-01  1.992280E-05  5.009090E-05  1.000000E+00  0.000000E+00  1.000000E+00  0.000000E+00
  0.013400000  5.731540E-01 -1.481870E-01  2.480310E-05  4.728400E-05  1.000000E+00  0.000000E+00  1.000000E+00  0.000000E+00
  0.013600000  5.728620E-01 -1.504490E-01  2.385970E-05  4.457500E-05  1.000000E+00  0.000000E+00  1.000000E+00  0.000000E+00
  0.013800000  5.724410E-01 -1.525130E-01  2.662710E-05  4.326440E-05  1.000000E+00  0.000000E+00  1.000000E+00  0.000000E+00
  0.014000000  5.718050E-01 -1.547260E-01  2.812470E-05  4.421780E-05  1.000000E+00  0.000000E+00  1.000000E+00  0.000000E+00
  0.014200000  5.710960E-01 -1.570080E-01  2.875540E-05  4.000390E-05  1.000000E+00  0.000000E+00  1.000000E+00  0.000000E+00
  0.014400000  5.706490E-01 -1.590220E-01  2.918080E-05  3.705430E-05  1.000000E+00  0.000000E+00  1.000000E+00  0.000000E+00
  0.014600000  5.698760E-01 -1.611100E-01  2.996830E-05  3.495550E-05  1.000000E+00  0.000000E+00  1.000000E+00  0.000000E+00
  0.014800000  5.692690E-01 -1.633280E-01  2.687160E-05  3.513110E-05  1.000000E+00  0.000000E+00  1.000000E+00  0.000000E+00
  0.015000000  5.685590E-01 -1.655110E-01  2.751650E-05  3.458800E-05  1.000000E+00  0.000000E+00  1.000000E+00  0.000000E+00
  0.015200000  5.678350E-01 -1.675210E-01  2.772590E-05  3.131650E-05  1.000000E+00  0.000000E+00  1.000000E+00  0.000000E+00
  0.015400000  5.670450E-01 -1.697460E-01  2.798520E-05  2.717220E-05  1.000000E+00  0.000000E+00  1.000000E+00  0.000000E+00
  0.015600000  5.663870E-01 -1.718690E-01  2.844310E-05  2.580810E-05  1.000000E+00  0.000000E+00  1.000000E+00  0.000000E+00
  0.015800000  5.657980E-01 -1.742220E-01  2.779050E-05  2.596170E-05  1.000000E+00  0.000000E+00  1.000000E+00  0.000000E+00
  0.016000000  5.648890E-01 -1.761000E-01  2.435500E-05  2.506000E-05  1.000000E+00  0.000000E+00  1.000000E+00  0.000000E+00
  0.016200000  5.643020E-01 -1.781960E-01  2.451800E-05  2.458500E-05  1.000000E+00  0.000000E+00  1.000000E+00  0.000000E+00
  0.016400000  5.634320E-01 -1.801600E-01  2.434370E-05  2.550140E-05  1.000000E+00  0.000000E+00  1.000000E+00  0.000000E+00
  0.016600000  5.626590E-01 -1.824940E-01  2.372260E-05  2.463610E-05  1.000000E+00  0.000000E+00  1.000000E+00  0.000000E+00
  0.016800000  5.619780E-01 -1.843880E-01  2.077600E-05  2.183590E-05  1.000000E+00  0.000000E+00  1.000000E+00  0.000000E+00
  0.017000000  5.610780E-01 -1.867280E-01  2.523100E-05  2.358290E-05  1.000000E+00  0.000000E+00  1.000000E+00  0.000000E+00
  0.017200000  5.605720E-01 -1.889130E-01  2.380240E-05  2.081360E-05  1.000000E+00  0.000000E+00  1.000000E+00  0.000000E+00
  0.017400000  5.596790E-01 -1.911450E-01  2.189130E-05  2.326080E-05  1.000000E+00  0.000000E+00  1.000000E+00  0.000000E+00
  0.017600000  5.589910E-01 -1.935950E-01  2.149890E-05  2.110850E-05  1.000000E+00  0.000000E+00  1.000000E+00  0.000000E+00
  0.017800000  5.581740E-01 -1.955680E-01  1.760090E-05  2.312390E-05  1.000000E+00  0.000000E+00  1.000000E+00  0.000000E+00
  0.018000000  5.574270E-01 -1.975990E-01  1.889010E-05  2.127780E-05  1.000000E+00  0.000000E+00  1.000000E+00  0.000000E+00
  0.018200000  5.566100E-01 -1.995850E-01  1.987910E-05  2.232520E-05  1.000000E+00  0.000000E+00  1.000000E+00  0.000000E+00
  0.018400000  5.555480E-01 -2.016730E-01  1.960450E-05  2.169540E-05  1.000000E+00  0.000000E+00  1.000000E+00  0.000000E+00
  0.018600000  5.545190E-01 -2.038590E-01  1.968220E-05  2.132280E-05  1.000000E+00  0.000000E+00  1.000000E+00  0.000000E+00
  0.018800000  5.538270E-01 -2.060210E-01  2.182970E-05  2.303580E-05  1.000000E+00  0.000000E+00  1.000000E+00  0.000000E+00
  0.019000000  5.529170E-01 -2.081640E-01  2.153610E-05  2.090650E-05  1.000000E+00  0.000000E+00  1.000000E+00  0.000000E+00
  0.019200000  5.522320E-01 -2.100540E-01  2.113850E-05  2.304620E-05  1.000000E+00  0.000000E+00  1.000000E+00  0.000000E+00
  0.019400000  5.514780E-01 -2.121860E-01  2.186290E-05  1.914200E-05  1.000000E+00  0.000000E+00  1.000000E+00  0.000000E+00
  0.019600000  5.507260E-01 -2.142980E-01  2.271760E-05  1.876280E-05  1.000000E+00  0.000000E+00  1.000000E+00  0.000000E+00
  0.019800000  5.498700E-01 -2.164410E-01  2.053410E-05  2.046160E-05  1.000000E+00  0.000000E+00  1.000000E+00  0.000000E+00
  0.020000000  5.491520E-01 -2.183110E-01  2.078760E-05  1.694510E-05  1.000000E+00  0.000000E+00  1.000000E+00  0.000000E+00
  0.020200000  5.483360E-01 -2.205610E-01  2.384280E-05  1.843560E-05  1.000000E+00  0.000000E+00  1.000000E+00  0.000000E+00
  0.020400000  5.476120E-01 -2.225830E-01  2.432100E-05  1.920740E-05  1.000000E+00  0.000000E+00  1.000000E+00  0.000000E+00
  0.020600000  5.469540E-01 -2.248270E-01  2.192400E-05  1.550280E-05  1.000000E+00  0.000000E+00  1.000000E+00  0.000000E+00
  0.020800000  5.460270E-01 -2.267640E-01  2.155010E-05  1.697010E-05  1.000000E+00  0.000000E+00  1.000000E+00  0.000000E+00
  0.021000000  5.452500E-01 -2.290070E-01  2.207490E-05  1.543270E-05  1.000000E+00  0.000000E+00  1.000000E+00  0.000000E+00
  0.021200000  5.440230E-01 -2.310530E-01  2.213810E-05  1.408650E-05  1.000000E+00  0.000000E+00  1.000000E+00  0.000000E+00
  0.021400000  5.431390E-01 -2.331920E-01  2.125250E-05  1.405680E-05  1.000000E+00  0.000000E+00  1.000000E+00  0.000000E+00
  0.021600000  5.423560E-01 -2.351880E-01  2.496080E-05  1.623020E-05  1.000000E+00  0.000000E+00  1.000000E+00  0.000000E+00
  0.021800000  5.414210E-01 -2.371800E-01  2.271420E-05  1.483100E-05  1.000000E+00  0.000000E+00  1.000000E+00  0.000000E+00
  0.022000000  5.402920E-01 -2.390690E-01  2.069900E-05  1.277420E-05  1.000000E+00  0.000000E+00  1.000000E+00  0.000000E+00
  0.022200000  5.395680E-01 -2.413000E-01  2.318420E-05  1.114790E-05  1.000000E+00  0.000000E+00  1.000000E+00  0.000000E+00
  0.022400000  5.385410E-01 -2.432460E-01  2.007930E-05  1.331520E-05  1.000000E+00  0.000000E+00  1.000000E+00  0.000000E+00
  0.022600000  5.376920E-01 -2.450970E-01  1.817520E-05  6.404020E-06  1.000000E+00  0.000000E+00  1.000000E+00  0.000000E+00
  0.022800000  5.362010E-01 -2.468240E-01  1.799530E-05  1.002710E-05  1.000000E+00  0.000000E+00  1.000000E+00  0.000000E+00
  0.023000000  5.355030E-01 -2.490000E-01  1.895430E-05  9.947450E-06  1.000000E+00  0.000000E+00  1.000000E+00  0.000000E+00
  0.023200000  5.343100E-01 -2.507500E-01  1.792940E-05  1.234630E-05  1.000000E+00  0.000000E+00  1.000000E+00  0.000000E+00
  0.023400000  5.336650E-01 -2.528580E-01  1.865830E-05  1.035100E-05  1.000000E+00  0.000000E+00  1.000000E+00  0.000000E+00
  0.023600000  5.324270E-01 -2.551440E-01  1.923020E-05  1.011140E-05  1.000000E+00  0.000000E+00  1.000000E+00  0.000000E+00
  0.023800000  5.311650E-01 -2.571550E-01  1.748860E-05  8.443150E-06  1.000000E+00  0.000000E+00  1.000000E+00  0.000000E+00
  0.024000000  5.305610E-01 -2.593590E-01  1.908370E-05  9.558360E-06  1.000000E+00  0.000000E+00  1.000000E+00  0.000000E+00
  0.024200000  5.297350E-01 -2.617150E-01  1.820490E-05  7.148620E-06  1.000000E+00  0.000000E+00  1.000000E+00  0.000000E+00
  0.024400000  5.286200E-01 -2.637910E-01  1.856720E-05  8.526960E-06  1.000000E+00  0.000000E+00  1.000000E+00  0.000000E+00
  0.024600000  5.273470E-01 -2.657800E-01  1.676470E-05  1.154540E-05  1.000000E+00  0.000000E+00  1.000000E+00  0.000000E+00
  0.024800000  5.265370E-01 -2.678640E-01  1.614570E-05  1.002010E-05  1.000000E+00  0.000000E+00  1.000000E+00  0.000000E+00
  0.025000000  5.254360E-01 -2.697090E-01  1.762020E-05  8.833610E-06  1.000000E+00  0.000000E+00  1.000000E+00  0.000000E+00
  0.025200000  5.243490E-01 -2.717190E-01  1.521950E-05  1.051330E-05  1.000000E+00  0.000000E+00  1.000000E+00  0.000000E+00
  0.025400000  5.234870E-01 -2.732280E-01  1.665170E-05  9.196150E-06  1.000000E+00  0.000000E+00  1.000000E+00  0.000000E+00
  0.025600000  5.220930E-01 -2.752460E-01  1.691960E-05  6.673260E-06  1.000000E+00  0.000000E+00  1.000000E+00  0.000000E+00
  0.025800000  5.211880E-01 -2.769410E-01  1.939140E-05  8.371700E-06  1.000000E+00  0.000000E+00  1.000000E+00  0.000000E+00
  0.026000000  5.200360E-01 -2.786670E-01  1.658930E-05  8.579130E-06  1.000000E+00  0.000000E+00  1.000000E+00  0.000000E+00
  0.026200000  5.187250E-01 -2.807490E-01  1.635350E-05  6.771500E-06  1.000000E+00  0.000000E+00  1.000000E+00  0.000000E+00
  0.026400000  5.176460E-01 -2.825780E-01  1.624370E-05  7.133250E-06  1.000000E+00  0.000000E+00  1.000000E+00  0.000000E+00
  0.026600000  5.163210E-01 -2.843800E-01  1.725840E-05  7.295150E-06  1.000000E+00  0.000000E+00  1.000000E+00  0.000000E+00
  0.026800000  5.152650E-01 -2.865300E-01  1.748250E-05  7.306650E-06  1.000000E+00  0.000000E+00  1.000000E+00  0.000000E+00
  0.027000000  5.139020E-01 -2.886970E-01  1.554590E-05  8.031460E-06  1.000000E+00  0.000000E+00  1.000000E+00  0.000000E+00
  0.027200000  5.128160E-01 -2.907870E-01  1.711040E-05  5.817690E-06  1.000000E+00  0.000000E+00  1.000000E+00  0.000000E+00
  0.027400000  5.114460E-01 -2.929780E-01  1.439860E-05  6.376880E-06  1.000000E+00  0.000000E+00  1.000000E+00  0.000000E+00
  0.027600000  5.102060E-01 -2.948170E-01  1.719890E-05  5.060700E-06  1.000000E+00  0.000000E+00  1.000000E+00  0.000000E+00
  0.027800000  5.088910E-01 -2.970770E-01  1.612000E-05  5.066250E-06  1.000000E+00  0.000000E+00  1.000000E+00  0.000000E+00
  0.028000000  5.074260E-01 -2.992060E-01  1.670080E-05  6.024700E-06  1.000000E+00  0.000000E+00  1.000000E+00  0.000000E+00
  0.028200000  5.060210E-01 -3.013490E-01  1.606060E-05  3.863800E-06  1.000000E+00  0.000000E+00  1.000000E+00  0.000000E+00
  0.028400000  5.049600E-01 -3.037780E-01  1.456380E-05  3.424700E-06  1.000000E+00  0.000000E+00  1.000000E+00  0.000000E+00
  0.028600000  5.040290E-01 -3.057930E-01  1.509390E-05  4.368610E-06  1.000000E+00  0.000000E+00  1.000000E+00  0.000000E+00
  0.028800000  5.030380E-01 -3.075570E-01  1.521130E-05  5.013390E-06  1.000000E+00  0.000000E+00  1.000000E+00  0.000000E+00
  0.029000000  5.022060E-01 -3.093740E-01  1.499050E-05  2.916240E-06  1.000000E+00  0.000000E+00  1.000000E+00  0.000000E+00
  0.029200000  5.011880E-01 -3.110550E-01  1.584250E-05  5.074630E-06  1.000000E+00  0.000000E+00  1.000000E+00  0.000000E+00
  0.029400000  5.001630E-01 -3.126120E-01  1.483320E-05  3.275760E-06  1.000000E+00  0.000000E+00  1.000000E+00  0.000000E+00
  0.029600000  4.991010E-01 -3.140650E-01  1.315250E-05  4.823660E-06  1.000000E+00  0.000000E+00  1.000000E+00  0.000000E+00
  0.029800000  4.975910E-01 -3.158230E-01  1.269950E-05  4.926480E-06  1.000000E+00  0.000000E+00  1.000000E+00  0.000000E+00
  0.030000000  4.962930E-01 -3.175760E-01  1.300310E-05  2.891410E-06  1.000000E+00  0.000000E+00  1.000000E+00  0.000000E+00
  0.030200000  4.944230E-01 -3.193370E-01  1.304330E-05  5.403280E-06  1.000000E+00  0.000000E+00  1.000000E+00  0.000000E+00
  0.030400000  4.930930E-01 -3.211920E-01  1.201150E-05  4.293610E-06  1.000000E+00  0.000000E+00  1.000000E+00  0.000000E+00
  0.030600000  4.916000E-01 -3.234310E-01  1.204280E-05  4.238580E-06  1.000000E+00  0.000000E+00  1.000000E+00  0.000000E+00
  0.030800000  4.902400E-01 -3.255910E-01  1.077900E-05  4.492640E-06  1.000000E+00  0.000000E+00  1.000000E+00  0.000000E+00
  0.031000000  4.887330E-01 -3.278920E-01  1.168200E-05  3.597040E-06  1.000000E+00  0.000000E+00  1.000000E+00  0.000000E+00
  0.031200000  4.881220E-01 -3.299870E-01  1.198810E-05  3.312910E-06  1.000000E+00  0.000000E+00  1.000000E+00  0.000000E+00
  0.031400000  4.861890E-01 -3.320980E-01  1.345420E-05  3.451680E-06  1.000000E+00  0.000000E+00  1.000000E+00  0.000000E+00
  0.031600000  4.852570E-01 -3.340340E-01  1.279840E-05  4.434990E-06  1.000000E+00  0.000000E+00  1.000000E+00  0.000000E+00
  0.031800000  4.840870E-01 -3.361760E-01  1.167210E-05  3.088860E-06  1.000000E+00  0.000000E+00  1.000000E+00  0.000000E+00
  0.032000000  4.831890E-01 -3.382630E-01  1.547900E-05  1.327520E-06  1.000000E+00  0.000000E+00  1.000000E+00  0.000000E+00
  0.032200000  4.823030E-01 -3.400150E-01  1.277420E-05  2.805970E-06  1.000000E+00  0.000000E+00  1.000000E+00  0.000000E+00
  0.032400000  4.813180E-01 -3.421450E-01  1.155460E-05  1.479430E-06  1.000000E+00  0.000000E+00  1.000000E+00  0.000000E+00
  0.032600000  4.806950E-01 -3.438370E-01  1.479840E-05  9.344940E-07  1.000000E+00  0.000000E+00  1.000000E+00  0.000000E+00
  0.032800000  4.797830E-01 -3.456140E-01  1.154710E-05  4.023930E-06  1.000000E+00  0.000000E+00  1.000000E+00  0.000000E+00
  0.033000000  4.786470E-01 -3.472640E-01  1.255040E-05  4.057290E-06  1.000000E+00  0.000000E+00  1.000000E+00  0.000000E+00
  0.033200000  4.774120E-01 -3.487300E-01  1.260720E-05  3.952450E-06  1.000000E+00  0.000000E+00  1.000000E+00  0.000000E+00
  0.033400000  4.761730E-01 -3.502960E-01  1.294750E-05  2.627560E-06  1.000000E+00  0.000000E+00  1.000000E+00  0.000000E+00
  0.033600000  4.747930E-01 -3.521230E-01  1.130490E-05  3.822820E-06  1.000000E+00  0.000000E+00  1.000000E+00  0.000000E+00
  0.033800000  4.732810E-01 -3.534060E-01  1.067750E-05  4.817180E-06  1.000000E+00  0.000000E+00  1.000000E+00  0.000000E+00
  0.034000000  4.718040E-01 -3.551990E-01  1.088940E-05  2.322690E-06  1.000000E+00  0.000000E+00  1.000000E+00  0.000000E+00
  0.034200000  4.704980E-01 -3.569590E-01  1.228600E-05  4.546690E-06  1.000000E+00  0.000000E+00  1.000000E+00  0.000000E+00
  0.034400000  4.686030E-01 -3.585100E-01  1.029490E-05  2.447770E-06  1.000000E+00  0.000000E+00  1.000000E+00  0.000000E+00
  0.034600000  4.671040E-01 -3.604330E-01  1.331030E-05 -2.672210E-07  1.000000E+00  0.000000E+00  1.000000E+00  0.000000E+00
  0.034800000  4.653640E-01 -3.620230E-01  9.801740E-06  1.489220E-06  1.000000E+00  0.000000E+00  1.000000E+00  0.000000E+00
  0.035000000  4.633620E-01 -3.638030E-01  1.097240E-05  2.721880E-08  1.000000E+00  0.000000E+00  1.000000E+00  0.000000E+00
  0.035200000  4.618950E-01 -3.654820E-01  1.313150E-05  9.541239E-07  1.000000E+00  0.000000E+00  1.000000E+00  0.000000E+00
  0.035400000  4.603210E-01 -3.672660E-01  9.599480E-06 -5.526100E-07  1.000000E+00  0.000000E+00  1.000000E+00  0.000000E+00
  0.035600000  4.588480E-01 -3.691010E-01  1.158520E-05  3.388400E-06  1.000000E+00  0.000000E+00  1.000000E+00  0.000000E+00
  0.035800000  4.574850E-01 -3.706640E-01  1.198810E-05  2.788070E-06  1.000000E+00  0.000000E+00  1.000000E+00  0.000000E+00
  0.036000000  4.559730E-01 -3.724280E-01  8.918870E-06 -2.406950E-07  1.000000E+00  0.000000E+00  1.000000E+00  0.000000E+00
  0.036200000  4.544400E-01 -3.745620E-01  1.167100E-05  1.905860E-06  1.000000E+00  0.000000E+00  1.000000E+00  0.000000E+00
  0.036400000  4.530770E-01 -3.764750E-01  1.076410E-05  1.849520E-06  1.000000E+00  0.000000E+00  1.000000E+00  0.000000E+00
  0.036600000  4.519710E-01 -3.785290E-01  1.036610E-05 -1.389480E-06  1.000000E+00  0.000000E+00  1.000000E+00  0.000000E+00
  0.036800000  4.507970E-01 -3.802260E-01  1.032910E-05  2.285810E-07  1.000000E+00  0.000000E+00  1.000000E+00  0.000000E+00
  0.037000000  4.497020E-01 -3.817780E-01  8.949810E-06  1.633340E-07  1.000000E+00  0.000000E+00  1.000000E+00  0.000000E+00
  0.037200000  4.486640E-01 -3.830180E-01  1.208170E-05  1.217430E-06  1.000000E+00  0.000000E+00  1.000000E+00  0.000000E+00
  0.037400000  4.473110E-01 -3.845800E-01  1.189870E-05  3.779560E-06  1.000000E+00  0.000000E+00  1.000000E+00  0.000000E+00
  0.037600000  4.457140E-01 -3.857690E-01  1.039230E-05  1.989410E-06  1.000000E+00  0.000000E+00  1.000000E+00  0.000000E+00
  0.037800000  4.437420E-01 -3.870770E-01  9.597990E-06  2.273820E-06  1.000000E+00  0.000000E+00  1.000000E+00  0.000000E+00
  0.038000000  4.418620E-01 -3.885670E-01  9.971380E-06  5.458150E-07  1.000000E+00  0.000000E+00  1.000000E+00  0.000000E+00
  0.038200000  4.398340E-01 -3.900530E-01  1.014190E-05 -7.232590E-07  1.000000E+00  0.000000E+00  1.000000E+00  0.000000E+00
  0.038400000  4.379330E-01 -3.917070E-01  1.192740E-05  1.747940E-06  1.000000E+00  0.000000E+00  1.000000E+00  0.000000E+00
  0.038600000  4.361920E-01 -3.933750E-01  9.951480E-06  2.355210E-06  1.000000E+00  0.000000E+00  1.000000E+00  0.000000E+00
