! Anritsu VNA Master:                     Model: MS2036C/10/77
! SN:                                  1601066
! /card0/usr/256.ew.sma.r20.21.s2p
! Existing Calibration Information:
! TYPE:                         Current Settings,       Active Cal Settings
! TIME:             	   12/19/2017 02:41:47 PM,    12/19/2017 02:22:10 PM
! INTERNAL TEMP:    	                   46.3 C,                    45.0 C
! # POINTS:         	                      501,                       501
! START FREQ:       	               10.000 MHz,                10.000 MHz
! STOP FREQ:        	              110.000 MHz,               110.000 MHz
! SOURCE POWER:     	                     High,                      High
! IFBW:             	                   100 Hz,                    100 Hz
! AVG FACTOR:       	                       1 ,                        1 
! REF PLANE 1:      	                     0 mm,                      0 mm
! REF PLANE 2:      	                     0 mm,                      0 mm
! CAL TYPE:         	                 Full S11,                  Full S11
! CAL METHOD:       	                     SOLT,                      SOLT
! CAL LINE TYPE:    	                     Coax,                      Coax
! DUT PORT 1:       	                N-Conn(F),                 N-Conn(F)
! DUT PORT 2:       	                K-Conn(F),                 K-Conn(F)
! CAL STATUS:       	        OK: Accuracy High,                        --
# GHZ S DB R 50.0
! FREQ.GHZ       S11DB        S11A       S21DB        S21A       S12DB        S12A       S22DB        S22A
  0.010000000   -7.223344  167.784210  -82.289360   77.195885    0.000000    0.000000    0.000000    0.000000
  0.010200000   -7.210719  167.607895  -82.690620   77.100075    0.000000    0.000000    0.000000    0.000000
  0.010400000   -7.210272  167.338318  -82.817503   74.729935    0.000000    0.000000    0.000000    0.000000
  0.010600000   -7.210918  167.127579  -83.055308   73.354958    0.000000    0.000000    0.000000    0.000000
  0.010800000   -7.212686  166.900314  -83.392472   73.853134    0.000000    0.000000    0.000000    0.000000
  0.011000000   -7.216983  166.635422  -83.528603   69.546959    0.000000    0.000000    0.000000    0.000000
  0.011200000   -7.210871  166.419189  -83.738224   66.269073    0.000000    0.000000    0.000000    0.000000
  0.011400000   -7.213064  166.171722  -84.297697   63.999916    0.000000    0.000000    0.000000    0.000000
  0.011600000   -7.226147  165.967743  -84.080630   60.988342    0.000000    0.000000    0.000000    0.000000
  0.011800000   -7.220520  165.737549  -84.959652   60.337952    0.000000    0.000000    0.000000    0.000000
  0.012000000   -7.221361  165.472321  -85.221258   62.996418    0.000000    0.000000    0.000000    0.000000
  0.012200000   -7.226661  165.227692  -85.535195   62.372128    0.000000    0.000000    0.000000    0.000000
  0.012400000   -7.226788  164.992599  -85.649906   62.501209    0.000000    0.000000    0.000000    0.000000
  0.012600000   -7.230878  164.719254  -85.973315   58.471172    0.000000    0.000000    0.000000    0.000000
  0.012800000   -7.232122  164.492493  -86.507775   60.059593    0.000000    0.000000    0.000000    0.000000
  0.013000000   -7.236007  164.272858  -86.264639   58.828178    0.000000    0.000000    0.000000    0.000000
  0.013200000   -7.237638  164.018341  -87.311078   56.300125    0.000000    0.000000    0.000000    0.000000
  0.013400000   -7.239800  163.762680  -87.149396   60.532627    0.000000    0.000000    0.000000    0.000000
  0.013600000   -7.241560  163.532928  -87.602055   53.895206    0.000000    0.000000    0.000000    0.000000
  0.013800000   -7.241483  163.282745  -87.664005   56.198837    0.000000    0.000000    0.000000    0.000000
  0.014000000   -7.242356  163.027313  -87.812259   57.727592    0.000000    0.000000    0.000000    0.000000
  0.014200000   -7.241721  162.785736  -87.389751   57.340729    0.000000    0.000000    0.000000    0.000000
  0.014400000   -7.242669  162.547226  -87.443616   57.414326    0.000000    0.000000    0.000000    0.000000
  0.014600000   -7.242333  162.280060  -87.811712   58.870220    0.000000    0.000000    0.000000    0.000000
  0.014800000   -7.248371  162.021042  -87.741628   59.477020    0.000000    0.000000    0.000000    0.000000
  0.015000000   -7.251836  161.782898  -87.809558   56.578136    0.000000    0.000000    0.000000    0.000000
  0.015200000   -7.252427  161.515732  -87.643268   55.592327    0.000000    0.000000    0.000000    0.000000
  0.015400000   -7.251572  161.266846  -88.612370   55.347019    0.000000    0.000000    0.000000    0.000000
  0.015600000   -7.251953  161.018463  -88.197686   59.037861    0.000000    0.000000    0.000000    0.000000
  0.015800000   -7.251431  160.786148  -87.598108   56.635143    0.000000    0.000000    0.000000    0.000000
  0.016000000   -7.249826  160.535492  -88.136531   52.463062    0.000000    0.000000    0.000000    0.000000
  0.016200000   -7.252838  160.273621  -88.616229   54.933594    0.000000    0.000000    0.000000    0.000000
  0.016400000   -7.251070  160.032455  -88.370824   51.464443    0.000000    0.000000    0.000000    0.000000
  0.016600000   -7.251651  159.814850  -88.364400   50.642891    0.000000    0.000000    0.000000    0.000000
  0.016800000   -7.249809  159.568619  -88.714419   49.598175    0.000000    0.000000    0.000000    0.000000
  0.017000000   -7.250129  159.316711  -88.707639   44.173367    0.000000    0.000000    0.000000    0.000000
  0.017200000   -7.249805  159.078018  -88.914157   43.910473    0.000000    0.000000    0.000000    0.000000
  0.017400000   -7.252418  158.875916  -88.868168   46.909439    0.000000    0.000000    0.000000    0.000000
  0.017600000   -7.248978  158.618698  -89.661627   43.101044    0.000000    0.000000    0.000000    0.000000
  0.017800000   -7.251940  158.408112  -89.447853   39.444889    0.000000    0.000000    0.000000    0.000000
  0.018000000   -7.249340  158.164124  -88.705694   41.925308    0.000000    0.000000    0.000000    0.000000
  0.018200000   -7.255237  157.938446  -90.052618   39.585155    0.000000    0.000000    0.000000    0.000000
  0.018400000   -7.255259  157.679321  -90.082205   40.710331    0.000000    0.000000    0.000000    0.000000
  0.018600000   -7.258455  157.458221  -90.317100   37.101685    0.000000    0.000000    0.000000    0.000000
  0.018800000   -7.257388  157.227341  -90.352601   39.936729    0.000000    0.000000    0.000000    0.000000
  0.019000000   -7.260257  156.994583  -90.161712   34.206078    0.000000    0.000000    0.000000    0.000000
  0.019200000   -7.264042  156.781967  -90.460438   44.426796    0.000000    0.000000    0.000000    0.000000
  0.019400000   -7.264855  156.531067  -91.340183   33.996735    0.000000    0.000000    0.000000    0.000000
  0.019600000   -7.267969  156.326126  -91.150663   42.751915    0.000000    0.000000    0.000000    0.000000
  0.019800000   -7.267889  156.090134  -91.029163   44.839901    0.000000    0.000000    0.000000    0.000000
  0.020000000   -7.267761  155.860809  -91.225934   35.971409    0.000000    0.000000    0.000000    0.000000
  0.020200000   -7.271075  155.610184  -91.986294   32.279736    0.000000    0.000000    0.000000    0.000000
  0.020400000   -7.269629  155.346344  -91.158181   38.304180    0.000000    0.000000    0.000000    0.000000
  0.020600000   -7.265681  155.095810  -91.496399   37.692650    0.000000    0.000000    0.000000    0.000000
  0.020800000   -7.262922  154.848038  -92.378543   34.077106    0.000000    0.000000    0.000000    0.000000
  0.021000000   -7.266567  154.608719  -91.905026   37.628899    0.000000    0.000000    0.000000    0.000000
  0.021200000   -7.269403  154.340591  -92.759409   34.306911    0.000000    0.000000    0.000000    0.000000
  0.021400000   -7.265329  154.104584  -91.724622   39.808460    0.000000    0.000000    0.000000    0.000000
  0.021600000   -7.268043  153.867126  -92.377364   39.697659    0.000000    0.000000    0.000000    0.000000
  0.021800000   -7.270797  153.629059  -92.126773   33.066292    0.000000    0.000000    0.000000    0.000000
  0.022000000   -7.276787  153.412094  -91.525969   32.526669    0.000000    0.000000    0.000000    0.000000
  0.022200000   -7.273762  153.160385  -92.649548   34.480518    0.000000    0.000000    0.000000    0.000000
  0.022400000   -7.275671  152.904556  -92.324227   32.220951    0.000000    0.000000    0.000000    0.000000
  0.022600000   -7.274786  152.670853  -91.548706   35.306557    0.000000    0.000000    0.000000    0.000000
  0.022800000   -7.276194  152.431946  -92.887739   34.565918    0.000000    0.000000    0.000000    0.000000
  0.023000000   -7.277757  152.204453  -94.323310   31.181429    0.000000    0.000000    0.000000    0.000000
  0.023200000   -7.277882  151.933441  -92.699817   36.255005    0.000000    0.000000    0.000000    0.000000
  0.023400000   -7.272639  151.662186  -92.917158   33.191853    0.000000    0.000000    0.000000    0.000000
  0.023600000   -7.272179  151.448730  -92.830945   25.299873    0.000000    0.000000    0.000000    0.000000
  0.023800000   -7.270004  151.205444  -92.993769   26.135208    0.000000    0.000000    0.000000    0.000000
  0.024000000   -7.269231  150.960068  -93.451746   28.665543    0.000000    0.000000    0.000000    0.000000
  0.024200000   -7.269169  150.713623  -93.324171   18.939360    0.000000    0.000000    0.000000    0.000000
  0.024400000   -7.269255  150.415253  -94.295342   27.462183    0.000000    0.000000    0.000000    0.000000
  0.024600000   -7.265131  150.163940  -94.579338   31.288548    0.000000    0.000000    0.000000    0.000000
  0.024800000   -7.266022  149.914627  -93.506633   24.334291    0.000000    0.000000    0.000000    0.000000
  0.025000000   -7.265283  149.689301  -94.239693   24.350325    0.000000    0.000000    0.000000    0.000000
  0.025200000   -7.261793  149.493088  -94.077876   24.337095    0.000000    0.000000    0.000000    0.000000
  0.025400000   -7.263488  149.258942  -94.933133   21.797165    0.000000    0.000000    0.000000    0.000000
  0.025600000   -7.266466  149.042191  -94.569527   26.884470    0.000000    0.000000    0.000000    0.000000
  0.025800000   -7.265536  148.842560  -94.406930   21.859276    0.000000    0.000000    0.000000    0.000000
  0.026000000   -7.264372  148.625046  -94.126822   19.615332    0.000000    0.000000    0.000000    0.000000
  0.026200000   -7.266160  148.393417  -94.937399   20.889507    0.000000    0.000000    0.000000    0.000000
  0.026400000   -7.272092  148.165314  -95.843357   23.036398    0.000000    0.000000    0.000000    0.000000
  0.026600000   -7.272738  147.913345  -95.174627   24.336000    0.000000    0.000000    0.000000    0.000000
  0.026800000   -7.275971  147.674469  -96.091196   23.636311    0.000000    0.000000    0.000000    0.000000
  0.027000000   -7.274595  147.438324  -96.740433   15.078196    0.000000    0.000000    0.000000    0.000000
  0.027200000   -7.272997  147.174377  -95.818246   15.767471    0.000000    0.000000    0.000000    0.000000
  0.027400000   -7.268179  146.903046  -96.235465   25.130192    0.000000    0.000000    0.000000    0.000000
  0.027600000   -7.263421  146.654526  -95.213559   21.443024    0.000000    0.000000    0.000000    0.000000
  0.027800000   -7.266526  146.415253  -94.939231   20.869497    0.000000    0.000000    0.000000    0.000000
  0.028000000   -7.266052  146.151321  -94.920526   26.876854    0.000000    0.000000    0.000000    0.000000
  0.028200000   -7.266306  145.903152  -95.072518   17.640408    0.000000    0.000000    0.000000    0.000000
  0.028400000   -7.263205  145.694489  -95.515856   23.496248    0.000000    0.000000    0.000000    0.000000
  0.028600000   -7.260876  145.464630  -96.547414   24.505074    0.000000    0.000000    0.000000    0.000000
  0.028800000   -7.255910  145.257263  -95.172959   15.027992    0.000000    0.000000    0.000000    0.000000
  0.029000000   -7.255966  145.084320  -95.828778   22.384031    0.000000    0.000000    0.000000    0.000000
  0.029200000   -7.257449  144.853851  -96.393528   19.481756    0.000000    0.000000    0.000000    0.000000
  0.029400000   -7.254194  144.672333  -95.751489   14.213184    0.000000    0.000000    0.000000    0.000000
  0.029600000   -7.255500  144.485474  -95.733984   17.899960    0.000000    0.000000    0.000000    0.000000
  0.029800000   -7.261742  144.276352  -96.646976   16.840628    0.000000    0.000000    0.000000    0.000000
  0.030000000   -7.261310  144.033798  -95.640979   17.385014    0.000000    0.000000    0.000000    0.000000
  0.030200000   -7.264443  143.795258  -96.793861   16.861023    0.000000    0.000000    0.000000    0.000000
  0.030400000   -7.263992  143.548126  -97.723917   17.270519    0.000000    0.000000    0.000000    0.000000
  0.030600000   -7.264997  143.273773  -97.681029   16.805262    0.000000    0.000000    0.000000    0.000000
  0.030800000   -7.264934  143.041412  -97.361686   17.730036    0.000000    0.000000    0.000000    0.000000
  0.031000000   -7.267668  142.770111  -96.886982   16.669256    0.000000    0.000000    0.000000    0.000000
  0.031200000   -7.258159  142.583176  -96.218949   15.372453    0.000000    0.000000    0.000000    0.000000
  0.031400000   -7.262736  142.342621  -98.192964   21.278137    0.000000    0.000000    0.000000    0.000000
  0.031600000   -7.270005  142.050980  -97.329149   17.157124    0.000000    0.000000    0.000000    0.000000
  0.031800000   -7.268645  141.800522  -96.685445   15.152414    0.000000    0.000000    0.000000    0.000000
  0.032000000   -7.270230  141.572357  -98.391642    7.767511    0.000000    0.000000    0.000000    0.000000
  0.032200000   -7.265505  141.316559  -95.960592   19.343018    0.000000    0.000000    0.000000    0.000000
  0.032400000   -7.261107  141.085068  -97.114610   12.996894    0.000000    0.000000    0.000000    0.000000
  0.032600000   -7.254693  140.864578  -96.698141   14.471258    0.000000    0.000000    0.000000    0.000000
  0.032800000   -7.248670  140.659378  -96.873871   13.137215    0.000000    0.000000    0.000000    0.000000
  0.033000000   -7.246419  140.455414  -96.985348   11.236513    0.000000    0.000000    0.000000    0.000000
  0.033200000   -7.248886  140.241531  -97.805155   19.427483    0.000000    0.000000    0.000000    0.000000
  0.033400000   -7.246474  140.024399  -98.491705   15.155877    0.000000    0.000000    0.000000    0.000000
  0.033600000   -7.251470  139.829010  -99.357029   10.983006    0.000000    0.000000    0.000000    0.000000
  0.033800000   -7.255412  139.630249  -97.477664   13.963049    0.000000    0.000000    0.000000    0.000000
  0.034000000   -7.252472  139.370834  -97.780801   11.264110    0.000000    0.000000    0.000000    0.000000
  0.034200000   -7.265880  139.106674  -96.956007    7.389159    0.000000    0.000000    0.000000    0.000000
  0.034400000   -7.264130  138.874527 -100.629597   19.455048    0.000000    0.000000    0.000000    0.000000
  0.034600000   -7.268990  138.586823  -97.532805    9.664509    0.000000    0.000000    0.000000    0.000000
  0.034800000   -7.271914  138.321671  -97.111552   13.806690    0.000000    0.000000    0.000000    0.000000
  0.035000000   -7.277020  138.060669  -98.496989    3.457726    0.000000    0.000000    0.000000    0.000000
  0.035200000   -7.272711  137.783798  -98.294972   15.066383    0.000000    0.000000    0.000000    0.000000
  0.035400000   -7.276805  137.531174  -96.206059   14.333109    0.000000    0.000000    0.000000    0.000000
  0.035600000   -7.277216  137.304962  -98.123865   18.149717    0.000000    0.000000    0.000000    0.000000
  0.035800000   -7.265575  136.990234  -98.013173    5.212141    0.000000    0.000000    0.000000    0.000000
  0.036000000   -7.258528  136.746674  -98.730673    4.190651    0.000000    0.000000    0.000000    0.000000
  0.036200000   -7.258414  136.548569  -98.165564   20.743170    0.000000    0.000000    0.000000    0.000000
  0.036400000   -7.253388  136.299469  -99.515490   -2.859201    0.000000    0.000000    0.000000    0.000000
  0.036600000   -7.250615  136.083542  -97.959187    3.936956    0.000000    0.000000    0.000000    0.000000
  0.036800000   -7.246030  135.882050  -99.323585    0.216511    0.000000    0.000000    0.000000    0.000000
  0.037000000   -7.243639  135.668747  -98.629726   10.102386    0.000000    0.000000    0.000000    0.000000
  0.037200000   -7.245503  135.451202 -100.265010    1.022092    0.000000    0.000000    0.000000    0.000000
  0.037400000   -7.251193  135.271500 -100.800635    8.815224    0.000000    0.000000    0.000000    0.000000
  0.037600000   -7.250753  135.000366  -99.269470    6.542410    0.000000    0.000000    0.000000    0.000000
  0.037800000   -7.254403  134.766586 -100.359690   -5.229686    0.000000    0.000000    0.000000    0.000000
  0.038000000   -7.258418  134.529633 -100.864328    6.141363    0.000000    0.000000    0.000000    0.000000
  0.038200000   -7.262789  134.267227 -100.378900    2.348766    0.000000    0.000000    0.000000    0.000000
  0.038400000   -7.265531  133.987457  -99.164813   19.548500    0.000000    0.000000    0.000000    0.000000
  0.038600000   -7.268317  133.722626 -101.164103    5.611156    0.000000    0.000000    0.000000    0.000000
  0.038800000   -7.270265  133.489288 -101.239074   10.564517    0.000000    0.000000    0.000000    0.000000
  0.039000000   -7.269828  133.216522 -100.557842   17.477236    0.000000    0.000000    0.000000    0.000000
  0.039200000   -7.269140  133.026825  -98.727734   14.320832    0.000000    0.000000    0.000000    0.000000
  0.039400000   -7.265253  132.776550  -99.710362    5.171096    0.000000    0.000000    0.000000    0.000000
  0.039600000   -7.257697  132.550140 -102.672478   11.265759    0.000000    0.000000    0.000000    0.000000
  0.039800000   -7.255509  132.248734 -100.921756    1.834141    0.000000    0.000000    0.000000    0.000000
  0.040000000   -7.249324  131.998734 -100.922991   13.209010    0.000000    0.000000    0.000000    0.000000
  0.040200000   -7.242831  131.796310 -101.468473   11.097921    0.000000    0.000000    0.000000    0.000000
  0.040400000   -7.234326  131.572647 -100.134322   12.835761    0.000000    0.000000    0.000000    0.000000
  0.040600000   -7.236113  131.373062  -99.744317    0.587136    0.000000    0.000000    0.000000    0.000000
  0.040800000   -7.231070  131.200058  -98.571571   11.235006    0.000000    0.000000    0.000000    0.000000
  0.041000000   -7.230209  131.008408  -99.393564   23.366293    0.000000    0.000000    0.000000    0.000000
  0.041200000   -7.238351  130.850723 -100.829808   11.001176    0.000000    0.000000    0.000000    0.000000
  0.041400000   -7.242179  130.629868  -97.450335   -0.760440    0.000000    0.000000    0.000000    0.000000
  0.041600000   -7.250039  130.362488 -100.715452   -4.957191    0.000000    0.000000    0.000000    0.000000
  0.041800000   -7.256450  130.139435 -100.646234   17.023327    0.000000    0.000000    0.000000    0.000000
  0.042000000   -7.259704  129.878311 -101.370808   -3.858121    0.000000    0.000000    0.000000    0.000000
  0.042200000   -7.259852  129.674500 -101.574623    4.847212    0.000000    0.000000    0.000000    0.000000
  0.042400000   -7.262341  129.405228 -103.749105    5.755116    0.000000    0.000000    0.000000    0.000000
  0.042600000   -7.262863  129.170105 -101.105259    2.387778    0.000000    0.000000    0.000000    0.000000
  0.042800000   -7.257076  128.920303  -98.990767    9.384197    0.000000    0.000000    0.000000    0.000000
