! Anritsu VNA Master:                     Model: MS2036C/10/77
! SN:                                  1601066
! /card0/usr/256.ew.sma.r20.22.s2p
! Existing Calibration Information:
! TYPE:                         Current Settings,       Active Cal Settings
! TIME:             	   12/19/2017 02:49:33 PM,    12/19/2017 02:22:10 PM
! INTERNAL TEMP:    	                   46.3 C,                    45.0 C
! # POINTS:         	                      501,                       501
! START FREQ:       	               10.000 MHz,                10.000 MHz
! STOP FREQ:        	              110.000 MHz,               110.000 MHz
! SOURCE POWER:     	                     High,                      High
! IFBW:             	                   100 Hz,                    100 Hz
! AVG FACTOR:       	                       1 ,                        1 
! REF PLANE 1:      	                     0 mm,                      0 mm
! REF PLANE 2:      	                     0 mm,                      0 mm
! CAL TYPE:         	                 Full S11,                  Full S11
! CAL METHOD:       	                     SOLT,                      SOLT
! CAL LINE TYPE:    	                     Coax,                      Coax
! DUT PORT 1:       	                N-Conn(F),                 N-Conn(F)
! DUT PORT 2:       	                K-Conn(F),                 K-Conn(F)
! CAL STATUS:       	        OK: Accuracy High,                        --
# GHZ S DB R 50.0
! FREQ.GHZ       S11DB        S11A       S21DB        S21A       S12DB        S12A       S22DB        S22A
  0.010000000   -7.230678  167.807968  -82.286746   77.889008    0.000000    0.000000    0.000000    0.000000
  0.010200000   -7.214337  167.651047  -82.527841   73.440903    0.000000    0.000000    0.000000    0.000000
  0.010400000   -7.214157  167.388321  -82.748442   73.027176    0.000000    0.000000    0.000000    0.000000
  0.010600000   -7.217427  167.179260  -83.227436   71.817184    0.000000    0.000000    0.000000    0.000000
  0.010800000   -7.217915  166.972198  -83.515635   73.233299    0.000000    0.000000    0.000000    0.000000
  0.011000000   -7.221439  166.689285  -83.192237   69.563141    0.000000    0.000000    0.000000    0.000000
  0.011200000   -7.218983  166.486359  -84.006183   64.963135    0.000000    0.000000    0.000000    0.000000
  0.011400000   -7.222394  166.238693  -83.831487   66.672997    0.000000    0.000000    0.000000    0.000000
  0.011600000   -7.224173  166.046143  -84.356784   63.134438    0.000000    0.000000    0.000000    0.000000
  0.011800000   -7.226416  165.820282  -84.949788   65.024200    0.000000    0.000000    0.000000    0.000000
  0.012000000   -7.227534  165.554657  -84.780261   62.713608    0.000000    0.000000    0.000000    0.000000
  0.012200000   -7.228335  165.305939  -85.754608   62.876598    0.000000    0.000000    0.000000    0.000000
  0.012400000   -7.232089  165.051956  -85.328285   59.754360    0.000000    0.000000    0.000000    0.000000
  0.012600000   -7.230562  164.836533  -86.208974   59.924461    0.000000    0.000000    0.000000    0.000000
  0.012800000   -7.239589  164.589508  -86.255684   56.393982    0.000000    0.000000    0.000000    0.000000
  0.013000000   -7.239509  164.360016  -86.199405   60.331074    0.000000    0.000000    0.000000    0.000000
  0.013200000   -7.246306  164.081161  -86.293773   59.601685    0.000000    0.000000    0.000000    0.000000
  0.013400000   -7.245723  163.862747  -87.577033   57.738575    0.000000    0.000000    0.000000    0.000000
  0.013600000   -7.246916  163.611221  -87.718875   60.292156    0.000000    0.000000    0.000000    0.000000
  0.013800000   -7.243659  163.343033  -87.224183   58.814507    0.000000    0.000000    0.000000    0.000000
  0.014000000   -7.245646  163.091309  -87.547631   61.692871    0.000000    0.000000    0.000000    0.000000
  0.014200000   -7.246809  162.866638  -86.901599   60.353531    0.000000    0.000000    0.000000    0.000000
  0.014400000   -7.247700  162.605835  -87.709010   55.608452    0.000000    0.000000    0.000000    0.000000
  0.014600000   -7.247428  162.357697  -87.053633   58.655003    0.000000    0.000000    0.000000    0.000000
  0.014800000   -7.252892  162.110214  -87.724440   55.442417    0.000000    0.000000    0.000000    0.000000
  0.015000000   -7.254448  161.861603  -87.853391   56.781822    0.000000    0.000000    0.000000    0.000000
  0.015200000   -7.254049  161.595413  -88.242488   52.309296    0.000000    0.000000    0.000000    0.000000
  0.015400000   -7.257515  161.346451  -87.928042   55.374729    0.000000    0.000000    0.000000    0.000000
  0.015600000   -7.253984  161.082687  -87.852856   50.234993    0.000000    0.000000    0.000000    0.000000
  0.015800000   -7.257003  160.870148  -88.444591   52.205856    0.000000    0.000000    0.000000    0.000000
  0.016000000   -7.254977  160.587372  -87.888429   53.368488    0.000000    0.000000    0.000000    0.000000
  0.016200000   -7.253651  160.362320  -88.183586   50.558125    0.000000    0.000000    0.000000    0.000000
  0.016400000   -7.253855  160.137054  -88.301686   51.343426    0.000000    0.000000    0.000000    0.000000
  0.016600000   -7.255013  159.898697  -88.803773   47.733276    0.000000    0.000000    0.000000    0.000000
  0.016800000   -7.252085  159.652191  -88.499252   49.299816    0.000000    0.000000    0.000000    0.000000
  0.017000000   -7.250947  159.429230  -89.087761   46.456608    0.000000    0.000000    0.000000    0.000000
  0.017200000   -7.252437  159.190659  -88.572904   44.900101    0.000000    0.000000    0.000000    0.000000
  0.017400000   -7.252549  158.966995  -88.836469   43.628094    0.000000    0.000000    0.000000    0.000000
  0.017600000   -7.252542  158.722473  -88.955164   41.470364    0.000000    0.000000    0.000000    0.000000
  0.017800000   -7.255617  158.511993  -89.082937   40.846275    0.000000    0.000000    0.000000    0.000000
  0.018000000   -7.252876  158.255905  -89.558669   41.623672    0.000000    0.000000    0.000000    0.000000
  0.018200000   -7.255161  158.043671  -90.079672   43.937111    0.000000    0.000000    0.000000    0.000000
  0.018400000   -7.256851  157.826752  -89.806520   39.873611    0.000000    0.000000    0.000000    0.000000
  0.018600000   -7.261202  157.595047  -90.338645   36.636520    0.000000    0.000000    0.000000    0.000000
  0.018800000   -7.260718  157.354095  -90.629120   36.202244    0.000000    0.000000    0.000000    0.000000
  0.019000000   -7.264481  157.134369  -90.707073   42.040989    0.000000    0.000000    0.000000    0.000000
  0.019200000   -7.271669  156.921158  -91.305561   40.647728    0.000000    0.000000    0.000000    0.000000
  0.019400000   -7.271117  156.680542  -91.422215   37.612877    0.000000    0.000000    0.000000    0.000000
  0.019600000   -7.273041  156.455215  -91.417976   40.621632    0.000000    0.000000    0.000000    0.000000
  0.019800000   -7.270450  156.223267  -91.720425   40.874817    0.000000    0.000000    0.000000    0.000000
  0.020000000   -7.273757  155.984024  -92.068440   37.896378    0.000000    0.000000    0.000000    0.000000
  0.020200000   -7.271232  155.733887  -91.604532   32.790031    0.000000    0.000000    0.000000    0.000000
  0.020400000   -7.275404  155.501236  -92.466938   29.846178    0.000000    0.000000    0.000000    0.000000
  0.020600000   -7.274856  155.253128  -92.086350   39.016186    0.000000    0.000000    0.000000    0.000000
  0.020800000   -7.271229  155.004807  -92.041516   35.548309    0.000000    0.000000    0.000000    0.000000
  0.021000000   -7.276519  154.760818  -92.843742   34.488911    0.000000    0.000000    0.000000    0.000000
  0.021200000   -7.276227  154.481796  -91.910735   33.726509    0.000000    0.000000    0.000000    0.000000
  0.021400000   -7.276336  154.251892  -91.702099   41.687386    0.000000    0.000000    0.000000    0.000000
  0.021600000   -7.277336  153.993622  -93.269372   35.739887    0.000000    0.000000    0.000000    0.000000
  0.021800000   -7.281885  153.758484  -91.351212   38.525223    0.000000    0.000000    0.000000    0.000000
  0.022000000   -7.286351  153.536102  -91.571172   31.948723    0.000000    0.000000    0.000000    0.000000
  0.022200000   -7.285453  153.283783  -92.556602   38.046604    0.000000    0.000000    0.000000    0.000000
  0.022400000   -7.286527  153.032379  -92.143928   29.111322    0.000000    0.000000    0.000000    0.000000
  0.022600000   -7.287293  152.803757  -92.389135   42.784840    0.000000    0.000000    0.000000    0.000000
  0.022800000   -7.286896  152.559204  -92.135288   32.843014    0.000000    0.000000    0.000000    0.000000
  0.023000000   -7.287748  152.316971  -93.128581   34.946777    0.000000    0.000000    0.000000    0.000000
  0.023200000   -7.285393  152.053131  -92.087486   34.127872    0.000000    0.000000    0.000000    0.000000
  0.023400000   -7.284063  151.770096  -92.256665   32.318893    0.000000    0.000000    0.000000    0.000000
  0.023600000   -7.283685  151.569977  -92.364232   29.789669    0.000000    0.000000    0.000000    0.000000
  0.023800000   -7.280411  151.309143  -92.810660   32.254417    0.000000    0.000000    0.000000    0.000000
  0.024000000   -7.281240  151.054657  -92.313390   28.402781    0.000000    0.000000    0.000000    0.000000
  0.024200000   -7.279613  150.799011  -93.093807   21.521927    0.000000    0.000000    0.000000    0.000000
  0.024400000   -7.275573  150.532333  -94.288514   19.332943    0.000000    0.000000    0.000000    0.000000
  0.024600000   -7.276464  150.295425  -93.411124   26.500418    0.000000    0.000000    0.000000    0.000000
  0.024800000   -7.273880  150.014572  -93.808435   29.657816    0.000000    0.000000    0.000000    0.000000
  0.025000000   -7.273337  149.802460  -93.721471   22.537861    0.000000    0.000000    0.000000    0.000000
  0.025200000   -7.269313  149.597549  -94.099202   20.464577    0.000000    0.000000    0.000000    0.000000
  0.025400000   -7.271933  149.357712  -94.640633   18.031466    0.000000    0.000000    0.000000    0.000000
  0.025600000   -7.269855  149.145218  -94.579676   26.393831    0.000000    0.000000    0.000000    0.000000
  0.025800000   -7.272869  148.969116  -96.153453   25.393867    0.000000    0.000000    0.000000    0.000000
  0.026000000   -7.270579  148.729736  -94.907009   23.412870    0.000000    0.000000    0.000000    0.000000
  0.026200000   -7.271411  148.505188  -95.077653   18.132244    0.000000    0.000000    0.000000    0.000000
  0.026400000   -7.277963  148.293472  -95.344696   21.602045    0.000000    0.000000    0.000000    0.000000
  0.026600000   -7.277742  148.044037  -96.285451   22.485523    0.000000    0.000000    0.000000    0.000000
  0.026800000   -7.279211  147.810059  -94.908776   18.689903    0.000000    0.000000    0.000000    0.000000
  0.027000000   -7.281190  147.573441  -95.496599   21.281162    0.000000    0.000000    0.000000    0.000000
  0.027200000   -7.279707  147.301147  -95.806081   24.932188    0.000000    0.000000    0.000000    0.000000
  0.027400000   -7.274052  147.026718  -94.579894   23.328745    0.000000    0.000000    0.000000    0.000000
  0.027600000   -7.271384  146.779388  -96.551366   19.915522    0.000000    0.000000    0.000000    0.000000
  0.027800000   -7.273305  146.545776  -95.176421   18.529743    0.000000    0.000000    0.000000    0.000000
  0.028000000   -7.272927  146.289078  -96.585937   20.623833    0.000000    0.000000    0.000000    0.000000
  0.028200000   -7.272559  146.056015  -96.995987   21.818239    0.000000    0.000000    0.000000    0.000000
  0.028400000   -7.270261  145.840729  -95.538379   15.037167    0.000000    0.000000    0.000000    0.000000
  0.028600000   -7.268405  145.605682  -96.405256   23.155354    0.000000    0.000000    0.000000    0.000000
  0.028800000   -7.265114  145.412460  -95.637635   17.102770    0.000000    0.000000    0.000000    0.000000
  0.029000000   -7.264805  145.218948  -95.863492   29.203867    0.000000    0.000000    0.000000    0.000000
  0.029200000   -7.262911  145.021820  -96.064174   28.606562    0.000000    0.000000    0.000000    0.000000
  0.029400000   -7.259500  144.831070  -96.716135   19.980160    0.000000    0.000000    0.000000    0.000000
  0.029600000   -7.262208  144.635178  -97.099125   11.311984    0.000000    0.000000    0.000000    0.000000
  0.029800000   -7.265398  144.423401  -96.769011   24.938759    0.000000    0.000000    0.000000    0.000000
  0.030000000   -7.268566  144.191772  -96.220268   18.538076    0.000000    0.000000    0.000000    0.000000
  0.030200000   -7.270080  143.945816  -97.748598   26.577351    0.000000    0.000000    0.000000    0.000000
  0.030400000   -7.270582  143.692551  -96.894135   15.909455    0.000000    0.000000    0.000000    0.000000
  0.030600000   -7.271964  143.445511  -96.332819   21.705917    0.000000    0.000000    0.000000    0.000000
  0.030800000   -7.270871  143.192139  -98.073882   14.341943    0.000000    0.000000    0.000000    0.000000
  0.031000000   -7.274439  142.945450  -97.945275   14.600644    0.000000    0.000000    0.000000    0.000000
  0.031200000   -7.268210  142.723022  -96.293569   16.799425    0.000000    0.000000    0.000000    0.000000
  0.031400000   -7.271432  142.503265  -96.269111    2.465195    0.000000    0.000000    0.000000    0.000000
  0.031600000   -7.275620  142.237106  -98.039188   19.382324    0.000000    0.000000    0.000000    0.000000
  0.031800000   -7.274013  141.986343  -97.219256   21.699984    0.000000    0.000000    0.000000    0.000000
  0.032000000   -7.274339  141.753235  -97.620379    3.977307    0.000000    0.000000    0.000000    0.000000
  0.032200000   -7.269846  141.503235  -96.736352    7.819920    0.000000    0.000000    0.000000    0.000000
  0.032400000   -7.270440  141.261139  -96.609041   13.106367    0.000000    0.000000    0.000000    0.000000
  0.032600000   -7.261552  141.048538  -96.961266    0.376354    0.000000    0.000000    0.000000    0.000000
  0.032800000   -7.252670  140.827072  -98.892148    9.270309    0.000000    0.000000    0.000000    0.000000
  0.033000000   -7.254919  140.640091  -97.092573   14.571415    0.000000    0.000000    0.000000    0.000000
  0.033200000   -7.255044  140.441986  -96.958424   18.474535    0.000000    0.000000    0.000000    0.000000
  0.033400000   -7.257315  140.210892  -98.743089    9.883259    0.000000    0.000000    0.000000    0.000000
  0.033600000   -7.259815  140.040604  -97.138043    3.278898    0.000000    0.000000    0.000000    0.000000
  0.033800000   -7.262532  139.833115  -99.156845   19.769846    0.000000    0.000000    0.000000    0.000000
  0.034000000   -7.259195  139.567032  -98.792745   12.242698    0.000000    0.000000    0.000000    0.000000
  0.034200000   -7.272729  139.332260  -98.700594    8.873241    0.000000    0.000000    0.000000    0.000000
  0.034400000   -7.274302  139.076233  -96.278258    1.901031    0.000000    0.000000    0.000000    0.000000
  0.034600000   -7.280037  138.792267  -98.398243   16.062908    0.000000    0.000000    0.000000    0.000000
  0.034800000   -7.282303  138.549042  -98.520165   12.231317    0.000000    0.000000    0.000000    0.000000
  0.035000000   -7.289001  138.293839  -96.973581   15.318993    0.000000    0.000000    0.000000    0.000000
  0.035200000   -7.285871  137.987274  -97.021027   15.959410    0.000000    0.000000    0.000000    0.000000
  0.035400000   -7.290199  137.768570 -100.112335   15.599804    0.000000    0.000000    0.000000    0.000000
  0.035600000   -7.290691  137.497971  -99.217865   13.430714    0.000000    0.000000    0.000000    0.000000
  0.035800000   -7.283838  137.217148  -99.470982    1.049865    0.000000    0.000000    0.000000    0.000000
  0.036000000   -7.274536  136.978333  -97.483519    2.072679    0.000000    0.000000    0.000000    0.000000
  0.036200000   -7.272641  136.761688  -99.118021    7.721413    0.000000    0.000000    0.000000    0.000000
  0.036400000   -7.265739  136.521713  -97.775197   21.143553    0.000000    0.000000    0.000000    0.000000
  0.036600000   -7.266930  136.297470  -99.780810    7.761886    0.000000    0.000000    0.000000    0.000000
  0.036800000   -7.261398  136.086761  -98.182701    2.179019    0.000000    0.000000    0.000000    0.000000
  0.037000000   -7.261191  135.877609  -98.227725   10.082270    0.000000    0.000000    0.000000    0.000000
  0.037200000   -7.263682  135.663834  -98.374116   19.429657    0.000000    0.000000    0.000000    0.000000
  0.037400000   -7.268360  135.453705  -99.111668   -1.255311    0.000000    0.000000    0.000000    0.000000
  0.037600000   -7.266733  135.204269  -98.010156    3.652628    0.000000    0.000000    0.000000    0.000000
  0.037800000   -7.271849  134.948624  -97.581026    8.785139    0.000000    0.000000    0.000000    0.000000
  0.038000000   -7.277242  134.722443  -99.819577   -3.621815    0.000000    0.000000    0.000000    0.000000
  0.038200000   -7.280107  134.438705  -99.203257   13.585449    0.000000    0.000000    0.000000    0.000000
  0.038400000   -7.281574  134.183762  -97.930579    2.249047    0.000000    0.000000    0.000000    0.000000
  0.038600000   -7.285458  133.914444 -101.829277  -10.507109    0.000000    0.000000    0.000000    0.000000
  0.038800000   -7.284735  133.695175 -101.042593   -8.984737    0.000000    0.000000    0.000000    0.000000
  0.039000000   -7.285709  133.414490 -104.400115    4.864775    0.000000    0.000000    0.000000    0.000000
  0.039200000   -7.282736  133.198212 -100.640970   -0.975762    0.000000    0.000000    0.000000    0.000000
  0.039400000   -7.279082  132.960373 -100.213553    9.567096    0.000000    0.000000    0.000000    0.000000
  0.039600000   -7.276891  132.721191 -101.355768   -7.867510    0.000000    0.000000    0.000000    0.000000
  0.039800000   -7.271377  132.447540 -101.705954   10.587727    0.000000    0.000000    0.000000    0.000000
  0.040000000   -7.266671  132.175430 -101.233779    4.970763    0.000000    0.000000    0.000000    0.000000
  0.040200000   -7.254791  131.971497 -101.084948    6.156404    0.000000    0.000000    0.000000    0.000000
  0.040400000   -7.246533  131.760468  -99.690693   14.707195    0.000000    0.000000    0.000000    0.000000
  0.040600000   -7.249047  131.585800 -100.752083   13.708949    0.000000    0.000000    0.000000    0.000000
  0.040800000   -7.248468  131.395477 -100.420350   -6.335563    0.000000    0.000000    0.000000    0.000000
  0.041000000   -7.246272  131.186371 -100.125413   15.718393    0.000000    0.000000    0.000000    0.000000
  0.041200000   -7.251782  131.030273 -101.263943   -3.680759    0.000000    0.000000    0.000000    0.000000
  0.041400000   -7.253144  130.813675 -100.426185   17.420803    0.000000    0.000000    0.000000    0.000000
  0.041600000   -7.261132  130.584854 -102.580874    4.496182    0.000000    0.000000    0.000000    0.000000
  0.041800000   -7.269867  130.341644  -99.176735    3.785841    0.000000    0.000000    0.000000    0.000000
  0.042000000   -7.271564  130.105865  -99.230243    5.832791    0.000000    0.000000    0.000000    0.000000
  0.042200000   -7.272761  129.899628 -100.380419   -5.973878    0.000000    0.000000    0.000000    0.000000
  0.042400000   -7.274844  129.653046 -102.273421    2.403573    0.000000    0.000000    0.000000    0.000000
  0.042600000   -7.275533  129.395386  -99.292673   -2.387347    0.000000    0.000000    0.000000    0.000000
  0.042800000   -7.275034  129.157852 -100.908386   -0.573156    0.000000    0.000000    0.000000    0.000000
