! Anritsu VNA Master:                     Model: MS2036C/10/77
! SN:                                  1601066
! /card0/usr/256.ew.sma.r50.12.s2p
! Existing Calibration Information:
! TYPE:                         Current Settings,       Active Cal Settings
! TIME:             	   12/19/2017 02:34:14 PM,    12/19/2017 02:22:10 PM
! INTERNAL TEMP:    	                   46.0 C,                    45.0 C
! # POINTS:         	                      501,                       501
! START FREQ:       	               10.000 MHz,                10.000 MHz
! STOP FREQ:        	              110.000 MHz,               110.000 MHz
! SOURCE POWER:     	                     High,                      High
! IFBW:             	                   100 Hz,                    100 Hz
! AVG FACTOR:       	                       1 ,                        1 
! REF PLANE 1:      	                     0 mm,                      0 mm
! REF PLANE 2:      	                     0 mm,                      0 mm
! CAL TYPE:         	                 Full S11,                  Full S11
! CAL METHOD:       	                     SOLT,                      SOLT
! CAL LINE TYPE:    	                     Coax,                      Coax
! DUT PORT 1:       	                N-Conn(F),                 N-Conn(F)
! DUT PORT 2:       	                K-Conn(F),                 K-Conn(F)
! CAL STATUS:       	        OK: Accuracy High,                        --
# GHZ S RI R 50.0
! FREQ.GHZ      S11RE         S11IM         S21RE         S21IM         S12RE         S12IM         S22RE         S22IM
  0.010000000  2.540340E-03  5.083280E-03  1.728140E-05  6.930900E-05  1.000000E+00  0.000000E+00  1.000000E+00  0.000000E+00
  0.010200000  2.319890E-03  5.155150E-03  1.851600E-05  6.680300E-05  1.000000E+00  0.000000E+00  1.000000E+00  0.000000E+00
  0.010400000  2.257990E-03  5.300360E-03  1.688280E-05  6.516530E-05  1.000000E+00  0.000000E+00  1.000000E+00  0.000000E+00
  0.010600000  2.430370E-03  5.276160E-03  1.931690E-05  6.138690E-05  1.000000E+00  0.000000E+00  1.000000E+00  0.000000E+00
  0.010800000  2.415730E-03  5.179020E-03  1.698780E-05  5.805070E-05  1.000000E+00  0.000000E+00  1.000000E+00  0.000000E+00
  0.011000000  2.427110E-03  5.290060E-03  2.116310E-05  5.860450E-05  1.000000E+00  0.000000E+00  1.000000E+00  0.000000E+00
  0.011200000  2.456320E-03  5.139850E-03  2.236440E-05  5.737030E-05  1.000000E+00  0.000000E+00  1.000000E+00  0.000000E+00
  0.011400000  2.558830E-03  5.497750E-03  2.194170E-05  5.472210E-05  1.000000E+00  0.000000E+00  1.000000E+00  0.000000E+00
  0.011600000  2.685390E-03  5.188400E-03  2.075370E-05  5.238680E-05  1.000000E+00  0.000000E+00  1.000000E+00  0.000000E+00
  0.011800000  2.601200E-03  5.318330E-03  2.295310E-05  5.234000E-05  1.000000E+00  0.000000E+00  1.000000E+00  0.000000E+00
  0.012000000  2.813060E-03  5.337980E-03  2.371400E-05  4.845020E-05  1.000000E+00  0.000000E+00  1.000000E+00  0.000000E+00
  0.012200000  2.907110E-03  5.306590E-03  2.322250E-05  5.153830E-05  1.000000E+00  0.000000E+00  1.000000E+00  0.000000E+00
  0.012400000  3.048060E-03  5.355860E-03  2.308300E-05  4.640700E-05  1.000000E+00  0.000000E+00  1.000000E+00  0.000000E+00
  0.012600000  3.180020E-03  5.492440E-03  2.320130E-05  4.824830E-05  1.000000E+00  0.000000E+00  1.000000E+00  0.000000E+00
  0.012800000  3.159000E-03  5.485790E-03  2.262500E-05  4.679680E-05  1.000000E+00  0.000000E+00  1.000000E+00  0.000000E+00
  0.013000000  3.169540E-03  5.490700E-03  2.368800E-05  4.394910E-05  1.000000E+00  0.000000E+00  1.000000E+00  0.000000E+00
  0.013200000  3.425520E-03  5.669420E-03  2.286690E-05  4.330280E-05  1.000000E+00  0.000000E+00  1.000000E+00  0.000000E+00
  0.013400000  3.306790E-03  5.748220E-03  2.294430E-05  4.200290E-05  1.000000E+00  0.000000E+00  1.000000E+00  0.000000E+00
  0.013600000  3.404370E-03  5.733000E-03  2.279090E-05  3.931890E-05  1.000000E+00  0.000000E+00  1.000000E+00  0.000000E+00
  0.013800000  3.639790E-03  5.850810E-03  2.457320E-05  4.013800E-05  1.000000E+00  0.000000E+00  1.000000E+00  0.000000E+00
  0.014000000  3.752500E-03  5.917250E-03  2.481190E-05  3.815570E-05  1.000000E+00  0.000000E+00  1.000000E+00  0.000000E+00
  0.014200000  3.744620E-03  6.020620E-03  2.439050E-05  3.629530E-05  1.000000E+00  0.000000E+00  1.000000E+00  0.000000E+00
  0.014400000  3.868180E-03  6.056290E-03  2.403660E-05  3.493880E-05  1.000000E+00  0.000000E+00  1.000000E+00  0.000000E+00
  0.014600000  3.876030E-03  6.096170E-03  2.514600E-05  3.648780E-05  1.000000E+00  0.000000E+00  1.000000E+00  0.000000E+00
  0.014800000  3.989430E-03  6.310770E-03  2.242680E-05  3.194690E-05  1.000000E+00  0.000000E+00  1.000000E+00  0.000000E+00
  0.015000000  4.147080E-03  6.422460E-03  2.398890E-05  3.050720E-05  1.000000E+00  0.000000E+00  1.000000E+00  0.000000E+00
  0.015200000  4.180810E-03  6.576320E-03  2.488150E-05  3.068430E-05  1.000000E+00  0.000000E+00  1.000000E+00  0.000000E+00
  0.015400000  4.186690E-03  6.684140E-03  2.627590E-05  3.074070E-05  1.000000E+00  0.000000E+00  1.000000E+00  0.000000E+00
  0.015600000  4.168730E-03  6.697820E-03  2.428360E-05  3.075360E-05  1.000000E+00  0.000000E+00  1.000000E+00  0.000000E+00
  0.015800000  4.174960E-03  6.643690E-03  2.465810E-05  2.720620E-05  1.000000E+00  0.000000E+00  1.000000E+00  0.000000E+00
  0.016000000  4.278160E-03  6.818460E-03  2.414780E-05  2.755150E-05  1.000000E+00  0.000000E+00  1.000000E+00  0.000000E+00
  0.016200000  4.406140E-03  6.927320E-03  2.324420E-05  2.790990E-05  1.000000E+00  0.000000E+00  1.000000E+00  0.000000E+00
  0.016400000  4.289510E-03  7.090970E-03  2.409460E-05  2.781960E-05  1.000000E+00  0.000000E+00  1.000000E+00  0.000000E+00
  0.016600000  4.343200E-03  6.998480E-03  2.545680E-05  2.584110E-05  1.000000E+00  0.000000E+00  1.000000E+00  0.000000E+00
  0.016800000  4.336520E-03  7.214950E-03  2.334860E-05  2.600510E-05  1.000000E+00  0.000000E+00  1.000000E+00  0.000000E+00
  0.017000000  4.324250E-03  7.230490E-03  2.641280E-05  2.454020E-05  1.000000E+00  0.000000E+00  1.000000E+00  0.000000E+00
  0.017200000  4.420500E-03  7.356670E-03  2.321480E-05  2.435990E-05  1.000000E+00  0.000000E+00  1.000000E+00  0.000000E+00
  0.017400000  4.300230E-03  7.284860E-03  2.418610E-05  2.335230E-05  1.000000E+00  0.000000E+00  1.000000E+00  0.000000E+00
  0.017600000  4.414450E-03  7.336760E-03  2.391110E-05  2.254770E-05  1.000000E+00  0.000000E+00  1.000000E+00  0.000000E+00
  0.017800000  4.264240E-03  7.018310E-03  2.388540E-05  2.430990E-05  1.000000E+00  0.000000E+00  1.000000E+00  0.000000E+00
  0.018000000  4.537750E-03  7.258000E-03  2.265240E-05  2.032730E-05  1.000000E+00  0.000000E+00  1.000000E+00  0.000000E+00
  0.018200000  4.519640E-03  7.381760E-03  2.455600E-05  2.103340E-05  1.000000E+00  0.000000E+00  1.000000E+00  0.000000E+00
  0.018400000  4.551560E-03  7.445170E-03  2.207330E-05  2.053150E-05  1.000000E+00  0.000000E+00  1.000000E+00  0.000000E+00
  0.018600000  4.515160E-03  7.407860E-03  2.355930E-05  2.029350E-05  1.000000E+00  0.000000E+00  1.000000E+00  0.000000E+00
  0.018800000  4.644760E-03  7.383340E-03  2.278090E-05  1.907950E-05  1.000000E+00  0.000000E+00  1.000000E+00  0.000000E+00
  0.019000000  4.750520E-03  7.483940E-03  2.100730E-05  1.981920E-05  1.000000E+00  0.000000E+00  1.000000E+00  0.000000E+00
  0.019200000  4.841200E-03  7.354060E-03  2.319040E-05  2.186120E-05  1.000000E+00  0.000000E+00  1.000000E+00  0.000000E+00
  0.019400000  4.942940E-03  7.512370E-03  2.114260E-05  1.636690E-05  1.000000E+00  0.000000E+00  1.000000E+00  0.000000E+00
  0.019600000  4.971430E-03  7.483640E-03  2.208210E-05  1.589940E-05  1.000000E+00  0.000000E+00  1.000000E+00  0.000000E+00
  0.019800000  5.011220E-03  7.525220E-03  2.144400E-05  1.846470E-05  1.000000E+00  0.000000E+00  1.000000E+00  0.000000E+00
  0.020000000  5.191510E-03  7.725530E-03  2.205450E-05  1.792210E-05  1.000000E+00  0.000000E+00  1.000000E+00  0.000000E+00
  0.020200000  5.209070E-03  7.668050E-03  2.299440E-05  1.496130E-05  1.000000E+00  0.000000E+00  1.000000E+00  0.000000E+00
  0.020400000  5.260960E-03  7.769100E-03  2.107020E-05  1.604340E-05  1.000000E+00  0.000000E+00  1.000000E+00  0.000000E+00
  0.020600000  5.438520E-03  7.853620E-03  2.142190E-05  1.533210E-05  1.000000E+00  0.000000E+00  1.000000E+00  0.000000E+00
  0.020800000  5.471530E-03  7.884460E-03  2.168660E-05  1.614240E-05  1.000000E+00  0.000000E+00  1.000000E+00  0.000000E+00
  0.021000000  5.563220E-03  7.958480E-03  2.092380E-05  1.520710E-05  1.000000E+00  0.000000E+00  1.000000E+00  0.000000E+00
  0.021200000  5.723980E-03  8.057920E-03  1.918550E-05  1.625150E-05  1.000000E+00  0.000000E+00  1.000000E+00  0.000000E+00
  0.021400000  5.628410E-03  7.989560E-03  2.071730E-05  1.271650E-05  1.000000E+00  0.000000E+00  1.000000E+00  0.000000E+00
  0.021600000  5.930570E-03  8.201860E-03  1.948060E-05  1.396180E-05  1.000000E+00  0.000000E+00  1.000000E+00  0.000000E+00
  0.021800000  5.988630E-03  8.305010E-03  1.991820E-05  1.432550E-05  1.000000E+00  0.000000E+00  1.000000E+00  0.000000E+00
  0.022000000  5.998680E-03  8.290520E-03  2.093360E-05  1.392840E-05  1.000000E+00  0.000000E+00  1.000000E+00  0.000000E+00
  0.022200000  6.126610E-03  8.423130E-03  2.019190E-05  1.355070E-05  1.000000E+00  0.000000E+00  1.000000E+00  0.000000E+00
  0.022400000  6.015230E-03  8.594020E-03  2.277040E-05  1.358690E-05  1.000000E+00  0.000000E+00  1.000000E+00  0.000000E+00
  0.022600000  5.998690E-03  8.433890E-03  2.079150E-05  1.306830E-05  1.000000E+00  0.000000E+00  1.000000E+00  0.000000E+00
  0.022800000  6.042450E-03  8.721080E-03  2.076590E-05  1.362210E-05  1.000000E+00  0.000000E+00  1.000000E+00  0.000000E+00
  0.023000000  6.136240E-03  8.549650E-03  2.094240E-05  1.346520E-05  1.000000E+00  0.000000E+00  1.000000E+00  0.000000E+00
  0.023200000  6.242780E-03  8.801520E-03  2.294680E-05  1.237450E-05  1.000000E+00  0.000000E+00  1.000000E+00  0.000000E+00
  0.023400000  6.167530E-03  9.027890E-03  1.668660E-05  1.051630E-05  1.000000E+00  0.000000E+00  1.000000E+00  0.000000E+00
  0.023600000  6.250520E-03  9.013180E-03  2.085050E-05  1.061620E-05  1.000000E+00  0.000000E+00  1.000000E+00  0.000000E+00
  0.023800000  6.210280E-03  9.081810E-03  1.953220E-05  1.007080E-05  1.000000E+00  0.000000E+00  1.000000E+00  0.000000E+00
  0.024000000  6.369700E-03  9.126390E-03  1.831230E-05  1.041200E-05  1.000000E+00  0.000000E+00  1.000000E+00  0.000000E+00
  0.024200000  6.198930E-03  9.276690E-03  1.574710E-05  7.679340E-06  1.000000E+00  0.000000E+00  1.000000E+00  0.000000E+00
  0.024400000  6.370580E-03  9.378970E-03  1.768100E-05  8.216790E-06  1.000000E+00  0.000000E+00  1.000000E+00  0.000000E+00
  0.024600000  6.312610E-03  9.330820E-03  1.595550E-05  1.085750E-05  1.000000E+00  0.000000E+00  1.000000E+00  0.000000E+00
  0.024800000  6.417920E-03  9.500410E-03  1.868980E-05  7.402890E-06  1.000000E+00  0.000000E+00  1.000000E+00  0.000000E+00
  0.025000000  6.484150E-03  9.366460E-03  1.914920E-05  8.441280E-06  1.000000E+00  0.000000E+00  1.000000E+00  0.000000E+00
  0.025200000  6.320890E-03  9.329150E-03  1.870620E-05  9.307650E-06  1.000000E+00  0.000000E+00  1.000000E+00  0.000000E+00
  0.025400000  6.547710E-03  9.358660E-03  1.832670E-05  7.565740E-06  1.000000E+00  0.000000E+00  1.000000E+00  0.000000E+00
  0.025600000  6.563710E-03  9.523990E-03  1.552170E-05  9.249190E-06  1.000000E+00  0.000000E+00  1.000000E+00  0.000000E+00
  0.025800000  6.310840E-03  9.445620E-03  1.567810E-05  6.913150E-06  1.000000E+00  0.000000E+00  1.000000E+00  0.000000E+00
  0.026000000  6.258810E-03  9.597680E-03  1.771100E-05  6.704330E-06  1.000000E+00  0.000000E+00  1.000000E+00  0.000000E+00
  0.026200000  6.426830E-03  9.539480E-03  1.734940E-05  6.134880E-06  1.000000E+00  0.000000E+00  1.000000E+00  0.000000E+00
  0.026400000  6.436920E-03  9.434890E-03  1.860710E-05  8.713490E-06  1.000000E+00  0.000000E+00  1.000000E+00  0.000000E+00
  0.026600000  6.502320E-03  9.630270E-03  1.537850E-05  8.115220E-06  1.000000E+00  0.000000E+00  1.000000E+00  0.000000E+00
  0.026800000  6.669690E-03  9.492450E-03  1.607830E-05  7.746360E-06  1.000000E+00  0.000000E+00  1.000000E+00  0.000000E+00
  0.027000000  6.484950E-03  9.487970E-03  1.595210E-05  7.538030E-06  1.000000E+00  0.000000E+00  1.000000E+00  0.000000E+00
  0.027200000  6.623690E-03  9.512950E-03  1.655510E-05  5.938350E-06  1.000000E+00  0.000000E+00  1.000000E+00  0.000000E+00
  0.027400000  6.566410E-03  9.581300E-03  1.662180E-05  6.569280E-06  1.000000E+00  0.000000E+00  1.000000E+00  0.000000E+00
  0.027600000  6.776780E-03  9.626710E-03  1.641750E-05  6.420250E-06  1.000000E+00  0.000000E+00  1.000000E+00  0.000000E+00
  0.027800000  6.799650E-03  9.577180E-03  1.590010E-05  3.577440E-06  1.000000E+00  0.000000E+00  1.000000E+00  0.000000E+00
  0.028000000  6.906240E-03  9.420070E-03  1.596530E-05  3.503210E-06  1.000000E+00  0.000000E+00  1.000000E+00  0.000000E+00
  0.028200000  6.853170E-03  9.613170E-03  1.473730E-05  6.352830E-06  1.000000E+00  0.000000E+00  1.000000E+00  0.000000E+00
  0.028400000  6.886940E-03  9.459390E-03  1.395990E-05  3.950080E-06  1.000000E+00  0.000000E+00  1.000000E+00  0.000000E+00
  0.028600000  7.075460E-03  9.654590E-03  1.508520E-05  5.747400E-06  1.000000E+00  0.000000E+00  1.000000E+00  0.000000E+00
  0.028800000  7.082110E-03  9.641100E-03  1.511150E-05  4.653090E-06  1.000000E+00  0.000000E+00  1.000000E+00  0.000000E+00
  0.029000000  7.181570E-03  9.606190E-03  1.592480E-05  5.818850E-06  1.000000E+00  0.000000E+00  1.000000E+00  0.000000E+00
  0.029200000  7.323570E-03  9.563420E-03  1.617630E-05  4.157320E-06  1.000000E+00  0.000000E+00  1.000000E+00  0.000000E+00
  0.029400000  7.489940E-03  9.724510E-03  1.529990E-05  4.746330E-06  1.000000E+00  0.000000E+00  1.000000E+00  0.000000E+00
  0.029600000  7.478210E-03  9.742940E-03  1.420900E-05  6.680680E-06  1.000000E+00  0.000000E+00  1.000000E+00  0.000000E+00
  0.029800000  7.497030E-03  9.661340E-03  1.622680E-05  7.610200E-06  1.000000E+00  0.000000E+00  1.000000E+00  0.000000E+00
  0.030000000  7.734830E-03  9.716860E-03  1.299110E-05  4.600590E-06  1.000000E+00  0.000000E+00  1.000000E+00  0.000000E+00
  0.030200000  7.674660E-03  9.834930E-03  1.581680E-05  3.088580E-06  1.000000E+00  0.000000E+00  1.000000E+00  0.000000E+00
  0.030400000  7.879070E-03  9.880890E-03  1.274610E-05  1.948220E-06  1.000000E+00  0.000000E+00  1.000000E+00  0.000000E+00
  0.030600000  7.920320E-03  9.802650E-03  1.328980E-05  4.218700E-06  1.000000E+00  0.000000E+00  1.000000E+00  0.000000E+00
  0.030800000  7.851470E-03  9.902930E-03  1.192160E-05  3.946090E-06  1.000000E+00  0.000000E+00  1.000000E+00  0.000000E+00
  0.031000000  7.973350E-03  9.958330E-03  1.268090E-05  3.342610E-06  1.000000E+00  0.000000E+00  1.000000E+00  0.000000E+00
  0.031200000  8.225530E-03  1.014770E-02  1.361220E-05  3.821460E-06  1.000000E+00  0.000000E+00  1.000000E+00  0.000000E+00
  0.031400000  8.018770E-03  9.935780E-03  1.205500E-05  2.420570E-06  1.000000E+00  0.000000E+00  1.000000E+00  0.000000E+00
  0.031600000  8.202450E-03  1.012060E-02  1.506920E-05  4.667310E-06  1.000000E+00  0.000000E+00  1.000000E+00  0.000000E+00
  0.031800000  8.184340E-03  1.008270E-02  1.205620E-05  5.590620E-06  1.000000E+00  0.000000E+00  1.000000E+00  0.000000E+00
  0.032000000  8.280570E-03  1.010410E-02  1.284460E-05  4.364710E-06  1.000000E+00  0.000000E+00  1.000000E+00  0.000000E+00
  0.032200000  8.295090E-03  1.015100E-02  1.321130E-05  4.624030E-06  1.000000E+00  0.000000E+00  1.000000E+00  0.000000E+00
  0.032400000  8.371710E-03  1.003610E-02  1.160560E-05  5.005610E-06  1.000000E+00  0.000000E+00  1.000000E+00  0.000000E+00
  0.032600000  8.454970E-03  1.033430E-02  1.275590E-05  3.880390E-06  1.000000E+00  0.000000E+00  1.000000E+00  0.000000E+00
  0.032800000  8.498260E-03  1.027910E-02  1.358430E-05  3.441850E-06  1.000000E+00  0.000000E+00  1.000000E+00  0.000000E+00
  0.033000000  8.585210E-03  1.025090E-02  1.289740E-05  3.460900E-06  1.000000E+00  0.000000E+00  1.000000E+00  0.000000E+00
  0.033200000  8.680700E-03  1.017250E-02  1.355620E-05  3.857810E-06  1.000000E+00  0.000000E+00  1.000000E+00  0.000000E+00
  0.033400000  8.793920E-03  1.042290E-02  1.289320E-05  1.601710E-06  1.000000E+00  0.000000E+00  1.000000E+00  0.000000E+00
  0.033600000  8.896220E-03  1.042850E-02  1.132490E-05  1.041900E-06  1.000000E+00  0.000000E+00  1.000000E+00  0.000000E+00
  0.033800000  8.711770E-03  1.044630E-02  1.278230E-05  2.589510E-06  1.000000E+00  0.000000E+00  1.000000E+00  0.000000E+00
  0.034000000  8.772970E-03  1.063910E-02  1.434400E-05  3.192500E-06  1.000000E+00  0.000000E+00  1.000000E+00  0.000000E+00
  0.034200000  8.965610E-03  1.038090E-02  1.197240E-05  2.754410E-06  1.000000E+00  0.000000E+00  1.000000E+00  0.000000E+00
  0.034400000  9.068480E-03  1.053170E-02  1.241410E-05  2.726100E-06  1.000000E+00  0.000000E+00  1.000000E+00  0.000000E+00
  0.034600000  9.097610E-03  1.039450E-02  1.059320E-05  2.603960E-06  1.000000E+00  0.000000E+00  1.000000E+00  0.000000E+00
  0.034800000  9.083030E-03  1.044920E-02  1.168550E-05  6.330260E-07  1.000000E+00  0.000000E+00  1.000000E+00  0.000000E+00
  0.035000000  9.216940E-03  1.052720E-02  1.103680E-05  4.654870E-06  1.000000E+00  0.000000E+00  1.000000E+00  0.000000E+00
  0.035200000  9.279380E-03  1.070970E-02  9.914780E-06  3.608180E-06  1.000000E+00  0.000000E+00  1.000000E+00  0.000000E+00
  0.035400000  9.372760E-03  1.045690E-02  9.505890E-06  5.526600E-07  1.000000E+00  0.000000E+00  1.000000E+00  0.000000E+00
  0.035600000  9.419650E-03  1.042400E-02  1.031200E-05  2.466570E-06  1.000000E+00  0.000000E+00  1.000000E+00  0.000000E+00
  0.035800000  9.579290E-03  1.072580E-02  1.175490E-05  1.932020E-06  1.000000E+00  0.000000E+00  1.000000E+00  0.000000E+00
  0.036000000  9.479250E-03  1.090070E-02  1.046480E-05  2.324960E-06  1.000000E+00  0.000000E+00  1.000000E+00  0.000000E+00
  0.036200000  9.647890E-03  1.084520E-02  1.135260E-05  2.766620E-06  1.000000E+00  0.000000E+00  1.000000E+00  0.000000E+00
  0.036400000  9.786330E-03  1.085430E-02  8.839500E-06  2.707920E-06  1.000000E+00  0.000000E+00  1.000000E+00  0.000000E+00
  0.036600000  9.830850E-03  1.091730E-02  1.148130E-05  2.553070E-06  1.000000E+00  0.000000E+00  1.000000E+00  0.000000E+00
  0.036800000  9.826790E-03  1.093630E-02  1.045730E-05  3.040670E-06  1.000000E+00  0.000000E+00  1.000000E+00  0.000000E+00
  0.037000000  9.925350E-03  1.093090E-02  1.130900E-05  2.171040E-06  1.000000E+00  0.000000E+00  1.000000E+00  0.000000E+00
  0.037200000  1.005640E-02  1.101660E-02  1.196420E-05  1.485990E-06  1.000000E+00  0.000000E+00  1.000000E+00  0.000000E+00
  0.037400000  1.009850E-02  1.084000E-02  1.057480E-05  2.165510E-06  1.000000E+00  0.000000E+00  1.000000E+00  0.000000E+00
  0.037600000  1.026050E-02  1.109870E-02  1.045080E-05  1.505610E-06  1.000000E+00  0.000000E+00  1.000000E+00  0.000000E+00
  0.037800000  1.015190E-02  1.097210E-02  9.723670E-06  1.366130E-06  1.000000E+00  0.000000E+00  1.000000E+00  0.000000E+00
  0.038000000  1.028080E-02  1.097860E-02  1.100020E-05  1.013350E-06  1.000000E+00  0.000000E+00  1.000000E+00  0.000000E+00
  0.038200000  1.039060E-02  1.109840E-02  8.483010E-06  1.222330E-06  1.000000E+00  0.000000E+00  1.000000E+00  0.000000E+00
  0.038400000  1.041960E-02  1.110950E-02  8.445210E-06  6.503340E-07  1.000000E+00  0.000000E+00  1.000000E+00  0.000000E+00
  0.038600000  1.054680E-02  1.122490E-02  1.101640E-05  1.166810E-06  1.000000E+00  0.000000E+00  1.000000E+00  0.000000E+00
