! Anritsu VNA Master:                     Model: MS2036C/10/77
! SN:                                  1601066
! /card0/usr/256.ew.sma.r50.11.s2p
! Existing Calibration Information:
! TYPE:                         Current Settings,       Active Cal Settings
! TIME:             	   12/19/2017 02:29:56 PM,    12/19/2017 02:22:10 PM
! INTERNAL TEMP:    	                   45.8 C,                    45.0 C
! # POINTS:         	                      501,                       501
! START FREQ:       	               10.000 MHz,                10.000 MHz
! STOP FREQ:        	              110.000 MHz,               110.000 MHz
! SOURCE POWER:     	                     High,                      High
! IFBW:             	                   100 Hz,                    100 Hz
! AVG FACTOR:       	                       1 ,                        1 
! REF PLANE 1:      	                     0 mm,                      0 mm
! REF PLANE 2:      	                     0 mm,                      0 mm
! CAL TYPE:         	                 Full S11,                  Full S11
! CAL METHOD:       	                     SOLT,                      SOLT
! CAL LINE TYPE:    	                     Coax,                      Coax
! DUT PORT 1:       	                N-Conn(F),                 N-Conn(F)
! DUT PORT 2:       	                K-Conn(F),                 K-Conn(F)
! CAL STATUS:       	        OK: Accuracy High,                        --
# GHZ S RI R 50.0
! FREQ.GHZ      S11RE         S11IM         S21RE         S21IM         S12RE         S12IM         S22RE         S22IM
  0.010000000  2.425620E-03  5.145000E-03  1.563900E-05  6.467240E-05  1.000000E+00  0.000000E+00  1.000000E+00  0.000000E+00
  0.010200000  2.466160E-03  5.145780E-03  1.388090E-05  6.487560E-05  1.000000E+00  0.000000E+00  1.000000E+00  0.000000E+00
  0.010400000  2.353010E-03  5.384280E-03  1.781600E-05  6.398710E-05  1.000000E+00  0.000000E+00  1.000000E+00  0.000000E+00
  0.010600000  2.461580E-03  5.346650E-03  1.981500E-05  6.361780E-05  1.000000E+00  0.000000E+00  1.000000E+00  0.000000E+00
  0.010800000  2.538830E-03  5.262960E-03  1.555870E-05  6.031290E-05  1.000000E+00  0.000000E+00  1.000000E+00  0.000000E+00
  0.011000000  2.609530E-03  5.329710E-03  1.919200E-05  5.892300E-05  1.000000E+00  0.000000E+00  1.000000E+00  0.000000E+00
  0.011200000  2.657460E-03  5.531440E-03  1.937010E-05  6.097870E-05  1.000000E+00  0.000000E+00  1.000000E+00  0.000000E+00
  0.011400000  2.464970E-03  5.624150E-03  2.206800E-05  5.736800E-05  1.000000E+00  0.000000E+00  1.000000E+00  0.000000E+00
  0.011600000  2.713850E-03  5.428800E-03  2.050230E-05  5.473350E-05  1.000000E+00  0.000000E+00  1.000000E+00  0.000000E+00
  0.011800000  2.740370E-03  5.331200E-03  1.755900E-05  5.079270E-05  1.000000E+00  0.000000E+00  1.000000E+00  0.000000E+00
  0.012000000  2.704870E-03  5.659550E-03  1.968530E-05  5.172470E-05  1.000000E+00  0.000000E+00  1.000000E+00  0.000000E+00
  0.012200000  2.953150E-03  5.555900E-03  2.152290E-05  5.094090E-05  1.000000E+00  0.000000E+00  1.000000E+00  0.000000E+00
  0.012400000  3.025620E-03  5.591790E-03  2.330760E-05  4.938190E-05  1.000000E+00  0.000000E+00  1.000000E+00  0.000000E+00
  0.012600000  3.039630E-03  5.554290E-03  2.413340E-05  4.611880E-05  1.000000E+00  0.000000E+00  1.000000E+00  0.000000E+00
  0.012800000  3.342310E-03  5.664090E-03  2.122870E-05  4.203220E-05  1.000000E+00  0.000000E+00  1.000000E+00  0.000000E+00
  0.013000000  3.100980E-03  5.699580E-03  2.195750E-05  4.505620E-05  1.000000E+00  0.000000E+00  1.000000E+00  0.000000E+00
  0.013200000  3.330920E-03  5.814850E-03  2.449050E-05  4.017940E-05  1.000000E+00  0.000000E+00  1.000000E+00  0.000000E+00
  0.013400000  3.341170E-03  5.902010E-03  2.183240E-05  4.304850E-05  1.000000E+00  0.000000E+00  1.000000E+00  0.000000E+00
  0.013600000  3.421640E-03  5.778320E-03  2.388090E-05  4.082730E-05  1.000000E+00  0.000000E+00  1.000000E+00  0.000000E+00
  0.013800000  3.585100E-03  6.013160E-03  2.422240E-05  4.164510E-05  1.000000E+00  0.000000E+00  1.000000E+00  0.000000E+00
  0.014000000  3.651660E-03  6.081350E-03  2.494890E-05  3.813560E-05  1.000000E+00  0.000000E+00  1.000000E+00  0.000000E+00
  0.014200000  3.707800E-03  5.985030E-03  2.367120E-05  3.600440E-05  1.000000E+00  0.000000E+00  1.000000E+00  0.000000E+00
  0.014400000  3.798230E-03  6.220340E-03  2.421550E-05  3.564340E-05  1.000000E+00  0.000000E+00  1.000000E+00  0.000000E+00
  0.014600000  3.883210E-03  6.389870E-03  2.619590E-05  3.524810E-05  1.000000E+00  0.000000E+00  1.000000E+00  0.000000E+00
  0.014800000  3.929520E-03  6.505900E-03  2.542420E-05  3.589990E-05  1.000000E+00  0.000000E+00  1.000000E+00  0.000000E+00
  0.015000000  4.034250E-03  6.459360E-03  2.521010E-05  3.399280E-05  1.000000E+00  0.000000E+00  1.000000E+00  0.000000E+00
  0.015200000  4.077870E-03  6.530360E-03  2.487630E-05  3.154870E-05  1.000000E+00  0.000000E+00  1.000000E+00  0.000000E+00
  0.015400000  4.251350E-03  6.749380E-03  2.453840E-05  2.936740E-05  1.000000E+00  0.000000E+00  1.000000E+00  0.000000E+00
  0.015600000  4.050610E-03  6.621080E-03  2.479160E-05  2.808230E-05  1.000000E+00  0.000000E+00  1.000000E+00  0.000000E+00
  0.015800000  4.108220E-03  6.802390E-03  2.313920E-05  2.996960E-05  1.000000E+00  0.000000E+00  1.000000E+00  0.000000E+00
  0.016000000  4.230880E-03  6.918490E-03  2.366720E-05  3.090330E-05  1.000000E+00  0.000000E+00  1.000000E+00  0.000000E+00
  0.016200000  4.392040E-03  6.997910E-03  2.446460E-05  2.735760E-05  1.000000E+00  0.000000E+00  1.000000E+00  0.000000E+00
  0.016400000  4.334060E-03  7.080320E-03  2.599520E-05  2.641880E-05  1.000000E+00  0.000000E+00  1.000000E+00  0.000000E+00
  0.016600000  4.270530E-03  7.139630E-03  2.302840E-05  2.568560E-05  1.000000E+00  0.000000E+00  1.000000E+00  0.000000E+00
  0.016800000  4.406440E-03  7.368270E-03  2.195780E-05  2.590830E-05  1.000000E+00  0.000000E+00  1.000000E+00  0.000000E+00
  0.017000000  4.372810E-03  7.303220E-03  2.315360E-05  2.654560E-05  1.000000E+00  0.000000E+00  1.000000E+00  0.000000E+00
  0.017200000  4.362550E-03  7.340410E-03  2.403930E-05  2.676330E-05  1.000000E+00  0.000000E+00  1.000000E+00  0.000000E+00
  0.017400000  4.333760E-03  7.330840E-03  2.251670E-05  2.377360E-05  1.000000E+00  0.000000E+00  1.000000E+00  0.000000E+00
  0.017600000  4.225780E-03  7.439550E-03  2.381850E-05  2.097160E-05  1.000000E+00  0.000000E+00  1.000000E+00  0.000000E+00
  0.017800000  4.369570E-03  7.173350E-03  2.211150E-05  2.155680E-05  1.000000E+00  0.000000E+00  1.000000E+00  0.000000E+00
  0.018000000  4.506270E-03  7.512480E-03  2.460850E-05  2.507190E-05  1.000000E+00  0.000000E+00  1.000000E+00  0.000000E+00
  0.018200000  4.479000E-03  7.464350E-03  2.400630E-05  2.081600E-05  1.000000E+00  0.000000E+00  1.000000E+00  0.000000E+00
  0.018400000  4.563650E-03  7.513500E-03  2.328350E-05  1.944060E-05  1.000000E+00  0.000000E+00  1.000000E+00  0.000000E+00
  0.018600000  4.599810E-03  7.504030E-03  2.275760E-05  2.000470E-05  1.000000E+00  0.000000E+00  1.000000E+00  0.000000E+00
  0.018800000  4.637810E-03  7.692520E-03  2.171300E-05  2.042180E-05  1.000000E+00  0.000000E+00  1.000000E+00  0.000000E+00
  0.019000000  4.791200E-03  7.655880E-03  2.140850E-05  1.891210E-05  1.000000E+00  0.000000E+00  1.000000E+00  0.000000E+00
  0.019200000  4.847460E-03  7.688720E-03  2.386270E-05  1.668950E-05  1.000000E+00  0.000000E+00  1.000000E+00  0.000000E+00
  0.019400000  4.832670E-03  7.750040E-03  2.183180E-05  1.594180E-05  1.000000E+00  0.000000E+00  1.000000E+00  0.000000E+00
  0.019600000  4.918880E-03  7.679220E-03  1.964860E-05  1.692530E-05  1.000000E+00  0.000000E+00  1.000000E+00  0.000000E+00
  0.019800000  4.953850E-03  7.752300E-03  2.098580E-05  1.783670E-05  1.000000E+00  0.000000E+00  1.000000E+00  0.000000E+00
  0.020000000  4.969260E-03  7.761920E-03  2.040420E-05  1.704200E-05  1.000000E+00  0.000000E+00  1.000000E+00  0.000000E+00
  0.020200000  5.102890E-03  7.823190E-03  2.204910E-05  1.730040E-05  1.000000E+00  0.000000E+00  1.000000E+00  0.000000E+00
  0.020400000  5.240070E-03  7.880750E-03  2.223810E-05  1.776960E-05  1.000000E+00  0.000000E+00  1.000000E+00  0.000000E+00
  0.020600000  5.356270E-03  7.835530E-03  2.407980E-05  1.654260E-05  1.000000E+00  0.000000E+00  1.000000E+00  0.000000E+00
  0.020800000  5.306840E-03  7.994210E-03  2.124180E-05  1.614750E-05  1.000000E+00  0.000000E+00  1.000000E+00  0.000000E+00
  0.021000000  5.361100E-03  8.144970E-03  1.913830E-05  1.250400E-05  1.000000E+00  0.000000E+00  1.000000E+00  0.000000E+00
  0.021200000  5.614470E-03  8.262490E-03  2.568420E-05  1.261400E-05  1.000000E+00  0.000000E+00  1.000000E+00  0.000000E+00
  0.021400000  5.567080E-03  8.211790E-03  2.247390E-05  1.438970E-05  1.000000E+00  0.000000E+00  1.000000E+00  0.000000E+00
  0.021600000  5.681450E-03  8.332120E-03  2.166250E-05  1.165770E-05  1.000000E+00  0.000000E+00  1.000000E+00  0.000000E+00
  0.021800000  5.770980E-03  8.416870E-03  2.133770E-05  1.309320E-05  1.000000E+00  0.000000E+00  1.000000E+00  0.000000E+00
  0.022000000  5.797570E-03  8.380770E-03  2.056840E-05  1.377450E-05  1.000000E+00  0.000000E+00  1.000000E+00  0.000000E+00
  0.022200000  5.964080E-03  8.446310E-03  1.838800E-05  1.077610E-05  1.000000E+00  0.000000E+00  1.000000E+00  0.000000E+00
  0.022400000  5.939720E-03  8.556370E-03  1.853370E-05  1.445080E-05  1.000000E+00  0.000000E+00  1.000000E+00  0.000000E+00
  0.022600000  5.911700E-03  8.555620E-03  2.104180E-05  1.353360E-05  1.000000E+00  0.000000E+00  1.000000E+00  0.000000E+00
  0.022800000  5.845370E-03  8.584360E-03  2.243210E-05  1.212740E-05  1.000000E+00  0.000000E+00  1.000000E+00  0.000000E+00
  0.023000000  6.086570E-03  8.634210E-03  1.986480E-05  1.147040E-05  1.000000E+00  0.000000E+00  1.000000E+00  0.000000E+00
  0.023200000  6.028040E-03  8.817240E-03  2.161480E-05  9.733300E-06  1.000000E+00  0.000000E+00  1.000000E+00  0.000000E+00
  0.023400000  6.212420E-03  9.052260E-03  1.965190E-05  9.831260E-06  1.000000E+00  0.000000E+00  1.000000E+00  0.000000E+00
  0.023600000  6.185120E-03  8.841860E-03  1.936720E-05  1.022460E-05  1.000000E+00  0.000000E+00  1.000000E+00  0.000000E+00
  0.023800000  6.250140E-03  9.121920E-03  1.965040E-05  1.181790E-05  1.000000E+00  0.000000E+00  1.000000E+00  0.000000E+00
  0.024000000  6.133060E-03  9.126790E-03  1.903680E-05  1.030360E-05  1.000000E+00  0.000000E+00  1.000000E+00  0.000000E+00
  0.024200000  6.220320E-03  9.109170E-03  1.880120E-05  1.148270E-05  1.000000E+00  0.000000E+00  1.000000E+00  0.000000E+00
  0.024400000  6.099000E-03  9.264190E-03  1.986970E-05  8.119460E-06  1.000000E+00  0.000000E+00  1.000000E+00  0.000000E+00
  0.024600000  6.227740E-03  9.347660E-03  1.901740E-05  1.071090E-05  1.000000E+00  0.000000E+00  1.000000E+00  0.000000E+00
  0.024800000  6.375830E-03  9.398370E-03  1.993700E-05  8.773100E-06  1.000000E+00  0.000000E+00  1.000000E+00  0.000000E+00
  0.025000000  6.314380E-03  9.416840E-03  1.974480E-05  6.441850E-06  1.000000E+00  0.000000E+00  1.000000E+00  0.000000E+00
  0.025200000  6.376120E-03  9.441450E-03  1.775900E-05  7.516340E-06  1.000000E+00  0.000000E+00  1.000000E+00  0.000000E+00
  0.025400000  6.375060E-03  9.479860E-03  1.818010E-05  8.745520E-06  1.000000E+00  0.000000E+00  1.000000E+00  0.000000E+00
  0.025600000  6.400360E-03  9.553390E-03  1.648340E-05  6.769020E-06  1.000000E+00  0.000000E+00  1.000000E+00  0.000000E+00
  0.025800000  6.418380E-03  9.583280E-03  1.702550E-05  9.292110E-06  1.000000E+00  0.000000E+00  1.000000E+00  0.000000E+00
  0.026000000  6.405910E-03  9.519760E-03  1.578290E-05  6.977690E-06  1.000000E+00  0.000000E+00  1.000000E+00  0.000000E+00
  0.026200000  6.403630E-03  9.491190E-03  1.646660E-05  7.652610E-06  1.000000E+00  0.000000E+00  1.000000E+00  0.000000E+00
  0.026400000  6.353700E-03  9.559140E-03  1.704670E-05  4.708550E-06  1.000000E+00  0.000000E+00  1.000000E+00  0.000000E+00
  0.026600000  6.518920E-03  9.676390E-03  1.816570E-05  4.531040E-06  1.000000E+00  0.000000E+00  1.000000E+00  0.000000E+00
  0.026800000  6.557330E-03  9.658640E-03  1.713450E-05  6.885210E-06  1.000000E+00  0.000000E+00  1.000000E+00  0.000000E+00
  0.027000000  6.423940E-03  9.604240E-03  1.719040E-05  5.211280E-06  1.000000E+00  0.000000E+00  1.000000E+00  0.000000E+00
  0.027200000  6.602820E-03  9.673790E-03  1.691030E-05  4.984500E-06  1.000000E+00  0.000000E+00  1.000000E+00  0.000000E+00
  0.027400000  6.572070E-03  9.742720E-03  1.639230E-05  5.116390E-06  1.000000E+00  0.000000E+00  1.000000E+00  0.000000E+00
  0.027600000  6.691110E-03  9.705500E-03  1.501360E-05  5.667260E-06  1.000000E+00  0.000000E+00  1.000000E+00  0.000000E+00
  0.027800000  6.752120E-03  9.625310E-03  1.451990E-05  5.665700E-06  1.000000E+00  0.000000E+00  1.000000E+00  0.000000E+00
  0.028000000  6.832680E-03  9.656750E-03  1.597540E-05  4.409270E-06  1.000000E+00  0.000000E+00  1.000000E+00  0.000000E+00
  0.028200000  6.858960E-03  9.668540E-03  1.199240E-05  4.257000E-06  1.000000E+00  0.000000E+00  1.000000E+00  0.000000E+00
  0.028400000  6.772980E-03  9.623470E-03  1.434580E-05  6.478280E-06  1.000000E+00  0.000000E+00  1.000000E+00  0.000000E+00
  0.028600000  6.936570E-03  9.685850E-03  1.510820E-05  4.625550E-06  1.000000E+00  0.000000E+00  1.000000E+00  0.000000E+00
  0.028800000  7.062880E-03  9.763130E-03  1.365010E-05  5.086750E-06  1.000000E+00  0.000000E+00  1.000000E+00  0.000000E+00
  0.029000000  7.090810E-03  9.516750E-03  1.438660E-05  4.011180E-06  1.000000E+00  0.000000E+00  1.000000E+00  0.000000E+00
  0.029200000  7.260390E-03  9.533250E-03  1.465620E-05  5.460100E-06  1.000000E+00  0.000000E+00  1.000000E+00  0.000000E+00
  0.029400000  7.278240E-03  9.741950E-03  1.298740E-05  3.733860E-06  1.000000E+00  0.000000E+00  1.000000E+00  0.000000E+00
  0.029600000  7.434880E-03  9.850180E-03  1.435800E-05  5.024870E-06  1.000000E+00  0.000000E+00  1.000000E+00  0.000000E+00
  0.029800000  7.338030E-03  9.630290E-03  1.221830E-05  3.521540E-06  1.000000E+00  0.000000E+00  1.000000E+00  0.000000E+00
  0.030000000  7.550910E-03  9.665780E-03  1.417150E-05  4.945380E-06  1.000000E+00  0.000000E+00  1.000000E+00  0.000000E+00
  0.030200000  7.521860E-03  9.746260E-03  1.354740E-05  4.278640E-06  1.000000E+00  0.000000E+00  1.000000E+00  0.000000E+00
  0.030400000  7.837040E-03  9.741200E-03  1.382580E-05  3.383670E-06  1.000000E+00  0.000000E+00  1.000000E+00  0.000000E+00
  0.030600000  7.888630E-03  9.816370E-03  1.440390E-05  3.262500E-06  1.000000E+00  0.000000E+00  1.000000E+00  0.000000E+00
  0.030800000  7.831500E-03  9.856980E-03  1.188120E-05  3.708370E-06  1.000000E+00  0.000000E+00  1.000000E+00  0.000000E+00
  0.031000000  7.925410E-03  9.885280E-03  1.382450E-05  5.550370E-06  1.000000E+00  0.000000E+00  1.000000E+00  0.000000E+00
  0.031200000  8.242280E-03  1.017650E-02  1.353590E-05  3.691140E-06  1.000000E+00  0.000000E+00  1.000000E+00  0.000000E+00
  0.031400000  7.939840E-03  9.869130E-03  1.439260E-05  1.966740E-06  1.000000E+00  0.000000E+00  1.000000E+00  0.000000E+00
  0.031600000  8.240280E-03  9.952530E-03  1.378290E-05  1.839450E-06  1.000000E+00  0.000000E+00  1.000000E+00  0.000000E+00
  0.031800000  8.285100E-03  9.941580E-03  1.135250E-05  4.155050E-06  1.000000E+00  0.000000E+00  1.000000E+00  0.000000E+00
  0.032000000  8.404730E-03  9.998900E-03  1.398890E-05  8.639830E-07  1.000000E+00  0.000000E+00  1.000000E+00  0.000000E+00
  0.032200000  8.209980E-03  1.009990E-02  1.360460E-05  2.720440E-06  1.000000E+00  0.000000E+00  1.000000E+00  0.000000E+00
  0.032400000  8.531970E-03  1.010750E-02  1.337740E-05  4.193020E-06  1.000000E+00  0.000000E+00  1.000000E+00  0.000000E+00
  0.032600000  8.471410E-03  1.027930E-02  1.262190E-05  4.147220E-06  1.000000E+00  0.000000E+00  1.000000E+00  0.000000E+00
  0.032800000  8.610790E-03  1.035760E-02  8.335060E-06  2.168740E-06  1.000000E+00  0.000000E+00  1.000000E+00  0.000000E+00
  0.033000000  8.594370E-03  1.035240E-02  1.235800E-05  3.317730E-06  1.000000E+00  0.000000E+00  1.000000E+00  0.000000E+00
  0.033200000  8.695520E-03  1.028530E-02  1.262730E-05  4.776730E-06  1.000000E+00  0.000000E+00  1.000000E+00  0.000000E+00
  0.033400000  8.833720E-03  1.037410E-02  1.182680E-05  3.777410E-06  1.000000E+00  0.000000E+00  1.000000E+00  0.000000E+00
  0.033600000  8.704080E-03  1.027570E-02  1.169090E-05  2.386350E-06  1.000000E+00  0.000000E+00  1.000000E+00  0.000000E+00
  0.033800000  8.861530E-03  1.062300E-02  1.212660E-05  4.064360E-06  1.000000E+00  0.000000E+00  1.000000E+00  0.000000E+00
  0.034000000  8.913500E-03  1.068090E-02  1.397140E-05  2.210480E-06  1.000000E+00  0.000000E+00  1.000000E+00  0.000000E+00
  0.034200000  9.086390E-03  1.037180E-02  1.270410E-05  2.231940E-06  1.000000E+00  0.000000E+00  1.000000E+00  0.000000E+00
  0.034400000  9.082350E-03  1.067360E-02  1.146970E-05  4.080750E-06  1.000000E+00  0.000000E+00  1.000000E+00  0.000000E+00
  0.034600000  9.191140E-03  1.043510E-02  1.098620E-05  2.465760E-06  1.000000E+00  0.000000E+00  1.000000E+00  0.000000E+00
  0.034800000  9.165480E-03  1.053020E-02  9.230980E-06  2.382020E-06  1.000000E+00  0.000000E+00  1.000000E+00  0.000000E+00
  0.035000000  9.216280E-03  1.059370E-02  1.336820E-05  2.277580E-06  1.000000E+00  0.000000E+00  1.000000E+00  0.000000E+00
  0.035200000  9.371270E-03  1.068900E-02  1.228300E-05  3.582550E-06  1.000000E+00  0.000000E+00  1.000000E+00  0.000000E+00
  0.035400000  9.462900E-03  1.049430E-02  1.174330E-05  3.146410E-06  1.000000E+00  0.000000E+00  1.000000E+00  0.000000E+00
  0.035600000  9.470960E-03  1.053010E-02  1.054640E-05  3.165380E-06  1.000000E+00  0.000000E+00  1.000000E+00  0.000000E+00
  0.035800000  9.619030E-03  1.077000E-02  1.183460E-05  2.327640E-06  1.000000E+00  0.000000E+00  1.000000E+00  0.000000E+00
  0.036000000  9.675290E-03  1.082910E-02  1.148580E-05  3.380510E-06  1.000000E+00  0.000000E+00  1.000000E+00  0.000000E+00
  0.036200000  9.580300E-03  1.086750E-02  8.102720E-06  2.989430E-06  1.000000E+00  0.000000E+00  1.000000E+00  0.000000E+00
  0.036400000  9.613930E-03  1.087810E-02  1.051190E-05  1.403220E-06  1.000000E+00  0.000000E+00  1.000000E+00  0.000000E+00
  0.036600000  9.862200E-03  1.067570E-02  1.079490E-05  1.455420E-06  1.000000E+00  0.000000E+00  1.000000E+00  0.000000E+00
  0.036800000  9.834800E-03  1.085320E-02  8.285420E-06  2.315240E-06  1.000000E+00  0.000000E+00  1.000000E+00  0.000000E+00
  0.037000000  9.959150E-03  1.089690E-02  1.217750E-05  2.412560E-06  1.000000E+00  0.000000E+00  1.000000E+00  0.000000E+00
  0.037200000  1.004270E-02  1.087730E-02  1.151200E-05  2.286770E-06  1.000000E+00  0.000000E+00  1.000000E+00  0.000000E+00
  0.037400000  9.972920E-03  1.079100E-02  9.879740E-06  2.064370E-06  1.000000E+00  0.000000E+00  1.000000E+00  0.000000E+00
  0.037600000  1.016750E-02  1.080790E-02  8.788820E-06  3.509640E-06  1.000000E+00  0.000000E+00  1.000000E+00  0.000000E+00
  0.037800000  1.012690E-02  1.099650E-02  9.331500E-06  3.007670E-06  1.000000E+00  0.000000E+00  1.000000E+00  0.000000E+00
  0.038000000  1.036220E-02  1.091320E-02  9.467530E-06  1.924960E-06  1.000000E+00  0.000000E+00  1.000000E+00  0.000000E+00
  0.038200000  1.041360E-02  1.097190E-02  1.138520E-05  2.546800E-06  1.000000E+00  0.000000E+00  1.000000E+00  0.000000E+00
  0.038400000  1.054220E-02  1.103970E-02  9.736860E-06 -1.865470E-06  1.000000E+00  0.000000E+00  1.000000E+00  0.000000E+00
  0.038600000  1.059130E-02  1.113990E-02  9.495160E-06 -1.831330E-06  1.000000E+00  0.000000E+00  1.000000E+00  0.000000E+00
