! Anritsu VNA Master:                     Model: MS2036C/10/77
! SN:                                  1601066
! /card0/usr/256.ew.sma.r200.12.s2p
! Existing Calibration Information:
! TYPE:                         Current Settings,       Active Cal Settings
! TIME:             	   12/19/2017 02:35:33 PM,    12/19/2017 02:22:10 PM
! INTERNAL TEMP:    	                   46.3 C,                    45.0 C
! # POINTS:         	                      501,                       501
! START FREQ:       	               10.000 MHz,                10.000 MHz
! STOP FREQ:        	              110.000 MHz,               110.000 MHz
! SOURCE POWER:     	                     High,                      High
! IFBW:             	                   100 Hz,                    100 Hz
! AVG FACTOR:       	                       1 ,                        1 
! REF PLANE 1:      	                     0 mm,                      0 mm
! REF PLANE 2:      	                     0 mm,                      0 mm
! CAL TYPE:         	                 Full S11,                  Full S11
! CAL METHOD:       	                     SOLT,                      SOLT
! CAL LINE TYPE:    	                     Coax,                      Coax
! DUT PORT 1:       	                N-Conn(F),                 N-Conn(F)
! DUT PORT 2:       	                K-Conn(F),                 K-Conn(F)
! CAL STATUS:       	        OK: Accuracy High,                        --
# GHZ S RI R 50.0
! FREQ.GHZ      S11RE         S11IM         S21RE         S21IM         S12RE         S12IM         S22RE         S22IM
  0.010000000  5.810760E-01 -1.102850E-01  1.637820E-05  5.889630E-05  1.000000E+00  0.000000E+00  1.000000E+00  0.000000E+00
  0.010200000  5.813950E-01 -1.124400E-01  1.472270E-05  5.518320E-05  1.000000E+00  0.000000E+00  1.000000E+00  0.000000E+00
  0.010400000  5.808500E-01 -1.150020E-01  1.434540E-05  5.538620E-05  1.000000E+00  0.000000E+00  1.000000E+00  0.000000E+00
  0.010600000  5.803400E-01 -1.166430E-01  1.126690E-05  5.417640E-05  1.000000E+00  0.000000E+00  1.000000E+00  0.000000E+00
  0.010800000  5.798450E-01 -1.191770E-01  1.174780E-05  5.157940E-05  1.000000E+00  0.000000E+00  1.000000E+00  0.000000E+00
  0.011000000  5.792360E-01 -1.212020E-01  1.369110E-05  5.613770E-05  1.000000E+00  0.000000E+00  1.000000E+00  0.000000E+00
  0.011200000  5.789330E-01 -1.238080E-01  1.343770E-05  5.521630E-05  1.000000E+00  0.000000E+00  1.000000E+00  0.000000E+00
  0.011400000  5.781590E-01 -1.259580E-01  1.774360E-05  5.470630E-05  1.000000E+00  0.000000E+00  1.000000E+00  0.000000E+00
  0.011600000  5.775540E-01 -1.284590E-01  1.357600E-05  5.451910E-05  1.000000E+00  0.000000E+00  1.000000E+00  0.000000E+00
  0.011800000  5.773170E-01 -1.307520E-01  1.591750E-05  5.204200E-05  1.000000E+00  0.000000E+00  1.000000E+00  0.000000E+00
  0.012000000  5.769930E-01 -1.330020E-01  1.649330E-05  5.207710E-05  1.000000E+00  0.000000E+00  1.000000E+00  0.000000E+00
  0.012200000  5.763210E-01 -1.353580E-01  1.707280E-05  5.426020E-05  1.000000E+00  0.000000E+00  1.000000E+00  0.000000E+00
  0.012400000  5.758000E-01 -1.375160E-01  1.811010E-05  5.142340E-05  1.000000E+00  0.000000E+00  1.000000E+00  0.000000E+00
  0.012600000  5.751770E-01 -1.398030E-01  1.846430E-05  5.295520E-05  1.000000E+00  0.000000E+00  1.000000E+00  0.000000E+00
  0.012800000  5.748350E-01 -1.419240E-01  2.044270E-05  5.269710E-05  1.000000E+00  0.000000E+00  1.000000E+00  0.000000E+00
  0.013000000  5.740260E-01 -1.439520E-01  2.506600E-05  5.077110E-05  1.000000E+00  0.000000E+00  1.000000E+00  0.000000E+00
  0.013200000  5.737190E-01 -1.461820E-01  2.459180E-05  5.142360E-05  1.000000E+00  0.000000E+00  1.000000E+00  0.000000E+00
  0.013400000  5.730330E-01 -1.483590E-01  2.354900E-05  4.722790E-05  1.000000E+00  0.000000E+00  1.000000E+00  0.000000E+00
  0.013600000  5.727490E-01 -1.507810E-01  2.608870E-05  4.783970E-05  1.000000E+00  0.000000E+00  1.000000E+00  0.000000E+00
  0.013800000  5.723560E-01 -1.527850E-01  2.436800E-05  4.396020E-05  1.000000E+00  0.000000E+00  1.000000E+00  0.000000E+00
  0.014000000  5.718030E-01 -1.549820E-01  3.087330E-05  4.030090E-05  1.000000E+00  0.000000E+00  1.000000E+00  0.000000E+00
  0.014200000  5.710950E-01 -1.571530E-01  2.892520E-05  3.702070E-05  1.000000E+00  0.000000E+00  1.000000E+00  0.000000E+00
  0.014400000  5.705530E-01 -1.593480E-01  2.881310E-05  3.905180E-05  1.000000E+00  0.000000E+00  1.000000E+00  0.000000E+00
  0.014600000  5.699840E-01 -1.614810E-01  2.792400E-05  3.639380E-05  1.000000E+00  0.000000E+00  1.000000E+00  0.000000E+00
  0.014800000  5.692320E-01 -1.636090E-01  2.875130E-05  3.372030E-05  1.000000E+00  0.000000E+00  1.000000E+00  0.000000E+00
  0.015000000  5.686070E-01 -1.656500E-01  2.853710E-05  3.236030E-05  1.000000E+00  0.000000E+00  1.000000E+00  0.000000E+00
  0.015200000  5.678390E-01 -1.676060E-01  2.900910E-05  2.953390E-05  1.000000E+00  0.000000E+00  1.000000E+00  0.000000E+00
  0.015400000  5.670960E-01 -1.699890E-01  2.631400E-05  2.783810E-05  1.000000E+00  0.000000E+00  1.000000E+00  0.000000E+00
  0.015600000  5.665680E-01 -1.718190E-01  2.734980E-05  3.130820E-05  1.000000E+00  0.000000E+00  1.000000E+00  0.000000E+00
  0.015800000  5.656470E-01 -1.743520E-01  2.714580E-05  2.458460E-05  1.000000E+00  0.000000E+00  1.000000E+00  0.000000E+00
  0.016000000  5.648780E-01 -1.764770E-01  2.596190E-05  2.515380E-05  1.000000E+00  0.000000E+00  1.000000E+00  0.000000E+00
  0.016200000  5.641850E-01 -1.783220E-01  2.643560E-05  2.320160E-05  1.000000E+00  0.000000E+00  1.000000E+00  0.000000E+00
  0.016400000  5.632900E-01 -1.804050E-01  2.262970E-05  2.401120E-05  1.000000E+00  0.000000E+00  1.000000E+00  0.000000E+00
  0.016600000  5.625930E-01 -1.826200E-01  2.262050E-05  2.318400E-05  1.000000E+00  0.000000E+00  1.000000E+00  0.000000E+00
  0.016800000  5.617110E-01 -1.846180E-01  2.320300E-05  2.157450E-05  1.000000E+00  0.000000E+00  1.000000E+00  0.000000E+00
  0.017000000  5.609660E-01 -1.870540E-01  2.330290E-05  2.305270E-05  1.000000E+00  0.000000E+00  1.000000E+00  0.000000E+00
  0.017200000  5.605140E-01 -1.892940E-01  1.953210E-05  2.286490E-05  1.000000E+00  0.000000E+00  1.000000E+00  0.000000E+00
  0.017400000  5.595570E-01 -1.915170E-01  2.387320E-05  2.064680E-05  1.000000E+00  0.000000E+00  1.000000E+00  0.000000E+00
  0.017600000  5.587840E-01 -1.937970E-01  1.893560E-05  2.374860E-05  1.000000E+00  0.000000E+00  1.000000E+00  0.000000E+00
  0.017800000  5.579360E-01 -1.958880E-01  2.152170E-05  2.151700E-05  1.000000E+00  0.000000E+00  1.000000E+00  0.000000E+00
  0.018000000  5.573220E-01 -1.979060E-01  2.073030E-05  2.013050E-05  1.000000E+00  0.000000E+00  1.000000E+00  0.000000E+00
  0.018200000  5.563960E-01 -1.998810E-01  2.103750E-05  2.077120E-05  1.000000E+00  0.000000E+00  1.000000E+00  0.000000E+00
  0.018400000  5.552860E-01 -2.020330E-01  2.009140E-05  2.391880E-05  1.000000E+00  0.000000E+00  1.000000E+00  0.000000E+00
  0.018600000  5.543570E-01 -2.041750E-01  2.015770E-05  1.827790E-05  1.000000E+00  0.000000E+00  1.000000E+00  0.000000E+00
  0.018800000  5.535520E-01 -2.064550E-01  2.131450E-05  2.425090E-05  1.000000E+00  0.000000E+00  1.000000E+00  0.000000E+00
  0.019000000  5.528890E-01 -2.085730E-01  2.333020E-05  1.901790E-05  1.000000E+00  0.000000E+00  1.000000E+00  0.000000E+00
  0.019200000  5.519580E-01 -2.105280E-01  2.143520E-05  1.819740E-05  1.000000E+00  0.000000E+00  1.000000E+00  0.000000E+00
  0.019400000  5.513620E-01 -2.125430E-01  2.297760E-05  1.930510E-05  1.000000E+00  0.000000E+00  1.000000E+00  0.000000E+00
  0.019600000  5.504500E-01 -2.146260E-01  2.557560E-05  2.010670E-05  1.000000E+00  0.000000E+00  1.000000E+00  0.000000E+00
  0.019800000  5.497200E-01 -2.166900E-01  2.260630E-05  1.957540E-05  1.000000E+00  0.000000E+00  1.000000E+00  0.000000E+00
  0.020000000  5.489930E-01 -2.187140E-01  2.169960E-05  2.008920E-05  1.000000E+00  0.000000E+00  1.000000E+00  0.000000E+00
  0.020200000  5.483110E-01 -2.210440E-01  2.335970E-05  1.732990E-05  1.000000E+00  0.000000E+00  1.000000E+00  0.000000E+00
  0.020400000  5.474740E-01 -2.227630E-01  2.307890E-05  1.870740E-05  1.000000E+00  0.000000E+00  1.000000E+00  0.000000E+00
  0.020600000  5.469470E-01 -2.251680E-01  2.085340E-05  1.855050E-05  1.000000E+00  0.000000E+00  1.000000E+00  0.000000E+00
  0.020800000  5.460160E-01 -2.271460E-01  2.252360E-05  1.671450E-05  1.000000E+00  0.000000E+00  1.000000E+00  0.000000E+00
  0.021000000  5.451620E-01 -2.294130E-01  2.454380E-05  1.488090E-05  1.000000E+00  0.000000E+00  1.000000E+00  0.000000E+00
  0.021200000  5.439210E-01 -2.312640E-01  2.403240E-05  1.531380E-05  1.000000E+00  0.000000E+00  1.000000E+00  0.000000E+00
  0.021400000  5.430490E-01 -2.334470E-01  2.312680E-05  1.274100E-05  1.000000E+00  0.000000E+00  1.000000E+00  0.000000E+00
  0.021600000  5.423250E-01 -2.355280E-01  2.101260E-05  1.432180E-05  1.000000E+00  0.000000E+00  1.000000E+00  0.000000E+00
  0.021800000  5.413340E-01 -2.374110E-01  2.398240E-05  1.286700E-05  1.000000E+00  0.000000E+00  1.000000E+00  0.000000E+00
  0.022000000  5.402640E-01 -2.392970E-01  2.119760E-05  1.388830E-05  1.000000E+00  0.000000E+00  1.000000E+00  0.000000E+00
  0.022200000  5.394930E-01 -2.414800E-01  2.130840E-05  1.334450E-05  1.000000E+00  0.000000E+00  1.000000E+00  0.000000E+00
  0.022400000  5.385440E-01 -2.434510E-01  1.718010E-05  9.243870E-06  1.000000E+00  0.000000E+00  1.000000E+00  0.000000E+00
  0.022600000  5.376390E-01 -2.452320E-01  2.248060E-05  8.705610E-06  1.000000E+00  0.000000E+00  1.000000E+00  0.000000E+00
  0.022800000  5.362620E-01 -2.470720E-01  1.810370E-05  1.002140E-05  1.000000E+00  0.000000E+00  1.000000E+00  0.000000E+00
  0.023000000  5.353290E-01 -2.491800E-01  1.809310E-05  1.021940E-05  1.000000E+00  0.000000E+00  1.000000E+00  0.000000E+00
  0.023200000  5.344210E-01 -2.510400E-01  2.112120E-05  9.718390E-06  1.000000E+00  0.000000E+00  1.000000E+00  0.000000E+00
  0.023400000  5.332710E-01 -2.533740E-01  1.838940E-05  7.856770E-06  1.000000E+00  0.000000E+00  1.000000E+00  0.000000E+00
  0.023600000  5.322820E-01 -2.554790E-01  1.578860E-05  7.391430E-06  1.000000E+00  0.000000E+00  1.000000E+00  0.000000E+00
  0.023800000  5.312030E-01 -2.573220E-01  1.567600E-05  1.000340E-05  1.000000E+00  0.000000E+00  1.000000E+00  0.000000E+00
  0.024000000  5.303970E-01 -2.594800E-01  1.707640E-05  8.719100E-06  1.000000E+00  0.000000E+00  1.000000E+00  0.000000E+00
  0.024200000  5.295800E-01 -2.618250E-01  1.777800E-05  1.035240E-05  1.000000E+00  0.000000E+00  1.000000E+00  0.000000E+00
  0.024400000  5.284860E-01 -2.640840E-01  1.834550E-05  8.008170E-06  1.000000E+00  0.000000E+00  1.000000E+00  0.000000E+00
  0.024600000  5.272680E-01 -2.660380E-01  1.572600E-05  1.137040E-05  1.000000E+00  0.000000E+00  1.000000E+00  0.000000E+00
  0.024800000  5.262810E-01 -2.679940E-01  1.802540E-05  1.084160E-05  1.000000E+00  0.000000E+00  1.000000E+00  0.000000E+00
  0.025000000  5.253980E-01 -2.701180E-01  1.735370E-05  6.727280E-06  1.000000E+00  0.000000E+00  1.000000E+00  0.000000E+00
  0.025200000  5.243030E-01 -2.720160E-01  1.716750E-05  8.427520E-06  1.000000E+00  0.000000E+00  1.000000E+00  0.000000E+00
  0.025400000  5.232140E-01 -2.735690E-01  1.797310E-05  9.914920E-06  1.000000E+00  0.000000E+00  1.000000E+00  0.000000E+00
  0.025600000  5.221060E-01 -2.755340E-01  1.589830E-05  9.558330E-06  1.000000E+00  0.000000E+00  1.000000E+00  0.000000E+00
  0.025800000  5.211050E-01 -2.772100E-01  1.604290E-05  8.463770E-06  1.000000E+00  0.000000E+00  1.000000E+00  0.000000E+00
  0.026000000  5.198810E-01 -2.789760E-01  1.778390E-05  8.448700E-06  1.000000E+00  0.000000E+00  1.000000E+00  0.000000E+00
  0.026200000  5.188050E-01 -2.809470E-01  1.884060E-05  5.432880E-06  1.000000E+00  0.000000E+00  1.000000E+00  0.000000E+00
  0.026400000  5.174490E-01 -2.829580E-01  1.711910E-05  6.998250E-06  1.000000E+00  0.000000E+00  1.000000E+00  0.000000E+00
  0.026600000  5.162970E-01 -2.847700E-01  1.834240E-05  7.474130E-06  1.000000E+00  0.000000E+00  1.000000E+00  0.000000E+00
  0.026800000  5.152710E-01 -2.869080E-01  1.641020E-05  8.464400E-06  1.000000E+00  0.000000E+00  1.000000E+00  0.000000E+00
  0.027000000  5.139570E-01 -2.889970E-01  1.681370E-05  7.096450E-06  1.000000E+00  0.000000E+00  1.000000E+00  0.000000E+00
  0.027200000  5.126910E-01 -2.911130E-01  1.710570E-05  4.663330E-06  1.000000E+00  0.000000E+00  1.000000E+00  0.000000E+00
  0.027400000  5.114020E-01 -2.931940E-01  1.909490E-05  4.727760E-06  1.000000E+00  0.000000E+00  1.000000E+00  0.000000E+00
  0.027600000  5.101640E-01 -2.951730E-01  1.740700E-05  6.473800E-06  1.000000E+00  0.000000E+00  1.000000E+00  0.000000E+00
  0.027800000  5.089060E-01 -2.973910E-01  1.513870E-05  3.753070E-06  1.000000E+00  0.000000E+00  1.000000E+00  0.000000E+00
  0.028000000  5.073920E-01 -2.995230E-01  1.340340E-05  3.534280E-06  1.000000E+00  0.000000E+00  1.000000E+00  0.000000E+00
  0.028200000  5.060130E-01 -3.017270E-01  1.549710E-05  4.426550E-06  1.000000E+00  0.000000E+00  1.000000E+00  0.000000E+00
  0.028400000  5.048540E-01 -3.039780E-01  1.414450E-05  5.078900E-06  1.000000E+00  0.000000E+00  1.000000E+00  0.000000E+00
  0.028600000  5.040170E-01 -3.060200E-01  1.549110E-05  4.558280E-06  1.000000E+00  0.000000E+00  1.000000E+00  0.000000E+00
  0.028800000  5.031250E-01 -3.077750E-01  1.400370E-05  4.725290E-06  1.000000E+00  0.000000E+00  1.000000E+00  0.000000E+00
  0.029000000  5.020780E-01 -3.096110E-01  1.471760E-05  4.029370E-06  1.000000E+00  0.000000E+00  1.000000E+00  0.000000E+00
  0.029200000  5.012370E-01 -3.112930E-01  1.505150E-05  4.362940E-06  1.000000E+00  0.000000E+00  1.000000E+00  0.000000E+00
  0.029400000  5.001460E-01 -3.130220E-01  1.370100E-05  4.226330E-06  1.000000E+00  0.000000E+00  1.000000E+00  0.000000E+00
  0.029600000  4.990620E-01 -3.142800E-01  1.484950E-05  6.658140E-06  1.000000E+00  0.000000E+00  1.000000E+00  0.000000E+00
  0.029800000  4.976850E-01 -3.160450E-01  1.199020E-05  2.795670E-06  1.000000E+00  0.000000E+00  1.000000E+00  0.000000E+00
  0.030000000  4.962800E-01 -3.176570E-01  1.445050E-05  2.654270E-06  1.000000E+00  0.000000E+00  1.000000E+00  0.000000E+00
  0.030200000  4.946900E-01 -3.194330E-01  1.310960E-05  2.866580E-06  1.000000E+00  0.000000E+00  1.000000E+00  0.000000E+00
  0.030400000  4.931210E-01 -3.214290E-01  1.152830E-05  4.760750E-06  1.000000E+00  0.000000E+00  1.000000E+00  0.000000E+00
  0.030600000  4.916720E-01 -3.235630E-01  1.319120E-05  4.332270E-06  1.000000E+00  0.000000E+00  1.000000E+00  0.000000E+00
  0.030800000  4.902670E-01 -3.257760E-01  1.145390E-05  5.140420E-06  1.000000E+00  0.000000E+00  1.000000E+00  0.000000E+00
  0.031000000  4.888340E-01 -3.280880E-01  1.237650E-05  5.512760E-06  1.000000E+00  0.000000E+00  1.000000E+00  0.000000E+00
  0.031200000  4.878640E-01 -3.299790E-01  1.516360E-05  1.465900E-06  1.000000E+00  0.000000E+00  1.000000E+00  0.000000E+00
  0.031400000  4.862580E-01 -3.323110E-01  1.388890E-05  3.862800E-06  1.000000E+00  0.000000E+00  1.000000E+00  0.000000E+00
  0.031600000  4.851660E-01 -3.341500E-01  1.084700E-05  2.479340E-06  1.000000E+00  0.000000E+00  1.000000E+00  0.000000E+00
  0.031800000  4.840850E-01 -3.361810E-01  1.245760E-05  8.326170E-07  1.000000E+00  0.000000E+00  1.000000E+00  0.000000E+00
  0.032000000  4.832030E-01 -3.383350E-01  1.282070E-05  4.167550E-06  1.000000E+00  0.000000E+00  1.000000E+00  0.000000E+00
  0.032200000  4.822680E-01 -3.402260E-01  1.326090E-05  4.513040E-06  1.000000E+00  0.000000E+00  1.000000E+00  0.000000E+00
  0.032400000  4.813900E-01 -3.423210E-01  1.458140E-05  2.200890E-06  1.000000E+00  0.000000E+00  1.000000E+00  0.000000E+00
  0.032600000  4.806040E-01 -3.440840E-01  1.264820E-05  2.898650E-06  1.000000E+00  0.000000E+00  1.000000E+00  0.000000E+00
  0.032800000  4.795540E-01 -3.456710E-01  1.019630E-05  9.607199E-07  1.000000E+00  0.000000E+00  1.000000E+00  0.000000E+00
  0.033000000  4.785450E-01 -3.473870E-01  1.211880E-05  2.169470E-06  1.000000E+00  0.000000E+00  1.000000E+00  0.000000E+00
  0.033200000  4.773620E-01 -3.488960E-01  1.243070E-05  2.954150E-06  1.000000E+00  0.000000E+00  1.000000E+00  0.000000E+00
  0.033400000  4.760310E-01 -3.506630E-01  1.138930E-05  2.037340E-06  1.000000E+00  0.000000E+00  1.000000E+00  0.000000E+00
  0.033600000  4.745850E-01 -3.522300E-01  1.332380E-05  1.594730E-06  1.000000E+00  0.000000E+00  1.000000E+00  0.000000E+00
  0.033800000  4.731600E-01 -3.536700E-01  1.318700E-05  1.251830E-06  1.000000E+00  0.000000E+00  1.000000E+00  0.000000E+00
  0.034000000  4.716500E-01 -3.554010E-01  1.215450E-05  4.848570E-06  1.000000E+00  0.000000E+00  1.000000E+00  0.000000E+00
  0.034200000  4.702600E-01 -3.572250E-01  1.090250E-05  4.777730E-06  1.000000E+00  0.000000E+00  1.000000E+00  0.000000E+00
  0.034400000  4.686720E-01 -3.586820E-01  1.055220E-05  3.004320E-06  1.000000E+00  0.000000E+00  1.000000E+00  0.000000E+00
  0.034600000  4.669090E-01 -3.605650E-01  1.152510E-05 -3.956470E-07  1.000000E+00  0.000000E+00  1.000000E+00  0.000000E+00
  0.034800000  4.651640E-01 -3.623320E-01  1.331610E-05  6.233510E-06  1.000000E+00  0.000000E+00  1.000000E+00  0.000000E+00
  0.035000000  4.633100E-01 -3.640300E-01  9.176370E-06  2.399560E-06  1.000000E+00  0.000000E+00  1.000000E+00  0.000000E+00
  0.035200000  4.618170E-01 -3.656830E-01  1.293610E-05 -5.678000E-07  1.000000E+00  0.000000E+00  1.000000E+00  0.000000E+00
  0.035400000  4.602170E-01 -3.674640E-01  1.282190E-05 -2.395980E-07  1.000000E+00  0.000000E+00  1.000000E+00  0.000000E+00
  0.035600000  4.587360E-01 -3.693720E-01  1.207380E-05  2.633670E-06  1.000000E+00  0.000000E+00  1.000000E+00  0.000000E+00
  0.035800000  4.573300E-01 -3.709720E-01  1.058580E-05  2.715780E-06  1.000000E+00  0.000000E+00  1.000000E+00  0.000000E+00
  0.036000000  4.557900E-01 -3.728220E-01  1.112880E-05  2.494260E-06  1.000000E+00  0.000000E+00  1.000000E+00  0.000000E+00
  0.036200000  4.544220E-01 -3.749060E-01  1.060840E-05  1.397450E-06  1.000000E+00  0.000000E+00  1.000000E+00  0.000000E+00
  0.036400000  4.529890E-01 -3.768310E-01  1.206080E-05  1.940360E-06  1.000000E+00  0.000000E+00  1.000000E+00  0.000000E+00
  0.036600000  4.517770E-01 -3.788100E-01  9.256320E-06  1.378610E-06  1.000000E+00  0.000000E+00  1.000000E+00  0.000000E+00
  0.036800000  4.507340E-01 -3.802730E-01  1.280650E-05  1.906530E-06  1.000000E+00  0.000000E+00  1.000000E+00  0.000000E+00
  0.037000000  4.496030E-01 -3.818720E-01  1.263560E-05  1.757430E-06  1.000000E+00  0.000000E+00  1.000000E+00  0.000000E+00
  0.037200000  4.485870E-01 -3.831420E-01  9.233190E-06  3.009390E-06  1.000000E+00  0.000000E+00  1.000000E+00  0.000000E+00
  0.037400000  4.470760E-01 -3.847220E-01  1.095870E-05 -7.256500E-08  1.000000E+00  0.000000E+00  1.000000E+00  0.000000E+00
  0.037600000  4.455470E-01 -3.859110E-01  8.635860E-06  1.722950E-06  1.000000E+00  0.000000E+00  1.000000E+00  0.000000E+00
  0.037800000  4.435810E-01 -3.871670E-01  1.143560E-05  5.790320E-07  1.000000E+00  0.000000E+00  1.000000E+00  0.000000E+00
  0.038000000  4.417720E-01 -3.886990E-01  1.018380E-05  1.952020E-06  1.000000E+00  0.000000E+00  1.000000E+00  0.000000E+00
  0.038200000  4.396870E-01 -3.902930E-01  1.180920E-05  2.782560E-06  1.000000E+00  0.000000E+00  1.000000E+00  0.000000E+00
  0.038400000  4.377510E-01 -3.918420E-01  1.119750E-05  3.581460E-06  1.000000E+00  0.000000E+00  1.000000E+00  0.000000E+00
  0.038600000  4.359280E-01 -3.933550E-01  1.195690E-05  2.993890E-06  1.000000E+00  0.000000E+00  1.000000E+00  0.000000E+00
