! Anritsu VNA Master:                     Model: MS2036C/10/77
! SN:                                  1601066
! /card0/usr/256.ew.sma.r50.22.s2p
! Existing Calibration Information:
! TYPE:                         Current Settings,       Active Cal Settings
! TIME:             	   12/19/2017 02:48:21 PM,    12/19/2017 02:22:10 PM
! INTERNAL TEMP:    	                   46.3 C,                    45.0 C
! # POINTS:         	                      501,                       501
! START FREQ:       	               10.000 MHz,                10.000 MHz
! STOP FREQ:        	              110.000 MHz,               110.000 MHz
! SOURCE POWER:     	                     High,                      High
! IFBW:             	                   100 Hz,                    100 Hz
! AVG FACTOR:       	                       1 ,                        1 
! REF PLANE 1:      	                     0 mm,                      0 mm
! REF PLANE 2:      	                     0 mm,                      0 mm
! CAL TYPE:         	                 Full S11,                  Full S11
! CAL METHOD:       	                     SOLT,                      SOLT
! CAL LINE TYPE:    	                     Coax,                      Coax
! DUT PORT 1:       	                N-Conn(F),                 N-Conn(F)
! DUT PORT 2:       	                K-Conn(F),                 K-Conn(F)
! CAL STATUS:       	        OK: Accuracy High,                        --
# GHZ S DB R 50.0
! FREQ.GHZ       S11DB        S11A       S21DB        S21A       S12DB        S12A       S22DB        S22A
  0.010000000  -44.828264   64.767143  -83.625062   80.262154    0.000000    0.000000    0.000000    0.000000
  0.010200000  -44.855502   65.444054  -83.105363   77.530624    0.000000    0.000000    0.000000    0.000000
  0.010400000  -44.828943   65.417000  -83.363040   74.214470    0.000000    0.000000    0.000000    0.000000
  0.010600000  -44.664917   65.179008  -83.971708   72.165390    0.000000    0.000000    0.000000    0.000000
  0.010800000  -44.829842   64.187500  -84.124541   70.398285    0.000000    0.000000    0.000000    0.000000
  0.011000000  -44.525242   65.085358  -84.195897   74.245743    0.000000    0.000000    0.000000    0.000000
  0.011200000  -44.442894   64.300026  -84.367045   71.022133    0.000000    0.000000    0.000000    0.000000
  0.011400000  -44.613020   64.649223  -84.560330   67.408569    0.000000    0.000000    0.000000    0.000000
  0.011600000  -44.869328   63.117252  -84.904116   69.584976    0.000000    0.000000    0.000000    0.000000
  0.011800000  -44.859537   61.951653  -84.993298   67.846336    0.000000    0.000000    0.000000    0.000000
  0.012000000  -44.417824   62.578678  -84.972913   66.306526    0.000000    0.000000    0.000000    0.000000
  0.012200000  -44.488385   59.941490  -85.127829   66.808716    0.000000    0.000000    0.000000    0.000000
  0.012400000  -44.148108   59.297913  -85.255858   68.075699    0.000000    0.000000    0.000000    0.000000
  0.012600000  -44.463093   59.306129  -85.447741   62.882786    0.000000    0.000000    0.000000    0.000000
  0.012800000  -44.176355   57.631573  -85.486939   60.700062    0.000000    0.000000    0.000000    0.000000
  0.013000000  -43.923177   57.142178  -86.094298   66.351471    0.000000    0.000000    0.000000    0.000000
  0.013200000  -43.720440   57.254856  -85.761727   61.932213    0.000000    0.000000    0.000000    0.000000
  0.013400000  -43.632071   57.181358  -86.184277   61.625580    0.000000    0.000000    0.000000    0.000000
  0.013600000  -43.767798   54.665760  -86.584143   59.621727    0.000000    0.000000    0.000000    0.000000
  0.013800000  -43.249470   55.492210  -86.714182   57.738949    0.000000    0.000000    0.000000    0.000000
  0.014000000  -43.177654   54.275265  -86.780638   54.937393    0.000000    0.000000    0.000000    0.000000
  0.014200000  -43.015013   54.741352  -86.824491   56.044685    0.000000    0.000000    0.000000    0.000000
  0.014400000  -42.754064   53.452709  -87.325261   51.313072    0.000000    0.000000    0.000000    0.000000
  0.014600000  -42.652105   53.981659  -87.143602   54.869225    0.000000    0.000000    0.000000    0.000000
  0.014800000  -42.438063   54.258202  -87.339638   50.552731    0.000000    0.000000    0.000000    0.000000
  0.015000000  -42.378626   53.738918  -87.794015   50.480930    0.000000    0.000000    0.000000    0.000000
  0.015200000  -41.944088   54.749062  -87.482042   50.650974    0.000000    0.000000    0.000000    0.000000
  0.015400000  -41.930692   54.591457  -87.869239   50.699493    0.000000    0.000000    0.000000    0.000000
  0.015600000  -41.821462   55.286152  -88.261440   50.344299    0.000000    0.000000    0.000000    0.000000
  0.015800000  -41.815146   55.219883  -88.236268   51.947823    0.000000    0.000000    0.000000    0.000000
  0.016000000  -41.565793   55.681984  -88.364536   49.079330    0.000000    0.000000    0.000000    0.000000
  0.016200000  -41.363781   55.829792  -88.366879   48.351608    0.000000    0.000000    0.000000    0.000000
  0.016400000  -41.289514   56.478111  -88.417187   52.119335    0.000000    0.000000    0.000000    0.000000
  0.016600000  -41.459666   56.646889  -88.756758   45.211960    0.000000    0.000000    0.000000    0.000000
  0.016800000  -41.213414   57.674213  -89.601915   44.799545    0.000000    0.000000    0.000000    0.000000
  0.017000000  -41.272836   57.451973  -89.264227   47.418041    0.000000    0.000000    0.000000    0.000000
  0.017200000  -41.066195   57.744160  -89.041458   46.421314    0.000000    0.000000    0.000000    0.000000
  0.017400000  -41.275188   58.063938  -89.867071   43.037399    0.000000    0.000000    0.000000    0.000000
  0.017600000  -41.228451   58.291935  -89.598267   44.746418    0.000000    0.000000    0.000000    0.000000
  0.017800000  -41.397709   58.018364  -90.446169   42.282967    0.000000    0.000000    0.000000    0.000000
  0.018000000  -41.203764   58.513123  -89.499748   45.670063    0.000000    0.000000    0.000000    0.000000
  0.018200000  -41.090616   58.618351  -89.748041   43.418858    0.000000    0.000000    0.000000    0.000000
  0.018400000  -41.076830   58.538353  -89.854185   41.559692    0.000000    0.000000    0.000000    0.000000
  0.018600000  -41.183213   57.461124  -90.365329   41.341385    0.000000    0.000000    0.000000    0.000000
  0.018800000  -41.159320   58.519852  -89.702515   41.928818    0.000000    0.000000    0.000000    0.000000
  0.019000000  -41.187841   57.806679  -90.461584   41.249374    0.000000    0.000000    0.000000    0.000000
  0.019200000  -41.098822   55.648842  -91.502884   41.959671    0.000000    0.000000    0.000000    0.000000
  0.019400000  -41.086427   55.986198  -91.366380   32.914837    0.000000    0.000000    0.000000    0.000000
  0.019600000  -41.127567   55.421455  -90.543521   35.234707    0.000000    0.000000    0.000000    0.000000
  0.019800000  -41.077525   54.415764  -91.559820   38.322838    0.000000    0.000000    0.000000    0.000000
  0.020000000  -40.833339   54.644070  -90.872815   38.212486    0.000000    0.000000    0.000000    0.000000
  0.020200000  -40.891227   53.342911  -91.226265   39.026348    0.000000    0.000000    0.000000    0.000000
  0.020400000  -40.655172   53.342125  -91.592747   39.490585    0.000000    0.000000    0.000000    0.000000
  0.020600000  -40.574874   52.016720  -91.706581   38.541954    0.000000    0.000000    0.000000    0.000000
  0.020800000  -40.341605   52.732594  -91.764353   34.631947    0.000000    0.000000    0.000000    0.000000
  0.021000000  -40.390040   52.104092  -91.273737   36.537361    0.000000    0.000000    0.000000    0.000000
  0.021200000  -40.118983   50.917019  -92.746003   31.363983    0.000000    0.000000    0.000000    0.000000
  0.021400000  -40.038644   51.513691  -91.404494   33.971012    0.000000    0.000000    0.000000    0.000000
  0.021600000  -39.854109   51.205883  -92.800991   39.573795    0.000000    0.000000    0.000000    0.000000
  0.021800000  -39.904771   50.878845  -92.330816   37.385845    0.000000    0.000000    0.000000    0.000000
  0.022000000  -39.676085   50.910313  -93.773761   35.208408    0.000000    0.000000    0.000000    0.000000
  0.022200000  -39.602932   50.299454  -92.104724   31.255598    0.000000    0.000000    0.000000    0.000000
  0.022400000  -39.461167   51.099079  -92.931524   31.788523    0.000000    0.000000    0.000000    0.000000
  0.022600000  -39.442196   50.874462  -92.501498   35.367832    0.000000    0.000000    0.000000    0.000000
  0.022800000  -39.238252   51.404663  -92.976850   32.607075    0.000000    0.000000    0.000000    0.000000
  0.023000000  -39.243979   50.918861  -92.335325   31.978519    0.000000    0.000000    0.000000    0.000000
  0.023200000  -39.002797   51.627689  -92.738329   27.326494    0.000000    0.000000    0.000000    0.000000
  0.023400000  -38.950473   52.120113  -92.508049   34.760494    0.000000    0.000000    0.000000    0.000000
  0.023600000  -38.821257   52.014801  -93.029192   31.704300    0.000000    0.000000    0.000000    0.000000
  0.023800000  -38.767896   52.543346  -92.723821   33.648399    0.000000    0.000000    0.000000    0.000000
  0.024000000  -38.669421   52.414738  -93.196133   29.678061    0.000000    0.000000    0.000000    0.000000
  0.024200000  -38.593477   53.502293  -94.727220   29.816357    0.000000    0.000000    0.000000    0.000000
  0.024400000  -38.585760   53.626392  -93.971068   27.668379    0.000000    0.000000    0.000000    0.000000
  0.024600000  -38.487553   54.105007  -94.780920   19.590866    0.000000    0.000000    0.000000    0.000000
  0.024800000  -38.408960   53.750393  -95.415055   22.944956    0.000000    0.000000    0.000000    0.000000
  0.025000000  -38.439836   54.207836  -94.656993   20.668110    0.000000    0.000000    0.000000    0.000000
  0.025200000  -38.461814   54.304066  -93.855059   32.417564    0.000000    0.000000    0.000000    0.000000
  0.025400000  -38.352963   54.401928  -93.889190   23.427244    0.000000    0.000000    0.000000    0.000000
  0.025600000  -38.351489   55.108044  -94.359524   20.682838    0.000000    0.000000    0.000000    0.000000
  0.025800000  -38.519291   54.748737  -94.607783   23.110495    0.000000    0.000000    0.000000    0.000000
  0.026000000  -38.369754   55.268860  -94.946324   22.055698    0.000000    0.000000    0.000000    0.000000
  0.026200000  -38.509130   55.077122  -94.381707   19.365000    0.000000    0.000000    0.000000    0.000000
  0.026400000  -38.480866   54.926102  -94.853812   21.117674    0.000000    0.000000    0.000000    0.000000
  0.026600000  -38.291575   55.110104  -94.032096   17.732065    0.000000    0.000000    0.000000    0.000000
  0.026800000  -38.335099   54.768143  -94.880648   17.959219    0.000000    0.000000    0.000000    0.000000
  0.027000000  -38.485461   54.802876  -96.296042   25.110310    0.000000    0.000000    0.000000    0.000000
  0.027200000  -38.332910   54.020504  -94.774019   20.893412    0.000000    0.000000    0.000000    0.000000
  0.027400000  -38.350718   54.812489  -95.187830   20.308481    0.000000    0.000000    0.000000    0.000000
  0.027600000  -38.402678   54.209167  -95.864180   21.669497    0.000000    0.000000    0.000000    0.000000
  0.027800000  -38.377464   54.050232  -96.636305   22.157848    0.000000    0.000000    0.000000    0.000000
  0.028000000  -38.344026   53.282551  -95.901581   20.025469    0.000000    0.000000    0.000000    0.000000
  0.028200000  -38.262614   53.358635  -95.704025   22.271097    0.000000    0.000000    0.000000    0.000000
  0.028400000  -38.343541   52.905094  -95.901197   13.631460    0.000000    0.000000    0.000000    0.000000
  0.028600000  -38.212030   52.552509  -96.906754   11.992826    0.000000    0.000000    0.000000    0.000000
  0.028800000  -38.191041   53.050797  -96.931567   11.382109    0.000000    0.000000    0.000000    0.000000
  0.029000000  -38.176157   52.542076  -97.941092   18.480492    0.000000    0.000000    0.000000    0.000000
  0.029200000  -38.119664   51.567219  -96.900546   19.034563    0.000000    0.000000    0.000000    0.000000
  0.029400000  -38.007424   51.340870  -95.111482   15.410708    0.000000    0.000000    0.000000    0.000000
  0.029600000  -37.893770   51.888111  -96.573853   20.373539    0.000000    0.000000    0.000000    0.000000
  0.029800000  -37.864633   51.400185  -95.275325   18.667784    0.000000    0.000000    0.000000    0.000000
  0.030000000  -37.751933   51.187778  -96.630510   12.978446    0.000000    0.000000    0.000000    0.000000
  0.030200000  -37.755800   51.456085  -97.119830   14.679231    0.000000    0.000000    0.000000    0.000000
  0.030400000  -37.628281   51.065338  -96.560587   20.546261    0.000000    0.000000    0.000000    0.000000
  0.030600000  -37.638270   51.166504  -96.802623   20.067011    0.000000    0.000000    0.000000    0.000000
  0.030800000  -37.561885   50.949604  -96.426187   19.073587    0.000000    0.000000    0.000000    0.000000
  0.031000000  -37.495736   51.578217  -96.285145   18.371439    0.000000    0.000000    0.000000    0.000000
  0.031200000  -37.293322   51.301926  -96.839356   20.257868    0.000000    0.000000    0.000000    0.000000
  0.031400000  -37.520655   51.922882  -96.879970    6.033271    0.000000    0.000000    0.000000    0.000000
  0.031600000  -37.439192   50.989731  -96.243348   15.481491    0.000000    0.000000    0.000000    0.000000
  0.031800000  -37.345239   51.558605  -96.962547   11.347437    0.000000    0.000000    0.000000    0.000000
  0.032000000  -37.360110   51.033154  -99.494378   16.358765    0.000000    0.000000    0.000000    0.000000
  0.032200000  -37.401016   50.967720  -97.210749   14.340280    0.000000    0.000000    0.000000    0.000000
  0.032400000  -37.241041   51.457981  -98.468539    6.265558    0.000000    0.000000    0.000000    0.000000
  0.032600000  -37.340450   51.371288  -96.838985   11.298337    0.000000    0.000000    0.000000    0.000000
  0.032800000  -37.330705   51.363785  -97.228337   12.363471    0.000000    0.000000    0.000000    0.000000
  0.033000000  -37.285462   51.031525  -96.938072   18.790661    0.000000    0.000000    0.000000    0.000000
  0.033200000  -37.304790   51.047043  -97.877230   15.112031    0.000000    0.000000    0.000000    0.000000
  0.033400000  -37.287131   51.087841  -98.770530    6.855049    0.000000    0.000000    0.000000    0.000000
  0.033600000  -37.321556   51.029320  -98.927118   14.915419    0.000000    0.000000    0.000000    0.000000
  0.033800000  -37.120245   51.112171  -98.774301   22.849619    0.000000    0.000000    0.000000    0.000000
  0.034000000  -37.124956   50.710663  -98.940473    1.729100    0.000000    0.000000    0.000000    0.000000
  0.034200000  -37.225243   49.982716  -98.960100    7.038502    0.000000    0.000000    0.000000    0.000000
  0.034400000  -37.165863   50.132053  -99.251495   11.199472    0.000000    0.000000    0.000000    0.000000
  0.034600000  -37.255785   49.147953  -98.024843   13.304066    0.000000    0.000000    0.000000    0.000000
  0.034800000  -37.192856   49.564793  -97.495773   19.977419    0.000000    0.000000    0.000000    0.000000
  0.035000000  -37.060883   48.380016  -97.495847   12.482983    0.000000    0.000000    0.000000    0.000000
  0.035200000  -37.026986   48.384300  -98.862974    6.270483    0.000000    0.000000    0.000000    0.000000
  0.035400000  -37.042848   47.881687 -100.651801    4.811413    0.000000    0.000000    0.000000    0.000000
  0.035600000  -36.969732   46.741577  -98.850472   11.313524    0.000000    0.000000    0.000000    0.000000
  0.035800000  -36.871142   46.599808  -98.674571    9.487664    0.000000    0.000000    0.000000    0.000000
  0.036000000  -36.791826   46.991699  -98.644790   23.339653    0.000000    0.000000    0.000000    0.000000
  0.036200000  -36.763961   46.752090  -98.954650   22.728069    0.000000    0.000000    0.000000    0.000000
  0.036400000  -36.724611   46.971027  -97.900786    5.865995    0.000000    0.000000    0.000000    0.000000
  0.036600000  -36.594855   46.354355 -101.281336    1.884871    0.000000    0.000000    0.000000    0.000000
  0.036800000  -36.558533   46.375149  -99.580145   -5.955745    0.000000    0.000000    0.000000    0.000000
  0.037000000  -36.499259   45.875916  -98.957870   14.569093    0.000000    0.000000    0.000000    0.000000
  0.037200000  -36.406379   45.738007  -99.689366   15.065101    0.000000    0.000000    0.000000    0.000000
  0.037400000  -36.420237   44.848946  -99.774105    7.609455    0.000000    0.000000    0.000000    0.000000
  0.037600000  -36.259867   45.528370 -101.487152    6.804101    0.000000    0.000000    0.000000    0.000000
  0.037800000  -36.208012   44.845264 -100.524748    9.184456    0.000000    0.000000    0.000000    0.000000
  0.038000000  -36.087988   45.372368 -100.588581   -1.070193    0.000000    0.000000    0.000000    0.000000
  0.038200000  -36.069126   45.571007  -99.209571    2.204521    0.000000    0.000000    0.000000    0.000000
  0.038400000  -36.020506   45.254440  -99.528477    3.779806    0.000000    0.000000    0.000000    0.000000
  0.038600000  -35.972544   45.312920  -99.267418   24.163258    0.000000    0.000000    0.000000    0.000000
  0.038800000  -35.841385   45.707088  -99.549747   18.821112    0.000000    0.000000    0.000000    0.000000
  0.039000000  -35.711104   45.753685  -98.590237    8.804100    0.000000    0.000000    0.000000    0.000000
  0.039200000  -35.786808   46.185871 -101.259994   36.299610    0.000000    0.000000    0.000000    0.000000
  0.039400000  -35.675788   46.484138 -100.400786    5.597962    0.000000    0.000000    0.000000    0.000000
  0.039600000  -35.675755   46.737392 -101.573242    4.629435    0.000000    0.000000    0.000000    0.000000
  0.039800000  -35.665422   46.744183 -103.978705   -1.079171    0.000000    0.000000    0.000000    0.000000
  0.040000000  -35.553521   46.783554 -102.708980   -8.562329    0.000000    0.000000    0.000000    0.000000
  0.040200000  -35.551762   46.873066 -103.062678    7.058362    0.000000    0.000000    0.000000    0.000000
  0.040400000  -35.542534   48.055897 -100.979665   11.159774    0.000000    0.000000    0.000000    0.000000
  0.040600000  -35.600419   47.568176 -100.433272   10.029924    0.000000    0.000000    0.000000    0.000000
  0.040800000  -35.548500   48.051434 -100.826176   13.361746    0.000000    0.000000    0.000000    0.000000
  0.041000000  -35.532649   47.732738  -98.865868   12.175137    0.000000    0.000000    0.000000    0.000000
  0.041200000  -35.556823   47.829857 -100.283970    6.603263    0.000000    0.000000    0.000000    0.000000
  0.041400000  -35.595574   47.679100 -101.846813    8.122606    0.000000    0.000000    0.000000    0.000000
  0.041600000  -35.537003   47.874607 -101.512778   -1.933374    0.000000    0.000000    0.000000    0.000000
  0.041800000  -35.624082   47.491383 -101.976092   15.802541    0.000000    0.000000    0.000000    0.000000
  0.042000000  -35.596264   47.519802 -100.814870   14.705392    0.000000    0.000000    0.000000    0.000000
  0.042200000  -35.678173   47.549366 -103.938763   11.618851    0.000000    0.000000    0.000000    0.000000
  0.042400000  -35.669553   47.586250 -101.664609   -4.087290    0.000000    0.000000    0.000000    0.000000
  0.042600000  -35.640459   46.993156  -99.348342    9.057620    0.000000    0.000000    0.000000    0.000000
  0.042800000  -35.761647   46.929092 -100.722210   15.841969    0.000000    0.000000    0.000000    0.000000
