! Anritsu VNA Master:                     Model: MS2036C/10/77
! SN:                                  1601066
! /bd0/18may09/254.ew.m15.s2p
! Existing Calibration Information:
! TYPE:                         Current Settings,       Active Cal Settings
! TIME:             	   05/09/2018 12:17:18 PM,    05/09/2018 12:08:51 PM
! INTERNAL TEMP:    	                   55.3 C,                    54.8 C
! # POINTS:         	                      494,                       494
! START FREQ:       	               20.000 MHz,                20.000 MHz
! STOP FREQ:        	          118.797 594 MHz,           118.797 594 MHz
! SOURCE POWER:     	                     High,                      High
! IFBW:             	                    50 Hz,                     50 Hz
! AVG FACTOR:       	                       1 ,                        1 
! REF PLANE 1:      	                     0 mm,                      0 mm
! REF PLANE 2:      	                     0 mm,                      0 mm
! CAL TYPE:         	                 Full S22,                  Full S22
! CAL METHOD:       	                     SOLT,                      SOLT
! CAL LINE TYPE:    	                     Coax,                      Coax
! DUT PORT 1:       	                K-Conn(M),                 K-Conn(M)
! DUT PORT 2:       	                K-Conn(M),                 K-Conn(M)
! CAL STATUS:       	        OK: Accuracy High,                        --
# GHZ S DB R 50.0
! FREQ.GHZ       S11DB        S11A       S21DB        S21A       S12DB        S12A       S22DB        S22A
  0.020000000    0.000000    0.000000    0.000000    0.000000  -88.965136   34.565834   -0.652023 -126.778091
  0.020200401    0.000000    0.000000    0.000000    0.000000  -89.658378   32.061775   -0.654383 -128.245209
  0.020400802    0.000000    0.000000    0.000000    0.000000  -90.526105   32.791908   -0.654374 -129.726929
  0.020601202    0.000000    0.000000    0.000000    0.000000  -90.815942   32.733997   -0.657989 -131.228806
  0.020801603    0.000000    0.000000    0.000000    0.000000  -90.584723   36.397438   -0.659932 -132.759964
  0.021002004    0.000000    0.000000    0.000000    0.000000  -91.431226   36.847855   -0.662629 -134.293243
  0.021202405    0.000000    0.000000    0.000000    0.000000  -90.790530   34.754543   -0.666354 -135.834320
  0.021402806    0.000000    0.000000    0.000000    0.000000  -91.796707   36.947308   -0.667546 -137.374115
  0.021603206    0.000000    0.000000    0.000000    0.000000  -91.799930   32.131695   -0.671789 -138.902832
  0.021803607    0.000000    0.000000    0.000000    0.000000  -91.633436   37.745888   -0.675440 -140.431839
  0.022004008    0.000000    0.000000    0.000000    0.000000  -91.941793   40.295353   -0.681152 -141.968658
  0.022204409    0.000000    0.000000    0.000000    0.000000  -92.152686   38.003113   -0.688005 -143.539093
  0.022404810    0.000000    0.000000    0.000000    0.000000  -91.934961   43.078117   -0.691571 -145.119812
  0.022605210    0.000000    0.000000    0.000000    0.000000  -91.929121   43.686939   -0.694550 -146.717422
  0.022805611    0.000000    0.000000    0.000000    0.000000  -92.027094   42.202446   -0.700718 -148.309555
  0.023006012    0.000000    0.000000    0.000000    0.000000  -91.831514   45.080048   -0.708108 -149.900345
  0.023206413    0.000000    0.000000    0.000000    0.000000  -91.532709   42.523949   -0.711096 -151.474533
  0.023406814    0.000000    0.000000    0.000000    0.000000  -91.184164   44.134106   -0.715717 -153.065857
  0.023607214    0.000000    0.000000    0.000000    0.000000  -91.080976   40.601585   -0.721598 -154.675201
  0.023807615    0.000000    0.000000    0.000000    0.000000  -91.794125   39.049686   -0.730745 -156.288177
  0.024008016    0.000000    0.000000    0.000000    0.000000  -91.279174   36.303532   -0.738064 -157.926193
  0.024208417    0.000000    0.000000    0.000000    0.000000  -91.899082   40.027130   -0.745051 -159.572220
  0.024408818    0.000000    0.000000    0.000000    0.000000  -91.253198   33.477192   -0.751793 -161.244186
  0.024609218    0.000000    0.000000    0.000000    0.000000  -91.428074   31.488354   -0.757284 -162.893188
  0.024809619    0.000000    0.000000    0.000000    0.000000  -91.133116   30.380945   -0.765975 -164.567368
  0.025010020    0.000000    0.000000    0.000000    0.000000  -91.812589   27.805754   -0.775297 -166.230881
  0.025210421    0.000000    0.000000    0.000000    0.000000  -92.088296   26.927896   -0.784718 -167.915771
  0.025410822    0.000000    0.000000    0.000000    0.000000  -91.769653   27.316076   -0.794865 -169.605103
  0.025611222    0.000000    0.000000    0.000000    0.000000  -92.163372   24.971567   -0.806237 -171.309555
  0.025811623    0.000000    0.000000    0.000000    0.000000  -92.305272   26.121496   -0.816754 -173.021439
  0.026012024    0.000000    0.000000    0.000000    0.000000  -93.284856   21.218470   -0.827224 -174.761169
  0.026212425    0.000000    0.000000    0.000000    0.000000  -93.119045   26.162870   -0.837401 -176.494370
  0.026412826    0.000000    0.000000    0.000000    0.000000  -93.412333   24.533791   -0.851275 -178.239639
  0.026613226    0.000000    0.000000    0.000000    0.000000  -93.642027   24.394930   -0.864533 -179.995285
  0.026813627    0.000000    0.000000    0.000000    0.000000  -93.927065   23.248390   -0.878865  178.233505
  0.027014028    0.000000    0.000000    0.000000    0.000000  -94.586237   22.431854   -0.895258  176.472046
  0.027214429    0.000000    0.000000    0.000000    0.000000  -94.392933   29.978395   -0.911307  174.695328
  0.027414830    0.000000    0.000000    0.000000    0.000000  -94.651927   23.361217   -0.926808  172.914536
  0.027615230    0.000000    0.000000    0.000000    0.000000  -94.904353   33.866657   -0.943924  171.113953
  0.027815631    0.000000    0.000000    0.000000    0.000000  -94.789824   31.613503   -0.959209  169.309662
  0.028016032    0.000000    0.000000    0.000000    0.000000  -94.668727   29.250586   -0.977868  167.491791
  0.028216433    0.000000    0.000000    0.000000    0.000000  -94.682820   31.097185   -0.997351  165.646347
  0.028416834    0.000000    0.000000    0.000000    0.000000  -94.749520   30.925129   -1.016571  163.810059
  0.028617234    0.000000    0.000000    0.000000    0.000000  -95.110199   29.220020   -1.036344  161.963531
  0.028817635    0.000000    0.000000    0.000000    0.000000  -94.416991   30.393707   -1.056627  160.120178
  0.029018036    0.000000    0.000000    0.000000    0.000000  -93.979918   38.397388   -1.078308  158.267014
  0.029218437    0.000000    0.000000    0.000000    0.000000  -94.216326   32.409164   -1.101441  156.400253
  0.029418838    0.000000    0.000000    0.000000    0.000000  -94.187225   32.671230   -1.125085  154.510101
  0.029619238    0.000000    0.000000    0.000000    0.000000  -93.806906   30.093195   -1.149766  152.614227
  0.029819639    0.000000    0.000000    0.000000    0.000000  -94.408140   28.234756   -1.174402  150.715515
  0.030020040    0.000000    0.000000    0.000000    0.000000  -94.660635   32.004333   -1.199433  148.804474
  0.030220441    0.000000    0.000000    0.000000    0.000000  -94.697594   31.373583   -1.223852  146.896896
  0.030420842    0.000000    0.000000    0.000000    0.000000  -94.336966   26.806931   -1.250163  144.988571
  0.030621242    0.000000    0.000000    0.000000    0.000000  -93.829161   26.404379   -1.277742  143.083511
  0.030821643    0.000000    0.000000    0.000000    0.000000  -94.669791   23.397102   -1.306632  141.166855
  0.031022044    0.000000    0.000000    0.000000    0.000000  -95.449995   20.398813   -1.336063  139.226746
  0.031222445    0.000000    0.000000    0.000000    0.000000  -94.178498   22.843472   -1.361631  137.295074
  0.031422846    0.000000    0.000000    0.000000    0.000000  -94.534773   18.556892   -1.390873  135.333328
  0.031623246    0.000000    0.000000    0.000000    0.000000  -94.557465   18.129719   -1.423860  133.371307
  0.031823647    0.000000    0.000000    0.000000    0.000000  -94.244728   24.108881   -1.455608  131.394348
  0.032024048    0.000000    0.000000    0.000000    0.000000  -95.606115   15.478411   -1.487854  129.421432
  0.032224449    0.000000    0.000000    0.000000    0.000000  -94.887233   17.644033   -1.524932  127.449074
  0.032424850    0.000000    0.000000    0.000000    0.000000  -95.224659   22.181376   -1.556903  125.472717
  0.032625250    0.000000    0.000000    0.000000    0.000000  -95.321938   20.105675   -1.595042  123.469177
  0.032825651    0.000000    0.000000    0.000000    0.000000  -96.162762   20.701660   -1.628452  121.434845
  0.033026052    0.000000    0.000000    0.000000    0.000000  -95.216609   12.053638   -1.666877  119.429543
  0.033226453    0.000000    0.000000    0.000000    0.000000  -95.647128   22.579836   -1.702203  117.393562
  0.033426854    0.000000    0.000000    0.000000    0.000000  -96.988455   20.550175   -1.740101  115.370689
  0.033627254    0.000000    0.000000    0.000000    0.000000  -96.474230   14.123324   -1.780482  113.373093
  0.033827655    0.000000    0.000000    0.000000    0.000000  -96.215857   18.182049   -1.819668  111.320251
  0.034028056    0.000000    0.000000    0.000000    0.000000  -97.275291   23.988676   -1.857951  109.290321
  0.034228457    0.000000    0.000000    0.000000    0.000000  -95.671965   21.813011   -1.901643  107.238289
  0.034428858    0.000000    0.000000    0.000000    0.000000  -96.568073   26.854124   -1.943053  105.173477
  0.034629258    0.000000    0.000000    0.000000    0.000000  -96.754707   23.431215   -1.986621  103.102287
  0.034829659    0.000000    0.000000    0.000000    0.000000  -96.212093   21.851179   -2.030924  101.045845
  0.035030060    0.000000    0.000000    0.000000    0.000000  -96.427748   27.083664   -2.076309   98.948395
  0.035230461    0.000000    0.000000    0.000000    0.000000  -96.824616   22.722609   -2.122386   96.879181
  0.035430862    0.000000    0.000000    0.000000    0.000000  -95.717101   25.706472   -2.170340   94.791733
  0.035631262    0.000000    0.000000    0.000000    0.000000  -95.428079   21.075436   -2.218375   92.707451
  0.035831663    0.000000    0.000000    0.000000    0.000000  -96.487384   24.473753   -2.266454   90.611938
  0.036032064    0.000000    0.000000    0.000000    0.000000  -96.426752   20.870966   -2.315113   88.517197
  0.036232465    0.000000    0.000000    0.000000    0.000000  -96.437300   26.187603   -2.367103   86.414955
  0.036432866    0.000000    0.000000    0.000000    0.000000  -95.496635   24.035868   -2.416575   84.303940
  0.036633266    0.000000    0.000000    0.000000    0.000000  -96.355888   23.676350   -2.466380   82.217209
  0.036833667    0.000000    0.000000    0.000000    0.000000  -95.449546   26.189722   -2.515468   80.106468
  0.037034068    0.000000    0.000000    0.000000    0.000000  -95.817685   18.354694   -2.570668   78.000114
  0.037234469    0.000000    0.000000    0.000000    0.000000  -97.171987   20.157515   -2.621312   75.917160
  0.037434870    0.000000    0.000000    0.000000    0.000000  -97.414250   16.316565   -2.671649   73.814926
  0.037635270    0.000000    0.000000    0.000000    0.000000  -96.583367   19.273060   -2.723536   71.729126
  0.037835671    0.000000    0.000000    0.000000    0.000000  -97.083178   15.555313   -2.776909   69.623253
  0.038036072    0.000000    0.000000    0.000000    0.000000  -96.590954   23.572151   -2.829014   67.496750
  0.038236473    0.000000    0.000000    0.000000    0.000000  -97.744437   21.000328   -2.886164   65.385323
  0.038436874    0.000000    0.000000    0.000000    0.000000  -96.948596   21.992012   -2.940201   63.252304
  0.038637274    0.000000    0.000000    0.000000    0.000000  -98.233587   24.994354   -2.994959   61.154900
  0.038837675    0.000000    0.000000    0.000000    0.000000  -98.011699   26.929747   -3.050472   59.051884
  0.039038076    0.000000    0.000000    0.000000    0.000000  -97.959253   29.789869   -3.100330   56.957699
  0.039238477    0.000000    0.000000    0.000000    0.000000  -97.795742   26.107161   -3.153347   54.897469
  0.039438878    0.000000    0.000000    0.000000    0.000000  -97.531147   32.166607   -3.206955   52.821808
  0.039639278    0.000000    0.000000    0.000000    0.000000  -98.783432   22.606607   -3.257892   50.731304
  0.039839679    0.000000    0.000000    0.000000    0.000000  -97.150081   26.324972   -3.315005   48.623070
  0.040040080    0.000000    0.000000    0.000000    0.000000  -97.819847   25.430679   -3.365922   46.550045
  0.040240481    0.000000    0.000000    0.000000    0.000000  -98.344486   35.097290   -3.415692   44.456509
  0.040440882    0.000000    0.000000    0.000000    0.000000  -98.417287   29.488085   -3.469040   42.380672
  0.040641283    0.000000    0.000000    0.000000    0.000000  -97.741167   23.364637   -3.521316   40.320236
  0.040841683    0.000000    0.000000    0.000000    0.000000  -96.761250   28.795252   -3.571919   38.257393
  0.041042084    0.000000    0.000000    0.000000    0.000000  -98.260499   27.883200   -3.626718   36.220608
  0.041242485    0.000000    0.000000    0.000000    0.000000  -97.677969   25.156208   -3.680374   34.160194
  0.041442886    0.000000    0.000000    0.000000    0.000000  -98.179352   24.382242   -3.730173   32.096775
  0.041643287    0.000000    0.000000    0.000000    0.000000  -97.568559   27.545774   -3.782817   30.017038
  0.041843687    0.000000    0.000000    0.000000    0.000000  -97.161667   16.733206   -3.832624   27.955324
  0.042044088    0.000000    0.000000    0.000000    0.000000  -97.375307   18.735537   -3.882395   25.914513
  0.042244489    0.000000    0.000000    0.000000    0.000000  -97.934093   25.458248   -3.934200   23.862556
  0.042444890    0.000000    0.000000    0.000000    0.000000  -97.972819   27.382881   -3.983564   21.840120
  0.042645291    0.000000    0.000000    0.000000    0.000000  -98.214347   26.414427   -4.036954   19.792555
  0.042845691    0.000000    0.000000    0.000000    0.000000  -98.178117   33.499290   -4.086743   17.778803
  0.043046092    0.000000    0.000000    0.000000    0.000000  -98.290912   28.045343   -4.137195   15.744786
  0.043246493    0.000000    0.000000    0.000000    0.000000  -99.618011   33.940899   -4.186157   13.730833
  0.043446894    0.000000    0.000000    0.000000    0.000000  -98.397971   27.574278   -4.233018   11.727128
  0.043647295    0.000000    0.000000    0.000000    0.000000  -97.957024   29.185566   -4.279785    9.718669
  0.043847695    0.000000    0.000000    0.000000    0.000000  -98.555171   29.317225   -4.326189    7.715703
  0.044048096    0.000000    0.000000    0.000000    0.000000  -98.804395   23.595385   -4.373486    5.735514
  0.044248497    0.000000    0.000000    0.000000    0.000000  -98.199313   20.374601   -4.420039    3.755686
  0.044448898    0.000000    0.000000    0.000000    0.000000  -99.470871   23.835135   -4.464932    1.808627
  0.044649299    0.000000    0.000000    0.000000    0.000000  -99.988059   27.901520   -4.509887   -0.163822
  0.044849699    0.000000    0.000000    0.000000    0.000000  -99.720681   35.378876   -4.555268   -2.088170
  0.045050100    0.000000    0.000000    0.000000    0.000000  -98.599417   23.120947   -4.598162   -4.040993
  0.045250501    0.000000    0.000000    0.000000    0.000000  -98.927249   35.963707   -4.642426   -5.973179
  0.045450902    0.000000    0.000000    0.000000    0.000000  -99.430875   31.757719   -4.686435   -7.900649
  0.045651303    0.000000    0.000000    0.000000    0.000000  -99.045934   32.761673   -4.728226   -9.829611
  0.045851703    0.000000    0.000000    0.000000    0.000000  -99.218115   33.699158   -4.768570  -11.715915
  0.046052104    0.000000    0.000000    0.000000    0.000000  -98.268834   27.977827   -4.806791  -13.613592
  0.046252505    0.000000    0.000000    0.000000    0.000000  -97.147859   26.673433   -4.845866  -15.500755
  0.046452906    0.000000    0.000000    0.000000    0.000000  -98.301426   39.320614   -4.883442  -17.364729
  0.046653307    0.000000    0.000000    0.000000    0.000000  -99.167625   39.445621   -4.920802  -19.243919
  0.046853707    0.000000    0.000000    0.000000    0.000000 -100.509252   37.960136   -4.957928  -21.111734
  0.047054108    0.000000    0.000000    0.000000    0.000000  -99.108585   26.721186   -4.991178  -22.967657
  0.047254509    0.000000    0.000000    0.000000    0.000000  -98.106096   32.914089   -5.028680  -24.816816
  0.047454910    0.000000    0.000000    0.000000    0.000000  -99.711543   26.394840   -5.062448  -26.651701
  0.047655311    0.000000    0.000000    0.000000    0.000000  -98.849668   20.214556   -5.095759  -28.452635
  0.047855711    0.000000    0.000000    0.000000    0.000000  -99.280767   26.950445   -5.129691  -30.274855
  0.048056112    0.000000    0.000000    0.000000    0.000000 -100.685518   31.981565   -5.162397  -32.046803
  0.048256513    0.000000    0.000000    0.000000    0.000000  -97.483504   32.096180   -5.192639  -33.814247
  0.048456914    0.000000    0.000000    0.000000    0.000000  -98.246512   35.324242   -5.222919  -35.590054
  0.048657315    0.000000    0.000000    0.000000    0.000000  -99.342209   26.453642   -5.251280  -37.384541
  0.048857715    0.000000    0.000000    0.000000    0.000000  -99.832011   29.389973   -5.279928  -39.117157
  0.049058116    0.000000    0.000000    0.000000    0.000000  -99.178629   33.824997   -5.302596  -40.882427
  0.049258517    0.000000    0.000000    0.000000    0.000000 -100.148530   36.138622   -5.328670  -42.611446
  0.049458918    0.000000    0.000000    0.000000    0.000000  -98.575746   28.583187   -5.350255  -44.320541
  0.049659319    0.000000    0.000000    0.000000    0.000000 -100.489476   33.016788   -5.379911  -46.009830
  0.049859719    0.000000    0.000000    0.000000    0.000000  -99.482093   19.642483   -5.402972  -47.698334
  0.050060120    0.000000    0.000000    0.000000    0.000000 -100.365886   34.035717   -5.429556  -49.364361
  0.050260521    0.000000    0.000000    0.000000    0.000000  -99.214580   37.363476   -5.448089  -51.041138
  0.050460922    0.000000    0.000000    0.000000    0.000000  -99.794354   39.924606   -5.470708  -52.708328
  0.050661323    0.000000    0.000000    0.000000    0.000000 -100.909983   39.175636   -5.489753  -54.344276
  0.050861723    0.000000    0.000000    0.000000    0.000000  -99.190977   37.145439   -5.509874  -55.991863
  0.051062124    0.000000    0.000000    0.000000    0.000000  -99.092612   24.969345   -5.531903  -57.609653
  0.051262525    0.000000    0.000000    0.000000    0.000000  -98.633646   34.554878   -5.555780  -59.202461
  0.051462926    0.000000    0.000000    0.000000    0.000000  -98.916667   31.067219   -5.574841  -60.785297
  0.051663327    0.000000    0.000000    0.000000    0.000000  -99.388857   42.827660   -5.595440  -62.381519
  0.051863727    0.000000    0.000000    0.000000    0.000000  -98.153284   35.092926   -5.611640  -63.972549
  0.052064128    0.000000    0.000000    0.000000    0.000000  -98.666380   37.890556   -5.631788  -65.540466
  0.052264529    0.000000    0.000000    0.000000    0.000000 -100.951781   22.517599   -5.642302  -67.107254
  0.052464930    0.000000    0.000000    0.000000    0.000000  -99.015045   31.885515   -5.657300  -68.655106
  0.052665331    0.000000    0.000000    0.000000    0.000000  -98.045629   28.986019   -5.672735  -70.197861
  0.052865731    0.000000    0.000000    0.000000    0.000000  -98.968124   40.347969   -5.688048  -71.730850
