! Anritsu VNA Master:                     Model: MS2036C/10/77
! SN:                                  1601066
! /card0/usr/200ohm1.s2p
! Existing Calibration Information:
! TYPE:                         Current Settings,       Active Cal Settings
! TIME:             	   12/20/2017 03:49:02 PM,    12/20/2017 03:36:34 PM
! INTERNAL TEMP:    	                   44.5 C,                    44.5 C
! # POINTS:         	                      501,                       501
! START FREQ:       	               10.000 MHz,                10.000 MHz
! STOP FREQ:        	              110.000 MHz,               110.000 MHz
! SOURCE POWER:     	                     High,                      High
! IFBW:             	                   100 Hz,                    100 Hz
! AVG FACTOR:       	                       1 ,                        1 
! REF PLANE 1:      	                     0 mm,                      0 mm
! REF PLANE 2:      	                     0 mm,                      0 mm
! CAL TYPE:         	                 Full S11,                  Full S11
! CAL METHOD:       	                     SOLT,                      SOLT
! CAL LINE TYPE:    	                     Coax,                      Coax
! DUT PORT 1:       	                K-Conn(F),                 K-Conn(F)
! DUT PORT 2:       	                K-Conn(F),                 K-Conn(F)
! CAL STATUS:       	        OK: Accuracy High,                        --
# GHZ S DB R 50.0
! FREQ.GHZ       S11DB        S11A       S21DB        S21A       S12DB        S12A       S22DB        S22A
  0.010000000   -4.527315  -11.041994  -83.898262   74.963089    0.000000    0.000000    0.000000    0.000000
  0.010200000   -4.515797  -11.217406  -84.351784   76.952919    0.000000    0.000000    0.000000    0.000000
  0.010400000   -4.513712  -11.383562  -85.108668   76.342049    0.000000    0.000000    0.000000    0.000000
  0.010600000   -4.517394  -11.638090  -84.981723   72.692696    0.000000    0.000000    0.000000    0.000000
  0.010800000   -4.518621  -11.852030  -84.863420   73.424133    0.000000    0.000000    0.000000    0.000000
  0.011000000   -4.519707  -12.106224  -85.425180   76.146584    0.000000    0.000000    0.000000    0.000000
  0.011200000   -4.524122  -12.314491  -85.089091   73.472916    0.000000    0.000000    0.000000    0.000000
  0.011400000   -4.522120  -12.537145  -85.391894   72.424805    0.000000    0.000000    0.000000    0.000000
  0.011600000   -4.519425  -12.755985  -84.770680   74.503571    0.000000    0.000000    0.000000    0.000000
  0.011800000   -4.522708  -12.973380  -85.304272   72.389015    0.000000    0.000000    0.000000    0.000000
  0.012000000   -4.524455  -13.216295  -84.587112   75.210953    0.000000    0.000000    0.000000    0.000000
  0.012200000   -4.528236  -13.425453  -85.018057   70.596756    0.000000    0.000000    0.000000    0.000000
  0.012400000   -4.528809  -13.691321  -84.944478   74.156258    0.000000    0.000000    0.000000    0.000000
  0.012600000   -4.530330  -13.899805  -85.054659   67.322075    0.000000    0.000000    0.000000    0.000000
  0.012800000   -4.530286  -14.115113  -85.062880   67.045181    0.000000    0.000000    0.000000    0.000000
  0.013000000   -4.533638  -14.351496  -85.484079   65.156334    0.000000    0.000000    0.000000    0.000000
  0.013200000   -4.533129  -14.572906  -85.313894   64.666374    0.000000    0.000000    0.000000    0.000000
  0.013400000   -4.538294  -14.808193  -85.446197   61.514786    0.000000    0.000000    0.000000    0.000000
  0.013600000   -4.534837  -15.026237  -85.186706   61.628197    0.000000    0.000000    0.000000    0.000000
  0.013800000   -4.535558  -15.270358  -85.326326   60.638187    0.000000    0.000000    0.000000    0.000000
  0.014000000   -4.536411  -15.498910  -85.920470   56.991615    0.000000    0.000000    0.000000    0.000000
  0.014200000   -4.539304  -15.745301  -86.216514   53.166878    0.000000    0.000000    0.000000    0.000000
  0.014400000   -4.537184  -15.967808  -86.281615   52.691166    0.000000    0.000000    0.000000    0.000000
  0.014600000   -4.537215  -16.187534  -85.892161   50.728172    0.000000    0.000000    0.000000    0.000000
  0.014800000   -4.538567  -16.435350  -86.857992   50.239346    0.000000    0.000000    0.000000    0.000000
  0.015000000   -4.540549  -16.653639  -87.217815   48.886520    0.000000    0.000000    0.000000    0.000000
  0.015200000   -4.539652  -16.875299  -88.014232   47.545925    0.000000    0.000000    0.000000    0.000000
  0.015400000   -4.541270  -17.111177  -87.976488   47.458588    0.000000    0.000000    0.000000    0.000000
  0.015600000   -4.542034  -17.318951  -88.700389   43.771572    0.000000    0.000000    0.000000    0.000000
  0.015800000   -4.540166  -17.572189  -88.052496   44.969284    0.000000    0.000000    0.000000    0.000000
  0.016000000   -4.542597  -17.783829  -88.815673   43.378536    0.000000    0.000000    0.000000    0.000000
  0.016200000   -4.542140  -17.997372  -88.977581   45.897377    0.000000    0.000000    0.000000    0.000000
  0.016400000   -4.545013  -18.223366  -89.600071   48.535648    0.000000    0.000000    0.000000    0.000000
  0.016600000   -4.544608  -18.451458  -89.166764   44.327435    0.000000    0.000000    0.000000    0.000000
  0.016800000   -4.542484  -18.674776  -90.237052   45.678204    0.000000    0.000000    0.000000    0.000000
  0.017000000   -4.542355  -18.898489  -90.222611   46.755436    0.000000    0.000000    0.000000    0.000000
  0.017200000   -4.539295  -19.116411  -90.553201   47.911926    0.000000    0.000000    0.000000    0.000000
  0.017400000   -4.536047  -19.326347  -89.836664   47.480183    0.000000    0.000000    0.000000    0.000000
  0.017600000   -4.535792  -19.570156  -90.168373   44.188793    0.000000    0.000000    0.000000    0.000000
  0.017800000   -4.536450  -19.782917  -90.508726   47.245689    0.000000    0.000000    0.000000    0.000000
  0.018000000   -4.534484  -19.988569  -90.285338   45.460346    0.000000    0.000000    0.000000    0.000000
  0.018200000   -4.539551  -20.185728  -90.681830   51.582451    0.000000    0.000000    0.000000    0.000000
  0.018400000   -4.542455  -20.428593  -90.522669   42.969509    0.000000    0.000000    0.000000    0.000000
  0.018600000   -4.544696  -20.647615  -90.378729   43.514751    0.000000    0.000000    0.000000    0.000000
  0.018800000   -4.543599  -20.868818  -90.259793   42.906960    0.000000    0.000000    0.000000    0.000000
  0.019000000   -4.544003  -21.093794  -90.576565   39.968517    0.000000    0.000000    0.000000    0.000000
  0.019200000   -4.545882  -21.309130  -90.455684   40.525410    0.000000    0.000000    0.000000    0.000000
  0.019400000   -4.546322  -21.519985  -90.663582   38.700157    0.000000    0.000000    0.000000    0.000000
  0.019600000   -4.547255  -21.761721  -90.495063   42.094883    0.000000    0.000000    0.000000    0.000000
  0.019800000   -4.547898  -21.984785  -90.899868   41.137150    0.000000    0.000000    0.000000    0.000000
  0.020000000   -4.550520  -22.218584  -90.425247   35.850536    0.000000    0.000000    0.000000    0.000000
  0.020200000   -4.551309  -22.432102  -90.353900   34.454853    0.000000    0.000000    0.000000    0.000000
  0.020400000   -4.549635  -22.654520  -91.177517   37.406849    0.000000    0.000000    0.000000    0.000000
  0.020600000   -4.548855  -22.896917  -91.080569   34.997433    0.000000    0.000000    0.000000    0.000000
  0.020800000   -4.546846  -23.130247  -91.345210   33.930084    0.000000    0.000000    0.000000    0.000000
  0.021000000   -4.550419  -23.362608  -90.876992   32.999893    0.000000    0.000000    0.000000    0.000000
  0.021200000   -4.554950  -23.608046  -91.206930   32.014362    0.000000    0.000000    0.000000    0.000000
  0.021400000   -4.556331  -23.844049  -91.381530   32.019230    0.000000    0.000000    0.000000    0.000000
  0.021600000   -4.552259  -24.070852  -92.603303   37.890469    0.000000    0.000000    0.000000    0.000000
  0.021800000   -4.555133  -24.310671  -91.501479   27.926552    0.000000    0.000000    0.000000    0.000000
  0.022000000   -4.556223  -24.514544  -91.932839   24.225744    0.000000    0.000000    0.000000    0.000000
  0.022200000   -4.557093  -24.741795  -92.421626   29.077908    0.000000    0.000000    0.000000    0.000000
  0.022400000   -4.555764  -24.961586  -92.886740   27.041462    0.000000    0.000000    0.000000    0.000000
  0.022600000   -4.554286  -25.155458  -92.504685   24.020761    0.000000    0.000000    0.000000    0.000000
  0.022800000   -4.556244  -25.394501  -92.653081   31.127430    0.000000    0.000000    0.000000    0.000000
  0.023000000   -4.559211  -25.608744  -93.676778   32.198414    0.000000    0.000000    0.000000    0.000000
  0.023200000   -4.559999  -25.845396  -93.446013   30.841595    0.000000    0.000000    0.000000    0.000000
  0.023400000   -4.564087  -26.174944  -93.413026   29.620178    0.000000    0.000000    0.000000    0.000000
  0.023600000   -4.561160  -26.306814  -93.654077   23.416008    0.000000    0.000000    0.000000    0.000000
  0.023800000   -4.559060  -26.544910  -94.251619   28.526217    0.000000    0.000000    0.000000    0.000000
  0.024000000   -4.558506  -26.783972  -95.196082   34.450703    0.000000    0.000000    0.000000    0.000000
  0.024200000   -4.552071  -26.999065  -93.815707   26.328108    0.000000    0.000000    0.000000    0.000000
  0.024400000   -4.551752  -27.239231  -93.523355   32.783833    0.000000    0.000000    0.000000    0.000000
  0.024600000   -4.554039  -27.470184  -93.733785   27.319267    0.000000    0.000000    0.000000    0.000000
  0.024800000   -4.554249  -27.712040  -94.683250   23.831793    0.000000    0.000000    0.000000    0.000000
  0.025000000   -4.554996  -27.922363  -94.925568   29.801277    0.000000    0.000000    0.000000    0.000000
  0.025200000   -4.554502  -28.136106  -94.362911   28.199694    0.000000    0.000000    0.000000    0.000000
  0.025400000   -4.555009  -28.322252  -94.582189   25.687817    0.000000    0.000000    0.000000    0.000000
  0.025600000   -4.556909  -28.527292  -94.732050   18.884876    0.000000    0.000000    0.000000    0.000000
  0.025800000   -4.560948  -28.721451  -94.768550   25.196833    0.000000    0.000000    0.000000    0.000000
  0.026000000   -4.559613  -28.924109  -93.903278   29.540562    0.000000    0.000000    0.000000    0.000000
  0.026200000   -4.565593  -29.158228  -94.199237   22.281691    0.000000    0.000000    0.000000    0.000000
  0.026400000   -4.566829  -29.369896  -94.902884   33.290154    0.000000    0.000000    0.000000    0.000000
  0.026600000   -4.570920  -29.591864  -95.076956   21.723993    0.000000    0.000000    0.000000    0.000000
  0.026800000   -4.570659  -29.837091  -94.345488   26.279343    0.000000    0.000000    0.000000    0.000000
  0.027000000   -4.573289  -30.079487  -95.732180   15.204207    0.000000    0.000000    0.000000    0.000000
  0.027200000   -4.570905  -30.322836  -93.717086   23.260832    0.000000    0.000000    0.000000    0.000000
  0.027400000   -4.571903  -30.564287  -95.204847   15.536189    0.000000    0.000000    0.000000    0.000000
  0.027600000   -4.575079  -30.793055  -94.953121   15.222721    0.000000    0.000000    0.000000    0.000000
  0.027800000   -4.579604  -31.051439  -95.398092   18.624859    0.000000    0.000000    0.000000    0.000000
  0.028000000   -4.579461  -31.298100  -96.780743   21.188942    0.000000    0.000000    0.000000    0.000000
  0.028200000   -4.578704  -31.563519  -96.479414   13.878841    0.000000    0.000000    0.000000    0.000000
  0.028400000   -4.577137  -31.785799  -95.959759   11.916356    0.000000    0.000000    0.000000    0.000000
  0.028600000   -4.567938  -32.019833  -96.596643   20.949203    0.000000    0.000000    0.000000    0.000000
  0.028800000   -4.566730  -32.221767  -96.917341   21.316895    0.000000    0.000000    0.000000    0.000000
  0.029000000   -4.567916  -32.410130  -97.658740   20.017530    0.000000    0.000000    0.000000    0.000000
  0.029200000   -4.567924  -32.609722  -97.058665   20.830780    0.000000    0.000000    0.000000    0.000000
  0.029400000   -4.564577  -32.789623  -96.374782   18.819616    0.000000    0.000000    0.000000    0.000000
  0.029600000   -4.565892  -32.982540  -97.016713   12.894539    0.000000    0.000000    0.000000    0.000000
  0.029800000   -4.572537  -33.176914  -96.119924   10.541361    0.000000    0.000000    0.000000    0.000000
  0.030000000   -4.576763  -33.393787  -97.223292   15.413823    0.000000    0.000000    0.000000    0.000000
  0.030200000   -4.583197  -33.631943  -97.792684   19.353128    0.000000    0.000000    0.000000    0.000000
  0.030400000   -4.586064  -33.873203  -98.014479   12.027110    0.000000    0.000000    0.000000    0.000000
  0.030600000   -4.587441  -34.102184  -97.058691   22.115513    0.000000    0.000000    0.000000    0.000000
  0.030800000   -4.585278  -34.391930  -97.344896   20.952869    0.000000    0.000000    0.000000    0.000000
  0.031000000   -4.584992  -34.651768  -97.163124   15.038525    0.000000    0.000000    0.000000    0.000000
  0.031200000   -4.582291  -34.897266  -96.261121   16.981466    0.000000    0.000000    0.000000    0.000000
  0.031400000   -4.579741  -35.107971  -98.960373   17.479893    0.000000    0.000000    0.000000    0.000000
  0.031600000   -4.580286  -35.361172  -96.910858   24.724979    0.000000    0.000000    0.000000    0.000000
  0.031800000   -4.574173  -35.586498  -98.124771   16.658073    0.000000    0.000000    0.000000    0.000000
  0.032000000   -4.571419  -35.833626  -98.218022   17.723068    0.000000    0.000000    0.000000    0.000000
  0.032200000   -4.565216  -36.019955  -98.240851    4.800977    0.000000    0.000000    0.000000    0.000000
  0.032400000   -4.558762  -36.219631  -96.803972   15.830881    0.000000    0.000000    0.000000    0.000000
  0.032600000   -4.554811  -36.439262  -96.914854    2.221904    0.000000    0.000000    0.000000    0.000000
  0.032800000   -4.551116  -36.619320  -97.210929   15.800055    0.000000    0.000000    0.000000    0.000000
  0.033000000   -4.549047  -36.810928  -97.496859   25.166960    0.000000    0.000000    0.000000    0.000000
  0.033200000   -4.552090  -37.019382  -97.214975   18.537455    0.000000    0.000000    0.000000    0.000000
  0.033400000   -4.552594  -37.235275  -98.879320   -0.458390    0.000000    0.000000    0.000000    0.000000
  0.033600000   -4.558062  -37.458481  -98.462270   10.958384    0.000000    0.000000    0.000000    0.000000
  0.033800000   -4.555920  -37.667595  -99.670552    7.488037    0.000000    0.000000    0.000000    0.000000
  0.034000000   -4.558428  -37.904625  -98.929861   -0.454303    0.000000    0.000000    0.000000    0.000000
  0.034200000   -4.556541  -38.124470  -97.652959    3.080801    0.000000    0.000000    0.000000    0.000000
  0.034400000   -4.567945  -38.373627  -96.975017    9.157772    0.000000    0.000000    0.000000    0.000000
  0.034600000   -4.570628  -38.604225 -100.009306   26.919216    0.000000    0.000000    0.000000    0.000000
  0.034800000   -4.572991  -38.861168  -97.001227    9.534018    0.000000    0.000000    0.000000    0.000000
  0.035000000   -4.577830  -39.089054 -100.310841    6.415935    0.000000    0.000000    0.000000    0.000000
  0.035200000   -4.579958  -39.332260 -100.200663   -0.522603    0.000000    0.000000    0.000000    0.000000
  0.035400000   -4.583072  -39.571487  -97.887516   13.514833    0.000000    0.000000    0.000000    0.000000
  0.035600000   -4.583157  -39.800610  -98.094134   16.360321    0.000000    0.000000    0.000000    0.000000
  0.035800000   -4.581631  -40.048218  -98.103565   13.022548    0.000000    0.000000    0.000000    0.000000
  0.036000000   -4.576610  -40.284603  -97.649919    2.697386    0.000000    0.000000    0.000000    0.000000
  0.036200000   -4.574489  -40.526772 -101.408316    5.387647    0.000000    0.000000    0.000000    0.000000
  0.036400000   -4.570056  -40.746563 -100.352304   -3.151400    0.000000    0.000000    0.000000    0.000000
  0.036600000   -4.566989  -40.989830  -97.665951    0.420492    0.000000    0.000000    0.000000    0.000000
  0.036800000   -4.562153  -41.183155  -99.846938    4.585795    0.000000    0.000000    0.000000    0.000000
  0.037000000   -4.559593  -41.371979  -97.112962    3.096809    0.000000    0.000000    0.000000    0.000000
  0.037200000   -4.557331  -41.543186  -98.670710    8.250633    0.000000    0.000000    0.000000    0.000000
  0.037400000   -4.560487  -41.717293  -98.267093   19.192436    0.000000    0.000000    0.000000    0.000000
  0.037600000   -4.566996  -41.934776 -100.441957    8.436265    0.000000    0.000000    0.000000    0.000000
  0.037800000   -4.573123  -42.141335 -102.128903   -9.346034    0.000000    0.000000    0.000000    0.000000
  0.038000000   -4.583004  -42.371681  -99.771343   20.267628    0.000000    0.000000    0.000000    0.000000
  0.038200000   -4.589852  -42.620068  -99.361723    3.922936    0.000000    0.000000    0.000000    0.000000
  0.038400000   -4.595342  -42.861492  -98.324266   11.218348    0.000000    0.000000    0.000000    0.000000
  0.038600000   -4.600013  -43.119751  -97.932047    7.557970    0.000000    0.000000    0.000000    0.000000
  0.038800000   -4.599719  -43.363556  -99.007138    9.382117    0.000000    0.000000    0.000000    0.000000
  0.039000000   -4.598703  -43.618580  -99.632400   12.469833    0.000000    0.000000    0.000000    0.000000
  0.039200000   -4.602569  -43.878590  -99.772888   17.922340    0.000000    0.000000    0.000000    0.000000
  0.039400000   -4.594054  -44.144642  -99.753267   12.120312    0.000000    0.000000    0.000000    0.000000
  0.039600000   -4.594527  -44.374825  -98.274462   -1.105356    0.000000    0.000000    0.000000    0.000000
  0.039800000   -4.584398  -44.625557  -99.583316   -0.369426    0.000000    0.000000    0.000000    0.000000
  0.040000000   -4.581454  -44.829391  -99.605248   -2.991487    0.000000    0.000000    0.000000    0.000000
  0.040200000   -4.577119  -45.046871 -101.314742    3.112259    0.000000    0.000000    0.000000    0.000000
  0.040400000   -4.577945  -45.264423 -101.178068   17.509567    0.000000    0.000000    0.000000    0.000000
  0.040600000   -4.578310  -45.450573 -102.742495    6.579556    0.000000    0.000000    0.000000    0.000000
  0.040800000   -4.576029  -45.658222 -101.715246   -4.111761    0.000000    0.000000    0.000000    0.000000
  0.041000000   -4.580484  -45.881962 -100.992897    3.251684    0.000000    0.000000    0.000000    0.000000
  0.041200000   -4.584524  -46.092773  -99.839351   -7.410102    0.000000    0.000000    0.000000    0.000000
  0.041400000   -4.587465  -46.316963  -99.957718    2.517445    0.000000    0.000000    0.000000    0.000000
  0.041600000   -4.594980  -46.568409 -100.592300    0.895054    0.000000    0.000000    0.000000    0.000000
  0.041800000   -4.593541  -46.804142 -103.046574    2.656879    0.000000    0.000000    0.000000    0.000000
  0.042000000   -4.596946  -47.062157  -99.999355   -8.602987    0.000000    0.000000    0.000000    0.000000
  0.042200000   -4.599600  -47.263897 -102.059873    7.411997    0.000000    0.000000    0.000000    0.000000
  0.042400000   -4.600001  -47.492073 -101.406215    9.665411    0.000000    0.000000    0.000000    0.000000
  0.042600000   -4.601223  -47.742134 -103.026563   21.486240    0.000000    0.000000    0.000000    0.000000
  0.042800000   -4.599010  -47.951176 -101.767174   15.720271    0.000000    0.000000    0.000000    0.000000
