! Anritsu VNA Master:                     Model: MS2036C/10/77
! SN:                                  1601066
! /card0/usr/20ohm1.s2p
! Existing Calibration Information:
! TYPE:                         Current Settings,       Active Cal Settings
! TIME:             	   12/20/2017 03:44:21 PM,    12/20/2017 03:36:34 PM
! INTERNAL TEMP:    	                   44.8 C,                    44.5 C
! # POINTS:         	                      501,                       501
! START FREQ:       	               10.000 MHz,                10.000 MHz
! STOP FREQ:        	              110.000 MHz,               110.000 MHz
! SOURCE POWER:     	                     High,                      High
! IFBW:             	                   100 Hz,                    100 Hz
! AVG FACTOR:       	                       1 ,                        1 
! REF PLANE 1:      	                     0 mm,                      0 mm
! REF PLANE 2:      	                     0 mm,                      0 mm
! CAL TYPE:         	                 Full S11,                  Full S11
! CAL METHOD:       	                     SOLT,                      SOLT
! CAL LINE TYPE:    	                     Coax,                      Coax
! DUT PORT 1:       	                K-Conn(F),                 K-Conn(F)
! DUT PORT 2:       	                K-Conn(F),                 K-Conn(F)
! CAL STATUS:       	        OK: Accuracy High,                        --
# GHZ S DB R 50.0
! FREQ.GHZ       S11DB        S11A       S21DB        S21A       S12DB        S12A       S22DB        S22A
  0.010000000   -7.203743  167.636597  -82.569935   77.505775    0.000000    0.000000    0.000000    0.000000
  0.010200000   -7.185876  167.450928  -82.576193   75.794273    0.000000    0.000000    0.000000    0.000000
  0.010400000   -7.191892  167.211426  -82.954310   74.482208    0.000000    0.000000    0.000000    0.000000
  0.010600000   -7.192113  166.926559  -82.993348   72.898064    0.000000    0.000000    0.000000    0.000000
  0.010800000   -7.195448  166.689346  -83.279016   69.712143    0.000000    0.000000    0.000000    0.000000
  0.011000000   -7.198102  166.420074  -83.588796   69.914543    0.000000    0.000000    0.000000    0.000000
  0.011200000   -7.195565  166.174179  -83.845101   65.658882    0.000000    0.000000    0.000000    0.000000
  0.011400000   -7.198201  165.918777  -83.869657   64.952103    0.000000    0.000000    0.000000    0.000000
  0.011600000   -7.200974  165.686584  -84.244000   63.708447    0.000000    0.000000    0.000000    0.000000
  0.011800000   -7.203240  165.438156  -84.531575   61.656868    0.000000    0.000000    0.000000    0.000000
  0.012000000   -7.210081  165.187057  -84.823222   63.128754    0.000000    0.000000    0.000000    0.000000
  0.012200000   -7.207403  164.917618  -85.194060   60.029400    0.000000    0.000000    0.000000    0.000000
  0.012400000   -7.207731  164.679611  -85.387285   60.621288    0.000000    0.000000    0.000000    0.000000
  0.012600000   -7.207925  164.429688  -86.128061   60.194206    0.000000    0.000000    0.000000    0.000000
  0.012800000   -7.209805  164.174683  -86.314816   57.851852    0.000000    0.000000    0.000000    0.000000
  0.013000000   -7.213102  163.974518  -86.674478   59.774174    0.000000    0.000000    0.000000    0.000000
  0.013200000   -7.216529  163.702957  -87.064826   57.969398    0.000000    0.000000    0.000000    0.000000
  0.013400000   -7.217809  163.460800  -86.407070   57.121986    0.000000    0.000000    0.000000    0.000000
  0.013600000   -7.214946  163.217453  -87.086562   60.667667    0.000000    0.000000    0.000000    0.000000
  0.013800000   -7.208009  162.955383  -87.440626   60.649292    0.000000    0.000000    0.000000    0.000000
  0.014000000   -7.211831  162.720398  -87.821554   60.169548    0.000000    0.000000    0.000000    0.000000
  0.014200000   -7.213771  162.499985  -87.657442   54.845543    0.000000    0.000000    0.000000    0.000000
  0.014400000   -7.215488  162.258972  -87.724458   57.389046    0.000000    0.000000    0.000000    0.000000
  0.014600000   -7.216407  162.029068  -88.412772   58.140072    0.000000    0.000000    0.000000    0.000000
  0.014800000   -7.221551  161.789368  -87.656939   57.479702    0.000000    0.000000    0.000000    0.000000
  0.015000000   -7.220934  161.524567  -87.476288   55.641842    0.000000    0.000000    0.000000    0.000000
  0.015200000   -7.224726  161.269257  -88.070445   55.197506    0.000000    0.000000    0.000000    0.000000
  0.015400000   -7.229599  161.019531  -88.352978   54.362083    0.000000    0.000000    0.000000    0.000000
  0.015600000   -7.224088  160.872299  -88.273085   56.892223    0.000000    0.000000    0.000000    0.000000
  0.015800000   -7.231544  160.512115  -88.240310   54.173588    0.000000    0.000000    0.000000    0.000000
  0.016000000   -7.232422  160.292328  -87.883787   54.508873    0.000000    0.000000    0.000000    0.000000
  0.016200000   -7.233109  160.053589  -87.956492   50.522991    0.000000    0.000000    0.000000    0.000000
  0.016400000   -7.236626  159.811356  -88.524195   49.416496    0.000000    0.000000    0.000000    0.000000
  0.016600000   -7.238043  159.559799  -88.020443   47.223904    0.000000    0.000000    0.000000    0.000000
  0.016800000   -7.233606  159.317398  -88.507370   47.801151    0.000000    0.000000    0.000000    0.000000
  0.017000000   -7.237979  159.070129  -88.735646   47.129887    0.000000    0.000000    0.000000    0.000000
  0.017200000   -7.235754  158.825790  -88.983864   45.441990    0.000000    0.000000    0.000000    0.000000
  0.017400000   -7.234543  158.575272  -88.285473   47.019318    0.000000    0.000000    0.000000    0.000000
  0.017600000   -7.241961  158.336960  -89.221552   42.046551    0.000000    0.000000    0.000000    0.000000
  0.017800000   -7.240821  158.068832  -89.176988   44.773106    0.000000    0.000000    0.000000    0.000000
  0.018000000   -7.242197  157.825653  -89.424635   43.359589    0.000000    0.000000    0.000000    0.000000
  0.018200000   -7.238800  157.573318  -89.447172   36.425888    0.000000    0.000000    0.000000    0.000000
  0.018400000   -7.242378  157.348068  -89.405433   38.810795    0.000000    0.000000    0.000000    0.000000
  0.018600000   -7.244059  157.093750  -89.555831   38.785900    0.000000    0.000000    0.000000    0.000000
  0.018800000   -7.242688  156.848907  -90.702983   39.796368    0.000000    0.000000    0.000000    0.000000
  0.019000000   -7.242203  156.628021  -90.421910   37.384331    0.000000    0.000000    0.000000    0.000000
  0.019200000   -7.241379  156.372101  -90.616572   37.925430    0.000000    0.000000    0.000000    0.000000
  0.019400000   -7.241735  156.121063  -90.710871   37.045929    0.000000    0.000000    0.000000    0.000000
  0.019600000   -7.242433  155.907516  -91.660763   40.002937    0.000000    0.000000    0.000000    0.000000
  0.019800000   -7.248731  155.668213  -92.306899   36.629246    0.000000    0.000000    0.000000    0.000000
  0.020000000   -7.247656  155.405945  -91.291943   34.080986    0.000000    0.000000    0.000000    0.000000
  0.020200000   -7.245903  155.176208  -90.984287   36.965801    0.000000    0.000000    0.000000    0.000000
  0.020400000   -7.240975  154.917816  -92.339129   35.709866    0.000000    0.000000    0.000000    0.000000
  0.020600000   -7.240214  154.685379  -92.129059   32.479679    0.000000    0.000000    0.000000    0.000000
  0.020800000   -7.239123  154.453461  -91.569795   33.595604    0.000000    0.000000    0.000000    0.000000
  0.021000000   -7.236689  154.173706  -92.235179   33.942135    0.000000    0.000000    0.000000    0.000000
  0.021200000   -7.237028  153.941162  -91.588718   36.536087    0.000000    0.000000    0.000000    0.000000
  0.021400000   -7.237561  153.710739  -92.255421   37.633129    0.000000    0.000000    0.000000    0.000000
  0.021600000   -7.243740  153.472595  -91.987310   40.038960    0.000000    0.000000    0.000000    0.000000
  0.021800000   -7.244477  153.255112  -92.414858   37.722256    0.000000    0.000000    0.000000    0.000000
  0.022000000   -7.241384  153.035538  -91.896905   32.652733    0.000000    0.000000    0.000000    0.000000
  0.022200000   -7.245550  152.783661  -93.168994   26.795263    0.000000    0.000000    0.000000    0.000000
  0.022400000   -7.250111  152.560135  -92.452088   34.497074    0.000000    0.000000    0.000000    0.000000
  0.022600000   -7.251872  152.315323  -93.210703   32.975521    0.000000    0.000000    0.000000    0.000000
  0.022800000   -7.250278  152.072632  -91.712740   33.614910    0.000000    0.000000    0.000000    0.000000
  0.023000000   -7.256242  151.838898  -92.544641   34.929131    0.000000    0.000000    0.000000    0.000000
  0.023200000   -7.255312  151.616913  -92.761303   34.013607    0.000000    0.000000    0.000000    0.000000
  0.023400000   -7.254785  151.343842  -92.348752   37.092621    0.000000    0.000000    0.000000    0.000000
  0.023600000   -7.253731  151.102615  -92.738939   27.404634    0.000000    0.000000    0.000000    0.000000
  0.023800000   -7.252336  150.874725  -92.445587   20.964491    0.000000    0.000000    0.000000    0.000000
  0.024000000   -7.249451  150.634811  -93.145618   34.576000    0.000000    0.000000    0.000000    0.000000
  0.024200000   -7.250787  150.356308  -93.638114   23.048346    0.000000    0.000000    0.000000    0.000000
  0.024400000   -7.254004  150.099548  -93.510693   24.512249    0.000000    0.000000    0.000000    0.000000
  0.024600000   -7.253314  149.835983  -93.152779   26.869246    0.000000    0.000000    0.000000    0.000000
  0.024800000   -7.253914  149.591873  -93.954758   25.422852    0.000000    0.000000    0.000000    0.000000
  0.025000000   -7.252874  149.336166  -92.758567   22.110151    0.000000    0.000000    0.000000    0.000000
  0.025200000   -7.249670  149.111801  -94.173956   21.489408    0.000000    0.000000    0.000000    0.000000
  0.025400000   -7.254360  148.894333  -93.986235   21.708799    0.000000    0.000000    0.000000    0.000000
  0.025600000   -7.257008  148.661926  -94.589599   18.424025    0.000000    0.000000    0.000000    0.000000
  0.025800000   -7.258271  148.441544  -94.694209   17.580122    0.000000    0.000000    0.000000    0.000000
  0.026000000   -7.259493  148.226028  -94.345377   23.761320    0.000000    0.000000    0.000000    0.000000
  0.026200000   -7.259518  147.982941  -94.649218   20.234154    0.000000    0.000000    0.000000    0.000000
  0.026400000   -7.267340  147.750366  -94.027965   19.363285    0.000000    0.000000    0.000000    0.000000
  0.026600000   -7.265204  147.497437  -95.988851   14.770303    0.000000    0.000000    0.000000    0.000000
  0.026800000   -7.270151  147.238586  -97.918018   31.359051    0.000000    0.000000    0.000000    0.000000
  0.027000000   -7.267622  146.985931  -95.091745   22.788715    0.000000    0.000000    0.000000    0.000000
  0.027200000   -7.267270  146.725677  -96.162456   19.326361    0.000000    0.000000    0.000000    0.000000
  0.027400000   -7.264295  146.439941  -94.774299   26.028847    0.000000    0.000000    0.000000    0.000000
  0.027600000   -7.261850  146.182159  -95.270868   16.409449    0.000000    0.000000    0.000000    0.000000
  0.027800000   -7.259267  145.923706  -96.390390   25.118809    0.000000    0.000000    0.000000    0.000000
  0.028000000   -7.256105  145.656845  -96.624781   30.362875    0.000000    0.000000    0.000000    0.000000
  0.028200000   -7.257735  145.406372  -95.765741   13.395860    0.000000    0.000000    0.000000    0.000000
  0.028400000   -7.254209  145.183670  -96.046930   20.768784    0.000000    0.000000    0.000000    0.000000
  0.028600000   -7.256780  144.976746  -97.246706   20.614529    0.000000    0.000000    0.000000    0.000000
  0.028800000   -7.250326  144.762680  -95.324914   20.107517    0.000000    0.000000    0.000000    0.000000
  0.029000000   -7.248607  144.548859  -95.752435   29.247332    0.000000    0.000000    0.000000    0.000000
  0.029200000   -7.246296  144.369507  -96.665769   12.881051    0.000000    0.000000    0.000000    0.000000
  0.029400000   -7.247331  144.181229  -96.937243   17.644030    0.000000    0.000000    0.000000    0.000000
  0.029600000   -7.250667  143.983231  -96.122152   16.127426    0.000000    0.000000    0.000000    0.000000
  0.029800000   -7.252146  143.752960  -97.150146   17.782406    0.000000    0.000000    0.000000    0.000000
  0.030000000   -7.254683  143.521530  -96.170573   18.185324    0.000000    0.000000    0.000000    0.000000
  0.030200000   -7.256699  143.255890  -96.584695   13.476301    0.000000    0.000000    0.000000    0.000000
  0.030400000   -7.257899  143.021759  -96.501369   14.268560    0.000000    0.000000    0.000000    0.000000
  0.030600000   -7.259812  142.739746  -97.898042   16.565641    0.000000    0.000000    0.000000    0.000000
  0.030800000   -7.261801  142.509995  -96.884508   23.520155    0.000000    0.000000    0.000000    0.000000
  0.031000000   -7.263162  142.252213  -97.053251   16.882385    0.000000    0.000000    0.000000    0.000000
  0.031200000   -7.254597  142.048767  -96.307681   15.123914    0.000000    0.000000    0.000000    0.000000
  0.031400000   -7.260317  141.780319  -98.136786   12.843477    0.000000    0.000000    0.000000    0.000000
  0.031600000   -7.263410  141.525497  -97.364844   11.303793    0.000000    0.000000    0.000000    0.000000
  0.031800000   -7.262061  141.282913  -95.773133    5.929691    0.000000    0.000000    0.000000    0.000000
  0.032000000   -7.258743  141.025620  -97.072758    5.901845    0.000000    0.000000    0.000000    0.000000
  0.032200000   -7.260150  140.762787  -97.687573   15.889377    0.000000    0.000000    0.000000    0.000000
  0.032400000   -7.252847  140.519684  -97.687696    6.708136    0.000000    0.000000    0.000000    0.000000
  0.032600000   -7.248409  140.288940  -98.783870    9.065282    0.000000    0.000000    0.000000    0.000000
  0.032800000   -7.247885  140.068604  -98.833575   14.719212    0.000000    0.000000    0.000000    0.000000
  0.033000000   -7.243426  139.847366  -97.236263    4.160985    0.000000    0.000000    0.000000    0.000000
  0.033200000   -7.249035  139.630325  -97.417052    6.834618    0.000000    0.000000    0.000000    0.000000
  0.033400000   -7.243518  139.409821  -96.982489   14.102554    0.000000    0.000000    0.000000    0.000000
  0.033600000   -7.244212  139.222702  -97.850469    8.950495    0.000000    0.000000    0.000000    0.000000
  0.033800000   -7.249116  138.997772  -97.338768   17.807400    0.000000    0.000000    0.000000    0.000000
  0.034000000   -7.252328  138.757050  -98.154235   13.570485    0.000000    0.000000    0.000000    0.000000
  0.034200000   -7.259630  138.506927  -99.301848   16.548231    0.000000    0.000000    0.000000    0.000000
  0.034400000   -7.259913  138.218597  -98.516079   11.972227    0.000000    0.000000    0.000000    0.000000
  0.034600000   -7.264735  137.956985 -100.333715   25.655882    0.000000    0.000000    0.000000    0.000000
  0.034800000   -7.265769  137.701538  -97.756873   23.986126    0.000000    0.000000    0.000000    0.000000
  0.035000000   -7.270047  137.402496  -98.241285    6.105344    0.000000    0.000000    0.000000    0.000000
  0.035200000   -7.272995  137.148727  -99.340711   -1.098968    0.000000    0.000000    0.000000    0.000000
  0.035400000   -7.266202  136.890259  -98.117617   10.304731    0.000000    0.000000    0.000000    0.000000
  0.035600000   -7.262936  136.642426  -98.903544    9.009542    0.000000    0.000000    0.000000    0.000000
  0.035800000   -7.257200  136.378998  -99.919243    6.961413    0.000000    0.000000    0.000000    0.000000
  0.036000000   -7.254138  136.123123  -99.722613   10.109835    0.000000    0.000000    0.000000    0.000000
  0.036200000   -7.245407  135.876495  -98.388847   13.806041    0.000000    0.000000    0.000000    0.000000
  0.036400000   -7.240621  135.647995  -98.080181    4.656742    0.000000    0.000000    0.000000    0.000000
  0.036600000   -7.235689  135.430023 -100.807688    7.328225    0.000000    0.000000    0.000000    0.000000
  0.036800000   -7.232902  135.220810  -97.919623    4.631572    0.000000    0.000000    0.000000    0.000000
  0.037000000   -7.232119  135.034286 -100.423225    6.009748    0.000000    0.000000    0.000000    0.000000
  0.037200000   -7.235420  134.811844  -98.839143   -9.452993    0.000000    0.000000    0.000000    0.000000
  0.037400000   -7.235950  134.588348  -98.781280    8.680739    0.000000    0.000000    0.000000    0.000000
  0.037600000   -7.239330  134.373917  -99.143832    1.383317    0.000000    0.000000    0.000000    0.000000
  0.037800000   -7.243384  134.123062 -101.011797   17.250458    0.000000    0.000000    0.000000    0.000000
  0.038000000   -7.243321  133.879868 -100.577368   -0.799464    0.000000    0.000000    0.000000    0.000000
  0.038200000   -7.249370  133.625046  -99.909837   26.845547    0.000000    0.000000    0.000000    0.000000
  0.038400000   -7.253583  133.357651  -98.439256    2.694363    0.000000    0.000000    0.000000    0.000000
  0.038600000   -7.254513  133.125183  -99.578634    5.736880    0.000000    0.000000    0.000000    0.000000
  0.038800000   -7.256040  132.863129 -100.787622   14.026444    0.000000    0.000000    0.000000    0.000000
  0.039000000   -7.254953  132.628784 -100.631225    0.566177    0.000000    0.000000    0.000000    0.000000
  0.039200000   -7.255675  132.394089 -100.308868    4.340697    0.000000    0.000000    0.000000    0.000000
  0.039400000   -7.253291  132.154175  -98.812439   10.239583    0.000000    0.000000    0.000000    0.000000
  0.039600000   -7.250456  131.891678 -100.613166   16.428892    0.000000    0.000000    0.000000    0.000000
  0.039800000   -7.247143  131.627792  -99.357053    4.865581    0.000000    0.000000    0.000000    0.000000
  0.040000000   -7.239233  131.331116 -100.263726    9.099214    0.000000    0.000000    0.000000    0.000000
  0.040200000   -7.235846  131.117157 -102.815377   -1.671221    0.000000    0.000000    0.000000    0.000000
  0.040400000   -7.226558  130.905365 -100.094937   -0.130778    0.000000    0.000000    0.000000    0.000000
  0.040600000   -7.223759  130.700745 -100.600515   -5.859060    0.000000    0.000000    0.000000    0.000000
  0.040800000   -7.226025  130.504288 -103.096611   10.423199    0.000000    0.000000    0.000000    0.000000
  0.041000000   -7.229663  130.330505 -100.092355   -9.615157    0.000000    0.000000    0.000000    0.000000
  0.041200000   -7.236060  130.103058 -101.262475   14.517728    0.000000    0.000000    0.000000    0.000000
  0.041400000   -7.242168  129.888672 -101.484469    9.645121    0.000000    0.000000    0.000000    0.000000
  0.041600000   -7.248470  129.649994  -99.943557    4.118710    0.000000    0.000000    0.000000    0.000000
  0.041800000   -7.252441  129.399811 -102.097485   -1.482930    0.000000    0.000000    0.000000    0.000000
  0.042000000   -7.257741  129.139175  -99.092861   10.348321    0.000000    0.000000    0.000000    0.000000
  0.042200000   -7.259568  128.882462 -100.796383    4.988301    0.000000    0.000000    0.000000    0.000000
  0.042400000   -7.266683  128.638153 -100.824615    1.097982    0.000000    0.000000    0.000000    0.000000
  0.042600000   -7.263005  128.377029 -100.812922   18.912701    0.000000    0.000000    0.000000    0.000000
  0.042800000   -7.259570  128.093948  -98.073146   -2.173534    0.000000    0.000000    0.000000    0.000000
