! Anritsu VNA Master:                     Model: MS2036C/10/77
! SN:                                  1601066
! /card0/usr/200ohm2.s2p
! Existing Calibration Information:
! TYPE:                         Current Settings,       Active Cal Settings
! TIME:             	   12/20/2017 03:55:33 PM,    12/20/2017 03:36:34 PM
! INTERNAL TEMP:    	                   44.3 C,                    44.5 C
! # POINTS:         	                      501,                       501
! START FREQ:       	               10.000 MHz,                10.000 MHz
! STOP FREQ:        	              110.000 MHz,               110.000 MHz
! SOURCE POWER:     	                     High,                      High
! IFBW:             	                   100 Hz,                    100 Hz
! AVG FACTOR:       	                       1 ,                        1 
! REF PLANE 1:      	                     0 mm,                      0 mm
! REF PLANE 2:      	                     0 mm,                      0 mm
! CAL TYPE:         	                 Full S11,                  Full S11
! CAL METHOD:       	                     SOLT,                      SOLT
! CAL LINE TYPE:    	                     Coax,                      Coax
! DUT PORT 1:       	                K-Conn(F),                 K-Conn(F)
! DUT PORT 2:       	                K-Conn(F),                 K-Conn(F)
! CAL STATUS:       	        OK: Accuracy High,                        --
# GHZ S DB R 50.0
! FREQ.GHZ       S11DB        S11A       S21DB        S21A       S12DB        S12A       S22DB        S22A
  0.010000000   -4.520168  -11.108147  -84.181637   74.416519    0.000000    0.000000    0.000000    0.000000
  0.010200000   -4.511420  -11.292403  -84.059376   75.622719    0.000000    0.000000    0.000000    0.000000
  0.010400000   -4.508958  -11.449841  -84.419359   74.788239    0.000000    0.000000    0.000000    0.000000
  0.010600000   -4.510959  -11.704485  -84.938398   78.081642    0.000000    0.000000    0.000000    0.000000
  0.010800000   -4.514347  -11.933054  -85.323800   74.999321    0.000000    0.000000    0.000000    0.000000
  0.011000000   -4.514701  -12.154825  -84.530626   76.045509    0.000000    0.000000    0.000000    0.000000
  0.011200000   -4.519371  -12.371993  -84.762354   76.958702    0.000000    0.000000    0.000000    0.000000
  0.011400000   -4.515071  -12.608351  -85.162771   75.202782    0.000000    0.000000    0.000000    0.000000
  0.011600000   -4.514587  -12.799939  -85.453429   75.943687    0.000000    0.000000    0.000000    0.000000
  0.011800000   -4.518089  -13.029079  -84.983104   73.413284    0.000000    0.000000    0.000000    0.000000
  0.012000000   -4.520304  -13.260277  -84.841192   72.840118    0.000000    0.000000    0.000000    0.000000
  0.012200000   -4.522252  -13.492980  -84.457819   69.889969    0.000000    0.000000    0.000000    0.000000
  0.012400000   -4.524038  -13.745410  -85.534457   68.525558    0.000000    0.000000    0.000000    0.000000
  0.012600000   -4.525673  -13.973513  -85.207502   68.047249    0.000000    0.000000    0.000000    0.000000
  0.012800000   -4.526535  -14.202526  -85.569221   69.654144    0.000000    0.000000    0.000000    0.000000
  0.013000000   -4.531024  -14.419135  -85.360324   68.147079    0.000000    0.000000    0.000000    0.000000
  0.013200000   -4.532045  -14.633300  -85.633694   65.798889    0.000000    0.000000    0.000000    0.000000
  0.013400000   -4.534908  -14.880018  -85.811423   64.000771    0.000000    0.000000    0.000000    0.000000
  0.013600000   -4.532127  -15.112323  -85.762649   59.642624    0.000000    0.000000    0.000000    0.000000
  0.013800000   -4.532475  -15.354499  -85.874407   58.697178    0.000000    0.000000    0.000000    0.000000
  0.014000000   -4.536106  -15.577551  -86.136694   55.964451    0.000000    0.000000    0.000000    0.000000
  0.014200000   -4.536581  -15.839010  -86.253278   53.613842    0.000000    0.000000    0.000000    0.000000
  0.014400000   -4.537464  -16.068844  -86.288351   53.806549    0.000000    0.000000    0.000000    0.000000
  0.014600000   -4.535320  -16.309851  -86.920509   48.796082    0.000000    0.000000    0.000000    0.000000
  0.014800000   -4.536348  -16.527735  -86.781758   48.163853    0.000000    0.000000    0.000000    0.000000
  0.015000000   -4.538820  -16.774612  -87.392661   46.692688    0.000000    0.000000    0.000000    0.000000
  0.015200000   -4.537392  -16.995893  -87.772994   46.048588    0.000000    0.000000    0.000000    0.000000
  0.015400000   -4.537497  -17.219587  -87.885034   48.522858    0.000000    0.000000    0.000000    0.000000
  0.015600000   -4.538698  -17.443905  -88.446267   43.098049    0.000000    0.000000    0.000000    0.000000
  0.015800000   -4.537440  -17.691277  -88.446293   45.399609    0.000000    0.000000    0.000000    0.000000
  0.016000000   -4.537183  -17.903591  -88.898348   45.153599    0.000000    0.000000    0.000000    0.000000
  0.016200000   -4.539407  -18.130857  -88.703047   45.427376    0.000000    0.000000    0.000000    0.000000
  0.016400000   -4.540269  -18.344557  -89.931324   46.562351    0.000000    0.000000    0.000000    0.000000
  0.016600000   -4.539516  -18.567320  -89.921959   42.869946    0.000000    0.000000    0.000000    0.000000
  0.016800000   -4.536588  -18.787085  -89.924964   45.700634    0.000000    0.000000    0.000000    0.000000
  0.017000000   -4.537433  -19.013828  -90.097244   40.938530    0.000000    0.000000    0.000000    0.000000
  0.017200000   -4.532404  -19.234768  -90.640565   44.707878    0.000000    0.000000    0.000000    0.000000
  0.017400000   -4.529299  -19.445280  -90.650389   45.731010    0.000000    0.000000    0.000000    0.000000
  0.017600000   -4.531003  -19.686316  -90.421925   45.920521    0.000000    0.000000    0.000000    0.000000
  0.017800000   -4.529269  -19.892593  -90.448656   46.097683    0.000000    0.000000    0.000000    0.000000
  0.018000000   -4.530648  -20.093725  -90.614814   44.485687    0.000000    0.000000    0.000000    0.000000
  0.018200000   -4.533765  -20.293140  -90.352186   45.974937    0.000000    0.000000    0.000000    0.000000
  0.018400000   -4.535016  -20.548880  -91.136595   44.071949    0.000000    0.000000    0.000000    0.000000
  0.018600000   -4.537472  -20.756479  -89.894194   45.410454    0.000000    0.000000    0.000000    0.000000
  0.018800000   -4.538829  -20.987364  -89.991530   41.415157    0.000000    0.000000    0.000000    0.000000
  0.019000000   -4.538829  -21.208261  -89.975864   40.513794    0.000000    0.000000    0.000000    0.000000
  0.019200000   -4.542010  -21.414261  -90.595466   46.055882    0.000000    0.000000    0.000000    0.000000
  0.019400000   -4.540727  -21.637205  -90.031087   40.484989    0.000000    0.000000    0.000000    0.000000
  0.019600000   -4.545989  -21.878065  -90.062627   40.439537    0.000000    0.000000    0.000000    0.000000
  0.019800000   -4.544347  -22.087763  -90.243685   43.341011    0.000000    0.000000    0.000000    0.000000
  0.020000000   -4.546336  -22.324764  -90.068830   40.226887    0.000000    0.000000    0.000000    0.000000
  0.020200000   -4.546187  -22.555159  -89.973928   35.432701    0.000000    0.000000    0.000000    0.000000
  0.020400000   -4.546310  -22.781544  -90.715245   39.412407    0.000000    0.000000    0.000000    0.000000
  0.020600000   -4.545395  -23.021477  -90.803729   35.794552    0.000000    0.000000    0.000000    0.000000
  0.020800000   -4.546505  -23.266586  -91.305359   31.996725    0.000000    0.000000    0.000000    0.000000
  0.021000000   -4.548555  -23.494867  -91.002529   32.941963    0.000000    0.000000    0.000000    0.000000
  0.021200000   -4.552133  -23.742983  -91.467418   29.685091    0.000000    0.000000    0.000000    0.000000
  0.021400000   -4.552536  -23.988598  -91.834959   36.380966    0.000000    0.000000    0.000000    0.000000
  0.021600000   -4.551544  -24.221437  -91.992165   29.858879    0.000000    0.000000    0.000000    0.000000
  0.021800000   -4.551181  -24.445805  -92.327001   31.155764    0.000000    0.000000    0.000000    0.000000
  0.022000000   -4.554627  -24.662708  -91.451450   26.556145    0.000000    0.000000    0.000000    0.000000
  0.022200000   -4.554516  -24.891790  -92.746600   29.671965    0.000000    0.000000    0.000000    0.000000
  0.022400000   -4.554610  -25.109419  -93.004362   28.723448    0.000000    0.000000    0.000000    0.000000
  0.022600000   -4.551501  -25.327402  -92.709772   26.930784    0.000000    0.000000    0.000000    0.000000
  0.022800000   -4.551656  -25.563093  -92.968921   28.385891    0.000000    0.000000    0.000000    0.000000
  0.023000000   -4.555751  -25.783445  -94.172502   30.438189    0.000000    0.000000    0.000000    0.000000
  0.023200000   -4.557330  -26.007404  -94.167930   26.888264    0.000000    0.000000    0.000000    0.000000
  0.023400000   -4.561976  -26.351414  -93.536061   29.801338    0.000000    0.000000    0.000000    0.000000
  0.023600000   -4.558036  -26.460382  -93.019417   33.561729    0.000000    0.000000    0.000000    0.000000
  0.023800000   -4.553039  -26.696320  -93.270068   31.033350    0.000000    0.000000    0.000000    0.000000
  0.024000000   -4.551731  -26.936474  -93.761334   30.980955    0.000000    0.000000    0.000000    0.000000
  0.024200000   -4.546386  -27.161873  -94.685637   33.232418    0.000000    0.000000    0.000000    0.000000
  0.024400000   -4.547099  -27.386368  -94.647253   27.371782    0.000000    0.000000    0.000000    0.000000
  0.024600000   -4.548353  -27.616381  -94.532639   34.163944    0.000000    0.000000    0.000000    0.000000
  0.024800000   -4.549427  -27.863722  -94.545686   31.358061    0.000000    0.000000    0.000000    0.000000
  0.025000000   -4.549538  -28.059172  -93.481585   24.697889    0.000000    0.000000    0.000000    0.000000
  0.025200000   -4.548110  -28.288401  -94.613179   24.092436    0.000000    0.000000    0.000000    0.000000
  0.025400000   -4.550769  -28.482830  -94.242333   25.951326    0.000000    0.000000    0.000000    0.000000
  0.025600000   -4.554503  -28.692648  -93.930755   23.675911    0.000000    0.000000    0.000000    0.000000
  0.025800000   -4.556288  -28.865448  -94.189191   19.121321    0.000000    0.000000    0.000000    0.000000
  0.026000000   -4.555297  -29.078711  -93.909375   22.978306    0.000000    0.000000    0.000000    0.000000
  0.026200000   -4.561471  -29.307793  -95.309697   26.029158    0.000000    0.000000    0.000000    0.000000
  0.026400000   -4.564634  -29.526443  -93.745246   18.273909    0.000000    0.000000    0.000000    0.000000
  0.026600000   -4.566489  -29.752071  -94.831097   13.044249    0.000000    0.000000    0.000000    0.000000
  0.026800000   -4.567175  -29.999485  -94.021477   21.550404    0.000000    0.000000    0.000000    0.000000
  0.027000000   -4.569286  -30.245749  -93.721096   22.735266    0.000000    0.000000    0.000000    0.000000
  0.027200000   -4.568810  -30.496754  -95.023881   22.324186    0.000000    0.000000    0.000000    0.000000
  0.027400000   -4.568774  -30.738724  -95.023088   15.801208    0.000000    0.000000    0.000000    0.000000
  0.027600000   -4.572977  -30.973869  -94.985121   21.968111    0.000000    0.000000    0.000000    0.000000
  0.027800000   -4.573843  -31.228252  -94.572654   15.245692    0.000000    0.000000    0.000000    0.000000
  0.028000000   -4.576659  -31.462234  -95.785531   20.182123    0.000000    0.000000    0.000000    0.000000
  0.028200000   -4.573827  -31.751959  -95.128726   11.613469    0.000000    0.000000    0.000000    0.000000
  0.028400000   -4.573482  -31.977959  -95.957194   21.192406    0.000000    0.000000    0.000000    0.000000
  0.028600000   -4.565080  -32.201962  -95.644275   18.159443    0.000000    0.000000    0.000000    0.000000
  0.028800000   -4.564511  -32.406086  -97.728591   18.471161    0.000000    0.000000    0.000000    0.000000
  0.029000000   -4.561182  -32.607506  -96.365118   18.779783    0.000000    0.000000    0.000000    0.000000
  0.029200000   -4.563212  -32.796623  -96.140693   14.492159    0.000000    0.000000    0.000000    0.000000
  0.029400000   -4.559788  -32.968773  -97.167724    8.262938    0.000000    0.000000    0.000000    0.000000
  0.029600000   -4.562448  -33.169769  -96.759239   18.147682    0.000000    0.000000    0.000000    0.000000
  0.029800000   -4.567960  -33.375969  -97.229953   19.054407    0.000000    0.000000    0.000000    0.000000
  0.030000000   -4.573325  -33.589821  -96.768341   20.328690    0.000000    0.000000    0.000000    0.000000
  0.030200000   -4.578970  -33.820423  -97.067001   21.940809    0.000000    0.000000    0.000000    0.000000
  0.030400000   -4.581592  -34.067867  -97.265147   23.096762    0.000000    0.000000    0.000000    0.000000
  0.030600000   -4.583610  -34.305939  -97.062950   13.134711    0.000000    0.000000    0.000000    0.000000
  0.030800000   -4.582757  -34.582001  -98.035360   15.203144    0.000000    0.000000    0.000000    0.000000
  0.031000000   -4.581793  -34.852726  -96.997056   21.466261    0.000000    0.000000    0.000000    0.000000
  0.031200000   -4.576161  -35.086040  -98.192598   19.027670    0.000000    0.000000    0.000000    0.000000
  0.031400000   -4.577495  -35.305405  -99.755629   13.571712    0.000000    0.000000    0.000000    0.000000
  0.031600000   -4.572247  -35.554398  -97.067285   11.636458    0.000000    0.000000    0.000000    0.000000
  0.031800000   -4.570102  -35.770081  -97.460526    7.163192    0.000000    0.000000    0.000000    0.000000
  0.032000000   -4.567592  -36.022961  -96.884382    8.835240    0.000000    0.000000    0.000000    0.000000
  0.032200000   -4.562434  -36.216236  -97.763498   24.047956    0.000000    0.000000    0.000000    0.000000
  0.032400000   -4.555289  -36.431244  -95.834778   10.757771    0.000000    0.000000    0.000000    0.000000
  0.032600000   -4.552301  -36.643826  -96.790280   32.072025    0.000000    0.000000    0.000000    0.000000
  0.032800000   -4.549414  -36.840298  -98.494555    9.941610    0.000000    0.000000    0.000000    0.000000
  0.033000000   -4.546190  -37.024078  -98.570092    7.800742    0.000000    0.000000    0.000000    0.000000
  0.033200000   -4.549372  -37.223743  -97.340015   17.979591    0.000000    0.000000    0.000000    0.000000
  0.033400000   -4.550805  -37.429134  -97.584833   17.053110    0.000000    0.000000    0.000000    0.000000
  0.033600000   -4.555806  -37.679977  -97.365590    8.206289    0.000000    0.000000    0.000000    0.000000
  0.033800000   -4.553126  -37.884151  -99.703982   16.656780    0.000000    0.000000    0.000000    0.000000
  0.034000000   -4.558734  -38.117481  -98.556924   11.095047    0.000000    0.000000    0.000000    0.000000
  0.034200000   -4.555606  -38.364540  -96.798266   18.114981    0.000000    0.000000    0.000000    0.000000
  0.034400000   -4.563496  -38.599915  -98.410622   14.692537    0.000000    0.000000    0.000000    0.000000
  0.034600000   -4.567844  -38.837929  -97.644458    2.827338    0.000000    0.000000    0.000000    0.000000
  0.034800000   -4.570560  -39.086845  -98.770357   10.521008    0.000000    0.000000    0.000000    0.000000
  0.035000000   -4.572246  -39.320698  -98.596776    8.106304    0.000000    0.000000    0.000000    0.000000
  0.035200000   -4.576819  -39.581470  -99.146771   -0.410539    0.000000    0.000000    0.000000    0.000000
  0.035400000   -4.579061  -39.809822  -97.452931    4.893600    0.000000    0.000000    0.000000    0.000000
  0.035600000   -4.577406  -40.043053 -100.014178   -3.775826    0.000000    0.000000    0.000000    0.000000
  0.035800000   -4.577198  -40.291580  -99.339291   14.763816    0.000000    0.000000    0.000000    0.000000
  0.036000000   -4.574892  -40.522915  -98.999937   21.005997    0.000000    0.000000    0.000000    0.000000
  0.036200000   -4.570812  -40.760082  -99.495627    9.491101    0.000000    0.000000    0.000000    0.000000
  0.036400000   -4.569202  -40.996227  -98.479018    7.037926    0.000000    0.000000    0.000000    0.000000
  0.036600000   -4.562682  -41.232697  -98.583802   14.443045    0.000000    0.000000    0.000000    0.000000
  0.036800000   -4.560541  -41.423328  -98.598374    8.532863    0.000000    0.000000    0.000000    0.000000
  0.037000000   -4.556139  -41.625130  -98.479642   10.524479    0.000000    0.000000    0.000000    0.000000
  0.037200000   -4.552676  -41.780972 -101.921371   14.473463    0.000000    0.000000    0.000000    0.000000
  0.037400000   -4.558128  -41.968834  -98.478001   18.964621    0.000000    0.000000    0.000000    0.000000
  0.037600000   -4.563374  -42.182888  -99.553526    5.465595    0.000000    0.000000    0.000000    0.000000
  0.037800000   -4.570340  -42.371532  -98.208808   21.960049    0.000000    0.000000    0.000000    0.000000
  0.038000000   -4.581410  -42.619907  -97.612809   21.493088    0.000000    0.000000    0.000000    0.000000
  0.038200000   -4.586854  -42.861111  -98.400318    9.810479    0.000000    0.000000    0.000000    0.000000
  0.038400000   -4.590728  -43.110901  -99.495353   25.532314    0.000000    0.000000    0.000000    0.000000
  0.038600000   -4.596992  -43.357674 -100.081621   10.349918    0.000000    0.000000    0.000000    0.000000
  0.038800000   -4.596312  -43.600864  -99.965996   11.856257    0.000000    0.000000    0.000000    0.000000
  0.039000000   -4.598159  -43.869251  -99.636760   -0.539906    0.000000    0.000000    0.000000    0.000000
  0.039200000   -4.598115  -44.128216 -100.097457    7.525665    0.000000    0.000000    0.000000    0.000000
  0.039400000   -4.594505  -44.400406 -101.662213    7.018170    0.000000    0.000000    0.000000    0.000000
  0.039600000   -4.592679  -44.625267  -99.385957    3.737781    0.000000    0.000000    0.000000    0.000000
  0.039800000   -4.582287  -44.886913  -99.063139   -3.111310    0.000000    0.000000    0.000000    0.000000
  0.040000000   -4.580543  -45.097137 -100.868813    4.616206    0.000000    0.000000    0.000000    0.000000
  0.040200000   -4.574584  -45.319000 -100.143255    1.082160    0.000000    0.000000    0.000000    0.000000
  0.040400000   -4.575673  -45.541412 -102.798886    8.793786    0.000000    0.000000    0.000000    0.000000
  0.040600000   -4.575098  -45.734177 -102.161694   -0.390562    0.000000    0.000000    0.000000    0.000000
  0.040800000   -4.575016  -45.944462 -100.565507    2.753590    0.000000    0.000000    0.000000    0.000000
  0.041000000   -4.577048  -46.163212 -100.741119    9.174071    0.000000    0.000000    0.000000    0.000000
  0.041200000   -4.583495  -46.384502 -101.599239   14.101713    0.000000    0.000000    0.000000    0.000000
  0.041400000   -4.585977  -46.604790 -100.080846   10.711272    0.000000    0.000000    0.000000    0.000000
  0.041600000   -4.592009  -46.860012  -99.894672   17.032637    0.000000    0.000000    0.000000    0.000000
  0.041800000   -4.590757  -47.114059 -101.860515    1.056067    0.000000    0.000000    0.000000    0.000000
  0.042000000   -4.593255  -47.337727  -99.386209   -3.517500    0.000000    0.000000    0.000000    0.000000
  0.042200000   -4.594031  -47.562283 -102.847980   12.491129    0.000000    0.000000    0.000000    0.000000
  0.042400000   -4.594597  -47.794422 -103.086422   10.919898    0.000000    0.000000    0.000000    0.000000
  0.042600000   -4.594856  -48.031490  -99.889974   11.459218    0.000000    0.000000    0.000000    0.000000
  0.042800000   -4.594470  -48.251030 -104.108861   -7.514866    0.000000    0.000000    0.000000    0.000000
