! Anritsu VNA Master:                     Model: MS2036C/10/77
! SN:                                  1601066
! /card0/usr/200ohm3.s2p
! Existing Calibration Information:
! TYPE:                         Current Settings,       Active Cal Settings
! TIME:             	   12/20/2017 04:16:23 PM,    12/20/2017 04:05:21 PM
! INTERNAL TEMP:    	                   42.0 C,                    43.3 C
! # POINTS:         	                      501,                       501
! START FREQ:       	               10.000 MHz,                10.000 MHz
! STOP FREQ:        	              110.000 MHz,               110.000 MHz
! SOURCE POWER:     	                     High,                      High
! IFBW:             	                   100 Hz,                    100 Hz
! AVG FACTOR:       	                       1 ,                        1 
! REF PLANE 1:      	                     0 mm,                      0 mm
! REF PLANE 2:      	                     0 mm,                      0 mm
! CAL TYPE:         	                 Full S11,                  Full S11
! CAL METHOD:       	                     SOLT,                      SOLT
! CAL LINE TYPE:    	                     Coax,                      Coax
! DUT PORT 1:       	                K-Conn(F),                 K-Conn(F)
! DUT PORT 2:       	                K-Conn(F),                 K-Conn(F)
! CAL STATUS:       	        OK: Accuracy High,                        --
# GHZ S DB R 50.0
! FREQ.GHZ       S11DB        S11A       S21DB        S21A       S12DB        S12A       S22DB        S22A
  0.010000000   -4.521169  -11.120057  -84.805264   74.444733    0.000000    0.000000    0.000000    0.000000
  0.010200000   -4.509865  -11.294088  -84.310511   76.993637    0.000000    0.000000    0.000000    0.000000
  0.010400000   -4.510631  -11.483129  -85.126304   78.961220    0.000000    0.000000    0.000000    0.000000
  0.010600000   -4.509210  -11.703670  -85.031012   75.946121    0.000000    0.000000    0.000000    0.000000
  0.010800000   -4.513334  -11.939519  -85.032251   77.170753    0.000000    0.000000    0.000000    0.000000
  0.011000000   -4.513261  -12.155931  -84.622056   76.846687    0.000000    0.000000    0.000000    0.000000
  0.011200000   -4.511904  -12.377069  -84.697593   75.571281    0.000000    0.000000    0.000000    0.000000
  0.011400000   -4.510862  -12.595236  -84.978843   76.320786    0.000000    0.000000    0.000000    0.000000
  0.011600000   -4.516331  -12.821527  -84.901563   75.899086    0.000000    0.000000    0.000000    0.000000
  0.011800000   -4.515906  -13.028023  -85.134534   76.021736    0.000000    0.000000    0.000000    0.000000
  0.012000000   -4.519080  -13.279373  -85.246379   72.194656    0.000000    0.000000    0.000000    0.000000
  0.012200000   -4.519749  -13.508056  -85.218478   70.968925    0.000000    0.000000    0.000000    0.000000
  0.012400000   -4.523470  -13.733078  -85.049172   69.886482    0.000000    0.000000    0.000000    0.000000
  0.012600000   -4.527257  -13.986256  -84.683305   70.378426    0.000000    0.000000    0.000000    0.000000
  0.012800000   -4.526503  -14.204165  -85.058902   68.725281    0.000000    0.000000    0.000000    0.000000
  0.013000000   -4.531905  -14.431000  -85.663352   65.083504    0.000000    0.000000    0.000000    0.000000
  0.013200000   -4.533613  -14.666639  -84.976867   61.227299    0.000000    0.000000    0.000000    0.000000
  0.013400000   -4.535780  -14.885447  -85.352662   63.452084    0.000000    0.000000    0.000000    0.000000
  0.013600000   -4.534470  -15.123598  -85.683348   61.975060    0.000000    0.000000    0.000000    0.000000
  0.013800000   -4.532655  -15.352721  -85.797277   59.867092    0.000000    0.000000    0.000000    0.000000
  0.014000000   -4.536828  -15.598934  -86.274123   58.498085    0.000000    0.000000    0.000000    0.000000
  0.014200000   -4.538926  -15.835066  -85.906414   54.743526    0.000000    0.000000    0.000000    0.000000
  0.014400000   -4.538023  -16.075233  -86.806371   51.470257    0.000000    0.000000    0.000000    0.000000
  0.014600000   -4.538232  -16.300577  -86.642189   51.307877    0.000000    0.000000    0.000000    0.000000
  0.014800000   -4.538750  -16.539190  -86.869057   51.427761    0.000000    0.000000    0.000000    0.000000
  0.015000000   -4.539157  -16.765898  -87.351246   51.746822    0.000000    0.000000    0.000000    0.000000
  0.015200000   -4.540904  -16.992165  -87.560938   50.170410    0.000000    0.000000    0.000000    0.000000
  0.015400000   -4.541362  -17.225769  -87.996038   48.045322    0.000000    0.000000    0.000000    0.000000
  0.015600000   -4.540968  -17.503830  -88.061555   48.681648    0.000000    0.000000    0.000000    0.000000
  0.015800000   -4.540851  -17.703424  -88.400911   44.523396    0.000000    0.000000    0.000000    0.000000
  0.016000000   -4.543837  -17.934643  -88.716232   47.381611    0.000000    0.000000    0.000000    0.000000
  0.016200000   -4.545117  -18.149704  -89.331045   43.808613    0.000000    0.000000    0.000000    0.000000
  0.016400000   -4.546113  -18.366817  -89.886761   44.964592    0.000000    0.000000    0.000000    0.000000
  0.016600000   -4.544487  -18.569563  -89.091520   45.999943    0.000000    0.000000    0.000000    0.000000
  0.016800000   -4.543013  -18.801102  -89.752016   45.256618    0.000000    0.000000    0.000000    0.000000
  0.017000000   -4.543936  -19.027287  -89.650187   55.277374    0.000000    0.000000    0.000000    0.000000
  0.017200000   -4.535014  -19.250799  -90.696725   49.691853    0.000000    0.000000    0.000000    0.000000
  0.017400000   -4.536816  -19.464642  -89.217662   49.062878    0.000000    0.000000    0.000000    0.000000
  0.017600000   -4.533676  -19.709244  -90.798488   46.234398    0.000000    0.000000    0.000000    0.000000
  0.017800000   -4.535511  -19.900517  -90.724797   50.360535    0.000000    0.000000    0.000000    0.000000
  0.018000000   -4.535169  -20.115334  -90.605049   46.476372    0.000000    0.000000    0.000000    0.000000
  0.018200000   -4.538304  -20.338314  -91.067825   50.426353    0.000000    0.000000    0.000000    0.000000
  0.018400000   -4.541506  -20.561010  -91.406873   45.932980    0.000000    0.000000    0.000000    0.000000
  0.018600000   -4.538221  -20.772610  -90.343489   47.198280    0.000000    0.000000    0.000000    0.000000
  0.018800000   -4.540506  -21.005997  -89.772109   48.771667    0.000000    0.000000    0.000000    0.000000
  0.019000000   -4.539916  -21.246088  -90.719488   46.106705    0.000000    0.000000    0.000000    0.000000
  0.019200000   -4.539873  -21.416313  -90.517906   40.909248    0.000000    0.000000    0.000000    0.000000
  0.019400000   -4.546110  -21.647343  -90.069845   42.865143    0.000000    0.000000    0.000000    0.000000
  0.019600000   -4.547167  -21.884417  -90.036399   42.628464    0.000000    0.000000    0.000000    0.000000
  0.019800000   -4.550802  -22.123013  -90.754071   41.303490    0.000000    0.000000    0.000000    0.000000
  0.020000000   -4.549673  -22.333803  -90.459465   32.819069    0.000000    0.000000    0.000000    0.000000
  0.020200000   -4.547476  -22.581312  -90.560093   40.144039    0.000000    0.000000    0.000000    0.000000
  0.020400000   -4.548942  -22.795656  -90.645705   33.236565    0.000000    0.000000    0.000000    0.000000
  0.020600000   -4.547787  -23.049101  -91.236946   34.485531    0.000000    0.000000    0.000000    0.000000
  0.020800000   -4.549427  -23.271719  -90.979933   34.896397    0.000000    0.000000    0.000000    0.000000
  0.021000000   -4.548524  -23.523468  -91.099929   30.804665    0.000000    0.000000    0.000000    0.000000
  0.021200000   -4.552138  -23.759489  -91.873481   35.559605    0.000000    0.000000    0.000000    0.000000
  0.021400000   -4.554387  -24.001131  -91.196704   30.834906    0.000000    0.000000    0.000000    0.000000
  0.021600000   -4.552432  -24.243071  -92.798346   30.051350    0.000000    0.000000    0.000000    0.000000
  0.021800000   -4.553895  -24.461601  -92.258168   26.139132    0.000000    0.000000    0.000000    0.000000
  0.022000000   -4.556018  -24.680769  -92.488709   30.029005    0.000000    0.000000    0.000000    0.000000
  0.022200000   -4.557951  -24.939997  -92.667326   26.207151    0.000000    0.000000    0.000000    0.000000
  0.022400000   -4.556710  -25.133234  -92.913873   32.872730    0.000000    0.000000    0.000000    0.000000
  0.022600000   -4.555539  -25.341938  -92.416004   30.810194    0.000000    0.000000    0.000000    0.000000
  0.022800000   -4.560230  -25.568470  -93.182165   24.589363    0.000000    0.000000    0.000000    0.000000
  0.023000000   -4.561704  -25.813931  -92.683053   33.739616    0.000000    0.000000    0.000000    0.000000
  0.023200000   -4.563152  -26.037794  -93.933359   27.370117    0.000000    0.000000    0.000000    0.000000
  0.023400000   -4.559317  -26.330952  -93.360822   30.986315    0.000000    0.000000    0.000000    0.000000
  0.023600000   -4.560851  -26.519739  -93.828110   28.966562    0.000000    0.000000    0.000000    0.000000
  0.023800000   -4.559036  -26.721531  -94.369024   25.323008    0.000000    0.000000    0.000000    0.000000
  0.024000000   -4.558270  -26.972958  -94.155686   24.955564    0.000000    0.000000    0.000000    0.000000
  0.024200000   -4.553786  -27.197702  -93.667295   31.555468    0.000000    0.000000    0.000000    0.000000
  0.024400000   -4.555377  -27.430922  -94.193463   28.976763    0.000000    0.000000    0.000000    0.000000
  0.024600000   -4.554473  -27.637947  -94.466434   32.077679    0.000000    0.000000    0.000000    0.000000
  0.024800000   -4.554681  -27.879314  -93.319781   30.512152    0.000000    0.000000    0.000000    0.000000
  0.025000000   -4.553968  -28.083746  -93.104241   28.709707    0.000000    0.000000    0.000000    0.000000
  0.025200000   -4.555238  -28.305365  -93.831963   34.959740    0.000000    0.000000    0.000000    0.000000
  0.025400000   -4.559560  -28.508694  -95.026522   34.607609    0.000000    0.000000    0.000000    0.000000
  0.025600000   -4.559607  -28.716827  -93.590052   23.640831    0.000000    0.000000    0.000000    0.000000
  0.025800000   -4.561282  -28.912382  -94.252363   27.060652    0.000000    0.000000    0.000000    0.000000
  0.026000000   -4.565957  -29.115297  -93.914236   26.222557    0.000000    0.000000    0.000000    0.000000
  0.026200000   -4.567357  -29.335827  -93.827270   20.941128    0.000000    0.000000    0.000000    0.000000
  0.026400000   -4.571570  -29.556608  -94.011470   26.063770    0.000000    0.000000    0.000000    0.000000
  0.026600000   -4.573474  -29.770716  -94.587416   25.138565    0.000000    0.000000    0.000000    0.000000
  0.026800000   -4.576442  -30.036371  -94.547792   26.959833    0.000000    0.000000    0.000000    0.000000
  0.027000000   -4.576796  -30.268244  -95.699905   19.941406    0.000000    0.000000    0.000000    0.000000
  0.027200000   -4.576108  -30.515551  -94.807714   16.426188    0.000000    0.000000    0.000000    0.000000
  0.027400000   -4.578376  -30.774380  -94.214921   22.506130    0.000000    0.000000    0.000000    0.000000
  0.027600000   -4.581121  -31.004101  -94.918779   11.554449    0.000000    0.000000    0.000000    0.000000
  0.027800000   -4.581495  -31.265352  -95.632119   21.607500    0.000000    0.000000    0.000000    0.000000
  0.028000000   -4.583230  -31.522491  -95.957601   14.732238    0.000000    0.000000    0.000000    0.000000
  0.028200000   -4.581221  -31.779194  -96.209449   18.352667    0.000000    0.000000    0.000000    0.000000
  0.028400000   -4.580249  -32.016033  -94.885520   17.108315    0.000000    0.000000    0.000000    0.000000
  0.028600000   -4.573565  -32.250084  -95.672281   10.190591    0.000000    0.000000    0.000000    0.000000
  0.028800000   -4.571827  -32.435352  -95.845289   25.235521    0.000000    0.000000    0.000000    0.000000
  0.029000000   -4.571775  -32.664452  -95.912393   17.295609    0.000000    0.000000    0.000000    0.000000
  0.029200000   -4.570044  -32.830292  -95.390628   16.978277    0.000000    0.000000    0.000000    0.000000
  0.029400000   -4.570848  -33.024933  -95.866278   21.862326    0.000000    0.000000    0.000000    0.000000
  0.029600000   -4.572054  -33.222698  -97.333348   20.302813    0.000000    0.000000    0.000000    0.000000
  0.029800000   -4.579530  -33.450718  -97.383697   19.948114    0.000000    0.000000    0.000000    0.000000
  0.030000000   -4.583073  -33.654030  -95.693503   19.386276    0.000000    0.000000    0.000000    0.000000
  0.030200000   -4.592874  -33.910744  -96.252134   20.691704    0.000000    0.000000    0.000000    0.000000
  0.030400000   -4.595792  -34.157604  -95.298619   12.612551    0.000000    0.000000    0.000000    0.000000
  0.030600000   -4.595717  -34.406799  -98.006475   16.931196    0.000000    0.000000    0.000000    0.000000
  0.030800000   -4.594910  -34.666519  -96.350501   21.976849    0.000000    0.000000    0.000000    0.000000
  0.031000000   -4.590339  -34.927452  -97.674934   16.842770    0.000000    0.000000    0.000000    0.000000
  0.031200000   -4.581109  -35.167858  -97.648017   17.963886    0.000000    0.000000    0.000000    0.000000
  0.031400000   -4.584215  -35.382545  -96.726153   14.834881    0.000000    0.000000    0.000000    0.000000
  0.031600000   -4.583055  -35.622719  -97.200205    7.379021    0.000000    0.000000    0.000000    0.000000
  0.031800000   -4.577588  -35.837761  -95.573195   16.893284    0.000000    0.000000    0.000000    0.000000
  0.032000000   -4.574176  -36.065960  -96.964678   21.918848    0.000000    0.000000    0.000000    0.000000
  0.032200000   -4.568774  -36.275738  -98.357891   20.376453    0.000000    0.000000    0.000000    0.000000
  0.032400000   -4.563227  -36.496784  -98.200418   21.488371    0.000000    0.000000    0.000000    0.000000
  0.032600000   -4.558700  -36.700600  -98.648871   17.961008    0.000000    0.000000    0.000000    0.000000
  0.032800000   -4.556556  -36.886997  -97.351381   16.093977    0.000000    0.000000    0.000000    0.000000
  0.033000000   -4.554236  -37.074203  -98.337398   15.059927    0.000000    0.000000    0.000000    0.000000
  0.033200000   -4.557784  -37.270065  -96.886256    8.022620    0.000000    0.000000    0.000000    0.000000
  0.033400000   -4.556998  -37.497391  -98.039806   18.130444    0.000000    0.000000    0.000000    0.000000
  0.033600000   -4.561809  -37.687321  -97.500130   22.178364    0.000000    0.000000    0.000000    0.000000
  0.033800000   -4.564629  -37.929363  -96.239474   12.354437    0.000000    0.000000    0.000000    0.000000
  0.034000000   -4.565012  -38.152584 -100.309953   -1.681390    0.000000    0.000000    0.000000    0.000000
  0.034200000   -4.564526  -38.382595 -100.351913    9.610162    0.000000    0.000000    0.000000    0.000000
  0.034400000   -4.570738  -38.589794  -97.892294    7.502991    0.000000    0.000000    0.000000    0.000000
  0.034600000   -4.574063  -38.872345  -96.571713   10.338715    0.000000    0.000000    0.000000    0.000000
  0.034800000   -4.579322  -39.092793  -98.644166    8.175117    0.000000    0.000000    0.000000    0.000000
  0.035000000   -4.583554  -39.346813  -98.239871    9.117968    0.000000    0.000000    0.000000    0.000000
  0.035200000   -4.588160  -39.584862  -98.704302    4.394932    0.000000    0.000000    0.000000    0.000000
  0.035400000   -4.586507  -39.839775  -99.855627   13.280111    0.000000    0.000000    0.000000    0.000000
  0.035600000   -4.585522  -40.078053  -98.697218   10.414648    0.000000    0.000000    0.000000    0.000000
  0.035800000   -4.583206  -40.282665  -98.431620    7.207563    0.000000    0.000000    0.000000    0.000000
  0.036000000   -4.583393  -40.537399  -98.333370    9.649929    0.000000    0.000000    0.000000    0.000000
  0.036200000   -4.578730  -40.777061  -99.031440   17.854723    0.000000    0.000000    0.000000    0.000000
  0.036400000   -4.573616  -41.027195  -99.435250    5.960611    0.000000    0.000000    0.000000    0.000000
  0.036600000   -4.564997  -41.256142  -99.187440   19.481480    0.000000    0.000000    0.000000    0.000000
  0.036800000   -4.563063  -41.446930  -99.402835   11.987659    0.000000    0.000000    0.000000    0.000000
  0.037000000   -4.559191  -41.636292 -100.758584    1.850372    0.000000    0.000000    0.000000    0.000000
  0.037200000   -4.563918  -41.799580 -100.296147   10.133101    0.000000    0.000000    0.000000    0.000000
  0.037400000   -4.565304  -41.979088 -100.477129   22.781494    0.000000    0.000000    0.000000    0.000000
  0.037600000   -4.568275  -42.205666  -99.107566    5.954390    0.000000    0.000000    0.000000    0.000000
  0.037800000   -4.572609  -42.419865 -102.241751    1.577581    0.000000    0.000000    0.000000    0.000000
  0.038000000   -4.587419  -42.639370  -99.332988   11.674459    0.000000    0.000000    0.000000    0.000000
  0.038200000   -4.592382  -42.876671  -99.250081   14.637828    0.000000    0.000000    0.000000    0.000000
  0.038400000   -4.598490  -43.121803 -100.188260   17.303875    0.000000    0.000000    0.000000    0.000000
  0.038600000   -4.602380  -43.390320  -98.429398    7.861846    0.000000    0.000000    0.000000    0.000000
  0.038800000   -4.603132  -43.634327  -98.653189   20.908779    0.000000    0.000000    0.000000    0.000000
  0.039000000   -4.603213  -43.899158 -100.802610    3.112427    0.000000    0.000000    0.000000    0.000000
  0.039200000   -4.601680  -44.149673  -99.399755    3.945414    0.000000    0.000000    0.000000    0.000000
  0.039400000   -4.600923  -44.402782 -102.380276   -1.620673    0.000000    0.000000    0.000000    0.000000
  0.039600000   -4.594131  -44.649616  -99.065693   13.881851    0.000000    0.000000    0.000000    0.000000
  0.039800000   -4.587844  -44.911915  -99.465738    6.439929    0.000000    0.000000    0.000000    0.000000
  0.040000000   -4.586211  -45.115135  -98.932030   12.699255    0.000000    0.000000    0.000000    0.000000
  0.040200000   -4.580764  -45.306667 -100.006322   20.276268    0.000000    0.000000    0.000000    0.000000
  0.040400000   -4.579869  -45.524174 -100.271102   10.056666    0.000000    0.000000    0.000000    0.000000
  0.040600000   -4.581111  -45.734684  -99.853051    7.290368    0.000000    0.000000    0.000000    0.000000
  0.040800000   -4.579418  -45.943913 -100.288730   10.412039    0.000000    0.000000    0.000000    0.000000
  0.041000000   -4.581457  -46.154400 -101.009812   -7.915317    0.000000    0.000000    0.000000    0.000000
  0.041200000   -4.590175  -46.363705 -102.031283    1.618111    0.000000    0.000000    0.000000    0.000000
  0.041400000   -4.591740  -46.600006 -101.755756    5.882748    0.000000    0.000000    0.000000    0.000000
  0.041600000   -4.597322  -46.886478 -101.967197   -3.417271    0.000000    0.000000    0.000000    0.000000
  0.041800000   -4.598813  -47.079536 -103.010290    8.250023    0.000000    0.000000    0.000000    0.000000
  0.042000000   -4.602479  -47.332973 -103.195915    8.226034    0.000000    0.000000    0.000000    0.000000
  0.042200000   -4.601685  -47.555656 -101.035472   14.498936    0.000000    0.000000    0.000000    0.000000
  0.042400000   -4.604057  -47.784584 -100.777263    2.107308    0.000000    0.000000    0.000000    0.000000
  0.042600000   -4.603709  -48.027905 -100.587331    1.726847    0.000000    0.000000    0.000000    0.000000
  0.042800000   -4.602804  -48.247604 -100.595696   13.808105    0.000000    0.000000    0.000000    0.000000
