! Anritsu VNA Master:                     Model: MS2036C/10/77
! SN:                                  1601066
! /bd0/18may10/256.ew.m6.s2p
! Existing Calibration Information:
! TYPE:                         Current Settings,       Active Cal Settings
! TIME:             	   05/10/2018 10:26:03 AM,    05/10/2018 10:22:12 AM
! INTERNAL TEMP:    	                   47.0 C,                    47.0 C
! # POINTS:         	                      494,                       494
! START FREQ:       	               20.000 MHz,                20.000 MHz
! STOP FREQ:        	          118.797 594 MHz,           118.797 594 MHz
! SOURCE POWER:     	                     High,                      High
! IFBW:             	                    50 Hz,                     50 Hz
! AVG FACTOR:       	                       1 ,                        1 
! REF PLANE 1:      	                     0 mm,                      0 mm
! REF PLANE 2:      	                     0 mm,                      0 mm
! CAL TYPE:         	                 Full S22,                  Full S22
! CAL METHOD:       	                     SOLT,                      SOLT
! CAL LINE TYPE:    	                     Coax,                      Coax
! DUT PORT 1:       	                K-Conn(M),                 K-Conn(M)
! DUT PORT 2:       	                K-Conn(M),                 K-Conn(M)
! CAL STATUS:       	        OK: Accuracy High,                        --
# GHZ S DB R 50.0
! FREQ.GHZ       S11DB        S11A       S21DB        S21A       S12DB        S12A       S22DB        S22A
  0.020000000    0.000000    0.000000    0.000000    0.000000  -89.385653   32.865677   -0.608980 -127.065285
  0.020200401    0.000000    0.000000    0.000000    0.000000  -90.168150   33.681305   -0.612336 -128.537018
  0.020400802    0.000000    0.000000    0.000000    0.000000  -89.956907   34.038540   -0.614685 -130.021759
  0.020601202    0.000000    0.000000    0.000000    0.000000  -90.480988   38.198269   -0.618766 -131.513535
  0.020801603    0.000000    0.000000    0.000000    0.000000  -90.957398   36.188541   -0.623572 -133.050262
  0.021002004    0.000000    0.000000    0.000000    0.000000  -91.137696   34.034576   -0.626759 -134.587219
  0.021202405    0.000000    0.000000    0.000000    0.000000  -91.152725   38.471588   -0.632198 -136.120682
  0.021402806    0.000000    0.000000    0.000000    0.000000  -91.566277   36.771774   -0.633834 -137.651718
  0.021603206    0.000000    0.000000    0.000000    0.000000  -91.565373   41.136002   -0.639017 -139.182678
  0.021803607    0.000000    0.000000    0.000000    0.000000  -91.086691   39.731407   -0.644414 -140.723160
  0.022004008    0.000000    0.000000    0.000000    0.000000  -91.879199   43.394531   -0.650389 -142.261902
  0.022204409    0.000000    0.000000    0.000000    0.000000  -92.180752   42.406368   -0.656981 -143.822296
  0.022404810    0.000000    0.000000    0.000000    0.000000  -91.967846   44.671864   -0.663812 -145.425430
  0.022605210    0.000000    0.000000    0.000000    0.000000  -92.144680   45.073471   -0.666370 -147.014420
  0.022805611    0.000000    0.000000    0.000000    0.000000  -90.755502   49.029667   -0.675273 -148.609207
  0.023006012    0.000000    0.000000    0.000000    0.000000  -91.633692   40.992451   -0.681855 -150.191559
  0.023206413    0.000000    0.000000    0.000000    0.000000  -90.551443   45.966846   -0.686326 -151.788940
  0.023406814    0.000000    0.000000    0.000000    0.000000  -91.367093   41.105511   -0.693104 -153.380402
  0.023607214    0.000000    0.000000    0.000000    0.000000  -91.414270   44.892197   -0.701434 -154.992264
  0.023807615    0.000000    0.000000    0.000000    0.000000  -91.064647   40.223392   -0.713697 -156.624115
  0.024008016    0.000000    0.000000    0.000000    0.000000  -90.642568   41.577934   -0.722384 -158.274597
  0.024208417    0.000000    0.000000    0.000000    0.000000  -91.211588   33.783138   -0.731281 -159.937027
  0.024408818    0.000000    0.000000    0.000000    0.000000  -91.657604   38.744259   -0.738957 -161.585312
  0.024609218    0.000000    0.000000    0.000000    0.000000  -91.035262   34.909878   -0.749039 -163.259232
  0.024809619    0.000000    0.000000    0.000000    0.000000  -91.085599   32.750942   -0.758394 -164.917206
  0.025010020    0.000000    0.000000    0.000000    0.000000  -91.815591   28.894665   -0.770290 -166.594086
  0.025210421    0.000000    0.000000    0.000000    0.000000  -92.094496   28.617361   -0.783264 -168.275208
  0.025410822    0.000000    0.000000    0.000000    0.000000  -91.653755   30.467302   -0.796031 -169.967560
  0.025611222    0.000000    0.000000    0.000000    0.000000  -91.998298   27.105089   -0.809601 -171.682465
  0.025811623    0.000000    0.000000    0.000000    0.000000  -92.858015   27.419041   -0.822353 -173.403198
  0.026012024    0.000000    0.000000    0.000000    0.000000  -92.794423   25.492540   -0.835467 -175.131912
  0.026212425    0.000000    0.000000    0.000000    0.000000  -93.120616   23.568857   -0.849852 -176.876129
  0.026412826    0.000000    0.000000    0.000000    0.000000  -93.627604   23.382473   -0.865719 -178.622971
  0.026613226    0.000000    0.000000    0.000000    0.000000  -93.264690   30.156292   -0.880204  179.616913
  0.026813627    0.000000    0.000000    0.000000    0.000000  -93.236691   24.073925   -0.898158  177.847366
  0.027014028    0.000000    0.000000    0.000000    0.000000  -93.935030   28.984587   -0.915041  176.078461
  0.027214429    0.000000    0.000000    0.000000    0.000000  -93.979411   24.434299   -0.931593  174.304382
  0.027414830    0.000000    0.000000    0.000000    0.000000  -94.528716   28.409643   -0.951860  172.515610
  0.027615230    0.000000    0.000000    0.000000    0.000000  -94.102707   32.442417   -0.970572  170.702759
  0.027815631    0.000000    0.000000    0.000000    0.000000  -94.139713   32.078602   -0.991799  168.896957
  0.028016032    0.000000    0.000000    0.000000    0.000000  -94.863612   35.990646   -1.013269  167.068970
  0.028216433    0.000000    0.000000    0.000000    0.000000  -94.462508   35.781277   -1.036761  165.229828
  0.028416834    0.000000    0.000000    0.000000    0.000000  -94.405346   31.347225   -1.058734  163.388245
  0.028617234    0.000000    0.000000    0.000000    0.000000  -94.426493   31.583860   -1.081483  161.560516
  0.028817635    0.000000    0.000000    0.000000    0.000000  -93.603046   35.258923   -1.106619  159.718277
  0.029018036    0.000000    0.000000    0.000000    0.000000  -94.356891   36.599415   -1.133100  157.868591
  0.029218437    0.000000    0.000000    0.000000    0.000000  -94.344469   33.702332   -1.160348  156.012009
  0.029418838    0.000000    0.000000    0.000000    0.000000  -94.208250   29.807184   -1.187522  154.127625
  0.029619238    0.000000    0.000000    0.000000    0.000000  -93.937005   34.672615   -1.216420  152.244583
  0.029819639    0.000000    0.000000    0.000000    0.000000  -93.844898   31.955507   -1.245662  150.357758
  0.030020040    0.000000    0.000000    0.000000    0.000000  -93.693983   32.120926   -1.274080  148.461823
  0.030220441    0.000000    0.000000    0.000000    0.000000  -93.445861   28.826527   -1.302783  146.561127
  0.030420842    0.000000    0.000000    0.000000    0.000000  -93.745159   26.293310   -1.333308  144.677124
  0.030621242    0.000000    0.000000    0.000000    0.000000  -93.951513   32.429096   -1.364949  142.780563
  0.030821643    0.000000    0.000000    0.000000    0.000000  -93.879653   22.822742   -1.399626  140.866714
  0.031022044    0.000000    0.000000    0.000000    0.000000  -94.383499   19.322269   -1.431067  138.941895
  0.031222445    0.000000    0.000000    0.000000    0.000000  -94.319846   21.914051   -1.460001  137.025177
  0.031422846    0.000000    0.000000    0.000000    0.000000  -93.877137   24.022217   -1.493411  135.046143
  0.031623246    0.000000    0.000000    0.000000    0.000000  -94.214435   23.004604   -1.527947  133.074051
  0.031823647    0.000000    0.000000    0.000000    0.000000  -94.694157   18.413773   -1.562432  131.103928
  0.032024048    0.000000    0.000000    0.000000    0.000000  -95.364747   18.843685   -1.598685  129.123901
  0.032224449    0.000000    0.000000    0.000000    0.000000  -96.346232   20.950121   -1.636667  127.141472
  0.032424850    0.000000    0.000000    0.000000    0.000000  -96.493032   23.059412   -1.676551  125.137466
  0.032625250    0.000000    0.000000    0.000000    0.000000  -95.064280   20.884315   -1.715319  123.120987
  0.032825651    0.000000    0.000000    0.000000    0.000000  -96.514041   21.652838   -1.753492  121.089500
  0.033026052    0.000000    0.000000    0.000000    0.000000  -96.084609   18.134344   -1.793667  119.045303
  0.033226453    0.000000    0.000000    0.000000    0.000000  -95.132745   24.121191   -1.833198  117.010201
  0.033426854    0.000000    0.000000    0.000000    0.000000  -96.444225   25.936651   -1.875762  114.972725
  0.033627254    0.000000    0.000000    0.000000    0.000000  -97.193738   20.386002   -1.917353  112.937454
  0.033827655    0.000000    0.000000    0.000000    0.000000  -97.568331   26.200726   -1.961688  110.906715
  0.034028056    0.000000    0.000000    0.000000    0.000000  -97.347396   28.087885   -2.007599  108.847145
  0.034228457    0.000000    0.000000    0.000000    0.000000  -95.515025   28.635252   -2.051305  106.781052
  0.034428858    0.000000    0.000000    0.000000    0.000000  -95.768642   25.664362   -2.097834  104.718819
  0.034629258    0.000000    0.000000    0.000000    0.000000  -96.478649   29.272861   -2.146135  102.636955
  0.034829659    0.000000    0.000000    0.000000    0.000000  -95.798666   24.287998   -2.191116  100.560852
  0.035030060    0.000000    0.000000    0.000000    0.000000  -96.245691   25.263554   -2.241514   98.484512
  0.035230461    0.000000    0.000000    0.000000    0.000000  -95.521101   28.331903   -2.290819   96.395805
  0.035430862    0.000000    0.000000    0.000000    0.000000  -95.150405   29.462414   -2.339832   94.321388
  0.035631262    0.000000    0.000000    0.000000    0.000000  -96.796389   31.683220   -2.393162   92.241737
  0.035831663    0.000000    0.000000    0.000000    0.000000  -96.512299   28.535887   -2.443494   90.149773
  0.036032064    0.000000    0.000000    0.000000    0.000000  -95.330850   28.677294   -2.493867   88.067413
  0.036232465    0.000000    0.000000    0.000000    0.000000  -96.100875   25.256279   -2.543313   85.991798
  0.036432866    0.000000    0.000000    0.000000    0.000000  -96.608458   20.480192   -2.596106   83.874260
  0.036633266    0.000000    0.000000    0.000000    0.000000  -95.819878   20.110418   -2.649479   81.767143
  0.036833667    0.000000    0.000000    0.000000    0.000000  -97.335618   24.178417   -2.703698   79.680275
  0.037034068    0.000000    0.000000    0.000000    0.000000  -96.911457   22.196497   -2.757829   77.580589
  0.037234469    0.000000    0.000000    0.000000    0.000000  -97.050407   23.006662   -2.812064   75.464134
  0.037434870    0.000000    0.000000    0.000000    0.000000  -97.772427   15.775252   -2.864837   73.381767
  0.037635270    0.000000    0.000000    0.000000    0.000000  -98.215929   20.801268   -2.918958   71.251930
  0.037835671    0.000000    0.000000    0.000000    0.000000  -97.145528   22.891459   -2.974216   69.126427
  0.038036072    0.000000    0.000000    0.000000    0.000000  -97.026356   19.705227   -3.031053   66.981941
  0.038236473    0.000000    0.000000    0.000000    0.000000  -98.068416   23.879309   -3.090491   64.849304
  0.038436874    0.000000    0.000000    0.000000    0.000000  -97.424773   30.306034   -3.150093   62.717175
  0.038637274    0.000000    0.000000    0.000000    0.000000  -98.287365   27.927940   -3.206324   60.582611
  0.038837675    0.000000    0.000000    0.000000    0.000000  -97.677921   28.436537   -3.262249   58.477428
  0.039038076    0.000000    0.000000    0.000000    0.000000  -97.363596   17.349163   -3.316073   56.352043
  0.039238477    0.000000    0.000000    0.000000    0.000000  -97.402352   33.699341   -3.373124   54.235149
  0.039438878    0.000000    0.000000    0.000000    0.000000  -97.726354   22.188148   -3.431745   52.131004
  0.039639278    0.000000    0.000000    0.000000    0.000000  -99.951689   31.360449   -3.489858   50.012081
  0.039839679    0.000000    0.000000    0.000000    0.000000  -98.476581   32.053329   -3.544876   47.892857
  0.040040080    0.000000    0.000000    0.000000    0.000000  -98.720841   28.568825   -3.602666   45.763332
  0.040240481    0.000000    0.000000    0.000000    0.000000  -98.337461   25.799213   -3.658742   43.636044
  0.040440882    0.000000    0.000000    0.000000    0.000000  -98.252555   25.135595   -3.711402   41.534878
  0.040641283    0.000000    0.000000    0.000000    0.000000  -99.099327   30.047167   -3.770171   39.448055
  0.040841683    0.000000    0.000000    0.000000    0.000000  -97.471293   31.736727   -3.823522   37.371864
  0.041042084    0.000000    0.000000    0.000000    0.000000  -97.300006   31.235228   -3.881626   35.319050
  0.041242485    0.000000    0.000000    0.000000    0.000000  -97.589509   30.000305   -3.938679   33.218781
  0.041442886    0.000000    0.000000    0.000000    0.000000  -97.340846   21.617748   -3.994305   31.137289
  0.041643287    0.000000    0.000000    0.000000    0.000000  -98.294321   22.789106   -4.046361   29.057968
  0.041843687    0.000000    0.000000    0.000000    0.000000  -99.072719   30.433762   -4.101933   26.994568
  0.042044088    0.000000    0.000000    0.000000    0.000000  -97.218622   21.831612   -4.155189   24.945324
  0.042244489    0.000000    0.000000    0.000000    0.000000  -97.693712   28.341652   -4.206634   22.908510
  0.042444890    0.000000    0.000000    0.000000    0.000000  -97.894730   26.521496   -4.260966   20.872921
  0.042645291    0.000000    0.000000    0.000000    0.000000  -97.604270   27.789913   -4.312815   18.852194
  0.042845691    0.000000    0.000000    0.000000    0.000000  -98.707489   26.675894   -4.366578   16.841530
  0.043046092    0.000000    0.000000    0.000000    0.000000  -98.131612   22.700151   -4.417059   14.833382
  0.043246493    0.000000    0.000000    0.000000    0.000000  -98.646609   36.299488   -4.465584   12.812382
  0.043446894    0.000000    0.000000    0.000000    0.000000 -100.529660   27.466173   -4.511660   10.827435
  0.043647295    0.000000    0.000000    0.000000    0.000000 -101.293741   29.505943   -4.555545    8.828382
  0.043847695    0.000000    0.000000    0.000000    0.000000  -98.353913   21.992474   -4.603348    6.844355
  0.044048096    0.000000    0.000000    0.000000    0.000000  -99.119396   34.430847   -4.650216    4.866156
  0.044248497    0.000000    0.000000    0.000000    0.000000  -99.188601   17.902170   -4.692035    2.894355
  0.044448898    0.000000    0.000000    0.000000    0.000000 -100.011870   33.900177   -4.734948    0.920145
  0.044649299    0.000000    0.000000    0.000000    0.000000  -99.407786   35.862789   -4.775075   -1.032027
  0.044849699    0.000000    0.000000    0.000000    0.000000  -99.391312   33.760990   -4.816568   -2.992857
  0.045050100    0.000000    0.000000    0.000000    0.000000  -99.821675   29.292694   -4.857836   -4.950051
  0.045250501    0.000000    0.000000    0.000000    0.000000  -99.447307   28.551418   -4.898857   -6.901026
  0.045450902    0.000000    0.000000    0.000000    0.000000  -98.673395   42.738571   -4.940078   -8.822945
  0.045651303    0.000000    0.000000    0.000000    0.000000  -98.708356   31.527067   -4.978760  -10.759830
  0.045851703    0.000000    0.000000    0.000000    0.000000  -98.910963   31.345968   -5.016336  -12.664496
  0.046052104    0.000000    0.000000    0.000000    0.000000  -98.500806   28.732450   -5.056327  -14.565906
  0.046252505    0.000000    0.000000    0.000000    0.000000  -99.558909   33.984074   -5.094224  -16.418766
  0.046452906    0.000000    0.000000    0.000000    0.000000  -98.372983   28.678913   -5.132111  -18.288490
  0.046653307    0.000000    0.000000    0.000000    0.000000  -98.626013   25.149406   -5.166901  -20.126869
  0.046853707    0.000000    0.000000    0.000000    0.000000  -98.545785   26.984608   -5.199685  -21.930853
  0.047054108    0.000000    0.000000    0.000000    0.000000  -98.295968   40.329708   -5.223529  -23.777866
  0.047254509    0.000000    0.000000    0.000000    0.000000  -98.459445   35.711178   -5.249069  -25.616259
  0.047454910    0.000000    0.000000    0.000000    0.000000  -99.788520   26.150505   -5.269666  -27.437969
  0.047655311    0.000000    0.000000    0.000000    0.000000  -99.497313   23.570002   -5.294188  -29.279324
  0.047855711    0.000000    0.000000    0.000000    0.000000  -99.705010   25.700003   -5.318053  -31.099098
  0.048056112    0.000000    0.000000    0.000000    0.000000 -100.050553   33.581524   -5.342414  -32.905640
  0.048256513    0.000000    0.000000    0.000000    0.000000  -98.755195   20.767029   -5.366278  -34.722954
  0.048456914    0.000000    0.000000    0.000000    0.000000  -98.407512   25.497581   -5.388935  -36.543499
  0.048657315    0.000000    0.000000    0.000000    0.000000  -99.779017   27.402378   -5.410962  -38.361378
  0.048857715    0.000000    0.000000    0.000000    0.000000  -98.966635   34.527889   -5.434380  -40.151917
  0.049058116    0.000000    0.000000    0.000000    0.000000  -99.256972   24.458078   -5.455258  -41.942444
  0.049258517    0.000000    0.000000    0.000000    0.000000 -100.695877   22.317873   -5.480894  -43.694881
  0.049458918    0.000000    0.000000    0.000000    0.000000 -100.937712   39.274029   -5.499909  -45.446667
  0.049659319    0.000000    0.000000    0.000000    0.000000 -100.757008   37.809853   -5.523911  -47.182327
  0.049859719    0.000000    0.000000    0.000000    0.000000  -99.572006   28.794436   -5.545649  -48.901146
  0.050060120    0.000000    0.000000    0.000000    0.000000 -101.553611   29.980938   -5.568448  -50.613171
  0.050260521    0.000000    0.000000    0.000000    0.000000  -99.054658   29.426903   -5.586755  -52.332333
  0.050460922    0.000000    0.000000    0.000000    0.000000 -101.156491   27.768805   -5.606599  -54.042641
  0.050661323    0.000000    0.000000    0.000000    0.000000  -99.831399   41.065845   -5.621062  -55.722042
  0.050861723    0.000000    0.000000    0.000000    0.000000 -100.098736   39.816257   -5.641308  -57.401489
  0.051062124    0.000000    0.000000    0.000000    0.000000  -98.170988   39.257675   -5.657289  -59.042164
  0.051262525    0.000000    0.000000    0.000000    0.000000  -98.580909   40.244656   -5.679475  -60.677292
  0.051462926    0.000000    0.000000    0.000000    0.000000 -100.342586   26.179998   -5.693985  -62.337902
  0.051663327    0.000000    0.000000    0.000000    0.000000  -99.958461   40.671463   -5.711689  -63.956818
  0.051863727    0.000000    0.000000    0.000000    0.000000  -99.394204   32.304295   -5.727921  -65.550323
  0.052064128    0.000000    0.000000    0.000000    0.000000  -97.691063   30.831751   -5.740907  -67.178391
  0.052264529    0.000000    0.000000    0.000000    0.000000  -98.597156   36.016537   -5.752001  -68.770683
  0.052464930    0.000000    0.000000    0.000000    0.000000  -98.812352   32.204700   -5.766524  -70.350433
  0.052665331    0.000000    0.000000    0.000000    0.000000  -97.504749   30.170845   -5.779564  -71.909286
  0.052865731    0.000000    0.000000    0.000000    0.000000  -98.691019   36.986217   -5.793887  -73.438873
