! Anritsu VNA Master:                     Model: MS2036C/10/77
! SN:                                  1601066
! /bd0/18may8/255.ew.m8.s2p
! Existing Calibration Information:
! TYPE:                         Current Settings,       Active Cal Settings
! TIME:             	   05/08/2018 10:29:05 AM,    05/08/2018 10:22:10 AM
! INTERNAL TEMP:    	                   47.8 C,                    47.5 C
! # POINTS:         	                      500,                       500
! START FREQ:       	               20.000 MHz,                20.000 MHz
! STOP FREQ:        	              120.000 MHz,               120.000 MHz
! SOURCE POWER:     	                     High,                      High
! IFBW:             	                    50 Hz,                     50 Hz
! AVG FACTOR:       	                       1 ,                        1 
! REF PLANE 1:      	                     0 mm,                      0 mm
! REF PLANE 2:      	                     0 mm,                      0 mm
! CAL TYPE:         	                 Full S11,                  Full S11
! CAL METHOD:       	                     SOLT,                      SOLT
! CAL LINE TYPE:    	                     Coax,                      Coax
! DUT PORT 1:       	                K-Conn(F),                 K-Conn(F)
! DUT PORT 2:       	                K-Conn(F),                 K-Conn(F)
! CAL STATUS:       	        OK: Accuracy High,                        --
# GHZ S DB R 50.0
! FREQ.GHZ       S11DB        S11A       S21DB        S21A       S12DB        S12A       S22DB        S22A
  0.020000000   -0.909360 -124.341316  -91.451791   27.880083    0.000000    0.000000    0.000000    0.000000
  0.020200401   -0.916731 -125.769463  -90.882688   32.277279    0.000000    0.000000    0.000000    0.000000
  0.020400802   -0.923630 -127.186226  -92.064040   30.852034    0.000000    0.000000    0.000000    0.000000
  0.020601202   -0.930581 -128.624313  -91.865134   26.543758    0.000000    0.000000    0.000000    0.000000
  0.020801603   -0.943087 -130.070892  -92.574283   29.476866    0.000000    0.000000    0.000000    0.000000
  0.021002004   -0.955830 -131.575577  -91.849829   30.073647    0.000000    0.000000    0.000000    0.000000
  0.021202405   -0.970156 -133.051468  -92.914408   34.545132    0.000000    0.000000    0.000000    0.000000
  0.021402806   -0.980450 -134.559418  -92.933901   32.830894    0.000000    0.000000    0.000000    0.000000
  0.021603206   -0.990662 -136.044968  -93.487852   34.588779    0.000000    0.000000    0.000000    0.000000
  0.021803607   -1.001314 -137.531158  -93.096209   34.596527    0.000000    0.000000    0.000000    0.000000
  0.022004008   -1.013055 -139.036667  -92.784219   35.325619    0.000000    0.000000    0.000000    0.000000
  0.022204409   -1.025537 -140.555054  -92.674278   34.776257    0.000000    0.000000    0.000000    0.000000
  0.022404810   -1.037343 -142.082047  -93.175688   30.054689    0.000000    0.000000    0.000000    0.000000
  0.022605210   -1.045818 -143.612503  -92.926501   32.793686    0.000000    0.000000    0.000000    0.000000
  0.022805611   -1.057817 -145.177261  -93.183566   32.924389    0.000000    0.000000    0.000000    0.000000
  0.023006012   -1.065976 -146.723206  -92.699835   34.518852    0.000000    0.000000    0.000000    0.000000
  0.023206413   -1.074949 -148.255814  -92.779158   37.798347    0.000000    0.000000    0.000000    0.000000
  0.023406814   -1.081090 -149.787231  -92.802612   36.348564    0.000000    0.000000    0.000000    0.000000
  0.023607214   -1.090537 -151.331665  -92.925719   34.243107    0.000000    0.000000    0.000000    0.000000
  0.023807615   -1.100434 -152.887894  -93.474781   29.384287    0.000000    0.000000    0.000000    0.000000
  0.024008016   -1.115199 -154.460449  -92.954648   28.598330    0.000000    0.000000    0.000000    0.000000
  0.024208417   -1.128440 -156.039154  -92.685935   26.451128    0.000000    0.000000    0.000000    0.000000
  0.024408818   -1.140372 -157.641891  -92.608287   27.369562    0.000000    0.000000    0.000000    0.000000
  0.024609218   -1.154936 -159.250687  -93.512048   27.022854    0.000000    0.000000    0.000000    0.000000
  0.024809619   -1.167758 -160.845047  -93.280484   24.891426    0.000000    0.000000    0.000000    0.000000
  0.025010020   -1.181167 -162.456238  -93.666347   20.477427    0.000000    0.000000    0.000000    0.000000
  0.025210421   -1.195297 -164.077621  -93.477131   25.048672    0.000000    0.000000    0.000000    0.000000
  0.025410822   -1.213199 -165.710175  -93.963179   21.940687    0.000000    0.000000    0.000000    0.000000
  0.025611222   -1.231391 -167.357819  -93.950832   21.562674    0.000000    0.000000    0.000000    0.000000
  0.025811623   -1.247213 -169.035431  -94.592739   11.789576    0.000000    0.000000    0.000000    0.000000
  0.026012024   -1.261462 -170.727554  -94.503020   17.577089    0.000000    0.000000    0.000000    0.000000
  0.026212425   -1.275837 -172.402084  -95.355429   15.607462    0.000000    0.000000    0.000000    0.000000
  0.026412826   -1.292864 -174.101395  -95.114487   12.153417    0.000000    0.000000    0.000000    0.000000
  0.026613226   -1.310432 -175.811096  -95.233739   19.120911    0.000000    0.000000    0.000000    0.000000
  0.026813627   -1.330541 -177.516800  -96.248426   18.881151    0.000000    0.000000    0.000000    0.000000
  0.027014028   -1.351980 -179.243347  -95.732209   18.244366    0.000000    0.000000    0.000000    0.000000
  0.027214429   -1.371846  179.018295  -96.526087   22.007710    0.000000    0.000000    0.000000    0.000000
  0.027414830   -1.394237  177.268143  -96.011930   19.465862    0.000000    0.000000    0.000000    0.000000
  0.027615230   -1.415208  175.500961  -96.583254   21.075556    0.000000    0.000000    0.000000    0.000000
  0.027815631   -1.438879  173.732956  -95.778367   17.869482    0.000000    0.000000    0.000000    0.000000
  0.028016032   -1.465143  171.942154  -96.313208   25.658617    0.000000    0.000000    0.000000    0.000000
  0.028216433   -1.493726  170.151917  -96.511173   23.209255    0.000000    0.000000    0.000000    0.000000
  0.028416834   -1.518501  168.349487  -96.121198   25.834265    0.000000    0.000000    0.000000    0.000000
  0.028617234   -1.545569  166.546600  -95.856771   25.073381    0.000000    0.000000    0.000000    0.000000
  0.028817635   -1.571062  164.749710  -96.243779   24.155916    0.000000    0.000000    0.000000    0.000000
  0.029018036   -1.595212  162.965805  -95.669777   18.700006    0.000000    0.000000    0.000000    0.000000
  0.029218437   -1.622101  161.161758  -96.522041   21.553963    0.000000    0.000000    0.000000    0.000000
  0.029418838   -1.650600  159.369507  -95.934423   21.864904    0.000000    0.000000    0.000000    0.000000
  0.029619238   -1.682432  157.554535  -96.171029   18.916882    0.000000    0.000000    0.000000    0.000000
  0.029819639   -1.713928  155.716110  -96.120617   20.791405    0.000000    0.000000    0.000000    0.000000
  0.030020040   -1.748827  153.858871  -95.590977   17.551680    0.000000    0.000000    0.000000    0.000000
  0.030220441   -1.780551  151.979706  -96.283979   16.962818    0.000000    0.000000    0.000000    0.000000
  0.030420842   -1.814641  150.083511  -95.834507   16.487249    0.000000    0.000000    0.000000    0.000000
  0.030621242   -1.849722  148.204239  -97.109359    8.884117    0.000000    0.000000    0.000000    0.000000
  0.030821643   -1.885625  146.325790  -95.903846   12.534493    0.000000    0.000000    0.000000    0.000000
  0.031022044   -1.922106  144.435257  -96.935658    7.266796    0.000000    0.000000    0.000000    0.000000
  0.031222445   -1.954744  142.537384  -96.961113   18.037977    0.000000    0.000000    0.000000    0.000000
  0.031422846   -1.996334  140.585556  -96.042993   13.123407    0.000000    0.000000    0.000000    0.000000
  0.031623246   -2.034016  138.634979  -96.707758   14.549992    0.000000    0.000000    0.000000    0.000000
  0.031823647   -2.072235  136.648926  -97.696751   13.894280    0.000000    0.000000    0.000000    0.000000
  0.032024048   -2.108786  134.681595  -97.167827    9.882079    0.000000    0.000000    0.000000    0.000000
  0.032224449   -2.144720  132.703842  -98.177187   13.279843    0.000000    0.000000    0.000000    0.000000
  0.032424850   -2.181014  130.740799  -97.146980   11.933695    0.000000    0.000000    0.000000    0.000000
  0.032625251   -2.216158  128.774918  -97.564294   11.026529    0.000000    0.000000    0.000000    0.000000
  0.032825651   -2.254835  126.809280  -98.086318   11.717717    0.000000    0.000000    0.000000    0.000000
  0.033026052   -2.295048  124.844780  -96.891259    7.520207    0.000000    0.000000    0.000000    0.000000
  0.033226453   -2.341824  122.877754  -99.461665   22.138037    0.000000    0.000000    0.000000    0.000000
  0.033426854   -2.389281  120.926216  -99.088380    8.291523    0.000000    0.000000    0.000000    0.000000
  0.033627255   -2.442265  118.929688  -99.330457   10.654841    0.000000    0.000000    0.000000    0.000000
  0.033827655   -2.492829  116.893295  -97.237249   14.919749    0.000000    0.000000    0.000000    0.000000
  0.034028056   -2.544526  114.839401  -99.113922   12.422962    0.000000    0.000000    0.000000    0.000000
  0.034228457   -2.597724  112.744644  -97.770761   17.614355    0.000000    0.000000    0.000000    0.000000
  0.034428858   -2.645414  110.644768  -98.881685   20.154465    0.000000    0.000000    0.000000    0.000000
  0.034629259   -2.694024  108.519722  -97.339830   10.186231    0.000000    0.000000    0.000000    0.000000
  0.034829659   -2.738992  106.433899  -97.529134   17.546299    0.000000    0.000000    0.000000    0.000000
  0.035030060   -2.781185  104.321098  -97.294526   13.332907    0.000000    0.000000    0.000000    0.000000
  0.035230461   -2.826018  102.212547  -98.026492    5.870168    0.000000    0.000000    0.000000    0.000000
  0.035430862   -2.866878  100.136795  -98.247463    9.461337    0.000000    0.000000    0.000000    0.000000
  0.035631263   -2.907090   98.068367  -99.016289    9.965226    0.000000    0.000000    0.000000    0.000000
  0.035831663   -2.949844   96.015297  -97.534683    7.684267    0.000000    0.000000    0.000000    0.000000
  0.036032064   -2.989052   93.976677  -98.068573   12.649336    0.000000    0.000000    0.000000    0.000000
  0.036232465   -3.034843   91.938721  -99.584218    5.664723    0.000000    0.000000    0.000000    0.000000
  0.036432866   -3.083745   89.907936  -99.076164    7.616549    0.000000    0.000000    0.000000    0.000000
  0.036633267   -3.124944   87.890106  -98.807333   10.036287    0.000000    0.000000    0.000000    0.000000
  0.036833667   -3.174636   85.856972  -99.095910    4.858481    0.000000    0.000000    0.000000    0.000000
  0.037034068   -3.221467   83.787239  -99.444769    9.629696    0.000000    0.000000    0.000000    0.000000
  0.037234469   -3.267289   81.690971  -99.359564    7.889324    0.000000    0.000000    0.000000    0.000000
  0.037434870   -3.311905   79.520073  -99.268494    6.805854    0.000000    0.000000    0.000000    0.000000
  0.037635271   -3.353374   77.283432  -99.909258   13.381833    0.000000    0.000000    0.000000    0.000000
  0.037835671   -3.403735   74.922127 -100.334461   -2.368054    0.000000    0.000000    0.000000    0.000000
  0.038036072   -3.469058   72.529381 -101.040651    8.897388    0.000000    0.000000    0.000000    0.000000
  0.038236473   -3.547328   70.158600  -99.693778    4.563418    0.000000    0.000000    0.000000    0.000000
  0.038436874   -3.628785   67.872246 -102.396207    3.835679    0.000000    0.000000    0.000000    0.000000
  0.038637275   -3.706322   65.710411 -101.616612    6.549236    0.000000    0.000000    0.000000    0.000000
  0.038837675   -3.768972   63.603252 -100.291947    9.709481    0.000000    0.000000    0.000000    0.000000
  0.039038076   -3.827885   61.515614 -100.598208   17.648418    0.000000    0.000000    0.000000    0.000000
  0.039238477   -3.881557   59.479282 -100.721226   17.898998    0.000000    0.000000    0.000000    0.000000
  0.039438878   -3.934747   57.446728  -99.304753   12.501117    0.000000    0.000000    0.000000    0.000000
  0.039639279   -3.988047   55.424736  -99.805212    8.391615    0.000000    0.000000    0.000000    0.000000
  0.039839679   -4.046344   53.349792  -99.443393   11.888594    0.000000    0.000000    0.000000    0.000000
  0.040040080   -4.105259   51.294415  -99.963148   12.618606    0.000000    0.000000    0.000000    0.000000
  0.040240481   -4.165399   49.228977  -99.596898    5.816235    0.000000    0.000000    0.000000    0.000000
  0.040440882   -4.222065   47.100914 -100.394068   11.559723    0.000000    0.000000    0.000000    0.000000
  0.040641283   -4.277924   45.016510  -99.261852    1.850679    0.000000    0.000000    0.000000    0.000000
  0.040841683   -4.333284   42.898773 -100.858996    9.863418    0.000000    0.000000    0.000000    0.000000
  0.041042084   -4.386747   40.786072 -101.237535    9.667337    0.000000    0.000000    0.000000    0.000000
  0.041242485   -4.438596   38.689892  -99.235616   11.089931    0.000000    0.000000    0.000000    0.000000
  0.041442886   -4.491052   36.574192 -100.539192   15.007642    0.000000    0.000000    0.000000    0.000000
  0.041643287   -4.540854   34.457020 -100.951982   -2.925038    0.000000    0.000000    0.000000    0.000000
  0.041843687   -4.587882   32.330894 -100.505300   11.464700    0.000000    0.000000    0.000000    0.000000
  0.042044088   -4.633394   30.252171 -101.093997   -0.662389    0.000000    0.000000    0.000000    0.000000
  0.042244489   -4.678040   28.165955  -99.927954    7.167347    0.000000    0.000000    0.000000    0.000000
  0.042444890   -4.723008   26.120384 -101.814543    5.522698    0.000000    0.000000    0.000000    0.000000
  0.042645291   -4.767927   24.075563 -102.480876    4.265914    0.000000    0.000000    0.000000    0.000000
  0.042845691   -4.810467   22.021292 -101.641366   17.502623    0.000000    0.000000    0.000000    0.000000
  0.043046092   -4.856166   19.999517 -101.734753    6.256240    0.000000    0.000000    0.000000    0.000000
  0.043246493   -4.900703   17.950228 -101.138601   12.121428    0.000000    0.000000    0.000000    0.000000
  0.043446894   -4.943754   15.928585 -102.213702    4.880061    0.000000    0.000000    0.000000    0.000000
  0.043647295   -4.985383   13.898043 -102.567302   -1.737721    0.000000    0.000000    0.000000    0.000000
  0.043847695   -5.027707   11.880483 -102.529293   10.300286    0.000000    0.000000    0.000000    0.000000
  0.044048096   -5.072455    9.883753 -102.397462    7.647610    0.000000    0.000000    0.000000    0.000000
  0.044248497   -5.114911    7.887246 -102.841321   12.855667    0.000000    0.000000    0.000000    0.000000
  0.044448898   -5.155378    5.888180 -102.652800   14.095445    0.000000    0.000000    0.000000    0.000000
  0.044649299   -5.196651    3.904096 -102.044742    7.503002    0.000000    0.000000    0.000000    0.000000
  0.044849699   -5.233492    1.918787 -101.549992   20.506163    0.000000    0.000000    0.000000    0.000000
  0.045050100   -5.267749   -0.053347 -103.397422    4.211043    0.000000    0.000000    0.000000    0.000000
  0.045250501   -5.301529   -2.038460 -102.013665   22.755362    0.000000    0.000000    0.000000    0.000000
  0.045450902   -5.333394   -3.971947 -101.557173    4.876742    0.000000    0.000000    0.000000    0.000000
  0.045651303   -5.366057   -5.922318 -102.002697   24.582787    0.000000    0.000000    0.000000    0.000000
  0.045851703   -5.399765   -7.847400 -102.148917    7.881462    0.000000    0.000000    0.000000    0.000000
  0.046052104   -5.431565   -9.784728 -100.692674   14.546261    0.000000    0.000000    0.000000    0.000000
  0.046252505   -5.464422  -11.697311 -102.686416    0.068427    0.000000    0.000000    0.000000    0.000000
  0.046452906   -5.493730  -13.593848 -101.463661   -1.619950    0.000000    0.000000    0.000000    0.000000
  0.046653307   -5.520516  -15.522455 -102.840297   -4.854666    0.000000    0.000000    0.000000    0.000000
  0.046853707   -5.548038  -17.399033 -101.476086    0.497595    0.000000    0.000000    0.000000    0.000000
  0.047054108   -5.572362  -19.293863 -101.921558    5.819753    0.000000    0.000000    0.000000    0.000000
  0.047254509   -5.596041  -21.180246 -103.553836   11.695225    0.000000    0.000000    0.000000    0.000000
  0.047454910   -5.620627  -23.032192 -100.619964   -1.706095    0.000000    0.000000    0.000000    0.000000
  0.047655311   -5.638717  -24.885494 -102.850706   -3.691366    0.000000    0.000000    0.000000    0.000000
  0.047855711   -5.661231  -26.687878 -102.152473    0.856019    0.000000    0.000000    0.000000    0.000000
  0.048056112   -5.682959  -28.492081 -100.233999    6.317142    0.000000    0.000000    0.000000    0.000000
  0.048256513   -5.704185  -30.309614 -102.050551   -1.783816    0.000000    0.000000    0.000000    0.000000
  0.048456914   -5.725383  -32.097370 -101.867175   16.754154    0.000000    0.000000    0.000000    0.000000
  0.048657315   -5.743568  -33.868126 -105.491010   -8.474353    0.000000    0.000000    0.000000    0.000000
  0.048857715   -5.759832  -35.653049 -104.057916    3.376766    0.000000    0.000000    0.000000    0.000000
  0.049058116   -5.779509  -37.445278 -103.282126    2.838015    0.000000    0.000000    0.000000    0.000000
  0.049258517   -5.793974  -39.196632 -103.143378    7.002105    0.000000    0.000000    0.000000    0.000000
  0.049458918   -5.811121  -40.929214 -105.862326   -4.250493    0.000000    0.000000    0.000000    0.000000
  0.049659319   -5.826840  -42.683708 -104.870727    6.701927    0.000000    0.000000    0.000000    0.000000
  0.049859719   -5.841959  -44.402023 -104.025764   16.612043    0.000000    0.000000    0.000000    0.000000
  0.050060120   -5.859260  -46.113430 -102.737338    9.980802    0.000000    0.000000    0.000000    0.000000
  0.050260521   -5.867882  -47.851917 -103.117133   11.741101    0.000000    0.000000    0.000000    0.000000
  0.050460922   -5.880553  -49.568645 -103.373823    9.932322    0.000000    0.000000    0.000000    0.000000
  0.050661323   -5.889795  -51.265694 -102.982102   11.766938    0.000000    0.000000    0.000000    0.000000
  0.050861723   -5.895872  -52.930756 -102.446283    1.616312    0.000000    0.000000    0.000000    0.000000
  0.051062124   -5.903706  -54.585972 -102.614762   20.743910    0.000000    0.000000    0.000000    0.000000
  0.051262525   -5.909121  -56.216839 -105.590989   12.630955    0.000000    0.000000    0.000000    0.000000
  0.051462926   -5.914142  -57.803585 -102.752080    2.808111    0.000000    0.000000    0.000000    0.000000
  0.051663327   -5.919492  -59.376411 -102.793736    7.901348    0.000000    0.000000    0.000000    0.000000
  0.051863727   -5.928566  -60.964207 -100.453351  -10.308210    0.000000    0.000000    0.000000    0.000000
  0.052064128   -5.935045  -62.536278 -102.216935   18.041815    0.000000    0.000000    0.000000    0.000000
  0.052264529   -5.944362  -64.092964 -101.548128    5.033584    0.000000    0.000000    0.000000    0.000000
  0.052464930   -5.955034  -65.629753 -101.895374   -0.712885    0.000000    0.000000    0.000000    0.000000
  0.052665331   -5.965969  -67.209175 -101.872224   -3.671889    0.000000    0.000000    0.000000    0.000000
  0.052865731   -5.974661  -68.763817 -101.869309   -1.502878    0.000000    0.000000    0.000000    0.000000
