! Anritsu VNA Master:                     Model: MS2036C/10/77
! SN:                                  1601066
! /bd0/18may8/255.ew.m5.s2p
! Existing Calibration Information:
! TYPE:                         Current Settings,       Active Cal Settings
! TIME:             	   05/08/2018 10:09:38 AM,    05/08/2018 09:57:41 AM
! INTERNAL TEMP:    	                   47.0 C,                    46.8 C
! # POINTS:         	                      500,                       500
! START FREQ:       	               20.000 MHz,                20.000 MHz
! STOP FREQ:        	              120.000 MHz,               120.000 MHz
! SOURCE POWER:     	                     High,                      High
! IFBW:             	                    50 Hz,                     50 Hz
! AVG FACTOR:       	                       1 ,                        1 
! REF PLANE 1:      	                     0 mm,                      0 mm
! REF PLANE 2:      	                     0 mm,                      0 mm
! CAL TYPE:         	                 Full S11,                  Full S11
! CAL METHOD:       	                     SOLT,                      SOLT
! CAL LINE TYPE:    	                     Coax,                      Coax
! DUT PORT 1:       	                K-Conn(F),                 K-Conn(F)
! DUT PORT 2:       	                K-Conn(F),                 K-Conn(F)
! CAL STATUS:       	        OK: Accuracy High,                        --
# GHZ S DB R 50.0
! FREQ.GHZ       S11DB        S11A       S21DB        S21A       S12DB        S12A       S22DB        S22A
  0.020000000   -0.889469 -124.195328  -90.096361   32.718029    0.000000    0.000000    0.000000    0.000000
  0.020200401   -0.894149 -125.612343  -91.415727   30.970266    0.000000    0.000000    0.000000    0.000000
  0.020400802   -0.902769 -127.035820  -91.778184   25.291361    0.000000    0.000000    0.000000    0.000000
  0.020601202   -0.908941 -128.458496  -91.549518   29.573042    0.000000    0.000000    0.000000    0.000000
  0.020801603   -0.920065 -129.937531  -93.116570   31.338144    0.000000    0.000000    0.000000    0.000000
  0.021002004   -0.932879 -131.409775  -93.900790   31.277260    0.000000    0.000000    0.000000    0.000000
  0.021202405   -0.944628 -132.908722  -92.771030   30.441648    0.000000    0.000000    0.000000    0.000000
  0.021402806   -0.957512 -134.412064  -92.592600   30.377922    0.000000    0.000000    0.000000    0.000000
  0.021603206   -0.965627 -135.905197  -93.129469   29.050341    0.000000    0.000000    0.000000    0.000000
  0.021803607   -0.976993 -137.403000  -93.106081   34.300198    0.000000    0.000000    0.000000    0.000000
  0.022004008   -0.989180 -138.904572  -93.657831   36.075520    0.000000    0.000000    0.000000    0.000000
  0.022204409   -1.002473 -140.415009  -92.718686   35.555538    0.000000    0.000000    0.000000    0.000000
  0.022404810   -1.012956 -141.941315  -92.793903   32.576889    0.000000    0.000000    0.000000    0.000000
  0.022605210   -1.023010 -143.492126  -92.959217   31.516920    0.000000    0.000000    0.000000    0.000000
  0.022805611   -1.032445 -145.049194  -92.984851   39.918198    0.000000    0.000000    0.000000    0.000000
  0.023006012   -1.040869 -146.598328  -92.420315   37.305145    0.000000    0.000000    0.000000    0.000000
  0.023206413   -1.049587 -148.120880  -92.822334   34.058174    0.000000    0.000000    0.000000    0.000000
  0.023406814   -1.056509 -149.666397  -92.672980   32.225578    0.000000    0.000000    0.000000    0.000000
  0.023607214   -1.064342 -151.191925  -93.584458   29.479837    0.000000    0.000000    0.000000    0.000000
  0.023807615   -1.076705 -152.741074  -93.232429   28.427057    0.000000    0.000000    0.000000    0.000000
  0.024008016   -1.090639 -154.309006  -93.245392   27.270117    0.000000    0.000000    0.000000    0.000000
  0.024208417   -1.103447 -155.885132  -93.244491   27.968571    0.000000    0.000000    0.000000    0.000000
  0.024408818   -1.116807 -157.475250  -92.689085   24.279999    0.000000    0.000000    0.000000    0.000000
  0.024609218   -1.130327 -159.070374  -93.063728   29.016815    0.000000    0.000000    0.000000    0.000000
  0.024809619   -1.143179 -160.677994  -93.146012   25.196848    0.000000    0.000000    0.000000    0.000000
  0.025010020   -1.157082 -162.271713  -93.653950   19.432304    0.000000    0.000000    0.000000    0.000000
  0.025210421   -1.172905 -163.879898  -93.402033   22.902660    0.000000    0.000000    0.000000    0.000000
  0.025410822   -1.190499 -165.512787  -94.180470   19.250044    0.000000    0.000000    0.000000    0.000000
  0.025611222   -1.208019 -167.169174  -94.662850   16.065969    0.000000    0.000000    0.000000    0.000000
  0.025811623   -1.224672 -168.837143  -94.797195   17.945662    0.000000    0.000000    0.000000    0.000000
  0.026012024   -1.239761 -170.526657  -95.179304   15.149375    0.000000    0.000000    0.000000    0.000000
  0.026212425   -1.253086 -172.204620  -95.098933   16.465416    0.000000    0.000000    0.000000    0.000000
  0.026412826   -1.269711 -173.892883  -96.175193   14.764552    0.000000    0.000000    0.000000    0.000000
  0.026613226   -1.288671 -175.597809  -95.121406   13.671734    0.000000    0.000000    0.000000    0.000000
  0.026813627   -1.308604 -177.306503  -95.659309   15.868514    0.000000    0.000000    0.000000    0.000000
  0.027014028   -1.328709 -179.031311  -96.350919   17.438412    0.000000    0.000000    0.000000    0.000000
  0.027214429   -1.349042  179.221207  -96.258442   23.590727    0.000000    0.000000    0.000000    0.000000
  0.027414830   -1.370141  177.464645  -96.344168   20.273590    0.000000    0.000000    0.000000    0.000000
  0.027615230   -1.391473  175.696579  -96.941826   24.492424    0.000000    0.000000    0.000000    0.000000
  0.027815631   -1.415814  173.923294  -95.693693   21.765280    0.000000    0.000000    0.000000    0.000000
  0.028016032   -1.440913  172.133224  -96.344723   22.149015    0.000000    0.000000    0.000000    0.000000
  0.028216433   -1.469579  170.334732  -95.818421   22.380608    0.000000    0.000000    0.000000    0.000000
  0.028416834   -1.495280  168.528015  -95.967824   25.353226    0.000000    0.000000    0.000000    0.000000
  0.028617234   -1.519429  166.731079  -96.074152   23.175749    0.000000    0.000000    0.000000    0.000000
  0.028817635   -1.544198  164.936356  -95.577498   16.121412    0.000000    0.000000    0.000000    0.000000
  0.029018036   -1.569432  163.139099  -95.841062   23.195724    0.000000    0.000000    0.000000    0.000000
  0.029218437   -1.595080  161.346756  -96.409819   24.728920    0.000000    0.000000    0.000000    0.000000
  0.029418838   -1.624241  159.555161  -96.261316   19.050669    0.000000    0.000000    0.000000    0.000000
  0.029619238   -1.654270  157.736633  -96.037728   15.989977    0.000000    0.000000    0.000000    0.000000
  0.029819639   -1.686588  155.915665  -95.876132   17.606318    0.000000    0.000000    0.000000    0.000000
  0.030020040   -1.719812  154.049271  -96.742017   20.278658    0.000000    0.000000    0.000000    0.000000
  0.030220441   -1.753128  152.179108  -95.711096   16.632660    0.000000    0.000000    0.000000    0.000000
  0.030420842   -1.785540  150.297089  -96.363298   12.528002    0.000000    0.000000    0.000000    0.000000
  0.030621242   -1.820052  148.419128  -96.367330   10.855105    0.000000    0.000000    0.000000    0.000000
  0.030821643   -1.855784  146.563217  -96.591461    5.903935    0.000000    0.000000    0.000000    0.000000
  0.031022044   -1.893133  144.673187  -97.061359   11.501364    0.000000    0.000000    0.000000    0.000000
  0.031222445   -1.926754  142.802338  -96.059071   15.431772    0.000000    0.000000    0.000000    0.000000
  0.031422846   -1.966803  140.846359  -97.143449   13.904162    0.000000    0.000000    0.000000    0.000000
  0.031623246   -2.007631  138.899445  -97.418654   11.756833    0.000000    0.000000    0.000000    0.000000
  0.031823647   -2.044656  136.931900  -97.728761   15.641319    0.000000    0.000000    0.000000    0.000000
  0.032024048   -2.080169  134.969162  -97.349599   13.291169    0.000000    0.000000    0.000000    0.000000
  0.032224449   -2.115944  133.019257  -97.982402   12.630809    0.000000    0.000000    0.000000    0.000000
  0.032424850   -2.154673  131.054947  -98.121889   19.686956    0.000000    0.000000    0.000000    0.000000
  0.032625251   -2.189784  129.095871  -97.575046   10.855890    0.000000    0.000000    0.000000    0.000000
  0.032825651   -2.230010  127.136551  -98.424125   12.991783    0.000000    0.000000    0.000000    0.000000
  0.033026052   -2.273973  125.176003  -98.350683    9.953773    0.000000    0.000000    0.000000    0.000000
  0.033226453   -2.318689  123.213608  -98.963220    6.003500    0.000000    0.000000    0.000000    0.000000
  0.033426854   -2.367588  121.253258  -97.999040    8.916244    0.000000    0.000000    0.000000    0.000000
  0.033627255   -2.423487  119.256142  -97.936700    8.974165    0.000000    0.000000    0.000000    0.000000
  0.033827655   -2.475896  117.221115  -97.683712   11.644853    0.000000    0.000000    0.000000    0.000000
  0.034028056   -2.526705  115.157974  -98.823494   19.197006    0.000000    0.000000    0.000000    0.000000
  0.034228457   -2.578026  113.066628  -98.156598   16.084585    0.000000    0.000000    0.000000    0.000000
  0.034428858   -2.625732  110.948784  -98.355175    5.535098    0.000000    0.000000    0.000000    0.000000
  0.034629259   -2.674040  108.826180  -97.997994   12.317404    0.000000    0.000000    0.000000    0.000000
  0.034829659   -2.718305  106.716400  -98.608270   18.831411    0.000000    0.000000    0.000000    0.000000
  0.035030060   -2.762435  104.601501  -97.663704   18.904026    0.000000    0.000000    0.000000    0.000000
  0.035230461   -2.806294  102.525780  -97.624317   18.847004    0.000000    0.000000    0.000000    0.000000
  0.035430862   -2.847431  100.449776  -98.232849   16.907143    0.000000    0.000000    0.000000    0.000000
  0.035631263   -2.886894   98.377930  -98.235405    7.500704    0.000000    0.000000    0.000000    0.000000
  0.035831663   -2.930961   96.315926  -98.386040    2.877517    0.000000    0.000000    0.000000    0.000000
  0.036032064   -2.972427   94.269295  -98.955814    0.685514    0.000000    0.000000    0.000000    0.000000
  0.036232465   -3.016116   92.222221  -99.593061    4.215712    0.000000    0.000000    0.000000    0.000000
  0.036432866   -3.058633   90.217087  -97.808536    1.505437    0.000000    0.000000    0.000000    0.000000
  0.036633267   -3.104946   88.198845  -97.808682    8.254425    0.000000    0.000000    0.000000    0.000000
  0.036833667   -3.153464   86.166199  -98.197395    6.800356    0.000000    0.000000    0.000000    0.000000
  0.037034068   -3.201215   84.104073  -98.909921    1.090091    0.000000    0.000000    0.000000    0.000000
  0.037234469   -3.246494   82.010330  -98.377594    9.690741    0.000000    0.000000    0.000000    0.000000
  0.037434870   -3.291614   79.854958 -101.306049    0.743093    0.000000    0.000000    0.000000    0.000000
  0.037635271   -3.334796   77.611359  -99.300697    3.084373    0.000000    0.000000    0.000000    0.000000
  0.037835671   -3.384701   75.276634 -100.256572    8.019238    0.000000    0.000000    0.000000    0.000000
  0.038036072   -3.448388   72.877548 -100.113616    8.677735    0.000000    0.000000    0.000000    0.000000
  0.038236473   -3.529596   70.529732 -101.155143    3.834834    0.000000    0.000000    0.000000    0.000000
  0.038436874   -3.612606   68.271484  -98.717677   13.729252    0.000000    0.000000    0.000000    0.000000
  0.038637275   -3.689375   66.096092  -99.727590   13.223443    0.000000    0.000000    0.000000    0.000000
  0.038837675   -3.753607   63.987526 -100.200394   13.296809    0.000000    0.000000    0.000000    0.000000
  0.039038076   -3.813997   61.930035  -99.573872   12.554660    0.000000    0.000000    0.000000    0.000000
  0.039238477   -3.867705   59.894558 -100.354682   15.708976    0.000000    0.000000    0.000000    0.000000
  0.039438878   -3.924678   57.864613  -99.914583    4.082423    0.000000    0.000000    0.000000    0.000000
  0.039639279   -3.979306   55.843319  -99.516445   20.444189    0.000000    0.000000    0.000000    0.000000
  0.039839679   -4.037334   53.782448  -98.755794   11.767090    0.000000    0.000000    0.000000    0.000000
  0.040040080   -4.098195   51.711250 -100.260038    1.695053    0.000000    0.000000    0.000000    0.000000
  0.040240481   -4.157270   49.638763 -101.070868   15.402892    0.000000    0.000000    0.000000    0.000000
  0.040440882   -4.216352   47.529293  -99.199198    6.749311    0.000000    0.000000    0.000000    0.000000
  0.040641283   -4.273764   45.418015 -101.436708    8.946630    0.000000    0.000000    0.000000    0.000000
  0.040841683   -4.329781   43.300686 -101.864213    6.983938    0.000000    0.000000    0.000000    0.000000
  0.041042084   -4.383288   41.191925 -100.346787    9.797235    0.000000    0.000000    0.000000    0.000000
  0.041242485   -4.437731   39.081722 -101.316600   -2.682665    0.000000    0.000000    0.000000    0.000000
  0.041442886   -4.491190   36.951862  -99.906193   12.194117    0.000000    0.000000    0.000000    0.000000
  0.041643287   -4.538574   34.836231 -101.234014    4.840017    0.000000    0.000000    0.000000    0.000000
  0.041843687   -4.587282   32.708519 -102.437291   -3.733185    0.000000    0.000000    0.000000    0.000000
  0.042044088   -4.631951   30.637878  -99.832383    0.475674    0.000000    0.000000    0.000000    0.000000
  0.042244489   -4.674384   28.547920  -99.288083   10.931447    0.000000    0.000000    0.000000    0.000000
  0.042444890   -4.723298   26.508778 -101.974175   11.449209    0.000000    0.000000    0.000000    0.000000
  0.042645291   -4.768346   24.450377 -101.991705   -8.683703    0.000000    0.000000    0.000000    0.000000
  0.042845691   -4.811649   22.406448 -101.343904    0.929425    0.000000    0.000000    0.000000    0.000000
  0.043046092   -4.855068   20.374065 -103.325845   -2.995396    0.000000    0.000000    0.000000    0.000000
  0.043246493   -4.899063   18.332272 -101.717183   -6.290376    0.000000    0.000000    0.000000    0.000000
  0.043446894   -4.942661   16.305395 -102.632175   14.244376    0.000000    0.000000    0.000000    0.000000
  0.043647295   -4.983485   14.281310 -100.428033    1.166785    0.000000    0.000000    0.000000    0.000000
  0.043847695   -5.026271   12.274477 -100.500736    2.777525    0.000000    0.000000    0.000000    0.000000
  0.044048096   -5.069960   10.257800 -103.228415   11.696324    0.000000    0.000000    0.000000    0.000000
  0.044248497   -5.112929    8.250103 -101.810358    7.060757    0.000000    0.000000    0.000000    0.000000
  0.044448898   -5.155505    6.261618 -102.267968    2.581538    0.000000    0.000000    0.000000    0.000000
  0.044649299   -5.197090    4.264539 -101.680874   22.296858    0.000000    0.000000    0.000000    0.000000
  0.044849699   -5.233702    2.280972 -103.008472   12.220253    0.000000    0.000000    0.000000    0.000000
  0.045050100   -5.267019    0.289828 -103.060975   10.176036    0.000000    0.000000    0.000000    0.000000
  0.045250501   -5.300398   -1.690613 -100.129257   21.985620    0.000000    0.000000    0.000000    0.000000
  0.045450902   -5.336485   -3.628134 -102.163012   10.352967    0.000000    0.000000    0.000000    0.000000
  0.045651303   -5.369435   -5.573534 -100.565194   16.818573    0.000000    0.000000    0.000000    0.000000
  0.045851703   -5.403380   -7.501029  -99.641058    7.573081    0.000000    0.000000    0.000000    0.000000
  0.046052104   -5.437488   -9.463337 -101.493148    6.309236    0.000000    0.000000    0.000000    0.000000
  0.046252505   -5.467118  -11.369817 -100.690301    7.492663    0.000000    0.000000    0.000000    0.000000
  0.046452906   -5.498749  -13.277888 -100.457899   12.264840    0.000000    0.000000    0.000000    0.000000
  0.046653307   -5.524287  -15.199495 -100.163149    3.174606    0.000000    0.000000    0.000000    0.000000
  0.046853707   -5.550279  -17.105858 -102.343163    4.611330    0.000000    0.000000    0.000000    0.000000
  0.047054108   -5.575770  -18.999783 -100.078417   -1.909950    0.000000    0.000000    0.000000    0.000000
  0.047254509   -5.598077  -20.891445 -102.793223    5.850566    0.000000    0.000000    0.000000    0.000000
  0.047454910   -5.621624  -22.756390 -101.166536   -9.230125    0.000000    0.000000    0.000000    0.000000
  0.047655311   -5.641597  -24.608990 -102.813537   -3.399558    0.000000    0.000000    0.000000    0.000000
  0.047855711   -5.662284  -26.427065 -100.903190   -7.361808    0.000000    0.000000    0.000000    0.000000
  0.048056112   -5.684663  -28.238081 -101.046689    6.597353    0.000000    0.000000    0.000000    0.000000
  0.048256513   -5.706414  -30.033886 -102.361843   -8.048193    0.000000    0.000000    0.000000    0.000000
  0.048456914   -5.728949  -31.839771 -102.168645  -18.807575    0.000000    0.000000    0.000000    0.000000
  0.048657315   -5.746678  -33.616558 -105.321446   -5.051378    0.000000    0.000000    0.000000    0.000000
  0.048857715   -5.763507  -35.413952 -102.771732    7.765665    0.000000    0.000000    0.000000    0.000000
  0.049058116   -5.780678  -37.183620 -104.311552    1.822114    0.000000    0.000000    0.000000    0.000000
  0.049258517   -5.793205  -38.957249 -105.620623    8.236076    0.000000    0.000000    0.000000    0.000000
  0.049458918   -5.811340  -40.677616 -101.405324    8.002589    0.000000    0.000000    0.000000    0.000000
  0.049659319   -5.828034  -42.413769 -103.107852  -14.476801    0.000000    0.000000    0.000000    0.000000
  0.049859719   -5.846103  -44.146397 -104.035703   10.642178    0.000000    0.000000    0.000000    0.000000
  0.050060120   -5.859670  -45.880314 -103.720073    0.412571    0.000000    0.000000    0.000000    0.000000
  0.050260521   -5.870888  -47.590660 -103.331298    1.774409    0.000000    0.000000    0.000000    0.000000
  0.050460922   -5.883039  -49.309975 -103.459132   10.969885    0.000000    0.000000    0.000000    0.000000
  0.050661323   -5.891391  -51.005661 -105.644582   10.170153    0.000000    0.000000    0.000000    0.000000
  0.050861723   -5.893995  -52.687782 -102.610157   18.267014    0.000000    0.000000    0.000000    0.000000
  0.051062124   -5.903032  -54.330021 -103.171052   20.320852    0.000000    0.000000    0.000000    0.000000
  0.051262525   -5.908018  -55.948956 -102.013848   18.311966    0.000000    0.000000    0.000000    0.000000
  0.051462926   -5.915161  -57.551243 -102.209121   12.795158    0.000000    0.000000    0.000000    0.000000
  0.051663327   -5.920216  -59.132519 -102.676731    0.809415    0.000000    0.000000    0.000000    0.000000
  0.051863727   -5.927171  -60.720592 -103.154777    1.002304    0.000000    0.000000    0.000000    0.000000
  0.052064128   -5.939034  -62.264713 -102.726437    7.934550    0.000000    0.000000    0.000000    0.000000
  0.052264529   -5.945622  -63.836929 -102.930724   -1.536974    0.000000    0.000000    0.000000    0.000000
  0.052464930   -5.954220  -65.388893 -101.002653    1.425463    0.000000    0.000000    0.000000    0.000000
  0.052665331   -5.962234  -66.956184 -101.736708    0.130817    0.000000    0.000000    0.000000    0.000000
  0.052865731   -5.975172  -68.512070 -101.083821  -11.426258    0.000000    0.000000    0.000000    0.000000
