! Anritsu VNA Master:                     Model: MS2036C/10/77
! SN:                                  1601066
! /bd0/18may8/255.ns.m7.s2p
! Existing Calibration Information:
! TYPE:                         Current Settings,       Active Cal Settings
! TIME:             	   05/08/2018 01:02:39 PM,    05/08/2018 01:00:27 PM
! INTERNAL TEMP:    	                   60.0 C,                    60.0 C
! # POINTS:         	                      500,                       500
! START FREQ:       	               20.000 MHz,                20.000 MHz
! STOP FREQ:        	              120.000 MHz,               120.000 MHz
! SOURCE POWER:     	                     High,                      High
! IFBW:             	                    50 Hz,                     50 Hz
! AVG FACTOR:       	                       1 ,                        1 
! REF PLANE 1:      	                     0 mm,                      0 mm
! REF PLANE 2:      	                     0 mm,                      0 mm
! CAL TYPE:         	                 Full S11,                  Full S11
! CAL METHOD:       	                     SOLT,                      SOLT
! CAL LINE TYPE:    	                     Coax,                      Coax
! DUT PORT 1:       	                K-Conn(F),                 K-Conn(F)
! DUT PORT 2:       	                K-Conn(F),                 K-Conn(F)
! CAL STATUS:       	        OK: Accuracy High,                        --
# GHZ S DB R 50.0
! FREQ.GHZ       S11DB        S11A       S21DB        S21A       S12DB        S12A       S22DB        S22A
  0.020000000   -0.631277 -124.354042  -90.805785   29.217863    0.000000    0.000000    0.000000    0.000000
  0.020200401   -0.626937 -125.791046  -91.197684   26.944992    0.000000    0.000000    0.000000    0.000000
  0.020400802   -0.625549 -127.224701  -91.776320   25.181355    0.000000    0.000000    0.000000    0.000000
  0.020601202   -0.626590 -128.668060  -92.168767   21.734943    0.000000    0.000000    0.000000    0.000000
  0.020801603   -0.630740 -130.144760  -92.567605   26.613293    0.000000    0.000000    0.000000    0.000000
  0.021002004   -0.637079 -131.636566  -92.247113   27.932188    0.000000    0.000000    0.000000    0.000000
  0.021202405   -0.641990 -133.156296  -93.131253   24.518013    0.000000    0.000000    0.000000    0.000000
  0.021402806   -0.645918 -134.653305  -93.728738   28.821253    0.000000    0.000000    0.000000    0.000000
  0.021603206   -0.650649 -136.177567  -92.954511   28.922235    0.000000    0.000000    0.000000    0.000000
  0.021803607   -0.654264 -137.692749  -94.142683   29.625675    0.000000    0.000000    0.000000    0.000000
  0.022004008   -0.659455 -139.215073  -93.834815   30.420731    0.000000    0.000000    0.000000    0.000000
  0.022204409   -0.663932 -140.747025  -93.166042   29.771154    0.000000    0.000000    0.000000    0.000000
  0.022404810   -0.669563 -142.294983  -92.766294   38.372662    0.000000    0.000000    0.000000    0.000000
  0.022605210   -0.671790 -143.881699  -93.032165   33.343170    0.000000    0.000000    0.000000    0.000000
  0.022805611   -0.672415 -145.456223  -93.273107   32.723202    0.000000    0.000000    0.000000    0.000000
  0.023006012   -0.674046 -147.040161  -93.365822   33.749001    0.000000    0.000000    0.000000    0.000000
  0.023206413   -0.672792 -148.598450  -93.325025   31.544996    0.000000    0.000000    0.000000    0.000000
  0.023406814   -0.676890 -150.173904  -92.544812   30.676617    0.000000    0.000000    0.000000    0.000000
  0.023607214   -0.678350 -151.754242  -93.491557   35.995457    0.000000    0.000000    0.000000    0.000000
  0.023807615   -0.683215 -153.339325  -93.310782   30.731752    0.000000    0.000000    0.000000    0.000000
  0.024008016   -0.690254 -154.938812  -93.180482   29.170618    0.000000    0.000000    0.000000    0.000000
  0.024208417   -0.699496 -156.557602  -93.011691   28.041161    0.000000    0.000000    0.000000    0.000000
  0.024408818   -0.706153 -158.182114  -93.887860   31.241743    0.000000    0.000000    0.000000    0.000000
  0.024609218   -0.713631 -159.823776  -93.468862   24.074427    0.000000    0.000000    0.000000    0.000000
  0.024809619   -0.720195 -161.451706  -93.170070   21.236254    0.000000    0.000000    0.000000    0.000000
  0.025010020   -0.731456 -163.101105  -94.246627   21.526340    0.000000    0.000000    0.000000    0.000000
  0.025210421   -0.741944 -164.745407  -94.200593   21.723076    0.000000    0.000000    0.000000    0.000000
  0.025410822   -0.753223 -166.411774  -94.274926   13.547599    0.000000    0.000000    0.000000    0.000000
  0.025611222   -0.765478 -168.087051  -94.377011   16.752098    0.000000    0.000000    0.000000    0.000000
  0.025811623   -0.778478 -169.798660  -94.145560   15.079528    0.000000    0.000000    0.000000    0.000000
  0.026012024   -0.788197 -171.515427  -95.109235   17.195805    0.000000    0.000000    0.000000    0.000000
  0.026212425   -0.797828 -173.236282  -95.448816   14.475077    0.000000    0.000000    0.000000    0.000000
  0.026412826   -0.808902 -174.955673  -94.566899   14.053596    0.000000    0.000000    0.000000    0.000000
  0.026613226   -0.819834 -176.689194  -96.041705   10.788985    0.000000    0.000000    0.000000    0.000000
  0.026813627   -0.835678 -178.440689  -96.174867   17.931889    0.000000    0.000000    0.000000    0.000000
  0.027014028   -0.850175  179.815018  -96.085057   17.096058    0.000000    0.000000    0.000000    0.000000
  0.027214429   -0.866025  178.039963  -96.081981   18.797045    0.000000    0.000000    0.000000    0.000000
  0.027414830   -0.881572  176.267090  -97.578440   19.661943    0.000000    0.000000    0.000000    0.000000
  0.027615230   -0.898323  174.474319  -96.513208   23.208124    0.000000    0.000000    0.000000    0.000000
  0.027815631   -0.916064  172.666428  -96.520382   19.280102    0.000000    0.000000    0.000000    0.000000
  0.028016032   -0.935829  170.853256  -96.412806   15.325249    0.000000    0.000000    0.000000    0.000000
  0.028216433   -0.956629  169.031006  -96.639149   16.454823    0.000000    0.000000    0.000000    0.000000
  0.028416834   -0.976357  167.201813  -97.053428   19.614763    0.000000    0.000000    0.000000    0.000000
  0.028617234   -0.996022  165.367203  -96.219523   16.976564    0.000000    0.000000    0.000000    0.000000
  0.028817635   -1.014832  163.534058  -96.579920   22.747223    0.000000    0.000000    0.000000    0.000000
  0.029018036   -1.032458  161.722794  -96.563602   19.513142    0.000000    0.000000    0.000000    0.000000
  0.029218437   -1.051094  159.900253  -95.858596   24.528465    0.000000    0.000000    0.000000    0.000000
  0.029418838   -1.073550  158.089005  -96.845298   20.037703    0.000000    0.000000    0.000000    0.000000
  0.029619238   -1.096554  156.247879  -96.500014   13.370166    0.000000    0.000000    0.000000    0.000000
  0.029819639   -1.124803  154.397919  -95.755223   20.569719    0.000000    0.000000    0.000000    0.000000
  0.030020040   -1.155604  152.508774  -96.747085   17.209978    0.000000    0.000000    0.000000    0.000000
  0.030220441   -1.183166  150.597641  -97.129676   11.627104    0.000000    0.000000    0.000000    0.000000
  0.030420842   -1.212648  148.687500  -97.768237   12.161900    0.000000    0.000000    0.000000    0.000000
  0.030621242   -1.243120  146.786331  -96.692332   13.423111    0.000000    0.000000    0.000000    0.000000
  0.030821643   -1.272160  144.897430  -96.758109   11.492048    0.000000    0.000000    0.000000    0.000000
  0.031022044   -1.304598  142.992218  -98.290490    9.739584    0.000000    0.000000    0.000000    0.000000
  0.031222445   -1.333621  141.080551  -96.758826    6.023385    0.000000    0.000000    0.000000    0.000000
  0.031422846   -1.369647  139.128006  -97.652690    7.239045    0.000000    0.000000    0.000000    0.000000
  0.031623246   -1.406692  137.156647  -96.499967   17.801931    0.000000    0.000000    0.000000    0.000000
  0.031823647   -1.443006  135.179871  -97.747246   10.863530    0.000000    0.000000    0.000000    0.000000
  0.032024048   -1.480616  133.197815  -98.063671   14.215978    0.000000    0.000000    0.000000    0.000000
  0.032224449   -1.515767  131.215225  -97.441872   10.131971    0.000000    0.000000    0.000000    0.000000
  0.032424850   -1.549927  129.234268  -97.776722    2.317641    0.000000    0.000000    0.000000    0.000000
  0.032625251   -1.586968  127.232590  -99.392647    7.322759    0.000000    0.000000    0.000000    0.000000
  0.032825651   -1.621964  125.243225  -97.167122    8.997378    0.000000    0.000000    0.000000    0.000000
  0.033026052   -1.659309  123.259369  -98.787036   15.725574    0.000000    0.000000    0.000000    0.000000
  0.033226453   -1.700686  121.279205  -97.667473    8.933038    0.000000    0.000000    0.000000    0.000000
  0.033426854   -1.742309  119.303627  -98.102884    4.348589    0.000000    0.000000    0.000000    0.000000
  0.033627255   -1.792808  117.317581  -98.188337   16.998829    0.000000    0.000000    0.000000    0.000000
  0.033827655   -1.842039  115.304436  -99.482489    5.536398    0.000000    0.000000    0.000000    0.000000
  0.034028056   -1.891821  113.261955  -97.993866   11.612074    0.000000    0.000000    0.000000    0.000000
  0.034228457   -1.943672  111.201653  -98.331462   16.651964    0.000000    0.000000    0.000000    0.000000
  0.034428858   -1.993515  109.092331  -98.106965    2.696574    0.000000    0.000000    0.000000    0.000000
  0.034629259   -2.041882  106.968704  -99.758153   15.628019    0.000000    0.000000    0.000000    0.000000
  0.034829659   -2.088755  104.857971  -98.936133    6.717261    0.000000    0.000000    0.000000    0.000000
  0.035030060   -2.135447  102.735527  -98.094696   10.065056    0.000000    0.000000    0.000000    0.000000
  0.035230461   -2.178440  100.621605  -98.943139   15.399536    0.000000    0.000000    0.000000    0.000000
  0.035430862   -2.223856   98.528519  -98.616338   10.713112    0.000000    0.000000    0.000000    0.000000
  0.035631263   -2.267204   96.434608  -99.296308   12.503275    0.000000    0.000000    0.000000    0.000000
  0.035831663   -2.308532   94.371376  -99.295054    9.390722    0.000000    0.000000    0.000000    0.000000
  0.036032064   -2.354735   92.308853 -101.064890    3.003814    0.000000    0.000000    0.000000    0.000000
  0.036232465   -2.401547   90.254105  -98.600807    7.521613    0.000000    0.000000    0.000000    0.000000
  0.036432866   -2.448998   88.221443 -100.086513   12.780133    0.000000    0.000000    0.000000    0.000000
  0.036633267   -2.497692   86.183426  -98.894726    4.395390    0.000000    0.000000    0.000000    0.000000
  0.036833667   -2.550802   84.150414  -98.604214   -3.161863    0.000000    0.000000    0.000000    0.000000
  0.037034068   -2.609233   82.104675 -101.573480    5.200406    0.000000    0.000000    0.000000    0.000000
  0.037234469   -2.670720   80.050270  -99.704073    5.525109    0.000000    0.000000    0.000000    0.000000
  0.037434870   -2.731719   77.979012  -98.119011    4.372151    0.000000    0.000000    0.000000    0.000000
  0.037635271   -2.794326   75.895676  -99.475841    6.828185    0.000000    0.000000    0.000000    0.000000
  0.037835671   -2.858023   73.809250 -100.778909   15.465481    0.000000    0.000000    0.000000    0.000000
  0.038036072   -2.924911   71.691185 -100.192488    0.622164    0.000000    0.000000    0.000000    0.000000
  0.038236473   -2.983381   69.549377 -100.505114   -0.093874    0.000000    0.000000    0.000000    0.000000
  0.038436874   -3.045965   67.416687 -100.532083   13.947021    0.000000    0.000000    0.000000    0.000000
  0.038637275   -3.102053   65.295296 -100.411224    8.587804    0.000000    0.000000    0.000000    0.000000
  0.038837675   -3.153371   63.190411 -101.091780   16.701466    0.000000    0.000000    0.000000    0.000000
  0.039038076   -3.204684   61.110645 -100.141395   15.546521    0.000000    0.000000    0.000000    0.000000
  0.039238477   -3.252853   59.054493  -99.687805   11.289174    0.000000    0.000000    0.000000    0.000000
  0.039438878   -3.302777   56.994892  -98.911650    8.382648    0.000000    0.000000    0.000000    0.000000
  0.039639279   -3.358445   54.994022  -99.420103    4.044394    0.000000    0.000000    0.000000    0.000000
  0.039839679   -3.416905   52.964455 -100.837121    1.087000    0.000000    0.000000    0.000000    0.000000
  0.040040080   -3.479572   50.926975  -99.630566   18.335314    0.000000    0.000000    0.000000    0.000000
  0.040240481   -3.541837   48.894699  -99.731558    6.711589    0.000000    0.000000    0.000000    0.000000
  0.040440882   -3.604552   46.831512  -99.069820   -0.301246    0.000000    0.000000    0.000000    0.000000
  0.040641283   -3.667716   44.768124  -99.174652   10.573598    0.000000    0.000000    0.000000    0.000000
  0.040841683   -3.726774   42.722561  -98.721153   13.993354    0.000000    0.000000    0.000000    0.000000
  0.041042084   -3.785673   40.675095 -100.791872   11.609232    0.000000    0.000000    0.000000    0.000000
  0.041242485   -3.843825   38.646786 -100.648124   -2.673172    0.000000    0.000000    0.000000    0.000000
  0.041442886   -3.902972   36.588665 -100.354830    1.874743    0.000000    0.000000    0.000000    0.000000
  0.041643287   -3.958424   34.529732 -101.769890    1.427511    0.000000    0.000000    0.000000    0.000000
  0.041843687   -4.013680   32.481815 -100.399082    4.227434    0.000000    0.000000    0.000000    0.000000
  0.042044088   -4.065295   30.457561 -102.270942    3.987616    0.000000    0.000000    0.000000    0.000000
  0.042244489   -4.115580   28.448372 -102.221601   -3.002665    0.000000    0.000000    0.000000    0.000000
  0.042444890   -4.167303   26.440231 -102.142403    4.975630    0.000000    0.000000    0.000000    0.000000
  0.042645291   -4.221418   24.459257 -101.441963  -11.387657    0.000000    0.000000    0.000000    0.000000
  0.042845691   -4.268735   22.463833 -101.300693    9.967222    0.000000    0.000000    0.000000    0.000000
  0.043046092   -4.320466   20.493164 -101.719470   -7.264022    0.000000    0.000000    0.000000    0.000000
  0.043246493   -4.371052   18.511070 -104.085781    1.044210    0.000000    0.000000    0.000000    0.000000
  0.043446894   -4.419069   16.536888 -102.217223   12.411777    0.000000    0.000000    0.000000    0.000000
  0.043647295   -4.464966   14.581883 -102.045180   -1.848444    0.000000    0.000000    0.000000    0.000000
  0.043847695   -4.513612   12.623971 -101.422122    1.301537    0.000000    0.000000    0.000000    0.000000
  0.044048096   -4.564038   10.656003 -101.548458    7.317276    0.000000    0.000000    0.000000    0.000000
  0.044248497   -4.611396    8.720069 -104.227139   -8.261951    0.000000    0.000000    0.000000    0.000000
  0.044448898   -4.660336    6.783395 -102.175334    5.000296    0.000000    0.000000    0.000000    0.000000
  0.044649299   -4.709292    4.846272 -101.994578    2.935996    0.000000    0.000000    0.000000    0.000000
  0.044849699   -4.753467    2.913954 -103.022782   16.318571    0.000000    0.000000    0.000000    0.000000
  0.045050100   -4.793934    0.984156 -103.265991   14.410756    0.000000    0.000000    0.000000    0.000000
  0.045250501   -4.834987   -0.925557 -101.068748   11.767536    0.000000    0.000000    0.000000    0.000000
  0.045450902   -4.873642   -2.844077 -103.240760   -1.381356    0.000000    0.000000    0.000000    0.000000
  0.045651303   -4.914473   -4.733360 -101.497309    4.496807    0.000000    0.000000    0.000000    0.000000
  0.045851703   -4.954315   -6.613554 -101.178159   12.960979    0.000000    0.000000    0.000000    0.000000
  0.046052104   -4.995057   -8.480062  -99.815108    2.884992    0.000000    0.000000    0.000000    0.000000
  0.046252505   -5.035061  -10.349306  -99.569536   12.864880    0.000000    0.000000    0.000000    0.000000
  0.046452906   -5.074036  -12.207882 -101.222207    6.233143    0.000000    0.000000    0.000000    0.000000
  0.046653307   -5.110040  -14.055088 -100.157906    0.156617    0.000000    0.000000    0.000000    0.000000
  0.046853707   -5.146519  -15.904675 -102.385492    0.461901    0.000000    0.000000    0.000000    0.000000
  0.047054108   -5.180095  -17.743254 -102.278286    1.219657    0.000000    0.000000    0.000000    0.000000
  0.047254509   -5.213731  -19.592003 -100.938358   -4.970502    0.000000    0.000000    0.000000    0.000000
  0.047454910   -5.245374  -21.396963 -101.548992   -2.445067    0.000000    0.000000    0.000000    0.000000
  0.047655311   -5.275603  -23.212011 -102.639137    1.599329    0.000000    0.000000    0.000000    0.000000
  0.047855711   -5.307414  -24.981993 -104.799656   -7.294706    0.000000    0.000000    0.000000    0.000000
  0.048056112   -5.336462  -26.744802 -100.796374    2.788839    0.000000    0.000000    0.000000    0.000000
  0.048256513   -5.365431  -28.488359 -103.230882  -10.811921    0.000000    0.000000    0.000000    0.000000
  0.048456914   -5.398002  -30.238535 -103.023895    4.239627    0.000000    0.000000    0.000000    0.000000
  0.048657315   -5.428608  -31.980852 -102.886347   -5.924381    0.000000    0.000000    0.000000    0.000000
  0.048857715   -5.456021  -33.727562 -103.854273   -5.737667    0.000000    0.000000    0.000000    0.000000
  0.049058116   -5.481858  -35.461021 -103.302658   10.887369    0.000000    0.000000    0.000000    0.000000
  0.049258517   -5.510575  -37.187283 -102.190072  -13.532036    0.000000    0.000000    0.000000    0.000000
  0.049458918   -5.532737  -38.893780 -106.017325   -6.248541    0.000000    0.000000    0.000000    0.000000
  0.049659319   -5.561409  -40.606445 -103.164090    6.314147    0.000000    0.000000    0.000000    0.000000
  0.049859719   -5.588275  -42.302635 -104.520584    8.951172    0.000000    0.000000    0.000000    0.000000
  0.050060120   -5.613375  -43.974022 -103.566331   13.644510    0.000000    0.000000    0.000000    0.000000
  0.050260521   -5.635385  -45.662369 -104.727116    8.415286    0.000000    0.000000    0.000000    0.000000
  0.050460922   -5.659278  -47.345985 -106.111843   39.403168    0.000000    0.000000    0.000000    0.000000
  0.050661323   -5.676839  -49.053280 -103.922826   17.223150    0.000000    0.000000    0.000000    0.000000
  0.050861723   -5.695638  -50.710281 -104.273008    6.823601    0.000000    0.000000    0.000000    0.000000
  0.051062124   -5.711877  -52.367165 -103.501749   11.980756    0.000000    0.000000    0.000000    0.000000
  0.051262525   -5.727522  -54.018803 -103.793483   -3.907268    0.000000    0.000000    0.000000    0.000000
  0.051462926   -5.742239  -55.612911 -103.021847    0.324819    0.000000    0.000000    0.000000    0.000000
  0.051663327   -5.757865  -57.197647 -102.567147    7.707939    0.000000    0.000000    0.000000    0.000000
  0.051863727   -5.771132  -58.769337 -102.488883   -2.069159    0.000000    0.000000    0.000000    0.000000
  0.052064128   -5.788337  -60.366905 -102.172582    8.967095    0.000000    0.000000    0.000000    0.000000
  0.052264529   -5.805026  -61.893803 -102.031862   -6.144598    0.000000    0.000000    0.000000    0.000000
  0.052464930   -5.821618  -63.469559 -103.721058    3.086350    0.000000    0.000000    0.000000    0.000000
  0.052665331   -5.837392  -65.044746 -103.397087  -12.455902    0.000000    0.000000    0.000000    0.000000
  0.052865731   -5.857899  -66.613922 -102.104545    1.112250    0.000000    0.000000    0.000000    0.000000
