! Anritsu VNA Master:                     Model: MS2036C/10/77
! SN:                                  1601066
! /card0/usr/18may27.balun/5b.47.3.s2p
! Existing Calibration Information:
! TYPE:                         Current Settings,       Active Cal Settings
! TIME:             	   05/27/2018 03:58:53 PM,    05/27/2018 03:52:12 PM
! INTERNAL TEMP:    	                   52.0 C,                    52.5 C
! # POINTS:         	                      500,                       500
! START FREQ:       	               20.000 MHz,                20.000 MHz
! STOP FREQ:        	              120.000 MHz,               120.000 MHz
! SOURCE POWER:     	                     High,                      High
! IFBW:             	                    50 Hz,                     50 Hz
! AVG FACTOR:       	                       1 ,                        1 
! REF PLANE 1:      	                     0 mm,                      0 mm
! REF PLANE 2:      	                     0 mm,                      0 mm
! CAL TYPE:         	                 Full S11,                  Full S11
! CAL METHOD:       	                     SOLT,                      SOLT
! CAL LINE TYPE:    	                     Coax,                      Coax
! DUT PORT 1:       	                K-Conn(M),                 K-Conn(M)
! DUT PORT 2:       	                K-Conn(M),                 K-Conn(M)
! CAL STATUS:       	        OK: Accuracy High,                        --
# GHZ S DB R 50.0
! FREQ.GHZ       S11DB        S11A       S21DB        S21A       S12DB        S12A       S22DB        S22A
  0.020000000   -0.026677  -56.125874  -89.497720   37.148499    0.000000    0.000000    0.000000    0.000000
  0.020200401   -0.025542  -56.685333  -90.105779   36.049866    0.000000    0.000000    0.000000    0.000000
  0.020400802   -0.023763  -57.225437  -90.798562   33.540329    0.000000    0.000000    0.000000    0.000000
  0.020601202   -0.023698  -57.786789  -90.892774   30.324080    0.000000    0.000000    0.000000    0.000000
  0.020801603   -0.025151  -58.333038  -91.422718   29.250839    0.000000    0.000000    0.000000    0.000000
  0.021002004   -0.024596  -58.895683  -91.229421   28.564615    0.000000    0.000000    0.000000    0.000000
  0.021202405   -0.027125  -59.449352  -91.809703   25.051638    0.000000    0.000000    0.000000    0.000000
  0.021402806   -0.029188  -59.982052  -92.095658   27.262180    0.000000    0.000000    0.000000    0.000000
  0.021603206   -0.031593  -60.516502  -92.371204   24.721434    0.000000    0.000000    0.000000    0.000000
  0.021803607   -0.035337  -61.039215  -93.136121   27.400320    0.000000    0.000000    0.000000    0.000000
  0.022004008   -0.036332  -61.560741  -92.608168   26.668331    0.000000    0.000000    0.000000    0.000000
  0.022204409   -0.040012  -62.099033  -93.068940   23.638142    0.000000    0.000000    0.000000    0.000000
  0.022404810   -0.043937  -62.671440  -93.876171   29.254314    0.000000    0.000000    0.000000    0.000000
  0.022605210   -0.046225  -63.206612  -93.616027   31.409117    0.000000    0.000000    0.000000    0.000000
  0.022805611   -0.042685  -63.766914  -93.178981   33.390659    0.000000    0.000000    0.000000    0.000000
  0.023006012   -0.033478  -64.325653  -93.331727   33.026119    0.000000    0.000000    0.000000    0.000000
  0.023206413   -0.024254  -64.880684  -94.031419   29.659250    0.000000    0.000000    0.000000    0.000000
  0.023406814   -0.020723  -65.433899  -93.122003   28.562754    0.000000    0.000000    0.000000    0.000000
  0.023607214   -0.019107  -65.985725  -93.373556   31.292843    0.000000    0.000000    0.000000    0.000000
  0.023807615   -0.020922  -66.482758  -93.090895   34.898075    0.000000    0.000000    0.000000    0.000000
  0.024008016   -0.022545  -66.980362  -93.145682   31.633997    0.000000    0.000000    0.000000    0.000000
  0.024208417   -0.026921  -67.477867  -93.636813   29.631166    0.000000    0.000000    0.000000    0.000000
  0.024408818   -0.034110  -67.957214  -92.992801   26.203302    0.000000    0.000000    0.000000    0.000000
  0.024609218   -0.038399  -68.466202  -93.848105   28.754694    0.000000    0.000000    0.000000    0.000000
  0.024809619   -0.043548  -69.010040  -92.999694   29.636003    0.000000    0.000000    0.000000    0.000000
  0.025010020   -0.046256  -69.567833  -94.583013   28.270508    0.000000    0.000000    0.000000    0.000000
  0.025210421   -0.046831  -70.135544  -93.931610   23.141558    0.000000    0.000000    0.000000    0.000000
  0.025410822   -0.049061  -70.709572  -94.218891   21.745222    0.000000    0.000000    0.000000    0.000000
  0.025611222   -0.051083  -71.288498  -93.723936   20.180721    0.000000    0.000000    0.000000    0.000000
  0.025811623   -0.049993  -71.861343  -94.390613   16.661959    0.000000    0.000000    0.000000    0.000000
  0.026012024   -0.047865  -72.425095  -94.960041   15.337851    0.000000    0.000000    0.000000    0.000000
  0.026212425   -0.045209  -72.969635  -95.118399   16.530462    0.000000    0.000000    0.000000    0.000000
  0.026412826   -0.042218  -73.504936  -95.412677   17.255823    0.000000    0.000000    0.000000    0.000000
  0.026613226   -0.045849  -74.036194  -95.445885   19.579157    0.000000    0.000000    0.000000    0.000000
  0.026813627   -0.049621  -74.529129  -96.278393   19.114023    0.000000    0.000000    0.000000    0.000000
  0.027014028   -0.055639  -74.996628  -96.063345   15.258862    0.000000    0.000000    0.000000    0.000000
  0.027214429   -0.065018  -75.501236  -96.394682   23.310171    0.000000    0.000000    0.000000    0.000000
  0.027414830   -0.073929  -76.055000  -95.854494   22.573851    0.000000    0.000000    0.000000    0.000000
  0.027615230   -0.082325  -76.643387  -95.391721   21.934727    0.000000    0.000000    0.000000    0.000000
  0.027815631   -0.083956  -77.241783  -96.312019   24.662497    0.000000    0.000000    0.000000    0.000000
  0.028016032   -0.081922  -77.847809  -95.397169   20.270140    0.000000    0.000000    0.000000    0.000000
  0.028216433   -0.077374  -78.455330  -95.957676   19.795689    0.000000    0.000000    0.000000    0.000000
  0.028416834   -0.067008  -79.074554  -95.479587   25.159296    0.000000    0.000000    0.000000    0.000000
  0.028617234   -0.057632  -79.664749  -95.150383   32.338730    0.000000    0.000000    0.000000    0.000000
  0.028817635   -0.047822  -80.184975  -95.564336   22.938597    0.000000    0.000000    0.000000    0.000000
  0.029018036   -0.039340  -80.668655  -96.288603   16.557062    0.000000    0.000000    0.000000    0.000000
  0.029218437   -0.031628  -81.123116  -96.583500   15.017240    0.000000    0.000000    0.000000    0.000000
  0.029418838   -0.024529  -81.547607  -96.006187   15.828773    0.000000    0.000000    0.000000    0.000000
  0.029619238   -0.024563  -81.952019  -96.484433   18.201450    0.000000    0.000000    0.000000    0.000000
  0.029819639   -0.024699  -82.400452  -95.832444   16.607777    0.000000    0.000000    0.000000    0.000000
  0.030020040   -0.029363  -82.886528  -96.592713   10.681349    0.000000    0.000000    0.000000    0.000000
  0.030220441   -0.038102  -83.381638  -96.360021   12.060802    0.000000    0.000000    0.000000    0.000000
  0.030420842   -0.050597  -83.915993  -96.580309    9.906830    0.000000    0.000000    0.000000    0.000000
  0.030621242   -0.059187  -84.478073  -96.390924   12.066037    0.000000    0.000000    0.000000    0.000000
  0.030821643   -0.061415  -85.034706  -97.186353   14.021729    0.000000    0.000000    0.000000    0.000000
  0.031022044   -0.065156  -85.584633  -96.507174   15.857081    0.000000    0.000000    0.000000    0.000000
  0.031222445   -0.061305  -86.135399  -96.582973   10.541169    0.000000    0.000000    0.000000    0.000000
  0.031422846   -0.062468  -86.682449  -97.464921    6.281306    0.000000    0.000000    0.000000    0.000000
  0.031623246   -0.065387  -87.212547  -97.388292   12.625469    0.000000    0.000000    0.000000    0.000000
  0.031823647   -0.060782  -87.719322  -96.679432   13.559800    0.000000    0.000000    0.000000    0.000000
  0.032024048   -0.059047  -88.211273  -98.816893   10.211916    0.000000    0.000000    0.000000    0.000000
  0.032224449   -0.063091  -88.664375  -98.533954   17.432665    0.000000    0.000000    0.000000    0.000000
  0.032424850   -0.072361  -89.136108  -98.809923   11.813892    0.000000    0.000000    0.000000    0.000000
  0.032625251   -0.082821  -89.634712  -98.166286   14.467338    0.000000    0.000000    0.000000    0.000000
  0.032825651   -0.093660  -90.163193  -98.473074    5.780507    0.000000    0.000000    0.000000    0.000000
  0.033026052   -0.103014  -90.711021  -98.597451   13.626887    0.000000    0.000000    0.000000    0.000000
  0.033226453   -0.109006  -91.296219  -98.005781   11.760086    0.000000    0.000000    0.000000    0.000000
  0.033426854   -0.114964  -91.882179  -98.420823   11.549630    0.000000    0.000000    0.000000    0.000000
  0.033627255   -0.116839  -92.503189  -97.517612   18.419550    0.000000    0.000000    0.000000    0.000000
  0.033827655   -0.117830  -93.118523  -98.665113   15.084870    0.000000    0.000000    0.000000    0.000000
  0.034028056   -0.114581  -93.704468  -98.532006   12.012731    0.000000    0.000000    0.000000    0.000000
  0.034228457   -0.107204  -94.266754  -97.752252   18.666790    0.000000    0.000000    0.000000    0.000000
  0.034428858   -0.096841  -94.800995  -98.218068    7.599115    0.000000    0.000000    0.000000    0.000000
  0.034629259   -0.083060  -95.284531  -98.408303   14.647354    0.000000    0.000000    0.000000    0.000000
  0.034829659   -0.076126  -95.770424  -97.771463   15.959779    0.000000    0.000000    0.000000    0.000000
  0.035030060   -0.069446  -96.227875  -97.597177   10.022842    0.000000    0.000000    0.000000    0.000000
  0.035230461   -0.065231  -96.668686 -100.240867    9.002327    0.000000    0.000000    0.000000    0.000000
  0.035430862   -0.063856  -97.110924  -99.816480    7.940754    0.000000    0.000000    0.000000    0.000000
  0.035631263   -0.072691  -97.544678 -100.155044   10.777542    0.000000    0.000000    0.000000    0.000000
  0.035831663   -0.080036  -98.040672  -99.470194    5.595647    0.000000    0.000000    0.000000    0.000000
  0.036032064   -0.086113  -98.560898  -99.637878   12.323313    0.000000    0.000000    0.000000    0.000000
  0.036232465   -0.092821  -99.098595 -100.491862   11.850756    0.000000    0.000000    0.000000    0.000000
  0.036432866   -0.096709  -99.677795 -100.057756    8.245417    0.000000    0.000000    0.000000    0.000000
  0.036633267   -0.099319 -100.210754 -100.790043   10.431502    0.000000    0.000000    0.000000    0.000000
  0.036833667   -0.099832 -100.766197  -98.376478    9.931372    0.000000    0.000000    0.000000    0.000000
  0.037034068   -0.093286 -101.294159 -100.040966    4.724441    0.000000    0.000000    0.000000    0.000000
  0.037234469   -0.079380 -101.783127  -98.171285   10.981574    0.000000    0.000000    0.000000    0.000000
  0.037434870   -0.072021 -102.241211 -100.388497    8.860274    0.000000    0.000000    0.000000    0.000000
  0.037635271   -0.068314 -102.678993  -99.891220   15.209300    0.000000    0.000000    0.000000    0.000000
  0.037835671   -0.070007 -103.115898  -98.495347   16.683922    0.000000    0.000000    0.000000    0.000000
  0.038036072   -0.078361 -103.572861  -99.184699   15.933795    0.000000    0.000000    0.000000    0.000000
  0.038236473   -0.087342 -104.071983  -98.980144   17.001266    0.000000    0.000000    0.000000    0.000000
  0.038436874   -0.093525 -104.585350  -98.189736   10.303694    0.000000    0.000000    0.000000    0.000000
  0.038637275   -0.102695 -105.113533 -100.216178   11.553761    0.000000    0.000000    0.000000    0.000000
  0.038837675   -0.111754 -105.626694 -100.098165    9.785670    0.000000    0.000000    0.000000    0.000000
  0.039038076   -0.122883 -106.196373  -99.701790    7.154860    0.000000    0.000000    0.000000    0.000000
  0.039238477   -0.129047 -106.768517 -100.270506    4.656018    0.000000    0.000000    0.000000    0.000000
  0.039438878   -0.130710 -107.328072  -98.209148    3.408239    0.000000    0.000000    0.000000    0.000000
  0.039639279   -0.125789 -107.870041 -100.575809    0.530772    0.000000    0.000000    0.000000    0.000000
  0.039839679   -0.119086 -108.393456 -101.877068    0.804116    0.000000    0.000000    0.000000    0.000000
  0.040040080   -0.112362 -108.901703  -99.744642   -5.548799    0.000000    0.000000    0.000000    0.000000
  0.040240481   -0.109016 -109.377167  -99.991401   -1.472454    0.000000    0.000000    0.000000    0.000000
  0.040440882   -0.100542 -109.853081 -101.262077   -0.176414    0.000000    0.000000    0.000000    0.000000
  0.040641283   -0.101345 -110.324959  -99.170791   -1.814421    0.000000    0.000000    0.000000    0.000000
  0.040841683   -0.102598 -110.787651 -101.085979    8.673105    0.000000    0.000000    0.000000    0.000000
  0.041042084   -0.106544 -111.251030 -102.226617    2.362949    0.000000    0.000000    0.000000    0.000000
  0.041242485   -0.114985 -111.715172 -102.231824    7.372175    0.000000    0.000000    0.000000    0.000000
  0.041442886   -0.129471 -112.203232 -101.821233    9.189980    0.000000    0.000000    0.000000    0.000000
  0.041643287   -0.137233 -112.707832 -102.526953   16.864880    0.000000    0.000000    0.000000    0.000000
  0.041843687   -0.143429 -113.266357 -100.735132    0.099340    0.000000    0.000000    0.000000    0.000000
  0.042044088   -0.144175 -113.806030 -101.456943    8.184484    0.000000    0.000000    0.000000    0.000000
  0.042244489   -0.138955 -114.332489 -101.670204   17.634918    0.000000    0.000000    0.000000    0.000000
  0.042444890   -0.126576 -114.837921 -101.946080    0.213177    0.000000    0.000000    0.000000    0.000000
  0.042645291   -0.117496 -115.297569 -102.041869   11.813115    0.000000    0.000000    0.000000    0.000000
  0.042845691   -0.110345 -115.753098 -101.411312   13.471052    0.000000    0.000000    0.000000    0.000000
  0.043046092   -0.109389 -116.184265  -99.660392   21.330446    0.000000    0.000000    0.000000    0.000000
  0.043246493   -0.112305 -116.635193 -100.109191    7.221141    0.000000    0.000000    0.000000    0.000000
  0.043446894   -0.114858 -117.099045  -99.530989    5.978831    0.000000    0.000000    0.000000    0.000000
  0.043647295   -0.120895 -117.552979  -98.302388    0.874867    0.000000    0.000000    0.000000    0.000000
  0.043847695   -0.124812 -118.010750 -101.090526   -0.548344    0.000000    0.000000    0.000000    0.000000
  0.044048096   -0.131728 -118.490944 -100.266804    6.821049    0.000000    0.000000    0.000000    0.000000
  0.044248497   -0.138244 -119.005692 -100.396741    1.178359    0.000000    0.000000    0.000000    0.000000
  0.044448898   -0.142173 -119.510704 -100.547795    3.318636    0.000000    0.000000    0.000000    0.000000
  0.044649299   -0.144441 -120.040298 -100.339596   -0.142160    0.000000    0.000000    0.000000    0.000000
  0.044849699   -0.143456 -120.560814 -102.167534   -9.643889    0.000000    0.000000    0.000000    0.000000
  0.045050100   -0.139426 -121.049011 -101.333997   -5.522241    0.000000    0.000000    0.000000    0.000000
  0.045250501   -0.138557 -121.553421 -102.910026    4.964269    0.000000    0.000000    0.000000    0.000000
  0.045450902   -0.134324 -122.034157 -102.307336  -13.888366    0.000000    0.000000    0.000000    0.000000
  0.045651303   -0.131948 -122.529030 -104.815599    7.027652    0.000000    0.000000    0.000000    0.000000
  0.045851703   -0.127547 -123.019768 -104.494811    9.003760    0.000000    0.000000    0.000000    0.000000
  0.046052104   -0.126881 -123.506134 -102.146183   -7.728884    0.000000    0.000000    0.000000    0.000000
  0.046252505   -0.126762 -123.971870 -103.475716   16.462168    0.000000    0.000000    0.000000    0.000000
  0.046452906   -0.131853 -124.395027 -104.686629   12.371555    0.000000    0.000000    0.000000    0.000000
  0.046653307   -0.140960 -124.849411 -104.012324   14.005718    0.000000    0.000000    0.000000    0.000000
  0.046853707   -0.153879 -125.325554 -103.292354   10.065656    0.000000    0.000000    0.000000    0.000000
  0.047054108   -0.162957 -125.857071 -102.295326    6.822393    0.000000    0.000000    0.000000    0.000000
  0.047254509   -0.164077 -126.385834 -102.502639   13.573175    0.000000    0.000000    0.000000    0.000000
  0.047454910   -0.159279 -126.936905 -102.510702    7.579451    0.000000    0.000000    0.000000    0.000000
  0.047655311   -0.152959 -127.417503 -103.252659   11.045017    0.000000    0.000000    0.000000    0.000000
  0.047855711   -0.144906 -127.910248 -100.222051   14.080179    0.000000    0.000000    0.000000    0.000000
  0.048056112   -0.140020 -128.363174 -100.835754   16.302460    0.000000    0.000000    0.000000    0.000000
  0.048256513   -0.142033 -128.813171 -102.220490   23.162033    0.000000    0.000000    0.000000    0.000000
  0.048456914   -0.145403 -129.276794 -100.079985    1.577596    0.000000    0.000000    0.000000    0.000000
  0.048657315   -0.145756 -129.701569 -100.784065    9.050611    0.000000    0.000000    0.000000    0.000000
  0.048857715   -0.150677 -130.175568 -100.213511    0.340871    0.000000    0.000000    0.000000    0.000000
  0.049058116   -0.153796 -130.606232 -100.281435    0.076100    0.000000    0.000000    0.000000    0.000000
  0.049258517   -0.161827 -131.088608 -101.568138    1.850776    0.000000    0.000000    0.000000    0.000000
  0.049458918   -0.167072 -131.570587 -102.625258   -7.801627    0.000000    0.000000    0.000000    0.000000
  0.049659319   -0.168465 -132.069550 -102.060101   -5.264782    0.000000    0.000000    0.000000    0.000000
  0.049859719   -0.169277 -132.570938 -103.534606   -2.697094    0.000000    0.000000    0.000000    0.000000
  0.050060120   -0.168015 -133.056824  -99.786502   -8.869090    0.000000    0.000000    0.000000    0.000000
  0.050260521   -0.168994 -133.515839 -104.096879   -5.625418    0.000000    0.000000    0.000000    0.000000
  0.050460922   -0.168819 -133.988205 -102.775506   -7.344043    0.000000    0.000000    0.000000    0.000000
  0.050661323   -0.167066 -134.484314 -102.657288  -10.122401    0.000000    0.000000    0.000000    0.000000
  0.050861723   -0.165358 -134.977997 -104.585048    1.208262    0.000000    0.000000    0.000000    0.000000
  0.051062124   -0.158774 -135.467621 -104.576573    0.380147    0.000000    0.000000    0.000000    0.000000
  0.051262525   -0.157831 -135.955109 -103.370411   -2.139847    0.000000    0.000000    0.000000    0.000000
  0.051462926   -0.154269 -136.389557 -104.511380   19.344078    0.000000    0.000000    0.000000    0.000000
  0.051663327   -0.154751 -136.831268 -107.048097    6.936051    0.000000    0.000000    0.000000    0.000000
  0.051863727   -0.160930 -137.262863 -104.842759    5.883296    0.000000    0.000000    0.000000    0.000000
  0.052064128   -0.168306 -137.730011 -104.094048   18.892036    0.000000    0.000000    0.000000    0.000000
  0.052264529   -0.178030 -138.213257 -101.717906   24.682743    0.000000    0.000000    0.000000    0.000000
  0.052464930   -0.178699 -138.706207 -104.381671    9.481730    0.000000    0.000000    0.000000    0.000000
  0.052665331   -0.175844 -139.188812 -102.259407    8.829453    0.000000    0.000000    0.000000    0.000000
  0.052865731   -0.173133 -139.671646 -103.698388    9.846496    0.000000    0.000000    0.000000    0.000000
