! Anritsu VNA Master:                     Model: MS2036C/10/77
! SN:                                  1601066
! /card0/usr/18may27.balun/5b.m5.s2p
! Existing Calibration Information:
! TYPE:                         Current Settings,       Active Cal Settings
! TIME:             	   05/27/2018 04:14:37 PM,    05/27/2018 03:52:12 PM
! INTERNAL TEMP:    	                   51.5 C,                    52.5 C
! # POINTS:         	                      500,                       500
! START FREQ:       	               20.000 MHz,                20.000 MHz
! STOP FREQ:        	              120.000 MHz,               120.000 MHz
! SOURCE POWER:     	                     High,                      High
! IFBW:             	                    50 Hz,                     50 Hz
! AVG FACTOR:       	                       1 ,                        1 
! REF PLANE 1:      	                     0 mm,                      0 mm
! REF PLANE 2:      	                     0 mm,                      0 mm
! CAL TYPE:         	                 Full S11,                  Full S11
! CAL METHOD:       	                     SOLT,                      SOLT
! CAL LINE TYPE:    	                     Coax,                      Coax
! DUT PORT 1:       	                K-Conn(M),                 K-Conn(M)
! DUT PORT 2:       	                K-Conn(M),                 K-Conn(M)
! CAL STATUS:       	        OK: Accuracy High,                        --
# GHZ S DB R 50.0
! FREQ.GHZ       S11DB        S11A       S21DB        S21A       S12DB        S12A       S22DB        S22A
  0.020000000   -0.715659 -124.988297  -90.505465   28.987009    0.000000    0.000000    0.000000    0.000000
  0.020200401   -0.716784 -126.448151  -90.825160   30.205780    0.000000    0.000000    0.000000    0.000000
  0.020400802   -0.717295 -127.887573  -91.295533   27.450209    0.000000    0.000000    0.000000    0.000000
  0.020601202   -0.722451 -129.321030  -92.090974   29.342157    0.000000    0.000000    0.000000    0.000000
  0.020801603   -0.730690 -130.791107  -92.726673   34.017136    0.000000    0.000000    0.000000    0.000000
  0.021002004   -0.737967 -132.300583  -93.027676   30.219643    0.000000    0.000000    0.000000    0.000000
  0.021202405   -0.745465 -133.825974  -92.880832   33.675083    0.000000    0.000000    0.000000    0.000000
  0.021402806   -0.754893 -135.352264  -92.536435   35.381191    0.000000    0.000000    0.000000    0.000000
  0.021603206   -0.760657 -136.886810  -92.658308   35.213596    0.000000    0.000000    0.000000    0.000000
  0.021803607   -0.767499 -138.421997  -93.326712   33.566025    0.000000    0.000000    0.000000    0.000000
  0.022004008   -0.773200 -139.992722  -93.161243   37.770275    0.000000    0.000000    0.000000    0.000000
  0.022204409   -0.778557 -141.580063  -93.009686   33.298798    0.000000    0.000000    0.000000    0.000000
  0.022404810   -0.779077 -143.182114  -92.646560   38.112484    0.000000    0.000000    0.000000    0.000000
  0.022605210   -0.784667 -144.745453  -93.050846   35.725014    0.000000    0.000000    0.000000    0.000000
  0.022805611   -0.787625 -146.308258  -92.455973   35.598934    0.000000    0.000000    0.000000    0.000000
  0.023006012   -0.788787 -147.877655  -92.961061   32.992306    0.000000    0.000000    0.000000    0.000000
  0.023206413   -0.795838 -149.454544  -92.256748   31.872747    0.000000    0.000000    0.000000    0.000000
  0.023406814   -0.803666 -151.051361  -92.766860   33.879753    0.000000    0.000000    0.000000    0.000000
  0.023607214   -0.810467 -152.657837  -92.914854   28.211191    0.000000    0.000000    0.000000    0.000000
  0.023807615   -0.820794 -154.246323  -92.994272   28.077105    0.000000    0.000000    0.000000    0.000000
  0.024008016   -0.828765 -155.853699  -93.269993   25.277916    0.000000    0.000000    0.000000    0.000000
  0.024208417   -0.840408 -157.451660  -93.048933   26.890907    0.000000    0.000000    0.000000    0.000000
  0.024408818   -0.852831 -159.074829  -93.231730   20.906925    0.000000    0.000000    0.000000    0.000000
  0.024609218   -0.865706 -160.718979  -93.470910   25.246122    0.000000    0.000000    0.000000    0.000000
  0.024809619   -0.875446 -162.392670  -93.841239   16.423990    0.000000    0.000000    0.000000    0.000000
  0.025010020   -0.883667 -164.067780  -94.256920   17.302526    0.000000    0.000000    0.000000    0.000000
  0.025210421   -0.893452 -165.728973  -94.100707   21.357454    0.000000    0.000000    0.000000    0.000000
  0.025410822   -0.908507 -167.416626  -95.444921   21.851223    0.000000    0.000000    0.000000    0.000000
  0.025611222   -0.919883 -169.096512  -94.388163   18.179125    0.000000    0.000000    0.000000    0.000000
  0.025811623   -0.933074 -170.813919  -95.183061   21.715069    0.000000    0.000000    0.000000    0.000000
  0.026012024   -0.947514 -172.530518  -95.001271   25.962709    0.000000    0.000000    0.000000    0.000000
  0.026212425   -0.965014 -174.268097  -94.987533   20.606066    0.000000    0.000000    0.000000    0.000000
  0.026412826   -0.982811 -176.014679  -95.281580   21.354731    0.000000    0.000000    0.000000    0.000000
  0.026613226   -1.002630 -177.772751  -95.460783   26.157450    0.000000    0.000000    0.000000    0.000000
  0.026813627   -1.020267 -179.523483  -96.309902   22.417492    0.000000    0.000000    0.000000    0.000000
  0.027014028   -1.036555  178.733154  -94.857783   23.686119    0.000000    0.000000    0.000000    0.000000
  0.027214429   -1.050664  176.981232  -95.619639   24.046244    0.000000    0.000000    0.000000    0.000000
  0.027414830   -1.067862  175.226059  -95.021535   27.523573    0.000000    0.000000    0.000000    0.000000
  0.027615230   -1.085615  173.467789  -95.848931   21.462534    0.000000    0.000000    0.000000    0.000000
  0.027815631   -1.107957  171.703461  -95.840231   21.607016    0.000000    0.000000    0.000000    0.000000
  0.028016032   -1.127498  169.919434  -95.822756   19.682278    0.000000    0.000000    0.000000    0.000000
  0.028216433   -1.149657  168.122681  -95.578622   17.423851    0.000000    0.000000    0.000000    0.000000
  0.028416834   -1.171778  166.335815  -96.775485   17.546816    0.000000    0.000000    0.000000    0.000000
  0.028617234   -1.195458  164.552979  -95.689378   17.312599    0.000000    0.000000    0.000000    0.000000
  0.028817635   -1.223483  162.741821  -95.991524   17.392225    0.000000    0.000000    0.000000    0.000000
  0.029018036   -1.250937  160.905914  -96.166313   12.380154    0.000000    0.000000    0.000000    0.000000
  0.029218437   -1.277395  159.049591  -96.015220   15.541615    0.000000    0.000000    0.000000    0.000000
  0.029418838   -1.302047  157.197540  -97.459922   12.540011    0.000000    0.000000    0.000000    0.000000
  0.029619238   -1.326264  155.345367  -96.915555   17.570946    0.000000    0.000000    0.000000    0.000000
  0.029819639   -1.355205  153.498627  -96.822307   16.711578    0.000000    0.000000    0.000000    0.000000
  0.030020040   -1.384166  151.649979  -97.774651   16.529510    0.000000    0.000000    0.000000    0.000000
  0.030220441   -1.418059  149.765900  -97.307233   20.059065    0.000000    0.000000    0.000000    0.000000
  0.030420842   -1.456669  147.863937  -97.790409   15.566027    0.000000    0.000000    0.000000    0.000000
  0.030621242   -1.498437  145.899002  -97.377010   20.175137    0.000000    0.000000    0.000000    0.000000
  0.030821643   -1.536713  143.904495  -96.645119   20.983953    0.000000    0.000000    0.000000    0.000000
  0.031022044   -1.570389  141.891068  -98.389467   17.665644    0.000000    0.000000    0.000000    0.000000
  0.031222445   -1.595990  139.873001  -97.257380   19.676960    0.000000    0.000000    0.000000    0.000000
  0.031422846   -1.625224  137.847885  -97.165996   15.550651    0.000000    0.000000    0.000000    0.000000
  0.031623246   -1.648287  135.855713  -97.194911    3.829071    0.000000    0.000000    0.000000    0.000000
  0.031823647   -1.672983  133.866486  -96.967051   18.631199    0.000000    0.000000    0.000000    0.000000
  0.032024048   -1.698567  131.916656  -96.515810   21.188250    0.000000    0.000000    0.000000    0.000000
  0.032224449   -1.722080  129.984818  -98.245205    8.107539    0.000000    0.000000    0.000000    0.000000
  0.032424850   -1.751854  128.081161  -97.262190   12.808950    0.000000    0.000000    0.000000    0.000000
  0.032625251   -1.786510  126.152351  -98.713667   12.104578    0.000000    0.000000    0.000000    0.000000
  0.032825651   -1.826628  124.237030  -97.630113   14.844409    0.000000    0.000000    0.000000    0.000000
  0.033026052   -1.869984  122.295097  -97.611644    7.512663    0.000000    0.000000    0.000000    0.000000
  0.033226453   -1.915960  120.365814  -98.293472    5.757763    0.000000    0.000000    0.000000    0.000000
  0.033426854   -1.962145  118.399033  -97.320644    9.577139    0.000000    0.000000    0.000000    0.000000
  0.033627255   -2.008240  116.407059  -98.770701    2.243619    0.000000    0.000000    0.000000    0.000000
  0.033827655   -2.055494  114.385910  -99.207454    2.159026    0.000000    0.000000    0.000000    0.000000
  0.034028056   -2.103688  112.350975  -99.540580   21.724794    0.000000    0.000000    0.000000    0.000000
  0.034228457   -2.152828  110.277588  -98.303954   13.161577    0.000000    0.000000    0.000000    0.000000
  0.034428858   -2.201669  108.226311  -99.823464    0.887078    0.000000    0.000000    0.000000    0.000000
  0.034629259   -2.245432  106.162277  -99.093879    3.972535    0.000000    0.000000    0.000000    0.000000
  0.034829659   -2.287063  104.108810  -98.834307   10.209417    0.000000    0.000000    0.000000    0.000000
  0.035030060   -2.332250  102.079071  -97.830389   12.722893    0.000000    0.000000    0.000000    0.000000
  0.035230461   -2.380827  100.067451  -98.159727   14.872488    0.000000    0.000000    0.000000    0.000000
  0.035430862   -2.436804   98.047783  -98.561367   14.177476    0.000000    0.000000    0.000000    0.000000
  0.035631263   -2.496955   95.981476  -97.794433    8.031976    0.000000    0.000000    0.000000    0.000000
  0.035831663   -2.562361   93.876671  -99.866957   13.094109    0.000000    0.000000    0.000000    0.000000
  0.036032064   -2.623334   91.748833  -99.216507   15.920305    0.000000    0.000000    0.000000    0.000000
  0.036232465   -2.682505   89.536339  -98.446236   13.297232    0.000000    0.000000    0.000000    0.000000
  0.036432866   -2.737301   87.367188  -98.075004    2.374052    0.000000    0.000000    0.000000    0.000000
  0.036633267   -2.781871   85.152611  -97.916978   12.534944    0.000000    0.000000    0.000000    0.000000
  0.036833667   -2.824652   83.007004  -99.146679   11.390702    0.000000    0.000000    0.000000    0.000000
  0.037034068   -2.862613   80.886314  -99.292881   13.926002    0.000000    0.000000    0.000000    0.000000
  0.037234469   -2.899148   78.805161  -99.590194   12.777817    0.000000    0.000000    0.000000    0.000000
  0.037434870   -2.931665   76.782089  -99.844117    3.358670    0.000000    0.000000    0.000000    0.000000
  0.037635271   -2.963494   74.735054 -100.086484    6.089450    0.000000    0.000000    0.000000    0.000000
  0.037835671   -2.997608   72.673073 -100.006970   -1.924947    0.000000    0.000000    0.000000    0.000000
  0.038036072   -3.045570   70.557091 -100.989521    1.552986    0.000000    0.000000    0.000000    0.000000
  0.038236473   -3.110384   68.462158 -101.723931    7.974020    0.000000    0.000000    0.000000    0.000000
  0.038436874   -3.183185   66.437485  -99.632718    6.003687    0.000000    0.000000    0.000000    0.000000
  0.038637275   -3.255847   64.431465 -100.805883   12.444010    0.000000    0.000000    0.000000    0.000000
  0.038837675   -3.332586   62.367271 -100.038540    7.628749    0.000000    0.000000    0.000000    0.000000
  0.039038076   -3.399173   60.291126 -100.582484    2.188626    0.000000    0.000000    0.000000    0.000000
  0.039238477   -3.465748   58.174400 -101.567989   12.728757    0.000000    0.000000    0.000000    0.000000
  0.039438878   -3.521906   56.079453  -99.874974   15.457756    0.000000    0.000000    0.000000    0.000000
  0.039639279   -3.576874   53.996281  -99.066726    3.841785    0.000000    0.000000    0.000000    0.000000
  0.039839679   -3.628769   51.915428 -100.419918   19.055336    0.000000    0.000000    0.000000    0.000000
  0.040040080   -3.682079   49.879704 -101.152723    0.688102    0.000000    0.000000    0.000000    0.000000
  0.040240481   -3.737996   47.836060 -100.727279   23.008053    0.000000    0.000000    0.000000    0.000000
  0.040440882   -3.799199   45.750240 -100.185176   -0.452689    0.000000    0.000000    0.000000    0.000000
  0.040641283   -3.862896   43.638241 -100.966114    5.306600    0.000000    0.000000    0.000000    0.000000
  0.040841683   -3.926361   41.527103 -100.905163    5.500102    0.000000    0.000000    0.000000    0.000000
  0.041042084   -3.984275   39.380348 -101.163958    9.967597    0.000000    0.000000    0.000000    0.000000
  0.041242485   -4.040697   37.254761 -100.228314   16.163607    0.000000    0.000000    0.000000    0.000000
  0.041442886   -4.089972   35.122646 -100.267606    5.165817    0.000000    0.000000    0.000000    0.000000
  0.041643287   -4.141222   32.983276  -99.986777   14.106244    0.000000    0.000000    0.000000    0.000000
  0.041843687   -4.185203   30.878069 -101.122081   -5.474836    0.000000    0.000000    0.000000    0.000000
  0.042044088   -4.227415   28.808636 -100.960033  -20.926622    0.000000    0.000000    0.000000    0.000000
  0.042244489   -4.265251   26.767994 -100.581229    4.240442    0.000000    0.000000    0.000000    0.000000
  0.042444890   -4.304635   24.772121 -101.776048   -5.222880    0.000000    0.000000    0.000000    0.000000
  0.042645291   -4.342121   22.790329 -101.945599    7.868593    0.000000    0.000000    0.000000    0.000000
  0.042845691   -4.388234   20.836252 -102.210908   13.332174    0.000000    0.000000    0.000000    0.000000
  0.043046092   -4.426294   18.899336 -101.045359   -3.260109    0.000000    0.000000    0.000000    0.000000
  0.043246493   -4.468307   16.983227 -101.327340    5.044080    0.000000    0.000000    0.000000    0.000000
  0.043446894   -4.516329   15.071632 -103.483534    9.839655    0.000000    0.000000    0.000000    0.000000
  0.043647295   -4.563479   13.165714 -100.801749   12.239303    0.000000    0.000000    0.000000    0.000000
  0.043847695   -4.612017   11.261337 -101.727479   21.371576    0.000000    0.000000    0.000000    0.000000
  0.044048096   -4.663434    9.366088 -101.744610   17.089743    0.000000    0.000000    0.000000    0.000000
  0.044248497   -4.706516    7.442762 -101.466316    7.436935    0.000000    0.000000    0.000000    0.000000
  0.044448898   -4.751292    5.495650 -102.213399   -3.927818    0.000000    0.000000    0.000000    0.000000
  0.044649299   -4.794652    3.592310 -101.639295   10.001173    0.000000    0.000000    0.000000    0.000000
  0.044849699   -4.843074    1.691011 -100.570679    7.993383    0.000000    0.000000    0.000000    0.000000
  0.045050100   -4.890713   -0.226302 -101.575901    4.318176    0.000000    0.000000    0.000000    0.000000
  0.045250501   -4.938291   -2.141872  -99.731296   10.450501    0.000000    0.000000    0.000000    0.000000
  0.045450902   -4.980246   -4.068955 -101.555543   -8.953429    0.000000    0.000000    0.000000    0.000000
  0.045651303   -5.018842   -6.000883 -101.363275    5.717637    0.000000    0.000000    0.000000    0.000000
  0.045851703   -5.054550   -7.935903 -103.000135    4.935368    0.000000    0.000000    0.000000    0.000000
  0.046052104   -5.090519   -9.886590 -101.007748   -4.910505    0.000000    0.000000    0.000000    0.000000
  0.046252505   -5.121618  -11.792860 -101.856691   -5.088500    0.000000    0.000000    0.000000    0.000000
  0.046452906   -5.152907  -13.691482 -102.132515   -3.133524    0.000000    0.000000    0.000000    0.000000
  0.046653307   -5.183487  -15.552505 -104.484927    7.942297    0.000000    0.000000    0.000000    0.000000
  0.046853707   -5.210264  -17.410385 -102.356557    5.833608    0.000000    0.000000    0.000000    0.000000
  0.047054108   -5.240771  -19.249662 -103.986970   -3.226348    0.000000    0.000000    0.000000    0.000000
  0.047254509   -5.267298  -21.070824 -102.177818   -4.125111    0.000000    0.000000    0.000000    0.000000
  0.047454910   -5.293361  -22.883715 -100.806026   -4.658944    0.000000    0.000000    0.000000    0.000000
  0.047655311   -5.316735  -24.666449 -104.555797  -13.290703    0.000000    0.000000    0.000000    0.000000
  0.047855711   -5.345553  -26.444664 -103.003023    1.616131    0.000000    0.000000    0.000000    0.000000
  0.048056112   -5.369624  -28.183132 -103.267737   -1.563771    0.000000    0.000000    0.000000    0.000000
  0.048256513   -5.396535  -29.923923 -105.297193   -9.435390    0.000000    0.000000    0.000000    0.000000
  0.048456914   -5.423217  -31.684319 -103.606041    8.170114    0.000000    0.000000    0.000000    0.000000
  0.048657315   -5.448493  -33.394501 -102.021510    8.932433    0.000000    0.000000    0.000000    0.000000
  0.048857715   -5.476639  -35.137180 -101.760998    9.228709    0.000000    0.000000    0.000000    0.000000
  0.049058116   -5.499364  -36.835106 -101.235071   15.300773    0.000000    0.000000    0.000000    0.000000
  0.049258517   -5.527103  -38.487316 -101.355002   -0.524921    0.000000    0.000000    0.000000    0.000000
  0.049458918   -5.555360  -40.160988 -101.996434    6.384519    0.000000    0.000000    0.000000    0.000000
  0.049659319   -5.585193  -41.844601 -102.037672    5.045521    0.000000    0.000000    0.000000    0.000000
  0.049859719   -5.615435  -43.547173 -101.680841    1.212137    0.000000    0.000000    0.000000    0.000000
  0.050060120   -5.649005  -45.270485 -101.341323    9.288787    0.000000    0.000000    0.000000    0.000000
  0.050260521   -5.678318  -46.986004 -101.773263  -10.342502    0.000000    0.000000    0.000000    0.000000
  0.050460922   -5.703164  -48.719437 -101.190979    5.129443    0.000000    0.000000    0.000000    0.000000
  0.050661323   -5.725671  -50.449963 -102.868600   10.614304    0.000000    0.000000    0.000000    0.000000
  0.050861723   -5.742404  -52.194191 -102.354139   11.101302    0.000000    0.000000    0.000000    0.000000
  0.051062124   -5.750845  -53.919518 -102.020128  -12.003780    0.000000    0.000000    0.000000    0.000000
  0.051262525   -5.764552  -55.598740 -102.300786  -14.778029    0.000000    0.000000    0.000000    0.000000
  0.051462926   -5.770574  -57.256546 -103.132041   -6.712871    0.000000    0.000000    0.000000    0.000000
  0.051663327   -5.781414  -58.873886 -102.397745   -6.576969    0.000000    0.000000    0.000000    0.000000
  0.051863727   -5.792346  -60.466614 -102.244974    6.535423    0.000000    0.000000    0.000000    0.000000
  0.052064128   -5.804355  -62.051533 -103.635800   17.035557    0.000000    0.000000    0.000000    0.000000
  0.052264529   -5.821162  -63.609039 -104.882400   -5.457364    0.000000    0.000000    0.000000    0.000000
  0.052464930   -5.829228  -65.160744 -107.694316   -7.518481    0.000000    0.000000    0.000000    0.000000
  0.052665331   -5.836094  -66.720612 -106.730693    4.306790    0.000000    0.000000    0.000000    0.000000
  0.052865731   -5.851435  -68.231186 -103.358760   19.637745    0.000000    0.000000    0.000000    0.000000
