! Anritsu VNA Master:                     Model: MS2036C/10/77
! SN:                                  1601066
! /card0/usr/18may27.balun/5b.r200.s2p
! Existing Calibration Information:
! TYPE:                         Current Settings,       Active Cal Settings
! TIME:             	   05/27/2018 03:37:41 PM,    05/27/2018 03:21:57 PM
! INTERNAL TEMP:    	                   53.5 C,                    52.3 C
! # POINTS:         	                      500,                       500
! START FREQ:       	               20.000 MHz,                20.000 MHz
! STOP FREQ:        	              120.000 MHz,               120.000 MHz
! SOURCE POWER:     	                     High,                      High
! IFBW:             	                    50 Hz,                     50 Hz
! AVG FACTOR:       	                       1 ,                        1 
! REF PLANE 1:      	                     0 mm,                      0 mm
! REF PLANE 2:      	                     0 mm,                      0 mm
! CAL TYPE:         	                 Full S11,                  Full S11
! CAL METHOD:       	                     SOLT,                      SOLT
! CAL LINE TYPE:    	                     Coax,                      Coax
! DUT PORT 1:       	                K-Conn(M),                 K-Conn(M)
! DUT PORT 2:       	                K-Conn(M),                 K-Conn(M)
! CAL STATUS:       	        OK: Accuracy High,                        --
# GHZ S DB R 50.0
! FREQ.GHZ       S11DB        S11A       S21DB        S21A       S12DB        S12A       S22DB        S22A
  0.020000000   -4.559077  -21.767635  -90.777725   41.095814    0.000000    0.000000    0.000000    0.000000
  0.020200401   -4.553166  -21.923689  -90.809682   35.928921    0.000000    0.000000    0.000000    0.000000
  0.020400802   -4.548070  -22.067358  -90.640986   32.953796    0.000000    0.000000    0.000000    0.000000
  0.020601202   -4.547096  -22.213533  -91.076796   36.835690    0.000000    0.000000    0.000000    0.000000
  0.020801603   -4.544869  -22.358002  -90.699614   32.197292    0.000000    0.000000    0.000000    0.000000
  0.021002004   -4.545506  -22.519793  -91.615414   31.318090    0.000000    0.000000    0.000000    0.000000
  0.021202405   -4.555070  -22.706524  -91.579801   32.230038    0.000000    0.000000    0.000000    0.000000
  0.021402806   -4.560284  -22.879362  -91.805982   29.601234    0.000000    0.000000    0.000000    0.000000
  0.021603206   -4.566503  -23.069561  -92.668278   29.769386    0.000000    0.000000    0.000000    0.000000
  0.021803607   -4.574455  -23.275023  -92.294700   29.634043    0.000000    0.000000    0.000000    0.000000
  0.022004008   -4.583676  -23.473892  -92.728293   31.532654    0.000000    0.000000    0.000000    0.000000
  0.022204409   -4.590036  -23.715704  -93.387616   26.748760    0.000000    0.000000    0.000000    0.000000
  0.022404810   -4.598570  -23.954033  -92.706791   26.887506    0.000000    0.000000    0.000000    0.000000
  0.022605210   -4.606482  -24.238811  -92.995422   29.123325    0.000000    0.000000    0.000000    0.000000
  0.022805611   -4.611908  -24.544558  -93.354575   23.498009    0.000000    0.000000    0.000000    0.000000
  0.023006012   -4.612407  -24.851303  -93.277294   29.252840    0.000000    0.000000    0.000000    0.000000
  0.023206413   -4.613286  -25.162285  -94.204271   33.086998    0.000000    0.000000    0.000000    0.000000
  0.023406814   -4.610164  -25.471483  -93.283244   32.567379    0.000000    0.000000    0.000000    0.000000
  0.023607214   -4.608645  -25.779539  -93.612848   27.598516    0.000000    0.000000    0.000000    0.000000
  0.023807615   -4.600970  -26.084023  -93.900115   26.339962    0.000000    0.000000    0.000000    0.000000
  0.024008016   -4.597298  -26.350809  -94.171019   32.815784    0.000000    0.000000    0.000000    0.000000
  0.024208417   -4.591508  -26.604351  -93.797704   29.653362    0.000000    0.000000    0.000000    0.000000
  0.024408818   -4.588811  -26.816376  -93.652171   29.778454    0.000000    0.000000    0.000000    0.000000
  0.024609218   -4.584226  -27.026781  -94.454194   28.614300    0.000000    0.000000    0.000000    0.000000
  0.024809619   -4.582013  -27.230335  -93.673294   27.613354    0.000000    0.000000    0.000000    0.000000
  0.025010020   -4.574378  -27.405872  -93.494393   23.282867    0.000000    0.000000    0.000000    0.000000
  0.025210421   -4.570333  -27.582569  -93.692092   24.211546    0.000000    0.000000    0.000000    0.000000
  0.025410822   -4.567356  -27.753448  -94.128331   27.010820    0.000000    0.000000    0.000000    0.000000
  0.025611222   -4.562875  -27.919216  -94.317692   21.984377    0.000000    0.000000    0.000000    0.000000
  0.025811623   -4.561301  -28.077839  -94.038954   19.282000    0.000000    0.000000    0.000000    0.000000
  0.026012024   -4.561318  -28.231388  -94.705163   18.679790    0.000000    0.000000    0.000000    0.000000
  0.026212425   -4.565495  -28.392717  -95.149336   27.398708    0.000000    0.000000    0.000000    0.000000
  0.026412826   -4.568738  -28.576262  -94.996035   17.225838    0.000000    0.000000    0.000000    0.000000
  0.026613226   -4.571123  -28.749628  -94.801707   21.318739    0.000000    0.000000    0.000000    0.000000
  0.026813627   -4.575556  -28.912550  -94.862634   17.458805    0.000000    0.000000    0.000000    0.000000
  0.027014028   -4.581362  -29.068930  -94.746281   21.620516    0.000000    0.000000    0.000000    0.000000
  0.027214429   -4.590386  -29.246758  -95.749990   18.277485    0.000000    0.000000    0.000000    0.000000
  0.027414830   -4.600816  -29.426651  -96.616624   22.594639    0.000000    0.000000    0.000000    0.000000
  0.027615230   -4.612756  -29.650702  -96.675330   14.292518    0.000000    0.000000    0.000000    0.000000
  0.027815631   -4.625618  -29.924332  -96.115945   22.622665    0.000000    0.000000    0.000000    0.000000
  0.028016032   -4.637597  -30.234293  -95.715845   23.711212    0.000000    0.000000    0.000000    0.000000
  0.028216433   -4.644152  -30.571486  -97.409553   19.394073    0.000000    0.000000    0.000000    0.000000
  0.028416834   -4.642680  -30.921396  -96.054079   20.051920    0.000000    0.000000    0.000000    0.000000
  0.028617234   -4.640349  -31.280008  -97.017358   22.097151    0.000000    0.000000    0.000000    0.000000
  0.028817635   -4.636892  -31.636599  -97.277713   20.799376    0.000000    0.000000    0.000000    0.000000
  0.029018036   -4.630763  -31.965759  -96.598687   17.108580    0.000000    0.000000    0.000000    0.000000
  0.029218437   -4.621923  -32.267017  -95.793963   23.155985    0.000000    0.000000    0.000000    0.000000
  0.029418838   -4.612731  -32.528881  -97.108681   20.571754    0.000000    0.000000    0.000000    0.000000
  0.029619238   -4.600523  -32.751019  -97.265781   19.060499    0.000000    0.000000    0.000000    0.000000
  0.029819639   -4.589328  -32.933563  -96.714357   13.257255    0.000000    0.000000    0.000000    0.000000
  0.030020040   -4.576063  -33.113083  -96.084243   20.160305    0.000000    0.000000    0.000000    0.000000
  0.030220441   -4.570001  -33.291985  -97.400375   13.343425    0.000000    0.000000    0.000000    0.000000
  0.030420842   -4.564970  -33.469559  -96.666266   16.418688    0.000000    0.000000    0.000000    0.000000
  0.030621242   -4.561955  -33.635418  -96.309561   19.695324    0.000000    0.000000    0.000000    0.000000
  0.030821643   -4.560558  -33.785892  -97.154107   11.297059    0.000000    0.000000    0.000000    0.000000
  0.031022044   -4.557736  -33.936687  -98.802753    7.956678    0.000000    0.000000    0.000000    0.000000
  0.031222445   -4.552547  -34.039928  -96.201017   10.078125    0.000000    0.000000    0.000000    0.000000
  0.031422846   -4.556519  -34.163689  -97.041944   13.358245    0.000000    0.000000    0.000000    0.000000
  0.031623246   -4.563651  -34.338097  -95.744889    9.033310    0.000000    0.000000    0.000000    0.000000
  0.031823647   -4.569249  -34.486748  -97.556865   11.121470    0.000000    0.000000    0.000000    0.000000
  0.032024048   -4.575403  -34.624119  -98.585052   21.258043    0.000000    0.000000    0.000000    0.000000
  0.032224449   -4.579011  -34.796322  -97.672612    8.293786    0.000000    0.000000    0.000000    0.000000
  0.032424850   -4.583569  -34.976250  -97.600606    4.255906    0.000000    0.000000    0.000000    0.000000
  0.032625251   -4.587318  -35.160477  -96.495871   14.581670    0.000000    0.000000    0.000000    0.000000
  0.032825651   -4.596198  -35.350933  -98.578175   13.898325    0.000000    0.000000    0.000000    0.000000
  0.033026052   -4.610206  -35.540375  -97.482057   12.583691    0.000000    0.000000    0.000000    0.000000
  0.033226453   -4.621848  -35.752113  -97.550309    5.596555    0.000000    0.000000    0.000000    0.000000
  0.033426854   -4.632942  -36.035084  -98.061397   14.450603    0.000000    0.000000    0.000000    0.000000
  0.033627255   -4.645674  -36.362053  -98.881346   12.396911    0.000000    0.000000    0.000000    0.000000
  0.033827655   -4.654312  -36.706818  -96.830366   21.219229    0.000000    0.000000    0.000000    0.000000
  0.034028056   -4.660129  -37.092896  -98.523735   10.977788    0.000000    0.000000    0.000000    0.000000
  0.034228457   -4.661844  -37.434059  -99.288715    9.088577    0.000000    0.000000    0.000000    0.000000
  0.034428858   -4.656533  -37.792683  -98.115216   14.891771    0.000000    0.000000    0.000000    0.000000
  0.034629259   -4.646187  -38.120796  -98.599509    8.342811    0.000000    0.000000    0.000000    0.000000
  0.034829659   -4.635463  -38.449932  -98.858532   16.037083    0.000000    0.000000    0.000000    0.000000
  0.035030060   -4.622376  -38.737144  -99.310956   15.527369    0.000000    0.000000    0.000000    0.000000
  0.035230461   -4.604725  -39.005665  -98.111950    5.759402    0.000000    0.000000    0.000000    0.000000
  0.035430862   -4.592693  -39.181103  -98.866091   12.388198    0.000000    0.000000    0.000000    0.000000
  0.035631263   -4.584406  -39.390491  -99.207610    7.926931    0.000000    0.000000    0.000000    0.000000
  0.035831663   -4.578043  -39.541065  -99.522563   11.273664    0.000000    0.000000    0.000000    0.000000
  0.036032064   -4.573823  -39.713284  -99.395774    6.822290    0.000000    0.000000    0.000000    0.000000
  0.036232465   -4.570170  -39.862854  -99.212132   13.498736    0.000000    0.000000    0.000000    0.000000
  0.036432866   -4.570517  -40.020977  -99.800745    2.792687    0.000000    0.000000    0.000000    0.000000
  0.036633267   -4.572113  -40.175762  -98.973315    7.899803    0.000000    0.000000    0.000000    0.000000
  0.036833667   -4.574451  -40.309799  -99.934556   11.697098    0.000000    0.000000    0.000000    0.000000
  0.037034068   -4.579375  -40.458839  -99.807174    3.519293    0.000000    0.000000    0.000000    0.000000
  0.037234469   -4.582741  -40.589458 -100.452053    9.742209    0.000000    0.000000    0.000000    0.000000
  0.037434870   -4.588751  -40.724148 -102.353044    3.797462    0.000000    0.000000    0.000000    0.000000
  0.037635271   -4.592166  -40.875206 -100.310291    5.787297    0.000000    0.000000    0.000000    0.000000
  0.037835671   -4.596011  -41.074966 -100.688009    5.087714    0.000000    0.000000    0.000000    0.000000
  0.038036072   -4.600921  -41.269360 -100.844539   15.688962    0.000000    0.000000    0.000000    0.000000
  0.038236473   -4.603679  -41.463570  -99.694008    8.629474    0.000000    0.000000    0.000000    0.000000
  0.038436874   -4.609173  -41.627483  -99.324310    7.487947    0.000000    0.000000    0.000000    0.000000
  0.038637275   -4.623689  -41.804131  -98.552086   10.431623    0.000000    0.000000    0.000000    0.000000
  0.038837675   -4.637497  -42.042351 -100.400863   13.554095    0.000000    0.000000    0.000000    0.000000
  0.039038076   -4.654267  -42.327560  -99.368154    3.516682    0.000000    0.000000    0.000000    0.000000
  0.039238477   -4.667386  -42.670124 -100.093320   10.992453    0.000000    0.000000    0.000000    0.000000
  0.039438878   -4.675202  -42.986115  -99.281039   -4.464200    0.000000    0.000000    0.000000    0.000000
  0.039639279   -4.680718  -43.322235  -98.412813   12.956164    0.000000    0.000000    0.000000    0.000000
  0.039839679   -4.680139  -43.677525  -99.957936    9.181958    0.000000    0.000000    0.000000    0.000000
  0.040040080   -4.674715  -44.026653  -99.091174   12.361899    0.000000    0.000000    0.000000    0.000000
  0.040240481   -4.666739  -44.340763  -98.761048    6.402915    0.000000    0.000000    0.000000    0.000000
  0.040440882   -4.652112  -44.649483  -99.091238    7.689580    0.000000    0.000000    0.000000    0.000000
  0.040641283   -4.637050  -44.903332  -99.739920   13.105051    0.000000    0.000000    0.000000    0.000000
  0.040841683   -4.624538  -45.137512 -101.628567    3.791728    0.000000    0.000000    0.000000    0.000000
  0.041042084   -4.614464  -45.308956 -100.550496   -2.698107    0.000000    0.000000    0.000000    0.000000
  0.041242485   -4.607313  -45.485199 -100.988725   19.516409    0.000000    0.000000    0.000000    0.000000
  0.041442886   -4.604979  -45.643482 -102.639318   10.272992    0.000000    0.000000    0.000000    0.000000
  0.041643287   -4.602756  -45.840176 -101.054416    4.529193    0.000000    0.000000    0.000000    0.000000
  0.041843687   -4.600081  -46.004105 -101.256900    2.320722    0.000000    0.000000    0.000000    0.000000
  0.042044088   -4.599105  -46.159428 -101.102496   18.680666    0.000000    0.000000    0.000000    0.000000
  0.042244489   -4.599774  -46.311878 -101.991207    3.809385    0.000000    0.000000    0.000000    0.000000
  0.042444890   -4.597523  -46.470200 -102.049026  -10.379984    0.000000    0.000000    0.000000    0.000000
  0.042645291   -4.601786  -46.579762 -101.997414    8.855158    0.000000    0.000000    0.000000    0.000000
  0.042845691   -4.603845  -46.749882 -101.058135   12.379632    0.000000    0.000000    0.000000    0.000000
  0.043046092   -4.605707  -46.920952 -100.268835   15.469286    0.000000    0.000000    0.000000    0.000000
  0.043246493   -4.607605  -47.124371 -101.837916   11.001888    0.000000    0.000000    0.000000    0.000000
  0.043446894   -4.603923  -47.288036 -101.218191   10.553612    0.000000    0.000000    0.000000    0.000000
  0.043647295   -4.610342  -47.452232 -100.668269   18.210236    0.000000    0.000000    0.000000    0.000000
  0.043847695   -4.614369  -47.594505 -100.314599    9.263499    0.000000    0.000000    0.000000    0.000000
  0.044048096   -4.626702  -47.749161 -101.009980   18.127989    0.000000    0.000000    0.000000    0.000000
  0.044248497   -4.640763  -47.965202 -100.172308   22.493505    0.000000    0.000000    0.000000    0.000000
  0.044448898   -4.653463  -48.206436 -101.486072    7.706364    0.000000    0.000000    0.000000    0.000000
  0.044649299   -4.669614  -48.474194 -103.044407    4.282617    0.000000    0.000000    0.000000    0.000000
  0.044849699   -4.678100  -48.751602 -101.394711    4.258711    0.000000    0.000000    0.000000    0.000000
  0.045050100   -4.681618  -49.070778 -101.130014   -2.292418    0.000000    0.000000    0.000000    0.000000
  0.045250501   -4.684448  -49.383648 -101.538655    2.108232    0.000000    0.000000    0.000000    0.000000
  0.045450902   -4.682357  -49.725616 -102.326473   11.048002    0.000000    0.000000    0.000000    0.000000
  0.045651303   -4.675619  -50.042721 -100.947415  -11.057721    0.000000    0.000000    0.000000    0.000000
  0.045851703   -4.669693  -50.327591 -101.400376   -0.042864    0.000000    0.000000    0.000000    0.000000
  0.046052104   -4.658329  -50.608814 -101.685762   -0.609501    0.000000    0.000000    0.000000    0.000000
  0.046252505   -4.654223  -50.841476 -101.417900    0.718771    0.000000    0.000000    0.000000    0.000000
  0.046452906   -4.649216  -51.061481 -102.980374   14.412821    0.000000    0.000000    0.000000    0.000000
  0.046653307   -4.648735  -51.268047 -102.118589   -2.369353    0.000000    0.000000    0.000000    0.000000
  0.046853707   -4.649390  -51.492790 -101.782565    2.598985    0.000000    0.000000    0.000000    0.000000
  0.047054108   -4.649903  -51.716862 -104.581105   17.474522    0.000000    0.000000    0.000000    0.000000
  0.047254509   -4.646046  -51.909401 -103.347902    4.348888    0.000000    0.000000    0.000000    0.000000
  0.047454910   -4.643609  -52.077862 -101.943999   -1.741238    0.000000    0.000000    0.000000    0.000000
  0.047655311   -4.647668  -52.268959 -102.446778   15.742054    0.000000    0.000000    0.000000    0.000000
  0.047855711   -4.649618  -52.468338 -104.265953    7.155441    0.000000    0.000000    0.000000    0.000000
  0.048056112   -4.646320  -52.646557 -103.641453   -1.980619    0.000000    0.000000    0.000000    0.000000
  0.048256513   -4.646596  -52.861332 -104.076161   13.350800    0.000000    0.000000    0.000000    0.000000
  0.048456914   -4.646004  -53.087650 -102.646790    7.067693    0.000000    0.000000    0.000000    0.000000
  0.048657315   -4.644193  -53.276680 -102.828380   14.263950    0.000000    0.000000    0.000000    0.000000
  0.048857715   -4.645357  -53.467186 -103.105472    6.223783    0.000000    0.000000    0.000000    0.000000
  0.049058116   -4.645668  -53.649273 -101.171060    4.124644    0.000000    0.000000    0.000000    0.000000
  0.049258517   -4.651410  -53.810558 -101.483836    0.810482    0.000000    0.000000    0.000000    0.000000
  0.049458918   -4.657885  -53.996937 -100.245829    4.555970    0.000000    0.000000    0.000000    0.000000
  0.049659319   -4.665613  -54.202232 -102.737798    9.825096    0.000000    0.000000    0.000000    0.000000
  0.049859719   -4.673256  -54.440613 -101.637768   12.979174    0.000000    0.000000    0.000000    0.000000
  0.050060120   -4.682923  -54.676498 -101.198823   -2.689651    0.000000    0.000000    0.000000    0.000000
  0.050260521   -4.691052  -54.949547 -103.700577    0.108365    0.000000    0.000000    0.000000    0.000000
  0.050460922   -4.695069  -55.220345 -101.873664   -9.724686    0.000000    0.000000    0.000000    0.000000
  0.050661323   -4.695370  -55.511066 -102.384754    5.212286    0.000000    0.000000    0.000000    0.000000
  0.050861723   -4.695148  -55.810631 -101.030794  -10.911035    0.000000    0.000000    0.000000    0.000000
  0.051062124   -4.688403  -56.100471 -103.795460   -3.674177    0.000000    0.000000    0.000000    0.000000
  0.051262525   -4.680525  -56.368874 -102.621977   -7.909734    0.000000    0.000000    0.000000    0.000000
  0.051462926   -4.678128  -56.587715 -103.888541    4.175201    0.000000    0.000000    0.000000    0.000000
  0.051663327   -4.674507  -56.824768 -103.947760   -2.456914    0.000000    0.000000    0.000000    0.000000
  0.051863727   -4.675687  -57.023026 -104.244469   -4.437931    0.000000    0.000000    0.000000    0.000000
  0.052064128   -4.672098  -57.232639 -103.146867   -6.571232    0.000000    0.000000    0.000000    0.000000
  0.052264529   -4.673889  -57.468979 -105.051370  -13.511607    0.000000    0.000000    0.000000    0.000000
  0.052464930   -4.674064  -57.663467 -103.248293    4.836877    0.000000    0.000000    0.000000    0.000000
  0.052665331   -4.673530  -57.887363 -104.234262   -3.849397    0.000000    0.000000    0.000000    0.000000
  0.052865731   -4.674533  -58.088074 -104.754084    9.067347    0.000000    0.000000    0.000000    0.000000
