! Anritsu VNA Master:                     Model: MS2036C/10/77
! SN:                                  1601066
! /card0/usr/254.ns.sma.r20.21.s2p
! Existing Calibration Information:
! TYPE:                         Current Settings,       Active Cal Settings
! TIME:             	   12/20/2017 01:45:36 PM,    12/20/2017 01:40:30 PM
! INTERNAL TEMP:    	                   46.5 C,                    46.0 C
! # POINTS:         	                      501,                       501
! START FREQ:       	               10.000 MHz,                10.000 MHz
! STOP FREQ:        	              110.000 MHz,               110.000 MHz
! SOURCE POWER:     	                     High,                      High
! IFBW:             	                   100 Hz,                    100 Hz
! AVG FACTOR:       	                       1 ,                        1 
! REF PLANE 1:      	                     0 mm,                      0 mm
! REF PLANE 2:      	                     0 mm,                      0 mm
! CAL TYPE:         	                 Full S11,                  Full S11
! CAL METHOD:       	                     SOLT,                      SOLT
! CAL LINE TYPE:    	                     Coax,                      Coax
! DUT PORT 1:       	                N-Conn(F),                 N-Conn(F)
! DUT PORT 2:       	                K-Conn(F),                 K-Conn(F)
! CAL STATUS:       	        OK: Accuracy High,                        --
# GHZ S DB R 50.0
! FREQ.GHZ       S11DB        S11A       S21DB        S21A       S12DB        S12A       S22DB        S22A
  0.010000000   -7.210433  167.779297  -82.227747   78.009392    0.000000    0.000000    0.000000    0.000000
  0.010200000   -7.199282  167.620682  -82.300692   76.317680    0.000000    0.000000    0.000000    0.000000
  0.010400000   -7.201293  167.337753  -82.570387   73.082245    0.000000    0.000000    0.000000    0.000000
  0.010600000   -7.200210  167.142166  -82.835376   72.924728    0.000000    0.000000    0.000000    0.000000
  0.010800000   -7.202404  166.892303  -83.317821   72.171532    0.000000    0.000000    0.000000    0.000000
  0.011000000   -7.202671  166.637726  -83.503902   66.758324    0.000000    0.000000    0.000000    0.000000
  0.011200000   -7.209212  166.404114  -84.200415   66.327316    0.000000    0.000000    0.000000    0.000000
  0.011400000   -7.209183  166.181549  -84.263361   65.738869    0.000000    0.000000    0.000000    0.000000
  0.011600000   -7.205939  165.913971  -84.523682   65.353271    0.000000    0.000000    0.000000    0.000000
  0.011800000   -7.214708  165.688278  -84.540189   60.424587    0.000000    0.000000    0.000000    0.000000
  0.012000000   -7.216655  165.416107  -84.731090   62.646679    0.000000    0.000000    0.000000    0.000000
  0.012200000   -7.213392  165.159653  -85.448770   63.873886    0.000000    0.000000    0.000000    0.000000
  0.012400000   -7.218670  164.933258  -85.350629   56.728474    0.000000    0.000000    0.000000    0.000000
  0.012600000   -7.217615  164.680283  -85.986911   58.361809    0.000000    0.000000    0.000000    0.000000
  0.012800000   -7.219431  164.430252  -86.702946   59.949478    0.000000    0.000000    0.000000    0.000000
  0.013000000   -7.223960  164.200302  -86.369614   60.488304    0.000000    0.000000    0.000000    0.000000
  0.013200000   -7.225862  163.948273  -86.866113   61.232742    0.000000    0.000000    0.000000    0.000000
  0.013400000   -7.229367  163.713577  -87.250243   60.078938    0.000000    0.000000    0.000000    0.000000
  0.013600000   -7.225517  163.452698  -87.505725   56.903664    0.000000    0.000000    0.000000    0.000000
  0.013800000   -7.224467  163.218842  -88.053245   57.633579    0.000000    0.000000    0.000000    0.000000
  0.014000000   -7.224364  162.985184  -87.747750   59.176357    0.000000    0.000000    0.000000    0.000000
  0.014200000   -7.228222  162.709625  -88.096533   59.453121    0.000000    0.000000    0.000000    0.000000
  0.014400000   -7.225469  162.464310  -87.786315   60.641235    0.000000    0.000000    0.000000    0.000000
  0.014600000   -7.228817  162.209946  -87.690828   61.702679    0.000000    0.000000    0.000000    0.000000
  0.014800000   -7.228793  161.961960  -87.883459   57.577106    0.000000    0.000000    0.000000    0.000000
  0.015000000   -7.231928  161.741318  -87.604114   55.912876    0.000000    0.000000    0.000000    0.000000
  0.015200000   -7.233268  161.484299  -88.268903   53.541065    0.000000    0.000000    0.000000    0.000000
  0.015400000   -7.235198  161.228149  -87.806301   57.405590    0.000000    0.000000    0.000000    0.000000
  0.015600000   -7.231731  160.914490  -87.876554   54.606087    0.000000    0.000000    0.000000    0.000000
  0.015800000   -7.234143  160.730408  -88.714368   53.459713    0.000000    0.000000    0.000000    0.000000
  0.016000000   -7.235244  160.495377  -87.958506   53.915337    0.000000    0.000000    0.000000    0.000000
  0.016200000   -7.235648  160.236542  -87.906023   51.128006    0.000000    0.000000    0.000000    0.000000
  0.016400000   -7.234580  160.026642  -88.381839   50.746178    0.000000    0.000000    0.000000    0.000000
  0.016600000   -7.233637  159.776489  -88.274023   47.113132    0.000000    0.000000    0.000000    0.000000
  0.016800000   -7.232720  159.552780  -88.656969   47.811394    0.000000    0.000000    0.000000    0.000000
  0.017000000   -7.233576  159.314651  -88.396319   47.790707    0.000000    0.000000    0.000000    0.000000
  0.017200000   -7.228925  159.075897  -88.716059   46.896961    0.000000    0.000000    0.000000    0.000000
  0.017400000   -7.231690  158.853256  -89.017620   41.653358    0.000000    0.000000    0.000000    0.000000
  0.017600000   -7.232187  158.594116  -89.294808   43.679939    0.000000    0.000000    0.000000    0.000000
  0.017800000   -7.234683  158.339310  -89.290460   37.989021    0.000000    0.000000    0.000000    0.000000
  0.018000000   -7.235834  158.129089  -89.432057   44.674656    0.000000    0.000000    0.000000    0.000000
  0.018200000   -7.236549  157.899597  -90.022988   38.603577    0.000000    0.000000    0.000000    0.000000
  0.018400000   -7.234382  157.668701  -90.334849   40.510693    0.000000    0.000000    0.000000    0.000000
  0.018600000   -7.243237  157.437149  -90.470869   33.367088    0.000000    0.000000    0.000000    0.000000
  0.018800000   -7.242072  157.169571  -90.496465   41.824081    0.000000    0.000000    0.000000    0.000000
  0.019000000   -7.242536  156.969635  -90.538190   33.933971    0.000000    0.000000    0.000000    0.000000
  0.019200000   -7.242457  156.734894  -91.179609   34.242554    0.000000    0.000000    0.000000    0.000000
  0.019400000   -7.242467  156.491135  -91.669512   39.582848    0.000000    0.000000    0.000000    0.000000
  0.019600000   -7.246882  156.294540  -91.152143   41.312702    0.000000    0.000000    0.000000    0.000000
  0.019800000   -7.245797  156.040924  -92.115002   33.906815    0.000000    0.000000    0.000000    0.000000
  0.020000000   -7.249603  155.810120  -91.221279   40.071297    0.000000    0.000000    0.000000    0.000000
  0.020200000   -7.249275  155.560074  -92.249019   35.378567    0.000000    0.000000    0.000000    0.000000
  0.020400000   -7.248090  155.295715  -92.061691   34.317089    0.000000    0.000000    0.000000    0.000000
  0.020600000   -7.242719  155.100159  -92.368438   37.621799    0.000000    0.000000    0.000000    0.000000
  0.020800000   -7.244516  154.831238  -93.436524   39.546585    0.000000    0.000000    0.000000    0.000000
  0.021000000   -7.241957  154.581848  -92.089440   38.077274    0.000000    0.000000    0.000000    0.000000
  0.021200000   -7.245026  154.332993  -91.666928   37.745411    0.000000    0.000000    0.000000    0.000000
  0.021400000   -7.249284  154.090195  -92.318819   38.533237    0.000000    0.000000    0.000000    0.000000
  0.021600000   -7.248031  153.858749  -91.797019   39.391674    0.000000    0.000000    0.000000    0.000000
  0.021800000   -7.247802  153.653336  -92.289171   35.823410    0.000000    0.000000    0.000000    0.000000
  0.022000000   -7.249485  153.417953  -92.206617   34.267517    0.000000    0.000000    0.000000    0.000000
  0.022200000   -7.252323  153.151489  -92.473184   36.844799    0.000000    0.000000    0.000000    0.000000
  0.022400000   -7.255581  152.947800  -91.980121   34.906708    0.000000    0.000000    0.000000    0.000000
  0.022600000   -7.254230  152.703979  -92.304877   31.447687    0.000000    0.000000    0.000000    0.000000
  0.022800000   -7.255651  152.446716  -91.652337   30.223864    0.000000    0.000000    0.000000    0.000000
  0.023000000   -7.256925  152.217209  -92.458079   31.149446    0.000000    0.000000    0.000000    0.000000
  0.023200000   -7.258720  151.970520  -91.939514   29.217346    0.000000    0.000000    0.000000    0.000000
  0.023400000   -7.252858  151.738617  -92.155809   29.224699    0.000000    0.000000    0.000000    0.000000
  0.023600000   -7.257315  151.483231  -93.002623   25.566326    0.000000    0.000000    0.000000    0.000000
  0.023800000   -7.255205  151.240814  -93.601922   26.143019    0.000000    0.000000    0.000000    0.000000
  0.024000000   -7.251809  151.000839  -93.541940   27.411226    0.000000    0.000000    0.000000    0.000000
  0.024200000   -7.253580  150.717789  -93.003003   28.850872    0.000000    0.000000    0.000000    0.000000
  0.024400000   -7.254272  150.479477  -93.684391   24.424196    0.000000    0.000000    0.000000    0.000000
  0.024600000   -7.252952  150.218033  -93.352531   20.974514    0.000000    0.000000    0.000000    0.000000
  0.024800000   -7.256080  149.959610  -93.215658   30.382139    0.000000    0.000000    0.000000    0.000000
  0.025000000   -7.253029  149.726730  -94.193446   26.479593    0.000000    0.000000    0.000000    0.000000
  0.025200000   -7.251475  149.528259  -94.298168   24.064449    0.000000    0.000000    0.000000    0.000000
  0.025400000   -7.253893  149.311768  -93.654797   20.227051    0.000000    0.000000    0.000000    0.000000
  0.025600000   -7.254073  149.073929  -94.366911   20.775715    0.000000    0.000000    0.000000    0.000000
  0.025800000   -7.255667  148.864136  -94.144556   26.856188    0.000000    0.000000    0.000000    0.000000
  0.026000000   -7.256575  148.641998  -95.054687   13.118687    0.000000    0.000000    0.000000    0.000000
  0.026200000   -7.255978  148.386154  -95.765727   24.701105    0.000000    0.000000    0.000000    0.000000
  0.026400000   -7.260590  148.172241  -95.159222   21.411100    0.000000    0.000000    0.000000    0.000000
  0.026600000   -7.265876  147.939529  -94.972046   23.114107    0.000000    0.000000    0.000000    0.000000
  0.026800000   -7.267383  147.700272  -95.585445   24.659307    0.000000    0.000000    0.000000    0.000000
  0.027000000   -7.266685  147.433319  -96.612963   25.117086    0.000000    0.000000    0.000000    0.000000
  0.027200000   -7.265072  147.140717  -95.655739   17.689869    0.000000    0.000000    0.000000    0.000000
  0.027400000   -7.260622  146.892456  -95.317795   20.714949    0.000000    0.000000    0.000000    0.000000
  0.027600000   -7.257776  146.633774  -96.198776   19.067049    0.000000    0.000000    0.000000    0.000000
  0.027800000   -7.256742  146.377823  -96.464339   19.273254    0.000000    0.000000    0.000000    0.000000
  0.028000000   -7.254509  146.125366  -96.498102   24.504990    0.000000    0.000000    0.000000    0.000000
  0.028200000   -7.252646  145.872406  -96.263903   16.402691    0.000000    0.000000    0.000000    0.000000
  0.028400000   -7.254452  145.641586  -96.803465   16.956499    0.000000    0.000000    0.000000    0.000000
  0.028600000   -7.248480  145.433212  -95.752517   27.750725    0.000000    0.000000    0.000000    0.000000
  0.028800000   -7.247617  145.229172  -96.395149   15.909334    0.000000    0.000000    0.000000    0.000000
  0.029000000   -7.248009  145.032715  -96.177143   18.738014    0.000000    0.000000    0.000000    0.000000
  0.029200000   -7.245588  144.839981  -95.936870   17.505453    0.000000    0.000000    0.000000    0.000000
  0.029400000   -7.243440  144.650787  -96.705566   27.704473    0.000000    0.000000    0.000000    0.000000
  0.029600000   -7.244283  144.455902  -95.125938   17.690590    0.000000    0.000000    0.000000    0.000000
  0.029800000   -7.248021  144.238312  -95.904582   12.632547    0.000000    0.000000    0.000000    0.000000
  0.030000000   -7.251834  143.978775  -97.407616   14.018592    0.000000    0.000000    0.000000    0.000000
  0.030200000   -7.253516  143.745178  -96.442332   10.376354    0.000000    0.000000    0.000000    0.000000
  0.030400000   -7.253543  143.496704  -95.358664   20.113552    0.000000    0.000000    0.000000    0.000000
  0.030600000   -7.254301  143.240677  -97.265189   13.066485    0.000000    0.000000    0.000000    0.000000
  0.030800000   -7.258642  142.972061  -96.595859   21.248722    0.000000    0.000000    0.000000    0.000000
  0.031000000   -7.257722  142.722504  -98.493337    8.797781    0.000000    0.000000    0.000000    0.000000
  0.031200000   -7.250631  142.538528  -95.943557   10.824883    0.000000    0.000000    0.000000    0.000000
  0.031400000   -7.253518  142.284241  -98.092062   24.467318    0.000000    0.000000    0.000000    0.000000
  0.031600000   -7.262265  142.003418  -99.320429    8.479363    0.000000    0.000000    0.000000    0.000000
  0.031800000   -7.263875  141.755432  -98.153363   17.539263    0.000000    0.000000    0.000000    0.000000
  0.032000000   -7.256453  141.499847  -98.542261    6.846381    0.000000    0.000000    0.000000    0.000000
  0.032200000   -7.254445  141.244781  -98.733991    1.071372    0.000000    0.000000    0.000000    0.000000
  0.032400000   -7.252232  140.994629  -97.136454   24.297466    0.000000    0.000000    0.000000    0.000000
  0.032600000   -7.247578  140.784622  -98.853696   13.265608    0.000000    0.000000    0.000000    0.000000
  0.032800000   -7.241490  140.549728  -98.657587   18.478416    0.000000    0.000000    0.000000    0.000000
  0.033000000   -7.238825  140.363159  -99.922276    8.052470    0.000000    0.000000    0.000000    0.000000
  0.033200000   -7.239775  140.095123  -97.084343    5.688015    0.000000    0.000000    0.000000    0.000000
  0.033400000   -7.238131  139.951263  -98.285652    6.170033    0.000000    0.000000    0.000000    0.000000
  0.033600000   -7.244618  139.749176 -100.619393   12.828209    0.000000    0.000000    0.000000    0.000000
  0.033800000   -7.240916  139.495667  -98.052493   16.321636    0.000000    0.000000    0.000000    0.000000
  0.034000000   -7.247293  139.236374  -97.306927   10.120459    0.000000    0.000000    0.000000    0.000000
  0.034200000   -7.249185  138.984619  -98.563968    2.215108    0.000000    0.000000    0.000000    0.000000
  0.034400000   -7.252656  138.726898  -97.610611   11.459581    0.000000    0.000000    0.000000    0.000000
  0.034600000   -7.254273  138.461624  -98.743870    4.627678    0.000000    0.000000    0.000000    0.000000
  0.034800000   -7.257128  138.190720  -99.177985   11.126141    0.000000    0.000000    0.000000    0.000000
  0.035000000   -7.263377  137.936386  -97.938205   15.765021    0.000000    0.000000    0.000000    0.000000
  0.035200000   -7.259976  137.639938 -101.371605    5.507463    0.000000    0.000000    0.000000    0.000000
  0.035400000   -7.256936  137.407288  -98.296053   14.711533    0.000000    0.000000    0.000000    0.000000
  0.035600000   -7.255713  137.179398  -97.990074    5.025417    0.000000    0.000000    0.000000    0.000000
  0.035800000   -7.246432  136.904999  -98.834950   12.338441    0.000000    0.000000    0.000000    0.000000
  0.036000000   -7.240737  136.637955  -99.083211    7.449797    0.000000    0.000000    0.000000    0.000000
  0.036200000   -7.238652  136.434631  -98.970976   15.950694    0.000000    0.000000    0.000000    0.000000
  0.036400000   -7.229892  136.199356  -97.737575   12.498897    0.000000    0.000000    0.000000    0.000000
  0.036600000   -7.225417  135.979019 -100.882945    7.259976    0.000000    0.000000    0.000000    0.000000
  0.036800000   -7.227354  135.796829  -98.303888   13.506742    0.000000    0.000000    0.000000    0.000000
  0.037000000   -7.221422  135.610458  -99.784502    4.136486    0.000000    0.000000    0.000000    0.000000
  0.037200000   -7.224556  135.398087 -102.558720   10.172560    0.000000    0.000000    0.000000    0.000000
  0.037400000   -7.221991  135.167953  -98.267421   10.258934    0.000000    0.000000    0.000000    0.000000
  0.037600000   -7.227897  134.969742  -99.935626   10.507858    0.000000    0.000000    0.000000    0.000000
  0.037800000   -7.230565  134.689377  -99.312292    3.280819    0.000000    0.000000    0.000000    0.000000
  0.038000000   -7.233883  134.481567  -99.599726    5.800480    0.000000    0.000000    0.000000    0.000000
  0.038200000   -7.242728  134.210999  -99.986223   -4.818211    0.000000    0.000000    0.000000    0.000000
  0.038400000   -7.245499  133.949005 -100.145254    5.817646    0.000000    0.000000    0.000000    0.000000
  0.038600000   -7.246207  133.732300 -100.367092   11.489839    0.000000    0.000000    0.000000    0.000000
  0.038800000   -7.249378  133.479553 -100.212644   19.322329    0.000000    0.000000    0.000000    0.000000
  0.039000000   -7.250296  133.231827  -99.299789   -0.751490    0.000000    0.000000    0.000000    0.000000
  0.039200000   -7.250030  133.012955 -101.417372    1.939080    0.000000    0.000000    0.000000    0.000000
  0.039400000   -7.245655  132.759903  -99.017293   29.907438    0.000000    0.000000    0.000000    0.000000
  0.039600000   -7.240138  132.522339 -101.408723   -0.190172    0.000000    0.000000    0.000000    0.000000
  0.039800000   -7.236852  132.224686 -104.026428   16.847418    0.000000    0.000000    0.000000    0.000000
  0.040000000   -7.231503  131.975601 -101.051001   12.076921    0.000000    0.000000    0.000000    0.000000
  0.040200000   -7.227421  131.738403 -101.026912   13.694941    0.000000    0.000000    0.000000    0.000000
  0.040400000   -7.217570  131.545914  -98.841188   19.356373    0.000000    0.000000    0.000000    0.000000
  0.040600000   -7.217968  131.321915 -101.633582   12.875327    0.000000    0.000000    0.000000    0.000000
  0.040800000   -7.218564  131.143814  -99.345544   20.870729    0.000000    0.000000    0.000000    0.000000
  0.041000000   -7.219001  130.953415 -101.006560    4.916689    0.000000    0.000000    0.000000    0.000000
  0.041200000   -7.223022  130.769501  -98.905215   29.857161    0.000000    0.000000    0.000000    0.000000
  0.041400000   -7.231584  130.502533 -101.901088    5.257832    0.000000    0.000000    0.000000    0.000000
  0.041600000   -7.233940  130.282562  -99.591265   -2.732848    0.000000    0.000000    0.000000    0.000000
  0.041800000   -7.236239  130.038589  -97.183017    4.605652    0.000000    0.000000    0.000000    0.000000
  0.042000000   -7.241895  129.782745  -99.096918   -3.343297    0.000000    0.000000    0.000000    0.000000
  0.042200000   -7.249018  129.558243 -100.363765    6.944753    0.000000    0.000000    0.000000    0.000000
  0.042400000   -7.248472  129.275757  -99.141788    5.722627    0.000000    0.000000    0.000000    0.000000
  0.042600000   -7.246807  129.047226 -101.786481    9.326451    0.000000    0.000000    0.000000    0.000000
  0.042800000   -7.243693  128.789337  -99.674716   16.010643    0.000000    0.000000    0.000000    0.000000
