! Anritsu VNA Master:                     Model: MS2036C/10/77
! SN:                                  1601066
! /card0/usr/254.ns.sma.r20.11.s2p
! Existing Calibration Information:
! TYPE:                         Current Settings,       Active Cal Settings
! TIME:             	   12/20/2017 01:27:11 PM,    12/20/2017 01:21:26 PM
! INTERNAL TEMP:    	                   45.0 C,                    44.5 C
! # POINTS:         	                      501,                       501
! START FREQ:       	               10.000 MHz,                10.000 MHz
! STOP FREQ:        	              110.000 MHz,               110.000 MHz
! SOURCE POWER:     	                     High,                      High
! IFBW:             	                   100 Hz,                    100 Hz
! AVG FACTOR:       	                       1 ,                        1 
! REF PLANE 1:      	                     0 mm,                      0 mm
! REF PLANE 2:      	                     0 mm,                      0 mm
! CAL TYPE:         	                 Full S11,                  Full S11
! CAL METHOD:       	                     SOLT,                      SOLT
! CAL LINE TYPE:    	                     Coax,                      Coax
! DUT PORT 1:       	                N-Conn(F),                 N-Conn(F)
! DUT PORT 2:       	                K-Conn(F),                 K-Conn(F)
! CAL STATUS:       	        OK: Accuracy High,                        --
# GHZ S DB R 50.0
! FREQ.GHZ       S11DB        S11A       S21DB        S21A       S12DB        S12A       S22DB        S22A
  0.010000000  -64.914697   89.839447  -82.422757   77.195259    0.000000    0.000000    0.000000    0.000000
  0.010200000  -64.106570   94.809242  -82.857798   76.628487    0.000000    0.000000    0.000000    0.000000
  0.010400000  -63.718632   92.176254  -82.413640   77.174164    0.000000    0.000000    0.000000    0.000000
  0.010600000  -63.888649   89.662003  -83.158534   70.580078    0.000000    0.000000    0.000000    0.000000
  0.010800000  -63.879489   88.799484  -83.087160   70.654869    0.000000    0.000000    0.000000    0.000000
  0.011000000  -63.963239   87.183502  -83.896521   69.413010    0.000000    0.000000    0.000000    0.000000
  0.011200000  -64.175064   86.482880  -83.418147   66.870628    0.000000    0.000000    0.000000    0.000000
  0.011400000  -64.349890   87.772720  -84.308086   65.907516    0.000000    0.000000    0.000000    0.000000
  0.011600000  -63.303191   91.529091  -84.225577   63.389393    0.000000    0.000000    0.000000    0.000000
  0.011800000  -63.014384   85.816269  -84.792887   61.913540    0.000000    0.000000    0.000000    0.000000
  0.012000000  -63.296170   85.577461  -85.047776   62.132675    0.000000    0.000000    0.000000    0.000000
  0.012200000  -62.894629   89.578690  -85.260370   60.704208    0.000000    0.000000    0.000000    0.000000
  0.012400000  -62.838127   87.629890  -85.665295   60.072060    0.000000    0.000000    0.000000    0.000000
  0.012600000  -62.802077   84.643570  -85.889217   57.986675    0.000000    0.000000    0.000000    0.000000
  0.012800000  -62.404616   84.458298  -86.001344   60.453907    0.000000    0.000000    0.000000    0.000000
  0.013000000  -62.294390   83.757980  -86.685267   57.707291    0.000000    0.000000    0.000000    0.000000
  0.013200000  -62.449897   82.616241  -86.666836   58.502407    0.000000    0.000000    0.000000    0.000000
  0.013400000  -62.040286   84.497284  -86.979086   57.472305    0.000000    0.000000    0.000000    0.000000
  0.013600000  -62.131834   81.973663  -87.553685   58.654469    0.000000    0.000000    0.000000    0.000000
  0.013800000  -62.051926   82.126396  -87.367323   59.557064    0.000000    0.000000    0.000000    0.000000
  0.014000000  -62.012935   80.915321  -87.632196   59.518795    0.000000    0.000000    0.000000    0.000000
  0.014200000  -61.865878   81.654602  -87.017221   59.367752    0.000000    0.000000    0.000000    0.000000
  0.014400000  -61.433657   81.235039  -87.899629   58.658722    0.000000    0.000000    0.000000    0.000000
  0.014600000  -61.423043   82.889267  -87.759160   62.127995    0.000000    0.000000    0.000000    0.000000
  0.014800000  -61.264792   80.198021  -88.060037   56.875702    0.000000    0.000000    0.000000    0.000000
  0.015000000  -61.313219   82.223381  -88.003253   52.876621    0.000000    0.000000    0.000000    0.000000
  0.015200000  -61.382823   80.364235  -87.785460   56.154629    0.000000    0.000000    0.000000    0.000000
  0.015400000  -61.068086   81.352745  -88.160537   55.889576    0.000000    0.000000    0.000000    0.000000
  0.015600000  -61.286867   78.940697  -87.790520   52.344398    0.000000    0.000000    0.000000    0.000000
  0.015800000  -61.156910   79.091820  -88.174724   52.485352    0.000000    0.000000    0.000000    0.000000
  0.016000000  -61.260909   81.543343  -87.864807   50.891247    0.000000    0.000000    0.000000    0.000000
  0.016200000  -60.989752   80.022942  -88.264918   54.019302    0.000000    0.000000    0.000000    0.000000
  0.016400000  -60.814307   79.278435  -87.843361   52.361340    0.000000    0.000000    0.000000    0.000000
  0.016600000  -61.163178   77.638573  -88.976482   52.692059    0.000000    0.000000    0.000000    0.000000
  0.016800000  -60.970063   80.773338  -88.296919   46.525753    0.000000    0.000000    0.000000    0.000000
  0.017000000  -60.890598   78.370285  -88.525962   46.331398    0.000000    0.000000    0.000000    0.000000
  0.017200000  -61.073060   78.028130  -88.466016   46.204849    0.000000    0.000000    0.000000    0.000000
  0.017400000  -60.738212   77.986565  -88.799608   41.237034    0.000000    0.000000    0.000000    0.000000
  0.017600000  -60.857015   78.061676  -88.769676   41.979839    0.000000    0.000000    0.000000    0.000000
  0.017800000  -60.821110   78.356667  -89.954473   41.181908    0.000000    0.000000    0.000000    0.000000
  0.018000000  -60.639188   78.943932  -89.906921   40.357967    0.000000    0.000000    0.000000    0.000000
  0.018200000  -60.636406   78.796036  -89.880306   38.053837    0.000000    0.000000    0.000000    0.000000
  0.018400000  -60.303462   77.068771  -90.685892   40.396492    0.000000    0.000000    0.000000    0.000000
  0.018600000  -60.390279   75.483459  -90.110389   32.970913    0.000000    0.000000    0.000000    0.000000
  0.018800000  -60.402390   76.958145  -90.693524   34.099209    0.000000    0.000000    0.000000    0.000000
  0.019000000  -60.329890   76.266968  -90.840491   40.888622    0.000000    0.000000    0.000000    0.000000
  0.019200000  -60.029303   77.621193  -90.475880   43.996593    0.000000    0.000000    0.000000    0.000000
  0.019400000  -60.096109   75.443611  -91.503043   36.689808    0.000000    0.000000    0.000000    0.000000
  0.019600000  -59.850054   76.711319  -91.743613   34.752441    0.000000    0.000000    0.000000    0.000000
  0.019800000  -59.535532   75.862907  -91.399202   33.829037    0.000000    0.000000    0.000000    0.000000
  0.020000000  -59.357824   75.337570  -91.464467   33.271854    0.000000    0.000000    0.000000    0.000000
  0.020200000  -59.435722   75.041489  -92.093570   29.083384    0.000000    0.000000    0.000000    0.000000
  0.020400000  -59.167010   74.160690  -91.634933   37.488731    0.000000    0.000000    0.000000    0.000000
  0.020600000  -58.757314   75.207695  -91.854352   37.371269    0.000000    0.000000    0.000000    0.000000
  0.020800000  -58.703599   74.786301  -92.506145   41.205326    0.000000    0.000000    0.000000    0.000000
  0.021000000  -58.785756   75.660728  -91.705310   33.574673    0.000000    0.000000    0.000000    0.000000
  0.021200000  -58.536599   73.549850  -91.858144   38.417080    0.000000    0.000000    0.000000    0.000000
  0.021400000  -58.335856   73.607056  -92.252721   35.860489    0.000000    0.000000    0.000000    0.000000
  0.021600000  -58.310039   73.465790  -92.399313   34.423492    0.000000    0.000000    0.000000    0.000000
  0.021800000  -57.928072   74.124977  -92.963603   34.575794    0.000000    0.000000    0.000000    0.000000
  0.022000000  -57.912932   71.912498  -92.840911   33.292530    0.000000    0.000000    0.000000    0.000000
  0.022200000  -57.940066   71.800758  -91.807087   33.429951    0.000000    0.000000    0.000000    0.000000
  0.022400000  -57.858874   72.004089  -92.455383   29.943029    0.000000    0.000000    0.000000    0.000000
  0.022600000  -57.728433   73.812157  -92.419878   33.201717    0.000000    0.000000    0.000000    0.000000
  0.022800000  -57.575160   72.253159  -91.971302   29.033098    0.000000    0.000000    0.000000    0.000000
  0.023000000  -57.576457   72.414284  -92.417090   33.927761    0.000000    0.000000    0.000000    0.000000
  0.023200000  -57.416543   72.356094  -91.763206   29.131227    0.000000    0.000000    0.000000    0.000000
  0.023400000  -58.426223   72.911079  -92.806295   29.918415    0.000000    0.000000    0.000000    0.000000
  0.023600000  -57.403074   71.619438  -92.241941   29.783514    0.000000    0.000000    0.000000    0.000000
  0.023800000  -57.329228   71.406059  -93.229115   26.722994    0.000000    0.000000    0.000000    0.000000
  0.024000000  -57.395317   70.723259  -92.800614   25.110716    0.000000    0.000000    0.000000    0.000000
  0.024200000  -57.319744   71.140190  -94.419399   29.595869    0.000000    0.000000    0.000000    0.000000
  0.024400000  -57.180096   71.296913  -93.920421   25.568630    0.000000    0.000000    0.000000    0.000000
  0.024600000  -57.044302   71.919884  -92.631568   18.026657    0.000000    0.000000    0.000000    0.000000
  0.024800000  -57.272194   70.886436  -93.404027   17.731724    0.000000    0.000000    0.000000    0.000000
  0.025000000  -57.248806   71.109840  -94.317262   27.291645    0.000000    0.000000    0.000000    0.000000
  0.025200000  -57.076372   70.273232  -94.601967   21.730286    0.000000    0.000000    0.000000    0.000000
  0.025400000  -57.193205   70.520424  -94.727631   25.726576    0.000000    0.000000    0.000000    0.000000
  0.025600000  -57.187645   70.679634  -94.891906   18.794796    0.000000    0.000000    0.000000    0.000000
  0.025800000  -57.213500   70.108170  -94.958351   25.948698    0.000000    0.000000    0.000000    0.000000
  0.026000000  -57.291290   70.102638  -94.473049   28.480133    0.000000    0.000000    0.000000    0.000000
  0.026200000  -57.198353   68.782890  -93.894576   20.756771    0.000000    0.000000    0.000000    0.000000
  0.026400000  -57.161494   68.977486  -94.376718   23.251476    0.000000    0.000000    0.000000    0.000000
  0.026600000  -57.169520   67.658134  -96.001263   14.770108    0.000000    0.000000    0.000000    0.000000
  0.026800000  -56.939721   68.344231  -95.507458   15.200408    0.000000    0.000000    0.000000    0.000000
  0.027000000  -56.814562   68.275787  -96.438269   24.338804    0.000000    0.000000    0.000000    0.000000
  0.027200000  -56.846776   67.599136  -95.653669   27.761702    0.000000    0.000000    0.000000    0.000000
  0.027400000  -56.749029   67.733696  -94.980703   22.452906    0.000000    0.000000    0.000000    0.000000
  0.027600000  -56.755100   67.523376  -96.467209   16.526373    0.000000    0.000000    0.000000    0.000000
  0.027800000  -56.699186   67.748856  -95.745896   21.253334    0.000000    0.000000    0.000000    0.000000
  0.028000000  -56.546658   67.307014  -95.452764   19.780748    0.000000    0.000000    0.000000    0.000000
  0.028200000  -56.422167   66.502022  -96.173772   26.880255    0.000000    0.000000    0.000000    0.000000
  0.028400000  -56.325333   67.095390  -95.415215   22.056625    0.000000    0.000000    0.000000    0.000000
  0.028600000  -56.243824   65.699783  -95.809399   19.450377    0.000000    0.000000    0.000000    0.000000
  0.028800000  -56.100452   65.867821  -96.439833   14.676065    0.000000    0.000000    0.000000    0.000000
  0.029000000  -55.929830   66.644173  -96.431793   24.891951    0.000000    0.000000    0.000000    0.000000
  0.029200000  -56.000637   65.208206  -96.809832   17.734814    0.000000    0.000000    0.000000    0.000000
  0.029400000  -55.848648   65.266991  -96.109491   15.082215    0.000000    0.000000    0.000000    0.000000
  0.029600000  -55.887059   65.390404  -96.487120   13.127009    0.000000    0.000000    0.000000    0.000000
  0.029800000  -55.831914   65.972687  -97.322941   13.539560    0.000000    0.000000    0.000000    0.000000
  0.030000000  -55.784483   64.895287  -95.650666   12.069854    0.000000    0.000000    0.000000    0.000000
  0.030200000  -55.519521   65.124313  -96.668900   18.181213    0.000000    0.000000    0.000000    0.000000
  0.030400000  -55.759202   64.897087  -96.666943   13.275529    0.000000    0.000000    0.000000    0.000000
  0.030600000  -55.655396   64.180191  -97.540808   17.633120    0.000000    0.000000    0.000000    0.000000
  0.030800000  -55.588942   64.413086  -96.250299    9.597556    0.000000    0.000000    0.000000    0.000000
  0.031000000  -55.470769   63.804718  -97.943073   10.850027    0.000000    0.000000    0.000000    0.000000
  0.031200000  -55.184279   62.609203  -95.838158   15.584083    0.000000    0.000000    0.000000    0.000000
  0.031400000  -55.333278   64.170731  -96.031573   22.017956    0.000000    0.000000    0.000000    0.000000
  0.031600000  -55.241186   62.773422  -96.524842   18.064589    0.000000    0.000000    0.000000    0.000000
  0.031800000  -55.060677   64.216171  -96.996397   32.059380    0.000000    0.000000    0.000000    0.000000
  0.032000000  -55.204659   64.151863  -96.024686    3.167970    0.000000    0.000000    0.000000    0.000000
  0.032200000  -55.272079   63.865547  -97.169379   17.807590    0.000000    0.000000    0.000000    0.000000
  0.032400000  -55.070456   62.838165  -96.519444   13.382992    0.000000    0.000000    0.000000    0.000000
  0.032600000  -55.073395   64.619255  -97.015957    5.734086    0.000000    0.000000    0.000000    0.000000
  0.032800000  -55.177728   63.107601 -100.242056    3.238422    0.000000    0.000000    0.000000    0.000000
  0.033000000  -55.043740   64.598969  -98.220803   10.314968    0.000000    0.000000    0.000000    0.000000
  0.033200000  -54.961765   62.607742  -98.558234   17.024181    0.000000    0.000000    0.000000    0.000000
  0.033400000  -55.185494   63.281212  -98.461909    7.382595    0.000000    0.000000    0.000000    0.000000
  0.033600000  -54.897278   62.407867 -100.076214    5.339252    0.000000    0.000000    0.000000    0.000000
  0.033800000  -55.021584   62.767834  -98.873245   18.367632    0.000000    0.000000    0.000000    0.000000
  0.034000000  -54.963433   61.578403  -98.978291   24.033789    0.000000    0.000000    0.000000    0.000000
  0.034200000  -54.839050   62.578602  -99.198182   13.775982    0.000000    0.000000    0.000000    0.000000
  0.034400000  -54.638177   61.734882  -95.792482    7.307577    0.000000    0.000000    0.000000    0.000000
  0.034600000  -54.823880   62.271614  -99.000589    0.117575    0.000000    0.000000    0.000000    0.000000
  0.034800000  -54.576758   61.689751  -97.656732   21.028851    0.000000    0.000000    0.000000    0.000000
  0.035000000  -54.411683   61.170410 -101.942848   25.581274    0.000000    0.000000    0.000000    0.000000
  0.035200000  -54.405629   60.334579 -100.133304   22.952394    0.000000    0.000000    0.000000    0.000000
  0.035400000  -54.310859   60.877155  -98.248150    6.418019    0.000000    0.000000    0.000000    0.000000
  0.035600000  -54.129472   60.463066  -97.878205    8.018641    0.000000    0.000000    0.000000    0.000000
  0.035800000  -54.100558   59.836071  -99.405677   15.422503    0.000000    0.000000    0.000000    0.000000
  0.036000000  -54.011808   59.489201  -97.713203   11.119558    0.000000    0.000000    0.000000    0.000000
  0.036200000  -53.710597   59.134132  -97.050336    5.448629    0.000000    0.000000    0.000000    0.000000
  0.036400000  -53.888649   59.437073 -100.227016    5.602967    0.000000    0.000000    0.000000    0.000000
  0.036600000  -53.652525   59.975460  -99.179176    5.723924    0.000000    0.000000    0.000000    0.000000
  0.036800000  -53.606176   60.554764  -99.192901    6.749234    0.000000    0.000000    0.000000    0.000000
  0.037000000  -53.469743   58.696823 -100.001495    1.460644    0.000000    0.000000    0.000000    0.000000
  0.037200000  -53.405038   59.172318  -98.895049   -2.620770    0.000000    0.000000    0.000000    0.000000
  0.037400000  -53.481906   59.072475 -100.351085   -5.332127    0.000000    0.000000    0.000000    0.000000
  0.037600000  -53.399590   58.656860  -97.371999    4.745289    0.000000    0.000000    0.000000    0.000000
  0.037800000  -53.248520   58.271294  -99.751999   11.479581    0.000000    0.000000    0.000000    0.000000
  0.038000000  -53.220665   59.313801 -100.590356    8.445747    0.000000    0.000000    0.000000    0.000000
  0.038200000  -53.279543   57.810272 -100.793040    8.222553    0.000000    0.000000    0.000000    0.000000
  0.038400000  -53.217896   57.728233  -99.442652   10.314281    0.000000    0.000000    0.000000    0.000000
  0.038600000  -53.206026   58.102016 -100.682858   18.305763    0.000000    0.000000    0.000000    0.000000
  0.038800000  -53.188329   58.526970 -100.941011    7.787827    0.000000    0.000000    0.000000    0.000000
  0.039000000  -53.139038   56.539013  -99.543279    1.979364    0.000000    0.000000    0.000000    0.000000
  0.039200000  -53.063001   58.491684 -100.014571   11.553784    0.000000    0.000000    0.000000    0.000000
  0.039400000  -53.107857   57.887520 -100.761081    1.085694    0.000000    0.000000    0.000000    0.000000
  0.039600000  -53.072676   57.258896 -100.629623   16.518238    0.000000    0.000000    0.000000    0.000000
  0.039800000  -53.081805   57.211235 -100.813158    8.448682    0.000000    0.000000    0.000000    0.000000
  0.040000000  -53.017202   57.746983 -100.057002    9.534618    0.000000    0.000000    0.000000    0.000000
  0.040200000  -52.996301   55.856403 -100.609235    8.209587    0.000000    0.000000    0.000000    0.000000
  0.040400000  -53.037136   56.604774 -101.662665   12.483053    0.000000    0.000000    0.000000    0.000000
  0.040600000  -53.005832   56.783428 -100.734619   -5.849489    0.000000    0.000000    0.000000    0.000000
  0.040800000  -53.050382   57.009911  -99.824148   14.859001    0.000000    0.000000    0.000000    0.000000
  0.041000000  -52.965073   56.381977  -98.546531   25.924881    0.000000    0.000000    0.000000    0.000000
  0.041200000  -52.999886   56.397099 -102.249046   23.411236    0.000000    0.000000    0.000000    0.000000
  0.041400000  -52.880132   56.223892 -101.391279    2.062720    0.000000    0.000000    0.000000    0.000000
  0.041600000  -53.066238   55.674198 -100.027101   20.037823    0.000000    0.000000    0.000000    0.000000
  0.041800000  -52.955444   55.497433  -99.136186   10.219483    0.000000    0.000000    0.000000    0.000000
  0.042000000  -52.994449   55.471642 -103.001364   -3.767401    0.000000    0.000000    0.000000    0.000000
  0.042200000  -52.930309   54.255905 -100.080868    8.606400    0.000000    0.000000    0.000000    0.000000
  0.042400000  -52.666577   54.105320 -101.828466    2.229032    0.000000    0.000000    0.000000    0.000000
  0.042600000  -52.641880   54.954922 -103.199810  -11.608372    0.000000    0.000000    0.000000    0.000000
  0.042800000  -52.711150   54.469028  -99.085999   -0.821143    0.000000    0.000000    0.000000    0.000000
