! Anritsu VNA Master:                     Model: MS2036C/10/77
! SN:                                  1601066
! /card0/usr/254.ns.sma.r200.12.s2p
! Existing Calibration Information:
! TYPE:                         Current Settings,       Active Cal Settings
! TIME:             	   12/20/2017 01:34:15 PM,    12/20/2017 01:21:26 PM
! INTERNAL TEMP:    	                   45.8 C,                    44.5 C
! # POINTS:         	                      501,                       501
! START FREQ:       	               10.000 MHz,                10.000 MHz
! STOP FREQ:        	              110.000 MHz,               110.000 MHz
! SOURCE POWER:     	                     High,                      High
! IFBW:             	                   100 Hz,                    100 Hz
! AVG FACTOR:       	                       1 ,                        1 
! REF PLANE 1:      	                     0 mm,                      0 mm
! REF PLANE 2:      	                     0 mm,                      0 mm
! CAL TYPE:         	                 Full S11,                  Full S11
! CAL METHOD:       	                     SOLT,                      SOLT
! CAL LINE TYPE:    	                     Coax,                      Coax
! DUT PORT 1:       	                N-Conn(F),                 N-Conn(F)
! DUT PORT 2:       	                K-Conn(F),                 K-Conn(F)
! CAL STATUS:       	        OK: Accuracy High,                        --
# GHZ S DB R 50.0
! FREQ.GHZ       S11DB        S11A       S21DB        S21A       S12DB        S12A       S22DB        S22A
  0.010000000  -51.829143 -106.689583  -85.035282   77.358032    0.000000    0.000000    0.000000    0.000000
  0.010200000  -51.025743 -102.060280  -84.614088   74.325523    0.000000    0.000000    0.000000    0.000000
  0.010400000  -50.641259 -104.818832  -85.062970   79.429359    0.000000    0.000000    0.000000    0.000000
  0.010600000  -50.859290 -107.766006  -84.892878   75.169525    0.000000    0.000000    0.000000    0.000000
  0.010800000  -50.867251 -108.936172  -85.237772   73.892311    0.000000    0.000000    0.000000    0.000000
  0.011000000  -50.978411 -110.801346  -85.494845   77.936546    0.000000    0.000000    0.000000    0.000000
  0.011200000  -51.205789 -111.877136  -84.973009   70.839989    0.000000    0.000000    0.000000    0.000000
  0.011400000  -51.408180 -110.949318  -84.843449   75.915092    0.000000    0.000000    0.000000    0.000000
  0.011600000  -50.387016 -107.396233  -85.086421   72.491165    0.000000    0.000000    0.000000    0.000000
  0.011800000  -50.116458 -113.488754  -84.883016   73.594772    0.000000    0.000000    0.000000    0.000000
  0.012000000  -50.429155 -114.052750  -85.354382   75.476326    0.000000    0.000000    0.000000    0.000000
  0.012200000  -50.047077 -110.345329  -85.942214   71.666321    0.000000    0.000000    0.000000    0.000000
  0.012400000  -50.022991 -112.626442  -85.088623   68.780914    0.000000    0.000000    0.000000    0.000000
  0.012600000  -50.006181 -115.898666  -85.175017   67.169785    0.000000    0.000000    0.000000    0.000000
  0.012800000  -49.637575 -116.415520  -85.280626   67.023643    0.000000    0.000000    0.000000    0.000000
  0.013000000  -49.563085 -117.417374  -85.126571   66.520889    0.000000    0.000000    0.000000    0.000000
  0.013200000  -49.729849 -118.848000  -85.349247   65.248032    0.000000    0.000000    0.000000    0.000000
  0.013400000  -49.335393 -117.235802  -85.467900   59.863583    0.000000    0.000000    0.000000    0.000000
  0.013600000  -49.451079 -120.081223  -85.194425   56.665241    0.000000    0.000000    0.000000    0.000000
  0.013800000  -49.394729 -120.222916  -85.488266   61.732841    0.000000    0.000000    0.000000    0.000000
  0.014000000  -49.373946 -121.694672  -86.196775   55.476986    0.000000    0.000000    0.000000    0.000000
  0.014200000  -49.248176 -121.225929  -86.272713   53.141968    0.000000    0.000000    0.000000    0.000000
  0.014400000  -48.840957 -121.905083  -86.324161   51.079380    0.000000    0.000000    0.000000    0.000000
  0.014600000  -48.855551 -120.476913  -86.571072   51.065983    0.000000    0.000000    0.000000    0.000000
  0.014800000  -48.721141 -123.437035  -86.996731   50.123379    0.000000    0.000000    0.000000    0.000000
  0.015000000  -48.790495 -121.621643  -87.524670   45.463821    0.000000    0.000000    0.000000    0.000000
  0.015200000  -48.887320 -123.689316  -87.619850   46.685810    0.000000    0.000000    0.000000    0.000000
  0.015400000  -48.594853 -122.925316  -87.958583   46.712040    0.000000    0.000000    0.000000    0.000000
  0.015600000  -48.837685 -125.577385  -88.029257   42.895744    0.000000    0.000000    0.000000    0.000000
  0.015800000  -48.733404 -125.626427  -88.584025   43.695595    0.000000    0.000000    0.000000    0.000000
  0.016000000  -48.863838 -123.353569  -89.149700   41.906178    0.000000    0.000000    0.000000    0.000000
  0.016200000  -48.620147 -125.052444  -89.044878   43.662735    0.000000    0.000000    0.000000    0.000000
  0.016400000  -48.477806 -125.984421  -89.290156   43.211048    0.000000    0.000000    0.000000    0.000000
  0.016600000  -48.854279 -127.823753  -89.818509   46.062019    0.000000    0.000000    0.000000    0.000000
  0.016800000  -48.698130 -124.883400  -89.601637   42.703892    0.000000    0.000000    0.000000    0.000000
  0.017000000  -48.643131 -127.472664  -89.556423   40.924038    0.000000    0.000000    0.000000    0.000000
  0.017200000  -48.849246 -128.035782  -89.918540   47.202374    0.000000    0.000000    0.000000    0.000000
  0.017400000  -48.547530 -128.309586  -90.792829   46.809425    0.000000    0.000000    0.000000    0.000000
  0.017600000  -48.712210 -128.419708  -90.396898   45.467503    0.000000    0.000000    0.000000    0.000000
  0.017800000  -48.706998 -128.358994  -90.300715   43.907455    0.000000    0.000000    0.000000    0.000000
  0.018000000  -48.556463 -127.928894  -90.488419   43.662628    0.000000    0.000000    0.000000    0.000000
  0.018200000  -48.590309 -128.311813  -89.593040   47.851994    0.000000    0.000000    0.000000    0.000000
  0.018400000  -48.307904 -130.336227  -90.771201   47.741096    0.000000    0.000000    0.000000    0.000000
  0.018600000  -48.436695 -132.151917  -90.894510   46.729431    0.000000    0.000000    0.000000    0.000000
  0.018800000  -48.482016 -130.936417  -90.526220   49.067654    0.000000    0.000000    0.000000    0.000000
  0.019000000  -48.444053 -131.877945  -90.491681   43.713924    0.000000    0.000000    0.000000    0.000000
  0.019200000  -48.183397 -130.838165  -90.623762   43.427357    0.000000    0.000000    0.000000    0.000000
  0.019400000  -48.294320 -133.264282  -90.969210   46.728180    0.000000    0.000000    0.000000    0.000000
  0.019600000  -48.082477 -132.309433  -90.266469   42.861191    0.000000    0.000000    0.000000    0.000000
  0.019800000  -47.798447 -133.424988  -90.149436   41.568039    0.000000    0.000000    0.000000    0.000000
  0.020000000  -47.661369 -134.261108  -91.164232   38.646736    0.000000    0.000000    0.000000    0.000000
  0.020200000  -47.773447 -134.862686  -91.154464   42.115513    0.000000    0.000000    0.000000    0.000000
  0.020400000  -47.539038 -136.044266  -91.152918   37.043655    0.000000    0.000000    0.000000    0.000000
  0.020600000  -47.154825 -135.304047  -90.629911   33.176060    0.000000    0.000000    0.000000    0.000000
  0.020800000  -47.136067 -136.053879  -90.631169   34.904423    0.000000    0.000000    0.000000    0.000000
  0.021000000  -47.252491 -135.453064  -91.938713   30.604258    0.000000    0.000000    0.000000    0.000000
  0.021200000  -47.038686 -137.891434  -91.330665   36.408970    0.000000    0.000000    0.000000    0.000000
  0.021400000  -46.869179 -138.129501  -91.436093   35.464798    0.000000    0.000000    0.000000    0.000000
  0.021600000  -46.872297 -138.507965  -92.743466   33.881035    0.000000    0.000000    0.000000    0.000000
  0.021800000  -46.508243 -138.098373  -92.583435   23.327034    0.000000    0.000000    0.000000    0.000000
  0.022000000  -46.525029 -140.538269  -93.093147   27.400593    0.000000    0.000000    0.000000    0.000000
  0.022200000  -46.573191 -140.867432  -93.044993   29.104006    0.000000    0.000000    0.000000    0.000000
  0.022400000  -46.518022 -140.870514  -93.011772   30.552721    0.000000    0.000000    0.000000    0.000000
  0.022600000  -46.411142 -139.196503  -93.383201   28.234560    0.000000    0.000000    0.000000    0.000000
  0.022800000  -46.279531 -140.922699  -94.082571   28.879276    0.000000    0.000000    0.000000    0.000000
  0.023000000  -46.307876 -140.968658  -93.190466   33.691811    0.000000    0.000000    0.000000    0.000000
  0.023200000  -46.172218 -141.108887  -93.650424   32.614540    0.000000    0.000000    0.000000    0.000000
  0.023400000  -47.201582 -140.709732  -93.707930   37.709358    0.000000    0.000000    0.000000    0.000000
  0.023600000  -46.208811 -142.152496  -93.414245   30.367075    0.000000    0.000000    0.000000    0.000000
  0.023800000  -46.161622 -142.480438  -93.537958   32.920517    0.000000    0.000000    0.000000    0.000000
  0.024000000  -46.250797 -143.325424  -94.351752   31.988901    0.000000    0.000000    0.000000    0.000000
  0.024200000  -46.197857 -143.022690  -93.834495   30.958101    0.000000    0.000000    0.000000    0.000000
  0.024400000  -46.083696 -143.012375  -94.778056   31.110426    0.000000    0.000000    0.000000    0.000000
  0.024600000  -45.987998 -142.437714  -94.385320   33.123081    0.000000    0.000000    0.000000    0.000000
  0.024800000  -46.247823 -143.576340  -93.816001   24.028152    0.000000    0.000000    0.000000    0.000000
  0.025000000  -46.256493 -143.430237  -94.166296   20.357916    0.000000    0.000000    0.000000    0.000000
  0.025200000  -46.118334 -144.356918  -95.043775   29.230886    0.000000    0.000000    0.000000    0.000000
  0.025400000  -46.265456 -144.195053  -93.731641   22.869915    0.000000    0.000000    0.000000    0.000000
  0.025600000  -46.304484 -144.131241  -93.710821   25.403748    0.000000    0.000000    0.000000    0.000000
  0.025800000  -46.351521 -144.788208  -95.380363   22.734896    0.000000    0.000000    0.000000    0.000000
  0.026000000  -46.470456 -144.887085  -94.989741   25.225456    0.000000    0.000000    0.000000    0.000000
  0.026200000  -46.419030 -146.386627  -95.798623   22.792170    0.000000    0.000000    0.000000    0.000000
  0.026400000  -46.425083 -146.296310  -94.183050   29.607819    0.000000    0.000000    0.000000    0.000000
  0.026600000  -46.476850 -147.747025  -95.449110   13.598598    0.000000    0.000000    0.000000    0.000000
  0.026800000  -46.288055 -147.248642  -94.413323   15.353457    0.000000    0.000000    0.000000    0.000000
  0.027000000  -46.208624 -147.527176  -94.846488   19.860893    0.000000    0.000000    0.000000    0.000000
  0.027200000  -46.280508 -148.421829  -93.497416   27.105644    0.000000    0.000000    0.000000    0.000000
  0.027400000  -46.233343 -148.454163  -94.377686   17.366335    0.000000    0.000000    0.000000    0.000000
  0.027600000  -46.284677 -148.873062  -95.424724   13.343636    0.000000    0.000000    0.000000    0.000000
  0.027800000  -46.270074 -148.896866  -95.579368   22.955954    0.000000    0.000000    0.000000    0.000000
  0.028000000  -46.170747 -149.522888  -95.443200   15.510194    0.000000    0.000000    0.000000    0.000000
  0.028200000  -46.090098 -150.614029  -96.442364   15.458292    0.000000    0.000000    0.000000    0.000000
  0.028400000  -46.028453 -150.260849  -96.364632   21.223648    0.000000    0.000000    0.000000    0.000000
  0.028600000  -45.976762 -151.931213  -96.512476   13.963064    0.000000    0.000000    0.000000    0.000000
  0.028800000  -45.863765 -151.960571  -96.493824   12.237015    0.000000    0.000000    0.000000    0.000000
  0.029000000  -45.717189 -151.379868  -97.327206   17.296618    0.000000    0.000000    0.000000    0.000000
  0.029200000  -45.812208 -152.992111  -97.975606   21.925760    0.000000    0.000000    0.000000    0.000000
  0.029400000  -45.685747 -153.121826  -97.052792    8.359930    0.000000    0.000000    0.000000    0.000000
  0.029600000  -45.745572 -153.110443  -97.551393   24.920204    0.000000    0.000000    0.000000    0.000000
  0.029800000  -45.725359 -152.626526  -96.422078   20.620152    0.000000    0.000000    0.000000    0.000000
  0.030000000  -45.708509 -153.805786  -96.126664   16.485447    0.000000    0.000000    0.000000    0.000000
  0.030200000  -45.481646 -153.679001  -96.879081   16.741276    0.000000    0.000000    0.000000    0.000000
  0.030400000  -45.753717 -154.038162  -96.764345   13.085109    0.000000    0.000000    0.000000    0.000000
  0.030600000  -45.683702 -154.895981  -97.114828   16.747393    0.000000    0.000000    0.000000    0.000000
  0.030800000  -45.652002 -154.769455  -98.777672   25.230900    0.000000    0.000000    0.000000    0.000000
  0.031000000  -45.560582 -155.539169  -97.153087   23.489742    0.000000    0.000000    0.000000    0.000000
  0.031200000  -45.298294 -156.938065  -97.476499   17.535269    0.000000    0.000000    0.000000    0.000000
  0.031400000  -45.482249 -155.434479  -97.170888   13.711103    0.000000    0.000000    0.000000    0.000000
  0.031600000  -45.414495 -156.919418  -97.215363   22.163504    0.000000    0.000000    0.000000    0.000000
  0.031800000  -45.261957 -155.584793 -100.210691   28.134602    0.000000    0.000000    0.000000    0.000000
  0.032000000  -45.436818 -155.737213  -96.943271   10.407870    0.000000    0.000000    0.000000    0.000000
  0.032200000  -45.529440 -156.144730  -98.532851   18.846132    0.000000    0.000000    0.000000    0.000000
  0.032400000  -45.357242 -157.248840  -98.531448   17.201189    0.000000    0.000000    0.000000    0.000000
  0.032600000  -45.388329 -155.556534  -97.299547   18.495213    0.000000    0.000000    0.000000    0.000000
  0.032800000  -45.522244 -157.083252  -96.787883   10.218193    0.000000    0.000000    0.000000    0.000000
  0.033000000  -45.425185 -155.725647  -96.182414   12.889423    0.000000    0.000000    0.000000    0.000000
  0.033200000  -45.382985 -157.825119  -97.989560   14.383640    0.000000    0.000000    0.000000    0.000000
  0.033400000  -45.644142 -157.235367  -97.564758    3.375479    0.000000    0.000000    0.000000    0.000000
  0.033600000  -45.392601 -158.225739  -97.315189   17.553408    0.000000    0.000000    0.000000    0.000000
  0.033800000  -45.560312 -158.021057  -97.664627    8.990242    0.000000    0.000000    0.000000    0.000000
  0.034000000  -45.540319 -159.348587  -99.867891    4.042323    0.000000    0.000000    0.000000    0.000000
  0.034200000  -45.461881 -158.491852  -98.837763    0.600213    0.000000    0.000000    0.000000    0.000000
  0.034400000  -45.304710 -159.428223  -97.642329   12.006538    0.000000    0.000000    0.000000    0.000000
  0.034600000  -45.535188 -159.025864  -98.028429    4.081061    0.000000    0.000000    0.000000    0.000000
  0.034800000  -45.331375 -159.726440  -97.722707   15.269482    0.000000    0.000000    0.000000    0.000000
  0.035000000  -45.217885 -160.390930  -98.184441   17.506472    0.000000    0.000000    0.000000    0.000000
  0.035200000  -45.257468 -161.440567  -99.939394   13.852874    0.000000    0.000000    0.000000    0.000000
  0.035400000  -45.200216 -161.051880  -99.407017    6.890891    0.000000    0.000000    0.000000    0.000000
  0.035600000  -45.051955 -161.600327 -100.247708   14.258239    0.000000    0.000000    0.000000    0.000000
  0.035800000  -45.066333 -162.411682  -98.133771   13.456903    0.000000    0.000000    0.000000    0.000000
  0.036000000  -45.017557 -162.951599 -100.373798   11.007758    0.000000    0.000000    0.000000    0.000000
  0.036200000  -44.745833 -163.506729  -99.372409    4.676408    0.000000    0.000000    0.000000    0.000000
  0.036400000  -44.950803 -163.388153  -98.676682   -1.629220    0.000000    0.000000    0.000000    0.000000
  0.036600000  -44.744674 -163.035110 -102.513489    8.760265    0.000000    0.000000    0.000000    0.000000
  0.036800000  -44.721332 -162.550949 -100.291526   26.332052    0.000000    0.000000    0.000000    0.000000
  0.037000000  -44.596811 -164.510544 -100.665690    6.359163    0.000000    0.000000    0.000000    0.000000
  0.037200000  -44.551396 -164.095001  -98.736509   14.777830    0.000000    0.000000    0.000000    0.000000
  0.037400000  -44.650611 -164.240982  -97.632110   21.202059    0.000000    0.000000    0.000000    0.000000
  0.037600000  -44.593853 -164.660782  -99.374658   25.591784    0.000000    0.000000    0.000000    0.000000
  0.037800000  -44.482113 -165.044357 -100.795608   -9.258836    0.000000    0.000000    0.000000    0.000000
  0.038000000  -44.485476 -164.001953  -98.838971    2.662368    0.000000    0.000000    0.000000    0.000000
  0.038200000  -44.575941 -165.491547  -99.127455   11.126903    0.000000    0.000000    0.000000    0.000000
  0.038400000  -44.545767 -165.589783 -100.849614    5.117870    0.000000    0.000000    0.000000    0.000000
  0.038600000  -44.563975 -165.270737 -100.640347   14.180139    0.000000    0.000000    0.000000    0.000000
  0.038800000  -44.579003 -164.864883  -99.142124    2.166184    0.000000    0.000000    0.000000    0.000000
  0.039000000  -44.562733 -166.836639  -99.157952   16.449902    0.000000    0.000000    0.000000    0.000000
  0.039200000  -44.526452 -164.954636  -98.255236    0.015535    0.000000    0.000000    0.000000    0.000000
  0.039400000  -44.601432 -165.590591  -99.744648    6.976497    0.000000    0.000000    0.000000    0.000000
  0.039600000  -44.599073 -166.270615  -99.322119   21.372349    0.000000    0.000000    0.000000    0.000000
  0.039800000  -44.648851 -166.364197 -101.800273   13.865396    0.000000    0.000000    0.000000    0.000000
  0.040000000  -44.623550 -165.838608 -100.392350    2.037192    0.000000    0.000000    0.000000    0.000000
  0.040200000  -44.632479 -167.799973 -101.483992   -7.258560    0.000000    0.000000    0.000000    0.000000
  0.040400000  -44.710137 -167.110214  -98.802747   -1.071025    0.000000    0.000000    0.000000    0.000000
  0.040600000  -44.712235 -166.984863 -100.429620    2.070618    0.000000    0.000000    0.000000    0.000000
  0.040800000  -44.798683 -166.827408  -99.035392   -9.340468    0.000000    0.000000    0.000000    0.000000
  0.041000000  -44.754476 -167.571167 -101.378105    6.175964    0.000000    0.000000    0.000000    0.000000
  0.041200000  -44.834780 -167.585419 -104.771581    0.572118    0.000000    0.000000    0.000000    0.000000
  0.041400000  -44.758280 -167.864792 -104.701625   21.567245    0.000000    0.000000    0.000000    0.000000
  0.041600000  -44.985516 -168.527191 -101.400416   -5.124778    0.000000    0.000000    0.000000    0.000000
  0.041800000  -44.927159 -168.834290 -100.491581   15.680035    0.000000    0.000000    0.000000    0.000000
  0.042000000  -45.006221 -169.001968 -103.101812   12.346392    0.000000    0.000000    0.000000    0.000000
  0.042200000  -44.981523 -170.348907 -102.529863   -9.343289    0.000000    0.000000    0.000000    0.000000
  0.042400000  -44.761262 -170.613022 -102.404430   20.671778    0.000000    0.000000    0.000000    0.000000
  0.042600000  -44.780610 -169.971298 -100.110798   14.369224    0.000000    0.000000    0.000000    0.000000
  0.042800000  -44.893609 -170.548035 -104.069335   23.704449    0.000000    0.000000    0.000000    0.000000
