! Anritsu VNA Master:                     Model: MS2036C/10/77
! SN:                                  1601066
! /card0/usr/254.ns.sma.r20.31.s2p
! Existing Calibration Information:
! TYPE:                         Current Settings,       Active Cal Settings
! TIME:             	   12/20/2017 02:07:19 PM,    12/20/2017 02:00:00 PM
! INTERNAL TEMP:    	                   47.3 C,                    47.0 C
! # POINTS:         	                      501,                       501
! START FREQ:       	               10.000 MHz,                10.000 MHz
! STOP FREQ:        	              110.000 MHz,               110.000 MHz
! SOURCE POWER:     	                     High,                      High
! IFBW:             	                   100 Hz,                    100 Hz
! AVG FACTOR:       	                       1 ,                        1 
! REF PLANE 1:      	                     0 mm,                      0 mm
! REF PLANE 2:      	                     0 mm,                      0 mm
! CAL TYPE:         	                 Full S11,                  Full S11
! CAL METHOD:       	                     SOLT,                      SOLT
! CAL LINE TYPE:    	                     Coax,                      Coax
! DUT PORT 1:       	                N-Conn(F),                 N-Conn(F)
! DUT PORT 2:       	                K-Conn(F),                 K-Conn(F)
! CAL STATUS:       	        OK: Accuracy High,                        --
# GHZ S DB R 50.0
! FREQ.GHZ       S11DB        S11A       S21DB        S21A       S12DB        S12A       S22DB        S22A
  0.010000000   -7.212195  167.684280  -82.664232   79.410797    0.000000    0.000000    0.000000    0.000000
  0.010200000   -7.202573  167.511261  -82.215754   75.174889    0.000000    0.000000    0.000000    0.000000
  0.010400000   -7.197978  167.282455  -82.775756   73.295731    0.000000    0.000000    0.000000    0.000000
  0.010600000   -7.202308  167.023392  -83.163647   72.936356    0.000000    0.000000    0.000000    0.000000
  0.010800000   -7.206689  166.794556  -83.602077   70.416451    0.000000    0.000000    0.000000    0.000000
  0.011000000   -7.210024  166.527451  -83.396494   69.105057    0.000000    0.000000    0.000000    0.000000
  0.011200000   -7.202146  166.284607  -83.516472   66.418648    0.000000    0.000000    0.000000    0.000000
  0.011400000   -7.203113  166.046936  -84.007093   64.661140    0.000000    0.000000    0.000000    0.000000
  0.011600000   -7.215151  165.826431  -84.383594   62.753620    0.000000    0.000000    0.000000    0.000000
  0.011800000   -7.213392  165.590210  -84.777803   61.559067    0.000000    0.000000    0.000000    0.000000
  0.012000000   -7.217656  165.318008  -85.331545   64.068634    0.000000    0.000000    0.000000    0.000000
  0.012200000   -7.217913  165.091599  -85.416007   60.777927    0.000000    0.000000    0.000000    0.000000
  0.012400000   -7.217655  164.809723  -85.549207   60.005604    0.000000    0.000000    0.000000    0.000000
  0.012600000   -7.218803  164.590149  -85.801171   60.600975    0.000000    0.000000    0.000000    0.000000
  0.012800000   -7.221489  164.323441  -86.162477   58.585701    0.000000    0.000000    0.000000    0.000000
  0.013000000   -7.225450  164.093246  -86.578497   60.006947    0.000000    0.000000    0.000000    0.000000
  0.013200000   -7.230088  163.856354  -86.757266   58.696091    0.000000    0.000000    0.000000    0.000000
  0.013400000   -7.229664  163.598129  -87.067329   58.167450    0.000000    0.000000    0.000000    0.000000
  0.013600000   -7.225163  163.356827  -87.464983   61.425449    0.000000    0.000000    0.000000    0.000000
  0.013800000   -7.221353  163.124542  -87.496009   59.273323    0.000000    0.000000    0.000000    0.000000
  0.014000000   -7.224180  162.889740  -87.738160   59.431648    0.000000    0.000000    0.000000    0.000000
  0.014200000   -7.227840  162.623764  -87.902062   54.230259    0.000000    0.000000    0.000000    0.000000
  0.014400000   -7.225159  162.358078  -87.228703   55.515274    0.000000    0.000000    0.000000    0.000000
  0.014600000   -7.227448  162.163727  -87.830185   56.369274    0.000000    0.000000    0.000000    0.000000
  0.014800000   -7.230111  161.898590  -87.787705   57.677723    0.000000    0.000000    0.000000    0.000000
  0.015000000   -7.232152  161.662292  -87.745613   56.451809    0.000000    0.000000    0.000000    0.000000
  0.015200000   -7.232663  161.394180  -88.219228   55.018681    0.000000    0.000000    0.000000    0.000000
  0.015400000   -7.232739  161.138855  -88.317969   59.447781    0.000000    0.000000    0.000000    0.000000
  0.015600000   -7.232912  160.959610  -88.226064   53.909355    0.000000    0.000000    0.000000    0.000000
  0.015800000   -7.234424  160.665939  -88.160477   53.736057    0.000000    0.000000    0.000000    0.000000
  0.016000000   -7.238097  160.410507  -88.200632   54.625317    0.000000    0.000000    0.000000    0.000000
  0.016200000   -7.236343  160.176468  -87.842968   50.678005    0.000000    0.000000    0.000000    0.000000
  0.016400000   -7.234825  159.966736  -88.393336   48.640285    0.000000    0.000000    0.000000    0.000000
  0.016600000   -7.235579  159.741150  -88.494158   50.185730    0.000000    0.000000    0.000000    0.000000
  0.016800000   -7.234904  159.499435  -89.230174   42.477821    0.000000    0.000000    0.000000    0.000000
  0.017000000   -7.235330  159.250259  -88.482531   47.803486    0.000000    0.000000    0.000000    0.000000
  0.017200000   -7.235545  159.011642  -88.924159   44.232422    0.000000    0.000000    0.000000    0.000000
  0.017400000   -7.233954  158.782043  -88.922576   43.452534    0.000000    0.000000    0.000000    0.000000
  0.017600000   -7.238417  158.528549  -88.660351   45.002636    0.000000    0.000000    0.000000    0.000000
  0.017800000   -7.240572  158.291077  -89.437350   44.579350    0.000000    0.000000    0.000000    0.000000
  0.018000000   -7.241586  158.059830  -89.239936   38.475269    0.000000    0.000000    0.000000    0.000000
  0.018200000   -7.243033  157.826965  -90.570902   38.114201    0.000000    0.000000    0.000000    0.000000
  0.018400000   -7.244773  157.583740  -89.365790   38.775600    0.000000    0.000000    0.000000    0.000000
  0.018600000   -7.243561  157.359238  -90.419028   40.722416    0.000000    0.000000    0.000000    0.000000
  0.018800000   -7.247166  157.144669  -90.548350   35.153049    0.000000    0.000000    0.000000    0.000000
  0.019000000   -7.248379  156.874603  -90.806087   33.117279    0.000000    0.000000    0.000000    0.000000
  0.019200000   -7.250978  156.656219  -90.460086   35.973652    0.000000    0.000000    0.000000    0.000000
  0.019400000   -7.248295  156.430054  -90.378062   36.313091    0.000000    0.000000    0.000000    0.000000
  0.019600000   -7.251365  156.189362  -91.614416   33.697392    0.000000    0.000000    0.000000    0.000000
  0.019800000   -7.254943  155.956680  -92.310879   41.517429    0.000000    0.000000    0.000000    0.000000
  0.020000000   -7.258129  155.712082  -91.448022   36.642612    0.000000    0.000000    0.000000    0.000000
  0.020200000   -7.253918  155.463257  -91.629488   31.337786    0.000000    0.000000    0.000000    0.000000
  0.020400000   -7.255043  155.235916  -91.385542   42.116821    0.000000    0.000000    0.000000    0.000000
  0.020600000   -7.249530  154.993378  -91.566130   37.610531    0.000000    0.000000    0.000000    0.000000
  0.020800000   -7.246303  154.736725  -92.874715   36.845375    0.000000    0.000000    0.000000    0.000000
  0.021000000   -7.245608  154.492218  -92.416248   32.796043    0.000000    0.000000    0.000000    0.000000
  0.021200000   -7.246594  154.236465  -91.396117   37.198475    0.000000    0.000000    0.000000    0.000000
  0.021400000   -7.251302  154.004700  -91.880689   38.207836    0.000000    0.000000    0.000000    0.000000
  0.021600000   -7.251015  153.774933  -91.610849   36.998669    0.000000    0.000000    0.000000    0.000000
  0.021800000   -7.253706  153.535233  -91.576043   38.747952    0.000000    0.000000    0.000000    0.000000
  0.022000000   -7.256352  153.292679  -92.401431   35.623047    0.000000    0.000000    0.000000    0.000000
  0.022200000   -7.258060  153.073044  -92.599444   31.458889    0.000000    0.000000    0.000000    0.000000
  0.022400000   -7.257043  152.836456  -91.887381   32.245174    0.000000    0.000000    0.000000    0.000000
  0.022600000   -7.257161  152.613083  -92.224151   38.366753    0.000000    0.000000    0.000000    0.000000
  0.022800000   -7.261319  152.356796  -92.735713   29.608809    0.000000    0.000000    0.000000    0.000000
  0.023000000   -7.260865  152.109634  -92.566173   32.934109    0.000000    0.000000    0.000000    0.000000
  0.023200000   -7.262197  151.873947  -93.455364   29.210865    0.000000    0.000000    0.000000    0.000000
  0.023400000   -7.261025  151.625229  -93.125181   27.760681    0.000000    0.000000    0.000000    0.000000
  0.023600000   -7.260357  151.390457  -93.316118   32.693954    0.000000    0.000000    0.000000    0.000000
  0.023800000   -7.258962  151.148773  -93.599382   31.901525    0.000000    0.000000    0.000000    0.000000
  0.024000000   -7.257970  150.889862  -93.162482   26.439058    0.000000    0.000000    0.000000    0.000000
  0.024200000   -7.257419  150.643112  -93.060634   29.799511    0.000000    0.000000    0.000000    0.000000
  0.024400000   -7.255535  150.396698  -93.402601   26.923008    0.000000    0.000000    0.000000    0.000000
  0.024600000   -7.253943  150.154007  -94.324392   27.257631    0.000000    0.000000    0.000000    0.000000
  0.024800000   -7.255744  149.884109  -93.936382   22.593899    0.000000    0.000000    0.000000    0.000000
  0.025000000   -7.253095  149.626266  -94.064210   18.579908    0.000000    0.000000    0.000000    0.000000
  0.025200000   -7.251090  149.439178  -93.617452   23.474092    0.000000    0.000000    0.000000    0.000000
  0.025400000   -7.252542  149.243011  -94.435307   14.780004    0.000000    0.000000    0.000000    0.000000
  0.025600000   -7.257505  149.007660  -95.201479   24.819471    0.000000    0.000000    0.000000    0.000000
  0.025800000   -7.259416  148.790649  -94.960435   23.936520    0.000000    0.000000    0.000000    0.000000
  0.026000000   -7.259728  148.574356  -95.092955   22.815950    0.000000    0.000000    0.000000    0.000000
  0.026200000   -7.260544  148.356430  -94.691931   30.565319    0.000000    0.000000    0.000000    0.000000
  0.026400000   -7.262019  148.106781  -96.021705   24.301926    0.000000    0.000000    0.000000    0.000000
  0.026600000   -7.268394  147.887604  -96.090407   16.501522    0.000000    0.000000    0.000000    0.000000
  0.026800000   -7.271747  147.604050  -95.490245   21.519892    0.000000    0.000000    0.000000    0.000000
  0.027000000   -7.270847  147.353729  -94.915676   15.226750    0.000000    0.000000    0.000000    0.000000
  0.027200000   -7.272082  147.069214  -94.753478   14.794809    0.000000    0.000000    0.000000    0.000000
  0.027400000   -7.270453  146.823883  -95.786744   23.103065    0.000000    0.000000    0.000000    0.000000
  0.027600000   -7.262474  146.547791  -96.619289   19.318462    0.000000    0.000000    0.000000    0.000000
  0.027800000   -7.262372  146.315308  -94.885408   23.796196    0.000000    0.000000    0.000000    0.000000
  0.028000000   -7.261975  146.048950  -95.737483   19.347998    0.000000    0.000000    0.000000    0.000000
  0.028200000   -7.259382  145.787308  -95.912389   18.892817    0.000000    0.000000    0.000000    0.000000
  0.028400000   -7.256476  145.557022  -95.766975   24.151089    0.000000    0.000000    0.000000    0.000000
  0.028600000   -7.256831  145.357498  -96.821473   24.758081    0.000000    0.000000    0.000000    0.000000
  0.028800000   -7.252070  145.153931  -94.999813   21.095314    0.000000    0.000000    0.000000    0.000000
  0.029000000   -7.249686  144.943588  -95.858026   23.919651    0.000000    0.000000    0.000000    0.000000
  0.029200000   -7.249192  144.747772  -96.208485   15.755617    0.000000    0.000000    0.000000    0.000000
  0.029400000   -7.248285  144.578888  -97.074690   19.477409    0.000000    0.000000    0.000000    0.000000
  0.029600000   -7.249631  144.376617  -96.051996   22.812616    0.000000    0.000000    0.000000    0.000000
  0.029800000   -7.248479  144.158340  -97.693454   20.940844    0.000000    0.000000    0.000000    0.000000
  0.030000000   -7.253485  143.913849  -96.095492   17.693771    0.000000    0.000000    0.000000    0.000000
  0.030200000   -7.256474  143.673325  -96.105314   21.035046    0.000000    0.000000    0.000000    0.000000
  0.030400000   -7.257801  143.427231  -97.127027    8.670912    0.000000    0.000000    0.000000    0.000000
  0.030600000   -7.257108  143.162659  -97.596030   16.977915    0.000000    0.000000    0.000000    0.000000
  0.030800000   -7.257325  142.916702  -97.550977    9.214694    0.000000    0.000000    0.000000    0.000000
  0.031000000   -7.260417  142.668411  -97.734800   14.424541    0.000000    0.000000    0.000000    0.000000
  0.031200000   -7.252390  142.497009  -97.764142   12.558362    0.000000    0.000000    0.000000    0.000000
  0.031400000   -7.258017  142.213806  -96.592869   23.182049    0.000000    0.000000    0.000000    0.000000
  0.031600000   -7.258260  141.964676 -101.116558    8.922831    0.000000    0.000000    0.000000    0.000000
  0.031800000   -7.258207  141.690979  -96.941826   13.510182    0.000000    0.000000    0.000000    0.000000
  0.032000000   -7.254320  141.468155  -96.170654    8.551841    0.000000    0.000000    0.000000    0.000000
  0.032200000   -7.257418  141.219223  -98.170135   18.810692    0.000000    0.000000    0.000000    0.000000
  0.032400000   -7.253313  140.966919  -97.241281   24.888386    0.000000    0.000000    0.000000    0.000000
  0.032600000   -7.248170  140.745987  -97.455779    8.774818    0.000000    0.000000    0.000000    0.000000
  0.032800000   -7.247814  140.529404  -97.289995   20.539503    0.000000    0.000000    0.000000    0.000000
  0.033000000   -7.240174  140.319977  -99.448004    7.306896    0.000000    0.000000    0.000000    0.000000
  0.033200000   -7.238017  140.114960  -98.595693   11.387552    0.000000    0.000000    0.000000    0.000000
  0.033400000   -7.239417  139.912598  -96.383648   23.824059    0.000000    0.000000    0.000000    0.000000
  0.033600000   -7.241316  139.704697  -98.666036   10.996490    0.000000    0.000000    0.000000    0.000000
  0.033800000   -7.244221  139.476517  -98.235253   22.127600    0.000000    0.000000    0.000000    0.000000
  0.034000000   -7.250814  139.226105  -98.094007   13.581314    0.000000    0.000000    0.000000    0.000000
  0.034200000   -7.252046  138.959442  -98.375943   15.551826    0.000000    0.000000    0.000000    0.000000
  0.034400000   -7.257271  138.717728  -97.276140   14.413120    0.000000    0.000000    0.000000    0.000000
  0.034600000   -7.259855  138.420502  -97.869861   20.812817    0.000000    0.000000    0.000000    0.000000
  0.034800000   -7.262079  138.162201  -97.849691   11.778518    0.000000    0.000000    0.000000    0.000000
  0.035000000   -7.268246  137.903473  -98.197202   13.934234    0.000000    0.000000    0.000000    0.000000
  0.035200000   -7.265908  137.665985  -99.528514   13.189814    0.000000    0.000000    0.000000    0.000000
  0.035400000   -7.263538  137.385910  -98.109643   11.504045    0.000000    0.000000    0.000000    0.000000
  0.035600000   -7.257499  137.124496  -97.433634    7.792739    0.000000    0.000000    0.000000    0.000000
  0.035800000   -7.255660  136.846191  -99.528770    0.078801    0.000000    0.000000    0.000000    0.000000
  0.036000000   -7.250235  136.604355  -97.753788    6.040878    0.000000    0.000000    0.000000    0.000000
  0.036200000   -7.242484  136.385254  -98.939238   15.051803    0.000000    0.000000    0.000000    0.000000
  0.036400000   -7.236430  136.150284  -98.957419    7.777653    0.000000    0.000000    0.000000    0.000000
  0.036600000   -7.229132  135.927094  -96.891427   10.047275    0.000000    0.000000    0.000000    0.000000
  0.036800000   -7.226199  135.732941  -98.938334    9.170274    0.000000    0.000000    0.000000    0.000000
  0.037000000   -7.225802  135.542160  -98.831143   13.177494    0.000000    0.000000    0.000000    0.000000
  0.037200000   -7.225533  135.335861  -98.326188    1.127172    0.000000    0.000000    0.000000    0.000000
  0.037400000   -7.225959  135.124466 -102.231446    3.428064    0.000000    0.000000    0.000000    0.000000
  0.037600000   -7.225737  134.889328 -100.368139    4.407809    0.000000    0.000000    0.000000    0.000000
  0.037800000   -7.232318  134.657639 -101.018955   12.262901    0.000000    0.000000    0.000000    0.000000
  0.038000000   -7.231632  134.468277 -100.697727    3.375446    0.000000    0.000000    0.000000    0.000000
  0.038200000   -7.240255  134.165527  -99.875281   18.856363    0.000000    0.000000    0.000000    0.000000
  0.038400000   -7.243180  133.943970 -100.122738   13.100711    0.000000    0.000000    0.000000    0.000000
  0.038600000   -7.243383  133.738037 -100.676513   23.447493    0.000000    0.000000    0.000000    0.000000
  0.038800000   -7.245857  133.473175 -102.529084   11.765168    0.000000    0.000000    0.000000    0.000000
  0.039000000   -7.245506  133.236526 -100.665462   12.118877    0.000000    0.000000    0.000000    0.000000
  0.039200000   -7.244782  133.024521 -101.109913    0.995834    0.000000    0.000000    0.000000    0.000000
  0.039400000   -7.245835  132.759201 -100.872689    8.048904    0.000000    0.000000    0.000000    0.000000
  0.039600000   -7.242808  132.528107  -99.995659   -4.180493    0.000000    0.000000    0.000000    0.000000
  0.039800000   -7.238568  132.264008  -98.020526    5.302099    0.000000    0.000000    0.000000    0.000000
  0.040000000   -7.232317  132.024750 -101.650432    3.505637    0.000000    0.000000    0.000000    0.000000
  0.040200000   -7.227004  131.785370  -98.114001   21.463898    0.000000    0.000000    0.000000    0.000000
  0.040400000   -7.219633  131.583298  -99.674244   -1.321840    0.000000    0.000000    0.000000    0.000000
  0.040600000   -7.219690  131.408340 -101.430561    9.069451    0.000000    0.000000    0.000000    0.000000
  0.040800000   -7.221450  131.195602 -100.327546   11.721050    0.000000    0.000000    0.000000    0.000000
  0.041000000   -7.223783  131.022842  -99.806295    7.292593    0.000000    0.000000    0.000000    0.000000
  0.041200000   -7.227348  130.818649 -100.139622    8.365419    0.000000    0.000000    0.000000    0.000000
  0.041400000   -7.235235  130.570465 -100.952069    1.254264    0.000000    0.000000    0.000000    0.000000
  0.041600000   -7.242321  130.354553  -99.731218    9.571435    0.000000    0.000000    0.000000    0.000000
  0.041800000   -7.248654  130.100235  -99.856198    7.852609    0.000000    0.000000    0.000000    0.000000
  0.042000000   -7.252999  129.854813 -101.386676   19.320139    0.000000    0.000000    0.000000    0.000000
  0.042200000   -7.256696  129.607651 -100.822422    2.941609    0.000000    0.000000    0.000000    0.000000
  0.042400000   -7.260322  129.330185 -103.575308   -8.493887    0.000000    0.000000    0.000000    0.000000
  0.042600000   -7.256680  129.106750  -99.006024   15.150379    0.000000    0.000000    0.000000    0.000000
  0.042800000   -7.255531  128.820114  -99.876261    8.706278    0.000000    0.000000    0.000000    0.000000
