! Anritsu VNA Master:                     Model: MS2036C/10/77
! SN:                                  1601066
! /card0/usr/254.ns.sma.r200.22.s2p
! Existing Calibration Information:
! TYPE:                         Current Settings,       Active Cal Settings
! TIME:             	   12/20/2017 01:54:14 PM,    12/20/2017 01:40:30 PM
! INTERNAL TEMP:    	                   47.0 C,                    46.0 C
! # POINTS:         	                      501,                       501
! START FREQ:       	               10.000 MHz,                10.000 MHz
! STOP FREQ:        	              110.000 MHz,               110.000 MHz
! SOURCE POWER:     	                     High,                      High
! IFBW:             	                   100 Hz,                    100 Hz
! AVG FACTOR:       	                       1 ,                        1 
! REF PLANE 1:      	                     0 mm,                      0 mm
! REF PLANE 2:      	                     0 mm,                      0 mm
! CAL TYPE:         	                 Full S11,                  Full S11
! CAL METHOD:       	                     SOLT,                      SOLT
! CAL LINE TYPE:    	                     Coax,                      Coax
! DUT PORT 1:       	                N-Conn(F),                 N-Conn(F)
! DUT PORT 2:       	                K-Conn(F),                 K-Conn(F)
! CAL STATUS:       	        OK: Accuracy High,                        --
# GHZ S DB R 50.0
! FREQ.GHZ       S11DB        S11A       S21DB        S21A       S12DB        S12A       S22DB        S22A
  0.010000000   -4.550607  -10.709346  -83.831607   75.611717    0.000000    0.000000    0.000000    0.000000
  0.010200000   -4.539266  -10.899709  -84.655996   75.552017    0.000000    0.000000    0.000000    0.000000
  0.010400000   -4.537516  -11.144422  -84.687413   75.337135    0.000000    0.000000    0.000000    0.000000
  0.010600000   -4.539301  -11.324656  -84.650139   73.972725    0.000000    0.000000    0.000000    0.000000
  0.010800000   -4.539501  -11.541902  -84.873574   72.764145    0.000000    0.000000    0.000000    0.000000
  0.011000000   -4.543991  -11.771934  -84.518013   78.416763    0.000000    0.000000    0.000000    0.000000
  0.011200000   -4.544351  -12.026058  -85.102257   76.273056    0.000000    0.000000    0.000000    0.000000
  0.011400000   -4.542222  -12.235824  -85.170441   74.967026    0.000000    0.000000    0.000000    0.000000
  0.011600000   -4.543009  -12.450391  -85.382960   75.160667    0.000000    0.000000    0.000000    0.000000
  0.011800000   -4.542068  -12.675989  -85.347249   75.050140    0.000000    0.000000    0.000000    0.000000
  0.012000000   -4.542208  -12.886018  -85.051673   70.865906    0.000000    0.000000    0.000000    0.000000
  0.012200000   -4.542511  -13.116233  -85.053096   71.703117    0.000000    0.000000    0.000000    0.000000
  0.012400000   -4.539312  -13.332755  -85.326265   68.674286    0.000000    0.000000    0.000000    0.000000
  0.012600000   -4.541888  -13.568338  -85.319631   67.581963    0.000000    0.000000    0.000000    0.000000
  0.012800000   -4.543925  -13.780925  -85.197144   65.682770    0.000000    0.000000    0.000000    0.000000
  0.013000000   -4.541479  -13.971194  -85.244138   64.939140    0.000000    0.000000    0.000000    0.000000
  0.013200000   -4.540294  -14.192221  -85.333064   62.877007    0.000000    0.000000    0.000000    0.000000
  0.013400000   -4.542339  -14.385947  -85.540101   62.013153    0.000000    0.000000    0.000000    0.000000
  0.013600000   -4.537901  -14.590375  -85.792690   60.547272    0.000000    0.000000    0.000000    0.000000
  0.013800000   -4.534968  -14.800496  -85.783207   58.786598    0.000000    0.000000    0.000000    0.000000
  0.014000000   -4.537570  -14.992569  -85.692051   58.462910    0.000000    0.000000    0.000000    0.000000
  0.014200000   -4.538175  -15.215794  -85.858011   54.327774    0.000000    0.000000    0.000000    0.000000
  0.014400000   -4.537956  -15.409121  -86.163752   53.403847    0.000000    0.000000    0.000000    0.000000
  0.014600000   -4.537751  -15.629927  -86.422268   49.835575    0.000000    0.000000    0.000000    0.000000
  0.014800000   -4.541902  -15.831391  -87.228019   49.549046    0.000000    0.000000    0.000000    0.000000
  0.015000000   -4.541989  -16.049683  -86.787722   50.165199    0.000000    0.000000    0.000000    0.000000
  0.015200000   -4.544188  -16.244287  -87.595026   44.741436    0.000000    0.000000    0.000000    0.000000
  0.015400000   -4.545185  -16.462250  -88.156986   46.366814    0.000000    0.000000    0.000000    0.000000
  0.015600000   -4.548285  -16.649021  -88.868763   45.017433    0.000000    0.000000    0.000000    0.000000
  0.015800000   -4.548511  -16.881817  -89.008676   48.293507    0.000000    0.000000    0.000000    0.000000
  0.016000000   -4.551336  -17.105511  -88.627484   43.942238    0.000000    0.000000    0.000000    0.000000
  0.016200000   -4.553428  -17.290701  -89.274352   42.166702    0.000000    0.000000    0.000000    0.000000
  0.016400000   -4.557319  -17.502747  -88.976506   48.442612    0.000000    0.000000    0.000000    0.000000
  0.016600000   -4.559626  -17.729378  -89.946761   49.793999    0.000000    0.000000    0.000000    0.000000
  0.016800000   -4.561260  -17.954163  -89.724297   47.726337    0.000000    0.000000    0.000000    0.000000
  0.017000000   -4.564216  -18.188301  -90.086559   48.107391    0.000000    0.000000    0.000000    0.000000
  0.017200000   -4.560673  -18.408331  -90.271277   51.276375    0.000000    0.000000    0.000000    0.000000
  0.017400000   -4.559490  -18.640148  -90.699890   46.321308    0.000000    0.000000    0.000000    0.000000
  0.017600000   -4.564301  -18.871193  -90.015844   48.124462    0.000000    0.000000    0.000000    0.000000
  0.017800000   -4.562615  -19.092384  -89.865422   46.024372    0.000000    0.000000    0.000000    0.000000
  0.018000000   -4.563922  -19.319162  -90.624138   45.449200    0.000000    0.000000    0.000000    0.000000
  0.018200000   -4.566438  -19.542469  -90.303961   45.463589    0.000000    0.000000    0.000000    0.000000
  0.018400000   -4.571225  -19.784584  -90.680739   47.999302    0.000000    0.000000    0.000000    0.000000
  0.018600000   -4.573138  -19.989761  -90.953066   44.959824    0.000000    0.000000    0.000000    0.000000
  0.018800000   -4.574067  -20.239325  -90.919158   50.237316    0.000000    0.000000    0.000000    0.000000
  0.019000000   -4.571184  -20.460178  -90.628133   41.761452    0.000000    0.000000    0.000000    0.000000
  0.019200000   -4.573935  -20.689220  -89.680555   45.891766    0.000000    0.000000    0.000000    0.000000
  0.019400000   -4.573882  -20.898911  -90.217872   41.552048    0.000000    0.000000    0.000000    0.000000
  0.019600000   -4.572316  -21.139452  -90.279086   38.615860    0.000000    0.000000    0.000000    0.000000
  0.019800000   -4.572779  -21.362001  -90.819671   42.882088    0.000000    0.000000    0.000000    0.000000
  0.020000000   -4.570227  -21.563593  -90.330437   35.454559    0.000000    0.000000    0.000000    0.000000
  0.020200000   -4.567146  -21.793705  -91.026930   39.260910    0.000000    0.000000    0.000000    0.000000
  0.020400000   -4.565721  -22.006798  -91.661712   35.182621    0.000000    0.000000    0.000000    0.000000
  0.020600000   -4.564624  -22.237669  -90.963906   38.729809    0.000000    0.000000    0.000000    0.000000
  0.020800000   -4.562570  -22.458704  -91.070189   30.399561    0.000000    0.000000    0.000000    0.000000
  0.021000000   -4.565800  -22.679850  -91.458033   28.959023    0.000000    0.000000    0.000000    0.000000
  0.021200000   -4.564562  -22.903688  -91.352130   29.024851    0.000000    0.000000    0.000000    0.000000
  0.021400000   -4.562976  -23.133492  -91.772997   33.913666    0.000000    0.000000    0.000000    0.000000
  0.021600000   -4.566118  -23.336012  -91.253180   29.892780    0.000000    0.000000    0.000000    0.000000
  0.021800000   -4.563296  -23.560854  -92.037549   32.413563    0.000000    0.000000    0.000000    0.000000
  0.022000000   -4.566151  -23.745886  -92.649584   27.402418    0.000000    0.000000    0.000000    0.000000
  0.022200000   -4.569067  -23.934029  -93.291828   32.382339    0.000000    0.000000    0.000000    0.000000
  0.022400000   -4.567930  -24.150965  -93.428884   23.092102    0.000000    0.000000    0.000000    0.000000
  0.022600000   -4.567999  -24.346596  -93.759930   31.829241    0.000000    0.000000    0.000000    0.000000
  0.022800000   -4.565642  -24.549183  -94.156379   29.586123    0.000000    0.000000    0.000000    0.000000
  0.023000000   -4.570297  -24.777592  -92.809716   32.317715    0.000000    0.000000    0.000000    0.000000
  0.023200000   -4.573862  -24.984150  -93.219132   28.470951    0.000000    0.000000    0.000000    0.000000
  0.023400000   -4.578361  -25.288225  -92.481135   31.864239    0.000000    0.000000    0.000000    0.000000
  0.023600000   -4.573669  -25.417229  -93.795103   33.373085    0.000000    0.000000    0.000000    0.000000
  0.023800000   -4.572786  -25.637182  -94.150013   21.153778    0.000000    0.000000    0.000000    0.000000
  0.024000000   -4.569252  -25.847189  -94.424016   30.178083    0.000000    0.000000    0.000000    0.000000
  0.024200000   -4.567038  -26.063269  -95.377680   32.616894    0.000000    0.000000    0.000000    0.000000
  0.024400000   -4.566425  -26.301500  -93.294563   23.502974    0.000000    0.000000    0.000000    0.000000
  0.024600000   -4.568474  -26.531406  -93.641249   29.833775    0.000000    0.000000    0.000000    0.000000
  0.024800000   -4.568494  -26.739391  -94.709263   21.857737    0.000000    0.000000    0.000000    0.000000
  0.025000000   -4.569328  -26.939829  -93.754655   24.917194    0.000000    0.000000    0.000000    0.000000
  0.025200000   -4.567216  -27.153030  -94.795461   30.265848    0.000000    0.000000    0.000000    0.000000
  0.025400000   -4.571025  -27.356838  -94.559410   30.369022    0.000000    0.000000    0.000000    0.000000
  0.025600000   -4.574644  -27.536469  -94.695133   29.686726    0.000000    0.000000    0.000000    0.000000
  0.025800000   -4.577712  -27.741713  -95.001671   32.533401    0.000000    0.000000    0.000000    0.000000
  0.026000000   -4.576306  -27.925350  -94.727921   27.035475    0.000000    0.000000    0.000000    0.000000
  0.026200000   -4.580345  -28.144398  -94.380409   29.411125    0.000000    0.000000    0.000000    0.000000
  0.026400000   -4.586206  -28.365614  -93.762653   30.328421    0.000000    0.000000    0.000000    0.000000
  0.026600000   -4.589707  -28.575771  -95.059025   21.811802    0.000000    0.000000    0.000000    0.000000
  0.026800000   -4.589203  -28.822466  -93.627602   23.366554    0.000000    0.000000    0.000000    0.000000
  0.027000000   -4.587674  -29.069185  -94.234181   18.359234    0.000000    0.000000    0.000000    0.000000
  0.027200000   -4.590189  -29.292816  -94.572273   23.914661    0.000000    0.000000    0.000000    0.000000
  0.027400000   -4.590774  -29.523497  -95.705291   14.143390    0.000000    0.000000    0.000000    0.000000
  0.027600000   -4.591831  -29.763004  -94.438158   19.922009    0.000000    0.000000    0.000000    0.000000
  0.027800000   -4.594688  -29.998549  -94.604288   15.694437    0.000000    0.000000    0.000000    0.000000
  0.028000000   -4.596377  -30.240782  -95.750309   22.789545    0.000000    0.000000    0.000000    0.000000
  0.028200000   -4.594915  -30.503639  -95.860899   15.305311    0.000000    0.000000    0.000000    0.000000
  0.028400000   -4.593207  -30.748276  -94.802340   19.383938    0.000000    0.000000    0.000000    0.000000
  0.028600000   -4.589247  -30.975225  -95.627854   18.571539    0.000000    0.000000    0.000000    0.000000
  0.028800000   -4.587592  -31.166384  -97.735528   18.652342    0.000000    0.000000    0.000000    0.000000
  0.029000000   -4.586690  -31.366922  -96.358368   18.763218    0.000000    0.000000    0.000000    0.000000
  0.029200000   -4.585767  -31.543695  -96.832207   27.090092    0.000000    0.000000    0.000000    0.000000
  0.029400000   -4.584730  -31.737556  -97.503306   20.380264    0.000000    0.000000    0.000000    0.000000
  0.029600000   -4.582818  -31.923601  -97.575429   17.738447    0.000000    0.000000    0.000000    0.000000
  0.029800000   -4.587385  -32.135162  -97.576519   19.737204    0.000000    0.000000    0.000000    0.000000
  0.030000000   -4.591811  -32.319927  -95.448670   13.993157    0.000000    0.000000    0.000000    0.000000
  0.030200000   -4.598896  -32.534534  -97.652056   18.369217    0.000000    0.000000    0.000000    0.000000
  0.030400000   -4.599031  -32.766670  -97.803375   14.521525    0.000000    0.000000    0.000000    0.000000
  0.030600000   -4.601391  -33.020321  -98.210578   14.438805    0.000000    0.000000    0.000000    0.000000
  0.030800000   -4.599600  -33.270844  -97.331141   25.247747    0.000000    0.000000    0.000000    0.000000
  0.031000000   -4.602719  -33.510525  -97.454444   17.518452    0.000000    0.000000    0.000000    0.000000
  0.031200000   -4.594212  -33.753147  -95.673911   23.999304    0.000000    0.000000    0.000000    0.000000
  0.031400000   -4.595350  -33.983639  -97.217532    3.813861    0.000000    0.000000    0.000000    0.000000
  0.031600000   -4.590561  -34.194931  -98.766058    7.889094    0.000000    0.000000    0.000000    0.000000
  0.031800000   -4.583472  -34.422729  -99.089827   14.758109    0.000000    0.000000    0.000000    0.000000
  0.032000000   -4.580382  -34.610706  -99.309004   21.282347    0.000000    0.000000    0.000000    0.000000
  0.032200000   -4.576713  -34.810135  -98.167824   21.127480    0.000000    0.000000    0.000000    0.000000
  0.032400000   -4.568194  -35.019428  -98.708871   13.671308    0.000000    0.000000    0.000000    0.000000
  0.032600000   -4.564051  -35.202221  -97.550484   18.074556    0.000000    0.000000    0.000000    0.000000
  0.032800000   -4.560615  -35.371098  -98.584255   17.282211    0.000000    0.000000    0.000000    0.000000
  0.033000000   -4.560675  -35.570839  -97.720787   16.514772    0.000000    0.000000    0.000000    0.000000
  0.033200000   -4.561051  -35.754795  -97.940487   15.684886    0.000000    0.000000    0.000000    0.000000
  0.033400000   -4.564460  -35.929996  -99.357735   11.558564    0.000000    0.000000    0.000000    0.000000
  0.033600000   -4.562625  -36.148380  -98.279099   12.740518    0.000000    0.000000    0.000000    0.000000
  0.033800000   -4.567343  -36.333282  -99.649877   12.357799    0.000000    0.000000    0.000000    0.000000
  0.034000000   -4.569725  -36.528156  -98.763652    5.062867    0.000000    0.000000    0.000000    0.000000
  0.034200000   -4.572119  -36.752617 -100.061692    3.022839    0.000000    0.000000    0.000000    0.000000
  0.034400000   -4.578875  -36.983482  -99.026661    1.844845    0.000000    0.000000    0.000000    0.000000
  0.034600000   -4.583770  -37.188881  -97.321470    0.262583    0.000000    0.000000    0.000000    0.000000
  0.034800000   -4.589299  -37.432266  -98.495612    6.190048    0.000000    0.000000    0.000000    0.000000
  0.035000000   -4.591220  -37.677280  -97.705311    7.090563    0.000000    0.000000    0.000000    0.000000
  0.035200000   -4.600603  -37.891266  -99.597982   11.844912    0.000000    0.000000    0.000000    0.000000
  0.035400000   -4.599445  -38.113613 -100.602148   10.213401    0.000000    0.000000    0.000000    0.000000
  0.035600000   -4.599874  -38.345860  -98.355158    1.227645    0.000000    0.000000    0.000000    0.000000
  0.035800000   -4.602703  -38.576931  -99.908261    6.182489    0.000000    0.000000    0.000000    0.000000
  0.036000000   -4.602684  -38.798668 -100.672809    5.384089    0.000000    0.000000    0.000000    0.000000
  0.036200000   -4.599552  -39.043278  -98.400497   11.927530    0.000000    0.000000    0.000000    0.000000
  0.036400000   -4.597476  -39.270252  -98.807105   -6.239062    0.000000    0.000000    0.000000    0.000000
  0.036600000   -4.594421  -39.496056  -98.428030    9.270035    0.000000    0.000000    0.000000    0.000000
  0.036800000   -4.589157  -39.701363  -98.194453   21.893410    0.000000    0.000000    0.000000    0.000000
  0.037000000   -4.589881  -39.889381  -99.036150   10.705731    0.000000    0.000000    0.000000    0.000000
  0.037200000   -4.587943  -40.030678  -98.543386   11.877816    0.000000    0.000000    0.000000    0.000000
  0.037400000   -4.592788  -40.238403 -101.525018    7.380559    0.000000    0.000000    0.000000    0.000000
  0.037600000   -4.596065  -40.437531  -97.758528    9.064532    0.000000    0.000000    0.000000    0.000000
  0.037800000   -4.606070  -40.635715  -99.129189   13.939249    0.000000    0.000000    0.000000    0.000000
  0.038000000   -4.613867  -40.900520 -100.163965   -3.365957    0.000000    0.000000    0.000000    0.000000
  0.038200000   -4.618027  -41.137959  -98.719108    2.998275    0.000000    0.000000    0.000000    0.000000
  0.038400000   -4.623183  -41.344322  -99.209375   11.268640    0.000000    0.000000    0.000000    0.000000
  0.038600000   -4.628273  -41.605320  -99.531642    1.175246    0.000000    0.000000    0.000000    0.000000
  0.038800000   -4.630936  -41.855953 -100.377478    4.352268    0.000000    0.000000    0.000000    0.000000
  0.039000000   -4.627106  -42.107052 -100.087872   14.295772    0.000000    0.000000    0.000000    0.000000
  0.039200000   -4.625271  -42.361412  -98.185637    6.926920    0.000000    0.000000    0.000000    0.000000
  0.039400000   -4.622746  -42.602955  -98.925992    4.172633    0.000000    0.000000    0.000000    0.000000
  0.039600000   -4.621250  -42.824318 -102.410734    3.891309    0.000000    0.000000    0.000000    0.000000
  0.039800000   -4.612082  -43.050892 -101.863630   13.484481    0.000000    0.000000    0.000000    0.000000
  0.040000000   -4.611800  -43.258575 -100.087088   19.118711    0.000000    0.000000    0.000000    0.000000
  0.040200000   -4.605344  -43.452511 -100.349785   13.833758    0.000000    0.000000    0.000000    0.000000
  0.040400000   -4.603628  -43.659103 -101.777284   -1.337788    0.000000    0.000000    0.000000    0.000000
  0.040600000   -4.604891  -43.805439 -100.611951    9.708093    0.000000    0.000000    0.000000    0.000000
  0.040800000   -4.601944  -44.018047 -100.010039    6.009936    0.000000    0.000000    0.000000    0.000000
  0.041000000   -4.609000  -44.218868  -98.652742   -2.481448    0.000000    0.000000    0.000000    0.000000
  0.041200000   -4.614122  -44.439026 -101.280922  -10.371607    0.000000    0.000000    0.000000    0.000000
  0.041400000   -4.617793  -44.638451 -103.609501    2.773669    0.000000    0.000000    0.000000    0.000000
  0.041600000   -4.624086  -44.886642  -99.596279    8.094646    0.000000    0.000000    0.000000    0.000000
  0.041800000   -4.628866  -45.147797 -103.986114  -15.170045    0.000000    0.000000    0.000000    0.000000
  0.042000000   -4.631362  -45.359554 -100.850169   18.287205    0.000000    0.000000    0.000000    0.000000
  0.042200000   -4.630787  -45.592022 -102.839438    1.370200    0.000000    0.000000    0.000000    0.000000
  0.042400000   -4.631741  -45.806103 -101.003088   13.807444    0.000000    0.000000    0.000000    0.000000
  0.042600000   -4.634863  -46.052628 -100.683998  -15.619295    0.000000    0.000000    0.000000    0.000000
  0.042800000   -4.635047  -46.262772 -102.149597    7.119999    0.000000    0.000000    0.000000    0.000000
