! Anritsu VNA Master:                     Model: MS2036C/10/77
! SN:                                  1601066
! /card0/usr/254.ns.sma.r200.11.s2p
! Existing Calibration Information:
! TYPE:                         Current Settings,       Active Cal Settings
! TIME:             	   12/20/2017 01:30:07 PM,    12/20/2017 01:21:26 PM
! INTERNAL TEMP:    	                   45.3 C,                    44.5 C
! # POINTS:         	                      501,                       501
! START FREQ:       	               10.000 MHz,                10.000 MHz
! STOP FREQ:        	              110.000 MHz,               110.000 MHz
! SOURCE POWER:     	                     High,                      High
! IFBW:             	                   100 Hz,                    100 Hz
! AVG FACTOR:       	                       1 ,                        1 
! REF PLANE 1:      	                     0 mm,                      0 mm
! REF PLANE 2:      	                     0 mm,                      0 mm
! CAL TYPE:         	                 Full S11,                  Full S11
! CAL METHOD:       	                     SOLT,                      SOLT
! CAL LINE TYPE:    	                     Coax,                      Coax
! DUT PORT 1:       	                N-Conn(F),                 N-Conn(F)
! DUT PORT 2:       	                K-Conn(F),                 K-Conn(F)
! CAL STATUS:       	        OK: Accuracy High,                        --
# GHZ S DB R 50.0
! FREQ.GHZ       S11DB        S11A       S21DB        S21A       S12DB        S12A       S22DB        S22A
  0.010000000  -51.814753 -106.765518  -84.237417   76.734596    0.000000    0.000000    0.000000    0.000000
  0.010200000  -51.015810 -102.120979  -84.314500   74.447716    0.000000    0.000000    0.000000    0.000000
  0.010400000  -50.644875 -105.035362  -84.873869   78.915108    0.000000    0.000000    0.000000    0.000000
  0.010600000  -50.843698 -107.792229  -85.091949   75.269226    0.000000    0.000000    0.000000    0.000000
  0.010800000  -50.852991 -109.004890  -84.879601   75.682312    0.000000    0.000000    0.000000    0.000000
  0.011000000  -50.970073 -110.875183  -85.317484   77.140526    0.000000    0.000000    0.000000    0.000000
  0.011200000  -51.197894 -111.921906  -84.941878   75.092590    0.000000    0.000000    0.000000    0.000000
  0.011400000  -51.396268 -110.946739  -84.560894   77.159584    0.000000    0.000000    0.000000    0.000000
  0.011600000  -50.367872 -107.462410  -84.824013   74.478142    0.000000    0.000000    0.000000    0.000000
  0.011800000  -50.107040 -113.510574  -84.587762   75.662582    0.000000    0.000000    0.000000    0.000000
  0.012000000  -50.416283 -114.077744  -84.846739   72.415115    0.000000    0.000000    0.000000    0.000000
  0.012200000  -50.040712 -110.358498  -85.269222   73.089745    0.000000    0.000000    0.000000    0.000000
  0.012400000  -50.019634 -112.634727  -85.315984   72.523727    0.000000    0.000000    0.000000    0.000000
  0.012600000  -50.011092 -115.936996  -84.989433   68.727402    0.000000    0.000000    0.000000    0.000000
  0.012800000  -49.636206 -116.484001  -85.291222   67.400993    0.000000    0.000000    0.000000    0.000000
  0.013000000  -49.560187 -117.448204  -85.146246   65.490952    0.000000    0.000000    0.000000    0.000000
  0.013200000  -49.727809 -118.924019  -85.509580   61.382023    0.000000    0.000000    0.000000    0.000000
  0.013400000  -49.346493 -117.292053  -85.368594   60.358955    0.000000    0.000000    0.000000    0.000000
  0.013600000  -49.457564 -120.159737  -86.041746   58.973576    0.000000    0.000000    0.000000    0.000000
  0.013800000  -49.403192 -120.308731  -86.102902   56.569046    0.000000    0.000000    0.000000    0.000000
  0.014000000  -49.382662 -121.813972  -86.121964   55.751904    0.000000    0.000000    0.000000    0.000000
  0.014200000  -49.266738 -121.379616  -85.575806   52.811913    0.000000    0.000000    0.000000    0.000000
  0.014400000  -48.862782 -122.080933  -86.886034   52.708603    0.000000    0.000000    0.000000    0.000000
  0.014600000  -48.874441 -120.632996  -87.299468   48.949726    0.000000    0.000000    0.000000    0.000000
  0.014800000  -48.739041 -123.605759  -86.499814   51.749283    0.000000    0.000000    0.000000    0.000000
  0.015000000  -48.811225 -121.861382  -86.985242   48.388401    0.000000    0.000000    0.000000    0.000000
  0.015200000  -48.905502 -123.936348  -87.790803   47.639847    0.000000    0.000000    0.000000    0.000000
  0.015400000  -48.609631 -123.200264  -88.011060   46.194115    0.000000    0.000000    0.000000    0.000000
  0.015600000  -48.853204 -125.874359  -88.077638   47.505901    0.000000    0.000000    0.000000    0.000000
  0.015800000  -48.749038 -125.912842  -88.797971   44.155018    0.000000    0.000000    0.000000    0.000000
  0.016000000  -48.881992 -123.649826  -88.416970   45.967720    0.000000    0.000000    0.000000    0.000000
  0.016200000  -48.631987 -125.370720  -89.683496   46.704140    0.000000    0.000000    0.000000    0.000000
  0.016400000  -48.490294 -126.290649  -89.227478   43.811596    0.000000    0.000000    0.000000    0.000000
  0.016600000  -48.868920 -128.142960  -89.469381   40.657799    0.000000    0.000000    0.000000    0.000000
  0.016800000  -48.708120 -125.210396  -89.734846   46.782875    0.000000    0.000000    0.000000    0.000000
  0.017000000  -48.657986 -127.797760  -89.857795   45.558605    0.000000    0.000000    0.000000    0.000000
  0.017200000  -48.861546 -128.358490  -90.122880   47.552135    0.000000    0.000000    0.000000    0.000000
  0.017400000  -48.552484 -128.668579  -90.353679   46.073467    0.000000    0.000000    0.000000    0.000000
  0.017600000  -48.712230 -128.783630  -89.938780   49.195309    0.000000    0.000000    0.000000    0.000000
  0.017800000  -48.707172 -128.650208  -91.672764   48.409565    0.000000    0.000000    0.000000    0.000000
  0.018000000  -48.556683 -128.275177  -90.161313   47.056374    0.000000    0.000000    0.000000    0.000000
  0.018200000  -48.591051 -128.597198  -89.156844   46.697956    0.000000    0.000000    0.000000    0.000000
  0.018400000  -48.306376 -130.612427  -89.854961   48.428627    0.000000    0.000000    0.000000    0.000000
  0.018600000  -48.425572 -132.427231  -90.731328   45.024670    0.000000    0.000000    0.000000    0.000000
  0.018800000  -48.473875 -131.180038  -89.941872   46.896053    0.000000    0.000000    0.000000    0.000000
  0.019000000  -48.439143 -132.134079  -91.008583   47.234779    0.000000    0.000000    0.000000    0.000000
  0.019200000  -48.174657 -131.074478  -90.565243   44.297729    0.000000    0.000000    0.000000    0.000000
  0.019400000  -48.279972 -133.493317  -90.226176   40.265450    0.000000    0.000000    0.000000    0.000000
  0.019600000  -48.069685 -132.509018  -90.774668   41.015198    0.000000    0.000000    0.000000    0.000000
  0.019800000  -47.787866 -133.612579  -90.857980   38.309422    0.000000    0.000000    0.000000    0.000000
  0.020000000  -47.647411 -134.428726  -90.711020   45.406437    0.000000    0.000000    0.000000    0.000000
  0.020200000  -47.762730 -135.032867  -90.135336   32.315762    0.000000    0.000000    0.000000    0.000000
  0.020400000  -47.525824 -136.186188  -90.965421   36.389351    0.000000    0.000000    0.000000    0.000000
  0.020600000  -47.147292 -135.436356  -90.854141   36.327660    0.000000    0.000000    0.000000    0.000000
  0.020800000  -47.129120 -136.156708  -90.654210   37.312977    0.000000    0.000000    0.000000    0.000000
  0.021000000  -47.244861 -135.561172  -90.611036   30.563868    0.000000    0.000000    0.000000    0.000000
  0.021200000  -47.035710 -137.980820  -91.506295   35.077290    0.000000    0.000000    0.000000    0.000000
  0.021400000  -46.864754 -138.258118  -92.158697   32.058426    0.000000    0.000000    0.000000    0.000000
  0.021600000  -46.868604 -138.654007  -92.111455   32.202213    0.000000    0.000000    0.000000    0.000000
  0.021800000  -46.509660 -138.195297  -92.157446   21.211767    0.000000    0.000000    0.000000    0.000000
  0.022000000  -46.527074 -140.618378  -92.044318   32.235428    0.000000    0.000000    0.000000    0.000000
  0.022200000  -46.580300 -140.975571  -93.158277   30.234789    0.000000    0.000000    0.000000    0.000000
  0.022400000  -46.522983 -140.986710  -92.946305   27.656780    0.000000    0.000000    0.000000    0.000000
  0.022600000  -46.412848 -139.326004  -93.638266   25.413383    0.000000    0.000000    0.000000    0.000000
  0.022800000  -46.286248 -141.036835  -93.850939   32.824554    0.000000    0.000000    0.000000    0.000000
  0.023000000  -46.319320 -141.080612  -92.960373   28.538565    0.000000    0.000000    0.000000    0.000000
  0.023200000  -46.186835 -141.279816  -92.866489   29.816559    0.000000    0.000000    0.000000    0.000000
  0.023400000  -47.223614 -140.975006  -93.645598   31.315935    0.000000    0.000000    0.000000    0.000000
  0.023600000  -46.226150 -142.358643  -94.229600   24.526072    0.000000    0.000000    0.000000    0.000000
  0.023800000  -46.176802 -142.657455  -93.476395   26.935448    0.000000    0.000000    0.000000    0.000000
  0.024000000  -46.266907 -143.567444  -94.774844   26.228249    0.000000    0.000000    0.000000    0.000000
  0.024200000  -46.211789 -143.241989  -94.782503   24.578402    0.000000    0.000000    0.000000    0.000000
  0.024400000  -46.103966 -143.207642  -94.291738   27.619553    0.000000    0.000000    0.000000    0.000000
  0.024600000  -46.003216 -142.676315  -94.051804   30.266016    0.000000    0.000000    0.000000    0.000000
  0.024800000  -46.267055 -143.830032  -94.411307   27.579144    0.000000    0.000000    0.000000    0.000000
  0.025000000  -46.274787 -143.678574  -94.935726   28.420778    0.000000    0.000000    0.000000    0.000000
  0.025200000  -46.134689 -144.630768  -93.983565   27.501310    0.000000    0.000000    0.000000    0.000000
  0.025400000  -46.282773 -144.474823  -94.121448   29.080702    0.000000    0.000000    0.000000    0.000000
  0.025600000  -46.317895 -144.422272  -95.023676   27.330151    0.000000    0.000000    0.000000    0.000000
  0.025800000  -46.366991 -145.083115  -93.681180   33.535442    0.000000    0.000000    0.000000    0.000000
  0.026000000  -46.486438 -145.182449  -93.721924   26.942856    0.000000    0.000000    0.000000    0.000000
  0.026200000  -46.437479 -146.665390  -94.063582   23.901581    0.000000    0.000000    0.000000    0.000000
  0.026400000  -46.439067 -146.556976  -93.740396   25.823847    0.000000    0.000000    0.000000    0.000000
  0.026600000  -46.485456 -148.027954  -95.307714   28.808191    0.000000    0.000000    0.000000    0.000000
  0.026800000  -46.298143 -147.524857  -94.361497   20.495844    0.000000    0.000000    0.000000    0.000000
  0.027000000  -46.216425 -147.779007  -94.929286   13.906103    0.000000    0.000000    0.000000    0.000000
  0.027200000  -46.289267 -148.697769  -94.241658   18.015268    0.000000    0.000000    0.000000    0.000000
  0.027400000  -46.238462 -148.714752  -95.487605   12.569140    0.000000    0.000000    0.000000    0.000000
  0.027600000  -46.287251 -149.114838  -94.940400   20.371103    0.000000    0.000000    0.000000    0.000000
  0.027800000  -46.277585 -149.103027  -94.894794   21.607822    0.000000    0.000000    0.000000    0.000000
  0.028000000  -46.176230 -149.749588  -95.655055   15.164130    0.000000    0.000000    0.000000    0.000000
  0.028200000  -46.092714 -150.817200  -96.230623   23.681738    0.000000    0.000000    0.000000    0.000000
  0.028400000  -46.028977 -150.468964  -96.300157   11.786174    0.000000    0.000000    0.000000    0.000000
  0.028600000  -45.977269 -152.134689  -96.445704   16.117352    0.000000    0.000000    0.000000    0.000000
  0.028800000  -45.866103 -152.156128  -96.962865   12.238551    0.000000    0.000000    0.000000    0.000000
  0.029000000  -45.719912 -151.553787  -96.595007   19.664101    0.000000    0.000000    0.000000    0.000000
  0.029200000  -45.814613 -153.149078  -96.639047   23.383339    0.000000    0.000000    0.000000    0.000000
  0.029400000  -45.694545 -153.268265  -97.595696    4.378934    0.000000    0.000000    0.000000    0.000000
  0.029600000  -45.753898 -153.267120  -96.216671   16.903484    0.000000    0.000000    0.000000    0.000000
  0.029800000  -45.729819 -152.772171  -96.829296    8.963550    0.000000    0.000000    0.000000    0.000000
  0.030000000  -45.719982 -153.964447  -96.605998   20.277840    0.000000    0.000000    0.000000    0.000000
  0.030200000  -45.493210 -153.828598  -96.639398   22.003014    0.000000    0.000000    0.000000    0.000000
  0.030400000  -45.765670 -154.195816  -96.671921   16.309675    0.000000    0.000000    0.000000    0.000000
  0.030600000  -45.699094 -155.054001  -97.614050   20.138784    0.000000    0.000000    0.000000    0.000000
  0.030800000  -45.663318 -154.943481  -96.276409   23.748470    0.000000    0.000000    0.000000    0.000000
  0.031000000  -45.575535 -155.716843  -97.958900   24.196415    0.000000    0.000000    0.000000    0.000000
  0.031200000  -45.316519 -157.076263  -96.801297    9.882371    0.000000    0.000000    0.000000    0.000000
  0.031400000  -45.496679 -155.636673  -97.393620   13.948107    0.000000    0.000000    0.000000    0.000000
  0.031600000  -45.436034 -157.088226  -97.798224   13.188123    0.000000    0.000000    0.000000    0.000000
  0.031800000  -45.282893 -155.779083  -97.141596   13.318621    0.000000    0.000000    0.000000    0.000000
  0.032000000  -45.455041 -155.945435  -97.720698   -0.527600    0.000000    0.000000    0.000000    0.000000
  0.032200000  -45.551353 -156.347168  -96.715622   11.204615    0.000000    0.000000    0.000000    0.000000
  0.032400000  -45.378443 -157.490646  -96.672450    7.180016    0.000000    0.000000    0.000000    0.000000
  0.032600000  -45.412275 -155.764130  -96.711025    1.957847    0.000000    0.000000    0.000000    0.000000
  0.032800000  -45.544782 -157.330795  -98.804444    9.765006    0.000000    0.000000    0.000000    0.000000
  0.033000000  -45.444686 -155.974823  -96.155054   17.888214    0.000000    0.000000    0.000000    0.000000
  0.033200000  -45.403114 -158.070831  -98.269105   22.544487    0.000000    0.000000    0.000000    0.000000
  0.033400000  -45.666777 -157.490356  -98.296043   19.914701    0.000000    0.000000    0.000000    0.000000
  0.033600000  -45.417977 -158.489868  -97.682268   20.851013    0.000000    0.000000    0.000000    0.000000
  0.033800000  -45.582876 -158.305023  -97.206879    6.520226    0.000000    0.000000    0.000000    0.000000
  0.034000000  -45.564056 -159.617371  -96.491779    1.454422    0.000000    0.000000    0.000000    0.000000
  0.034200000  -45.482069 -158.747040  -97.095145   11.574011    0.000000    0.000000    0.000000    0.000000
  0.034400000  -45.322737 -159.678833  -98.207967   11.293707    0.000000    0.000000    0.000000    0.000000
  0.034600000  -45.551742 -159.276642  -97.630231   10.154266    0.000000    0.000000    0.000000    0.000000
  0.034800000  -45.350772 -159.994095  -98.010009    3.915799    0.000000    0.000000    0.000000    0.000000
  0.035000000  -45.236998 -160.667511  -97.459239    0.464382    0.000000    0.000000    0.000000    0.000000
  0.035200000  -45.273639 -161.688141 -100.517368   12.624046    0.000000    0.000000    0.000000    0.000000
  0.035400000  -45.218055 -161.301666  -98.272685    9.082523    0.000000    0.000000    0.000000    0.000000
  0.035600000  -45.071450 -161.865509  -99.203084   18.197309    0.000000    0.000000    0.000000    0.000000
  0.035800000  -45.082399 -162.669861  -98.479998   10.092269    0.000000    0.000000    0.000000    0.000000
  0.036000000  -45.026316 -163.180649 -100.026930   11.214936    0.000000    0.000000    0.000000    0.000000
  0.036200000  -44.760523 -163.737030  -99.164793   12.484423    0.000000    0.000000    0.000000    0.000000
  0.036400000  -44.969003 -163.618500  -98.901075   13.899444    0.000000    0.000000    0.000000    0.000000
  0.036600000  -44.758774 -163.260529  -99.587462   26.692699    0.000000    0.000000    0.000000    0.000000
  0.036800000  -44.737798 -162.804672  -97.333948    6.223311    0.000000    0.000000    0.000000    0.000000
  0.037000000  -44.612688 -164.740509  -99.597618   28.433880    0.000000    0.000000    0.000000    0.000000
  0.037200000  -44.571338 -164.327393  -98.002776   15.160981    0.000000    0.000000    0.000000    0.000000
  0.037400000  -44.667404 -164.461746 -100.853179   22.288330    0.000000    0.000000    0.000000    0.000000
  0.037600000  -44.611693 -164.888199 -100.403817   10.829385    0.000000    0.000000    0.000000    0.000000
  0.037800000  -44.496854 -165.300583  -99.481633    5.251691    0.000000    0.000000    0.000000    0.000000
  0.038000000  -44.505244 -164.239319  -98.862418    4.973802    0.000000    0.000000    0.000000    0.000000
  0.038200000  -44.594518 -165.740997  -97.911553   18.102299    0.000000    0.000000    0.000000    0.000000
  0.038400000  -44.572624 -165.841675  -98.499635   11.071784    0.000000    0.000000    0.000000    0.000000
  0.038600000  -44.587823 -165.500244  -98.952037    4.975529    0.000000    0.000000    0.000000    0.000000
  0.038800000  -44.605032 -165.094391  -99.782674    2.096386    0.000000    0.000000    0.000000    0.000000
  0.039000000  -44.589016 -167.091202  -97.251460   15.860404    0.000000    0.000000    0.000000    0.000000
  0.039200000  -44.547715 -165.213989 -100.221991   14.473107    0.000000    0.000000    0.000000    0.000000
  0.039400000  -44.628531 -165.878738  -98.814467   -0.127042    0.000000    0.000000    0.000000    0.000000
  0.039600000  -44.625009 -166.579834 -101.410299    4.282358    0.000000    0.000000    0.000000    0.000000
  0.039800000  -44.673906 -166.684219  -99.113195    8.895582    0.000000    0.000000    0.000000    0.000000
  0.040000000  -44.648936 -166.168640  -99.894063    8.244312    0.000000    0.000000    0.000000    0.000000
  0.040200000  -44.660494 -168.138184 -101.783046   -1.615462    0.000000    0.000000    0.000000    0.000000
  0.040400000  -44.733703 -167.443436 -101.056183    9.609351    0.000000    0.000000    0.000000    0.000000
  0.040600000  -44.736836 -167.310501  -99.505837   10.800714    0.000000    0.000000    0.000000    0.000000
  0.040800000  -44.820687 -167.188293 -100.489742    8.586311    0.000000    0.000000    0.000000    0.000000
  0.041000000  -44.778719 -167.903427  -99.780706    1.577502    0.000000    0.000000    0.000000    0.000000
  0.041200000  -44.855938 -167.939926 -100.444351   -7.378085    0.000000    0.000000    0.000000    0.000000
  0.041400000  -44.777635 -168.198730 -101.389477    2.679592    0.000000    0.000000    0.000000    0.000000
  0.041600000  -45.006554 -168.867615  -99.534191  -10.281629    0.000000    0.000000    0.000000    0.000000
  0.041800000  -44.944777 -169.173645 -100.653994    7.573578    0.000000    0.000000    0.000000    0.000000
  0.042000000  -45.021101 -169.323669 -101.504422   -1.607186    0.000000    0.000000    0.000000    0.000000
  0.042200000  -44.997106 -170.656815 -102.722786    4.951471    0.000000    0.000000    0.000000    0.000000
  0.042400000  -44.776856 -170.949509 -103.319672  -11.852172    0.000000    0.000000    0.000000    0.000000
  0.042600000  -44.790902 -170.257843 -100.851828   15.367014    0.000000    0.000000    0.000000    0.000000
  0.042800000  -44.901686 -170.825623 -100.333789   24.603727    0.000000    0.000000    0.000000    0.000000
