! Anritsu VNA Master:                     Model: MS2036C/10/77
! SN:                                  1601066
! /bd0/18may10/256.ns.m2.s2p
! Existing Calibration Information:
! TYPE:                         Current Settings,       Active Cal Settings
! TIME:             	   05/10/2018 10:56:53 AM,    05/10/2018 10:50:07 AM
! INTERNAL TEMP:    	                   50.0 C,                    49.0 C
! # POINTS:         	                      494,                       494
! START FREQ:       	               20.000 MHz,                20.000 MHz
! STOP FREQ:        	          118.797 594 MHz,           118.797 594 MHz
! SOURCE POWER:     	                     High,                      High
! IFBW:             	                    50 Hz,                     50 Hz
! AVG FACTOR:       	                       1 ,                        1 
! REF PLANE 1:      	                     0 mm,                      0 mm
! REF PLANE 2:      	                     0 mm,                      0 mm
! CAL TYPE:         	                 Full S22,                  Full S22
! CAL METHOD:       	                     SOLT,                      SOLT
! CAL LINE TYPE:    	                     Coax,                      Coax
! DUT PORT 1:       	                K-Conn(M),                 K-Conn(M)
! DUT PORT 2:       	                K-Conn(M),                 K-Conn(M)
! CAL STATUS:       	        OK: Accuracy High,                        --
# GHZ S DB R 50.0
! FREQ.GHZ       S11DB        S11A       S21DB        S21A       S12DB        S12A       S22DB        S22A
  0.020000000    0.000000    0.000000    0.000000    0.000000  -89.151591   37.622982   -0.607750 -126.735893
  0.020200401    0.000000    0.000000    0.000000    0.000000  -89.897519   35.876137   -0.612239 -128.186340
  0.020400802    0.000000    0.000000    0.000000    0.000000  -90.213286   34.658386   -0.614784 -129.663239
  0.020601202    0.000000    0.000000    0.000000    0.000000  -90.472597   34.274605   -0.622094 -131.174637
  0.020801603    0.000000    0.000000    0.000000    0.000000  -90.477339   34.820072   -0.624072 -132.719696
  0.021002004    0.000000    0.000000    0.000000    0.000000  -91.271142   33.386124   -0.629070 -134.265640
  0.021202405    0.000000    0.000000    0.000000    0.000000  -91.281602   38.966381   -0.634004 -135.811874
  0.021402806    0.000000    0.000000    0.000000    0.000000  -91.745321   37.278938   -0.636267 -137.355621
  0.021603206    0.000000    0.000000    0.000000    0.000000  -92.125752   37.132751   -0.641146 -138.923401
  0.021803607    0.000000    0.000000    0.000000    0.000000  -91.516844   41.622429   -0.645923 -140.469955
  0.022004008    0.000000    0.000000    0.000000    0.000000  -91.600985   43.227856   -0.651015 -142.069794
  0.022204409    0.000000    0.000000    0.000000    0.000000  -91.986729   43.672237   -0.658332 -143.665161
  0.022404810    0.000000    0.000000    0.000000    0.000000  -91.938066   48.152428   -0.663460 -145.288574
  0.022605210    0.000000    0.000000    0.000000    0.000000  -91.766182   47.220150   -0.672503 -146.909653
  0.022805611    0.000000    0.000000    0.000000    0.000000  -91.074362   41.974625   -0.680144 -148.537888
  0.023006012    0.000000    0.000000    0.000000    0.000000  -91.358182   43.163265   -0.683782 -150.165985
  0.023206413    0.000000    0.000000    0.000000    0.000000  -90.927574   43.108788   -0.688408 -151.797745
  0.023406814    0.000000    0.000000    0.000000    0.000000  -91.082043   42.432072   -0.693776 -153.420731
  0.023607214    0.000000    0.000000    0.000000    0.000000  -90.203620   43.043430   -0.703471 -155.055969
  0.023807615    0.000000    0.000000    0.000000    0.000000  -90.473437   41.791035   -0.715744 -156.692154
  0.024008016    0.000000    0.000000    0.000000    0.000000  -91.126176   37.440239   -0.724411 -158.362152
  0.024208417    0.000000    0.000000    0.000000    0.000000  -91.964881   37.775555   -0.732339 -160.033798
  0.024408818    0.000000    0.000000    0.000000    0.000000  -91.167480   32.826267   -0.739359 -161.700455
  0.024609218    0.000000    0.000000    0.000000    0.000000  -91.783434   34.673023   -0.748364 -163.372055
  0.024809619    0.000000    0.000000    0.000000    0.000000  -90.979390   31.380447   -0.759195 -165.029480
  0.025010020    0.000000    0.000000    0.000000    0.000000  -91.445961   30.184637   -0.770595 -166.690628
  0.025210421    0.000000    0.000000    0.000000    0.000000  -91.706571   27.275925   -0.782259 -168.351807
  0.025410822    0.000000    0.000000    0.000000    0.000000  -91.793380   30.829145   -0.794839 -170.030746
  0.025611222    0.000000    0.000000    0.000000    0.000000  -92.115158   28.809690   -0.808186 -171.723465
  0.025811623    0.000000    0.000000    0.000000    0.000000  -92.360104   26.661596   -0.821717 -173.417313
  0.026012024    0.000000    0.000000    0.000000    0.000000  -92.452178   26.466080   -0.834862 -175.122269
  0.026212425    0.000000    0.000000    0.000000    0.000000  -92.757390   25.348795   -0.848597 -176.839447
  0.026412826    0.000000    0.000000    0.000000    0.000000  -93.463271   26.250799   -0.866264 -178.565475
  0.026613226    0.000000    0.000000    0.000000    0.000000  -93.436719   27.760891   -0.882179  179.695267
  0.026813627    0.000000    0.000000    0.000000    0.000000  -94.488122   29.029495   -0.900125  177.944443
  0.027014028    0.000000    0.000000    0.000000    0.000000  -94.599974   28.656240   -0.918259  176.180847
  0.027214429    0.000000    0.000000    0.000000    0.000000  -94.258181   34.213284   -0.937694  174.400681
  0.027414830    0.000000    0.000000    0.000000    0.000000  -93.957730   28.853424   -0.958742  172.613922
  0.027615230    0.000000    0.000000    0.000000    0.000000  -94.515922   30.031088   -0.979319  170.801041
  0.027815631    0.000000    0.000000    0.000000    0.000000  -94.906468   31.736982   -1.001603  168.985611
  0.028016032    0.000000    0.000000    0.000000    0.000000  -94.582757   33.732056   -1.024801  167.132446
  0.028216433    0.000000    0.000000    0.000000    0.000000  -94.405446   32.249496   -1.047607  165.268906
  0.028416834    0.000000    0.000000    0.000000    0.000000  -94.629901   32.788559   -1.072675  163.406723
  0.028617234    0.000000    0.000000    0.000000    0.000000  -95.056729   34.544415   -1.097094  161.525803
  0.028817635    0.000000    0.000000    0.000000    0.000000  -93.664596   33.876347   -1.123406  159.633148
  0.029018036    0.000000    0.000000    0.000000    0.000000  -94.841183   30.414549   -1.149595  157.747147
  0.029218437    0.000000    0.000000    0.000000    0.000000  -94.067442   32.888523   -1.178121  155.852402
  0.029418838    0.000000    0.000000    0.000000    0.000000  -93.980425   34.995541   -1.205847  153.918411
  0.029619238    0.000000    0.000000    0.000000    0.000000  -93.929407   33.162979   -1.236539  151.985794
  0.029819639    0.000000    0.000000    0.000000    0.000000  -93.719146   30.172661   -1.265852  150.044754
  0.030020040    0.000000    0.000000    0.000000    0.000000  -93.689167   27.510853   -1.294210  148.100037
  0.030220441    0.000000    0.000000    0.000000    0.000000  -94.743090   30.030405   -1.323852  146.163269
  0.030420842    0.000000    0.000000    0.000000    0.000000  -93.462608   29.386499   -1.355037  144.239853
  0.030621242    0.000000    0.000000    0.000000    0.000000  -93.568851   31.198399   -1.386690  142.320648
  0.030821643    0.000000    0.000000    0.000000    0.000000  -94.479751   20.631287   -1.422417  140.386368
  0.031022044    0.000000    0.000000    0.000000    0.000000  -95.195080   28.316069   -1.454737  138.435318
  0.031222445    0.000000    0.000000    0.000000    0.000000  -95.012371   21.959948   -1.486896  136.510178
  0.031422846    0.000000    0.000000    0.000000    0.000000  -94.932430   20.897360   -1.519373  134.538788
  0.031623246    0.000000    0.000000    0.000000    0.000000  -95.445315   21.374163   -1.556682  132.583084
  0.031823647    0.000000    0.000000    0.000000    0.000000  -94.856765   22.770367   -1.591567  130.622284
  0.032024048    0.000000    0.000000    0.000000    0.000000  -95.086621   17.174129   -1.627889  128.684937
  0.032224449    0.000000    0.000000    0.000000    0.000000  -96.564109   15.866140   -1.667676  126.727890
  0.032424850    0.000000    0.000000    0.000000    0.000000  -94.555534   21.056335   -1.706520  124.745247
  0.032625250    0.000000    0.000000    0.000000    0.000000  -95.913047   23.354660   -1.744601  122.763237
  0.032825651    0.000000    0.000000    0.000000    0.000000  -95.238336   14.212639   -1.784564  120.772049
  0.033026052    0.000000    0.000000    0.000000    0.000000  -95.509945   21.508532   -1.824198  118.742607
  0.033226453    0.000000    0.000000    0.000000    0.000000  -97.146600   17.809391   -1.864486  116.740173
  0.033426854    0.000000    0.000000    0.000000    0.000000  -96.807825   24.407017   -1.909342  114.728897
  0.033627254    0.000000    0.000000    0.000000    0.000000  -96.074716   21.184618   -1.951172  112.710800
  0.033827655    0.000000    0.000000    0.000000    0.000000  -95.992488   22.555367   -1.998605  110.688972
  0.034028056    0.000000    0.000000    0.000000    0.000000  -97.196385   23.028595   -2.042430  108.633751
  0.034228457    0.000000    0.000000    0.000000    0.000000  -96.267184   28.204767   -2.092125  106.572838
  0.034428858    0.000000    0.000000    0.000000    0.000000  -97.408596   34.349281   -2.140478  104.498093
  0.034629258    0.000000    0.000000    0.000000    0.000000  -96.155145   30.737358   -2.190175  102.395905
  0.034829659    0.000000    0.000000    0.000000    0.000000  -95.925691   27.654551   -2.238298  100.309036
  0.035030060    0.000000    0.000000    0.000000    0.000000  -95.606454   37.467690   -2.291512   98.216057
  0.035230461    0.000000    0.000000    0.000000    0.000000  -96.392606   37.747917   -2.344050   96.110474
  0.035430862    0.000000    0.000000    0.000000    0.000000  -96.303005   24.002214   -2.396472   93.983894
  0.035631262    0.000000    0.000000    0.000000    0.000000  -96.390582   28.436272   -2.451323   91.888321
  0.035831663    0.000000    0.000000    0.000000    0.000000  -96.613670   34.385788   -2.506286   89.757927
  0.036032064    0.000000    0.000000    0.000000    0.000000  -96.989752   20.848457   -2.559231   87.660339
  0.036232465    0.000000    0.000000    0.000000    0.000000  -96.745519   24.754293   -2.612567   85.526230
  0.036432866    0.000000    0.000000    0.000000    0.000000  -96.258921   15.808743   -2.668464   83.443626
  0.036633266    0.000000    0.000000    0.000000    0.000000  -97.220680   27.081137   -2.722630   81.329201
  0.036833667    0.000000    0.000000    0.000000    0.000000  -95.762329   21.890993   -2.780271   79.219635
  0.037034068    0.000000    0.000000    0.000000    0.000000  -95.817715   19.945890   -2.836434   77.122360
  0.037234469    0.000000    0.000000    0.000000    0.000000  -97.401388   30.591106   -2.891982   75.014130
  0.037434870    0.000000    0.000000    0.000000    0.000000  -97.379484   28.029791   -2.948518   72.887131
  0.037635270    0.000000    0.000000    0.000000    0.000000  -98.607212   24.485161   -3.012977   70.781990
  0.037835671    0.000000    0.000000    0.000000    0.000000  -96.935924   18.671942   -3.088374   68.707893
  0.038036072    0.000000    0.000000    0.000000    0.000000  -98.188622   20.009491   -3.156944   66.744362
  0.038236473    0.000000    0.000000    0.000000    0.000000  -97.920532   15.612472   -3.213775   64.768967
  0.038436874    0.000000    0.000000    0.000000    0.000000  -97.844015   24.040190   -3.262431   62.758980
  0.038637274    0.000000    0.000000    0.000000    0.000000  -98.716019   19.731478   -3.318551   60.730927
  0.038837675    0.000000    0.000000    0.000000    0.000000  -97.725035   18.375494   -3.370676   58.697613
  0.039038076    0.000000    0.000000    0.000000    0.000000  -97.213135   33.924183   -3.421527   56.690971
  0.039238477    0.000000    0.000000    0.000000    0.000000  -98.480241   22.792747   -3.475374   54.648361
  0.039438878    0.000000    0.000000    0.000000    0.000000  -99.993215   27.244478   -3.528406   52.643684
  0.039639278    0.000000    0.000000    0.000000    0.000000  -98.693107   29.870859   -3.584008   50.601246
  0.039839679    0.000000    0.000000    0.000000    0.000000  -99.872821   25.202656   -3.635971   48.554676
  0.040040080    0.000000    0.000000    0.000000    0.000000  -96.625853   32.884819   -3.688152   46.507019
  0.040240481    0.000000    0.000000    0.000000    0.000000  -98.271754   27.252239   -3.741982   44.442936
  0.040440882    0.000000    0.000000    0.000000    0.000000  -98.365764   33.166611   -3.795203   42.412651
  0.040641283    0.000000    0.000000    0.000000    0.000000  -97.930325   32.670876   -3.845432   40.375134
  0.040841683    0.000000    0.000000    0.000000    0.000000  -97.055362   37.129719   -3.895168   38.342949
  0.041042084    0.000000    0.000000    0.000000    0.000000  -98.216332   29.536928   -3.947621   36.298496
  0.041242485    0.000000    0.000000    0.000000    0.000000  -98.758738   29.122646   -3.997577   34.245388
  0.041442886    0.000000    0.000000    0.000000    0.000000  -97.959713   24.961201   -4.050357   32.175545
  0.041643287    0.000000    0.000000    0.000000    0.000000  -96.756408   27.540251   -4.096480   30.114058
  0.041843687    0.000000    0.000000    0.000000    0.000000  -97.881840   32.581760   -4.143689   28.043444
  0.042044088    0.000000    0.000000    0.000000    0.000000  -97.486667   28.515432   -4.188529   25.982693
  0.042244489    0.000000    0.000000    0.000000    0.000000  -98.012387   31.527088   -4.234471   23.952374
  0.042444890    0.000000    0.000000    0.000000    0.000000  -98.001189   19.452614   -4.277648   21.914995
  0.042645291    0.000000    0.000000    0.000000    0.000000  -98.523589   24.509075   -4.324920   19.865164
  0.042845691    0.000000    0.000000    0.000000    0.000000  -98.198188   24.689131   -4.366709   17.849455
  0.043046092    0.000000    0.000000    0.000000    0.000000  -97.992091   33.458488   -4.410282   15.820187
  0.043246493    0.000000    0.000000    0.000000    0.000000  -99.252077   23.979689   -4.450039   13.791138
  0.043446894    0.000000    0.000000    0.000000    0.000000  -98.191959   27.667040   -4.488384   11.782869
  0.043647295    0.000000    0.000000    0.000000    0.000000  -99.094859   26.598780   -4.528305    9.770769
  0.043847695    0.000000    0.000000    0.000000    0.000000 -100.823121   24.544981   -4.570821    7.796978
  0.044048096    0.000000    0.000000    0.000000    0.000000 -100.171756   21.233101   -4.608135    5.832496
  0.044248497    0.000000    0.000000    0.000000    0.000000  -98.261555   33.792824   -4.645268    3.854121
  0.044448898    0.000000    0.000000    0.000000    0.000000  -99.327103   22.345146   -4.683291    1.910125
  0.044649299    0.000000    0.000000    0.000000    0.000000  -99.080457   29.440086   -4.718286   -0.029822
  0.044849699    0.000000    0.000000    0.000000    0.000000  -99.398058   31.427141   -4.759270   -1.958138
  0.045050100    0.000000    0.000000    0.000000    0.000000  -99.624979   28.174887   -4.797672   -3.888675
  0.045250501    0.000000    0.000000    0.000000    0.000000  -99.628990   32.087067   -4.834051   -5.800120
  0.045450902    0.000000    0.000000    0.000000    0.000000  -97.032637   29.451124   -4.870077   -7.691830
  0.045651303    0.000000    0.000000    0.000000    0.000000  -97.129191   38.460487   -4.906268   -9.611576
  0.045851703    0.000000    0.000000    0.000000    0.000000  -99.277103   41.651196   -4.940828  -11.517226
  0.046052104    0.000000    0.000000    0.000000    0.000000  -98.945685   35.219707   -4.976787  -13.406564
  0.046252505    0.000000    0.000000    0.000000    0.000000  -99.282056   34.230476   -5.012903  -15.255209
  0.046452906    0.000000    0.000000    0.000000    0.000000  -98.257763   29.678894   -5.050877  -17.131279
  0.046653307    0.000000    0.000000    0.000000    0.000000  -97.639914   38.328434   -5.088644  -19.008982
  0.046853707    0.000000    0.000000    0.000000    0.000000  -99.437462   24.462917   -5.126342  -20.870604
  0.047054108    0.000000    0.000000    0.000000    0.000000  -98.820734   28.126789   -5.164123  -22.742672
  0.047254509    0.000000    0.000000    0.000000    0.000000  -98.812830   33.740356   -5.201325  -24.590778
  0.047454910    0.000000    0.000000    0.000000    0.000000  -98.407870   30.164503   -5.235800  -26.448376
  0.047655311    0.000000    0.000000    0.000000    0.000000  -98.476126   37.296680   -5.269623  -28.253712
  0.047855711    0.000000    0.000000    0.000000    0.000000 -100.060883   24.898544   -5.305881  -30.070669
  0.048056112    0.000000    0.000000    0.000000    0.000000  -99.939517   35.709469   -5.337902  -31.850060
  0.048256513    0.000000    0.000000    0.000000    0.000000  -98.120294   29.751354   -5.369475  -33.647224
  0.048456914    0.000000    0.000000    0.000000    0.000000  -99.266376   24.382034   -5.401533  -35.453625
  0.048657315    0.000000    0.000000    0.000000    0.000000  -99.967863   26.113798   -5.430511  -37.241760
  0.048857715    0.000000    0.000000    0.000000    0.000000 -100.830370   25.231640   -5.459185  -39.024055
  0.049058116    0.000000    0.000000    0.000000    0.000000  -99.576389   24.199310   -5.481502  -40.790554
  0.049258517    0.000000    0.000000    0.000000    0.000000  -98.353036   29.496237   -5.508257  -42.507538
  0.049458918    0.000000    0.000000    0.000000    0.000000  -99.563232   35.489487   -5.532222  -44.262337
  0.049659319    0.000000    0.000000    0.000000    0.000000 -100.300706   23.208195   -5.557598  -45.965393
  0.049859719    0.000000    0.000000    0.000000    0.000000  -98.699887   29.659554   -5.583893  -47.652187
  0.050060120    0.000000    0.000000    0.000000    0.000000  -98.823731   32.265099   -5.604340  -49.340923
  0.050260521    0.000000    0.000000    0.000000    0.000000  -99.229757   42.836197   -5.627398  -51.035770
  0.050460922    0.000000    0.000000    0.000000    0.000000  -99.292983   44.292553   -5.645990  -52.721767
  0.050661323    0.000000    0.000000    0.000000    0.000000 -100.376629   34.194454   -5.663081  -54.382526
  0.050861723    0.000000    0.000000    0.000000    0.000000  -98.518844   31.147657   -5.681126  -56.030884
  0.051062124    0.000000    0.000000    0.000000    0.000000  -97.873582   26.959061   -5.705290  -57.643402
  0.051262525    0.000000    0.000000    0.000000    0.000000  -98.526687   41.538719   -5.721818  -59.264610
  0.051462926    0.000000    0.000000    0.000000    0.000000  -99.797935   43.851391   -5.742286  -60.863853
  0.051663327    0.000000    0.000000    0.000000    0.000000  -98.027993   38.751259   -5.759414  -62.450619
  0.051863727    0.000000    0.000000    0.000000    0.000000  -98.996241   36.913712   -5.773623  -64.037964
  0.052064128    0.000000    0.000000    0.000000    0.000000 -100.790677   37.304924   -5.787024  -65.623032
  0.052264529    0.000000    0.000000    0.000000    0.000000  -98.483366   33.501217   -5.804251  -67.192307
  0.052464930    0.000000    0.000000    0.000000    0.000000  -98.959614   30.197943   -5.816195  -68.751709
  0.052665331    0.000000    0.000000    0.000000    0.000000 -102.340706   23.297201   -5.836862  -70.271034
  0.052865731    0.000000    0.000000    0.000000    0.000000  -99.143572   29.927233   -5.847601  -71.822945
