! Anritsu VNA Master:                     Model: MS2036C/10/77
! SN:                                  1601066
! /bd0/18may10/256.ns.m4.s2p
! Existing Calibration Information:
! TYPE:                         Current Settings,       Active Cal Settings
! TIME:             	   05/10/2018 11:01:16 AM,    05/10/2018 10:50:07 AM
! INTERNAL TEMP:    	                   50.5 C,                    49.0 C
! # POINTS:         	                      494,                       494
! START FREQ:       	               20.000 MHz,                20.000 MHz
! STOP FREQ:        	          118.797 594 MHz,           118.797 594 MHz
! SOURCE POWER:     	                     High,                      High
! IFBW:             	                    50 Hz,                     50 Hz
! AVG FACTOR:       	                       1 ,                        1 
! REF PLANE 1:      	                     0 mm,                      0 mm
! REF PLANE 2:      	                     0 mm,                      0 mm
! CAL TYPE:         	                 Full S22,                  Full S22
! CAL METHOD:       	                     SOLT,                      SOLT
! CAL LINE TYPE:    	                     Coax,                      Coax
! DUT PORT 1:       	                K-Conn(M),                 K-Conn(M)
! DUT PORT 2:       	                K-Conn(M),                 K-Conn(M)
! CAL STATUS:       	        OK: Accuracy High,                        --
# GHZ S DB R 50.0
! FREQ.GHZ       S11DB        S11A       S21DB        S21A       S12DB        S12A       S22DB        S22A
  0.020000000    0.000000    0.000000    0.000000    0.000000  -89.540609   36.940426   -0.606545 -126.648361
  0.020200401    0.000000    0.000000    0.000000    0.000000  -90.192205   33.254444   -0.610053 -128.097000
  0.020400802    0.000000    0.000000    0.000000    0.000000  -90.724281   35.997963   -0.613446 -129.557205
  0.020601202    0.000000    0.000000    0.000000    0.000000  -90.411940   32.052166   -0.620812 -131.063507
  0.020801603    0.000000    0.000000    0.000000    0.000000  -90.832617   37.070747   -0.623395 -132.595535
  0.021002004    0.000000    0.000000    0.000000    0.000000  -91.175712   35.310200   -0.628845 -134.142960
  0.021202405    0.000000    0.000000    0.000000    0.000000  -91.554185   37.209576   -0.633814 -135.688156
  0.021402806    0.000000    0.000000    0.000000    0.000000  -91.599420   36.932106   -0.637328 -137.233215
  0.021603206    0.000000    0.000000    0.000000    0.000000  -90.810888   39.634651   -0.642689 -138.791214
  0.021803607    0.000000    0.000000    0.000000    0.000000  -92.033675   40.730843   -0.646975 -140.347122
  0.022004008    0.000000    0.000000    0.000000    0.000000  -92.016685   40.748436   -0.653342 -141.935135
  0.022204409    0.000000    0.000000    0.000000    0.000000  -91.198265   40.709965   -0.660787 -143.539108
  0.022404810    0.000000    0.000000    0.000000    0.000000  -91.723044   43.122890   -0.667548 -145.162994
  0.022605210    0.000000    0.000000    0.000000    0.000000  -91.711751   42.653503   -0.677301 -146.785858
  0.022805611    0.000000    0.000000    0.000000    0.000000  -91.808617   43.164131   -0.683674 -148.422333
  0.023006012    0.000000    0.000000    0.000000    0.000000  -91.709897   47.336472   -0.687626 -150.066391
  0.023206413    0.000000    0.000000    0.000000    0.000000  -91.324103   45.322754   -0.691785 -151.696472
  0.023406814    0.000000    0.000000    0.000000    0.000000  -90.603577   42.589443   -0.698133 -153.322784
  0.023607214    0.000000    0.000000    0.000000    0.000000  -91.049416   40.159679   -0.707998 -154.961777
  0.023807615    0.000000    0.000000    0.000000    0.000000  -91.421657   36.444023   -0.720070 -156.596237
  0.024008016    0.000000    0.000000    0.000000    0.000000  -90.851712   35.044819   -0.728516 -158.265717
  0.024208417    0.000000    0.000000    0.000000    0.000000  -90.988443   34.219261   -0.736139 -159.939194
  0.024408818    0.000000    0.000000    0.000000    0.000000  -90.702569   34.102142   -0.742145 -161.602249
  0.024609218    0.000000    0.000000    0.000000    0.000000  -91.301365   32.071377   -0.751256 -163.277100
  0.024809619    0.000000    0.000000    0.000000    0.000000  -91.769146   32.190891   -0.762180 -164.932495
  0.025010020    0.000000    0.000000    0.000000    0.000000  -91.635820   31.738749   -0.772549 -166.595276
  0.025210421    0.000000    0.000000    0.000000    0.000000  -91.731032   24.284544   -0.784738 -168.244949
  0.025410822    0.000000    0.000000    0.000000    0.000000  -92.872580   25.646503   -0.797234 -169.922409
  0.025611222    0.000000    0.000000    0.000000    0.000000  -92.587238   28.483505   -0.809834 -171.603333
  0.025811623    0.000000    0.000000    0.000000    0.000000  -92.698309   24.343355   -0.823889 -173.292618
  0.026012024    0.000000    0.000000    0.000000    0.000000  -92.681643   26.257542   -0.836889 -174.992035
  0.026212425    0.000000    0.000000    0.000000    0.000000  -92.999901   25.872562   -0.850262 -176.704330
  0.026412826    0.000000    0.000000    0.000000    0.000000  -93.939438   27.237757   -0.868176 -178.428299
  0.026613226    0.000000    0.000000    0.000000    0.000000  -93.681754   27.966797   -0.884720  179.840775
  0.026813627    0.000000    0.000000    0.000000    0.000000  -94.101974   23.969145   -0.901877  178.092682
  0.027014028    0.000000    0.000000    0.000000    0.000000  -94.802718   34.181969   -0.921828  176.334946
  0.027214429    0.000000    0.000000    0.000000    0.000000  -94.554679   31.125179   -0.940870  174.572571
  0.027414830    0.000000    0.000000    0.000000    0.000000  -94.242046   27.402733   -0.961752  172.790604
  0.027615230    0.000000    0.000000    0.000000    0.000000  -95.008539   31.772541   -0.983431  170.973404
  0.027815631    0.000000    0.000000    0.000000    0.000000  -94.609486   31.837790   -1.005359  169.152893
  0.028016032    0.000000    0.000000    0.000000    0.000000  -94.175098   29.557714   -1.029344  167.306839
  0.028216433    0.000000    0.000000    0.000000    0.000000  -94.483453   32.306404   -1.052377  165.438385
  0.028416834    0.000000    0.000000    0.000000    0.000000  -94.910725   33.419716   -1.078097  163.575089
  0.028617234    0.000000    0.000000    0.000000    0.000000  -94.057443   36.748718   -1.102819  161.692184
  0.028817635    0.000000    0.000000    0.000000    0.000000  -94.554065   33.862137   -1.128338  159.795670
  0.029018036    0.000000    0.000000    0.000000    0.000000  -93.680126   35.043697   -1.155608  157.906342
  0.029218437    0.000000    0.000000    0.000000    0.000000  -93.493537   33.240471   -1.184122  156.000870
  0.029418838    0.000000    0.000000    0.000000    0.000000  -93.897124   35.571159   -1.211336  154.062897
  0.029619238    0.000000    0.000000    0.000000    0.000000  -93.954771   38.286613   -1.241809  152.128326
  0.029819639    0.000000    0.000000    0.000000    0.000000  -94.422168   30.850143   -1.270457  150.183975
  0.030020040    0.000000    0.000000    0.000000    0.000000  -94.282424   28.545536   -1.298427  148.233871
  0.030220441    0.000000    0.000000    0.000000    0.000000  -94.321687   24.545881   -1.328438  146.298325
  0.030420842    0.000000    0.000000    0.000000    0.000000  -93.830885   24.644781   -1.358250  144.374969
  0.030621242    0.000000    0.000000    0.000000    0.000000  -93.737164   26.844343   -1.390475  142.454163
  0.030821643    0.000000    0.000000    0.000000    0.000000  -94.484613   21.137335   -1.425959  140.519409
  0.031022044    0.000000    0.000000    0.000000    0.000000  -94.236523   23.010576   -1.458893  138.568665
  0.031222445    0.000000    0.000000    0.000000    0.000000  -94.904921   23.263769   -1.488866  136.639359
  0.031422846    0.000000    0.000000    0.000000    0.000000  -94.419619   26.129148   -1.522276  134.670715
  0.031623246    0.000000    0.000000    0.000000    0.000000  -94.446875   20.572060   -1.557956  132.712067
  0.031823647    0.000000    0.000000    0.000000    0.000000  -94.791713   15.601250   -1.593840  130.764984
  0.032024048    0.000000    0.000000    0.000000    0.000000  -94.815384   14.270384   -1.629174  128.828934
  0.032224449    0.000000    0.000000    0.000000    0.000000  -95.834456   18.029436   -1.669005  126.879341
  0.032424850    0.000000    0.000000    0.000000    0.000000  -94.603770   16.921913   -1.710273  124.916786
  0.032625250    0.000000    0.000000    0.000000    0.000000  -95.814301   22.252029   -1.746842  122.949905
  0.032825651    0.000000    0.000000    0.000000    0.000000  -95.099150   16.523724   -1.786895  120.957169
  0.033026052    0.000000    0.000000    0.000000    0.000000  -97.183099   27.001539   -1.827266  118.937279
  0.033226453    0.000000    0.000000    0.000000    0.000000  -96.125304   19.728168   -1.868922  116.952744
  0.033426854    0.000000    0.000000    0.000000    0.000000  -97.263354   25.163837   -1.911793  114.939423
  0.033627254    0.000000    0.000000    0.000000    0.000000  -95.895979   28.172010   -1.956500  112.934914
  0.033827655    0.000000    0.000000    0.000000    0.000000  -96.804037   27.700718   -2.002737  110.916000
  0.034028056    0.000000    0.000000    0.000000    0.000000  -96.083300   28.902611   -2.046725  108.855293
  0.034228457    0.000000    0.000000    0.000000    0.000000  -95.499078   25.691521   -2.096108  106.793770
  0.034428858    0.000000    0.000000    0.000000    0.000000  -95.677429   19.959352   -2.145860  104.722107
  0.034629258    0.000000    0.000000    0.000000    0.000000  -95.541830   28.281717   -2.194646  102.616440
  0.034829659    0.000000    0.000000    0.000000    0.000000  -96.203588   30.383448   -2.246119  100.512177
  0.035030060    0.000000    0.000000    0.000000    0.000000  -96.131968   24.955860   -2.297937   98.424889
  0.035230461    0.000000    0.000000    0.000000    0.000000  -97.289222   32.024441   -2.351490   96.300865
  0.035430862    0.000000    0.000000    0.000000    0.000000  -96.066991   23.277512   -2.402936   94.176888
  0.035631262    0.000000    0.000000    0.000000    0.000000  -95.681468   27.999163   -2.457308   92.066376
  0.035831663    0.000000    0.000000    0.000000    0.000000  -96.347340   20.661823   -2.513665   89.937645
  0.036032064    0.000000    0.000000    0.000000    0.000000  -96.305340   22.051624   -2.565012   87.818695
  0.036232465    0.000000    0.000000    0.000000    0.000000  -96.058118   23.718048   -2.617617   85.676620
  0.036432866    0.000000    0.000000    0.000000    0.000000  -95.798802   24.933208   -2.673876   83.582458
  0.036633266    0.000000    0.000000    0.000000    0.000000  -97.234041   24.471155   -2.729311   81.466965
  0.036833667    0.000000    0.000000    0.000000    0.000000  -95.516155   21.210463   -2.785502   79.346786
  0.037034068    0.000000    0.000000    0.000000    0.000000  -95.879552   17.396122   -2.840859   77.244942
  0.037234469    0.000000    0.000000    0.000000    0.000000  -96.586579   21.493296   -2.896875   75.131798
  0.037434870    0.000000    0.000000    0.000000    0.000000  -96.547286   23.587551   -2.953349   73.019867
  0.037635270    0.000000    0.000000    0.000000    0.000000  -96.873572   27.127714   -3.016863   70.916580
  0.037835671    0.000000    0.000000    0.000000    0.000000  -97.795371   17.828213   -3.091297   68.853569
  0.038036072    0.000000    0.000000    0.000000    0.000000  -98.128924   26.467506   -3.158795   66.899162
  0.038236473    0.000000    0.000000    0.000000    0.000000  -97.060780   20.983099   -3.215080   64.922737
  0.038436874    0.000000    0.000000    0.000000    0.000000  -98.948212   33.427784   -3.263179   62.913677
  0.038637274    0.000000    0.000000    0.000000    0.000000  -98.220166   22.238033   -3.318004   60.895748
  0.038837675    0.000000    0.000000    0.000000    0.000000  -99.010680   23.136272   -3.372168   58.876530
  0.039038076    0.000000    0.000000    0.000000    0.000000  -98.857877   30.186424   -3.422160   56.880367
  0.039238477    0.000000    0.000000    0.000000    0.000000  -99.161118   26.067862   -3.477057   54.849686
  0.039438878    0.000000    0.000000    0.000000    0.000000  -97.623818   28.201172   -3.526499   52.844494
  0.039639278    0.000000    0.000000    0.000000    0.000000  -98.000144   32.996334   -3.584793   50.810978
  0.039839679    0.000000    0.000000    0.000000    0.000000  -97.467837   29.508144   -3.637693   48.771442
  0.040040080    0.000000    0.000000    0.000000    0.000000  -97.793778   32.600548   -3.689004   46.722908
  0.040240481    0.000000    0.000000    0.000000    0.000000  -98.303741   30.362295   -3.742832   44.678089
  0.040440882    0.000000    0.000000    0.000000    0.000000  -98.889624   28.499498   -3.797070   42.653381
  0.040641283    0.000000    0.000000    0.000000    0.000000  -97.196756   26.577518   -3.847922   40.613365
  0.040841683    0.000000    0.000000    0.000000    0.000000  -97.149694   27.473869   -3.899729   38.590004
  0.041042084    0.000000    0.000000    0.000000    0.000000  -97.440262   33.541645   -3.951292   36.530296
  0.041242485    0.000000    0.000000    0.000000    0.000000  -98.972757   31.112867   -4.004468   34.474495
  0.041442886    0.000000    0.000000    0.000000    0.000000  -96.511177   27.095390   -4.056831   32.401302
  0.041643287    0.000000    0.000000    0.000000    0.000000  -98.743766   27.783155   -4.101772   30.336590
  0.041843687    0.000000    0.000000    0.000000    0.000000  -97.275134   27.051428   -4.149586   28.246187
  0.042044088    0.000000    0.000000    0.000000    0.000000  -97.413905   29.278891   -4.195785   26.177389
  0.042244489    0.000000    0.000000    0.000000    0.000000  -99.233995   27.444622   -4.242374   24.139261
  0.042444890    0.000000    0.000000    0.000000    0.000000  -98.124174   21.052153   -4.285970   22.080120
  0.042645291    0.000000    0.000000    0.000000    0.000000  -98.652663   30.843054   -4.329994   20.032200
  0.042845691    0.000000    0.000000    0.000000    0.000000  -98.911387   29.799372   -4.372633   18.005707
  0.043046092    0.000000    0.000000    0.000000    0.000000  -98.238385   24.817352   -4.414127   15.958884
  0.043246493    0.000000    0.000000    0.000000    0.000000 -100.319721   24.448521   -4.454387   13.921671
  0.043446894    0.000000    0.000000    0.000000    0.000000  -98.737031   33.570595   -4.492483   11.915089
  0.043647295    0.000000    0.000000    0.000000    0.000000  -99.410705   31.463608   -4.530883    9.902041
  0.043847695    0.000000    0.000000    0.000000    0.000000  -98.585534   26.833992   -4.570010    7.929226
  0.044048096    0.000000    0.000000    0.000000    0.000000  -98.772212   32.878254   -4.606330    5.955386
  0.044248497    0.000000    0.000000    0.000000    0.000000  -99.150407   27.614555   -4.646341    3.979820
  0.044448898    0.000000    0.000000    0.000000    0.000000  -99.684283   21.767769   -4.680693    2.039543
  0.044649299    0.000000    0.000000    0.000000    0.000000 -100.318344   28.441906   -4.717807    0.107044
  0.044849699    0.000000    0.000000    0.000000    0.000000  -99.037828   37.092518   -4.753817   -1.813470
  0.045050100    0.000000    0.000000    0.000000    0.000000  -98.197182   36.379436   -4.793341   -3.735210
  0.045250501    0.000000    0.000000    0.000000    0.000000  -97.403965   31.271946   -4.827815   -5.639409
  0.045450902    0.000000    0.000000    0.000000    0.000000  -98.214323   25.537130   -4.863703   -7.534556
  0.045651303    0.000000    0.000000    0.000000    0.000000  -98.560201   40.140129   -4.898365   -9.443165
  0.045851703    0.000000    0.000000    0.000000    0.000000  -98.378363   30.247076   -4.932927  -11.335491
  0.046052104    0.000000    0.000000    0.000000    0.000000  -98.889459   33.890862   -4.967954  -13.198355
  0.046252505    0.000000    0.000000    0.000000    0.000000  -98.867753   33.939919   -5.004483  -15.059262
  0.046452906    0.000000    0.000000    0.000000    0.000000  -98.308220   45.761204   -5.043222  -16.904236
  0.046653307    0.000000    0.000000    0.000000    0.000000  -97.799258   26.117437   -5.082705  -18.787945
  0.046853707    0.000000    0.000000    0.000000    0.000000  -97.867989   33.166946   -5.120930  -20.637585
  0.047054108    0.000000    0.000000    0.000000    0.000000  -98.424200   32.880344   -5.157152  -22.500092
  0.047254509    0.000000    0.000000    0.000000    0.000000  -99.338549   32.486500   -5.196618  -24.350439
  0.047454910    0.000000    0.000000    0.000000    0.000000  -99.269287   34.990726   -5.230887  -26.191921
  0.047655311    0.000000    0.000000    0.000000    0.000000  -99.334526   27.001707   -5.265750  -28.014015
  0.047855711    0.000000    0.000000    0.000000    0.000000  -99.243670   28.462696   -5.303178  -29.821947
  0.048056112    0.000000    0.000000    0.000000    0.000000  -99.230912   34.543232   -5.333918  -31.620129
  0.048256513    0.000000    0.000000    0.000000    0.000000  -98.085703   34.777088   -5.366567  -33.417732
  0.048456914    0.000000    0.000000    0.000000    0.000000  -99.766525   17.845652   -5.399489  -35.226940
  0.048657315    0.000000    0.000000    0.000000    0.000000  -99.236977   27.928610   -5.428468  -37.018192
  0.048857715    0.000000    0.000000    0.000000    0.000000 -100.686662   38.541466   -5.457525  -38.805244
  0.049058116    0.000000    0.000000    0.000000    0.000000 -100.314907   36.841118   -5.482924  -40.577904
  0.049258517    0.000000    0.000000    0.000000    0.000000 -101.125326   25.944435   -5.506822  -42.313381
  0.049458918    0.000000    0.000000    0.000000    0.000000  -99.310022   27.631182   -5.531469  -44.045547
  0.049659319    0.000000    0.000000    0.000000    0.000000  -99.700108   18.387426   -5.555006  -45.758724
  0.049859719    0.000000    0.000000    0.000000    0.000000  -99.175890   32.476406   -5.582018  -47.464607
  0.050060120    0.000000    0.000000    0.000000    0.000000 -100.511090   33.832638   -5.602309  -49.157555
  0.050260521    0.000000    0.000000    0.000000    0.000000  -99.202786   35.059406   -5.625805  -50.845730
  0.050460922    0.000000    0.000000    0.000000    0.000000 -100.874012   23.076323   -5.643256  -52.528408
  0.050661323    0.000000    0.000000    0.000000    0.000000  -99.488581   29.049982   -5.660315  -54.192513
  0.050861723    0.000000    0.000000    0.000000    0.000000  -99.434599   39.938763   -5.679795  -55.834766
  0.051062124    0.000000    0.000000    0.000000    0.000000  -98.952700   36.829082   -5.700133  -57.459766
  0.051262525    0.000000    0.000000    0.000000    0.000000  -99.787525   36.689854   -5.717957  -59.063877
  0.051462926    0.000000    0.000000    0.000000    0.000000  -98.626416   39.560860   -5.738368  -60.681759
  0.051663327    0.000000    0.000000    0.000000    0.000000  -99.706918   35.098557   -5.753786  -62.249203
  0.051863727    0.000000    0.000000    0.000000    0.000000  -99.418666   37.407433   -5.771719  -63.861633
  0.052064128    0.000000    0.000000    0.000000    0.000000  -99.428067   33.931442   -5.784032  -65.438034
  0.052264529    0.000000    0.000000    0.000000    0.000000  -98.917044   37.958191   -5.799290  -67.007439
  0.052464930    0.000000    0.000000    0.000000    0.000000  -98.808421   34.835415   -5.813604  -68.569275
  0.052665331    0.000000    0.000000    0.000000    0.000000  -99.619117   38.531769   -5.832616  -70.088463
  0.052865731    0.000000    0.000000    0.000000    0.000000  -98.773834   28.740059   -5.843858  -71.644943
