! Anritsu VNA Master:                     Model: MS2036C/10/77
! SN:                                  1601066
! /bd0/18may10/256.ns.m.s2p
! Existing Calibration Information:
! TYPE:                         Current Settings,       Active Cal Settings
! TIME:             	   05/10/2018 11:18:28 AM,    05/10/2018 11:07:23 AM
! INTERNAL TEMP:    	                   52.8 C,                    51.3 C
! # POINTS:         	                      494,                       494
! START FREQ:       	               20.000 MHz,                20.000 MHz
! STOP FREQ:        	          118.797 594 MHz,           118.797 594 MHz
! SOURCE POWER:     	                     High,                      High
! IFBW:             	                    50 Hz,                     50 Hz
! AVG FACTOR:       	                       1 ,                        1 
! REF PLANE 1:      	                     0 mm,                      0 mm
! REF PLANE 2:      	                     0 mm,                      0 mm
! CAL TYPE:         	                 Full S22,                  Full S22
! CAL METHOD:       	                     SOLT,                      SOLT
! CAL LINE TYPE:    	                     Coax,                      Coax
! DUT PORT 1:       	                K-Conn(M),                 K-Conn(M)
! DUT PORT 2:       	                K-Conn(M),                 K-Conn(M)
! CAL STATUS:       	        OK: Accuracy High,                        --
# GHZ S DB R 50.0
! FREQ.GHZ       S11DB        S11A       S21DB        S21A       S12DB        S12A       S22DB        S22A
  0.020000000    0.000000    0.000000    0.000000    0.000000  -89.448972   34.793224   -0.613686 -126.842308
  0.020200401    0.000000    0.000000    0.000000    0.000000  -89.887347   35.293633   -0.616706 -128.304947
  0.020400802    0.000000    0.000000    0.000000    0.000000  -90.307326   35.829098   -0.623007 -129.795609
  0.020601202    0.000000    0.000000    0.000000    0.000000  -90.426113   35.861469   -0.627352 -131.310181
  0.020801603    0.000000    0.000000    0.000000    0.000000  -90.742425   34.620125   -0.631460 -132.841415
  0.021002004    0.000000    0.000000    0.000000    0.000000  -91.060268   36.221737   -0.635141 -134.392380
  0.021202405    0.000000    0.000000    0.000000    0.000000  -91.549927   39.975449   -0.640534 -135.951416
  0.021402806    0.000000    0.000000    0.000000    0.000000  -92.075961   36.756687   -0.642127 -137.481003
  0.021603206    0.000000    0.000000    0.000000    0.000000  -91.959378   38.942719   -0.646811 -139.034515
  0.021803607    0.000000    0.000000    0.000000    0.000000  -91.681976   38.856899   -0.653531 -140.576935
  0.022004008    0.000000    0.000000    0.000000    0.000000  -91.557884   40.828785   -0.658942 -142.131027
  0.022204409    0.000000    0.000000    0.000000    0.000000  -91.936305   42.897259   -0.666716 -143.709930
  0.022404810    0.000000    0.000000    0.000000    0.000000  -92.395430   43.569923   -0.672222 -145.323364
  0.022605210    0.000000    0.000000    0.000000    0.000000  -92.046968   45.703812   -0.678602 -146.917511
  0.022805611    0.000000    0.000000    0.000000    0.000000  -91.328463   43.143551   -0.688290 -148.527466
  0.023006012    0.000000    0.000000    0.000000    0.000000  -91.484418   45.904408   -0.691907 -150.127060
  0.023206413    0.000000    0.000000    0.000000    0.000000  -91.092990   43.372162   -0.696723 -151.745758
  0.023406814    0.000000    0.000000    0.000000    0.000000  -91.321217   45.251644   -0.703272 -153.347260
  0.023607214    0.000000    0.000000    0.000000    0.000000  -91.298093   40.533451   -0.712524 -154.968826
  0.023807615    0.000000    0.000000    0.000000    0.000000  -90.617393   39.899872   -0.724715 -156.597443
  0.024008016    0.000000    0.000000    0.000000    0.000000  -90.902702   36.283405   -0.733732 -158.239777
  0.024208417    0.000000    0.000000    0.000000    0.000000  -91.238189   34.821632   -0.740583 -159.917786
  0.024408818    0.000000    0.000000    0.000000    0.000000  -91.681936   36.723709   -0.748680 -161.587830
  0.024609218    0.000000    0.000000    0.000000    0.000000  -91.609146   32.290432   -0.759023 -163.259918
  0.024809619    0.000000    0.000000    0.000000    0.000000  -91.256411   31.923973   -0.770304 -164.931747
  0.025010020    0.000000    0.000000    0.000000    0.000000  -91.020707   31.818539   -0.783393 -166.617859
  0.025210421    0.000000    0.000000    0.000000    0.000000  -92.137018   30.158625   -0.796074 -168.302628
  0.025410822    0.000000    0.000000    0.000000    0.000000  -92.132943   25.649965   -0.808625 -169.995697
  0.025611222    0.000000    0.000000    0.000000    0.000000  -92.032930   28.549170   -0.821732 -171.715225
  0.025811623    0.000000    0.000000    0.000000    0.000000  -93.366981   23.894386   -0.836774 -173.445602
  0.026012024    0.000000    0.000000    0.000000    0.000000  -93.054544   27.323742   -0.850149 -175.177200
  0.026212425    0.000000    0.000000    0.000000    0.000000  -92.426725   23.820927   -0.864606 -176.932007
  0.026412826    0.000000    0.000000    0.000000    0.000000  -93.580937   18.800526   -0.881311 -178.703842
  0.026613226    0.000000    0.000000    0.000000    0.000000  -93.835037   27.850817   -0.898569  179.535095
  0.026813627    0.000000    0.000000    0.000000    0.000000  -93.309798   26.040331   -0.916219  177.744354
  0.027014028    0.000000    0.000000    0.000000    0.000000  -93.686375   24.976969   -0.935519  175.956619
  0.027214429    0.000000    0.000000    0.000000    0.000000  -94.692614   28.914902   -0.953324  174.158356
  0.027414830    0.000000    0.000000    0.000000    0.000000  -94.774767   31.268745   -0.974022  172.353683
  0.027615230    0.000000    0.000000    0.000000    0.000000  -94.316997   31.618490   -0.993702  170.524719
  0.027815631    0.000000    0.000000    0.000000    0.000000  -94.434859   33.298866   -1.015174  168.694641
  0.028016032    0.000000    0.000000    0.000000    0.000000  -93.598840   35.971146   -1.037262  166.848511
  0.028216433    0.000000    0.000000    0.000000    0.000000  -94.865421   33.144642   -1.060029  164.980713
  0.028416834    0.000000    0.000000    0.000000    0.000000  -94.284069   34.620823   -1.083069  163.123169
  0.028617234    0.000000    0.000000    0.000000    0.000000  -94.166601   31.467531   -1.106629  161.259674
  0.028817635    0.000000    0.000000    0.000000    0.000000  -94.740896   35.786667   -1.130487  159.390076
  0.029018036    0.000000    0.000000    0.000000    0.000000  -94.452796   34.482578   -1.156429  157.513855
  0.029218437    0.000000    0.000000    0.000000    0.000000  -93.649030   36.793011   -1.183705  155.631699
  0.029418838    0.000000    0.000000    0.000000    0.000000  -93.675946   34.240978   -1.211981  153.727402
  0.029619238    0.000000    0.000000    0.000000    0.000000  -94.011461   30.637356   -1.239279  151.827698
  0.029819639    0.000000    0.000000    0.000000    0.000000  -93.696971   29.163879   -1.267292  149.912933
  0.030020040    0.000000    0.000000    0.000000    0.000000  -93.983882   25.186562   -1.297426  148.000809
  0.030220441    0.000000    0.000000    0.000000    0.000000  -93.754414   27.265928   -1.325314  146.084122
  0.030420842    0.000000    0.000000    0.000000    0.000000  -94.529011   29.071270   -1.356508  144.181168
  0.030621242    0.000000    0.000000    0.000000    0.000000  -94.352730   26.842972   -1.390215  142.277527
  0.030821643    0.000000    0.000000    0.000000    0.000000  -93.711725   25.382105   -1.424085  140.352448
  0.031022044    0.000000    0.000000    0.000000    0.000000  -93.917209   23.093637   -1.458567  138.410187
  0.031222445    0.000000    0.000000    0.000000    0.000000  -93.922205   22.371471   -1.489957  136.473663
  0.031422846    0.000000    0.000000    0.000000    0.000000  -93.667080   13.082815   -1.525707  134.507004
  0.031623246    0.000000    0.000000    0.000000    0.000000  -94.506781   20.235394   -1.562149  132.544525
  0.031823647    0.000000    0.000000    0.000000    0.000000  -94.680499   19.123257   -1.600494  130.576538
  0.032024048    0.000000    0.000000    0.000000    0.000000  -95.700009   11.186203   -1.639395  128.593430
  0.032224449    0.000000    0.000000    0.000000    0.000000  -94.394628   10.361019   -1.678590  126.610359
  0.032424850    0.000000    0.000000    0.000000    0.000000  -95.344472   14.293057   -1.716404  124.626770
  0.032625250    0.000000    0.000000    0.000000    0.000000  -95.772895   19.064190   -1.758059  122.619980
  0.032825651    0.000000    0.000000    0.000000    0.000000  -96.593748   20.276358   -1.799187  120.580170
  0.033026052    0.000000    0.000000    0.000000    0.000000  -97.547861   25.278625   -1.839977  118.529396
  0.033226453    0.000000    0.000000    0.000000    0.000000  -95.925802   17.696434   -1.880901  116.497635
  0.033426854    0.000000    0.000000    0.000000    0.000000  -95.835111   22.591825   -1.926239  114.471565
  0.033627254    0.000000    0.000000    0.000000    0.000000  -96.129509   20.116724   -1.966623  112.429276
  0.033827655    0.000000    0.000000    0.000000    0.000000  -96.115198   23.762579   -2.013429  110.381439
  0.034028056    0.000000    0.000000    0.000000    0.000000  -97.806150   26.402353   -2.058947  108.334106
  0.034228457    0.000000    0.000000    0.000000    0.000000  -96.538909   24.269049   -2.104748  106.244621
  0.034428858    0.000000    0.000000    0.000000    0.000000  -97.238262   26.320360   -2.152899  104.168533
  0.034629258    0.000000    0.000000    0.000000    0.000000  -96.252475   32.567886   -2.199998  102.074501
  0.034829659    0.000000    0.000000    0.000000    0.000000  -96.369588   24.630022   -2.247199   99.974495
  0.035030060    0.000000    0.000000    0.000000    0.000000  -96.611568   26.191748   -2.299438   97.885864
  0.035230461    0.000000    0.000000    0.000000    0.000000  -97.035056   29.678009   -2.351846   95.789474
  0.035430862    0.000000    0.000000    0.000000    0.000000  -96.606534   22.639433   -2.403339   93.713387
  0.035631262    0.000000    0.000000    0.000000    0.000000  -96.587426   24.842068   -2.455667   91.612518
  0.035831663    0.000000    0.000000    0.000000    0.000000  -96.673917   24.553270   -2.506414   89.526222
  0.036032064    0.000000    0.000000    0.000000    0.000000  -95.807083   32.203728   -2.562291   87.413368
  0.036232465    0.000000    0.000000    0.000000    0.000000  -95.260815   24.373047   -2.615333   85.352745
  0.036432866    0.000000    0.000000    0.000000    0.000000  -95.789679   31.668056   -2.667849   83.260803
  0.036633266    0.000000    0.000000    0.000000    0.000000  -96.505742   24.471039   -2.722503   81.180939
  0.036833667    0.000000    0.000000    0.000000    0.000000  -96.817433   23.424915   -2.780776   79.094864
  0.037034068    0.000000    0.000000    0.000000    0.000000  -96.325978   21.699474   -2.835446   77.009857
  0.037234469    0.000000    0.000000    0.000000    0.000000  -96.691989   25.706320   -2.893330   74.918709
  0.037434870    0.000000    0.000000    0.000000    0.000000  -97.426927   25.062555   -2.951550   72.813583
  0.037635270    0.000000    0.000000    0.000000    0.000000  -97.188223   30.233774   -3.017225   70.709511
  0.037835671    0.000000    0.000000    0.000000    0.000000  -97.339550   15.277487   -3.095800   68.660156
  0.038036072    0.000000    0.000000    0.000000    0.000000  -97.881664   25.412697   -3.162984   66.673264
  0.038236473    0.000000    0.000000    0.000000    0.000000  -97.914187   23.216158   -3.219387   64.691299
  0.038436874    0.000000    0.000000    0.000000    0.000000  -97.699298   20.365095   -3.271978   62.676071
  0.038637274    0.000000    0.000000    0.000000    0.000000  -98.214974   30.927435   -3.326596   60.632435
  0.038837675    0.000000    0.000000    0.000000    0.000000  -99.097063   19.843273   -3.380889   58.579357
  0.039038076    0.000000    0.000000    0.000000    0.000000  -98.165743   23.171959   -3.429544   56.561577
  0.039238477    0.000000    0.000000    0.000000    0.000000  -98.785156   30.125095   -3.487031   54.490246
  0.039438878    0.000000    0.000000    0.000000    0.000000  -97.648533   26.155046   -3.538731   52.482506
  0.039639278    0.000000    0.000000    0.000000    0.000000  -97.648952   30.381382   -3.593480   50.432732
  0.039839679    0.000000    0.000000    0.000000    0.000000  -97.574559   26.023396   -3.646430   48.376461
  0.040040080    0.000000    0.000000    0.000000    0.000000  -97.607289   32.370548   -3.696897   46.322514
  0.040240481    0.000000    0.000000    0.000000    0.000000  -96.969998   24.631443   -3.749436   44.268143
  0.040440882    0.000000    0.000000    0.000000    0.000000  -97.784290   26.204536   -3.797987   42.225548
  0.040641283    0.000000    0.000000    0.000000    0.000000  -97.620739   27.323931   -3.847421   40.198078
  0.040841683    0.000000    0.000000    0.000000    0.000000  -98.418156   42.335625   -3.899849   38.172775
  0.041042084    0.000000    0.000000    0.000000    0.000000  -97.903350   25.705385   -3.949099   36.152447
  0.041242485    0.000000    0.000000    0.000000    0.000000  -97.789711   27.679914   -4.000979   34.098526
  0.041442886    0.000000    0.000000    0.000000    0.000000  -97.023244   33.639545   -4.045735   32.070583
  0.041643287    0.000000    0.000000    0.000000    0.000000  -97.537508   20.895613   -4.094628   30.022650
  0.041843687    0.000000    0.000000    0.000000    0.000000  -98.481104   35.202469   -4.138935   27.975435
  0.042044088    0.000000    0.000000    0.000000    0.000000  -97.019446   29.464544   -4.185291   25.947935
  0.042244489    0.000000    0.000000    0.000000    0.000000  -98.526079   26.527382   -4.230911   23.923887
  0.042444890    0.000000    0.000000    0.000000    0.000000  -97.871513   19.774937   -4.275412   21.908960
  0.042645291    0.000000    0.000000    0.000000    0.000000  -99.178752   27.102024   -4.319850   19.894459
  0.042845691    0.000000    0.000000    0.000000    0.000000  -99.861834   30.075628   -4.363041   17.880064
  0.043046092    0.000000    0.000000    0.000000    0.000000  -98.965053   26.460194   -4.405827   15.888816
  0.043246493    0.000000    0.000000    0.000000    0.000000  -99.643787   25.135849   -4.450910   13.860219
  0.043446894    0.000000    0.000000    0.000000    0.000000  -98.554095   33.659447   -4.489716   11.877758
  0.043647295    0.000000    0.000000    0.000000    0.000000  -99.219608   25.232824   -4.528112    9.872598
  0.043847695    0.000000    0.000000    0.000000    0.000000 -100.223517   26.054546   -4.571870    7.890973
  0.044048096    0.000000    0.000000    0.000000    0.000000  -99.559451   33.359673   -4.611745    5.916080
  0.044248497    0.000000    0.000000    0.000000    0.000000  -99.612879   22.194635   -4.650253    3.958473
  0.044448898    0.000000    0.000000    0.000000    0.000000  -98.518683   30.677326   -4.688257    1.993411
  0.044649299    0.000000    0.000000    0.000000    0.000000 -100.503817   34.921974   -4.729716    0.040967
  0.044849699    0.000000    0.000000    0.000000    0.000000  -99.875132   43.552208   -4.769073   -1.902962
  0.045050100    0.000000    0.000000    0.000000    0.000000  -99.396940   34.390125   -4.807871   -3.834069
  0.045250501    0.000000    0.000000    0.000000    0.000000 -100.114505   39.431499   -4.845272   -5.772211
  0.045450902    0.000000    0.000000    0.000000    0.000000  -99.635728   25.575083   -4.882120   -7.673965
  0.045651303    0.000000    0.000000    0.000000    0.000000  -99.124609   26.941978   -4.917141   -9.619923
  0.045851703    0.000000    0.000000    0.000000    0.000000  -98.925769   31.041174   -4.951355  -11.518253
  0.046052104    0.000000    0.000000    0.000000    0.000000  -99.438250   25.767530   -4.985781  -13.412868
  0.046252505    0.000000    0.000000    0.000000    0.000000  -98.566565   33.584141   -5.022447  -15.284353
  0.046452906    0.000000    0.000000    0.000000    0.000000  -99.784096   33.196159   -5.057113  -17.151690
  0.046653307    0.000000    0.000000    0.000000    0.000000  -97.740690   31.573418   -5.093893  -19.039328
  0.046853707    0.000000    0.000000    0.000000    0.000000  -99.299246   29.538601   -5.128778  -20.887360
  0.047054108    0.000000    0.000000    0.000000    0.000000  -98.229987   22.333685   -5.164873  -22.743507
  0.047254509    0.000000    0.000000    0.000000    0.000000  -97.720764   31.102940   -5.202277  -24.594339
  0.047454910    0.000000    0.000000    0.000000    0.000000  -98.018040   22.013809   -5.236264  -26.418217
  0.047655311    0.000000    0.000000    0.000000    0.000000  -98.365623   25.573717   -5.269887  -28.208479
  0.047855711    0.000000    0.000000    0.000000    0.000000 -100.134447   29.441978   -5.303667  -29.999575
  0.048056112    0.000000    0.000000    0.000000    0.000000 -100.242034   23.943562   -5.338059  -31.768805
  0.048256513    0.000000    0.000000    0.000000    0.000000 -100.225834   35.267155   -5.369946  -33.547047
  0.048456914    0.000000    0.000000    0.000000    0.000000  -99.079198   35.564877   -5.399154  -35.310440
  0.048657315    0.000000    0.000000    0.000000    0.000000  -98.729179   32.586372   -5.427729  -37.088951
  0.048857715    0.000000    0.000000    0.000000    0.000000  -99.132109   34.390202   -5.457999  -38.832027
  0.049058116    0.000000    0.000000    0.000000    0.000000  -99.634251   26.186964   -5.484419  -40.595711
  0.049258517    0.000000    0.000000    0.000000    0.000000  -98.814066   29.802700   -5.509813  -42.336472
  0.049458918    0.000000    0.000000    0.000000    0.000000  -99.085353   30.746847   -5.540691  -44.030346
  0.049659319    0.000000    0.000000    0.000000    0.000000 -100.304632   28.415499   -5.566088  -45.740467
  0.049859719    0.000000    0.000000    0.000000    0.000000  -98.997163   33.757076   -5.593354  -47.451771
  0.050060120    0.000000    0.000000    0.000000    0.000000  -99.437111   37.882160   -5.617564  -49.138741
  0.050260521    0.000000    0.000000    0.000000    0.000000 -100.046139   21.869041   -5.640110  -50.813377
  0.050460922    0.000000    0.000000    0.000000    0.000000  -98.796742   33.662975   -5.662778  -52.522701
  0.050661323    0.000000    0.000000    0.000000    0.000000  -98.347198   34.744961   -5.683140  -54.190857
  0.050861723    0.000000    0.000000    0.000000    0.000000  -98.680548   35.378460   -5.700110  -55.830463
  0.051062124    0.000000    0.000000    0.000000    0.000000  -99.132335   34.214226   -5.721696  -57.474476
  0.051262525    0.000000    0.000000    0.000000    0.000000  -99.182828   31.922009   -5.739750  -59.094921
  0.051462926    0.000000    0.000000    0.000000    0.000000  -99.254354   28.423717   -5.762340  -60.707260
  0.051663327    0.000000    0.000000    0.000000    0.000000  -98.708567   26.280661   -5.776579  -62.308086
  0.051863727    0.000000    0.000000    0.000000    0.000000  -98.852845   30.762722   -5.795984  -63.914314
  0.052064128    0.000000    0.000000    0.000000    0.000000  -99.695500   48.340580   -5.804602  -65.489006
  0.052264529    0.000000    0.000000    0.000000    0.000000  -99.138585   39.981266   -5.817560  -67.079781
  0.052464930    0.000000    0.000000    0.000000    0.000000  -99.011471   25.529755   -5.831942  -68.604370
  0.052665331    0.000000    0.000000    0.000000    0.000000  -97.814934   37.123043   -5.845729  -70.152771
  0.052865731    0.000000    0.000000    0.000000    0.000000  -98.146740   29.015791   -5.860272  -71.677963
