! Anritsu VNA Master:                     Model: MS2036C/10/77
! SN:                                  1601066
! /bd0/18may10/256.ns.m3.s2p
! Existing Calibration Information:
! TYPE:                         Current Settings,       Active Cal Settings
! TIME:             	   05/10/2018 10:58:14 AM,    05/10/2018 10:50:07 AM
! INTERNAL TEMP:    	                   50.3 C,                    49.0 C
! # POINTS:         	                      494,                       494
! START FREQ:       	               20.000 MHz,                20.000 MHz
! STOP FREQ:        	          118.797 594 MHz,           118.797 594 MHz
! SOURCE POWER:     	                     High,                      High
! IFBW:             	                    50 Hz,                     50 Hz
! AVG FACTOR:       	                       1 ,                        1 
! REF PLANE 1:      	                     0 mm,                      0 mm
! REF PLANE 2:      	                     0 mm,                      0 mm
! CAL TYPE:         	                 Full S22,                  Full S22
! CAL METHOD:       	                     SOLT,                      SOLT
! CAL LINE TYPE:    	                     Coax,                      Coax
! DUT PORT 1:       	                K-Conn(M),                 K-Conn(M)
! DUT PORT 2:       	                K-Conn(M),                 K-Conn(M)
! CAL STATUS:       	        OK: Accuracy High,                        --
# GHZ S DB R 50.0
! FREQ.GHZ       S11DB        S11A       S21DB        S21A       S12DB        S12A       S22DB        S22A
  0.020000000    0.000000    0.000000    0.000000    0.000000  -89.845634   37.081604   -0.615892 -126.675171
  0.020200401    0.000000    0.000000    0.000000    0.000000  -90.003442   35.501858   -0.620009 -128.120300
  0.020400802    0.000000    0.000000    0.000000    0.000000  -89.942346   31.412449   -0.622046 -129.594193
  0.020601202    0.000000    0.000000    0.000000    0.000000  -89.947198   31.884129   -0.629296 -131.105179
  0.020801603    0.000000    0.000000    0.000000    0.000000  -90.994819   33.009518   -0.631619 -132.637100
  0.021002004    0.000000    0.000000    0.000000    0.000000  -91.477746   36.293995   -0.635692 -134.189407
  0.021202405    0.000000    0.000000    0.000000    0.000000  -91.847421   39.860210   -0.639338 -135.734512
  0.021402806    0.000000    0.000000    0.000000    0.000000  -91.615211   36.445293   -0.642661 -137.280823
  0.021603206    0.000000    0.000000    0.000000    0.000000  -92.018049   41.196098   -0.647718 -138.840179
  0.021803607    0.000000    0.000000    0.000000    0.000000  -91.832924   37.850609   -0.652822 -140.388855
  0.022004008    0.000000    0.000000    0.000000    0.000000  -91.910680   43.214619   -0.658817 -141.981888
  0.022204409    0.000000    0.000000    0.000000    0.000000  -92.102091   42.689156   -0.668067 -143.588821
  0.022404810    0.000000    0.000000    0.000000    0.000000  -91.905034   44.829296   -0.672811 -145.206848
  0.022605210    0.000000    0.000000    0.000000    0.000000  -91.527446   45.145878   -0.680380 -146.836609
  0.022805611    0.000000    0.000000    0.000000    0.000000  -91.589422   46.356255   -0.685449 -148.480972
  0.023006012    0.000000    0.000000    0.000000    0.000000  -91.441109   42.011375   -0.689601 -150.108047
  0.023206413    0.000000    0.000000    0.000000    0.000000  -91.239519   41.971245   -0.693612 -151.741013
  0.023406814    0.000000    0.000000    0.000000    0.000000  -90.578922   43.560532   -0.701060 -153.356400
  0.023607214    0.000000    0.000000    0.000000    0.000000  -89.968205   36.987671   -0.711993 -154.997360
  0.023807615    0.000000    0.000000    0.000000    0.000000  -91.031025   38.457542   -0.722720 -156.634140
  0.024008016    0.000000    0.000000    0.000000    0.000000  -91.035382   39.450966   -0.730132 -158.303253
  0.024208417    0.000000    0.000000    0.000000    0.000000  -91.816070   35.147804   -0.737950 -159.975922
  0.024408818    0.000000    0.000000    0.000000    0.000000  -91.340133   39.071236   -0.746044 -161.642639
  0.024609218    0.000000    0.000000    0.000000    0.000000  -91.408834   33.015888   -0.754001 -163.314392
  0.024809619    0.000000    0.000000    0.000000    0.000000  -91.827610   31.785891   -0.764526 -164.971741
  0.025010020    0.000000    0.000000    0.000000    0.000000  -91.269575   33.559559   -0.776132 -166.639435
  0.025210421    0.000000    0.000000    0.000000    0.000000  -91.949073   28.555063   -0.787921 -168.293640
  0.025410822    0.000000    0.000000    0.000000    0.000000  -91.661701   28.382196   -0.799831 -169.970795
  0.025611222    0.000000    0.000000    0.000000    0.000000  -92.825005   28.815704   -0.813209 -171.651382
  0.025811623    0.000000    0.000000    0.000000    0.000000  -92.462088   28.826485   -0.827208 -173.346893
  0.026012024    0.000000    0.000000    0.000000    0.000000  -92.998694   24.939119   -0.839055 -175.051407
  0.026212425    0.000000    0.000000    0.000000    0.000000  -93.610338   29.512152   -0.853139 -176.767380
  0.026412826    0.000000    0.000000    0.000000    0.000000  -92.894469   27.297449   -0.870761 -178.494827
  0.026613226    0.000000    0.000000    0.000000    0.000000  -93.698074   25.221241   -0.886383  179.780365
  0.026813627    0.000000    0.000000    0.000000    0.000000  -94.369713   30.767889   -0.904529  178.026993
  0.027014028    0.000000    0.000000    0.000000    0.000000  -94.140546   29.146286   -0.922838  176.272034
  0.027214429    0.000000    0.000000    0.000000    0.000000  -93.770718   27.230419   -0.941700  174.493011
  0.027414830    0.000000    0.000000    0.000000    0.000000  -94.674974   32.128471   -0.962029  172.713654
  0.027615230    0.000000    0.000000    0.000000    0.000000  -94.666829   29.653065   -0.983419  170.898361
  0.027815631    0.000000    0.000000    0.000000    0.000000  -94.682866   34.895851   -1.005324  169.078461
  0.028016032    0.000000    0.000000    0.000000    0.000000  -94.311359   27.462000   -1.029099  167.230881
  0.028216433    0.000000    0.000000    0.000000    0.000000  -94.773614   34.558464   -1.052746  165.368439
  0.028416834    0.000000    0.000000    0.000000    0.000000  -94.335903   32.488453   -1.077109  163.497879
  0.028617234    0.000000    0.000000    0.000000    0.000000  -94.008286   36.947330   -1.101522  161.628952
  0.028817635    0.000000    0.000000    0.000000    0.000000  -94.510135   32.318794   -1.128343  159.732941
  0.029018036    0.000000    0.000000    0.000000    0.000000  -94.407966   31.210970   -1.153709  157.841492
  0.029218437    0.000000    0.000000    0.000000    0.000000  -94.033567   30.911844   -1.183128  155.943756
  0.029418838    0.000000    0.000000    0.000000    0.000000  -94.107510   33.510731   -1.210053  154.012573
  0.029619238    0.000000    0.000000    0.000000    0.000000  -94.577436   32.310066   -1.240460  152.076355
  0.029819639    0.000000    0.000000    0.000000    0.000000  -93.622965   31.915585   -1.270029  150.137741
  0.030020040    0.000000    0.000000    0.000000    0.000000  -94.342510   30.033182   -1.298153  148.189911
  0.030220441    0.000000    0.000000    0.000000    0.000000  -93.411723   27.161449   -1.327920  146.253159
  0.030420842    0.000000    0.000000    0.000000    0.000000  -93.645066   25.101318   -1.358506  144.327103
  0.030621242    0.000000    0.000000    0.000000    0.000000  -94.630913   25.261667   -1.390837  142.400162
  0.030821643    0.000000    0.000000    0.000000    0.000000  -94.673861   26.696505   -1.426446  140.469498
  0.031022044    0.000000    0.000000    0.000000    0.000000  -94.350844   25.576395   -1.459066  138.523788
  0.031222445    0.000000    0.000000    0.000000    0.000000  -94.751749   25.667105   -1.492353  136.591599
  0.031422846    0.000000    0.000000    0.000000    0.000000  -94.526000   20.695843   -1.526055  134.632462
  0.031623246    0.000000    0.000000    0.000000    0.000000  -94.323530   22.907217   -1.561948  132.665817
  0.031823647    0.000000    0.000000    0.000000    0.000000  -95.203411   24.628584   -1.596502  130.718872
  0.032024048    0.000000    0.000000    0.000000    0.000000  -94.133691   18.102886   -1.633390  128.776703
  0.032224449    0.000000    0.000000    0.000000    0.000000  -95.763877   18.486738   -1.672306  126.825615
  0.032424850    0.000000    0.000000    0.000000    0.000000  -95.621674   12.185913   -1.713520  124.858742
  0.032625250    0.000000    0.000000    0.000000    0.000000  -95.551400   19.790358   -1.751045  122.877029
  0.032825651    0.000000    0.000000    0.000000    0.000000  -96.340077   29.855822   -1.791872  120.899773
  0.033026052    0.000000    0.000000    0.000000    0.000000  -96.208803   20.540546   -1.831264  118.869759
  0.033226453    0.000000    0.000000    0.000000    0.000000  -96.166570   30.709312   -1.872144  116.875381
  0.033426854    0.000000    0.000000    0.000000    0.000000  -97.180226   28.062109   -1.915394  114.860611
  0.033627254    0.000000    0.000000    0.000000    0.000000  -96.468332   20.792311   -1.961798  112.854904
  0.033827655    0.000000    0.000000    0.000000    0.000000  -96.354744   27.780746   -2.006912  110.830421
  0.034028056    0.000000    0.000000    0.000000    0.000000  -97.176256   24.134563   -2.050880  108.772591
  0.034228457    0.000000    0.000000    0.000000    0.000000  -96.265034   21.360947   -2.100127  106.726479
  0.034428858    0.000000    0.000000    0.000000    0.000000  -96.921112   32.665802   -2.148001  104.643600
  0.034629258    0.000000    0.000000    0.000000    0.000000  -97.282055   24.050104   -2.197707  102.539154
  0.034829659    0.000000    0.000000    0.000000    0.000000  -95.897586   29.273689   -2.249107  100.453018
  0.035030060    0.000000    0.000000    0.000000    0.000000  -96.570951   24.829372   -2.300380   98.358139
  0.035230461    0.000000    0.000000    0.000000    0.000000  -96.901721   24.400244   -2.354824   96.241013
  0.035430862    0.000000    0.000000    0.000000    0.000000  -96.144618   30.599195   -2.405871   94.119904
  0.035631262    0.000000    0.000000    0.000000    0.000000  -97.190278   22.060061   -2.461104   92.017326
  0.035831663    0.000000    0.000000    0.000000    0.000000  -96.412160   25.268038   -2.515856   89.883987
  0.036032064    0.000000    0.000000    0.000000    0.000000  -96.273343   27.065849   -2.569906   87.778450
  0.036232465    0.000000    0.000000    0.000000    0.000000  -96.439776   27.740450   -2.621366   85.649223
  0.036432866    0.000000    0.000000    0.000000    0.000000  -96.246479   22.091545   -2.677506   83.541595
  0.036633266    0.000000    0.000000    0.000000    0.000000  -97.804987   24.859632   -2.733203   81.425011
  0.036833667    0.000000    0.000000    0.000000    0.000000  -96.870872   25.732100   -2.790430   79.323944
  0.037034068    0.000000    0.000000    0.000000    0.000000  -96.800849   18.442533   -2.846527   77.220734
  0.037234469    0.000000    0.000000    0.000000    0.000000  -96.801027   23.851292   -2.902394   75.112434
  0.037434870    0.000000    0.000000    0.000000    0.000000  -97.983171   24.652374   -2.960740   72.989555
  0.037635270    0.000000    0.000000    0.000000    0.000000  -96.184687   24.196360   -3.024929   70.892235
  0.037835671    0.000000    0.000000    0.000000    0.000000  -98.157945   18.872585   -3.099215   68.818954
  0.038036072    0.000000    0.000000    0.000000    0.000000  -97.472044   26.036608   -3.167654   66.853317
  0.038236473    0.000000    0.000000    0.000000    0.000000  -99.115066   15.884986   -3.225940   64.877449
  0.038436874    0.000000    0.000000    0.000000    0.000000  -98.058996   21.509680   -3.273188   62.865349
  0.038637274    0.000000    0.000000    0.000000    0.000000  -98.788934   18.723192   -3.329446   60.847916
  0.038837675    0.000000    0.000000    0.000000    0.000000  -97.475664   23.369698   -3.382953   58.815456
  0.039038076    0.000000    0.000000    0.000000    0.000000  -98.194086   21.309139   -3.433601   56.809341
  0.039238477    0.000000    0.000000    0.000000    0.000000  -99.178281   33.337944   -3.487726   54.781124
  0.039438878    0.000000    0.000000    0.000000    0.000000  -98.720638   33.365192   -3.539033   52.774948
  0.039639278    0.000000    0.000000    0.000000    0.000000  -98.332644   31.036179   -3.596744   50.747536
  0.039839679    0.000000    0.000000    0.000000    0.000000  -97.994573   23.637848   -3.647086   48.691566
  0.040040080    0.000000    0.000000    0.000000    0.000000  -97.086232   33.490273   -3.700395   46.652431
  0.040240481    0.000000    0.000000    0.000000    0.000000  -98.398896   24.481972   -3.754229   44.600574
  0.040440882    0.000000    0.000000    0.000000    0.000000  -99.197834   31.709890   -3.807493   42.572617
  0.040641283    0.000000    0.000000    0.000000    0.000000  -98.199079   29.657070   -3.858904   40.535633
  0.040841683    0.000000    0.000000    0.000000    0.000000  -97.146156   37.361034   -3.909044   38.487499
  0.041042084    0.000000    0.000000    0.000000    0.000000  -99.333589   32.151814   -3.961159   36.443810
  0.041242485    0.000000    0.000000    0.000000    0.000000  -96.760226   31.044418   -4.012692   34.387482
  0.041442886    0.000000    0.000000    0.000000    0.000000  -97.654843   20.843531   -4.065627   32.327526
  0.041643287    0.000000    0.000000    0.000000    0.000000  -97.371840   23.003155   -4.112586   30.249105
  0.041843687    0.000000    0.000000    0.000000    0.000000  -97.339958   19.792177   -4.159651   28.178162
  0.042044088    0.000000    0.000000    0.000000    0.000000  -97.760865   24.550230   -4.205580   26.108175
  0.042244489    0.000000    0.000000    0.000000    0.000000  -98.363089   27.294056   -4.250471   24.068386
  0.042444890    0.000000    0.000000    0.000000    0.000000  -98.223325   34.780773   -4.293023   22.027554
  0.042645291    0.000000    0.000000    0.000000    0.000000  -97.692677   26.454918   -4.340262   19.973595
  0.042845691    0.000000    0.000000    0.000000    0.000000  -99.038113   25.956465   -4.382734   17.950050
  0.043046092    0.000000    0.000000    0.000000    0.000000 -100.898764   27.109955   -4.424691   15.904346
  0.043246493    0.000000    0.000000    0.000000    0.000000  -98.597694   22.629864   -4.464293   13.880835
  0.043446894    0.000000    0.000000    0.000000    0.000000  -99.860703   31.895996   -4.503146   11.867596
  0.043647295    0.000000    0.000000    0.000000    0.000000  -99.283067   28.047640   -4.543258    9.868021
  0.043847695    0.000000    0.000000    0.000000    0.000000  -98.635009   32.200195   -4.582757    7.872552
  0.044048096    0.000000    0.000000    0.000000    0.000000  -98.866362   36.119854   -4.620342    5.918262
  0.044248497    0.000000    0.000000    0.000000    0.000000  -98.832662   30.558628   -4.659412    3.937840
  0.044448898    0.000000    0.000000    0.000000    0.000000  -99.152479   26.781338   -4.694619    2.000256
  0.044649299    0.000000    0.000000    0.000000    0.000000  -98.794732   20.668247   -4.733681    0.061794
  0.044849699    0.000000    0.000000    0.000000    0.000000  -99.012290   29.423935   -4.771733   -1.882801
  0.045050100    0.000000    0.000000    0.000000    0.000000  -98.625532   42.890999   -4.809613   -3.799574
  0.045250501    0.000000    0.000000    0.000000    0.000000  -99.661314   30.049553   -4.843182   -5.721277
  0.045450902    0.000000    0.000000    0.000000    0.000000  -98.643760   33.954861   -4.878092   -7.633244
  0.045651303    0.000000    0.000000    0.000000    0.000000  -99.345579   40.197617   -4.912934   -9.531530
  0.045851703    0.000000    0.000000    0.000000    0.000000  -98.692730   37.721748   -4.948675  -11.427628
  0.046052104    0.000000    0.000000    0.000000    0.000000  -97.835603   28.236330   -4.985818  -13.281408
  0.046252505    0.000000    0.000000    0.000000    0.000000 -100.373517   25.250071   -5.022835  -15.155469
  0.046452906    0.000000    0.000000    0.000000    0.000000 -100.020664   22.101223   -5.061228  -17.016546
  0.046653307    0.000000    0.000000    0.000000    0.000000  -99.268682   36.223843   -5.099622  -18.904694
  0.046853707    0.000000    0.000000    0.000000    0.000000  -98.709168   33.648228   -5.138129  -20.758944
  0.047054108    0.000000    0.000000    0.000000    0.000000  -98.410131   35.613735   -5.173923  -22.617346
  0.047254509    0.000000    0.000000    0.000000    0.000000  -98.569230   29.733797   -5.212254  -24.478821
  0.047454910    0.000000    0.000000    0.000000    0.000000  -98.694735   31.644369   -5.247018  -26.321602
  0.047655311    0.000000    0.000000    0.000000    0.000000  -99.384792   24.404682   -5.280672  -28.156755
  0.047855711    0.000000    0.000000    0.000000    0.000000  -98.798444   27.533173   -5.316073  -29.959990
  0.048056112    0.000000    0.000000    0.000000    0.000000  -98.963426   32.501873   -5.346944  -31.747622
  0.048256513    0.000000    0.000000    0.000000    0.000000  -98.906256   29.372524   -5.380464  -33.539822
  0.048456914    0.000000    0.000000    0.000000    0.000000  -99.078874   37.799770   -5.411981  -35.349083
  0.048657315    0.000000    0.000000    0.000000    0.000000  -99.180447   36.193241   -5.439570  -37.146179
  0.048857715    0.000000    0.000000    0.000000    0.000000  -99.464480   26.006170   -5.469677  -38.926029
  0.049058116    0.000000    0.000000    0.000000    0.000000  -98.723784   34.997532   -5.493673  -40.690735
  0.049258517    0.000000    0.000000    0.000000    0.000000  -99.522562   30.458326   -5.518278  -42.438217
  0.049458918    0.000000    0.000000    0.000000    0.000000 -100.638311   29.786438   -5.542323  -44.163849
  0.049659319    0.000000    0.000000    0.000000    0.000000 -100.369432   28.233826   -5.567811  -45.882454
  0.049859719    0.000000    0.000000    0.000000    0.000000  -99.162242   25.982843   -5.594640  -47.576851
  0.050060120    0.000000    0.000000    0.000000    0.000000  -99.043182   32.904072   -5.613463  -49.258888
  0.050260521    0.000000    0.000000    0.000000    0.000000 -100.805997   35.654060   -5.637146  -50.947155
  0.050460922    0.000000    0.000000    0.000000    0.000000  -98.759012   30.937445   -5.656480  -52.638634
  0.050661323    0.000000    0.000000    0.000000    0.000000 -100.191068   21.942202   -5.671969  -54.301731
  0.050861723    0.000000    0.000000    0.000000    0.000000 -100.569051   46.233582   -5.689655  -55.939049
  0.051062124    0.000000    0.000000    0.000000    0.000000 -100.789989   32.668743   -5.712316  -57.574070
  0.051262525    0.000000    0.000000    0.000000    0.000000  -98.772016   38.733837   -5.730487  -59.182461
  0.051462926    0.000000    0.000000    0.000000    0.000000  -97.988092   30.661251   -5.750160  -60.792892
  0.051663327    0.000000    0.000000    0.000000    0.000000  -98.593089   35.141941   -5.765605  -62.377693
  0.051863727    0.000000    0.000000    0.000000    0.000000  -99.481471   30.635532   -5.782922  -63.974831
  0.052064128    0.000000    0.000000    0.000000    0.000000  -97.836514   26.625093   -5.796450  -65.543449
  0.052264529    0.000000    0.000000    0.000000    0.000000  -99.553099   37.822777   -5.812742  -67.112404
  0.052464930    0.000000    0.000000    0.000000    0.000000  -99.717059   31.935051   -5.827005  -68.678375
  0.052665331    0.000000    0.000000    0.000000    0.000000  -99.805981   36.689472   -5.844181  -70.203247
  0.052865731    0.000000    0.000000    0.000000    0.000000  -99.361352   35.416462   -5.855584  -71.763985
