! Anritsu VNA Master:                     Model: MS2036C/10/77
! SN:                                  1601066
! /card0/usr/255.ew.sma.r50.21.s2p
! Existing Calibration Information:
! TYPE:                         Current Settings,       Active Cal Settings
! TIME:             	   12/19/2017 06:20:47 PM,    12/19/2017 06:04:41 PM
! INTERNAL TEMP:    	                   41.5 C,                    39.8 C
! # POINTS:         	                      501,                       501
! START FREQ:       	               10.000 MHz,                10.000 MHz
! STOP FREQ:        	              110.000 MHz,               110.000 MHz
! SOURCE POWER:     	                     High,                      High
! IFBW:             	                   100 Hz,                    100 Hz
! AVG FACTOR:       	                       1 ,                        1 
! REF PLANE 1:      	                     0 mm,                      0 mm
! REF PLANE 2:      	                     0 mm,                      0 mm
! CAL TYPE:         	                 Full S11,                  Full S11
! CAL METHOD:       	                     SOLT,                      SOLT
! CAL LINE TYPE:    	                     Coax,                      Coax
! DUT PORT 1:       	                N-Conn(F),                 N-Conn(F)
! DUT PORT 2:       	                K-Conn(F),                 K-Conn(F)
! CAL STATUS:       	        OK: Accuracy High,                        --
# GHZ S DB R 50.0
! FREQ.GHZ       S11DB        S11A       S21DB        S21A       S12DB        S12A       S22DB        S22A
  0.010000000  -45.274087   71.537354  -82.909019   76.749748    0.000000    0.000000    0.000000    0.000000
  0.010200000  -45.480418   72.862000  -83.396616   76.905899    0.000000    0.000000    0.000000    0.000000
  0.010400000  -45.440981   73.347824  -83.435804   75.764877    0.000000    0.000000    0.000000    0.000000
  0.010600000  -45.270889   73.537857  -84.298756   72.849068    0.000000    0.000000    0.000000    0.000000
  0.010800000  -45.626967   71.882240  -84.339467   73.373314    0.000000    0.000000    0.000000    0.000000
  0.011000000  -45.165070   71.946136  -83.905053   72.728233    0.000000    0.000000    0.000000    0.000000
  0.011200000  -45.471046   68.469070  -84.242168   69.185196    0.000000    0.000000    0.000000    0.000000
  0.011400000  -45.294881   68.660019  -84.539669   69.345261    0.000000    0.000000    0.000000    0.000000
  0.011600000  -45.270222   67.934807  -85.032485   70.042992    0.000000    0.000000    0.000000    0.000000
  0.011800000  -45.148963   67.849648  -85.067442   68.220047    0.000000    0.000000    0.000000    0.000000
  0.012000000  -44.881956   65.281433  -84.974379   70.678459    0.000000    0.000000    0.000000    0.000000
  0.012200000  -44.833004   64.510712  -85.349221   64.998032    0.000000    0.000000    0.000000    0.000000
  0.012400000  -44.564902   65.277672  -85.406817   63.231766    0.000000    0.000000    0.000000    0.000000
  0.012600000  -44.400545   63.381451  -85.474743   65.138939    0.000000    0.000000    0.000000    0.000000
  0.012800000  -44.014887   60.739384  -85.823525   60.324284    0.000000    0.000000    0.000000    0.000000
  0.013000000  -43.930133   63.051353  -85.912838   65.885620    0.000000    0.000000    0.000000    0.000000
  0.013200000  -43.698356   62.782948  -86.190759   60.429935    0.000000    0.000000    0.000000    0.000000
  0.013400000  -43.407949   61.522083  -86.186824   62.339890    0.000000    0.000000    0.000000    0.000000
  0.013600000  -43.358747   62.013165  -86.508081   59.401077    0.000000    0.000000    0.000000    0.000000
  0.013800000  -43.256526   62.250851  -86.709354   56.221447    0.000000    0.000000    0.000000    0.000000
  0.014000000  -42.972937   61.203754  -86.578866   58.864079    0.000000    0.000000    0.000000    0.000000
  0.014200000  -42.781732   61.570358  -87.157338   56.393974    0.000000    0.000000    0.000000    0.000000
  0.014400000  -42.697975   63.248344  -87.191036   58.345688    0.000000    0.000000    0.000000    0.000000
  0.014600000  -42.468223   63.208584  -87.043960   51.886955    0.000000    0.000000    0.000000    0.000000
  0.014800000  -42.577863   64.129471  -87.694647   55.253559    0.000000    0.000000    0.000000    0.000000
  0.015000000  -42.422539   63.677429  -88.166338   54.335472    0.000000    0.000000    0.000000    0.000000
  0.015200000  -42.245535   64.976082  -87.791831   53.257713    0.000000    0.000000    0.000000    0.000000
  0.015400000  -42.217513   65.263664  -88.237256   54.522655    0.000000    0.000000    0.000000    0.000000
  0.015600000  -42.220572   66.357491  -88.156331   54.952915    0.000000    0.000000    0.000000    0.000000
  0.015800000  -42.153105   65.479515  -88.473322   52.418175    0.000000    0.000000    0.000000    0.000000
  0.016000000  -41.973394   65.533592  -88.150822   51.231052    0.000000    0.000000    0.000000    0.000000
  0.016200000  -42.228251   65.000816  -89.347703   48.980457    0.000000    0.000000    0.000000    0.000000
  0.016400000  -42.248106   66.675858  -88.836414   47.045425    0.000000    0.000000    0.000000    0.000000
  0.016600000  -42.418686   65.544243  -88.890553   49.932240    0.000000    0.000000    0.000000    0.000000
  0.016800000  -42.214023   64.980423  -88.739826   49.829277    0.000000    0.000000    0.000000    0.000000
  0.017000000  -42.263159   66.024628  -89.100618   47.251045    0.000000    0.000000    0.000000    0.000000
  0.017200000  -42.050485   64.680420  -88.906691   44.598637    0.000000    0.000000    0.000000    0.000000
  0.017400000  -42.324090   64.792366  -88.862954   42.236546    0.000000    0.000000    0.000000    0.000000
  0.017600000  -42.272492   64.247528  -89.609568   44.400913    0.000000    0.000000    0.000000    0.000000
  0.017800000  -42.102687   63.793324  -90.019268   43.712536    0.000000    0.000000    0.000000    0.000000
  0.018000000  -42.054665   62.956490  -90.319659   43.590641    0.000000    0.000000    0.000000    0.000000
  0.018200000  -42.395497   62.509254  -90.089765   43.998280    0.000000    0.000000    0.000000    0.000000
  0.018400000  -42.178662   63.739468  -89.776258   38.921318    0.000000    0.000000    0.000000    0.000000
  0.018600000  -42.015862   59.518993  -89.942314   41.143124    0.000000    0.000000    0.000000    0.000000
  0.018800000  -41.986178   59.467747  -90.318925   41.272865    0.000000    0.000000    0.000000    0.000000
  0.019000000  -41.848405   58.621841  -91.032893   34.072327    0.000000    0.000000    0.000000    0.000000
  0.019200000  -41.593656   59.771046  -90.368049   41.850124    0.000000    0.000000    0.000000    0.000000
  0.019400000  -41.501338   57.649727  -90.885009   41.546753    0.000000    0.000000    0.000000    0.000000
  0.019600000  -41.376022   55.782715  -91.054907   44.055031    0.000000    0.000000    0.000000    0.000000
  0.019800000  -41.285645   57.004948  -90.288354   34.651772    0.000000    0.000000    0.000000    0.000000
  0.020000000  -41.092700   56.971256  -90.918225   34.236504    0.000000    0.000000    0.000000    0.000000
  0.020200000  -41.091441   55.879158  -91.133255   44.011864    0.000000    0.000000    0.000000    0.000000
  0.020400000  -40.796180   57.224579  -91.940118   35.112461    0.000000    0.000000    0.000000    0.000000
  0.020600000  -40.596487   56.713375  -91.603914   35.762871    0.000000    0.000000    0.000000    0.000000
  0.020800000  -40.525649   57.123756  -91.215960   40.855473    0.000000    0.000000    0.000000    0.000000
  0.021000000  -40.266521   56.260643  -91.676046   33.856026    0.000000    0.000000    0.000000    0.000000
  0.021200000  -40.309124   57.118050  -91.959815   35.761074    0.000000    0.000000    0.000000    0.000000
  0.021400000  -40.022278   57.574158  -91.697827   39.849518    0.000000    0.000000    0.000000    0.000000
  0.021600000  -40.174068   57.206139  -92.209290   27.264046    0.000000    0.000000    0.000000    0.000000
  0.021800000  -39.910186   58.085964  -92.888796   35.037540    0.000000    0.000000    0.000000    0.000000
  0.022000000  -39.799481   58.294121  -91.400784   36.257477    0.000000    0.000000    0.000000    0.000000
  0.022200000  -39.776916   57.671864  -91.934437   32.231674    0.000000    0.000000    0.000000    0.000000
  0.022400000  -39.785668   57.931431  -92.066195   35.385860    0.000000    0.000000    0.000000    0.000000
  0.022600000  -39.642781   58.122616  -92.738691   31.490570    0.000000    0.000000    0.000000    0.000000
  0.022800000  -39.641116   58.095383  -92.447350   30.675455    0.000000    0.000000    0.000000    0.000000
  0.023000000  -39.676275   58.019665  -92.137444   26.172060    0.000000    0.000000    0.000000    0.000000
  0.023200000  -39.652016   58.349548  -92.545073   31.271648    0.000000    0.000000    0.000000    0.000000
  0.023400000  -39.625636   58.810730  -92.443202   25.444687    0.000000    0.000000    0.000000    0.000000
  0.023600000  -39.372174   59.050606  -93.635267   36.367374    0.000000    0.000000    0.000000    0.000000
  0.023800000  -39.478237   59.771805  -93.480517   33.376106    0.000000    0.000000    0.000000    0.000000
  0.024000000  -39.404119   59.358047  -92.452669   24.749647    0.000000    0.000000    0.000000    0.000000
  0.024200000  -39.285819   59.305794  -93.444283   29.956001    0.000000    0.000000    0.000000    0.000000
  0.024400000  -39.253031   58.974949  -93.345274   26.251160    0.000000    0.000000    0.000000    0.000000
  0.024600000  -39.324246   58.905674  -93.930821   14.208715    0.000000    0.000000    0.000000    0.000000
  0.024800000  -39.280482   59.093636  -93.455182   29.618265    0.000000    0.000000    0.000000    0.000000
  0.025000000  -39.231357   59.049786  -93.810901   17.016787    0.000000    0.000000    0.000000    0.000000
  0.025200000  -39.164073   58.320751  -92.961816   17.571312    0.000000    0.000000    0.000000    0.000000
  0.025400000  -39.052551   58.349056  -94.750955   25.839373    0.000000    0.000000    0.000000    0.000000
  0.025600000  -39.046759   57.735603  -94.198585   27.117378    0.000000    0.000000    0.000000    0.000000
  0.025800000  -39.007466   58.465485  -94.791551   25.167255    0.000000    0.000000    0.000000    0.000000
  0.026000000  -38.935096   57.992691  -93.226549   23.917208    0.000000    0.000000    0.000000    0.000000
  0.026200000  -38.984893   58.272987  -94.224247   22.448336    0.000000    0.000000    0.000000    0.000000
  0.026400000  -38.720482   57.539810  -94.800671   21.636280    0.000000    0.000000    0.000000    0.000000
  0.026600000  -38.738863   58.279831  -94.651679   17.778786    0.000000    0.000000    0.000000    0.000000
  0.026800000  -38.700186   58.019821  -94.909470   23.773174    0.000000    0.000000    0.000000    0.000000
  0.027000000  -38.627105   58.078068  -95.853601   21.573347    0.000000    0.000000    0.000000    0.000000
  0.027200000  -38.608062   57.767590  -94.745961   25.601225    0.000000    0.000000    0.000000    0.000000
  0.027400000  -38.511871   57.975357  -95.726920   20.176420    0.000000    0.000000    0.000000    0.000000
  0.027600000  -38.554648   58.650822  -95.457201   18.907070    0.000000    0.000000    0.000000    0.000000
  0.027800000  -38.510922   57.893543  -95.999727   22.874563    0.000000    0.000000    0.000000    0.000000
  0.028000000  -38.476001   59.341099  -95.105618   23.844347    0.000000    0.000000    0.000000    0.000000
  0.028200000  -38.373371   58.743034  -94.687979   27.273367    0.000000    0.000000    0.000000    0.000000
  0.028400000  -38.413884   59.338478  -95.905997   20.624105    0.000000    0.000000    0.000000    0.000000
  0.028600000  -38.477397   58.283924  -95.405815   24.156763    0.000000    0.000000    0.000000    0.000000
  0.028800000  -38.573293   59.278168  -96.330046   19.807329    0.000000    0.000000    0.000000    0.000000
  0.029000000  -38.570237   59.805820  -97.391744   19.056286    0.000000    0.000000    0.000000    0.000000
  0.029200000  -38.519430   59.995827  -97.367905   21.297619    0.000000    0.000000    0.000000    0.000000
  0.029400000  -38.603143   59.337978  -95.638655   17.938416    0.000000    0.000000    0.000000    0.000000
  0.029600000  -38.588268   59.321594  -97.515464   17.855742    0.000000    0.000000    0.000000    0.000000
  0.029800000  -38.654187   58.464916  -96.783808   17.372265    0.000000    0.000000    0.000000    0.000000
  0.030000000  -38.684179   58.174557  -96.922541   15.349921    0.000000    0.000000    0.000000    0.000000
  0.030200000  -38.725490   58.074959  -97.164795   11.213739    0.000000    0.000000    0.000000    0.000000
  0.030400000  -38.761436   58.205521  -96.628231   17.192801    0.000000    0.000000    0.000000    0.000000
  0.030600000  -38.773534   56.578976  -96.632152   19.029512    0.000000    0.000000    0.000000    0.000000
  0.030800000  -38.644476   57.262608  -96.735207   15.660963    0.000000    0.000000    0.000000    0.000000
  0.031000000  -38.675343   55.515865  -97.558012   26.965391    0.000000    0.000000    0.000000    0.000000
  0.031200000  -38.783532   55.357880  -95.998604   16.410816    0.000000    0.000000    0.000000    0.000000
  0.031400000  -38.716198   55.298256  -97.276844   15.417385    0.000000    0.000000    0.000000    0.000000
  0.031600000  -38.817067   52.557747  -98.609143   12.493458    0.000000    0.000000    0.000000    0.000000
  0.031800000  -38.577389   52.742489  -96.273690   16.893499    0.000000    0.000000    0.000000    0.000000
  0.032000000  -38.638047   52.651608  -97.700374   13.099696    0.000000    0.000000    0.000000    0.000000
  0.032200000  -38.561015   51.284672  -98.967820   10.573764    0.000000    0.000000    0.000000    0.000000
  0.032400000  -38.420763   50.458347  -97.677535   13.411755    0.000000    0.000000    0.000000    0.000000
  0.032600000  -38.191022   50.558308  -99.218348   22.783768    0.000000    0.000000    0.000000    0.000000
  0.032800000  -38.195397   49.906590  -99.520324   22.320045    0.000000    0.000000    0.000000    0.000000
  0.033000000  -37.972222   49.578384  -98.385080   -6.665884    0.000000    0.000000    0.000000    0.000000
  0.033200000  -38.000912   49.336075  -97.573471   21.266001    0.000000    0.000000    0.000000    0.000000
  0.033400000  -37.602611   48.781788  -97.264051   10.556699    0.000000    0.000000    0.000000    0.000000
  0.033600000  -37.776379   48.953983  -97.771421   16.971073    0.000000    0.000000    0.000000    0.000000
  0.033800000  -37.541320   48.786854  -98.875523   16.688927    0.000000    0.000000    0.000000    0.000000
  0.034000000  -37.355467   48.334042  -96.155098    8.780075    0.000000    0.000000    0.000000    0.000000
  0.034200000  -37.221553   49.295971 -101.832134    4.996958    0.000000    0.000000    0.000000    0.000000
  0.034400000  -37.133647   48.988819  -96.781358   21.098404    0.000000    0.000000    0.000000    0.000000
  0.034600000  -37.083494   49.343449  -99.621313    0.625462    0.000000    0.000000    0.000000    0.000000
  0.034800000  -37.060218   50.484055  -98.878803    6.134005    0.000000    0.000000    0.000000    0.000000
  0.035000000  -36.950242   49.937733  -98.365155   19.271185    0.000000    0.000000    0.000000    0.000000
  0.035200000  -36.856443   50.547531  -99.173165   17.647615    0.000000    0.000000    0.000000    0.000000
  0.035400000  -36.832136   51.634060  -98.321827   20.314236    0.000000    0.000000    0.000000    0.000000
  0.035600000  -36.803759   51.872696  -97.350877   -1.397549    0.000000    0.000000    0.000000    0.000000
  0.035800000  -36.880278   51.745132  -98.058662  -10.620686    0.000000    0.000000    0.000000    0.000000
  0.036000000  -36.904320   52.424667  -98.281651    6.238774    0.000000    0.000000    0.000000    0.000000
  0.036200000  -36.830222   52.301071  -99.122250    7.568069    0.000000    0.000000    0.000000    0.000000
  0.036400000  -36.980518   53.338528  -99.043579   12.528395    0.000000    0.000000    0.000000    0.000000
  0.036600000  -36.984550   52.777805  -97.905144    7.524288    0.000000    0.000000    0.000000    0.000000
  0.036800000  -36.935223   53.083221  -98.860959   14.551745    0.000000    0.000000    0.000000    0.000000
  0.037000000  -37.075630   52.976711  -99.296779   20.368446    0.000000    0.000000    0.000000    0.000000
  0.037200000  -37.217639   52.545750 -100.606439   12.591737    0.000000    0.000000    0.000000    0.000000
  0.037400000  -37.171013   51.925900  -99.717111   12.292351    0.000000    0.000000    0.000000    0.000000
  0.037600000  -37.297102   52.042633  -97.765444    9.790048    0.000000    0.000000    0.000000    0.000000
  0.037800000  -37.187221   51.570591  -99.329793    6.124427    0.000000    0.000000    0.000000    0.000000
  0.038000000  -37.170583   50.360909  -99.146397    8.819862    0.000000    0.000000    0.000000    0.000000
  0.038200000  -37.430842   49.321564 -100.583724   17.950823    0.000000    0.000000    0.000000    0.000000
  0.038400000  -37.485521   49.495415  -99.480008   21.066357    0.000000    0.000000    0.000000    0.000000
  0.038600000  -37.336369   48.138462  -98.998229   10.654392    0.000000    0.000000    0.000000    0.000000
  0.038800000  -37.342994   47.194492  -99.620060   16.625334    0.000000    0.000000    0.000000    0.000000
  0.039000000  -37.254670   46.958065  -98.127126    7.324691    0.000000    0.000000    0.000000    0.000000
  0.039200000  -37.177746   45.604801 -100.791296    0.032952    0.000000    0.000000    0.000000    0.000000
  0.039400000  -36.962191   44.882915 -103.109835   12.465405    0.000000    0.000000    0.000000    0.000000
  0.039600000  -36.907216   43.916553  -99.463447    5.866451    0.000000    0.000000    0.000000    0.000000
  0.039800000  -36.809588   43.417976 -102.103318   16.016052    0.000000    0.000000    0.000000    0.000000
  0.040000000  -36.581710   42.978554  -99.164554    8.639281    0.000000    0.000000    0.000000    0.000000
  0.040200000  -36.492776   42.407524 -101.061715   16.268133    0.000000    0.000000    0.000000    0.000000
  0.040400000  -36.289724   42.485191 -100.128497    6.046282    0.000000    0.000000    0.000000    0.000000
  0.040600000  -36.165758   42.208378 -100.248205   10.043866    0.000000    0.000000    0.000000    0.000000
  0.040800000  -36.010070   42.018417  -99.971990   12.456498    0.000000    0.000000    0.000000    0.000000
  0.041000000  -35.827944   43.121315  -99.352134    0.058407    0.000000    0.000000    0.000000    0.000000
  0.041200000  -35.711492   42.859573 -103.001993   16.230412    0.000000    0.000000    0.000000    0.000000
  0.041400000  -35.613468   42.751720 -104.770491   17.073387    0.000000    0.000000    0.000000    0.000000
  0.041600000  -35.444712   42.904430 -101.702434   13.636669    0.000000    0.000000    0.000000    0.000000
  0.041800000  -35.341676   43.723106 -100.542678    2.434124    0.000000    0.000000    0.000000    0.000000
  0.042000000  -35.309151   43.812653 -101.706906   -4.725017    0.000000    0.000000    0.000000    0.000000
  0.042200000  -35.156869   44.882385 -101.977285   -9.639769    0.000000    0.000000    0.000000    0.000000
  0.042400000  -35.074747   45.870277 -102.338460    6.537848    0.000000    0.000000    0.000000    0.000000
  0.042600000  -35.088795   45.887337 -101.770834   -6.004493    0.000000    0.000000    0.000000    0.000000
  0.042800000  -34.988446   46.933876  -99.807480   -0.118088    0.000000    0.000000    0.000000    0.000000
