! Anritsu VNA Master:                     Model: MS2036C/10/77
! SN:                                  1601066
! /card0/usr/255.ew.sma.r50.11.s2p
! Existing Calibration Information:
! TYPE:                         Current Settings,       Active Cal Settings
! TIME:             	   12/19/2017 06:08:15 PM,    12/19/2017 06:04:41 PM
! INTERNAL TEMP:    	                   40.3 C,                    39.8 C
! # POINTS:         	                      501,                       501
! START FREQ:       	               10.000 MHz,                10.000 MHz
! STOP FREQ:        	              110.000 MHz,               110.000 MHz
! SOURCE POWER:     	                     High,                      High
! IFBW:             	                   100 Hz,                    100 Hz
! AVG FACTOR:       	                       1 ,                        1 
! REF PLANE 1:      	                     0 mm,                      0 mm
! REF PLANE 2:      	                     0 mm,                      0 mm
! CAL TYPE:         	                 Full S11,                  Full S11
! CAL METHOD:       	                     SOLT,                      SOLT
! CAL LINE TYPE:    	                     Coax,                      Coax
! DUT PORT 1:       	                N-Conn(F),                 N-Conn(F)
! DUT PORT 2:       	                K-Conn(F),                 K-Conn(F)
! CAL STATUS:       	        OK: Accuracy High,                        --
# GHZ S DB R 50.0
! FREQ.GHZ       S11DB        S11A       S21DB        S21A       S12DB        S12A       S22DB        S22A
  0.010000000  -44.938637   67.832001  -83.165177   79.383423    0.000000    0.000000    0.000000    0.000000
  0.010200000  -45.286502   67.101196  -83.170565   75.992020    0.000000    0.000000    0.000000    0.000000
  0.010400000  -45.237342   68.918999  -83.210691   73.824203    0.000000    0.000000    0.000000    0.000000
  0.010600000  -45.269692   68.051514  -84.250158   73.375000    0.000000    0.000000    0.000000    0.000000
  0.010800000  -44.932960   67.397430  -83.837297   73.722206    0.000000    0.000000    0.000000    0.000000
  0.011000000  -44.950846   66.571640  -84.115205   71.563042    0.000000    0.000000    0.000000    0.000000
  0.011200000  -44.640830   66.620056  -84.664091   70.890839    0.000000    0.000000    0.000000    0.000000
  0.011400000  -44.628815   66.278305  -84.372847   69.673409    0.000000    0.000000    0.000000    0.000000
  0.011600000  -44.850268   66.738289  -84.630773   70.893044    0.000000    0.000000    0.000000    0.000000
  0.011800000  -44.600120   67.541977  -84.623062   71.200508    0.000000    0.000000    0.000000    0.000000
  0.012000000  -44.179554   63.858040  -84.667612   66.159538    0.000000    0.000000    0.000000    0.000000
  0.012200000  -44.400993   63.919617  -85.303713   65.790016    0.000000    0.000000    0.000000    0.000000
  0.012400000  -43.970432   64.916931  -85.165537   66.107613    0.000000    0.000000    0.000000    0.000000
  0.012600000  -43.951580   64.611961  -85.780697   63.476173    0.000000    0.000000    0.000000    0.000000
  0.012800000  -43.723164   62.097740  -85.978739   62.380711    0.000000    0.000000    0.000000    0.000000
  0.013000000  -43.638412   63.387344  -85.801653   64.293381    0.000000    0.000000    0.000000    0.000000
  0.013200000  -43.427856   63.664028  -86.399563   59.859615    0.000000    0.000000    0.000000    0.000000
  0.013400000  -43.348323   62.295540  -86.321034   62.355358    0.000000    0.000000    0.000000    0.000000
  0.013600000  -43.303322   63.756607  -86.099659   63.731640    0.000000    0.000000    0.000000    0.000000
  0.013800000  -43.180448   63.362259  -86.716252   62.374901    0.000000    0.000000    0.000000    0.000000
  0.014000000  -42.955345   62.331112  -86.620052   58.906261    0.000000    0.000000    0.000000    0.000000
  0.014200000  -42.901484   62.598171  -87.287328   57.140312    0.000000    0.000000    0.000000    0.000000
  0.014400000  -42.944870   63.184345  -86.924711   54.520405    0.000000    0.000000    0.000000    0.000000
  0.014600000  -42.808820   63.063000  -87.189066   53.365284    0.000000    0.000000    0.000000    0.000000
  0.014800000  -42.758891   63.901466  -86.980443   54.733452    0.000000    0.000000    0.000000    0.000000
  0.015000000  -42.616851   61.780823  -88.281688   52.105392    0.000000    0.000000    0.000000    0.000000
  0.015200000  -42.483644   63.228340  -87.752806   53.020016    0.000000    0.000000    0.000000    0.000000
  0.015400000  -42.559511   63.346493  -88.291140   53.819160    0.000000    0.000000    0.000000    0.000000
  0.015600000  -42.322229   64.057068  -88.211498   50.955990    0.000000    0.000000    0.000000    0.000000
  0.015800000  -42.274206   62.742779  -87.886074   50.367989    0.000000    0.000000    0.000000    0.000000
  0.016000000  -42.201980   62.458984  -88.503548   53.174576    0.000000    0.000000    0.000000    0.000000
  0.016200000  -42.095890   62.867416  -88.976498   48.214130    0.000000    0.000000    0.000000    0.000000
  0.016400000  -42.246710   62.547150  -88.578369   45.374947    0.000000    0.000000    0.000000    0.000000
  0.016600000  -42.243693   62.643215  -88.880535   52.152679    0.000000    0.000000    0.000000    0.000000
  0.016800000  -42.101619   62.468143  -89.208532   47.918808    0.000000    0.000000    0.000000    0.000000
  0.017000000  -42.151028   62.754200  -89.263477   46.405376    0.000000    0.000000    0.000000    0.000000
  0.017200000  -41.878154   61.431835  -89.302501   45.817245    0.000000    0.000000    0.000000    0.000000
  0.017400000  -41.868767   61.341476  -88.713717   47.495926    0.000000    0.000000    0.000000    0.000000
  0.017600000  -41.947429   62.048912  -89.524304   43.803028    0.000000    0.000000    0.000000    0.000000
  0.017800000  -41.708394   61.163441  -89.792485   43.262196    0.000000    0.000000    0.000000    0.000000
  0.018000000  -41.771917   60.964104  -89.912173   45.489307    0.000000    0.000000    0.000000    0.000000
  0.018200000  -41.727825   61.111294  -90.043327   39.837162    0.000000    0.000000    0.000000    0.000000
  0.018400000  -41.706789   61.603012  -90.321925   42.887272    0.000000    0.000000    0.000000    0.000000
  0.018600000  -41.519776   59.856529  -90.641973   41.412193    0.000000    0.000000    0.000000    0.000000
  0.018800000  -41.371077   59.876007  -90.363836   41.985172    0.000000    0.000000    0.000000    0.000000
  0.019000000  -41.400459   59.234097  -90.194438   38.286373    0.000000    0.000000    0.000000    0.000000
  0.019200000  -41.236258   58.585304  -91.094068   41.276730    0.000000    0.000000    0.000000    0.000000
  0.019400000  -41.264063   58.618855  -91.232829   37.188931    0.000000    0.000000    0.000000    0.000000
  0.019600000  -41.068379   57.733234  -90.047590   44.992271    0.000000    0.000000    0.000000    0.000000
  0.019800000  -41.012984   58.711929  -90.895440   38.819668    0.000000    0.000000    0.000000    0.000000
  0.020000000  -40.949535   58.363831  -90.863945   37.017479    0.000000    0.000000    0.000000    0.000000
  0.020200000  -40.915201   58.167515  -90.323599   37.019333    0.000000    0.000000    0.000000    0.000000
  0.020400000  -40.802556   59.122002  -90.733503   39.286026    0.000000    0.000000    0.000000    0.000000
  0.020600000  -40.620071   58.613064  -91.558323   42.446205    0.000000    0.000000    0.000000    0.000000
  0.020800000  -40.562622   57.972481  -92.271433   38.195820    0.000000    0.000000    0.000000    0.000000
  0.021000000  -40.471480   57.359150  -91.588556   36.562374    0.000000    0.000000    0.000000    0.000000
  0.021200000  -40.419134   58.224514  -91.338054   33.941143    0.000000    0.000000    0.000000    0.000000
  0.021400000  -40.228122   58.251705  -92.365343   39.300938    0.000000    0.000000    0.000000    0.000000
  0.021600000  -40.442500   58.799950  -92.945802   37.461296    0.000000    0.000000    0.000000    0.000000
  0.021800000  -40.283450   58.548996  -92.106366   31.156610    0.000000    0.000000    0.000000    0.000000
  0.022000000  -40.122775   58.831799  -92.661222   28.191996    0.000000    0.000000    0.000000    0.000000
  0.022200000  -40.052399   57.302406  -92.351876   33.517929    0.000000    0.000000    0.000000    0.000000
  0.022400000  -39.902453   57.655704  -92.197075   32.171417    0.000000    0.000000    0.000000    0.000000
  0.022600000  -39.929389   57.354149  -92.303942   34.506493    0.000000    0.000000    0.000000    0.000000
  0.022800000  -39.946264   56.743042  -92.826103   36.318855    0.000000    0.000000    0.000000    0.000000
  0.023000000  -39.953232   57.856232  -94.151759   25.862942    0.000000    0.000000    0.000000    0.000000
  0.023200000  -39.851299   56.848392  -93.423242   31.393950    0.000000    0.000000    0.000000    0.000000
  0.023400000  -39.589607   56.315372  -93.096216   27.871185    0.000000    0.000000    0.000000    0.000000
  0.023600000  -39.614838   57.463104  -93.607119   29.703417    0.000000    0.000000    0.000000    0.000000
  0.023800000  -39.622090   57.493870  -92.860581   26.184797    0.000000    0.000000    0.000000    0.000000
  0.024000000  -39.471881   57.361050  -94.268237   29.191700    0.000000    0.000000    0.000000    0.000000
  0.024200000  -39.460565   57.363686  -93.697989   29.388935    0.000000    0.000000    0.000000    0.000000
  0.024400000  -39.464273   56.190472  -93.771380   23.488501    0.000000    0.000000    0.000000    0.000000
  0.024600000  -39.389358   57.400131  -94.083022   26.598763    0.000000    0.000000    0.000000    0.000000
  0.024800000  -39.418373   57.972126  -93.832127   28.652496    0.000000    0.000000    0.000000    0.000000
  0.025000000  -39.271300   56.497055  -94.013194   23.586979    0.000000    0.000000    0.000000    0.000000
  0.025200000  -39.123052   56.715633  -93.875925   19.539539    0.000000    0.000000    0.000000    0.000000
  0.025400000  -39.257349   56.902161  -94.310280   22.850809    0.000000    0.000000    0.000000    0.000000
  0.025600000  -39.123807   56.296200  -95.062765   32.065365    0.000000    0.000000    0.000000    0.000000
  0.025800000  -39.125143   57.120667  -95.203484   31.553270    0.000000    0.000000    0.000000    0.000000
  0.026000000  -39.048132   56.084293  -94.662580   21.841665    0.000000    0.000000    0.000000    0.000000
  0.026200000  -39.075185   56.662983  -94.759450   22.252321    0.000000    0.000000    0.000000    0.000000
  0.026400000  -38.825745   55.553226  -95.242421   28.106497    0.000000    0.000000    0.000000    0.000000
  0.026600000  -38.880322   56.547657  -94.835795   18.449966    0.000000    0.000000    0.000000    0.000000
  0.026800000  -38.754340   55.280575  -95.519239   20.192074    0.000000    0.000000    0.000000    0.000000
  0.027000000  -38.767853   56.182354  -95.570884   15.127141    0.000000    0.000000    0.000000    0.000000
  0.027200000  -38.769243   55.927681  -95.101217   21.015743    0.000000    0.000000    0.000000    0.000000
  0.027400000  -38.702795   55.326118  -95.444952   24.711685    0.000000    0.000000    0.000000    0.000000
  0.027600000  -38.730396   55.934826  -95.598816   18.493471    0.000000    0.000000    0.000000    0.000000
  0.027800000  -38.686766   55.542831  -94.703902   22.432182    0.000000    0.000000    0.000000    0.000000
  0.028000000  -38.639219   55.600475  -95.393095   18.404716    0.000000    0.000000    0.000000    0.000000
  0.028200000  -38.504577   55.314640  -96.065639   20.295055    0.000000    0.000000    0.000000    0.000000
  0.028400000  -38.508511   55.693748  -95.345538   17.046232    0.000000    0.000000    0.000000    0.000000
  0.028600000  -38.520514   55.223846  -95.188533   27.984154    0.000000    0.000000    0.000000    0.000000
  0.028800000  -38.525718   55.424446  -96.048592   20.348286    0.000000    0.000000    0.000000    0.000000
  0.029000000  -38.546380   55.907738  -97.026854   21.413542    0.000000    0.000000    0.000000    0.000000
  0.029200000  -38.344793   55.740246  -96.984390   13.576067    0.000000    0.000000    0.000000    0.000000
  0.029400000  -38.353401   55.561764  -95.536159   23.881119    0.000000    0.000000    0.000000    0.000000
  0.029600000  -38.339327   55.019833  -97.267273   17.992516    0.000000    0.000000    0.000000    0.000000
  0.029800000  -38.295483   54.601166  -97.149186    9.270011    0.000000    0.000000    0.000000    0.000000
  0.030000000  -38.335131   54.574982  -96.024859   16.492834    0.000000    0.000000    0.000000    0.000000
  0.030200000  -38.267018   54.957615  -97.618058   25.699385    0.000000    0.000000    0.000000    0.000000
  0.030400000  -38.315242   55.001358  -96.910827    9.115712    0.000000    0.000000    0.000000    0.000000
  0.030600000  -38.271860   53.567478  -96.788066   19.069086    0.000000    0.000000    0.000000    0.000000
  0.030800000  -38.156173   54.023411  -95.864706   18.279545    0.000000    0.000000    0.000000    0.000000
  0.031000000  -38.122614   53.628910  -97.050246   13.934682    0.000000    0.000000    0.000000    0.000000
  0.031200000  -38.283566   53.533054  -96.565189   15.822683    0.000000    0.000000    0.000000    0.000000
  0.031400000  -38.092652   53.268761  -96.352538   14.030893    0.000000    0.000000    0.000000    0.000000
  0.031600000  -38.029393   52.430328  -97.807289   12.993833    0.000000    0.000000    0.000000    0.000000
  0.031800000  -37.988173   52.917580  -97.322439    8.449232    0.000000    0.000000    0.000000    0.000000
  0.032000000  -38.043224   51.798508  -97.514834   12.669897    0.000000    0.000000    0.000000    0.000000
  0.032200000  -38.056456   52.360260  -96.810690   11.728683    0.000000    0.000000    0.000000    0.000000
  0.032400000  -37.945025   52.098648  -96.024181   13.398377    0.000000    0.000000    0.000000    0.000000
  0.032600000  -37.779261   51.401413  -97.208824   12.910912    0.000000    0.000000    0.000000    0.000000
  0.032800000  -37.866180   51.545231  -98.624328   18.914249    0.000000    0.000000    0.000000    0.000000
  0.033000000  -37.655337   51.303917  -96.836895   17.326706    0.000000    0.000000    0.000000    0.000000
  0.033200000  -37.695331   51.742249  -98.743561    5.336151    0.000000    0.000000    0.000000    0.000000
  0.033400000  -37.563756   51.009514  -98.059032    3.056165    0.000000    0.000000    0.000000    0.000000
  0.033600000  -37.575209   50.908764  -98.327900   15.321339    0.000000    0.000000    0.000000    0.000000
  0.033800000  -37.523823   50.761524  -98.289304    9.276377    0.000000    0.000000    0.000000    0.000000
  0.034000000  -37.380938   50.402172  -98.319866   14.844457    0.000000    0.000000    0.000000    0.000000
  0.034200000  -37.251790   50.560017  -98.523222   11.573281    0.000000    0.000000    0.000000    0.000000
  0.034400000  -37.271235   50.368675  -98.683799   27.791908    0.000000    0.000000    0.000000    0.000000
  0.034600000  -37.304982   50.316601  -97.832699   12.314479    0.000000    0.000000    0.000000    0.000000
  0.034800000  -37.152317   50.554424  -98.853825    5.027925    0.000000    0.000000    0.000000    0.000000
  0.035000000  -37.068052   49.322208  -98.635419    8.404596    0.000000    0.000000    0.000000    0.000000
  0.035200000  -37.003738   49.985428  -96.900677   24.025408    0.000000    0.000000    0.000000    0.000000
  0.035400000  -36.999508   51.587650  -98.096901   17.370707    0.000000    0.000000    0.000000    0.000000
  0.035600000  -36.957863   50.616333  -99.807700   24.292398    0.000000    0.000000    0.000000    0.000000
  0.035800000  -36.998011   50.600945 -102.186876    8.226158    0.000000    0.000000    0.000000    0.000000
  0.036000000  -36.988805   50.974670  -99.239593   19.885574    0.000000    0.000000    0.000000    0.000000
  0.036200000  -36.934524   50.514179  -98.066312    0.062080    0.000000    0.000000    0.000000    0.000000
  0.036400000  -36.914284   51.265327  -99.364752    0.726306    0.000000    0.000000    0.000000    0.000000
  0.036600000  -36.894927   50.518661  -97.728038    6.724852    0.000000    0.000000    0.000000    0.000000
  0.036800000  -36.828279   51.237804  -97.901511    1.327318    0.000000    0.000000    0.000000    0.000000
  0.037000000  -36.870556   50.504173  -99.180019   11.079422    0.000000    0.000000    0.000000    0.000000
  0.037200000  -36.983468   50.738953 -101.419965   24.015272    0.000000    0.000000    0.000000    0.000000
  0.037400000  -36.935227   50.042862  -99.177679   23.029415    0.000000    0.000000    0.000000    0.000000
  0.037600000  -36.949028   49.754383 -100.044959   12.700578    0.000000    0.000000    0.000000    0.000000
  0.037800000  -36.826136   49.731419  -98.886923    9.457582    0.000000    0.000000    0.000000    0.000000
  0.038000000  -36.801766   49.212837 -100.491535   -0.444465    0.000000    0.000000    0.000000    0.000000
  0.038200000  -36.823001   49.898533  -99.325738   -0.985463    0.000000    0.000000    0.000000    0.000000
  0.038400000  -36.867985   48.340473 -102.032997   22.073479    0.000000    0.000000    0.000000    0.000000
  0.038600000  -36.749883   48.499718 -100.040450    4.748789    0.000000    0.000000    0.000000    0.000000
  0.038800000  -36.714950   47.476986 -100.028611   24.533077    0.000000    0.000000    0.000000    0.000000
  0.039000000  -36.659270   48.028759  -99.548856    6.047799    0.000000    0.000000    0.000000    0.000000
  0.039200000  -36.695674   47.942623  -98.495689    2.433445    0.000000    0.000000    0.000000    0.000000
  0.039400000  -36.523494   47.942863 -100.239199   20.004587    0.000000    0.000000    0.000000    0.000000
  0.039600000  -36.631829   47.219673  -99.959914   28.097502    0.000000    0.000000    0.000000    0.000000
  0.039800000  -36.506789   46.467552 -100.155977   18.986370    0.000000    0.000000    0.000000    0.000000
  0.040000000  -36.427850   46.525723 -101.722093   32.001705    0.000000    0.000000    0.000000    0.000000
  0.040200000  -36.351979   46.972660 -101.233152   11.424015    0.000000    0.000000    0.000000    0.000000
  0.040400000  -36.312011   46.902885 -100.878738   -2.113438    0.000000    0.000000    0.000000    0.000000
  0.040600000  -36.311306   46.242207 -103.769279   16.903502    0.000000    0.000000    0.000000    0.000000
  0.040800000  -36.125121   45.754429 -102.276795   15.073246    0.000000    0.000000    0.000000    0.000000
  0.041000000  -36.150085   46.535450 -100.555815   10.639407    0.000000    0.000000    0.000000    0.000000
  0.041200000  -36.048540   45.721588  -98.782696    6.494743    0.000000    0.000000    0.000000    0.000000
  0.041400000  -36.122195   45.819775  -99.447182    3.054931    0.000000    0.000000    0.000000    0.000000
  0.041600000  -35.995917   45.954620 -100.140756    7.048795    0.000000    0.000000    0.000000    0.000000
  0.041800000  -35.898135   45.475487  -98.507552   -8.897516    0.000000    0.000000    0.000000    0.000000
  0.042000000  -35.920873   45.658619 -100.589723    9.292667    0.000000    0.000000    0.000000    0.000000
  0.042200000  -35.821952   45.982780 -100.705477   19.748493    0.000000    0.000000    0.000000    0.000000
  0.042400000  -35.711601   46.175152 -100.591635   -1.983222    0.000000    0.000000    0.000000    0.000000
  0.042600000  -35.780326   45.920994 -100.366037   13.245260    0.000000    0.000000    0.000000    0.000000
  0.042800000  -35.580141   46.242035 -100.062962    6.611038    0.000000    0.000000    0.000000    0.000000
