! Anritsu VNA Master:                     Model: MS2036C/10/77
! SN:                                  1601066
! /card0/usr/255.ew.sma.r20.v2.s2p
! Existing Calibration Information:
! TYPE:                         Current Settings,       Active Cal Settings
! TIME:             	   12/17/2017 06:14:47 PM,    12/17/2017 06:11:23 PM
! INTERNAL TEMP:    	                   43.8 C,                    43.8 C
! # POINTS:         	                      501,                       501
! START FREQ:       	               10.000 MHz,                10.000 MHz
! STOP FREQ:        	          107.903 125 MHz,           107.903 125 MHz
! SOURCE POWER:     	                     High,                      High
! IFBW:             	                   100 Hz,                    100 Hz
! AVG FACTOR:       	                       1 ,                        1 
! REF PLANE 1:      	                     0 mm,                      0 mm
! REF PLANE 2:      	                     0 mm,                      0 mm
! CAL TYPE:         	                 Full S11,                  Full S11
! CAL METHOD:       	                     SOLT,                      SOLT
! CAL LINE TYPE:    	                     Coax,                      Coax
! DUT PORT 1:       	                K-Conn(F),                 K-Conn(F)
! DUT PORT 2:       	                K-Conn(F),                 K-Conn(F)
! CAL STATUS:       	        OK: Accuracy High,                        --
# GHZ S DB R 50.0
! FREQ.GHZ       S11DB        S11A       S21DB        S21A       S12DB        S12A       S22DB        S22A
  0.010000000   -7.208333  167.879578  -82.376030   78.812439    0.000000    0.000000    0.000000    0.000000
  0.010195806   -7.195245  167.676971  -82.478831   74.358810    0.000000    0.000000    0.000000    0.000000
  0.010391613   -7.193961  167.426239  -82.905572   75.740173    0.000000    0.000000    0.000000    0.000000
  0.010587419   -7.194615  167.227783  -82.810919   73.551407    0.000000    0.000000    0.000000    0.000000
  0.010783225   -7.197205  166.962234  -83.101087   70.828514    0.000000    0.000000    0.000000    0.000000
  0.010979031   -7.201099  166.698730  -83.328029   70.074036    0.000000    0.000000    0.000000    0.000000
  0.011174837   -7.198654  166.460907  -83.348306   69.877068    0.000000    0.000000    0.000000    0.000000
  0.011370644   -7.200970  166.265015  -84.536455   63.628258    0.000000    0.000000    0.000000    0.000000
  0.011566450   -7.202650  166.017242  -84.856063   67.097046    0.000000    0.000000    0.000000    0.000000
  0.011762256   -7.199271  165.817810  -85.211539   63.922386    0.000000    0.000000    0.000000    0.000000
  0.011958062   -7.205304  165.540024  -85.242892   63.101131    0.000000    0.000000    0.000000    0.000000
  0.012153869   -7.206648  165.269669  -85.393763   63.352608    0.000000    0.000000    0.000000    0.000000
  0.012349675   -7.205999  165.069275  -85.510038   59.089447    0.000000    0.000000    0.000000    0.000000
  0.012545481   -7.208254  164.829681  -85.679842   62.240917    0.000000    0.000000    0.000000    0.000000
  0.012741288   -7.211985  164.585358  -86.085869   60.749027    0.000000    0.000000    0.000000    0.000000
  0.012937094   -7.218104  164.356888  -86.910111   59.187210    0.000000    0.000000    0.000000    0.000000
  0.013132900   -7.217318  164.109085  -86.524541   58.624443    0.000000    0.000000    0.000000    0.000000
  0.013328706   -7.218919  163.856033  -87.203532   59.366024    0.000000    0.000000    0.000000    0.000000
  0.013524512   -7.215661  163.629669  -87.606745   61.619118    0.000000    0.000000    0.000000    0.000000
  0.013720319   -7.211340  163.417389  -87.765002   57.673729    0.000000    0.000000    0.000000    0.000000
  0.013916125   -7.209288  163.156631  -88.202119   57.916283    0.000000    0.000000    0.000000    0.000000
  0.014111931   -7.212782  162.920013  -87.638703   58.207321    0.000000    0.000000    0.000000    0.000000
  0.014307738   -7.215184  162.691467  -87.746554   59.462242    0.000000    0.000000    0.000000    0.000000
  0.014503544   -7.214859  162.475525  -87.785288   56.581356    0.000000    0.000000    0.000000    0.000000
  0.014699350   -7.215029  162.226669  -87.649852   58.262852    0.000000    0.000000    0.000000    0.000000
  0.014895156   -7.221167  161.992874  -87.549217   58.740692    0.000000    0.000000    0.000000    0.000000
  0.015090962   -7.221530  161.759079  -87.980896   59.980740    0.000000    0.000000    0.000000    0.000000
  0.015286769   -7.222869  161.509201  -88.489634   60.262520    0.000000    0.000000    0.000000    0.000000
  0.015482575   -7.227317  161.273331  -88.121078   56.940857    0.000000    0.000000    0.000000    0.000000
  0.015678381   -7.224507  161.043320  -87.629002   52.439499    0.000000    0.000000    0.000000    0.000000
  0.015874188   -7.226415  160.812622  -88.404337   56.863911    0.000000    0.000000    0.000000    0.000000
  0.016069994   -7.224386  160.589966  -87.721562   51.704823    0.000000    0.000000    0.000000    0.000000
  0.016265800   -7.224653  160.349258  -88.065736   51.394863    0.000000    0.000000    0.000000    0.000000
  0.016461606   -7.225377  160.142502  -88.742675   50.441113    0.000000    0.000000    0.000000    0.000000
  0.016657412   -7.228767  159.895355  -88.114308   53.525440    0.000000    0.000000    0.000000    0.000000
  0.016853219   -7.226655  159.683701  -88.228799   50.073761    0.000000    0.000000    0.000000    0.000000
  0.017049025   -7.228562  159.429428  -88.671898   47.456417    0.000000    0.000000    0.000000    0.000000
  0.017244831   -7.225140  159.210815  -88.627527   42.165932    0.000000    0.000000    0.000000    0.000000
  0.017440638   -7.225452  158.975693  -89.215615   42.409519    0.000000    0.000000    0.000000    0.000000
  0.017636444   -7.228183  158.707809  -89.275599   44.460758    0.000000    0.000000    0.000000    0.000000
  0.017832250   -7.229548  158.485748  -89.805856   40.910976    0.000000    0.000000    0.000000    0.000000
  0.018028056   -7.230997  158.267151  -89.658666   43.324390    0.000000    0.000000    0.000000    0.000000
  0.018223862   -7.230398  158.019531  -89.869219   40.491047    0.000000    0.000000    0.000000    0.000000
  0.018419669   -7.232080  157.789108  -90.782845   40.943130    0.000000    0.000000    0.000000    0.000000
  0.018615475   -7.236319  157.547836  -89.996451   37.957535    0.000000    0.000000    0.000000    0.000000
  0.018811281   -7.232676  157.306366  -90.421950   40.636677    0.000000    0.000000    0.000000    0.000000
  0.019007087   -7.234597  157.086639  -90.445213   34.513451    0.000000    0.000000    0.000000    0.000000
  0.019202894   -7.235101  156.866989  -90.574507   38.881161    0.000000    0.000000    0.000000    0.000000
  0.019398700   -7.236748  156.644150  -90.792732   37.433804    0.000000    0.000000    0.000000    0.000000
  0.019594506   -7.239209  156.409149  -90.908817   36.161640    0.000000    0.000000    0.000000    0.000000
  0.019790313   -7.238178  156.173965  -92.413853   40.537930    0.000000    0.000000    0.000000    0.000000
  0.019986119   -7.241164  155.950546  -92.119151   36.218269    0.000000    0.000000    0.000000    0.000000
  0.020181925   -7.238932  155.735031  -93.066603   37.060589    0.000000    0.000000    0.000000    0.000000
  0.020377731   -7.238751  155.486862  -91.761093   33.261204    0.000000    0.000000    0.000000    0.000000
  0.020573537   -7.232112  155.246841  -92.266651   38.138111    0.000000    0.000000    0.000000    0.000000
  0.020769344   -7.232512  155.012268  -91.415710   36.200974    0.000000    0.000000    0.000000    0.000000
  0.020965150   -7.232995  154.783356  -92.350805   34.625996    0.000000    0.000000    0.000000    0.000000
  0.021160956   -7.229925  154.546341  -91.520145   35.467625    0.000000    0.000000    0.000000    0.000000
  0.021356762   -7.233805  154.311081  -92.905212   38.795338    0.000000    0.000000    0.000000    0.000000
  0.021552569   -7.233903  154.085373  -93.122552   41.697906    0.000000    0.000000    0.000000    0.000000
  0.021748375   -7.234689  153.867722  -92.810269   38.752449    0.000000    0.000000    0.000000    0.000000
  0.021944181   -7.236926  153.640442  -92.974770   37.265186    0.000000    0.000000    0.000000    0.000000
  0.022139988   -7.241765  153.431168  -91.853174   36.886585    0.000000    0.000000    0.000000    0.000000
  0.022335794   -7.241693  153.202316  -92.310173   36.044247    0.000000    0.000000    0.000000    0.000000
  0.022531600   -7.241301  152.985641  -93.134245   33.193447    0.000000    0.000000    0.000000    0.000000
  0.022727406   -7.244982  152.745819  -92.144921   33.668068    0.000000    0.000000    0.000000    0.000000
  0.022923213   -7.240488  152.520111  -92.996163   32.844154    0.000000    0.000000    0.000000    0.000000
  0.023119019   -7.245175  152.287384  -91.760041   29.155916    0.000000    0.000000    0.000000    0.000000
  0.023314825   -7.246624  152.076736  -92.727733   33.188297    0.000000    0.000000    0.000000    0.000000
  0.023510631   -7.242846  151.827957  -92.462504   25.943829    0.000000    0.000000    0.000000    0.000000
  0.023706438   -7.242830  151.592834  -93.001456   29.239927    0.000000    0.000000    0.000000    0.000000
  0.023902244   -7.244663  151.356537  -93.283319   26.950481    0.000000    0.000000    0.000000    0.000000
  0.024098050   -7.242594  151.103088  -94.189548   22.297480    0.000000    0.000000    0.000000    0.000000
  0.024293856   -7.245155  150.879211  -94.200791   30.209814    0.000000    0.000000    0.000000    0.000000
  0.024489662   -7.241109  150.607788  -93.782660   21.412348    0.000000    0.000000    0.000000    0.000000
  0.024685469   -7.244208  150.367050  -94.050560   25.549738    0.000000    0.000000    0.000000    0.000000
  0.024881275   -7.245390  150.145599  -94.236943   20.228104    0.000000    0.000000    0.000000    0.000000
  0.025077081   -7.245658  149.910172  -93.817547   22.908920    0.000000    0.000000    0.000000    0.000000
  0.025272888   -7.244130  149.693756  -94.815692   20.242344    0.000000    0.000000    0.000000    0.000000
  0.025468694   -7.248504  149.479904  -94.414964   18.703312    0.000000    0.000000    0.000000    0.000000
  0.025664500   -7.248474  149.278473  -95.070574   26.701311    0.000000    0.000000    0.000000    0.000000
  0.025860306   -7.249513  149.051468  -96.242853   23.739164    0.000000    0.000000    0.000000    0.000000
  0.026056112   -7.251789  148.835602  -94.644906   11.639666    0.000000    0.000000    0.000000    0.000000
  0.026251919   -7.252541  148.607483  -95.117655   23.039364    0.000000    0.000000    0.000000    0.000000
  0.026447725   -7.257328  148.360825  -95.197515   14.997075    0.000000    0.000000    0.000000    0.000000
  0.026643531   -7.258928  148.134552  -95.043883   20.178635    0.000000    0.000000    0.000000    0.000000
  0.026839338   -7.261215  147.873596  -94.848796   23.455982    0.000000    0.000000    0.000000    0.000000
  0.027035144   -7.260199  147.609146  -95.507699   31.849178    0.000000    0.000000    0.000000    0.000000
  0.027230950   -7.256218  147.349442  -95.233708   17.975920    0.000000    0.000000    0.000000    0.000000
  0.027426756   -7.254812  147.075256  -94.891506   22.192516    0.000000    0.000000    0.000000    0.000000
  0.027622562   -7.249589  146.845474  -94.949458   25.924227    0.000000    0.000000    0.000000    0.000000
  0.027818369   -7.249702  146.591385  -95.637961   23.594076    0.000000    0.000000    0.000000    0.000000
  0.028014175   -7.248312  146.344559  -95.194017   21.883699    0.000000    0.000000    0.000000    0.000000
  0.028209981   -7.244495  146.111526  -95.408113   23.779390    0.000000    0.000000    0.000000    0.000000
  0.028405788   -7.244087  145.890717  -95.566337   20.921585    0.000000    0.000000    0.000000    0.000000
  0.028601594   -7.239178  145.681488  -96.712266   25.648817    0.000000    0.000000    0.000000    0.000000
  0.028797400   -7.238082  145.499466  -96.630165   13.860662    0.000000    0.000000    0.000000    0.000000
  0.028993206   -7.235953  145.330460  -95.727009   18.916119    0.000000    0.000000    0.000000    0.000000
  0.029189013   -7.233490  145.133514  -95.295920   20.964558    0.000000    0.000000    0.000000    0.000000
  0.029384819   -7.235073  144.947891  -97.142168   20.884501    0.000000    0.000000    0.000000    0.000000
  0.029580625   -7.232845  144.756958  -96.336251   19.910738    0.000000    0.000000    0.000000    0.000000
  0.029776431   -7.238276  144.558670  -96.803614   19.407686    0.000000    0.000000    0.000000    0.000000
  0.029972237   -7.240516  144.329483  -97.064369   16.175926    0.000000    0.000000    0.000000    0.000000
  0.030168044   -7.245119  144.111023  -96.239300   12.734313    0.000000    0.000000    0.000000    0.000000
  0.030363850   -7.247324  143.857697  -95.383296   18.801632    0.000000    0.000000    0.000000    0.000000
  0.030559656   -7.248151  143.629471  -97.662640    6.248008    0.000000    0.000000    0.000000    0.000000
  0.030755463   -7.249794  143.387314  -96.296416   17.037111    0.000000    0.000000    0.000000    0.000000
  0.030951269   -7.253592  143.148010  -96.680419    7.592202    0.000000    0.000000    0.000000    0.000000
  0.031147075   -7.246272  142.939346  -96.036764   11.891532    0.000000    0.000000    0.000000    0.000000
  0.031342881   -7.248748  142.665497  -96.207274    5.151272    0.000000    0.000000    0.000000    0.000000
  0.031538687   -7.250362  142.425858  -97.546608    8.932115    0.000000    0.000000    0.000000    0.000000
  0.031734494   -7.250470  142.172684  -96.901364    9.317537    0.000000    0.000000    0.000000    0.000000
  0.031930300   -7.255680  141.963058  -96.516622    8.361733    0.000000    0.000000    0.000000    0.000000
  0.032126106   -7.249240  141.710266  -96.891083   20.186584    0.000000    0.000000    0.000000    0.000000
  0.032321913   -7.250264  141.462967  -97.717110    8.475001    0.000000    0.000000    0.000000    0.000000
  0.032517719   -7.246342  141.255188  -99.217307   12.835787    0.000000    0.000000    0.000000    0.000000
  0.032713525   -7.240777  141.028793  -97.778470    5.678191    0.000000    0.000000    0.000000    0.000000
  0.032909331   -7.236669  140.823883  -98.096129   12.952509    0.000000    0.000000    0.000000    0.000000
  0.033105137   -7.238146  140.587677  -99.329012   11.541101    0.000000    0.000000    0.000000    0.000000
  0.033300944   -7.235220  140.415680  -97.767691   15.148357    0.000000    0.000000    0.000000    0.000000
  0.033496750   -7.242360  140.216415  -96.260421    8.415348    0.000000    0.000000    0.000000    0.000000
  0.033692556   -7.244587  140.010391  -96.352479   13.963981    0.000000    0.000000    0.000000    0.000000
  0.033888362   -7.251489  139.762680  -98.712067    9.208109    0.000000    0.000000    0.000000    0.000000
  0.034084169   -7.254745  139.503494  -99.571965   23.575827    0.000000    0.000000    0.000000    0.000000
  0.034279975   -7.250988  139.259796  -98.228113    7.639119    0.000000    0.000000    0.000000    0.000000
  0.034475781   -7.254506  138.968414  -98.295351    8.739167    0.000000    0.000000    0.000000    0.000000
  0.034671588   -7.260439  138.708878  -97.901525    5.902053    0.000000    0.000000    0.000000    0.000000
  0.034867394   -7.260342  138.471344  -97.364697    8.107280    0.000000    0.000000    0.000000    0.000000
  0.035063200   -7.261715  138.212067  -99.828207   10.086835    0.000000    0.000000    0.000000    0.000000
  0.035259006   -7.256083  137.945786  -96.069871   12.271940    0.000000    0.000000    0.000000    0.000000
  0.035454812   -7.257432  137.687057  -97.652862   12.754007    0.000000    0.000000    0.000000    0.000000
  0.035650619   -7.249876  137.419067  -98.599969   13.707150    0.000000    0.000000    0.000000    0.000000
  0.035846425   -7.247449  137.167999  -98.716449   -4.026325    0.000000    0.000000    0.000000    0.000000
  0.036042231   -7.239229  136.966202  -97.651988    2.051751    0.000000    0.000000    0.000000    0.000000
  0.036238037   -7.235021  136.730942  -98.068337    2.393357    0.000000    0.000000    0.000000    0.000000
  0.036433844   -7.223426  136.510406  -99.533187    6.534013    0.000000    0.000000    0.000000    0.000000
  0.036629650   -7.220534  136.301819  -99.672727    7.442287    0.000000    0.000000    0.000000    0.000000
  0.036825456   -7.222557  136.110016 -100.943090   12.188533    0.000000    0.000000    0.000000    0.000000
  0.037021262   -7.222359  135.938461  -99.330655   10.371622    0.000000    0.000000    0.000000    0.000000
  0.037217069   -7.222739  135.734604  -99.261248    0.790734    0.000000    0.000000    0.000000    0.000000
  0.037412875   -7.224326  135.528107  -98.813922   12.936466    0.000000    0.000000    0.000000    0.000000
  0.037608681   -7.224738  135.291245 -100.087031   16.072723    0.000000    0.000000    0.000000    0.000000
  0.037804487   -7.228527  135.067047  -98.519616   16.159523    0.000000    0.000000    0.000000    0.000000
  0.038000294   -7.236723  134.816666 -100.032974   -0.936175    0.000000    0.000000    0.000000    0.000000
  0.038196100   -7.241545  134.561600 -100.835027    0.877467    0.000000    0.000000    0.000000    0.000000
  0.038391906   -7.244727  134.354691 -101.935102   20.368370    0.000000    0.000000    0.000000    0.000000
  0.038587713   -7.244646  134.082993  -98.066195    8.703740    0.000000    0.000000    0.000000    0.000000
  0.038783519   -7.241703  133.882965  -98.912154    2.459069    0.000000    0.000000    0.000000    0.000000
  0.038979325   -7.246616  133.626877 -100.441621    3.449956    0.000000    0.000000    0.000000    0.000000
  0.039175131   -7.248697  133.396957  -99.047911    0.195447    0.000000    0.000000    0.000000    0.000000
  0.039370938   -7.249159  133.159592 -102.709167   -5.210954    0.000000    0.000000    0.000000    0.000000
  0.039566744   -7.239273  132.912979  -97.827597    3.563487    0.000000    0.000000    0.000000    0.000000
  0.039762550   -7.240140  132.637497  -99.590418   13.129800    0.000000    0.000000    0.000000    0.000000
  0.039958356   -7.234696  132.394592  -99.475214    0.788820    0.000000    0.000000    0.000000    0.000000
  0.040154163   -7.224336  132.157501  -99.232110    2.054405    0.000000    0.000000    0.000000    0.000000
  0.040349969   -7.221272  131.946091  -99.438296   20.590733    0.000000    0.000000    0.000000    0.000000
  0.040545775   -7.218485  131.800446 -100.114163    6.939231    0.000000    0.000000    0.000000    0.000000
  0.040741581   -7.217935  131.559647 -100.297104   19.457743    0.000000    0.000000    0.000000    0.000000
  0.040937387   -7.223256  131.401382 -100.388668   13.897808    0.000000    0.000000    0.000000    0.000000
  0.041133194   -7.227824  131.207901 -100.080409   13.754961    0.000000    0.000000    0.000000    0.000000
  0.041329000   -7.231892  131.010895 -103.744339   22.133940    0.000000    0.000000    0.000000    0.000000
  0.041524806   -7.239628  130.764114  -99.049382    8.669594    0.000000    0.000000    0.000000    0.000000
  0.041720612   -7.247812  130.512833 -100.607947   -2.871599    0.000000    0.000000    0.000000    0.000000
  0.041916419   -7.246182  130.253326 -100.969095    5.172078    0.000000    0.000000    0.000000    0.000000
  0.042112225   -7.251205  130.034714  -99.026599    2.706548    0.000000    0.000000    0.000000    0.000000
