! Anritsu VNA Master:                     Model: MS2036C/10/77
! SN:                                  1601066
! /card0/usr/255.ew.n.r20.1_1.s2p
! Existing Calibration Information:
! TYPE:                         Current Settings,       Active Cal Settings
! TIME:             	   12/17/2017 06:44:17 PM,    12/17/2017 06:38:14 PM
! INTERNAL TEMP:    	                   43.8 C,                    43.8 C
! # POINTS:         	                      501,                       501
! START FREQ:       	               10.000 MHz,                10.000 MHz
! STOP FREQ:        	          107.903 125 MHz,           107.903 125 MHz
! SOURCE POWER:     	                     High,                      High
! IFBW:             	                   100 Hz,                    100 Hz
! AVG FACTOR:       	                       1 ,                        1 
! REF PLANE 1:      	                     0 mm,                      0 mm
! REF PLANE 2:      	                     0 mm,                      0 mm
! CAL TYPE:         	                 Full S11,                  Full S11
! CAL METHOD:       	                     SOLT,                      SOLT
! CAL LINE TYPE:    	                     Coax,                      Coax
! DUT PORT 1:       	                N-Conn(F),                 N-Conn(F)
! DUT PORT 2:       	                K-Conn(F),                 K-Conn(F)
! CAL STATUS:       	        OK: Accuracy High,                        --
# GHZ S DB R 50.0
! FREQ.GHZ       S11DB        S11A       S21DB        S21A       S12DB        S12A       S22DB        S22A
  0.010000000  -44.879822   61.759186  -83.852657   76.969917    0.000000    0.000000    0.000000    0.000000
  0.010195806  -44.509097   62.042706  -83.401593   74.587257    0.000000    0.000000    0.000000    0.000000
  0.010391613  -44.259252   60.846588  -83.499159   75.635796    0.000000    0.000000    0.000000    0.000000
  0.010587419  -44.406709   61.462372  -83.796257   72.840149    0.000000    0.000000    0.000000    0.000000
  0.010783225  -44.220836   63.991898  -84.162369   71.201286    0.000000    0.000000    0.000000    0.000000
  0.010979031  -44.073086   62.648415  -84.335350   75.382500    0.000000    0.000000    0.000000    0.000000
  0.011174837  -43.726445   61.756767  -84.090990   70.372429    0.000000    0.000000    0.000000    0.000000
  0.011370644  -43.809186   61.318592  -85.118945   67.807106    0.000000    0.000000    0.000000    0.000000
  0.011566450  -43.322029   61.944317  -84.972465   70.425789    0.000000    0.000000    0.000000    0.000000
  0.011762256  -43.410323   62.139702  -85.582176   66.646446    0.000000    0.000000    0.000000    0.000000
  0.011958062  -43.471382   62.495602  -85.126680   62.828518    0.000000    0.000000    0.000000    0.000000
  0.012153869  -43.231441   62.770824  -85.169891   66.032249    0.000000    0.000000    0.000000    0.000000
  0.012349675  -43.148556   63.645924  -85.111556   64.801353    0.000000    0.000000    0.000000    0.000000
  0.012545481  -43.020534   63.437344  -85.698950   63.876648    0.000000    0.000000    0.000000    0.000000
  0.012741288  -42.706717   62.627228  -85.428734   64.382599    0.000000    0.000000    0.000000    0.000000
  0.012937094  -42.845746   63.434841  -85.848697   62.435524    0.000000    0.000000    0.000000    0.000000
  0.013132900  -42.842539   62.627617  -86.546457   60.789272    0.000000    0.000000    0.000000    0.000000
  0.013328706  -42.940876   63.303341  -86.438962   60.816559    0.000000    0.000000    0.000000    0.000000
  0.013524512  -42.917748   62.940029  -86.576419   57.199242    0.000000    0.000000    0.000000    0.000000
  0.013720319  -43.015530   61.744022  -86.614550   58.827660    0.000000    0.000000    0.000000    0.000000
  0.013916125  -42.816916   61.770210  -86.927323   57.846451    0.000000    0.000000    0.000000    0.000000
  0.014111931  -42.747993   61.281128  -86.482031   57.326530    0.000000    0.000000    0.000000    0.000000
  0.014307738  -42.707436   60.943832  -87.527956   56.128468    0.000000    0.000000    0.000000    0.000000
  0.014503544  -42.653492   59.803997  -87.138754   55.298084    0.000000    0.000000    0.000000    0.000000
  0.014699350  -42.447440   59.687042  -87.218805   54.862064    0.000000    0.000000    0.000000    0.000000
  0.014895156  -42.406380   59.706947  -87.585431   54.284931    0.000000    0.000000    0.000000    0.000000
  0.015090962  -42.416766   60.032623  -87.204807   51.067284    0.000000    0.000000    0.000000    0.000000
  0.015286769  -42.381839   59.545391  -87.925498   50.024902    0.000000    0.000000    0.000000    0.000000
  0.015482575  -42.286297   58.976894  -88.057779   51.250656    0.000000    0.000000    0.000000    0.000000
  0.015678381  -42.214321   57.753704  -88.279477   49.728542    0.000000    0.000000    0.000000    0.000000
  0.015874188  -42.090169   57.960171  -88.053870   49.206902    0.000000    0.000000    0.000000    0.000000
  0.016069994  -41.877822   56.585644  -89.134323   45.500393    0.000000    0.000000    0.000000    0.000000
  0.016265800  -41.983992   56.368740  -88.777777   45.456448    0.000000    0.000000    0.000000    0.000000
  0.016461606  -41.795029   55.900372  -88.976568   47.400089    0.000000    0.000000    0.000000    0.000000
  0.016657412  -41.549347   56.307713  -89.173064   46.519806    0.000000    0.000000    0.000000    0.000000
  0.016853219  -41.442368   56.542389  -89.135385   43.756264    0.000000    0.000000    0.000000    0.000000
  0.017049025  -41.218666   56.117306  -89.132709   43.618759    0.000000    0.000000    0.000000    0.000000
  0.017244831  -41.209241   55.321507  -89.192532   44.698917    0.000000    0.000000    0.000000    0.000000
  0.017440638  -41.100534   56.088524  -89.943159   43.094879    0.000000    0.000000    0.000000    0.000000
  0.017636444  -40.910725   56.137356  -89.532174   43.298092    0.000000    0.000000    0.000000    0.000000
  0.017832250  -40.810380   55.661537  -90.136237   47.111259    0.000000    0.000000    0.000000    0.000000
  0.018028056  -40.696926   56.320061  -90.004496   39.511635    0.000000    0.000000    0.000000    0.000000
  0.018223862  -40.540555   55.606705  -90.706489   42.651245    0.000000    0.000000    0.000000    0.000000
  0.018419669  -40.577372   56.090984  -89.825388   41.929913    0.000000    0.000000    0.000000    0.000000
  0.018615475  -40.618315   56.658813  -89.926093   39.454285    0.000000    0.000000    0.000000    0.000000
  0.018811281  -40.385689   54.842091  -90.578236   39.477428    0.000000    0.000000    0.000000    0.000000
  0.019007087  -40.263714   56.144943  -90.868981   46.535671    0.000000    0.000000    0.000000    0.000000
  0.019202894  -40.291106   56.615204  -90.409480   38.554302    0.000000    0.000000    0.000000    0.000000
  0.019398700  -40.259886   56.790863  -90.625092   37.120564    0.000000    0.000000    0.000000    0.000000
  0.019594506  -40.138567   56.402321  -91.258325   34.794746    0.000000    0.000000    0.000000    0.000000
  0.019790313  -40.125351   56.937702  -91.166573   40.085258    0.000000    0.000000    0.000000    0.000000
  0.019986119  -39.921156   57.137959  -91.212060   39.073021    0.000000    0.000000    0.000000    0.000000
  0.020181925  -39.909182   56.926926  -91.099407   33.513607    0.000000    0.000000    0.000000    0.000000
  0.020377731  -39.834472   55.986217  -91.448302   35.668072    0.000000    0.000000    0.000000    0.000000
  0.020573537  -39.845408   56.656944  -91.874027   31.140766    0.000000    0.000000    0.000000    0.000000
  0.020769344  -39.820211   57.383541  -90.830159   37.261120    0.000000    0.000000    0.000000    0.000000
  0.020965150  -39.858333   57.079205  -91.790425   43.573242    0.000000    0.000000    0.000000    0.000000
  0.021160956  -39.657963   56.237228  -91.267784   40.257980    0.000000    0.000000    0.000000    0.000000
  0.021356762  -39.830200   56.444790  -92.457242   37.079788    0.000000    0.000000    0.000000    0.000000
  0.021552569  -39.780799   56.243366  -92.728629   28.445072    0.000000    0.000000    0.000000    0.000000
  0.021748375  -39.630278   56.229858  -92.747545   35.555542    0.000000    0.000000    0.000000    0.000000
  0.021944181  -39.638686   55.578087  -92.895224   34.112331    0.000000    0.000000    0.000000    0.000000
  0.022139988  -39.644565   56.284470  -92.981213   33.647781    0.000000    0.000000    0.000000    0.000000
  0.022335794  -39.603253   56.309795  -92.707860   33.181892    0.000000    0.000000    0.000000    0.000000
  0.022531600  -39.487795   55.828735  -92.205614   37.192497    0.000000    0.000000    0.000000    0.000000
  0.022727406  -39.478970   56.181274  -93.067008   24.871422    0.000000    0.000000    0.000000    0.000000
  0.022923213  -39.565679   54.748459  -92.685533   32.311111    0.000000    0.000000    0.000000    0.000000
  0.023119019  -39.357522   54.789474  -92.225042   26.794838    0.000000    0.000000    0.000000    0.000000
  0.023314825  -39.325964   55.346008  -93.127954   33.770966    0.000000    0.000000    0.000000    0.000000
  0.023510631  -39.337903   54.734219  -93.953984   34.811062    0.000000    0.000000    0.000000    0.000000
  0.023706438  -39.174084   53.494888  -93.539771   20.010126    0.000000    0.000000    0.000000    0.000000
  0.023902244  -39.178940   53.655830  -94.863932   32.181919    0.000000    0.000000    0.000000    0.000000
  0.024098050  -39.029891   53.709709  -92.417419   24.061275    0.000000    0.000000    0.000000    0.000000
  0.024293856  -38.998071   53.650078  -93.957787   34.382713    0.000000    0.000000    0.000000    0.000000
  0.024489662  -38.945356   53.479675  -93.879085   24.977947    0.000000    0.000000    0.000000    0.000000
  0.024685469  -38.867002   53.366631  -93.069154   23.839361    0.000000    0.000000    0.000000    0.000000
  0.024881275  -38.854942   52.519897  -93.835390   28.426003    0.000000    0.000000    0.000000    0.000000
  0.025077081  -38.785281   52.862514  -94.929021   26.264950    0.000000    0.000000    0.000000    0.000000
  0.025272888  -38.743174   53.054081  -94.253634   23.035751    0.000000    0.000000    0.000000    0.000000
  0.025468694  -38.700716   53.286259  -96.097004   27.758932    0.000000    0.000000    0.000000    0.000000
  0.025664500  -38.509552   52.785797  -94.016862   26.240618    0.000000    0.000000    0.000000    0.000000
  0.025860306  -38.404648   53.168106  -94.394389   21.913513    0.000000    0.000000    0.000000    0.000000
  0.026056112  -38.367402   52.792439  -95.811253   19.282251    0.000000    0.000000    0.000000    0.000000
  0.026251919  -38.375815   52.774799  -95.318122   28.638424    0.000000    0.000000    0.000000    0.000000
  0.026447725  -38.343337   52.140423  -95.216093   18.547531    0.000000    0.000000    0.000000    0.000000
  0.026643531  -38.202475   52.408741  -95.788139   22.952459    0.000000    0.000000    0.000000    0.000000
  0.026839338  -38.356092   52.774147  -95.859153   23.408218    0.000000    0.000000    0.000000    0.000000
  0.027035144  -38.267387   52.018013  -94.791731   18.639160    0.000000    0.000000    0.000000    0.000000
  0.027230950  -38.234111   51.903484  -95.748607   22.827116    0.000000    0.000000    0.000000    0.000000
  0.027426756  -38.308289   52.769009  -96.118091   28.972788    0.000000    0.000000    0.000000    0.000000
  0.027622562  -38.140146   52.252106  -96.400436   23.263142    0.000000    0.000000    0.000000    0.000000
  0.027818369  -38.139346   52.744282  -96.453373   23.914326    0.000000    0.000000    0.000000    0.000000
  0.028014175  -37.995387   51.418922  -95.062477   18.611965    0.000000    0.000000    0.000000    0.000000
  0.028209981  -38.029568   51.414829  -95.890864   26.062132    0.000000    0.000000    0.000000    0.000000
  0.028405788  -37.944561   51.650345  -95.348277   22.095457    0.000000    0.000000    0.000000    0.000000
  0.028601594  -37.973221   51.518627  -95.560344   23.145435    0.000000    0.000000    0.000000    0.000000
  0.028797400  -37.929755   50.901737  -95.749009   21.639959    0.000000    0.000000    0.000000    0.000000
  0.028993206  -37.864924   51.841991  -96.728367   11.121500    0.000000    0.000000    0.000000    0.000000
  0.029189013  -37.879786   50.814804  -96.261364   25.254669    0.000000    0.000000    0.000000    0.000000
  0.029384819  -37.795444   50.647926  -95.797130   12.352307    0.000000    0.000000    0.000000    0.000000
  0.029580625  -37.876351   50.688263  -96.637330   20.970091    0.000000    0.000000    0.000000    0.000000
  0.029776431  -37.808393   49.691589  -96.972261   11.434505    0.000000    0.000000    0.000000    0.000000
  0.029972237  -37.736963   49.611641  -96.672871   22.526665    0.000000    0.000000    0.000000    0.000000
  0.030168044  -37.773396   49.447483  -96.119408   16.822010    0.000000    0.000000    0.000000    0.000000
  0.030363850  -37.693461   49.157749  -97.334230   10.561336    0.000000    0.000000    0.000000    0.000000
  0.030559656  -37.522443   48.442223  -98.492618   16.651678    0.000000    0.000000    0.000000    0.000000
  0.030755463  -37.513949   48.395229  -95.852892   12.909583    0.000000    0.000000    0.000000    0.000000
  0.030951269  -37.410660   48.131386  -96.864783   17.451710    0.000000    0.000000    0.000000    0.000000
  0.031147075  -37.344717   48.272850  -96.528818   14.142585    0.000000    0.000000    0.000000    0.000000
  0.031342881  -37.197265   48.196423  -97.642220   18.663403    0.000000    0.000000    0.000000    0.000000
  0.031538687  -37.361852   47.901047  -97.054619   19.138481    0.000000    0.000000    0.000000    0.000000
  0.031734494  -37.114883   47.413177  -98.334695   18.598181    0.000000    0.000000    0.000000    0.000000
  0.031930300  -37.059821   48.129238  -98.061947    8.589150    0.000000    0.000000    0.000000    0.000000
  0.032126106  -36.988270   46.752262  -98.156798    8.125711    0.000000    0.000000    0.000000    0.000000
  0.032321913  -36.899585   47.511196  -95.135657   13.228042    0.000000    0.000000    0.000000    0.000000
  0.032517719  -36.930530   47.812752  -98.677516    9.138144    0.000000    0.000000    0.000000    0.000000
  0.032713525  -36.798915   47.782764  -98.801916   11.635902    0.000000    0.000000    0.000000    0.000000
  0.032909331  -36.788107   48.028236  -97.475147    2.305550    0.000000    0.000000    0.000000    0.000000
  0.033105137  -36.694312   47.797249  -98.677971    9.629984    0.000000    0.000000    0.000000    0.000000
  0.033300944  -36.731108   47.334007  -98.825637   18.641779    0.000000    0.000000    0.000000    0.000000
  0.033496750  -36.491582   48.018417  -97.007157    8.115485    0.000000    0.000000    0.000000    0.000000
  0.033692556  -36.582142   47.528191  -97.998543   25.047901    0.000000    0.000000    0.000000    0.000000
  0.033888362  -36.519829   47.822815  -98.215165    3.857686    0.000000    0.000000    0.000000    0.000000
  0.034084169  -36.462594   47.466625  -97.496576    9.683410    0.000000    0.000000    0.000000    0.000000
  0.034279975  -36.266537   47.804169  -99.009003   15.134466    0.000000    0.000000    0.000000    0.000000
  0.034475781  -36.358808   47.988060  -99.029460    8.123110    0.000000    0.000000    0.000000    0.000000
  0.034671588  -36.341099   47.938309 -100.411134   10.935214    0.000000    0.000000    0.000000    0.000000
  0.034867394  -36.381280   47.211056  -97.773047    1.241536    0.000000    0.000000    0.000000    0.000000
  0.035063200  -36.272725   48.264477  -97.168419   14.225516    0.000000    0.000000    0.000000    0.000000
  0.035259006  -36.240167   48.124859 -100.395322   24.456362    0.000000    0.000000    0.000000    0.000000
  0.035454812  -36.260326   48.359287  -99.479883    9.648986    0.000000    0.000000    0.000000    0.000000
  0.035650619  -36.239137   47.694313  -97.246282    4.644501    0.000000    0.000000    0.000000    0.000000
  0.035846425  -36.187993   48.245312  -98.619713    3.449663    0.000000    0.000000    0.000000    0.000000
  0.036042231  -36.150506   48.236790  -98.123516   11.570037    0.000000    0.000000    0.000000    0.000000
  0.036238037  -36.088370   47.414242  -99.195913   20.169943    0.000000    0.000000    0.000000    0.000000
  0.036433844  -36.071242   47.781254  -98.301919    7.977684    0.000000    0.000000    0.000000    0.000000
  0.036629650  -36.039659   47.945225 -101.186253   13.224942    0.000000    0.000000    0.000000    0.000000
  0.036825456  -36.122339   48.168915  -98.563880   10.515347    0.000000    0.000000    0.000000    0.000000
  0.037021262  -36.116747   48.400173  -99.895938   -3.513894    0.000000    0.000000    0.000000    0.000000
  0.037217069  -36.061230   48.246975  -98.351295    6.747775    0.000000    0.000000    0.000000    0.000000
  0.037412875  -36.094209   47.540020 -101.485492   16.209047    0.000000    0.000000    0.000000    0.000000
  0.037608681  -36.089524   48.906605  -98.054684   11.016716    0.000000    0.000000    0.000000    0.000000
  0.037804487  -36.062412   48.153549 -102.336395   20.800800    0.000000    0.000000    0.000000    0.000000
  0.038000294  -36.156880   47.629814  -98.802317   12.856782    0.000000    0.000000    0.000000    0.000000
  0.038196100  -36.093480   47.634995 -100.250084    7.879540    0.000000    0.000000    0.000000    0.000000
  0.038391906  -36.010510   47.864361 -100.437494   18.954571    0.000000    0.000000    0.000000    0.000000
  0.038587713  -36.129906   47.994457 -100.691930   23.551266    0.000000    0.000000    0.000000    0.000000
  0.038783519  -36.034764   46.761173 -101.545939   21.296652    0.000000    0.000000    0.000000    0.000000
  0.038979325  -35.991231   47.711246 -100.704242   -1.886741    0.000000    0.000000    0.000000    0.000000
  0.039175131  -36.040543   47.426163 -101.243393    5.759814    0.000000    0.000000    0.000000    0.000000
  0.039370938  -35.971348   47.436741  -99.241903   -7.437757    0.000000    0.000000    0.000000    0.000000
  0.039566744  -36.028254   47.020042  -99.474649   23.492237    0.000000    0.000000    0.000000    0.000000
  0.039762550  -35.884082   47.210663  -99.033715    5.149840    0.000000    0.000000    0.000000    0.000000
  0.039958356  -35.996800   46.961090 -101.470633    9.288092    0.000000    0.000000    0.000000    0.000000
  0.040154163  -35.977104   47.053589 -103.784278   11.589328    0.000000    0.000000    0.000000    0.000000
  0.040349969  -35.956637   47.045444 -101.797776    2.325686    0.000000    0.000000    0.000000    0.000000
  0.040545775  -36.005310   46.500088 -100.662011    6.644725    0.000000    0.000000    0.000000    0.000000
  0.040741581  -35.961990   47.377052  -99.121611   12.114202    0.000000    0.000000    0.000000    0.000000
  0.040937387  -36.042728   46.055355 -100.462294   -0.793806    0.000000    0.000000    0.000000    0.000000
  0.041133194  -36.038907   45.542831  -98.780088   -7.073550    0.000000    0.000000    0.000000    0.000000
  0.041329000  -35.979187   45.672749 -103.039498   -3.923618    0.000000    0.000000    0.000000    0.000000
  0.041524806  -36.035794   45.514145 -104.528596    4.753748    0.000000    0.000000    0.000000    0.000000
  0.041720612  -36.038903   45.302738 -100.313642    2.455709    0.000000    0.000000    0.000000    0.000000
  0.041916419  -35.986637   44.081627 -100.854407   -6.840213    0.000000    0.000000    0.000000    0.000000
  0.042112225  -36.075906   44.050217 -102.060066    4.820386    0.000000    0.000000    0.000000    0.000000
