! Anritsu VNA Master:                     Model: MS2036C/10/77
! SN:                                  1601066
! /card0/usr/255.ew.sma.r200.1.s2p
! Existing Calibration Information:
! TYPE:                         Current Settings,       Active Cal Settings
! TIME:             	   12/17/2017 05:57:18 PM,    12/17/2017 05:44:58 PM
! INTERNAL TEMP:    	                   44.0 C,                    43.8 C
! # POINTS:         	                      501,                       501
! START FREQ:       	               10.000 MHz,                10.000 MHz
! STOP FREQ:        	          107.903 125 MHz,           107.903 125 MHz
! SOURCE POWER:     	                     High,                      High
! IFBW:             	                   100 Hz,                    100 Hz
! AVG FACTOR:       	                       1 ,                        1 
! REF PLANE 1:      	                     0 mm,                      0 mm
! REF PLANE 2:      	                     0 mm,                      0 mm
! CAL TYPE:         	                 Full S11,                  Full S11
! CAL METHOD:       	                     SOLT,                      SOLT
! CAL LINE TYPE:    	                     Coax,                      Coax
! DUT PORT 1:       	                K-Conn(F),                 K-Conn(F)
! DUT PORT 2:       	                K-Conn(F),                 K-Conn(F)
! CAL STATUS:       	        OK: Accuracy High,                        --
# GHZ S DB R 50.0
! FREQ.GHZ       S11DB        S11A       S21DB        S21A       S12DB        S12A       S22DB        S22A
  0.010000000   -4.554014  -10.693108  -84.458541   79.597649  -87.430655  -87.475105   -0.588791  172.277328
  0.010195806   -4.544128  -10.854693  -84.804192   74.793121  -88.244043 -104.799698   -0.614696  171.766708
  0.010391613   -4.540997  -11.067595  -84.685619   72.296379  -87.943444 -115.931015   -0.615673  171.622238
  0.010587419   -4.542369  -11.262276  -84.743610   77.989883  -87.786424 -127.608521   -0.610538  171.464233
  0.010783225   -4.545233  -11.476310  -85.073158   75.963531  -88.848976 -135.317017   -0.604301  171.315277
  0.010979031   -4.545877  -11.716353  -85.264839   77.174416  -88.198831 -155.768524   -0.602658  171.181046
  0.011174837   -4.546946  -11.933709  -84.633628   76.198914  -88.772381 -158.134232   -0.643087  170.631104
  0.011370644   -4.544043  -12.146344  -85.428768   73.767410  -89.615201 -170.309921   -0.649232  170.523651
  0.011566450   -4.547299  -12.344151  -85.365607   74.066353  -89.403082  179.561035   -0.648859  170.396149
  0.011762256   -4.546191  -12.571812  -84.750337   75.527588  -88.829003  167.773605   -0.653952  170.298981
  0.011958062   -4.547887  -12.779024  -85.147210   71.699081  -89.625376  157.122635   -0.658719  170.201782
  0.012153869   -4.546410  -13.006670  -85.417175   75.232559  -88.826804  145.664078   -0.702147  169.687164
  0.012349675   -4.546254  -13.223289  -84.825211   70.631630  -90.522746  131.710739   -0.706284  169.588394
  0.012545481   -4.547063  -13.453143  -84.998745   69.766182  -89.547860  126.525635   -0.707984  169.481781
  0.012741288   -4.549245  -13.668643  -84.691062   68.413864  -89.344672  111.741760   -0.712437  169.397430
  0.012937094   -4.551466  -13.883115  -85.413739   64.970726  -88.990471  101.316574   -0.715942  169.316376
  0.013132900   -4.554321  -14.094557  -85.569021   67.697762  -89.634254   92.578094   -0.755196  168.813049
  0.013328706   -4.554420  -14.297998  -85.275242   62.071156  -89.730432   79.449348   -0.748632  168.738663
  0.013524512   -4.551264  -14.526362  -85.140785   62.395409  -89.600054   72.299484   -0.749697  168.636871
  0.013720319   -4.549271  -14.742908  -85.819722   59.410091  -89.836980   59.981609   -0.752836  168.563797
  0.013916125   -4.549974  -14.953808  -86.281561   57.674351  -90.856104   46.077724   -0.753652  168.479813
  0.014111931   -4.554418  -15.178459  -86.229131   56.116558  -89.818281   39.980385   -0.795993  167.982239
  0.014307738   -4.552838  -15.387716  -86.504924   51.616894  -90.359459   27.103609   -0.800305  167.901001
  0.014503544   -4.555992  -15.616178  -86.226753   51.921722  -90.215478   16.319918   -0.799953  167.808716
  0.014699350   -4.554486  -15.837543  -87.097457   53.817097  -90.819357    8.353708   -0.802112  167.737091
  0.014895156   -4.556387  -16.036531  -87.191216   49.576561  -91.361570   -2.300847   -0.802825  167.649826
  0.015090962   -4.558313  -16.270046  -87.650838   46.215214  -92.454076  -21.229130   -0.844791  167.162598
  0.015286769   -4.559088  -16.479374  -87.939257   46.186909  -91.899573  -25.215033   -0.844169  167.082886
  0.015482575   -4.559746  -16.723112  -87.401956   46.850842  -93.454344  -35.372654   -0.853608  167.042664
  0.015678381   -4.560597  -16.941364  -88.922356   50.369328  -92.768561  -46.695759   -0.852950  166.966522
  0.015874188   -4.559616  -17.150808  -88.759679   47.155685  -92.848361  -59.014462   -0.852188  166.886185
  0.016069994   -4.561076  -17.364357  -89.292905   44.026684  -93.709044  -73.190292   -0.892302  166.396240
  0.016265800   -4.560175  -17.577766  -88.959521   46.069771  -93.395488  -84.314430   -0.888470  166.306412
  0.016461606   -4.560718  -17.792301  -89.550852   48.963581  -95.024642  -86.154938   -0.886147  166.223663
  0.016657412   -4.564874  -17.999994  -89.341981   39.964798  -94.112230 -115.442833   -0.882872  166.128433
  0.016853219   -4.561251  -18.214914  -89.871223   46.050938  -94.097650 -117.432877   -0.875774  166.040421
  0.017049025   -4.558343  -18.431490  -89.425811   47.767315  -93.805439 -124.531044   -0.870089  165.961746
  0.017244831   -4.557712  -18.647636  -90.245712   47.124332  -94.168215 -142.798386   -0.901244  165.448074
  0.017440638   -4.557389  -18.880276  -90.228499   46.099415  -94.897846 -152.041229   -0.891789  165.364075
  0.017636444   -4.553556  -19.087996  -90.154600   44.826019  -94.429300 -162.442871   -0.879901  165.266556
  0.017832250   -4.557090  -19.280804  -90.703695   47.274860  -94.235384 -174.672836   -0.869159  165.173843
  0.018028056   -4.555323  -19.497055  -89.835533   46.020351  -94.352235  177.370102   -0.855983  165.077118
  0.018223862   -4.558993  -19.709900  -90.116121   47.987320  -95.611831  171.508484   -0.884691  164.571381
  0.018419669   -4.562456  -19.930754  -90.136788   40.563801  -93.595723  144.562546   -0.872123  164.465149
  0.018615475   -4.563447  -20.144970  -90.478616   43.720329  -94.639442  139.252808   -0.857400  164.370422
  0.018811281   -4.562065  -20.357231  -90.632169   44.955769  -95.032941  124.554726   -0.847942  164.287018
  0.019007087   -4.563133  -20.566988  -91.962468   52.255447  -93.970649  116.583458   -0.835161  164.199753
  0.019202894   -4.564690  -20.754782  -90.042771   47.002853  -94.101564  114.401382   -0.863390  163.703217
  0.019398700   -4.566383  -20.964186  -90.709509   45.399971  -94.038852   96.926590   -0.854312  163.607147
  0.019594506   -4.567274  -21.173786  -90.413359   45.141884  -94.173713   88.623375   -0.848571  163.526993
  0.019790313   -4.566454  -21.381599  -90.940843   42.255260  -93.840259   85.392906   -0.841368  163.446030
  0.019986119   -4.565679  -21.594368  -90.495045   37.158840  -93.951401   67.876450   -0.836545  163.364243
  0.020181925   -4.567435  -21.808771  -90.387140   38.382702  -93.862691   57.410664   -0.871668  162.878082
  0.020377731   -4.566372  -22.031847  -90.696501   39.067326  -94.447462   45.671303   -0.868020  162.799088
  0.020573537   -4.562920  -22.230352  -91.382305   35.598969  -94.754965   30.269497   -0.863519  162.729233
  0.020769344   -4.564154  -22.465643  -90.877941   34.919403  -92.996665   31.597630   -0.855862  162.655396
  0.020965150   -4.564693  -22.692554  -90.994381   37.170052  -94.437229   23.498354   -0.852259  162.577774
  0.021160956   -4.568749  -22.910307  -92.005335   35.282066  -95.926657   15.277371   -0.888786  162.101791
  0.021356762   -4.567400  -23.124142  -91.606934   32.137703  -95.618502   -9.437705   -0.883796  162.022339
  0.021552569   -4.569393  -23.339529  -92.232819   32.632885  -96.281772   -8.233312   -0.880135  161.960968
  0.021748375   -4.571026  -23.564690  -91.171195   28.877224  -96.726607  -21.024643   -0.876953  161.890137
  0.021944181   -4.570762  -23.788414  -91.990571   34.701420  -96.122064  -36.780643   -0.872287  161.828140
  0.022139988   -4.572670  -24.007318  -91.855211   26.851273  -97.852518  -24.674292   -0.906177  161.353561
  0.022335794   -4.573791  -24.199356  -93.019848   27.508188  -97.752947  -55.774532   -0.903044  161.285110
  0.022531600   -4.573403  -24.406292  -91.464357   27.126410  -98.957798  -62.635689   -0.898425  161.222229
  0.022727406   -4.574054  -24.622980  -92.930179   23.898659  -98.827065  -70.233315   -0.896291  161.161179
  0.022923213   -4.576548  -24.834270  -93.415209   25.325289  -99.702163  -93.200722   -0.894776  161.096191
  0.023119019   -4.576403  -25.050112  -93.510890   25.349142  -99.289245  -94.896103   -0.889546  161.031433
  0.023314825   -4.577639  -25.296713  -93.679883   24.434101  -99.681306 -107.135521   -0.924836  160.560654
  0.023510631   -4.578356  -25.520195  -92.420076   29.477041 -104.092733 -124.969635   -0.923025  160.502762
  0.023706438   -4.575222  -25.740074  -93.715253   26.071804 -101.339483 -146.181076   -0.916249  160.440765
  0.023902244   -4.571189  -25.938112  -94.223556   29.459415 -100.554707 -147.226990   -0.912067  160.392670
  0.024098050   -4.567760  -26.192686  -94.150830   27.212696  -98.441699 -149.697311   -0.910037  160.341309
  0.024293856   -4.566765  -26.389576  -94.128385   28.570984 -100.619362  175.847687   -0.948339  159.878174
  0.024489662   -4.566189  -26.627382  -94.836075   25.883444 -100.607405  170.852753   -0.944448  159.831573
  0.024685469   -4.570382  -26.828331  -93.550215   32.614174  -99.411615  150.922516   -0.942311  159.777893
  0.024881275   -4.568417  -27.051783  -93.826876   30.244238  -98.921487  144.938889   -0.938685  159.730576
  0.025077081   -4.567945  -27.243351  -93.523928   30.543049 -100.531473  129.305481   -0.935781  159.672531
  0.025272888   -4.568144  -27.452053  -94.289472   25.320496  -99.609195  138.563110   -0.969419  159.221146
  0.025468694   -4.568277  -27.629639  -93.930121   32.094818  -97.958765  115.123329   -0.966241  159.168137
  0.025664500   -4.571779  -27.820997  -94.978866   32.859509  -98.561273  104.096458   -0.962929  159.124466
  0.025860306   -4.572379  -27.994635  -94.970900   26.400074  -97.482253   97.316124   -0.959191  159.085709
  0.026056112   -4.577404  -28.195007  -93.867402   26.152283  -98.658997   86.726227   -0.954333  159.049210
  0.026251919   -4.576209  -28.402485  -94.265278   26.853985  -97.261990   77.375114   -0.989941  158.592453
  0.026447725   -4.578572  -28.593044  -95.167000   23.449217  -97.730513   75.318993   -0.984544  158.550568
  0.026643531   -4.582425  -28.826355  -94.471466   20.348612  -96.721357   62.674751   -0.977785  158.507523
  0.026839338   -4.583155  -29.044844  -94.244891   21.155466  -97.506441   50.008732   -0.973184  158.463730
  0.027035144   -4.583122  -29.266899  -95.227788   25.082193  -98.652947   52.690281   -0.966492  158.425034
  0.027230950   -4.584642  -29.489437  -94.183327   19.794472  -96.670431   33.701576   -1.000522  157.971054
  0.027426756   -4.586065  -29.712627  -94.977719   25.081099  -98.125206   25.038748   -0.991241  157.938507
  0.027622562   -4.586100  -29.937050  -95.057938   14.641979  -97.965597   25.185141   -0.984517  157.902939
  0.027818369   -4.590733  -30.165001  -94.981089   21.758934  -98.585949   18.168299   -0.978047  157.863159
  0.028014175   -4.593937  -30.411404  -96.019211   18.240322  -99.592934   -1.735621   -0.971466  157.835083
  0.028209981   -4.591583  -30.649204  -95.294719   18.259407 -100.654616   -9.424346   -1.005672  157.396515
  0.028405788   -4.590850  -30.899178  -95.118304   16.493519 -101.057336  -15.323697   -0.999245  157.364655
  0.028601594   -4.586238  -31.091530  -96.413049   13.799141 -100.717693  -27.663647   -0.992982  157.336075
  0.028797400   -4.583848  -31.287506  -96.206231   13.528945 -101.722877  -49.813343   -0.985752  157.311188
  0.028993206   -4.584477  -31.468533  -94.784278   17.830776 -102.231004  -56.646702   -0.976829  157.281357
  0.029189013   -4.584118  -31.647394  -97.810945   17.719061 -102.560129  -71.954086   -0.969866  157.247040
  0.029384819   -4.582359  -31.837093  -96.248918   17.848848 -102.480784  -58.549202   -1.002612  156.805084
  0.029580625   -4.585324  -32.012684  -97.076282   19.937088 -103.857858  -74.265884   -0.995636  156.765289
  0.029776431   -4.591612  -32.238266  -97.796885   22.128141 -103.806843  -95.205498   -0.989271  156.725525
  0.029972237   -4.596395  -32.432930  -97.025164   21.084129 -103.906873 -115.294617   -0.982399  156.681229
  0.030168044   -4.604531  -32.660309  -96.422257   10.634091 -104.456307 -132.493912   -0.975190  156.636444
  0.030363850   -4.607993  -32.915241  -96.933040   16.475904 -108.180951 -145.085724   -1.007777  156.166397
  0.030559656   -4.606711  -33.167759  -97.518602   26.717367 -100.727068 -136.119980   -1.001569  156.109604
  0.030755463   -4.607623  -33.420799  -96.840028   16.008310 -102.770423 -163.003876   -0.992930  156.045944
  0.030951269   -4.607801  -33.670700  -96.747968   30.006994 -105.233824  172.947998   -0.984924  155.988846
  0.031147075   -4.601551  -33.903168  -98.004683    8.452453 -105.033382  175.089371   -0.877454  155.987854
  0.031342881   -4.596419  -34.153595  -98.040842   18.001858 -103.765017  151.625122   -0.911627  155.516678
  0.031538687   -4.594952  -34.386967  -97.536813   10.461114 -103.457568  163.408463   -0.907862  155.465271
  0.031734494   -4.595505  -34.588272  -96.802802   23.694895  -99.097652  127.906288   -0.902884  155.417282
  0.031930300   -4.586551  -34.815285  -96.717052   10.065212 -101.419216  141.247574   -0.898257  155.357513
  0.032126106   -4.582339  -35.013245  -97.713222   11.850966 -100.646115  109.659309   -0.893580  155.307999
  0.032321913   -4.574738  -35.202713  -96.334526   17.493916 -102.793215  119.805534   -0.929037  154.842361
  0.032517719   -4.570488  -35.397736  -98.497195    5.785641  -99.988772  113.849586   -0.923618  154.787598
  0.032713525   -4.567480  -35.573040  -96.116696   11.409563 -101.680911  109.087387   -0.919516  154.718872
  0.032909331   -4.562440  -35.774403 -100.227188   16.093189 -100.134042   94.630005   -0.913561  154.672440
  0.033105137   -4.562777  -35.934750  -98.085373   20.817472 -100.973575   75.676239   -0.909021  154.611771
  0.033300944   -4.564080  -36.135235  -96.484768   -2.451502 -100.180541   61.545528   -0.941843  154.135574
  0.033496750   -4.568898  -36.337822  -98.239776   16.065538 -102.969416   49.267090   -0.934739  154.088287
  0.033692556   -4.570565  -36.533707  -98.784162   13.232269 -100.324426   30.872150   -0.929695  154.034332
  0.033888362   -4.569017  -36.741932  -97.047066   14.313892 -102.623032   38.740883   -0.922060  153.976700
  0.034084169   -4.573023  -36.950058  -99.167024    2.127783 -101.579193   36.581547   -0.914728  153.922150
  0.034279975   -4.576202  -37.164906 -100.363715   23.190737 -105.659985   34.233582   -0.947277  153.464615
  0.034475781   -4.577904  -37.370518  -97.601858    9.555031 -104.267109    5.901238   -0.938812  153.408188
  0.034671588   -4.584210  -37.590706  -98.035832   17.228285 -101.786798   17.504086   -0.931215  153.348816
  0.034867394   -4.588500  -37.823174  -98.856530    2.834262 -104.025810   -6.093445   -0.924325  153.301086
  0.035063200   -4.592997  -38.051987  -98.774945   14.412946 -104.091634   15.945372   -0.916803  153.253387
  0.035259006   -4.594434  -38.286633  -98.343907    8.830710 -100.646040  -13.070276   -0.907770  153.201691
  0.035454812   -4.594987  -38.501068  -99.466554    7.120285 -103.279012  -18.050570   -0.938405  152.724762
  0.035650619   -4.596380  -38.707775  -97.677676   19.959904 -105.847527  -64.828079   -0.929858  152.676193
  0.035846425   -4.597991  -38.933681  -99.327839   18.814020 -109.527924  -62.356049   -0.921684  152.603317
  0.036042231   -4.593554  -39.142723 -100.033120    7.527531 -105.241521  -64.905235   -0.910967  152.549469
  0.036238037   -4.592765  -39.400066  -97.664160    9.894857 -108.960398  -76.852615   -0.902101  152.487213
  0.036433844   -4.588149  -39.603088  -98.566293   14.565255 -107.656344  -99.647903   -0.932305  152.008575
  0.036629650   -4.582193  -39.802773  -99.450206   19.602386 -110.011881   -1.024876   -0.923623  151.948196
  0.036825456   -4.576847  -39.992062 -100.947678   15.132455 -108.288230 -133.090454   -0.913967  151.889420
  0.037021262   -4.578813  -40.135868 -100.989118   14.534877 -109.079207  -82.225807   -0.903351  151.819748
  0.037217069   -4.579308  -40.316742  -99.998258   12.940912 -107.329025  175.701981   -0.892564  151.757126
  0.037412875   -4.584232  -40.499077  -99.724296   25.497456 -108.755365 -132.449402   -0.921435  151.283615
  0.037608681   -4.587352  -40.706722  -98.731291   -1.196044 -117.327049  168.516724   -0.912992  151.218384
  0.037804487   -4.598998  -40.891064  -98.724820   16.697823 -111.291503  179.600861   -0.904710  151.166809
  0.038000294   -4.605231  -41.123371 -100.720506   10.453036 -104.574807  169.253601   -0.894976  151.116150
  0.038196100   -4.613615  -41.391506 -100.920547   11.635461 -108.023969  112.782845   -0.885577  151.057861
  0.038391906   -4.616859  -41.625736  -99.003484   10.914542 -104.512497  121.410889   -0.918340  150.587875
  0.038587713   -4.621808  -41.878532  -98.206728   25.583517 -102.327551  145.344788   -0.907229  150.523270
  0.038783519   -4.621675  -42.107685  -99.395271   14.534938 -104.042185  118.712433   -0.897736  150.457047
  0.038979325   -4.625236  -42.329502 -100.485266   21.160219 -103.352818  105.832352   -0.889686  150.384079
  0.039175131   -4.620155  -42.603531  -98.079341    1.875155 -108.573475   82.825890   -0.881873  150.317780
  0.039370938   -4.615637  -42.828690  -99.584849   16.951784 -104.411821   86.936249   -0.913836  149.838608
  0.039566744   -4.614232  -43.056271  -98.881726    9.031483 -102.585536   76.589485   -0.906493  149.773972
  0.039762550   -4.608155  -43.276878 -101.208073   -0.604574 -102.636490   83.323982   -0.898212  149.704941
  0.039958356   -4.602807  -43.478233  -99.351249   16.397940 -102.179992   76.353119   -0.890220  149.642487
  0.040154163   -4.603163  -43.678383 -100.264277   27.028349 -104.414465   47.219296   -0.884202  149.580948
  0.040349969   -4.595124  -43.869164 -102.185676   11.555035 -102.683467   60.423992   -0.917133  149.112885
  0.040545775   -4.595636  -44.068214 -102.845293   -3.757478 -100.426490   37.961845   -0.910248  149.043259
  0.040741581   -4.598020  -44.238853 -101.844389    8.924004 -103.098861   37.072025   -0.901823  148.989990
  0.040937387   -4.604320  -44.426647  -99.775264   16.848257 -103.468583   37.764984   -0.892174  148.923294
  0.041133194   -4.606301  -44.647125  -99.532833    6.737360 -104.000744   33.525719   -0.885197  148.863617
  0.041329000   -4.613766  -44.878849 -102.726982   -5.672635 -103.019561    9.787156   -0.919402  148.388077
  0.041524806   -4.617747  -45.086731 -101.413689    0.580627 -101.640993   -4.489894   -0.911540  148.328796
  0.041720612   -4.621353  -45.319965  -98.522581    2.541973 -104.658518  -19.013309   -0.902933  148.258682
  0.041916419   -4.622554  -45.563248  -99.877649    6.699840 -106.754265   -0.839721   -0.895951  148.202896
  0.042112225   -4.626064  -45.783012  -99.847285    3.367667 -108.935522   25.023546   -0.890970  148.139130
