! Anritsu VNA Master:                     Model: MS2036C/10/77
! SN:                                  1601066
! /card0/usr/255.ew.sma.r20.v2.2.s2p
! Existing Calibration Information:
! TYPE:                         Current Settings,       Active Cal Settings
! TIME:             	   12/17/2017 06:25:53 PM,    12/17/2017 06:11:23 PM
! INTERNAL TEMP:    	                   43.8 C,                    43.8 C
! # POINTS:         	                      501,                       501
! START FREQ:       	               10.000 MHz,                10.000 MHz
! STOP FREQ:        	          107.903 125 MHz,           107.903 125 MHz
! SOURCE POWER:     	                     High,                      High
! IFBW:             	                   100 Hz,                    100 Hz
! AVG FACTOR:       	                       1 ,                        1 
! REF PLANE 1:      	                     0 mm,                      0 mm
! REF PLANE 2:      	                     0 mm,                      0 mm
! CAL TYPE:         	                 Full S11,                  Full S11
! CAL METHOD:       	                     SOLT,                      SOLT
! CAL LINE TYPE:    	                     Coax,                      Coax
! DUT PORT 1:       	                K-Conn(F),                 K-Conn(F)
! DUT PORT 2:       	                K-Conn(F),                 K-Conn(F)
! CAL STATUS:       	        OK: Accuracy High,                        --
# GHZ S DB R 50.0
! FREQ.GHZ       S11DB        S11A       S21DB        S21A       S12DB        S12A       S22DB        S22A
  0.010000000   -7.216167  167.732269  -82.520447   78.201469    0.000000    0.000000    0.000000    0.000000
  0.010195806   -7.202748  167.520126  -82.946099   79.323090    0.000000    0.000000    0.000000    0.000000
  0.010391613   -7.201767  167.290680  -82.705063   74.552338    0.000000    0.000000    0.000000    0.000000
  0.010587419   -7.204260  167.048889  -83.021930   68.818542    0.000000    0.000000    0.000000    0.000000
  0.010783225   -7.205435  166.811630  -83.615431   69.735039    0.000000    0.000000    0.000000    0.000000
  0.010979031   -7.207873  166.543808  -83.439392   70.288612    0.000000    0.000000    0.000000    0.000000
  0.011174837   -7.205278  166.297806  -83.888297   68.940125    0.000000    0.000000    0.000000    0.000000
  0.011370644   -7.202759  166.072952  -84.152222   67.669258    0.000000    0.000000    0.000000    0.000000
  0.011566450   -7.205650  165.821930  -84.345618   64.220650    0.000000    0.000000    0.000000    0.000000
  0.011762256   -7.206061  165.630142  -84.011466   63.053028    0.000000    0.000000    0.000000    0.000000
  0.011958062   -7.206963  165.311768  -84.905957   60.227905    0.000000    0.000000    0.000000    0.000000
  0.012153869   -7.209370  165.076691  -85.577872   63.159550    0.000000    0.000000    0.000000    0.000000
  0.012349675   -7.203959  164.856689  -85.929107   58.109486    0.000000    0.000000    0.000000    0.000000
  0.012545481   -7.209208  164.604446  -86.143417   58.814522    0.000000    0.000000    0.000000    0.000000
  0.012741288   -7.210695  164.358826  -86.035225   59.977921    0.000000    0.000000    0.000000    0.000000
  0.012937094   -7.215532  164.152756  -87.081877   60.735653    0.000000    0.000000    0.000000    0.000000
  0.013132900   -7.212719  163.911102  -86.787916   56.678909    0.000000    0.000000    0.000000    0.000000
  0.013328706   -7.212842  163.681168  -86.769722   59.006981    0.000000    0.000000    0.000000    0.000000
  0.013524512   -7.211668  163.445404  -86.996884   64.084488    0.000000    0.000000    0.000000    0.000000
  0.013720319   -7.205981  163.226639  -87.403153   59.307831    0.000000    0.000000    0.000000    0.000000
  0.013916125   -7.204861  162.992096  -87.385889   57.842415    0.000000    0.000000    0.000000    0.000000
  0.014111931   -7.208218  162.763702  -88.000938   59.393337    0.000000    0.000000    0.000000    0.000000
  0.014307738   -7.206742  162.531677  -87.550138   58.972687    0.000000    0.000000    0.000000    0.000000
  0.014503544   -7.210571  162.312531  -87.503813   60.571060    0.000000    0.000000    0.000000    0.000000
  0.014699350   -7.211877  162.091263  -87.644879   58.578407    0.000000    0.000000    0.000000    0.000000
  0.014895156   -7.214877  161.849243  -87.907532   58.229843    0.000000    0.000000    0.000000    0.000000
  0.015090962   -7.218390  161.628189  -87.932276   54.299538    0.000000    0.000000    0.000000    0.000000
  0.015286769   -7.218969  161.358231  -88.135838   58.065666    0.000000    0.000000    0.000000    0.000000
  0.015482575   -7.220657  161.132431  -87.536635   55.178890    0.000000    0.000000    0.000000    0.000000
  0.015678381   -7.219955  160.918243  -88.444218   60.629848    0.000000    0.000000    0.000000    0.000000
  0.015874188   -7.223251  160.672256  -88.206048   54.761414    0.000000    0.000000    0.000000    0.000000
  0.016069994   -7.224059  160.440643  -87.744274   52.145912    0.000000    0.000000    0.000000    0.000000
  0.016265800   -7.223640  160.214355  -87.975492   50.835056    0.000000    0.000000    0.000000    0.000000
  0.016461606   -7.225573  159.995850  -88.356434   51.675591    0.000000    0.000000    0.000000    0.000000
  0.016657412   -7.225770  159.732452  -88.702025   48.512470    0.000000    0.000000    0.000000    0.000000
  0.016853219   -7.227933  159.530685  -88.537837   48.763172    0.000000    0.000000    0.000000    0.000000
  0.017049025   -7.228789  159.281387  -89.259458   46.853264    0.000000    0.000000    0.000000    0.000000
  0.017244831   -7.228292  159.041412  -88.946648   43.945435    0.000000    0.000000    0.000000    0.000000
  0.017440638   -7.227923  158.803696  -88.968021   44.163227    0.000000    0.000000    0.000000    0.000000
  0.017636444   -7.229571  158.555176  -88.537116   45.712688    0.000000    0.000000    0.000000    0.000000
  0.017832250   -7.230001  158.311890  -90.198369   45.385109    0.000000    0.000000    0.000000    0.000000
  0.018028056   -7.229956  158.073257  -89.354239   45.586849    0.000000    0.000000    0.000000    0.000000
  0.018223862   -7.228458  157.814941  -89.872408   39.182301    0.000000    0.000000    0.000000    0.000000
  0.018419669   -7.230873  157.580627  -89.953108   43.517597    0.000000    0.000000    0.000000    0.000000
  0.018615475   -7.232920  157.334808  -89.959656   38.827534    0.000000    0.000000    0.000000    0.000000
  0.018811281   -7.231120  157.113907  -90.469779   39.729267    0.000000    0.000000    0.000000    0.000000
  0.019007087   -7.228985  156.884232  -90.549808   38.889816    0.000000    0.000000    0.000000    0.000000
  0.019202894   -7.228236  156.667664  -89.920434   37.001137    0.000000    0.000000    0.000000    0.000000
  0.019398700   -7.227843  156.435974  -90.660949   34.885811    0.000000    0.000000    0.000000    0.000000
  0.019594506   -7.228921  156.214447  -90.668030   38.059109    0.000000    0.000000    0.000000    0.000000
  0.019790313   -7.227626  155.991669  -90.926039   39.728893    0.000000    0.000000    0.000000    0.000000
  0.019986119   -7.228108  155.749146  -91.598120   34.793518    0.000000    0.000000    0.000000    0.000000
  0.020181925   -7.228007  155.530884  -91.525646   41.225136    0.000000    0.000000    0.000000    0.000000
  0.020377731   -7.226226  155.321243  -91.627591   37.238026    0.000000    0.000000    0.000000    0.000000
  0.020573537   -7.220177  155.083954  -91.860202   35.194096    0.000000    0.000000    0.000000    0.000000
  0.020769344   -7.219035  154.862579  -92.671718   39.320686    0.000000    0.000000    0.000000    0.000000
  0.020965150   -7.218925  154.638062  -92.133211   38.686176    0.000000    0.000000    0.000000    0.000000
  0.021160956   -7.217142  154.384155  -91.859180   37.780224    0.000000    0.000000    0.000000    0.000000
  0.021356762   -7.215887  154.184525  -91.902462   42.758129    0.000000    0.000000    0.000000    0.000000
  0.021552569   -7.217113  153.972534  -92.323585   36.253609    0.000000    0.000000    0.000000    0.000000
  0.021748375   -7.219306  153.774399  -92.095375   37.858097    0.000000    0.000000    0.000000    0.000000
  0.021944181   -7.223357  153.547836  -92.437469   34.771862    0.000000    0.000000    0.000000    0.000000
  0.022139988   -7.229690  153.339294  -92.271174   33.719894    0.000000    0.000000    0.000000    0.000000
  0.022335794   -7.231976  153.134888  -91.985122   37.178627    0.000000    0.000000    0.000000    0.000000
  0.022531600   -7.231850  152.919189  -92.076535   32.751762    0.000000    0.000000    0.000000    0.000000
  0.022727406   -7.234134  152.701126  -92.288653   30.715412    0.000000    0.000000    0.000000    0.000000
  0.022923213   -7.234519  152.467041  -92.880209   28.481911    0.000000    0.000000    0.000000    0.000000
  0.023119019   -7.238480  152.245346  -91.809158   26.969311    0.000000    0.000000    0.000000    0.000000
  0.023314825   -7.242718  152.016937  -93.185022   29.492949    0.000000    0.000000    0.000000    0.000000
  0.023510631   -7.240354  151.807587  -93.134335   33.147877    0.000000    0.000000    0.000000    0.000000
  0.023706438   -7.241522  151.545319  -93.724077   31.840225    0.000000    0.000000    0.000000    0.000000
  0.023902244   -7.243616  151.301834  -92.866068   26.973948    0.000000    0.000000    0.000000    0.000000
  0.024098050   -7.242978  151.078476  -93.653671   22.494778    0.000000    0.000000    0.000000    0.000000
  0.024293856   -7.248467  150.807022  -94.104168   15.644507    0.000000    0.000000    0.000000    0.000000
  0.024489662   -7.247846  150.537277  -94.479662   23.832550    0.000000    0.000000    0.000000    0.000000
  0.024685469   -7.248041  150.291748  -94.157962   19.893185    0.000000    0.000000    0.000000    0.000000
  0.024881275   -7.249647  150.054398  -95.465717   18.980993    0.000000    0.000000    0.000000    0.000000
  0.025077081   -7.250326  149.836761  -94.191279   24.843569    0.000000    0.000000    0.000000    0.000000
  0.025272888   -7.250791  149.595398  -94.515600   20.710041    0.000000    0.000000    0.000000    0.000000
  0.025468694   -7.254491  149.385269  -94.489166   22.664312    0.000000    0.000000    0.000000    0.000000
  0.025664500   -7.256289  149.165543  -95.573062   21.112110    0.000000    0.000000    0.000000    0.000000
  0.025860306   -7.255873  148.916245  -95.724846   28.441961    0.000000    0.000000    0.000000    0.000000
  0.026056112   -7.260332  148.707367  -95.616002   23.634912    0.000000    0.000000    0.000000    0.000000
  0.026251919   -7.258648  148.458466  -94.736650   20.747595    0.000000    0.000000    0.000000    0.000000
  0.026447725   -7.263222  148.191193  -96.505361   24.243399    0.000000    0.000000    0.000000    0.000000
  0.026643531   -7.265513  147.971603  -94.375845   21.357283    0.000000    0.000000    0.000000    0.000000
  0.026839338   -7.267626  147.710999  -94.699025   23.315731    0.000000    0.000000    0.000000    0.000000
  0.027035144   -7.265132  147.455872  -95.496751   22.161760    0.000000    0.000000    0.000000    0.000000
  0.027230950   -7.262193  147.177368  -95.212546   23.321133    0.000000    0.000000    0.000000    0.000000
  0.027426756   -7.256900  146.902466  -95.481975   21.713055    0.000000    0.000000    0.000000    0.000000
  0.027622562   -7.252045  146.664520  -94.852373   24.747324    0.000000    0.000000    0.000000    0.000000
  0.027818369   -7.248179  146.428360  -96.348121   21.018492    0.000000    0.000000    0.000000    0.000000
  0.028014175   -7.245717  146.179688  -95.939135   19.222973    0.000000    0.000000    0.000000    0.000000
  0.028209981   -7.243697  145.954742  -95.913200   29.189955    0.000000    0.000000    0.000000    0.000000
  0.028405788   -7.242697  145.743393  -95.848585   20.318745    0.000000    0.000000    0.000000    0.000000
  0.028601594   -7.235731  145.535538  -96.214069   17.699986    0.000000    0.000000    0.000000    0.000000
  0.028797400   -7.236208  145.361176  -96.513021   18.760540    0.000000    0.000000    0.000000    0.000000
  0.028993206   -7.232384  145.194290  -96.652548   20.857931    0.000000    0.000000    0.000000    0.000000
  0.029189013   -7.232298  145.014786  -96.136958   27.804224    0.000000    0.000000    0.000000    0.000000
  0.029384819   -7.233995  144.849319  -96.598767   11.054523    0.000000    0.000000    0.000000    0.000000
  0.029580625   -7.233940  144.658386  -96.948635   10.769213    0.000000    0.000000    0.000000    0.000000
  0.029776431   -7.234499  144.471054  -95.793197   18.713089    0.000000    0.000000    0.000000    0.000000
  0.029972237   -7.242873  144.236115  -97.250060   13.189001    0.000000    0.000000    0.000000    0.000000
  0.030168044   -7.244639  144.023697  -96.559099   13.977127    0.000000    0.000000    0.000000    0.000000
  0.030363850   -7.250604  143.782196  -96.694865   17.972792    0.000000    0.000000    0.000000    0.000000
  0.030559656   -7.250814  143.548767  -96.402410   17.012207    0.000000    0.000000    0.000000    0.000000
  0.030755463   -7.257246  143.301834  -96.643962    9.037908    0.000000    0.000000    0.000000    0.000000
  0.030951269   -7.257660  143.068237  -97.965752   21.443514    0.000000    0.000000    0.000000    0.000000
  0.031147075   -7.255957  142.880447  -97.448587   11.722482    0.000000    0.000000    0.000000    0.000000
  0.031342881   -7.255632  142.617706  -97.628230   18.542229    0.000000    0.000000    0.000000    0.000000
  0.031538687   -7.262611  142.361450  -96.478938   21.623039    0.000000    0.000000    0.000000    0.000000
  0.031734494   -7.263797  142.085571  -97.426074   14.278953    0.000000    0.000000    0.000000    0.000000
  0.031930300   -7.266312  141.874695  -97.788800   21.423098    0.000000    0.000000    0.000000    0.000000
  0.032126106   -7.264274  141.617340  -98.156042    5.566325    0.000000    0.000000    0.000000    0.000000
  0.032321913   -7.270864  141.361816  -95.783103   16.109596    0.000000    0.000000    0.000000    0.000000
  0.032517719   -7.266156  141.125336  -98.816793    1.832470    0.000000    0.000000    0.000000    0.000000
  0.032713525   -7.258446  140.890427  -97.730476   13.306206    0.000000    0.000000    0.000000    0.000000
  0.032909331   -7.258865  140.682465  -97.176389   17.084909    0.000000    0.000000    0.000000    0.000000
  0.033105137   -7.255799  140.435989  -97.328088    1.986777    0.000000    0.000000    0.000000    0.000000
  0.033300944   -7.256341  140.234970  -99.030484   12.300597    0.000000    0.000000    0.000000    0.000000
  0.033496750   -7.261389  140.019638  -97.999493    8.769745    0.000000    0.000000    0.000000    0.000000
  0.033692556   -7.265342  139.796875  -97.834951   11.110041    0.000000    0.000000    0.000000    0.000000
  0.033888362   -7.272700  139.531067  -99.954007   19.356766    0.000000    0.000000    0.000000    0.000000
  0.034084169   -7.273278  139.274139  -99.523936   13.948552    0.000000    0.000000    0.000000    0.000000
  0.034279975   -7.270334  139.015167 -100.013833    1.621304    0.000000    0.000000    0.000000    0.000000
  0.034475781   -7.274836  138.701340  -98.047924   12.159487    0.000000    0.000000    0.000000    0.000000
  0.034671588   -7.278319  138.449371  -99.338216    5.186506    0.000000    0.000000    0.000000    0.000000
  0.034867394   -7.280190  138.181198 -100.221690   24.714310    0.000000    0.000000    0.000000    0.000000
  0.035063200   -7.276867  137.911118  -98.334565   24.282028    0.000000    0.000000    0.000000    0.000000
  0.035259006   -7.271368  137.634415  -98.326622    3.038138    0.000000    0.000000    0.000000    0.000000
  0.035454812   -7.266799  137.379593  -98.375314   13.646420    0.000000    0.000000    0.000000    0.000000
  0.035650619   -7.262883  137.127609  -97.089286    9.160746    0.000000    0.000000    0.000000    0.000000
  0.035846425   -7.260256  136.842194  -99.347745    2.511058    0.000000    0.000000    0.000000    0.000000
  0.036042231   -7.248129  136.626938  -96.823959   12.240229    0.000000    0.000000    0.000000    0.000000
  0.036238037   -7.244176  136.413620  -98.705408   13.652392    0.000000    0.000000    0.000000    0.000000
  0.036433844   -7.232415  136.192154  -98.147405    2.438636    0.000000    0.000000    0.000000    0.000000
  0.036629650   -7.228888  135.990402  -99.418210   -1.672024    0.000000    0.000000    0.000000    0.000000
  0.036825456   -7.228601  135.808487  -98.165190   -3.419480    0.000000    0.000000    0.000000    0.000000
  0.037021262   -7.228826  135.613312  -99.814460    7.628241    0.000000    0.000000    0.000000    0.000000
  0.037217069   -7.226951  135.414871 -100.117373    8.720765    0.000000    0.000000    0.000000    0.000000
  0.037412875   -7.228563  135.203552 -100.611922   -1.767111    0.000000    0.000000    0.000000    0.000000
  0.037608681   -7.228350  135.001587 -100.436468    4.286676    0.000000    0.000000    0.000000    0.000000
  0.037804487   -7.232155  134.757782  -97.837710   13.396014    0.000000    0.000000    0.000000    0.000000
  0.038000294   -7.240661  134.531616  -98.638475   -1.507497    0.000000    0.000000    0.000000    0.000000
  0.038196100   -7.243870  134.302505  -98.194472   10.172643    0.000000    0.000000    0.000000    0.000000
  0.038391906   -7.248018  134.039520 -100.171432   -4.983022    0.000000    0.000000    0.000000    0.000000
  0.038587713   -7.254774  133.802704  -99.841335    3.559541    0.000000    0.000000    0.000000    0.000000
  0.038783519   -7.250094  133.606247 -100.665862   -2.861213    0.000000    0.000000    0.000000    0.000000
  0.038979325   -7.253557  133.368042 -100.127008    7.122247    0.000000    0.000000    0.000000    0.000000
  0.039175131   -7.252010  133.126007 -101.790555   16.212448    0.000000    0.000000    0.000000    0.000000
  0.039370938   -7.255310  132.892014  -99.270377   23.348528    0.000000    0.000000    0.000000    0.000000
  0.039566744   -7.247524  132.627640  -98.906140   14.256192    0.000000    0.000000    0.000000    0.000000
  0.039762550   -7.247425  132.364990  -99.637824    9.817802    0.000000    0.000000    0.000000    0.000000
  0.039958356   -7.240295  132.143677  -99.908296   28.897230    0.000000    0.000000    0.000000    0.000000
  0.040154163   -7.233203  131.878708  -99.861149   15.886230    0.000000    0.000000    0.000000    0.000000
  0.040349969   -7.228502  131.664688 -100.183195   -0.068207    0.000000    0.000000    0.000000    0.000000
  0.040545775   -7.225912  131.482147 -100.867067   -8.920297    0.000000    0.000000    0.000000    0.000000
  0.040741581   -7.228510  131.278259 -102.387226   14.276911    0.000000    0.000000    0.000000    0.000000
  0.040937387   -7.233304  131.098495 -100.510227   -0.693521    0.000000    0.000000    0.000000    0.000000
  0.041133194   -7.234923  130.900009 -102.297500   -2.273902    0.000000    0.000000    0.000000    0.000000
  0.041329000   -7.242428  130.676132 -100.237263   19.564100    0.000000    0.000000    0.000000    0.000000
  0.041524806   -7.246039  130.436050 -102.550755    8.528083    0.000000    0.000000    0.000000    0.000000
  0.041720612   -7.254196  130.185303 -100.997896    0.453518    0.000000    0.000000    0.000000    0.000000
  0.041916419   -7.254068  129.916809  -99.953137   10.252652    0.000000    0.000000    0.000000    0.000000
  0.042112225   -7.255990  129.683060  -99.575077    9.189375    0.000000    0.000000    0.000000    0.000000
