! Anritsu VNA Master:                     Model: MS2036C/10/77
! SN:                                  1601066
! /card0/usr/255.ew.n.r50.2_1.s2p
! Existing Calibration Information:
! TYPE:                         Current Settings,       Active Cal Settings
! TIME:             	   12/17/2017 06:55:53 PM,    12/17/2017 06:38:14 PM
! INTERNAL TEMP:    	                   42.8 C,                    43.8 C
! # POINTS:         	                      501,                       501
! START FREQ:       	               10.000 MHz,                10.000 MHz
! STOP FREQ:        	          107.903 125 MHz,           107.903 125 MHz
! SOURCE POWER:     	                     High,                      High
! IFBW:             	                   100 Hz,                    100 Hz
! AVG FACTOR:       	                       1 ,                        1 
! REF PLANE 1:      	                     0 mm,                      0 mm
! REF PLANE 2:      	                     0 mm,                      0 mm
! CAL TYPE:         	                 Full S11,                  Full S11
! CAL METHOD:       	                     SOLT,                      SOLT
! CAL LINE TYPE:    	                     Coax,                      Coax
! DUT PORT 1:       	                N-Conn(F),                 N-Conn(F)
! DUT PORT 2:       	                K-Conn(F),                 K-Conn(F)
! CAL STATUS:       	        OK: Accuracy High,                        --
# GHZ S DB R 50.0
! FREQ.GHZ       S11DB        S11A       S21DB        S21A       S12DB        S12A       S22DB        S22A
  0.010000000   -4.527097  -12.171759  -84.440306   75.803444    0.000000    0.000000    0.000000    0.000000
  0.010195806   -4.515083  -12.328604  -84.873662   74.868881    0.000000    0.000000    0.000000    0.000000
  0.010391613   -4.512964  -12.540993  -85.131041   74.657837    0.000000    0.000000    0.000000    0.000000
  0.010587419   -4.516632  -12.744800  -85.239037   76.328850    0.000000    0.000000    0.000000    0.000000
  0.010783225   -4.519852  -12.981705  -84.804142   75.731277    0.000000    0.000000    0.000000    0.000000
  0.010979031   -4.522711  -13.180903  -84.632714   79.779778    0.000000    0.000000    0.000000    0.000000
  0.011174837   -4.523092  -13.410517  -84.846773   77.386482    0.000000    0.000000    0.000000    0.000000
  0.011370644   -4.524823  -13.645505  -84.664620   77.489304    0.000000    0.000000    0.000000    0.000000
  0.011566450   -4.526547  -13.843446  -85.358110   77.908478    0.000000    0.000000    0.000000    0.000000
  0.011762256   -4.530149  -14.054083  -85.363922   75.975197    0.000000    0.000000    0.000000    0.000000
  0.011958062   -4.528939  -14.314881  -84.582225   77.166809    0.000000    0.000000    0.000000    0.000000
  0.012153869   -4.533840  -14.539104  -85.105685   74.494308    0.000000    0.000000    0.000000    0.000000
  0.012349675   -4.537688  -14.796846  -84.661687   72.410957    0.000000    0.000000    0.000000    0.000000
  0.012545481   -4.541303  -15.046596  -85.396909   70.918503    0.000000    0.000000    0.000000    0.000000
  0.012741288   -4.540205  -15.283537  -85.198316   68.492996    0.000000    0.000000    0.000000    0.000000
  0.012937094   -4.548534  -15.529936  -85.326798   65.459213    0.000000    0.000000    0.000000    0.000000
  0.013132900   -4.551599  -15.801065  -85.617646   62.815563    0.000000    0.000000    0.000000    0.000000
  0.013328706   -4.549410  -16.036896  -85.029631   63.812012    0.000000    0.000000    0.000000    0.000000
  0.013524512   -4.551506  -16.310877  -85.751528   60.532326    0.000000    0.000000    0.000000    0.000000
  0.013720319   -4.548412  -16.562265  -85.470214   56.995338    0.000000    0.000000    0.000000    0.000000
  0.013916125   -4.549175  -16.810272  -85.723167   59.225430    0.000000    0.000000    0.000000    0.000000
  0.014111931   -4.549123  -17.080576  -85.916451   56.909557    0.000000    0.000000    0.000000    0.000000
  0.014307738   -4.550204  -17.344582  -85.930463   51.443932    0.000000    0.000000    0.000000    0.000000
  0.014503544   -4.550985  -17.606276  -86.729642   52.345905    0.000000    0.000000    0.000000    0.000000
  0.014699350   -4.548860  -17.858458  -87.063047   51.507271    0.000000    0.000000    0.000000    0.000000
  0.014895156   -4.551089  -18.109886  -87.402229   49.635403    0.000000    0.000000    0.000000    0.000000
  0.015090962   -4.549652  -18.351128  -87.575626   49.612877    0.000000    0.000000    0.000000    0.000000
  0.015286769   -4.550652  -18.597624  -87.783744   47.339230    0.000000    0.000000    0.000000    0.000000
  0.015482575   -4.548641  -18.841745  -87.787705   45.350964    0.000000    0.000000    0.000000    0.000000
  0.015678381   -4.547326  -19.083092  -88.099729   48.714497    0.000000    0.000000    0.000000    0.000000
  0.015874188   -4.546928  -19.324377  -88.304797   44.610012    0.000000    0.000000    0.000000    0.000000
  0.016069994   -4.546456  -19.541302  -88.924863   46.890121    0.000000    0.000000    0.000000    0.000000
  0.016265800   -4.548033  -19.772387  -89.292702   43.174129    0.000000    0.000000    0.000000    0.000000
  0.016461606   -4.546862  -19.973839  -89.631961   47.031204    0.000000    0.000000    0.000000    0.000000
  0.016657412   -4.548401  -20.198133  -90.179443   43.297890    0.000000    0.000000    0.000000    0.000000
  0.016853219   -4.548759  -20.411674  -89.751877   46.054775    0.000000    0.000000    0.000000    0.000000
  0.017049025   -4.542418  -20.658689  -90.647781   43.959690    0.000000    0.000000    0.000000    0.000000
  0.017244831   -4.540889  -20.857351  -89.956350   51.336308    0.000000    0.000000    0.000000    0.000000
  0.017440638   -4.538991  -21.089539  -90.402434   42.366341    0.000000    0.000000    0.000000    0.000000
  0.017636444   -4.542043  -21.315540  -90.737925   43.472679    0.000000    0.000000    0.000000    0.000000
  0.017832250   -4.539938  -21.520315  -89.885479   46.209862    0.000000    0.000000    0.000000    0.000000
  0.018028056   -4.546047  -21.750107  -90.250626   47.316097    0.000000    0.000000    0.000000    0.000000
  0.018223862   -4.548103  -21.966972  -90.035825   48.230873    0.000000    0.000000    0.000000    0.000000
  0.018419669   -4.553045  -22.223610  -90.121406   49.104713    0.000000    0.000000    0.000000    0.000000
  0.018615475   -4.556085  -22.453178  -90.029236   44.682224    0.000000    0.000000    0.000000    0.000000
  0.018811281   -4.554026  -22.675316  -90.560417   45.939140    0.000000    0.000000    0.000000    0.000000
  0.019007087   -4.556237  -22.927376  -90.596861   45.945564    0.000000    0.000000    0.000000    0.000000
  0.019202894   -4.559919  -23.157003  -90.006380   47.853756    0.000000    0.000000    0.000000    0.000000
  0.019398700   -4.563033  -23.410936  -90.182029   42.541988    0.000000    0.000000    0.000000    0.000000
  0.019594506   -4.560974  -23.659994  -89.699967   40.399574    0.000000    0.000000    0.000000    0.000000
  0.019790313   -4.562728  -23.897779  -90.078208   43.441643    0.000000    0.000000    0.000000    0.000000
  0.019986119   -4.565757  -24.160896  -90.006272   43.042622    0.000000    0.000000    0.000000    0.000000
  0.020181925   -4.565468  -24.418633  -90.984732   39.969837    0.000000    0.000000    0.000000    0.000000
  0.020377731   -4.562302  -24.648973  -91.138506   31.503994    0.000000    0.000000    0.000000    0.000000
  0.020573537   -4.560963  -24.927126  -91.746543   36.299381    0.000000    0.000000    0.000000    0.000000
  0.020769344   -4.560027  -25.168653  -91.131561   31.482712    0.000000    0.000000    0.000000    0.000000
  0.020965150   -4.558069  -25.435272  -91.699321   36.168636    0.000000    0.000000    0.000000    0.000000
  0.021160956   -4.560663  -25.682104  -90.904193   32.668903    0.000000    0.000000    0.000000    0.000000
  0.021356762   -4.559403  -25.959669  -92.853777   28.194588    0.000000    0.000000    0.000000    0.000000
  0.021552569   -4.558065  -26.200851  -90.593855   33.921337    0.000000    0.000000    0.000000    0.000000
  0.021748375   -4.557338  -26.432461  -92.039635   28.287922    0.000000    0.000000    0.000000    0.000000
  0.021944181   -4.558292  -26.644173  -91.686992   24.550917    0.000000    0.000000    0.000000    0.000000
  0.022139988   -4.558926  -26.885542  -93.578209   28.572233    0.000000    0.000000    0.000000    0.000000
  0.022335794   -4.560143  -27.093639  -92.828016   27.120508    0.000000    0.000000    0.000000    0.000000
  0.022531600   -4.555575  -27.307978  -92.837772   24.374624    0.000000    0.000000    0.000000    0.000000
  0.022727406   -4.555831  -27.525661  -93.110404   28.118336    0.000000    0.000000    0.000000    0.000000
  0.022923213   -4.557749  -27.749882  -93.236996   23.542278    0.000000    0.000000    0.000000    0.000000
  0.023119019   -4.559653  -27.956192  -92.861136   29.456749    0.000000    0.000000    0.000000    0.000000
  0.023314825   -4.562793  -28.192963  -92.675140   34.273880    0.000000    0.000000    0.000000    0.000000
  0.023510631   -4.564377  -28.403498  -92.574689   31.843311    0.000000    0.000000    0.000000    0.000000
  0.023706438   -4.561108  -28.615932  -93.537449   35.647980    0.000000    0.000000    0.000000    0.000000
  0.023902244   -4.562214  -28.846075  -94.494309   28.430367    0.000000    0.000000    0.000000    0.000000
  0.024098050   -4.561025  -29.079113  -93.506832   33.214947    0.000000    0.000000    0.000000    0.000000
  0.024293856   -4.561851  -29.316978  -94.531876   37.749298    0.000000    0.000000    0.000000    0.000000
  0.024489662   -4.567030  -29.553005  -93.831312   23.368179    0.000000    0.000000    0.000000    0.000000
  0.024685469   -4.568954  -29.789627  -93.087163   33.491459    0.000000    0.000000    0.000000    0.000000
  0.024881275   -4.572322  -30.014389  -94.534499   32.985359    0.000000    0.000000    0.000000    0.000000
  0.025077081   -4.577556  -30.271395  -94.737437   29.308739    0.000000    0.000000    0.000000    0.000000
  0.025272888   -4.580954  -30.501263  -94.894910   26.197706    0.000000    0.000000    0.000000    0.000000
  0.025468694   -4.586596  -30.743256  -94.926176   32.107662    0.000000    0.000000    0.000000    0.000000
  0.025664500   -4.589887  -30.977076  -93.661222   28.910156    0.000000    0.000000    0.000000    0.000000
  0.025860306   -4.596382  -31.208757  -94.367982   27.320795    0.000000    0.000000    0.000000    0.000000
  0.026056112   -4.597955  -31.494587  -94.294747   22.336266    0.000000    0.000000    0.000000    0.000000
  0.026251919   -4.603438  -31.746552  -94.295981   20.098728    0.000000    0.000000    0.000000    0.000000
  0.026447725   -4.604170  -32.040779  -94.691865   18.422768    0.000000    0.000000    0.000000    0.000000
  0.026643531   -4.606711  -32.331806  -94.433867   24.872807    0.000000    0.000000    0.000000    0.000000
  0.026839338   -4.608547  -32.639000  -94.525421   26.526360    0.000000    0.000000    0.000000    0.000000
  0.027035144   -4.606507  -32.931282  -94.441318   18.208155    0.000000    0.000000    0.000000    0.000000
  0.027230950   -4.604135  -33.257530  -94.780831   21.461578    0.000000    0.000000    0.000000    0.000000
  0.027426756   -4.604188  -33.548237  -95.256879   23.172916    0.000000    0.000000    0.000000    0.000000
  0.027622562   -4.600001  -33.845081  -94.902406   20.278307    0.000000    0.000000    0.000000    0.000000
  0.027818369   -4.596729  -34.119030  -95.773529   16.585320    0.000000    0.000000    0.000000    0.000000
  0.028014175   -4.593623  -34.430225  -95.861695   20.420862    0.000000    0.000000    0.000000    0.000000
  0.028209981   -4.587519  -34.704174  -96.178220   18.727411    0.000000    0.000000    0.000000    0.000000
  0.028405788   -4.577867  -34.970909  -95.657950   10.422718    0.000000    0.000000    0.000000    0.000000
  0.028601594   -4.569201  -35.206860  -96.203278   21.168652    0.000000    0.000000    0.000000    0.000000
  0.028797400   -4.559812  -35.408325  -96.382644   20.582521    0.000000    0.000000    0.000000    0.000000
  0.028993206   -4.556199  -35.596626  -96.463519    6.334397    0.000000    0.000000    0.000000    0.000000
  0.029189013   -4.549011  -35.752949  -96.359413   17.978577    0.000000    0.000000    0.000000    0.000000
  0.029384819   -4.545277  -35.912437  -96.539825   18.001894    0.000000    0.000000    0.000000    0.000000
  0.029580625   -4.544376  -36.074459  -96.540038   19.411922    0.000000    0.000000    0.000000    0.000000
  0.029776431   -4.546163  -36.247749  -97.619706   14.502604    0.000000    0.000000    0.000000    0.000000
  0.029972237   -4.548907  -36.432396  -98.113792   22.671375    0.000000    0.000000    0.000000    0.000000
  0.030168044   -4.552453  -36.620579  -98.244666   25.384153    0.000000    0.000000    0.000000    0.000000
  0.030363850   -4.552756  -36.824413  -97.184186   21.543402    0.000000    0.000000    0.000000    0.000000
  0.030559656   -4.556074  -37.012653  -97.477647   13.087627    0.000000    0.000000    0.000000    0.000000
  0.030755463   -4.554983  -37.219654  -97.213014   18.612492    0.000000    0.000000    0.000000    0.000000
  0.030951269   -4.556107  -37.423725  -97.456174   24.899088    0.000000    0.000000    0.000000    0.000000
  0.031147075   -4.552606  -37.610039  -97.654603    8.036654    0.000000    0.000000    0.000000    0.000000
  0.031342881   -4.556375  -37.799919  -97.077098   13.477428    0.000000    0.000000    0.000000    0.000000
  0.031538687   -4.557170  -38.009411  -95.959474   20.003929    0.000000    0.000000    0.000000    0.000000
  0.031734494   -4.555668  -38.172390  -97.896891   15.500947    0.000000    0.000000    0.000000    0.000000
  0.031930300   -4.557464  -38.388203 -100.174178   26.718092    0.000000    0.000000    0.000000    0.000000
  0.032126106   -4.558043  -38.585209  -97.971574   22.982073    0.000000    0.000000    0.000000    0.000000
  0.032321913   -4.561025  -38.767685  -97.803049   28.574356    0.000000    0.000000    0.000000    0.000000
  0.032517719   -4.560298  -38.950409  -96.985244   16.240171    0.000000    0.000000    0.000000    0.000000
  0.032713525   -4.560893  -39.151283  -97.740663   18.736855    0.000000    0.000000    0.000000    0.000000
  0.032909331   -4.569371  -39.382523  -97.603462   11.990765    0.000000    0.000000    0.000000    0.000000
  0.033105137   -4.574675  -39.598110  -97.968121   17.254538    0.000000    0.000000    0.000000    0.000000
  0.033300944   -4.579894  -39.823242  -97.410507   10.602399    0.000000    0.000000    0.000000    0.000000
  0.033496750   -4.591623  -40.074448  -97.576711   21.875624    0.000000    0.000000    0.000000    0.000000
  0.033692556   -4.597940  -40.344486  -97.582062    9.993301    0.000000    0.000000    0.000000    0.000000
  0.033888362   -4.604122  -40.645603  -97.082819    8.048978    0.000000    0.000000    0.000000    0.000000
  0.034084169   -4.608663  -40.924664  -97.855230   16.807669    0.000000    0.000000    0.000000    0.000000
  0.034279975   -4.614734  -41.225563  -99.778674    9.466180    0.000000    0.000000    0.000000    0.000000
  0.034475781   -4.621622  -41.522861  -98.073767   -7.176506    0.000000    0.000000    0.000000    0.000000
  0.034671588   -4.625387  -41.847809  -98.230559    4.587804    0.000000    0.000000    0.000000    0.000000
  0.034867394   -4.628746  -42.177006 -100.407457    9.000635    0.000000    0.000000    0.000000    0.000000
  0.035063200   -4.631744  -42.484001  -98.448142   11.760719    0.000000    0.000000    0.000000    0.000000
  0.035259006   -4.634039  -42.790562  -99.252871   16.136051    0.000000    0.000000    0.000000    0.000000
  0.035454812   -4.631842  -43.087009 -100.371628   -3.205538    0.000000    0.000000    0.000000    0.000000
  0.035650619   -4.627222  -43.384533  -97.625918   10.857712    0.000000    0.000000    0.000000    0.000000
  0.035846425   -4.622993  -43.671776 -101.682907    7.161565    0.000000    0.000000    0.000000    0.000000
  0.036042231   -4.615239  -43.952438 -102.348437    1.419524    0.000000    0.000000    0.000000    0.000000
  0.036238037   -4.603143  -44.203979 -100.820817    6.313285    0.000000    0.000000    0.000000    0.000000
  0.036433844   -4.596757  -44.484852 -102.553153   -1.935775    0.000000    0.000000    0.000000    0.000000
  0.036629650   -4.590750  -44.693600  -98.659966    4.974094    0.000000    0.000000    0.000000    0.000000
  0.036825456   -4.585490  -44.913452  -97.580748    5.993454    0.000000    0.000000    0.000000    0.000000
  0.037021262   -4.577262  -45.108700 -101.930435   27.695133    0.000000    0.000000    0.000000    0.000000
  0.037217069   -4.578533  -45.257030  -98.425187   12.512622    0.000000    0.000000    0.000000    0.000000
  0.037412875   -4.577605  -45.473934  -98.651604   -0.462511    0.000000    0.000000    0.000000    0.000000
  0.037608681   -4.586835  -45.686180 -100.555465   18.395876    0.000000    0.000000    0.000000    0.000000
  0.037804487   -4.591075  -45.891220  -98.121638    5.379706    0.000000    0.000000    0.000000    0.000000
  0.038000294   -4.596930  -46.133823  -98.843285    8.620387    0.000000    0.000000    0.000000    0.000000
  0.038196100   -4.604238  -46.385746  -97.307851   19.856987    0.000000    0.000000    0.000000    0.000000
  0.038391906   -4.613703  -46.584618  -97.649592   15.252738    0.000000    0.000000    0.000000    0.000000
  0.038587713   -4.613324  -46.845490  -98.970698    1.428601    0.000000    0.000000    0.000000    0.000000
  0.038783519   -4.614233  -47.112885 -100.578839    6.236058    0.000000    0.000000    0.000000    0.000000
  0.038979325   -4.619275  -47.358337  -98.701164   13.371841    0.000000    0.000000    0.000000    0.000000
  0.039175131   -4.618782  -47.629440  -99.227558    7.335186    0.000000    0.000000    0.000000    0.000000
  0.039370938   -4.615323  -47.896267  -99.047638   19.042011    0.000000    0.000000    0.000000    0.000000
  0.039566744   -4.611235  -48.145748  -99.145926   -3.158070    0.000000    0.000000    0.000000    0.000000
  0.039762550   -4.608538  -48.379242  -99.174229   17.456135    0.000000    0.000000    0.000000    0.000000
  0.039958356   -4.606592  -48.643452 -100.569907   27.648504    0.000000    0.000000    0.000000    0.000000
  0.040154163   -4.603580  -48.891830 -100.538776   14.017111    0.000000    0.000000    0.000000    0.000000
  0.040349969   -4.601574  -49.119198  -97.810078   10.791389    0.000000    0.000000    0.000000    0.000000
  0.040545775   -4.598777  -49.341572  -99.816661   -8.459532    0.000000    0.000000    0.000000    0.000000
  0.040741581   -4.603542  -49.587807  -98.951628    6.405893    0.000000    0.000000    0.000000    0.000000
  0.040937387   -4.603767  -49.836296  -99.620522   -0.546107    0.000000    0.000000    0.000000    0.000000
  0.041133194   -4.607571  -50.116436  -99.918541   -6.511890    0.000000    0.000000    0.000000    0.000000
  0.041329000   -4.610632  -50.362297  -99.279274   -3.412417    0.000000    0.000000    0.000000    0.000000
  0.041524806   -4.614459  -50.656784 -101.466711   14.285666    0.000000    0.000000    0.000000    0.000000
  0.041720612   -4.611511  -50.940990 -102.221678    7.648172    0.000000    0.000000    0.000000    0.000000
  0.041916419   -4.607742  -51.203365 -102.549667    3.473069    0.000000    0.000000    0.000000    0.000000
  0.042112225   -4.609477  -51.476479 -101.580873   -1.141293    0.000000    0.000000    0.000000    0.000000
