! Anritsu VNA Master:                     Model: MS2036C/10/77
! SN:                                  1601066
! /card0/usr/255.ew.sma.v2.s2p
! Existing Calibration Information:
! TYPE:                         Current Settings,       Active Cal Settings
! TIME:             	   12/17/2017 06:22:10 PM,    12/17/2017 06:11:23 PM
! INTERNAL TEMP:    	                   43.8 C,                    43.8 C
! # POINTS:         	                      501,                       501
! START FREQ:       	               10.000 MHz,                10.000 MHz
! STOP FREQ:        	          107.903 125 MHz,           107.903 125 MHz
! SOURCE POWER:     	                     High,                      High
! IFBW:             	                   100 Hz,                    100 Hz
! AVG FACTOR:       	                       1 ,                        1 
! REF PLANE 1:      	                     0 mm,                      0 mm
! REF PLANE 2:      	                     0 mm,                      0 mm
! CAL TYPE:         	                 Full S11,                  Full S11
! CAL METHOD:       	                     SOLT,                      SOLT
! CAL LINE TYPE:    	                     Coax,                      Coax
! DUT PORT 1:       	                K-Conn(F),                 K-Conn(F)
! DUT PORT 2:       	                K-Conn(F),                 K-Conn(F)
! CAL STATUS:       	        OK: Accuracy High,                        --
# GHZ S DB R 50.0
! FREQ.GHZ       S11DB        S11A       S21DB        S21A       S12DB        S12A       S22DB        S22A
  0.010000000   -0.691213  -58.390728  -84.188709   89.550644    0.000000    0.000000    0.000000    0.000000
  0.010195806   -0.681352  -59.559166  -84.264409   88.308609    0.000000    0.000000    0.000000    0.000000
  0.010391613   -0.687533  -60.787201  -84.343076   83.100273    0.000000    0.000000    0.000000    0.000000
  0.010587419   -0.695304  -62.011547  -84.301138   83.454994    0.000000    0.000000    0.000000    0.000000
  0.010783225   -0.700891  -63.240147  -84.530103   87.675911    0.000000    0.000000    0.000000    0.000000
  0.010979031   -0.710137  -64.467072  -84.105032   81.424240    0.000000    0.000000    0.000000    0.000000
  0.011174837   -0.713623  -65.695183  -84.086960   78.201775    0.000000    0.000000    0.000000    0.000000
  0.011370644   -0.719700  -66.920708  -83.683736   76.897423    0.000000    0.000000    0.000000    0.000000
  0.011566450   -0.724083  -68.136581  -83.895904   78.151405    0.000000    0.000000    0.000000    0.000000
  0.011762256   -0.730847  -69.365791  -83.298216   75.536682    0.000000    0.000000    0.000000    0.000000
  0.011958062   -0.740437  -70.609665  -83.786750   71.027771    0.000000    0.000000    0.000000    0.000000
  0.012153869   -0.747016  -71.842247  -84.272814   71.430641    0.000000    0.000000    0.000000    0.000000
  0.012349675   -0.751006  -73.104195  -84.130094   66.463753    0.000000    0.000000    0.000000    0.000000
  0.012545481   -0.752899  -74.351753  -84.318735   65.976883    0.000000    0.000000    0.000000    0.000000
  0.012741288   -0.760181  -75.572304  -84.274585   64.095619    0.000000    0.000000    0.000000    0.000000
  0.012937094   -0.765831  -76.814415  -84.638433   62.497944    0.000000    0.000000    0.000000    0.000000
  0.013132900   -0.772737  -78.080200  -84.989329   56.646141    0.000000    0.000000    0.000000    0.000000
  0.013328706   -0.781014  -79.317383  -85.220727   55.036533    0.000000    0.000000    0.000000    0.000000
  0.013524512   -0.786230  -80.554756  -85.224793   53.166256    0.000000    0.000000    0.000000    0.000000
  0.013720319   -0.790615  -81.819130  -86.292845   51.667171    0.000000    0.000000    0.000000    0.000000
  0.013916125   -0.799655  -83.052376  -86.244155   49.163456    0.000000    0.000000    0.000000    0.000000
  0.014111931   -0.807607  -84.324127  -87.299387   48.035366    0.000000    0.000000    0.000000    0.000000
  0.014307738   -0.817654  -85.599472  -87.305265   46.810047    0.000000    0.000000    0.000000    0.000000
  0.014503544   -0.825315  -86.850357  -87.791363   46.306194    0.000000    0.000000    0.000000    0.000000
  0.014699350   -0.833441  -88.121475  -88.064999   48.199619    0.000000    0.000000    0.000000    0.000000
  0.014895156   -0.845845  -89.405312  -88.493010   46.704124    0.000000    0.000000    0.000000    0.000000
  0.015090962   -0.854024  -90.680489  -88.404057   47.599159    0.000000    0.000000    0.000000    0.000000
  0.015286769   -0.860798  -91.966377  -89.349510   53.304264    0.000000    0.000000    0.000000    0.000000
  0.015482575   -0.863007  -93.225243  -88.832758   49.960606    0.000000    0.000000    0.000000    0.000000
  0.015678381   -0.867679  -94.511002  -88.952973   49.340523    0.000000    0.000000    0.000000    0.000000
  0.015874188   -0.875060  -95.780457  -89.836110   55.496346    0.000000    0.000000    0.000000    0.000000
  0.016069994   -0.880790  -97.082352  -90.281324   56.580154    0.000000    0.000000    0.000000    0.000000
  0.016265800   -0.890676  -98.364853  -89.697029   52.106060    0.000000    0.000000    0.000000    0.000000
  0.016461606   -0.891798  -99.682045  -89.351428   57.595005    0.000000    0.000000    0.000000    0.000000
  0.016657412   -0.898146 -100.999893  -90.139742   53.053543    0.000000    0.000000    0.000000    0.000000
  0.016853219   -0.901691 -102.318375  -89.590709   53.857212    0.000000    0.000000    0.000000    0.000000
  0.017049025   -0.908972 -103.655151  -89.769791   56.172371    0.000000    0.000000    0.000000    0.000000
  0.017244831   -0.915317 -104.949608  -89.479710   50.204460    0.000000    0.000000    0.000000    0.000000
  0.017440638   -0.927432 -106.256355  -89.123412   49.876755    0.000000    0.000000    0.000000    0.000000
  0.017636444   -0.940666 -107.576378  -89.388823   53.965351    0.000000    0.000000    0.000000    0.000000
  0.017832250   -0.951475 -108.894318  -88.536943   50.335995    0.000000    0.000000    0.000000    0.000000
  0.018028056   -0.961110 -110.220779  -89.727113   46.025204    0.000000    0.000000    0.000000    0.000000
  0.018223862   -0.971544 -111.560181  -89.410801   45.961952    0.000000    0.000000    0.000000    0.000000
  0.018419669   -0.981351 -112.929985  -89.133750   47.729027    0.000000    0.000000    0.000000    0.000000
  0.018615475   -0.989499 -114.265114  -89.336318   42.116333    0.000000    0.000000    0.000000    0.000000
  0.018811281   -0.995663 -115.618805  -89.450524   39.295017    0.000000    0.000000    0.000000    0.000000
  0.019007087   -1.004198 -116.977852  -89.985466   36.095009    0.000000    0.000000    0.000000    0.000000
  0.019202894   -1.013048 -118.356071  -89.884999   32.021793    0.000000    0.000000    0.000000    0.000000
  0.019398700   -1.024908 -119.733147  -90.483373   38.388828    0.000000    0.000000    0.000000    0.000000
  0.019594506   -1.033299 -121.134193  -89.976157   40.478138    0.000000    0.000000    0.000000    0.000000
  0.019790313   -1.041123 -122.545891  -90.076838   32.993000    0.000000    0.000000    0.000000    0.000000
  0.019986119   -1.049179 -123.934013  -90.501661   28.152634    0.000000    0.000000    0.000000    0.000000
  0.020181925   -1.053381 -125.313416  -91.009911   34.703018    0.000000    0.000000    0.000000    0.000000
  0.020377731   -1.059840 -126.711937  -91.266195   28.429497    0.000000    0.000000    0.000000    0.000000
  0.020573537   -1.068115 -128.080902  -91.218760   28.348072    0.000000    0.000000    0.000000    0.000000
  0.020769344   -1.081064 -129.510666  -92.632200   32.298866    0.000000    0.000000    0.000000    0.000000
  0.020965150   -1.093896 -130.943848  -92.442233   31.323187    0.000000    0.000000    0.000000    0.000000
  0.021160956   -1.108419 -132.375076  -92.350193   36.941570    0.000000    0.000000    0.000000    0.000000
  0.021356762   -1.120318 -133.836929  -92.108182   37.834007    0.000000    0.000000    0.000000    0.000000
  0.021552569   -1.129216 -135.283752  -92.429810   37.647461    0.000000    0.000000    0.000000    0.000000
  0.021748375   -1.143401 -136.741898  -93.154600   30.470617    0.000000    0.000000    0.000000    0.000000
  0.021944181   -1.155278 -138.187836  -93.146455   35.696049    0.000000    0.000000    0.000000    0.000000
  0.022139988   -1.169367 -139.637787  -93.526562   31.961887    0.000000    0.000000    0.000000    0.000000
  0.022335794   -1.178905 -141.124176  -92.900964   39.971478    0.000000    0.000000    0.000000    0.000000
  0.022531600   -1.189898 -142.620422  -93.280013   37.382729    0.000000    0.000000    0.000000    0.000000
  0.022727406   -1.205120 -144.127625  -93.599046   38.329208    0.000000    0.000000    0.000000    0.000000
  0.022923213   -1.214399 -145.635178  -93.080899   30.655630    0.000000    0.000000    0.000000    0.000000
  0.023119019   -1.225495 -147.127945  -92.844198   36.627567    0.000000    0.000000    0.000000    0.000000
  0.023314825   -1.233115 -148.629059  -93.083544   33.988354    0.000000    0.000000    0.000000    0.000000
  0.023510631   -1.243581 -150.140396  -92.317364   31.454834    0.000000    0.000000    0.000000    0.000000
  0.023706438   -1.258080 -151.637604  -93.405175   31.481865    0.000000    0.000000    0.000000    0.000000
  0.023902244   -1.273272 -153.174667  -93.294768   33.503693    0.000000    0.000000    0.000000    0.000000
  0.024098050   -1.291401 -154.718445  -92.460375   28.302435    0.000000    0.000000    0.000000    0.000000
  0.024293856   -1.307373 -156.266251  -92.454632   30.681599    0.000000    0.000000    0.000000    0.000000
  0.024489662   -1.322748 -157.835556  -92.381513   28.358175    0.000000    0.000000    0.000000    0.000000
  0.024685469   -1.341271 -159.410248  -92.807142   24.635315    0.000000    0.000000    0.000000    0.000000
  0.024881275   -1.359407 -160.984451  -94.083637   28.933105    0.000000    0.000000    0.000000    0.000000
  0.025077081   -1.378661 -162.571503  -94.287268   24.658133    0.000000    0.000000    0.000000    0.000000
  0.025272888   -1.397616 -164.161713  -93.289358   21.860863    0.000000    0.000000    0.000000    0.000000
  0.025468694   -1.420998 -165.777618  -93.664551   18.343422    0.000000    0.000000    0.000000    0.000000
  0.025664500   -1.440292 -167.422150  -94.128809   18.356304    0.000000    0.000000    0.000000    0.000000
  0.025860306   -1.460313 -169.060287  -94.785355   21.867428    0.000000    0.000000    0.000000    0.000000
  0.026056112   -1.477717 -170.727600  -95.264797   19.319908    0.000000    0.000000    0.000000    0.000000
  0.026251919   -1.496688 -172.380997  -96.073841   15.232107    0.000000    0.000000    0.000000    0.000000
  0.026447725   -1.516732 -174.052750  -94.828507   18.172741    0.000000    0.000000    0.000000    0.000000
  0.026643531   -1.539208 -175.714737  -94.648596   16.457966    0.000000    0.000000    0.000000    0.000000
  0.026839338   -1.563720 -177.412949  -95.041755   25.050476    0.000000    0.000000    0.000000    0.000000
  0.027035144   -1.585914 -179.108826  -95.352719   19.299231    0.000000    0.000000    0.000000    0.000000
  0.027230950   -1.611275  179.190933  -96.141351   16.812431    0.000000    0.000000    0.000000    0.000000
  0.027426756   -1.634424  177.458710  -95.281060   23.389954    0.000000    0.000000    0.000000    0.000000
  0.027622562   -1.658490  175.746567  -96.351166   15.666314    0.000000    0.000000    0.000000    0.000000
  0.027818369   -1.685719  174.004074  -95.413885   25.775797    0.000000    0.000000    0.000000    0.000000
  0.028014175   -1.716185  172.258575  -97.582398   23.309242    0.000000    0.000000    0.000000    0.000000
  0.028209981   -1.744055  170.500336  -96.117810   24.014091    0.000000    0.000000    0.000000    0.000000
  0.028405788   -1.774066  168.748535  -95.655561   22.573589    0.000000    0.000000    0.000000    0.000000
  0.028601594   -1.799894  166.981720  -97.609527   16.894495    0.000000    0.000000    0.000000    0.000000
  0.028797400   -1.830191  165.246933  -95.071211   20.355249    0.000000    0.000000    0.000000    0.000000
  0.028993206   -1.857197  163.517838  -95.966772   22.441816    0.000000    0.000000    0.000000    0.000000
  0.029189013   -1.887271  161.750397  -95.837605   26.795359    0.000000    0.000000    0.000000    0.000000
  0.029384819   -1.919237  159.999557  -96.331299   28.231705    0.000000    0.000000    0.000000    0.000000
  0.029580625   -1.952944  158.226685  -95.880291   15.194956    0.000000    0.000000    0.000000    0.000000
  0.029776431   -1.988543  156.453400  -96.371392   22.717041    0.000000    0.000000    0.000000    0.000000
  0.029972237   -2.025997  154.638428  -95.489604   23.678719    0.000000    0.000000    0.000000    0.000000
  0.030168044   -2.062906  152.818848  -95.518415   18.785437    0.000000    0.000000    0.000000    0.000000
  0.030363850   -2.101411  150.956528  -96.004845   18.540262    0.000000    0.000000    0.000000    0.000000
  0.030559656   -2.137908  149.150726  -96.169060   17.052389    0.000000    0.000000    0.000000    0.000000
  0.030755463   -2.178792  147.310593  -97.045908   13.001640    0.000000    0.000000    0.000000    0.000000
  0.030951269   -2.219951  145.470779  -97.579147   12.093291    0.000000    0.000000    0.000000    0.000000
  0.031147075   -2.259762  143.648941  -96.686913   17.440805    0.000000    0.000000    0.000000    0.000000
  0.031342881   -2.299894  141.741409  -98.595454   23.869560    0.000000    0.000000    0.000000    0.000000
  0.031538687   -2.346244  139.844147  -95.334929    7.573024    0.000000    0.000000    0.000000    0.000000
  0.031734494   -2.384688  137.907608  -98.355977   20.862461    0.000000    0.000000    0.000000    0.000000
  0.031930300   -2.426004  136.008621  -97.167203    8.448549    0.000000    0.000000    0.000000    0.000000
  0.032126106   -2.465157  134.090302  -98.477350   17.057138    0.000000    0.000000    0.000000    0.000000
  0.032321913   -2.505051  132.189316  -98.751612   13.514214    0.000000    0.000000    0.000000    0.000000
  0.032517719   -2.542674  130.264801  -98.072898   11.253813    0.000000    0.000000    0.000000    0.000000
  0.032713525   -2.581499  128.365067  -96.265833   19.129793    0.000000    0.000000    0.000000    0.000000
  0.032909331   -2.623639  126.469078  -97.530763    6.733913    0.000000    0.000000    0.000000    0.000000
  0.033105137   -2.670268  124.546562  -97.897588   14.286755    0.000000    0.000000    0.000000    0.000000
  0.033300944   -2.717762  122.651825  -99.072391   -2.961425    0.000000    0.000000    0.000000    0.000000
  0.033496750   -2.770638  120.712379  -98.622782   15.555047    0.000000    0.000000    0.000000    0.000000
  0.033692556   -2.823012  118.741074  -96.439988   16.883522    0.000000    0.000000    0.000000    0.000000
  0.033888362   -2.872444  116.742210  -97.563801   11.473334    0.000000    0.000000    0.000000    0.000000
  0.034084169   -2.919911  114.712929  -98.881081   10.675030    0.000000    0.000000    0.000000    0.000000
  0.034279975   -2.963704  112.693924  -98.146846    9.717580    0.000000    0.000000    0.000000    0.000000
  0.034475781   -3.004369  110.594505  -97.504771   13.964343    0.000000    0.000000    0.000000    0.000000
  0.034671588   -3.047116  108.570610  -97.643947    9.435162    0.000000    0.000000    0.000000    0.000000
  0.034867394   -3.083072  106.519638  -97.747477   25.343197    0.000000    0.000000    0.000000    0.000000
  0.035063200   -3.119043  104.496208  -97.976721    4.995077    0.000000    0.000000    0.000000    0.000000
  0.035259006   -3.146367  102.458603  -98.306009   19.264837    0.000000    0.000000    0.000000    0.000000
  0.035454812   -3.175509  100.443634  -98.604836   12.318200    0.000000    0.000000    0.000000    0.000000
  0.035650619   -3.209008   98.431595  -97.900589   13.023808    0.000000    0.000000    0.000000    0.000000
  0.035846425   -3.237329   96.413422 -100.777770   14.927764    0.000000    0.000000    0.000000    0.000000
  0.036042231   -3.263758   94.453178  -98.735406    0.871618    0.000000    0.000000    0.000000    0.000000
  0.036238037   -3.290247   92.471664  -99.694347    3.994274    0.000000    0.000000    0.000000    0.000000
  0.036433844   -3.310732   90.519958  -99.986068    7.832483    0.000000    0.000000    0.000000    0.000000
  0.036629650   -3.337217   88.528816  -98.890928   18.454247    0.000000    0.000000    0.000000    0.000000
  0.036825456   -3.358856   86.516556  -98.772607    4.531455    0.000000    0.000000    0.000000    0.000000
  0.037021262   -3.377365   84.468010 -100.401696    5.505208    0.000000    0.000000    0.000000    0.000000
  0.037217069   -3.390923   82.329491 -100.787697    6.573697    0.000000    0.000000    0.000000    0.000000
  0.037412875   -3.395491   80.102722  -99.328804   -7.191377    0.000000    0.000000    0.000000    0.000000
  0.037608681   -3.394793   77.726662  -98.829291    4.675846    0.000000    0.000000    0.000000    0.000000
  0.037804487   -3.400283   75.187546 -101.352878   22.781519    0.000000    0.000000    0.000000    0.000000
  0.038000294   -3.418171   72.426628 -101.544060    7.443713    0.000000    0.000000    0.000000    0.000000
  0.038196100   -3.464520   69.579010  -98.884280   10.376674    0.000000    0.000000    0.000000    0.000000
  0.038391906   -3.551832   66.730759  -97.919045   12.481813    0.000000    0.000000    0.000000    0.000000
  0.038587713   -3.670164   64.061729 -101.294570   -6.840735    0.000000    0.000000    0.000000    0.000000
  0.038783519   -3.798164   61.625587  -99.101139   19.887423    0.000000    0.000000    0.000000    0.000000
  0.038979325   -3.923044   59.413876  -98.431135    1.027532    0.000000    0.000000    0.000000    0.000000
  0.039175131   -4.039870   57.431133 -100.032451   -0.815287    0.000000    0.000000    0.000000    0.000000
  0.039370938   -4.145300   55.503536  -98.800192   16.929974    0.000000    0.000000    0.000000    0.000000
  0.039566744   -4.236759   53.639862  -99.788218   14.932384    0.000000    0.000000    0.000000    0.000000
  0.039762550   -4.320622   51.743374  -96.402436    2.399606    0.000000    0.000000    0.000000    0.000000
  0.039958356   -4.401104   49.845093 -101.326926    0.623696    0.000000    0.000000    0.000000    0.000000
  0.040154163   -4.468149   47.929939 -100.141227   12.436726    0.000000    0.000000    0.000000    0.000000
  0.040349969   -4.537722   45.961254 -101.017053   -6.301194    0.000000    0.000000    0.000000    0.000000
  0.040545775   -4.601927   44.019154  -98.976350    8.534291    0.000000    0.000000    0.000000    0.000000
  0.040741581   -4.657711   42.022137  -98.889385   13.497822    0.000000    0.000000    0.000000    0.000000
  0.040937387   -4.716485   40.053276  -98.987351   13.967557    0.000000    0.000000    0.000000    0.000000
  0.041133194   -4.768888   38.072620  -97.859914  -16.952539    0.000000    0.000000    0.000000    0.000000
  0.041329000   -4.818408   36.081928 -100.617108   10.567735    0.000000    0.000000    0.000000    0.000000
  0.041524806   -4.864106   34.031979 -100.787536   13.606641    0.000000    0.000000    0.000000    0.000000
  0.041720612   -4.911278   32.029617 -101.017282   -0.559692    0.000000    0.000000    0.000000    0.000000
  0.041916419   -4.948118   30.046658  -99.335678    4.804945    0.000000    0.000000    0.000000    0.000000
  0.042112225   -4.991601   28.050314 -100.958501  -11.097513    0.000000    0.000000    0.000000    0.000000
