! Anritsu VNA Master:                     Model: MS2036C/10/77
! SN:                                  1601066
! /card0/usr/255.ew.sma.r200.21.s2p
! Existing Calibration Information:
! TYPE:                         Current Settings,       Active Cal Settings
! TIME:             	   12/19/2017 06:21:52 PM,    12/19/2017 06:04:41 PM
! INTERNAL TEMP:    	                   41.5 C,                    39.8 C
! # POINTS:         	                      501,                       501
! START FREQ:       	               10.000 MHz,                10.000 MHz
! STOP FREQ:        	              110.000 MHz,               110.000 MHz
! SOURCE POWER:     	                     High,                      High
! IFBW:             	                   100 Hz,                    100 Hz
! AVG FACTOR:       	                       1 ,                        1 
! REF PLANE 1:      	                     0 mm,                      0 mm
! REF PLANE 2:      	                     0 mm,                      0 mm
! CAL TYPE:         	                 Full S11,                  Full S11
! CAL METHOD:       	                     SOLT,                      SOLT
! CAL LINE TYPE:    	                     Coax,                      Coax
! DUT PORT 1:       	                N-Conn(F),                 N-Conn(F)
! DUT PORT 2:       	                K-Conn(F),                 K-Conn(F)
! CAL STATUS:       	        OK: Accuracy High,                        --
# GHZ S DB R 50.0
! FREQ.GHZ       S11DB        S11A       S21DB        S21A       S12DB        S12A       S22DB        S22A
  0.010000000   -4.566115  -10.729696  -84.168406   73.568985    0.000000    0.000000    0.000000    0.000000
  0.010200000   -4.555829  -10.913868  -84.606409   75.247002    0.000000    0.000000    0.000000    0.000000
  0.010400000   -4.561447  -11.219806  -84.895555   74.687347    0.000000    0.000000    0.000000    0.000000
  0.010600000   -4.559500  -11.359866  -84.506119   80.496368    0.000000    0.000000    0.000000    0.000000
  0.010800000   -4.557373  -11.603561  -84.462428   76.674309    0.000000    0.000000    0.000000    0.000000
  0.011000000   -4.562299  -11.821378  -85.124309   78.548378    0.000000    0.000000    0.000000    0.000000
  0.011200000   -4.560916  -12.054213  -85.138262   76.410858    0.000000    0.000000    0.000000    0.000000
  0.011400000   -4.556818  -12.279310  -85.364757   77.553276    0.000000    0.000000    0.000000    0.000000
  0.011600000   -4.555710  -12.495774  -84.963235   74.386215    0.000000    0.000000    0.000000    0.000000
  0.011800000   -4.556016  -12.722702  -84.974858   74.310646    0.000000    0.000000    0.000000    0.000000
  0.012000000   -4.554918  -12.916832  -85.297826   71.637711    0.000000    0.000000    0.000000    0.000000
  0.012200000   -4.555439  -13.163256  -85.322090   71.413345    0.000000    0.000000    0.000000    0.000000
  0.012400000   -4.555528  -13.369574  -84.939310   71.539001    0.000000    0.000000    0.000000    0.000000
  0.012600000   -4.554734  -13.589104  -84.849160   69.420761    0.000000    0.000000    0.000000    0.000000
  0.012800000   -4.556144  -13.809681  -84.857266   65.204346    0.000000    0.000000    0.000000    0.000000
  0.013000000   -4.556352  -13.997124  -85.467228   63.783653    0.000000    0.000000    0.000000    0.000000
  0.013200000   -4.557155  -14.210887  -85.695677   65.621124    0.000000    0.000000    0.000000    0.000000
  0.013400000   -4.554315  -14.403027  -85.885966   62.710037    0.000000    0.000000    0.000000    0.000000
  0.013600000   -4.553159  -14.601795  -85.441707   59.143707    0.000000    0.000000    0.000000    0.000000
  0.013800000   -4.551856  -14.825759  -85.621447   58.354439    0.000000    0.000000    0.000000    0.000000
  0.014000000   -4.551697  -15.030671  -85.775077   57.205372    0.000000    0.000000    0.000000    0.000000
  0.014200000   -4.551148  -15.249314  -86.253504   56.291256    0.000000    0.000000    0.000000    0.000000
  0.014400000   -4.553388  -15.473150  -86.448232   55.954605    0.000000    0.000000    0.000000    0.000000
  0.014600000   -4.553789  -15.682070  -86.962605   50.860161    0.000000    0.000000    0.000000    0.000000
  0.014800000   -4.557234  -15.900165  -87.235929   54.086205    0.000000    0.000000    0.000000    0.000000
  0.015000000   -4.556542  -16.102919  -87.311677   48.653030    0.000000    0.000000    0.000000    0.000000
  0.015200000   -4.563476  -16.335112  -88.118686   47.135849    0.000000    0.000000    0.000000    0.000000
  0.015400000   -4.563346  -16.551960  -88.531946   45.160454    0.000000    0.000000    0.000000    0.000000
  0.015600000   -4.567216  -16.807783  -88.565540   47.889915    0.000000    0.000000    0.000000    0.000000
  0.015800000   -4.566547  -16.999640  -88.818597   47.510372    0.000000    0.000000    0.000000    0.000000
  0.016000000   -4.567156  -17.220856  -89.172739   42.472885    0.000000    0.000000    0.000000    0.000000
  0.016200000   -4.570050  -17.445074  -89.164703   42.803665    0.000000    0.000000    0.000000    0.000000
  0.016400000   -4.571659  -17.678619  -89.235240   47.010090    0.000000    0.000000    0.000000    0.000000
  0.016600000   -4.574551  -17.925385  -89.634150   45.843895    0.000000    0.000000    0.000000    0.000000
  0.016800000   -4.575002  -18.127550  -90.289529   46.075375    0.000000    0.000000    0.000000    0.000000
  0.017000000   -4.574923  -18.376347  -89.382464   46.663864    0.000000    0.000000    0.000000    0.000000
  0.017200000   -4.569701  -18.601692  -90.214934   44.996979    0.000000    0.000000    0.000000    0.000000
  0.017400000   -4.573516  -18.821560  -90.521619   51.883102    0.000000    0.000000    0.000000    0.000000
  0.017600000   -4.572781  -19.071987  -91.192128   52.149136    0.000000    0.000000    0.000000    0.000000
  0.017800000   -4.572320  -19.268299  -89.869801   43.262688    0.000000    0.000000    0.000000    0.000000
  0.018000000   -4.571497  -19.483421  -89.842581   47.360981    0.000000    0.000000    0.000000    0.000000
  0.018200000   -4.573446  -19.731724  -90.731237   45.981911    0.000000    0.000000    0.000000    0.000000
  0.018400000   -4.576564  -19.965664  -90.721638   49.272884    0.000000    0.000000    0.000000    0.000000
  0.018600000   -4.573821  -20.172670  -90.390220   47.281086    0.000000    0.000000    0.000000    0.000000
  0.018800000   -4.576153  -20.403030  -90.529440   47.816574    0.000000    0.000000    0.000000    0.000000
  0.019000000   -4.572871  -20.597221  -89.980841   46.615410    0.000000    0.000000    0.000000    0.000000
  0.019200000   -4.571977  -20.791264  -90.339273   47.882240    0.000000    0.000000    0.000000    0.000000
  0.019400000   -4.571114  -20.997337  -90.844683   44.526264    0.000000    0.000000    0.000000    0.000000
  0.019600000   -4.571055  -21.221312  -89.745093   46.920036    0.000000    0.000000    0.000000    0.000000
  0.019800000   -4.571835  -21.413525  -90.221026   35.642006    0.000000    0.000000    0.000000    0.000000
  0.020000000   -4.568709  -21.630230  -90.020266   40.101883    0.000000    0.000000    0.000000    0.000000
  0.020200000   -4.565756  -21.837225  -90.293797   41.437023    0.000000    0.000000    0.000000    0.000000
  0.020400000   -4.566662  -22.039001  -90.191975   40.671436    0.000000    0.000000    0.000000    0.000000
  0.020600000   -4.563674  -22.240969  -90.413780   36.836681    0.000000    0.000000    0.000000    0.000000
  0.020800000   -4.565059  -22.449659  -91.250009   34.669601    0.000000    0.000000    0.000000    0.000000
  0.021000000   -4.564960  -22.657160  -91.020496   34.539146    0.000000    0.000000    0.000000    0.000000
  0.021200000   -4.569968  -22.900970  -91.148828   30.466007    0.000000    0.000000    0.000000    0.000000
  0.021400000   -4.568996  -23.096487  -90.851033   28.812466    0.000000    0.000000    0.000000    0.000000
  0.021600000   -4.570875  -23.331072  -91.277377   27.832436    0.000000    0.000000    0.000000    0.000000
  0.021800000   -4.574692  -23.545393  -92.251917   31.158623    0.000000    0.000000    0.000000    0.000000
  0.022000000   -4.576369  -23.732094  -92.717418   31.704493    0.000000    0.000000    0.000000    0.000000
  0.022200000   -4.576264  -23.931541  -92.413304   30.160872    0.000000    0.000000    0.000000    0.000000
  0.022400000   -4.575914  -24.151091  -93.174003   25.673532    0.000000    0.000000    0.000000    0.000000
  0.022600000   -4.577642  -24.351425  -92.126671   31.813898    0.000000    0.000000    0.000000    0.000000
  0.022800000   -4.580144  -24.577654  -93.359333   29.270601    0.000000    0.000000    0.000000    0.000000
  0.023000000   -4.580003  -24.815294  -92.805838   28.098839    0.000000    0.000000    0.000000    0.000000
  0.023200000   -4.583354  -25.036816  -92.435089   17.719885    0.000000    0.000000    0.000000    0.000000
  0.023400000   -4.585908  -25.304241  -93.777920   27.446199    0.000000    0.000000    0.000000    0.000000
  0.023600000   -4.587553  -25.470373  -92.648761   34.724796    0.000000    0.000000    0.000000    0.000000
  0.023800000   -4.585329  -25.708614  -93.850344   35.251072    0.000000    0.000000    0.000000    0.000000
  0.024000000   -4.582064  -25.929945  -93.330282   24.909063    0.000000    0.000000    0.000000    0.000000
  0.024200000   -4.577983  -26.170717  -95.288551   32.428661    0.000000    0.000000    0.000000    0.000000
  0.024400000   -4.576559  -26.395756  -93.644865   26.929829    0.000000    0.000000    0.000000    0.000000
  0.024600000   -4.577818  -26.648607  -94.612997   35.076313    0.000000    0.000000    0.000000    0.000000
  0.024800000   -4.582282  -26.839115  -94.420319   29.429749    0.000000    0.000000    0.000000    0.000000
  0.025000000   -4.581094  -27.046110  -94.297687   39.058384    0.000000    0.000000    0.000000    0.000000
  0.025200000   -4.581011  -27.259912  -94.104090   34.860592    0.000000    0.000000    0.000000    0.000000
  0.025400000   -4.581033  -27.456758  -93.527142   30.043734    0.000000    0.000000    0.000000    0.000000
  0.025600000   -4.582901  -27.646418  -94.111557   24.337601    0.000000    0.000000    0.000000    0.000000
  0.025800000   -4.585259  -27.860054  -93.848499   26.676359    0.000000    0.000000    0.000000    0.000000
  0.026000000   -4.587690  -28.043322  -93.984565   26.638096    0.000000    0.000000    0.000000    0.000000
  0.026200000   -4.591289  -28.261374  -95.573648   24.526419    0.000000    0.000000    0.000000    0.000000
  0.026400000   -4.594140  -28.459234  -93.182952   24.440659    0.000000    0.000000    0.000000    0.000000
  0.026600000   -4.594479  -28.676573  -94.154562   18.762800    0.000000    0.000000    0.000000    0.000000
  0.026800000   -4.595212  -28.899593  -94.081707   22.494919    0.000000    0.000000    0.000000    0.000000
  0.027000000   -4.595767  -29.134384  -94.713048   25.841778    0.000000    0.000000    0.000000    0.000000
  0.027200000   -4.596010  -29.378082  -94.906102   15.874775    0.000000    0.000000    0.000000    0.000000
  0.027400000   -4.597310  -29.601606  -94.622056   19.313309    0.000000    0.000000    0.000000    0.000000
  0.027600000   -4.599858  -29.850386  -94.713038   14.142846    0.000000    0.000000    0.000000    0.000000
  0.027800000   -4.601873  -30.075171  -95.538102   19.407751    0.000000    0.000000    0.000000    0.000000
  0.028000000   -4.607290  -30.338284  -97.331006   17.754456    0.000000    0.000000    0.000000    0.000000
  0.028200000   -4.605617  -30.571835  -95.928323   13.384698    0.000000    0.000000    0.000000    0.000000
  0.028400000   -4.605178  -30.820459  -95.550451   17.567341    0.000000    0.000000    0.000000    0.000000
  0.028600000   -4.599856  -31.050760  -95.870328   22.573807    0.000000    0.000000    0.000000    0.000000
  0.028800000   -4.598159  -31.242710  -96.526443   16.780256    0.000000    0.000000    0.000000    0.000000
  0.029000000   -4.599211  -31.448448  -95.982868   17.586634    0.000000    0.000000    0.000000    0.000000
  0.029200000   -4.600006  -31.624617  -97.027858   19.601269    0.000000    0.000000    0.000000    0.000000
  0.029400000   -4.600041  -31.829071  -98.078520   13.099704    0.000000    0.000000    0.000000    0.000000
  0.029600000   -4.601441  -32.040539  -96.717565   30.024681    0.000000    0.000000    0.000000    0.000000
  0.029800000   -4.606358  -32.247631  -96.676703   16.661551    0.000000    0.000000    0.000000    0.000000
  0.030000000   -4.612563  -32.476410  -96.889986   20.849300    0.000000    0.000000    0.000000    0.000000
  0.030200000   -4.618454  -32.722492  -98.067591   13.067260    0.000000    0.000000    0.000000    0.000000
  0.030400000   -4.620250  -32.998901  -96.561090   16.584740    0.000000    0.000000    0.000000    0.000000
  0.030600000   -4.618399  -33.256897  -96.055942   23.880465    0.000000    0.000000    0.000000    0.000000
  0.030800000   -4.617925  -33.540279  -97.707100   16.881657    0.000000    0.000000    0.000000    0.000000
  0.031000000   -4.614415  -33.796951  -97.781374   18.679609    0.000000    0.000000    0.000000    0.000000
  0.031200000   -4.604828  -34.011364  -95.944462   24.059065    0.000000    0.000000    0.000000    0.000000
  0.031400000   -4.607740  -34.276051  -97.380916   20.025831    0.000000    0.000000    0.000000    0.000000
  0.031600000   -4.598780  -34.498394  -96.979329   24.940964    0.000000    0.000000    0.000000    0.000000
  0.031800000   -4.597562  -34.718140  -96.250549    5.679678    0.000000    0.000000    0.000000    0.000000
  0.032000000   -4.584645  -34.914379  -97.612735   21.422932    0.000000    0.000000    0.000000    0.000000
  0.032200000   -4.579432  -35.113064  -97.357581   22.196600    0.000000    0.000000    0.000000    0.000000
  0.032400000   -4.573111  -35.296223  -99.315703    7.633802    0.000000    0.000000    0.000000    0.000000
  0.032600000   -4.564398  -35.454704  -98.441046   16.274321    0.000000    0.000000    0.000000    0.000000
  0.032800000   -4.562448  -35.642361  -96.342476   18.206602    0.000000    0.000000    0.000000    0.000000
  0.033000000   -4.562576  -35.795353  -96.679891   19.355858    0.000000    0.000000    0.000000    0.000000
  0.033200000   -4.561370  -36.000317  -98.965501    3.443495    0.000000    0.000000    0.000000    0.000000
  0.033400000   -4.565430  -36.174625  -98.030962    8.563648    0.000000    0.000000    0.000000    0.000000
  0.033600000   -4.567523  -36.365692  -97.367442   16.034651    0.000000    0.000000    0.000000    0.000000
  0.033800000   -4.569845  -36.563393  -97.458067    9.569171    0.000000    0.000000    0.000000    0.000000
  0.034000000   -4.570805  -36.763573  -98.330605   17.313120    0.000000    0.000000    0.000000    0.000000
  0.034200000   -4.578453  -36.963776  -98.803111    9.998763    0.000000    0.000000    0.000000    0.000000
  0.034400000   -4.580019  -37.192417  -96.891395   -0.217364    0.000000    0.000000    0.000000    0.000000
  0.034600000   -4.585075  -37.415108  -98.537135   12.706304    0.000000    0.000000    0.000000    0.000000
  0.034800000   -4.594611  -37.623310  -98.741064   14.352815    0.000000    0.000000    0.000000    0.000000
  0.035000000   -4.597664  -37.845509  -98.823291    8.112533    0.000000    0.000000    0.000000    0.000000
  0.035200000   -4.602251  -38.098209  -98.646949    9.786282    0.000000    0.000000    0.000000    0.000000
  0.035400000   -4.610193  -38.312668  -96.720488    9.626893    0.000000    0.000000    0.000000    0.000000
  0.035600000   -4.611928  -38.557323  -97.973170    8.000155    0.000000    0.000000    0.000000    0.000000
  0.035800000   -4.608856  -38.785164  -98.416900   10.698471    0.000000    0.000000    0.000000    0.000000
  0.036000000   -4.611165  -39.039711 -101.680076    9.802899    0.000000    0.000000    0.000000    0.000000
  0.036200000   -4.607926  -39.268661  -98.505432   21.472614    0.000000    0.000000    0.000000    0.000000
  0.036400000   -4.605582  -39.521324  -97.942995    1.951341    0.000000    0.000000    0.000000    0.000000
  0.036600000   -4.600212  -39.731979  -99.223507   12.964550    0.000000    0.000000    0.000000    0.000000
  0.036800000   -4.600680  -39.948219  -99.124960    6.717218    0.000000    0.000000    0.000000    0.000000
  0.037000000   -4.600541  -40.126141  -97.445525   14.943243    0.000000    0.000000    0.000000    0.000000
  0.037200000   -4.600173  -40.340523  -99.047298   19.328161    0.000000    0.000000    0.000000    0.000000
  0.037400000   -4.602196  -40.562016  -98.180402   -3.137105    0.000000    0.000000    0.000000    0.000000
  0.037600000   -4.609248  -40.781719  -99.126919   14.744683    0.000000    0.000000    0.000000    0.000000
  0.037800000   -4.616704  -41.036564 -100.696436   27.317633    0.000000    0.000000    0.000000    0.000000
  0.038000000   -4.620965  -41.280289  -97.845203    9.561253    0.000000    0.000000    0.000000    0.000000
  0.038200000   -4.625503  -41.539276  -99.372530   -3.832255    0.000000    0.000000    0.000000    0.000000
  0.038400000   -4.631637  -41.767727  -99.888111   10.762705    0.000000    0.000000    0.000000    0.000000
  0.038600000   -4.627452  -42.019581  -99.459279   17.177639    0.000000    0.000000    0.000000    0.000000
  0.038800000   -4.628581  -42.255497 -101.019774   21.658689    0.000000    0.000000    0.000000    0.000000
  0.039000000   -4.626504  -42.497887  -99.399658   13.489493    0.000000    0.000000    0.000000    0.000000
  0.039200000   -4.621603  -42.754173 -100.800735    7.529770    0.000000    0.000000    0.000000    0.000000
  0.039400000   -4.614285  -42.953579  -98.042474   -4.249640    0.000000    0.000000    0.000000    0.000000
  0.039600000   -4.604365  -43.189888 -102.142584    3.614487    0.000000    0.000000    0.000000    0.000000
  0.039800000   -4.596778  -43.373466 -100.108072    5.219230    0.000000    0.000000    0.000000    0.000000
  0.040000000   -4.591137  -43.558453  -99.965551    0.301466    0.000000    0.000000    0.000000    0.000000
  0.040200000   -4.584605  -43.736095  -99.845045   -0.011477    0.000000    0.000000    0.000000    0.000000
  0.040400000   -4.586193  -43.897194 -100.341632    2.999974    0.000000    0.000000    0.000000    0.000000
  0.040600000   -4.583774  -44.041191 -100.417741   -1.075960    0.000000    0.000000    0.000000    0.000000
  0.040800000   -4.584939  -44.212101  -99.259691  -11.096493    0.000000    0.000000    0.000000    0.000000
  0.041000000   -4.592735  -44.394547  -99.588309   -4.675316    0.000000    0.000000    0.000000    0.000000
  0.041200000   -4.595883  -44.578918 -100.888980   13.904209    0.000000    0.000000    0.000000    0.000000
  0.041400000   -4.602466  -44.794838 -100.971730   10.659703    0.000000    0.000000    0.000000    0.000000
  0.041600000   -4.606058  -44.984028 -100.945983    5.151138    0.000000    0.000000    0.000000    0.000000
  0.041800000   -4.613993  -45.182346 -103.876017  -21.062088    0.000000    0.000000    0.000000    0.000000
  0.042000000   -4.613010  -45.399654 -100.703315   -0.480298    0.000000    0.000000    0.000000    0.000000
  0.042200000   -4.620726  -45.622166 -101.814033    1.120904    0.000000    0.000000    0.000000    0.000000
  0.042400000   -4.625668  -45.817276 -101.062130   -9.398956    0.000000    0.000000    0.000000    0.000000
  0.042600000   -4.628693  -46.038280 -102.970368  -10.541039    0.000000    0.000000    0.000000    0.000000
  0.042800000   -4.629540  -46.243324 -105.088219   11.789957    0.000000    0.000000    0.000000    0.000000
