! Anritsu VNA Master:                     Model: MS2036C/10/77
! SN:                                  1601066
! /card0/usr/255.ew.sma.r50.v2.2.s2p
! Existing Calibration Information:
! TYPE:                         Current Settings,       Active Cal Settings
! TIME:             	   12/17/2017 06:30:03 PM,    12/17/2017 06:11:23 PM
! INTERNAL TEMP:    	                   44.0 C,                    43.8 C
! # POINTS:         	                      501,                       501
! START FREQ:       	               10.000 MHz,                10.000 MHz
! STOP FREQ:        	          107.903 125 MHz,           107.903 125 MHz
! SOURCE POWER:     	                     High,                      High
! IFBW:             	                   100 Hz,                    100 Hz
! AVG FACTOR:       	                       1 ,                        1 
! REF PLANE 1:      	                     0 mm,                      0 mm
! REF PLANE 2:      	                     0 mm,                      0 mm
! CAL TYPE:         	                 Full S11,                  Full S11
! CAL METHOD:       	                     SOLT,                      SOLT
! CAL LINE TYPE:    	                     Coax,                      Coax
! DUT PORT 1:       	                K-Conn(F),                 K-Conn(F)
! DUT PORT 2:       	                K-Conn(F),                 K-Conn(F)
! CAL STATUS:       	        OK: Accuracy High,                        --
# GHZ S DB R 50.0
! FREQ.GHZ       S11DB        S11A       S21DB        S21A       S12DB        S12A       S22DB        S22A
  0.010000000  -44.131690   61.750919  -83.075941   76.315216    0.000000    0.000000    0.000000    0.000000
  0.010195806  -43.927503   62.220310  -83.284895   76.614182    0.000000    0.000000    0.000000    0.000000
  0.010391613  -43.520313   63.383957  -83.729529   75.692558    0.000000    0.000000    0.000000    0.000000
  0.010587419  -43.676331   63.896080  -83.872004   70.905060    0.000000    0.000000    0.000000    0.000000
  0.010783225  -43.445319   62.521202  -84.001400   73.456299    0.000000    0.000000    0.000000    0.000000
  0.010979031  -43.160879   63.743225  -84.508688   71.816124    0.000000    0.000000    0.000000    0.000000
  0.011174837  -42.697812   64.864616  -84.311190   73.080482    0.000000    0.000000    0.000000    0.000000
  0.011370644  -42.748044   64.826614  -84.747138   68.277306    0.000000    0.000000    0.000000    0.000000
  0.011566450  -42.645409   65.702141  -84.585048   70.354507    0.000000    0.000000    0.000000    0.000000
  0.011762256  -42.670728   66.705681  -84.507482   67.674927    0.000000    0.000000    0.000000    0.000000
  0.011958062  -42.423584   67.232162  -84.793563   68.001549    0.000000    0.000000    0.000000    0.000000
  0.012153869  -42.448441   66.355217  -85.311130   67.345108    0.000000    0.000000    0.000000    0.000000
  0.012349675  -42.223786   67.822762  -85.864284   66.609558    0.000000    0.000000    0.000000    0.000000
  0.012545481  -42.362797   67.037262  -85.661877   62.119881    0.000000    0.000000    0.000000    0.000000
  0.012741288  -42.236969   66.976219  -85.606541   66.428131    0.000000    0.000000    0.000000    0.000000
  0.012937094  -42.351774   66.432014  -85.570069   62.583813    0.000000    0.000000    0.000000    0.000000
  0.013132900  -42.231662   68.062569  -86.208997   57.813324    0.000000    0.000000    0.000000    0.000000
  0.013328706  -42.125462   68.402863  -86.676406   56.816174    0.000000    0.000000    0.000000    0.000000
  0.013524512  -42.131487   69.726425  -86.895660   58.936153    0.000000    0.000000    0.000000    0.000000
  0.013720319  -42.388242   70.249062  -86.594352   58.119888    0.000000    0.000000    0.000000    0.000000
  0.013916125  -42.191223   70.068840  -87.155493   59.994293    0.000000    0.000000    0.000000    0.000000
  0.014111931  -42.205961   69.445808  -87.041019   54.863651    0.000000    0.000000    0.000000    0.000000
  0.014307738  -42.218000   69.289230  -87.354455   55.580627    0.000000    0.000000    0.000000    0.000000
  0.014503544  -42.388351   68.739990  -87.148242   54.420475    0.000000    0.000000    0.000000    0.000000
  0.014699350  -42.139066   68.610977  -87.476830   56.105289    0.000000    0.000000    0.000000    0.000000
  0.014895156  -42.176642   67.630592  -87.857683   51.862644    0.000000    0.000000    0.000000    0.000000
  0.015090962  -42.187149   67.223763  -88.045015   53.822041    0.000000    0.000000    0.000000    0.000000
  0.015286769  -42.078919   67.376869  -87.719402   50.887798    0.000000    0.000000    0.000000    0.000000
  0.015482575  -42.028522   66.088234  -88.585253   51.787643    0.000000    0.000000    0.000000    0.000000
  0.015678381  -42.128590   65.923576  -87.940036   50.959442    0.000000    0.000000    0.000000    0.000000
  0.015874188  -41.979586   64.675415  -88.476635   49.247864    0.000000    0.000000    0.000000    0.000000
  0.016069994  -42.106162   64.622818  -88.604431   46.285534    0.000000    0.000000    0.000000    0.000000
  0.016265800  -41.677213   64.556465  -88.874586   52.129944    0.000000    0.000000    0.000000    0.000000
  0.016461606  -41.752449   63.640774  -88.739202   46.084644    0.000000    0.000000    0.000000    0.000000
  0.016657412  -41.433905   62.895676  -89.399414   46.833492    0.000000    0.000000    0.000000    0.000000
  0.016853219  -41.562115   63.154728  -89.002321   46.609047    0.000000    0.000000    0.000000    0.000000
  0.017049025  -41.297962   63.669945  -89.587861   46.908195    0.000000    0.000000    0.000000    0.000000
  0.017244831  -41.299406   62.773911  -90.514334   48.921188    0.000000    0.000000    0.000000    0.000000
  0.017440638  -41.284196   62.984924  -89.882447   46.460274    0.000000    0.000000    0.000000    0.000000
  0.017636444  -41.085484   62.203945  -89.906446   42.113686    0.000000    0.000000    0.000000    0.000000
  0.017832250  -40.838161   62.484539  -89.689386   45.153778    0.000000    0.000000    0.000000    0.000000
  0.018028056  -40.715440   62.758270  -89.604779   43.273148    0.000000    0.000000    0.000000    0.000000
  0.018223862  -40.609418   63.145275  -89.861568   40.004230    0.000000    0.000000    0.000000    0.000000
  0.018419669  -40.440048   64.217911  -90.785713   43.261372    0.000000    0.000000    0.000000    0.000000
  0.018615475  -40.350148   63.625130  -90.303792   37.560184    0.000000    0.000000    0.000000    0.000000
  0.018811281  -40.221844   64.451782  -90.880784   38.752537    0.000000    0.000000    0.000000    0.000000
  0.019007087  -40.217588   64.526390  -91.131488   45.552109    0.000000    0.000000    0.000000    0.000000
  0.019202894  -40.104556   65.836746  -90.945840   41.743549    0.000000    0.000000    0.000000    0.000000
  0.019398700  -40.118440   65.297234  -91.748894   39.196793    0.000000    0.000000    0.000000    0.000000
  0.019594506  -40.140447   65.485840  -91.284364   41.089928    0.000000    0.000000    0.000000    0.000000
  0.019790313  -40.093015   66.491020  -91.639239   40.027916    0.000000    0.000000    0.000000    0.000000
  0.019986119  -40.094636   66.582283  -91.040114   41.224564    0.000000    0.000000    0.000000    0.000000
  0.020181925  -40.189582   66.886482  -91.233127   42.988602    0.000000    0.000000    0.000000    0.000000
  0.020377731  -40.145081   67.530296  -91.356948   35.866703    0.000000    0.000000    0.000000    0.000000
  0.020573537  -40.275048   66.605911  -90.879483   38.709404    0.000000    0.000000    0.000000    0.000000
  0.020769344  -40.193307   67.632263  -91.103068   36.353161    0.000000    0.000000    0.000000    0.000000
  0.020965150  -40.355748   67.685471  -91.639806   32.875717    0.000000    0.000000    0.000000    0.000000
  0.021160956  -40.321846   67.068771  -92.154663   29.510878    0.000000    0.000000    0.000000    0.000000
  0.021356762  -40.378208   67.658409  -91.700724   33.415878    0.000000    0.000000    0.000000    0.000000
  0.021552569  -40.566974   68.710907  -92.359718   30.384205    0.000000    0.000000    0.000000    0.000000
  0.021748375  -40.486526   67.470634  -92.225714   34.266190    0.000000    0.000000    0.000000    0.000000
  0.021944181  -40.450781   66.771729  -92.230999   34.346390    0.000000    0.000000    0.000000    0.000000
  0.022139988  -40.674697   66.232513  -93.147518   29.489998    0.000000    0.000000    0.000000    0.000000
  0.022335794  -40.829553   65.641808  -91.937384   29.640053    0.000000    0.000000    0.000000    0.000000
  0.022531600  -40.811189   64.596924  -92.515363   32.745232    0.000000    0.000000    0.000000    0.000000
  0.022727406  -40.726554   63.589539  -92.510226   31.338953    0.000000    0.000000    0.000000    0.000000
  0.022923213  -40.764838   63.926323  -93.866565   33.265053    0.000000    0.000000    0.000000    0.000000
  0.023119019  -40.871643   62.421032  -92.819872   35.214039    0.000000    0.000000    0.000000    0.000000
  0.023314825  -40.726256   60.612431  -93.116299   31.079281    0.000000    0.000000    0.000000    0.000000
  0.023510631  -40.777461   61.105869  -92.567703   20.079643    0.000000    0.000000    0.000000    0.000000
  0.023706438  -40.600765   59.233669  -93.752343   33.347164    0.000000    0.000000    0.000000    0.000000
  0.023902244  -40.422415   58.640793  -93.603712   30.783646    0.000000    0.000000    0.000000    0.000000
  0.024098050  -40.479921   57.877167  -93.600368   24.120819    0.000000    0.000000    0.000000    0.000000
  0.024293856  -40.390762   56.014557  -94.278915   25.177395    0.000000    0.000000    0.000000    0.000000
  0.024489662  -40.191964   56.503345  -93.466187   19.372055    0.000000    0.000000    0.000000    0.000000
  0.024685469  -40.103193   55.627445  -93.820187   28.544703    0.000000    0.000000    0.000000    0.000000
  0.024881275  -39.935415   55.055195  -93.751283   27.431021    0.000000    0.000000    0.000000    0.000000
  0.025077081  -39.788083   53.818802  -94.626069   24.750286    0.000000    0.000000    0.000000    0.000000
  0.025272888  -39.797188   53.570786  -94.874801   18.833229    0.000000    0.000000    0.000000    0.000000
  0.025468694  -39.559685   53.275585  -94.159519   30.131544    0.000000    0.000000    0.000000    0.000000
  0.025664500  -39.477741   54.146736  -95.133858   22.788197    0.000000    0.000000    0.000000    0.000000
  0.025860306  -39.370137   53.821255  -94.335378   30.807381    0.000000    0.000000    0.000000    0.000000
  0.026056112  -39.261824   53.639748  -95.039574   27.904713    0.000000    0.000000    0.000000    0.000000
  0.026251919  -39.016430   54.472664  -94.521556   19.909197    0.000000    0.000000    0.000000    0.000000
  0.026447725  -38.944385   54.482777  -94.107812   20.882027    0.000000    0.000000    0.000000    0.000000
  0.026643531  -38.859644   53.761047  -94.974161   19.831612    0.000000    0.000000    0.000000    0.000000
  0.026839338  -38.851449   54.508793  -95.084145   22.101059    0.000000    0.000000    0.000000    0.000000
  0.027035144  -38.748865   55.132240  -94.319531   19.411789    0.000000    0.000000    0.000000    0.000000
  0.027230950  -38.613922   55.215828  -95.726929   19.694342    0.000000    0.000000    0.000000    0.000000
  0.027426756  -38.518877   55.673676  -95.654159   26.640526    0.000000    0.000000    0.000000    0.000000
  0.027622562  -38.583340   55.931442  -94.808815   25.019100    0.000000    0.000000    0.000000    0.000000
  0.027818369  -38.506736   56.098980  -95.600817   28.431627    0.000000    0.000000    0.000000    0.000000
  0.028014175  -38.609875   56.481411  -95.936600   21.025496    0.000000    0.000000    0.000000    0.000000
  0.028209981  -38.451739   56.489834  -95.564727   15.356036    0.000000    0.000000    0.000000    0.000000
  0.028405788  -38.505352   56.814137  -94.713098   20.747089    0.000000    0.000000    0.000000    0.000000
  0.028601594  -38.483259   57.025558  -96.174500   17.489656    0.000000    0.000000    0.000000    0.000000
  0.028797400  -38.577062   56.805511  -95.616395   12.158617    0.000000    0.000000    0.000000    0.000000
  0.028993206  -38.637602   57.154327  -97.677524    9.863687    0.000000    0.000000    0.000000    0.000000
  0.029189013  -38.689377   57.066208  -97.876957   14.108485    0.000000    0.000000    0.000000    0.000000
  0.029384819  -38.696371   56.258892  -96.488066   16.571558    0.000000    0.000000    0.000000    0.000000
  0.029580625  -38.794544   56.271576  -96.362638   16.493134    0.000000    0.000000    0.000000    0.000000
  0.029776431  -38.820104   56.273350  -95.829026   21.443497    0.000000    0.000000    0.000000    0.000000
  0.029972237  -38.853527   55.114727  -97.776263   21.595417    0.000000    0.000000    0.000000    0.000000
  0.030168044  -38.843879   54.791889  -96.531968   19.026133    0.000000    0.000000    0.000000    0.000000
  0.030363850  -38.868042   54.024158  -96.177049   13.822947    0.000000    0.000000    0.000000    0.000000
  0.030559656  -38.783767   53.698368  -95.774041   18.255808    0.000000    0.000000    0.000000    0.000000
  0.030755463  -38.783368   52.847515  -96.931270   20.231201    0.000000    0.000000    0.000000    0.000000
  0.030951269  -38.798566   51.935555  -96.740034   14.420180    0.000000    0.000000    0.000000    0.000000
  0.031147075  -38.844715   51.288849  -97.651624   25.280609    0.000000    0.000000    0.000000    0.000000
  0.031342881  -38.488992   50.636028  -97.991852   21.513109    0.000000    0.000000    0.000000    0.000000
  0.031538687  -38.723321   49.705048  -98.253016    6.839814    0.000000    0.000000    0.000000    0.000000
  0.031734494  -38.518598   48.647739  -96.538239   13.484101    0.000000    0.000000    0.000000    0.000000
  0.031930300  -38.484593   48.144447  -97.433707   15.971195    0.000000    0.000000    0.000000    0.000000
  0.032126106  -38.364494   47.656887  -96.731991   13.874006    0.000000    0.000000    0.000000    0.000000
  0.032321913  -38.236061   46.743824  -99.527452    4.687147    0.000000    0.000000    0.000000    0.000000
  0.032517719  -38.172286   45.792519  -97.640204   -0.803614    0.000000    0.000000    0.000000    0.000000
  0.032713525  -37.980717   46.143745  -97.737239   16.286671    0.000000    0.000000    0.000000    0.000000
  0.032909331  -37.888870   45.517609  -98.926793   17.217434    0.000000    0.000000    0.000000    0.000000
  0.033105137  -37.674088   45.359253  -97.295959   20.482239    0.000000    0.000000    0.000000    0.000000
  0.033300944  -37.543688   45.559559  -98.294690   30.678764    0.000000    0.000000    0.000000    0.000000
  0.033496750  -37.502355   45.054821  -99.913330   16.272148    0.000000    0.000000    0.000000    0.000000
  0.033692556  -37.320783   44.937534  -96.323580    9.812219    0.000000    0.000000    0.000000    0.000000
  0.033888362  -37.193344   44.819782  -98.089299   19.688856    0.000000    0.000000    0.000000    0.000000
  0.034084169  -37.168695   44.621460  -97.369186    1.552592    0.000000    0.000000    0.000000    0.000000
  0.034279975  -37.049258   46.142971  -97.724926   16.737635    0.000000    0.000000    0.000000    0.000000
  0.034475781  -36.857961   45.794888  -98.573149   13.512921    0.000000    0.000000    0.000000    0.000000
  0.034671588  -36.826727   45.861206  -97.824446    4.938452    0.000000    0.000000    0.000000    0.000000
  0.034867394  -36.790367   45.798809 -100.039944   -1.730144    0.000000    0.000000    0.000000    0.000000
  0.035063200  -36.715549   46.102886  -99.233167   20.454464    0.000000    0.000000    0.000000    0.000000
  0.035259006  -36.606168   46.876034  -98.955931   11.149762    0.000000    0.000000    0.000000    0.000000
  0.035454812  -36.510253   47.055878  -98.311391    7.874232    0.000000    0.000000    0.000000    0.000000
  0.035650619  -36.509750   47.444244  -99.469250    8.223525    0.000000    0.000000    0.000000    0.000000
  0.035846425  -36.353304   47.207672 -100.649947   18.587078    0.000000    0.000000    0.000000    0.000000
  0.036042231  -36.435430   47.358307 -100.094558    6.957295    0.000000    0.000000    0.000000    0.000000
  0.036238037  -36.421210   47.635387 -100.837520   14.528024    0.000000    0.000000    0.000000    0.000000
  0.036433844  -36.301506   48.285927 -100.061552   14.550907    0.000000    0.000000    0.000000    0.000000
  0.036629650  -36.330865   48.521587  -98.071487   16.750010    0.000000    0.000000    0.000000    0.000000
  0.036825456  -36.333092   49.053139  -97.692099   11.929989    0.000000    0.000000    0.000000    0.000000
  0.037021262  -36.298433   48.992313 -100.493374   15.283883    0.000000    0.000000    0.000000    0.000000
  0.037217069  -36.391797   48.719570  -99.119928    6.877555    0.000000    0.000000    0.000000    0.000000
  0.037412875  -36.456039   49.093410  -98.024017   17.202080    0.000000    0.000000    0.000000    0.000000
  0.037608681  -36.355660   49.408962  -99.181238   16.111559    0.000000    0.000000    0.000000    0.000000
  0.037804487  -36.327002   49.167946  -99.497953   13.045214    0.000000    0.000000    0.000000    0.000000
  0.038000294  -36.399766   48.042133  -98.478703   11.760422    0.000000    0.000000    0.000000    0.000000
  0.038196100  -36.357668   48.243763  -99.731909   14.855511    0.000000    0.000000    0.000000    0.000000
  0.038391906  -36.408981   48.152969 -101.109696    1.941068    0.000000    0.000000    0.000000    0.000000
  0.038587713  -36.365244   47.371868  -99.513226    8.501730    0.000000    0.000000    0.000000    0.000000
  0.038783519  -36.370320   47.706234 -100.878551   14.752076    0.000000    0.000000    0.000000    0.000000
  0.038979325  -36.397628   47.397072 -101.758594   13.435131    0.000000    0.000000    0.000000    0.000000
  0.039175131  -36.365001   46.978558  -99.231980    2.889115    0.000000    0.000000    0.000000    0.000000
  0.039370938  -36.454034   46.171196 -100.060226   -7.893778    0.000000    0.000000    0.000000    0.000000
  0.039566744  -36.303290   46.692810 -100.251288   -8.439509    0.000000    0.000000    0.000000    0.000000
  0.039762550  -36.331787   46.054150  -97.896682   21.796526    0.000000    0.000000    0.000000    0.000000
  0.039958356  -36.190655   45.907799  -99.646024    2.639104    0.000000    0.000000    0.000000    0.000000
  0.040154163  -36.092160   45.975075 -101.023289   19.800472    0.000000    0.000000    0.000000    0.000000
  0.040349969  -36.093273   45.802059  -99.847241   -7.498123    0.000000    0.000000    0.000000    0.000000
  0.040545775  -36.093117   45.373882 -101.416067   -8.694139    0.000000    0.000000    0.000000    0.000000
  0.040741581  -36.011487   44.677994 -100.921065   15.749065    0.000000    0.000000    0.000000    0.000000
  0.040937387  -35.975445   44.912315 -100.436457   25.761692    0.000000    0.000000    0.000000    0.000000
  0.041133194  -35.986447   45.148289  -98.661019   -3.639343    0.000000    0.000000    0.000000    0.000000
  0.041329000  -35.931569   44.870651 -100.941379    8.348991    0.000000    0.000000    0.000000    0.000000
  0.041524806  -35.848752   44.843742 -100.631230   -7.067676    0.000000    0.000000    0.000000    0.000000
  0.041720612  -35.798123   44.435799 -101.382394   -1.109902    0.000000    0.000000    0.000000    0.000000
  0.041916419  -35.724623   44.726345 -100.516977   18.932293    0.000000    0.000000    0.000000    0.000000
  0.042112225  -35.712696   44.732159 -102.208532   22.283106    0.000000    0.000000    0.000000    0.000000
