! Anritsu VNA Master:                     Model: MS2036C/10/77
! SN:                                  1601066
! /card0/usr/255.ew.sma.r50.12.s2p
! Existing Calibration Information:
! TYPE:                         Current Settings,       Active Cal Settings
! TIME:             	   12/19/2017 06:12:49 PM,    12/19/2017 06:04:41 PM
! INTERNAL TEMP:    	                   40.8 C,                    39.8 C
! # POINTS:         	                      501,                       501
! START FREQ:       	               10.000 MHz,                10.000 MHz
! STOP FREQ:        	              110.000 MHz,               110.000 MHz
! SOURCE POWER:     	                     High,                      High
! IFBW:             	                   100 Hz,                    100 Hz
! AVG FACTOR:       	                       1 ,                        1 
! REF PLANE 1:      	                     0 mm,                      0 mm
! REF PLANE 2:      	                     0 mm,                      0 mm
! CAL TYPE:         	                 Full S11,                  Full S11
! CAL METHOD:       	                     SOLT,                      SOLT
! CAL LINE TYPE:    	                     Coax,                      Coax
! DUT PORT 1:       	                N-Conn(F),                 N-Conn(F)
! DUT PORT 2:       	                K-Conn(F),                 K-Conn(F)
! CAL STATUS:       	        OK: Accuracy High,                        --
# GHZ S DB R 50.0
! FREQ.GHZ       S11DB        S11A       S21DB        S21A       S12DB        S12A       S22DB        S22A
  0.010000000  -45.361991   72.494186  -83.175276   76.098976    0.000000    0.000000    0.000000    0.000000
  0.010200000  -45.207043   71.010925  -83.314769   77.128227    0.000000    0.000000    0.000000    0.000000
  0.010400000  -45.628891   72.318504  -83.788474   77.966499    0.000000    0.000000    0.000000    0.000000
  0.010600000  -45.291137   70.751831  -83.759584   75.482384    0.000000    0.000000    0.000000    0.000000
  0.010800000  -45.325663   68.797966  -83.889482   73.700966    0.000000    0.000000    0.000000    0.000000
  0.011000000  -45.090747   70.724884  -84.300492   72.631233    0.000000    0.000000    0.000000    0.000000
  0.011200000  -45.022663   69.189285  -84.384847   71.515793    0.000000    0.000000    0.000000    0.000000
  0.011400000  -44.831402   67.043839  -84.371508   70.539253    0.000000    0.000000    0.000000    0.000000
  0.011600000  -45.008540   67.116104  -84.779954   71.632843    0.000000    0.000000    0.000000    0.000000
  0.011800000  -44.801724   67.213470  -84.908007   66.295647    0.000000    0.000000    0.000000    0.000000
  0.012000000  -44.869828   66.382820  -85.201895   69.530869    0.000000    0.000000    0.000000    0.000000
  0.012200000  -44.648393   63.433067  -85.610141   65.919495    0.000000    0.000000    0.000000    0.000000
  0.012400000  -44.208234   64.175423  -85.363341   64.542953    0.000000    0.000000    0.000000    0.000000
  0.012600000  -44.130817   64.341354  -85.695457   62.308887    0.000000    0.000000    0.000000    0.000000
  0.012800000  -44.159098   61.991959  -85.545671   62.371811    0.000000    0.000000    0.000000    0.000000
  0.013000000  -43.837546   64.049011  -85.547385   59.243782    0.000000    0.000000    0.000000    0.000000
  0.013200000  -43.579759   63.938152  -85.827458   61.257664    0.000000    0.000000    0.000000    0.000000
  0.013400000  -43.322137   62.576145  -86.393850   59.317429    0.000000    0.000000    0.000000    0.000000
  0.013600000  -43.378976   62.827850  -87.069618   59.388317    0.000000    0.000000    0.000000    0.000000
  0.013800000  -43.144053   63.140038  -86.757597   59.362679    0.000000    0.000000    0.000000    0.000000
  0.014000000  -42.989804   62.803513  -86.617277   55.476864    0.000000    0.000000    0.000000    0.000000
  0.014200000  -42.648917   62.401783  -87.068073   55.386078    0.000000    0.000000    0.000000    0.000000
  0.014400000  -42.879442   64.031212  -87.444825   57.250931    0.000000    0.000000    0.000000    0.000000
  0.014600000  -42.728620   63.810143  -86.767364   53.807293    0.000000    0.000000    0.000000    0.000000
  0.014800000  -42.732202   63.737541  -87.661290   55.119072    0.000000    0.000000    0.000000    0.000000
  0.015000000  -42.350081   64.181190  -87.400541   50.105122    0.000000    0.000000    0.000000    0.000000
  0.015200000  -42.297073   64.343597  -87.985048   49.642761    0.000000    0.000000    0.000000    0.000000
  0.015400000  -42.283430   64.889374  -87.789105   53.190475    0.000000    0.000000    0.000000    0.000000
  0.015600000  -42.150951   65.210129  -88.439829   49.796329    0.000000    0.000000    0.000000    0.000000
  0.015800000  -42.239822   64.591187  -88.515157   52.463886    0.000000    0.000000    0.000000    0.000000
  0.016000000  -42.023366   63.983273  -88.290910   48.141945    0.000000    0.000000    0.000000    0.000000
  0.016200000  -42.181081   65.500351  -88.422425   52.047428    0.000000    0.000000    0.000000    0.000000
  0.016400000  -42.255128   64.357765  -88.782245   50.660156    0.000000    0.000000    0.000000    0.000000
  0.016600000  -42.477980   65.484795  -88.995599   48.111713    0.000000    0.000000    0.000000    0.000000
  0.016800000  -42.149201   65.205437  -88.754435   48.098454    0.000000    0.000000    0.000000    0.000000
  0.017000000  -42.269776   65.206993  -89.277577   47.645271    0.000000    0.000000    0.000000    0.000000
  0.017200000  -42.085226   64.700958  -89.428314   47.630970    0.000000    0.000000    0.000000    0.000000
  0.017400000  -42.145614   65.030975  -89.879900   45.790394    0.000000    0.000000    0.000000    0.000000
  0.017600000  -42.244910   64.371910  -89.634373   49.808418    0.000000    0.000000    0.000000    0.000000
  0.017800000  -41.926795   62.391758  -89.705653   40.736176    0.000000    0.000000    0.000000    0.000000
  0.018000000  -41.929758   62.338242  -89.461850   42.827816    0.000000    0.000000    0.000000    0.000000
  0.018200000  -42.133243   61.627758  -90.759371   46.640339    0.000000    0.000000    0.000000    0.000000
  0.018400000  -42.063665   62.300137  -90.468007   48.043785    0.000000    0.000000    0.000000    0.000000
  0.018600000  -41.841842   60.246128  -89.819402   42.890438    0.000000    0.000000    0.000000    0.000000
  0.018800000  -41.725443   59.693745  -89.827259   42.650097    0.000000    0.000000    0.000000    0.000000
  0.019000000  -41.608956   59.474697  -90.524419   42.357815    0.000000    0.000000    0.000000    0.000000
  0.019200000  -41.482996   58.645451  -90.389828   43.527866    0.000000    0.000000    0.000000    0.000000
  0.019400000  -41.431317   59.379211  -90.345678   38.506546    0.000000    0.000000    0.000000    0.000000
  0.019600000  -41.313056   57.395451  -90.917279   38.237423    0.000000    0.000000    0.000000    0.000000
  0.019800000  -41.231893   57.582420  -91.372611   42.586769    0.000000    0.000000    0.000000    0.000000
  0.020000000  -41.028954   57.413319  -91.209353   40.666080    0.000000    0.000000    0.000000    0.000000
  0.020200000  -40.974879   57.221596  -90.856658   39.436478    0.000000    0.000000    0.000000    0.000000
  0.020400000  -40.900380   58.133823  -91.427522   33.754978    0.000000    0.000000    0.000000    0.000000
  0.020600000  -40.663322   57.030937  -91.286269   35.914715    0.000000    0.000000    0.000000    0.000000
  0.020800000  -40.534856   58.080044  -91.463145   41.210152    0.000000    0.000000    0.000000    0.000000
  0.021000000  -40.410607   56.666782  -92.324402   40.719070    0.000000    0.000000    0.000000    0.000000
  0.021200000  -40.402352   58.113724  -91.138248   29.488758    0.000000    0.000000    0.000000    0.000000
  0.021400000  -40.216110   57.518887  -91.457310   27.134869    0.000000    0.000000    0.000000    0.000000
  0.021600000  -40.332129   58.054653  -92.442411   36.073586    0.000000    0.000000    0.000000    0.000000
  0.021800000  -40.125915   58.776115  -91.840607   34.855446    0.000000    0.000000    0.000000    0.000000
  0.022000000  -40.069532   59.073326  -91.191334   32.859169    0.000000    0.000000    0.000000    0.000000
  0.022200000  -39.834443   59.075066  -91.911135   32.285439    0.000000    0.000000    0.000000    0.000000
  0.022400000  -39.877203   57.873093  -92.639470   30.144407    0.000000    0.000000    0.000000    0.000000
  0.022600000  -39.870558   58.283958  -92.237731   32.562637    0.000000    0.000000    0.000000    0.000000
  0.022800000  -39.912313   57.333080  -92.586964   27.224932    0.000000    0.000000    0.000000    0.000000
  0.023000000  -39.743706   58.765602  -92.745981   34.125751    0.000000    0.000000    0.000000    0.000000
  0.023200000  -39.707759   57.626682  -92.843872   25.220985    0.000000    0.000000    0.000000    0.000000
  0.023400000  -39.717249   57.973347  -93.063073   34.510910    0.000000    0.000000    0.000000    0.000000
  0.023600000  -39.518829   58.158096  -93.617015   24.292980    0.000000    0.000000    0.000000    0.000000
  0.023800000  -39.663696   58.805191  -92.782247   30.083691    0.000000    0.000000    0.000000    0.000000
  0.024000000  -39.437872   58.862072  -93.814137   29.184429    0.000000    0.000000    0.000000    0.000000
  0.024200000  -39.391565   57.875534  -93.449971   30.121496    0.000000    0.000000    0.000000    0.000000
  0.024400000  -39.407072   57.360065  -94.442880   29.478611    0.000000    0.000000    0.000000    0.000000
  0.024600000  -39.504163   58.557701  -92.883087   29.776640    0.000000    0.000000    0.000000    0.000000
  0.024800000  -39.355451   59.147900  -93.166359   31.023037    0.000000    0.000000    0.000000    0.000000
  0.025000000  -39.295247   57.974155  -93.969943   27.678221    0.000000    0.000000    0.000000    0.000000
  0.025200000  -39.254291   57.992527  -93.306609   24.557686    0.000000    0.000000    0.000000    0.000000
  0.025400000  -39.253553   56.740276  -94.020709   22.970873    0.000000    0.000000    0.000000    0.000000
  0.025600000  -39.176800   57.649719  -94.272758   20.224104    0.000000    0.000000    0.000000    0.000000
  0.025800000  -39.104020   58.046314  -94.905059   22.960415    0.000000    0.000000    0.000000    0.000000
  0.026000000  -39.098765   57.183998  -94.841691   27.964064    0.000000    0.000000    0.000000    0.000000
  0.026200000  -38.953698   57.845299  -95.337598   19.891335    0.000000    0.000000    0.000000    0.000000
  0.026400000  -38.847678   56.955662  -95.087120   17.277807    0.000000    0.000000    0.000000    0.000000
  0.026600000  -38.773257   58.196190  -93.917440   23.619585    0.000000    0.000000    0.000000    0.000000
  0.026800000  -38.760447   56.604115  -94.539694   20.088299    0.000000    0.000000    0.000000    0.000000
  0.027000000  -38.814872   57.640541  -94.814734   21.301380    0.000000    0.000000    0.000000    0.000000
  0.027200000  -38.742080   57.158504  -94.416402   27.203999    0.000000    0.000000    0.000000    0.000000
  0.027400000  -38.552741   57.116867  -94.528982   28.728697    0.000000    0.000000    0.000000    0.000000
  0.027600000  -38.564113   57.544765  -96.034430   14.165787    0.000000    0.000000    0.000000    0.000000
  0.027800000  -38.588875   57.119041  -96.366558   17.688055    0.000000    0.000000    0.000000    0.000000
  0.028000000  -38.553846   57.331570  -96.191429   21.233099    0.000000    0.000000    0.000000    0.000000
  0.028200000  -38.449939   57.124001  -95.875537   18.071047    0.000000    0.000000    0.000000    0.000000
  0.028400000  -38.445153   57.558701  -95.042148   17.899925    0.000000    0.000000    0.000000    0.000000
  0.028600000  -38.385764   57.501518  -95.259850   20.860254    0.000000    0.000000    0.000000    0.000000
  0.028800000  -38.473820   57.469757  -97.072476    8.242540    0.000000    0.000000    0.000000    0.000000
  0.029000000  -38.490048   58.058884  -96.777265   17.058538    0.000000    0.000000    0.000000    0.000000
  0.029200000  -38.461129   57.929634  -96.879110   21.789486    0.000000    0.000000    0.000000    0.000000
  0.029400000  -38.492534   57.653210  -95.002627   19.919815    0.000000    0.000000    0.000000    0.000000
  0.029600000  -38.544600   58.030655  -96.740079   19.070135    0.000000    0.000000    0.000000    0.000000
  0.029800000  -38.483289   57.143269  -95.611154   12.973331    0.000000    0.000000    0.000000    0.000000
  0.030000000  -38.549949   57.149208  -96.912673   17.824745    0.000000    0.000000    0.000000    0.000000
  0.030200000  -38.509605   57.325184  -96.882947   27.089411    0.000000    0.000000    0.000000    0.000000
  0.030400000  -38.561025   56.841816  -96.407553   11.845860    0.000000    0.000000    0.000000    0.000000
  0.030600000  -38.531142   55.952389  -97.070673   11.900007    0.000000    0.000000    0.000000    0.000000
  0.030800000  -38.551526   56.393364  -97.448528   18.878056    0.000000    0.000000    0.000000    0.000000
  0.031000000  -38.455298   55.404297  -97.896561   11.100944    0.000000    0.000000    0.000000    0.000000
  0.031200000  -38.563826   54.867683  -96.671611    9.375049    0.000000    0.000000    0.000000    0.000000
  0.031400000  -38.510780   54.594612  -96.402208   10.449653    0.000000    0.000000    0.000000    0.000000
  0.031600000  -38.408032   53.442200  -97.500883   13.180458    0.000000    0.000000    0.000000    0.000000
  0.031800000  -38.356836   53.108601  -98.264308    0.879336    0.000000    0.000000    0.000000    0.000000
  0.032000000  -38.420543   51.900475  -97.009753   21.530434    0.000000    0.000000    0.000000    0.000000
  0.032200000  -38.354907   52.742390  -97.952527   24.116421    0.000000    0.000000    0.000000    0.000000
  0.032400000  -38.267977   51.827686  -97.670061   14.164423    0.000000    0.000000    0.000000    0.000000
  0.032600000  -38.129465   51.182320  -97.256489   16.120642    0.000000    0.000000    0.000000    0.000000
  0.032800000  -38.096022   50.825298  -96.926144    2.251199    0.000000    0.000000    0.000000    0.000000
  0.033000000  -37.862635   50.875988  -99.231848   24.986069    0.000000    0.000000    0.000000    0.000000
  0.033200000  -37.966439   50.006535  -97.510531    5.870768    0.000000    0.000000    0.000000    0.000000
  0.033400000  -37.652951   49.693695  -96.840404    6.557158    0.000000    0.000000    0.000000    0.000000
  0.033600000  -37.748412   50.348610  -98.045509    9.550157    0.000000    0.000000    0.000000    0.000000
  0.033800000  -37.639267   49.630875  -97.976664   16.384523    0.000000    0.000000    0.000000    0.000000
  0.034000000  -37.392553   50.011761  -98.495586   10.230767    0.000000    0.000000    0.000000    0.000000
  0.034200000  -37.201944   49.949062  -99.651560    9.196860    0.000000    0.000000    0.000000    0.000000
  0.034400000  -37.244183   49.872929  -97.664310    6.573465    0.000000    0.000000    0.000000    0.000000
  0.034600000  -37.266894   49.632881  -97.219547    6.758752    0.000000    0.000000    0.000000    0.000000
  0.034800000  -37.050678   51.165508  -99.381676    9.055134    0.000000    0.000000    0.000000    0.000000
  0.035000000  -36.890803   49.561680  -98.313577    7.542541    0.000000    0.000000    0.000000    0.000000
  0.035200000  -36.984722   50.802235  -99.049257    5.991034    0.000000    0.000000    0.000000    0.000000
  0.035400000  -36.965689   50.935669  -97.180878    6.642482    0.000000    0.000000    0.000000    0.000000
  0.035600000  -36.855383   51.460094  -97.498479    4.647292    0.000000    0.000000    0.000000    0.000000
  0.035800000  -36.943431   51.607170  -99.305596    0.733510    0.000000    0.000000    0.000000    0.000000
  0.036000000  -36.884682   52.109928 -100.448637    6.291181    0.000000    0.000000    0.000000    0.000000
  0.036200000  -36.865773   52.309910  -97.799466   20.136484    0.000000    0.000000    0.000000    0.000000
  0.036400000  -37.019683   52.616032  -98.155029    4.652600    0.000000    0.000000    0.000000    0.000000
  0.036600000  -36.943636   53.128296 -103.023886    5.965796    0.000000    0.000000    0.000000    0.000000
  0.036800000  -36.908845   52.638412  -98.748075    2.976187    0.000000    0.000000    0.000000    0.000000
  0.037000000  -36.957637   51.404903  -98.694741    8.200174    0.000000    0.000000    0.000000    0.000000
  0.037200000  -37.115041   51.712540  -99.644989    5.524681    0.000000    0.000000    0.000000    0.000000
  0.037400000  -37.068572   51.680931 -100.133165   19.859852    0.000000    0.000000    0.000000    0.000000
  0.037600000  -37.123532   51.707832  -99.607186    6.805866    0.000000    0.000000    0.000000    0.000000
  0.037800000  -37.081170   50.906593 -102.177650    9.506209    0.000000    0.000000    0.000000    0.000000
  0.038000000  -37.062219   50.224682  -97.245241   16.960051    0.000000    0.000000    0.000000    0.000000
  0.038200000  -37.134903   49.942314  -98.739536   -2.813935    0.000000    0.000000    0.000000    0.000000
  0.038400000  -37.198981   49.676338  -99.531029    8.243852    0.000000    0.000000    0.000000    0.000000
  0.038600000  -37.101099   48.543633 -102.138054   20.394711    0.000000    0.000000    0.000000    0.000000
  0.038800000  -37.029411   48.173546  -99.805237    4.951338    0.000000    0.000000    0.000000    0.000000
  0.039000000  -36.991973   48.090889 -100.288293    3.389151    0.000000    0.000000    0.000000    0.000000
  0.039200000  -37.051881   47.046539  -99.809605    6.160147    0.000000    0.000000    0.000000    0.000000
  0.039400000  -36.841170   46.656616 -101.982011    7.864726    0.000000    0.000000    0.000000    0.000000
  0.039600000  -36.789254   45.695957 -100.643204   19.654545    0.000000    0.000000    0.000000    0.000000
  0.039800000  -36.717532   45.440895 -101.125680    2.023672    0.000000    0.000000    0.000000    0.000000
  0.040000000  -36.525309   45.015751 -100.746948    4.393403    0.000000    0.000000    0.000000    0.000000
  0.040200000  -36.544682   45.172829  -98.156603   13.251264    0.000000    0.000000    0.000000    0.000000
  0.040400000  -36.293886   45.241421  -99.836393    7.104778    0.000000    0.000000    0.000000    0.000000
  0.040600000  -36.218683   44.396267 -100.526975   -1.840638    0.000000    0.000000    0.000000    0.000000
  0.040800000  -36.152097   44.452389 -100.269997   -3.187402    0.000000    0.000000    0.000000    0.000000
  0.041000000  -36.178406   45.170124 -100.444619    9.550409    0.000000    0.000000    0.000000    0.000000
  0.041200000  -35.931591   44.985291 -102.197161    6.615264    0.000000    0.000000    0.000000    0.000000
  0.041400000  -35.880794   44.958900 -101.989723   11.124767    0.000000    0.000000    0.000000    0.000000
  0.041600000  -35.695312   44.860546  -98.962411   -1.892463    0.000000    0.000000    0.000000    0.000000
  0.041800000  -35.696517   44.882252 -100.414540   23.160358    0.000000    0.000000    0.000000    0.000000
  0.042000000  -35.585247   45.022911 -102.644825   12.158682    0.000000    0.000000    0.000000    0.000000
  0.042200000  -35.486073   45.637787 -103.635871    1.640132    0.000000    0.000000    0.000000    0.000000
  0.042400000  -35.455436   45.923676 -101.156329   25.512514    0.000000    0.000000    0.000000    0.000000
  0.042600000  -35.398094   46.339375 -102.760245    5.587853    0.000000    0.000000    0.000000    0.000000
  0.042800000  -35.279427   46.592323 -102.093153   -3.016554    0.000000    0.000000    0.000000    0.000000
