! Anritsu VNA Master:                     Model: MS2036C/10/77
! SN:                                  1601066
! /card0/usr/255.ew.sma.r200.12.s2p
! Existing Calibration Information:
! TYPE:                         Current Settings,       Active Cal Settings
! TIME:             	   12/19/2017 06:14:04 PM,    12/19/2017 06:04:41 PM
! INTERNAL TEMP:    	                   40.8 C,                    39.8 C
! # POINTS:         	                      501,                       501
! START FREQ:       	               10.000 MHz,                10.000 MHz
! STOP FREQ:        	              110.000 MHz,               110.000 MHz
! SOURCE POWER:     	                     High,                      High
! IFBW:             	                   100 Hz,                    100 Hz
! AVG FACTOR:       	                       1 ,                        1 
! REF PLANE 1:      	                     0 mm,                      0 mm
! REF PLANE 2:      	                     0 mm,                      0 mm
! CAL TYPE:         	                 Full S11,                  Full S11
! CAL METHOD:       	                     SOLT,                      SOLT
! CAL LINE TYPE:    	                     Coax,                      Coax
! DUT PORT 1:       	                N-Conn(F),                 N-Conn(F)
! DUT PORT 2:       	                K-Conn(F),                 K-Conn(F)
! CAL STATUS:       	        OK: Accuracy High,                        --
# GHZ S DB R 50.0
! FREQ.GHZ       S11DB        S11A       S21DB        S21A       S12DB        S12A       S22DB        S22A
  0.010000000   -4.564164  -10.734065  -84.404317   76.850189    0.000000    0.000000    0.000000    0.000000
  0.010200000   -4.555098  -10.916881  -84.569704   77.337799    0.000000    0.000000    0.000000    0.000000
  0.010400000   -4.556521  -11.174971  -84.308296   75.774101    0.000000    0.000000    0.000000    0.000000
  0.010600000   -4.556102  -11.378966  -85.200885   75.191109    0.000000    0.000000    0.000000    0.000000
  0.010800000   -4.556128  -11.606027  -84.822518   79.515236    0.000000    0.000000    0.000000    0.000000
  0.011000000   -4.561572  -11.836706  -84.850533   77.267189    0.000000    0.000000    0.000000    0.000000
  0.011200000   -4.558752  -12.050076  -84.858969   75.751038    0.000000    0.000000    0.000000    0.000000
  0.011400000   -4.553530  -12.292916  -84.696230   77.780495    0.000000    0.000000    0.000000    0.000000
  0.011600000   -4.554980  -12.469623  -84.965701   77.249832    0.000000    0.000000    0.000000    0.000000
  0.011800000   -4.554399  -12.719800  -85.124690   75.467133    0.000000    0.000000    0.000000    0.000000
  0.012000000   -4.555353  -12.921166  -84.751102   74.905334    0.000000    0.000000    0.000000    0.000000
  0.012200000   -4.553641  -13.168038  -85.236776   74.589615    0.000000    0.000000    0.000000    0.000000
  0.012400000   -4.555919  -13.404718  -85.015858   70.960426    0.000000    0.000000    0.000000    0.000000
  0.012600000   -4.554639  -13.592937  -85.423607   70.996597    0.000000    0.000000    0.000000    0.000000
  0.012800000   -4.554119  -13.816566  -85.460947   68.878685    0.000000    0.000000    0.000000    0.000000
  0.013000000   -4.557715  -14.021918  -85.140949   64.815712    0.000000    0.000000    0.000000    0.000000
  0.013200000   -4.557684  -14.232950  -84.929944   63.162441    0.000000    0.000000    0.000000    0.000000
  0.013400000   -4.556252  -14.443895  -85.202278   61.770161    0.000000    0.000000    0.000000    0.000000
  0.013600000   -4.553784  -14.654984  -85.446233   59.394539    0.000000    0.000000    0.000000    0.000000
  0.013800000   -4.552347  -14.846436  -85.581924   59.884621    0.000000    0.000000    0.000000    0.000000
  0.014000000   -4.552738  -15.066989  -86.058016   55.997730    0.000000    0.000000    0.000000    0.000000
  0.014200000   -4.554358  -15.279770  -86.010328   54.562828    0.000000    0.000000    0.000000    0.000000
  0.014400000   -4.555849  -15.510596  -86.364506   55.489319    0.000000    0.000000    0.000000    0.000000
  0.014600000   -4.558160  -15.720444  -86.397972   52.321564    0.000000    0.000000    0.000000    0.000000
  0.014800000   -4.559098  -15.937908  -86.755719   51.578743    0.000000    0.000000    0.000000    0.000000
  0.015000000   -4.559006  -16.146423  -87.516925   50.112507    0.000000    0.000000    0.000000    0.000000
  0.015200000   -4.561331  -16.376797  -87.354550   45.535797    0.000000    0.000000    0.000000    0.000000
  0.015400000   -4.564189  -16.606291  -87.634121   43.953506    0.000000    0.000000    0.000000    0.000000
  0.015600000   -4.562167  -16.914341  -88.408506   44.083687    0.000000    0.000000    0.000000    0.000000
  0.015800000   -4.563619  -17.059401  -88.638247   46.744923    0.000000    0.000000    0.000000    0.000000
  0.016000000   -4.564956  -17.281301  -88.688604   47.496212    0.000000    0.000000    0.000000    0.000000
  0.016200000   -4.567537  -17.487423  -88.877180   47.663059    0.000000    0.000000    0.000000    0.000000
  0.016400000   -4.570567  -17.721619  -89.456648   43.203747    0.000000    0.000000    0.000000    0.000000
  0.016600000   -4.572259  -17.972385  -89.049589   47.891708    0.000000    0.000000    0.000000    0.000000
  0.016800000   -4.573467  -18.175585  -90.055791   45.137840    0.000000    0.000000    0.000000    0.000000
  0.017000000   -4.573504  -18.429365  -90.070707   46.348473    0.000000    0.000000    0.000000    0.000000
  0.017200000   -4.567205  -18.632053  -91.069385   43.534729    0.000000    0.000000    0.000000    0.000000
  0.017400000   -4.570165  -18.846710  -90.086784   46.771042    0.000000    0.000000    0.000000    0.000000
  0.017600000   -4.569820  -19.111818  -89.459183   45.389446    0.000000    0.000000    0.000000    0.000000
  0.017800000   -4.570419  -19.324945  -90.925361   47.524986    0.000000    0.000000    0.000000    0.000000
  0.018000000   -4.569027  -19.518082  -90.977058   44.833405    0.000000    0.000000    0.000000    0.000000
  0.018200000   -4.570269  -19.761703  -90.312415   47.570190    0.000000    0.000000    0.000000    0.000000
  0.018400000   -4.573263  -19.997700  -90.803898   50.480595    0.000000    0.000000    0.000000    0.000000
  0.018600000   -4.574083  -20.212378  -90.525448   48.802483    0.000000    0.000000    0.000000    0.000000
  0.018800000   -4.573944  -20.434668  -90.428265   47.190758    0.000000    0.000000    0.000000    0.000000
  0.019000000   -4.570645  -20.631590  -89.734270   45.261684    0.000000    0.000000    0.000000    0.000000
  0.019200000   -4.570066  -20.829323  -89.826510   40.236401    0.000000    0.000000    0.000000    0.000000
  0.019400000   -4.569958  -21.049883  -90.491241   39.213043    0.000000    0.000000    0.000000    0.000000
  0.019600000   -4.567678  -21.256138  -90.014830   41.826420    0.000000    0.000000    0.000000    0.000000
  0.019800000   -4.570522  -21.460546  -90.763853   42.224251    0.000000    0.000000    0.000000    0.000000
  0.020000000   -4.569444  -21.665327  -90.505048   39.762714    0.000000    0.000000    0.000000    0.000000
  0.020200000   -4.566642  -21.889280  -90.258430   32.704899    0.000000    0.000000    0.000000    0.000000
  0.020400000   -4.565347  -22.072294  -91.480582   32.302120    0.000000    0.000000    0.000000    0.000000
  0.020600000   -4.565481  -22.299568  -90.231830   32.908649    0.000000    0.000000    0.000000    0.000000
  0.020800000   -4.563260  -22.498123  -91.512300   34.301147    0.000000    0.000000    0.000000    0.000000
  0.021000000   -4.562578  -22.731148  -91.288045   34.144810    0.000000    0.000000    0.000000    0.000000
  0.021200000   -4.568612  -22.963196  -91.375818   34.872215    0.000000    0.000000    0.000000    0.000000
  0.021400000   -4.569050  -23.163797  -91.322171   32.029266    0.000000    0.000000    0.000000    0.000000
  0.021600000   -4.569791  -23.392628  -92.356626   35.657417    0.000000    0.000000    0.000000    0.000000
  0.021800000   -4.573261  -23.611137  -91.622795   28.077215    0.000000    0.000000    0.000000    0.000000
  0.022000000   -4.574935  -23.804371  -91.920296   35.658775    0.000000    0.000000    0.000000    0.000000
  0.022200000   -4.575657  -24.014822  -92.561298   28.047869    0.000000    0.000000    0.000000    0.000000
  0.022400000   -4.573646  -24.225840  -92.715284   29.072235    0.000000    0.000000    0.000000    0.000000
  0.022600000   -4.573477  -24.437836  -92.216655   32.852360    0.000000    0.000000    0.000000    0.000000
  0.022800000   -4.579972  -24.665876  -92.817357   25.744305    0.000000    0.000000    0.000000    0.000000
  0.023000000   -4.581611  -24.883867  -93.510373   36.779026    0.000000    0.000000    0.000000    0.000000
  0.023200000   -4.581520  -25.102556  -93.871644   25.384396    0.000000    0.000000    0.000000    0.000000
  0.023400000   -4.584912  -25.325630  -93.320537   33.349651    0.000000    0.000000    0.000000    0.000000
  0.023600000   -4.584235  -25.563583  -93.758308   32.153194    0.000000    0.000000    0.000000    0.000000
  0.023800000   -4.582056  -25.797405  -93.989023   20.396566    0.000000    0.000000    0.000000    0.000000
  0.024000000   -4.578717  -26.006983  -94.746132   33.836567    0.000000    0.000000    0.000000    0.000000
  0.024200000   -4.575077  -26.234503  -94.301040   34.202515    0.000000    0.000000    0.000000    0.000000
  0.024400000   -4.572821  -26.467798  -94.068777   32.339928    0.000000    0.000000    0.000000    0.000000
  0.024600000   -4.577161  -26.692041  -93.736173   29.819445    0.000000    0.000000    0.000000    0.000000
  0.024800000   -4.577293  -26.911133  -93.799582   35.549290    0.000000    0.000000    0.000000    0.000000
  0.025000000   -4.577911  -27.134701  -94.992871   28.977774    0.000000    0.000000    0.000000    0.000000
  0.025200000   -4.577255  -27.334402  -94.018015   28.417734    0.000000    0.000000    0.000000    0.000000
  0.025400000   -4.577550  -27.524250  -93.792409   32.815903    0.000000    0.000000    0.000000    0.000000
  0.025600000   -4.583163  -27.724857  -94.155378   27.348389    0.000000    0.000000    0.000000    0.000000
  0.025800000   -4.583309  -27.925882  -94.621494   25.733200    0.000000    0.000000    0.000000    0.000000
  0.026000000   -4.583347  -28.116009  -94.184497   22.614656    0.000000    0.000000    0.000000    0.000000
  0.026200000   -4.588839  -28.322983  -93.343767   23.544968    0.000000    0.000000    0.000000    0.000000
  0.026400000   -4.590673  -28.537416  -95.474899   22.434237    0.000000    0.000000    0.000000    0.000000
  0.026600000   -4.591285  -28.757927  -95.354804   23.193954    0.000000    0.000000    0.000000    0.000000
  0.026800000   -4.593451  -28.987507  -94.290435   23.802998    0.000000    0.000000    0.000000    0.000000
  0.027000000   -4.591840  -29.214689  -96.132948   15.256766    0.000000    0.000000    0.000000    0.000000
  0.027200000   -4.593015  -29.446199  -95.374214   23.475670    0.000000    0.000000    0.000000    0.000000
  0.027400000   -4.593603  -29.693325  -95.616878   16.362516    0.000000    0.000000    0.000000    0.000000
  0.027600000   -4.595843  -29.921450  -96.330250   16.736759    0.000000    0.000000    0.000000    0.000000
  0.027800000   -4.598346  -30.159878  -95.121341   21.155870    0.000000    0.000000    0.000000    0.000000
  0.028000000   -4.602619  -30.408583  -96.007270   15.311189    0.000000    0.000000    0.000000    0.000000
  0.028200000   -4.601860  -30.645847  -95.153492   16.896442    0.000000    0.000000    0.000000    0.000000
  0.028400000   -4.601156  -30.894299  -96.833392   20.975166    0.000000    0.000000    0.000000    0.000000
  0.028600000   -4.595480  -31.109007  -96.681027    9.385070    0.000000    0.000000    0.000000    0.000000
  0.028800000   -4.592881  -31.302464  -96.402682   18.489588    0.000000    0.000000    0.000000    0.000000
  0.029000000   -4.594587  -31.503674  -96.298051   14.860431    0.000000    0.000000    0.000000    0.000000
  0.029200000   -4.595382  -31.686150  -96.467482    7.667439    0.000000    0.000000    0.000000    0.000000
  0.029400000   -4.594625  -31.884745  -96.768102   15.215839    0.000000    0.000000    0.000000    0.000000
  0.029600000   -4.598281  -32.087753  -96.312860   18.614035    0.000000    0.000000    0.000000    0.000000
  0.029800000   -4.602295  -32.296097  -95.607226   16.989460    0.000000    0.000000    0.000000    0.000000
  0.030000000   -4.608953  -32.532627  -96.905431   18.960686    0.000000    0.000000    0.000000    0.000000
  0.030200000   -4.615515  -32.765781  -97.038839   26.735384    0.000000    0.000000    0.000000    0.000000
  0.030400000   -4.617710  -33.039536  -96.649655   14.790040    0.000000    0.000000    0.000000    0.000000
  0.030600000   -4.615932  -33.307095  -97.182731   17.380564    0.000000    0.000000    0.000000    0.000000
  0.030800000   -4.615891  -33.560158  -98.367272   13.957919    0.000000    0.000000    0.000000    0.000000
  0.031000000   -4.609973  -33.824589  -97.868232   25.188654    0.000000    0.000000    0.000000    0.000000
  0.031200000   -4.603784  -34.051121  -98.122222   25.346306    0.000000    0.000000    0.000000    0.000000
  0.031400000   -4.606457  -34.312832  -98.539027   17.511765    0.000000    0.000000    0.000000    0.000000
  0.031600000   -4.597891  -34.528725  -98.233421   16.525633    0.000000    0.000000    0.000000    0.000000
  0.031800000   -4.594607  -34.757523  -98.823959   20.058376    0.000000    0.000000    0.000000    0.000000
  0.032000000   -4.584471  -34.955875  -96.411748   20.145781    0.000000    0.000000    0.000000    0.000000
  0.032200000   -4.582157  -35.157532  -96.958717    7.954922    0.000000    0.000000    0.000000    0.000000
  0.032400000   -4.572196  -35.339134  -98.217476   18.930212    0.000000    0.000000    0.000000    0.000000
  0.032600000   -4.566577  -35.504333  -96.985391   13.177243    0.000000    0.000000    0.000000    0.000000
  0.032800000   -4.561858  -35.706589  -98.490502   15.139111    0.000000    0.000000    0.000000    0.000000
  0.033000000   -4.564157  -35.856895  -98.628199    8.098669    0.000000    0.000000    0.000000    0.000000
  0.033200000   -4.565243  -36.058914  -98.309246   14.010645    0.000000    0.000000    0.000000    0.000000
  0.033400000   -4.566519  -36.252087  -98.124801   14.133755    0.000000    0.000000    0.000000    0.000000
  0.033600000   -4.568465  -36.455921  -98.193568   12.376039    0.000000    0.000000    0.000000    0.000000
  0.033800000   -4.571626  -36.655231  -96.348481   21.439503    0.000000    0.000000    0.000000    0.000000
  0.034000000   -4.573148  -36.846848  -98.197426    2.426469    0.000000    0.000000    0.000000    0.000000
  0.034200000   -4.577362  -37.052658  -98.860960    7.461327    0.000000    0.000000    0.000000    0.000000
  0.034400000   -4.581866  -37.265930  -97.572457    9.165247    0.000000    0.000000    0.000000    0.000000
  0.034600000   -4.584368  -37.521790  -97.577939   14.203153    0.000000    0.000000    0.000000    0.000000
  0.034800000   -4.594555  -37.722908  -98.234229   18.615229    0.000000    0.000000    0.000000    0.000000
  0.035000000   -4.596272  -37.943615  -99.289638   -7.260180    0.000000    0.000000    0.000000    0.000000
  0.035200000   -4.600952  -38.184902  -98.488045   20.375954    0.000000    0.000000    0.000000    0.000000
  0.035400000   -4.605535  -38.395287  -98.635331   18.094526    0.000000    0.000000    0.000000    0.000000
  0.035600000   -4.608733  -38.645710  -99.340721   11.915801    0.000000    0.000000    0.000000    0.000000
  0.035800000   -4.607427  -38.869724  -98.536085   18.209795    0.000000    0.000000    0.000000    0.000000
  0.036000000   -4.606046  -39.129486  -98.659927    8.890702    0.000000    0.000000    0.000000    0.000000
  0.036200000   -4.604266  -39.352711  -99.632503   14.151174    0.000000    0.000000    0.000000    0.000000
  0.036400000   -4.601359  -39.607155 -100.001685   12.157448    0.000000    0.000000    0.000000    0.000000
  0.036600000   -4.596525  -39.808189 -101.635989   21.302235    0.000000    0.000000    0.000000    0.000000
  0.036800000   -4.599013  -40.014175 -100.298511   17.179081    0.000000    0.000000    0.000000    0.000000
  0.037000000   -4.594135  -40.195366  -99.762867    4.768441    0.000000    0.000000    0.000000    0.000000
  0.037200000   -4.593843  -40.394142  -99.198888   14.770627    0.000000    0.000000    0.000000    0.000000
  0.037400000   -4.599390  -40.627277  -98.980098   14.842251    0.000000    0.000000    0.000000    0.000000
  0.037600000   -4.606087  -40.849663  -99.002235    4.953738    0.000000    0.000000    0.000000    0.000000
  0.037800000   -4.615731  -41.073906  -99.303086    5.681023    0.000000    0.000000    0.000000    0.000000
  0.038000000   -4.618580  -41.312679  -98.756861   13.001461    0.000000    0.000000    0.000000    0.000000
  0.038200000   -4.625538  -41.578598 -100.401144   -2.358365    0.000000    0.000000    0.000000    0.000000
  0.038400000   -4.628076  -41.817310  -97.190648   15.220336    0.000000    0.000000    0.000000    0.000000
  0.038600000   -4.626873  -42.082115 -101.726581    8.322311    0.000000    0.000000    0.000000    0.000000
  0.038800000   -4.624582  -42.300766  -97.574290   12.564690    0.000000    0.000000    0.000000    0.000000
  0.039000000   -4.627556  -42.567566  -97.189293    4.912540    0.000000    0.000000    0.000000    0.000000
  0.039200000   -4.620682  -42.823772 -100.391727   19.512472    0.000000    0.000000    0.000000    0.000000
  0.039400000   -4.618383  -43.038090 -100.802779    2.669144    0.000000    0.000000    0.000000    0.000000
  0.039600000   -4.605022  -43.272263  -99.564527    0.152777    0.000000    0.000000    0.000000    0.000000
  0.039800000   -4.598961  -43.458607  -99.867910    7.490248    0.000000    0.000000    0.000000    0.000000
  0.040000000   -4.595140  -43.654636 -100.854416    3.993977    0.000000    0.000000    0.000000    0.000000
  0.040200000   -4.589179  -43.826641  -99.155905   17.413702    0.000000    0.000000    0.000000    0.000000
  0.040400000   -4.589461  -43.989357 -102.591531    6.771626    0.000000    0.000000    0.000000    0.000000
  0.040600000   -4.586974  -44.160389 -103.095319   -9.504521    0.000000    0.000000    0.000000    0.000000
  0.040800000   -4.588241  -44.354801 -101.073170    8.431295    0.000000    0.000000    0.000000    0.000000
  0.041000000   -4.596656  -44.536167 -101.611702   17.315126    0.000000    0.000000    0.000000    0.000000
  0.041200000   -4.599980  -44.724995 -101.073168    3.228575    0.000000    0.000000    0.000000    0.000000
  0.041400000   -4.602945  -44.948517  -99.772283    7.051026    0.000000    0.000000    0.000000    0.000000
  0.041600000   -4.611283  -45.143917 -102.842947   10.801438    0.000000    0.000000    0.000000    0.000000
  0.041800000   -4.613134  -45.360527 -102.421487    9.085298    0.000000    0.000000    0.000000    0.000000
  0.042000000   -4.615671  -45.592857 -102.789582    8.648116    0.000000    0.000000    0.000000    0.000000
  0.042200000   -4.623652  -45.780792 -101.665557    8.817258    0.000000    0.000000    0.000000    0.000000
  0.042400000   -4.627170  -46.009590 -102.793686    5.423735    0.000000    0.000000    0.000000    0.000000
  0.042600000   -4.626590  -46.217224 -100.617950    6.080544    0.000000    0.000000    0.000000    0.000000
  0.042800000   -4.626277  -46.420540 -102.788916   16.502913    0.000000    0.000000    0.000000    0.000000
