! Anritsu VNA Master:                     Model: MS2036C/10/77
! SN:                                  1601066
! /card0/usr/255.ew.sma.r20.12.s2p
! Existing Calibration Information:
! TYPE:                         Current Settings,       Active Cal Settings
! TIME:             	   12/19/2017 06:11:04 PM,    12/19/2017 06:04:41 PM
! INTERNAL TEMP:    	                   40.5 C,                    39.8 C
! # POINTS:         	                      501,                       501
! START FREQ:       	               10.000 MHz,                10.000 MHz
! STOP FREQ:        	              110.000 MHz,               110.000 MHz
! SOURCE POWER:     	                     High,                      High
! IFBW:             	                   100 Hz,                    100 Hz
! AVG FACTOR:       	                       1 ,                        1 
! REF PLANE 1:      	                     0 mm,                      0 mm
! REF PLANE 2:      	                     0 mm,                      0 mm
! CAL TYPE:         	                 Full S11,                  Full S11
! CAL METHOD:       	                     SOLT,                      SOLT
! CAL LINE TYPE:    	                     Coax,                      Coax
! DUT PORT 1:       	                N-Conn(F),                 N-Conn(F)
! DUT PORT 2:       	                K-Conn(F),                 K-Conn(F)
! CAL STATUS:       	        OK: Accuracy High,                        --
# GHZ S DB R 50.0
! FREQ.GHZ       S11DB        S11A       S21DB        S21A       S12DB        S12A       S22DB        S22A
  0.010000000   -7.206465  167.829834  -82.621028   76.885490    0.000000    0.000000    0.000000    0.000000
  0.010200000   -7.196993  167.651718  -82.481832   77.209290    0.000000    0.000000    0.000000    0.000000
  0.010400000   -7.194092  167.424103  -82.771707   75.335220    0.000000    0.000000    0.000000    0.000000
  0.010600000   -7.201927  167.215576  -83.098480   74.567802    0.000000    0.000000    0.000000    0.000000
  0.010800000   -7.202064  166.949387  -83.321028   71.382500    0.000000    0.000000    0.000000    0.000000
  0.011000000   -7.205433  166.699814  -83.477517   69.781235    0.000000    0.000000    0.000000    0.000000
  0.011200000   -7.208411  166.483643  -83.918429   67.729424    0.000000    0.000000    0.000000    0.000000
  0.011400000   -7.208752  166.254898  -84.120474   65.339676    0.000000    0.000000    0.000000    0.000000
  0.011600000   -7.205526  165.996704  -84.251365   65.679039    0.000000    0.000000    0.000000    0.000000
  0.011800000   -7.206930  165.797440  -84.920439   60.341560    0.000000    0.000000    0.000000    0.000000
  0.012000000   -7.214552  165.523468  -85.317631   60.201923    0.000000    0.000000    0.000000    0.000000
  0.012200000   -7.215221  165.283203  -85.636474   61.261471    0.000000    0.000000    0.000000    0.000000
  0.012400000   -7.218042  164.999481  -85.748712   61.060505    0.000000    0.000000    0.000000    0.000000
  0.012600000   -7.218559  164.759979  -86.058581   60.984623    0.000000    0.000000    0.000000    0.000000
  0.012800000   -7.223453  164.518875  -86.386315   60.002537    0.000000    0.000000    0.000000    0.000000
  0.013000000   -7.223654  164.280884  -86.201622   58.672604    0.000000    0.000000    0.000000    0.000000
  0.013200000   -7.226700  164.024338  -86.883092   56.456123    0.000000    0.000000    0.000000    0.000000
  0.013400000   -7.230035  163.761139  -87.022182   59.532207    0.000000    0.000000    0.000000    0.000000
  0.013600000   -7.227938  163.547394  -87.377927   60.894573    0.000000    0.000000    0.000000    0.000000
  0.013800000   -7.221970  163.302536  -87.461216   61.730881    0.000000    0.000000    0.000000    0.000000
  0.014000000   -7.228169  163.049820  -87.879641   56.271786    0.000000    0.000000    0.000000    0.000000
  0.014200000   -7.225436  162.798325  -87.396661   58.794765    0.000000    0.000000    0.000000    0.000000
  0.014400000   -7.225479  162.573181  -87.355586   61.725357    0.000000    0.000000    0.000000    0.000000
  0.014600000   -7.224699  162.326447  -87.817476   57.747017    0.000000    0.000000    0.000000    0.000000
  0.014800000   -7.228711  162.091324  -87.570367   60.208241    0.000000    0.000000    0.000000    0.000000
  0.015000000   -7.230240  161.839828  -87.731883   59.119625    0.000000    0.000000    0.000000    0.000000
  0.015200000   -7.229209  161.590042  -88.036229   56.818394    0.000000    0.000000    0.000000    0.000000
  0.015400000   -7.228009  161.343933  -87.542720   56.919792    0.000000    0.000000    0.000000    0.000000
  0.015600000   -7.229260  161.096191  -87.999852   52.611012    0.000000    0.000000    0.000000    0.000000
  0.015800000   -7.228771  160.852524  -88.071815   54.463890    0.000000    0.000000    0.000000    0.000000
  0.016000000   -7.230424  160.628571  -88.731796   51.721165    0.000000    0.000000    0.000000    0.000000
  0.016200000   -7.230181  160.408813  -88.173170   49.746937    0.000000    0.000000    0.000000    0.000000
  0.016400000   -7.231609  160.200607  -87.876083   49.426250    0.000000    0.000000    0.000000    0.000000
  0.016600000   -7.229238  159.978348  -88.847872   51.249596    0.000000    0.000000    0.000000    0.000000
  0.016800000   -7.232531  159.746033  -88.366415   49.273930    0.000000    0.000000    0.000000    0.000000
  0.017000000   -7.230057  159.494797  -88.871778   44.717594    0.000000    0.000000    0.000000    0.000000
  0.017200000   -7.228633  159.257843  -88.617680   44.218822    0.000000    0.000000    0.000000    0.000000
  0.017400000   -7.233865  159.049759  -88.626766   42.074837    0.000000    0.000000    0.000000    0.000000
  0.017600000   -7.233288  158.804962  -88.987386   42.945168    0.000000    0.000000    0.000000    0.000000
  0.017800000   -7.237648  158.556747  -89.281314   39.593956    0.000000    0.000000    0.000000    0.000000
  0.018000000   -7.239857  158.335251  -88.976223   43.816097    0.000000    0.000000    0.000000    0.000000
  0.018200000   -7.240204  158.119492  -89.854469   41.194489    0.000000    0.000000    0.000000    0.000000
  0.018400000   -7.240456  157.862518  -89.625735   39.307259    0.000000    0.000000    0.000000    0.000000
  0.018600000   -7.247534  157.634171  -90.244594   36.606834    0.000000    0.000000    0.000000    0.000000
  0.018800000   -7.247334  157.380890  -90.906022   36.992535    0.000000    0.000000    0.000000    0.000000
  0.019000000   -7.250069  157.154083  -90.811983   38.276226    0.000000    0.000000    0.000000    0.000000
  0.019200000   -7.248839  156.907608  -90.882949   41.328457    0.000000    0.000000    0.000000    0.000000
  0.019400000   -7.253415  156.686813  -91.001129   37.928196    0.000000    0.000000    0.000000    0.000000
  0.019600000   -7.258336  156.428970  -90.867004   38.307995    0.000000    0.000000    0.000000    0.000000
  0.019800000   -7.256762  156.208878  -91.162104   37.936764    0.000000    0.000000    0.000000    0.000000
  0.020000000   -7.255045  155.945526  -91.090346   40.095646    0.000000    0.000000    0.000000    0.000000
  0.020200000   -7.256690  155.720276  -91.743987   35.456398    0.000000    0.000000    0.000000    0.000000
  0.020400000   -7.253684  155.463379  -92.198696   38.999390    0.000000    0.000000    0.000000    0.000000
  0.020600000   -7.250004  155.214600  -91.042288   35.844902    0.000000    0.000000    0.000000    0.000000
  0.020800000   -7.249431  154.960480  -92.265361   41.502335    0.000000    0.000000    0.000000    0.000000
  0.021000000   -7.251000  154.689819  -93.015800   39.542419    0.000000    0.000000    0.000000    0.000000
  0.021200000   -7.248525  154.476166  -92.193335   33.734573    0.000000    0.000000    0.000000    0.000000
  0.021400000   -7.250178  154.218018  -92.895776   36.875664    0.000000    0.000000    0.000000    0.000000
  0.021600000   -7.252606  154.006989  -92.457076   38.925571    0.000000    0.000000    0.000000    0.000000
  0.021800000   -7.249082  153.784012  -92.562552   36.935799    0.000000    0.000000    0.000000    0.000000
  0.022000000   -7.256896  153.526840  -91.907325   40.772446    0.000000    0.000000    0.000000    0.000000
  0.022200000   -7.257074  153.262482  -92.059358   37.331848    0.000000    0.000000    0.000000    0.000000
  0.022400000   -7.256273  153.032959  -91.796560   38.306290    0.000000    0.000000    0.000000    0.000000
  0.022600000   -7.256820  152.831863  -91.728184   32.170097    0.000000    0.000000    0.000000    0.000000
  0.022800000   -7.259582  152.610306  -92.748429   35.569180    0.000000    0.000000    0.000000    0.000000
  0.023000000   -7.256584  152.361801  -92.557942   33.091820    0.000000    0.000000    0.000000    0.000000
  0.023200000   -7.258189  152.128845  -93.365015   32.795685    0.000000    0.000000    0.000000    0.000000
  0.023400000   -7.255222  151.873383  -93.574206   28.939266    0.000000    0.000000    0.000000    0.000000
  0.023600000   -7.253073  151.639877  -92.164194   27.709576    0.000000    0.000000    0.000000    0.000000
  0.023800000   -7.254008  151.413284  -93.225913   26.269514    0.000000    0.000000    0.000000    0.000000
  0.024000000   -7.252950  151.156738  -94.225757   28.958817    0.000000    0.000000    0.000000    0.000000
  0.024200000   -7.255310  150.917023  -93.243795   24.731651    0.000000    0.000000    0.000000    0.000000
  0.024400000   -7.255492  150.670120  -92.810681   29.246243    0.000000    0.000000    0.000000    0.000000
  0.024600000   -7.252541  150.417023  -93.325425   26.701986    0.000000    0.000000    0.000000    0.000000
  0.024800000   -7.252396  150.164886  -94.123028   26.458527    0.000000    0.000000    0.000000    0.000000
  0.025000000   -7.252556  149.942398  -94.280067   25.845888    0.000000    0.000000    0.000000    0.000000
  0.025200000   -7.253337  149.711624  -92.903293   27.764256    0.000000    0.000000    0.000000    0.000000
  0.025400000   -7.255370  149.503189  -94.696840   26.256252    0.000000    0.000000    0.000000    0.000000
  0.025600000   -7.258869  149.282425  -94.438168   28.368643    0.000000    0.000000    0.000000    0.000000
  0.025800000   -7.253607  149.065460  -94.989947   10.667659    0.000000    0.000000    0.000000    0.000000
  0.026000000   -7.260291  148.837204  -93.992861   22.825991    0.000000    0.000000    0.000000    0.000000
  0.026200000   -7.260035  148.610138  -94.098109   22.679016    0.000000    0.000000    0.000000    0.000000
  0.026400000   -7.265084  148.342804  -94.718683   22.689766    0.000000    0.000000    0.000000    0.000000
  0.026600000   -7.263016  148.106567  -95.697638   20.993092    0.000000    0.000000    0.000000    0.000000
  0.026800000   -7.268515  147.866486  -94.316952   27.855970    0.000000    0.000000    0.000000    0.000000
  0.027000000   -7.266207  147.595581  -94.252147   16.459274    0.000000    0.000000    0.000000    0.000000
  0.027200000   -7.263611  147.330750  -94.454188   29.065388    0.000000    0.000000    0.000000    0.000000
  0.027400000   -7.260349  147.059937  -94.914431   23.655067    0.000000    0.000000    0.000000    0.000000
  0.027600000   -7.256314  146.829117  -95.488652   22.832603    0.000000    0.000000    0.000000    0.000000
  0.027800000   -7.255214  146.570236  -96.132662   26.125423    0.000000    0.000000    0.000000    0.000000
  0.028000000   -7.254313  146.348038  -96.871047   26.693342    0.000000    0.000000    0.000000    0.000000
  0.028200000   -7.249995  146.065674  -96.807002   19.362108    0.000000    0.000000    0.000000    0.000000
  0.028400000   -7.247242  145.860046  -96.814339   14.244189    0.000000    0.000000    0.000000    0.000000
  0.028600000   -7.242676  145.661255  -96.291324   22.881245    0.000000    0.000000    0.000000    0.000000
  0.028800000   -7.240886  145.465622  -95.462180   28.585312    0.000000    0.000000    0.000000    0.000000
  0.029000000   -7.239760  145.298660  -97.004145   17.820799    0.000000    0.000000    0.000000    0.000000
  0.029200000   -7.239058  145.104370  -95.788733   18.191406    0.000000    0.000000    0.000000    0.000000
  0.029400000   -7.239404  144.926880  -96.133325   18.018154    0.000000    0.000000    0.000000    0.000000
  0.029600000   -7.237785  144.745071  -95.546578   15.068475    0.000000    0.000000    0.000000    0.000000
  0.029800000   -7.243520  144.532913  -95.737961   24.120235    0.000000    0.000000    0.000000    0.000000
  0.030000000   -7.248144  144.309753  -96.144533   19.581530    0.000000    0.000000    0.000000    0.000000
  0.030200000   -7.248590  144.067719  -96.968214   10.662059    0.000000    0.000000    0.000000    0.000000
  0.030400000   -7.248737  143.845169  -97.749973   19.612555    0.000000    0.000000    0.000000    0.000000
  0.030600000   -7.252950  143.598099  -97.044270   11.476161    0.000000    0.000000    0.000000    0.000000
  0.030800000   -7.251295  143.324997  -96.084698   19.098919    0.000000    0.000000    0.000000    0.000000
  0.031000000   -7.259219  143.095566  -95.964231   18.996651    0.000000    0.000000    0.000000    0.000000
  0.031200000   -7.256496  142.931580  -96.116224   11.637586    0.000000    0.000000    0.000000    0.000000
  0.031400000   -7.262316  142.633423  -97.188027    9.181026    0.000000    0.000000    0.000000    0.000000
  0.031600000   -7.263421  142.383545  -96.211097   18.915068    0.000000    0.000000    0.000000    0.000000
  0.031800000   -7.264469  142.121841  -98.581342   14.847771    0.000000    0.000000    0.000000    0.000000
  0.032000000   -7.261801  141.898041  -97.955178   13.746927    0.000000    0.000000    0.000000    0.000000
  0.032200000   -7.256891  141.651016  -96.808565   13.340477    0.000000    0.000000    0.000000    0.000000
  0.032400000   -7.256801  141.413895  -97.435052   18.151598    0.000000    0.000000    0.000000    0.000000
  0.032600000   -7.255362  141.173676  -97.596108   10.279209    0.000000    0.000000    0.000000    0.000000
  0.032800000   -7.251399  140.982590  -99.169139    7.410542    0.000000    0.000000    0.000000    0.000000
  0.033000000   -7.249615  140.729507  -97.213760   14.445150    0.000000    0.000000    0.000000    0.000000
  0.033200000   -7.252331  140.547104 -100.209699   19.645996    0.000000    0.000000    0.000000    0.000000
  0.033400000   -7.253429  140.297821  -97.535279   18.661642    0.000000    0.000000    0.000000    0.000000
  0.033600000   -7.257526  140.123871  -98.302038   31.449978    0.000000    0.000000    0.000000    0.000000
  0.033800000   -7.262162  139.851944  -98.112891   22.089987    0.000000    0.000000    0.000000    0.000000
  0.034000000   -7.265262  139.555511 -100.548591   16.205320    0.000000    0.000000    0.000000    0.000000
  0.034200000   -7.267808  139.281113  -99.791836    4.505626    0.000000    0.000000    0.000000    0.000000
  0.034400000   -7.270038  139.028259  -97.563611    3.437013    0.000000    0.000000    0.000000    0.000000
  0.034600000   -7.270406  138.735458  -97.807692   14.402204    0.000000    0.000000    0.000000    0.000000
  0.034800000   -7.272422  138.482941  -98.777282   29.569586    0.000000    0.000000    0.000000    0.000000
  0.035000000   -7.277366  138.193954  -99.609230   -6.081327    0.000000    0.000000    0.000000    0.000000
  0.035200000   -7.269885  137.950211  -98.234541    4.776743    0.000000    0.000000    0.000000    0.000000
  0.035400000   -7.262431  137.697968  -97.624518    0.068716    0.000000    0.000000    0.000000    0.000000
  0.035600000   -7.258443  137.435486  -98.432916   11.462151    0.000000    0.000000    0.000000    0.000000
  0.035800000   -7.253568  137.192520  -98.924910   22.403267    0.000000    0.000000    0.000000    0.000000
  0.036000000   -7.242586  136.962479  -99.032454   12.043457    0.000000    0.000000    0.000000    0.000000
  0.036200000   -7.235936  136.741196  -97.148735   16.554314    0.000000    0.000000    0.000000    0.000000
  0.036400000   -7.233279  136.556396  -97.887095    7.998235    0.000000    0.000000    0.000000    0.000000
  0.036600000   -7.229356  136.333984  -99.173728    5.298685    0.000000    0.000000    0.000000    0.000000
  0.036800000   -7.222516  136.133286  -99.148443    5.017056    0.000000    0.000000    0.000000    0.000000
  0.037000000   -7.223701  135.981888  -99.342464   10.346954    0.000000    0.000000    0.000000    0.000000
  0.037200000   -7.225574  135.797958  -99.844505    8.070648    0.000000    0.000000    0.000000    0.000000
  0.037400000   -7.231907  135.584549 -102.038606   10.360111    0.000000    0.000000    0.000000    0.000000
  0.037600000   -7.232833  135.365311  -99.230509   -2.113866    0.000000    0.000000    0.000000    0.000000
  0.037800000   -7.236059  135.109039  -99.346977    8.033770    0.000000    0.000000    0.000000    0.000000
  0.038000000   -7.241992  134.882309 -102.337818   13.697923    0.000000    0.000000    0.000000    0.000000
  0.038200000   -7.249077  134.635605 -101.697929    5.209092    0.000000    0.000000    0.000000    0.000000
  0.038400000   -7.253193  134.418396  -99.035451    2.310432    0.000000    0.000000    0.000000    0.000000
  0.038600000   -7.259896  134.189819  -99.221089   11.594337    0.000000    0.000000    0.000000    0.000000
  0.038800000   -7.261786  133.924881  -98.681417  -16.888128    0.000000    0.000000    0.000000    0.000000
  0.039000000   -7.261559  133.678741 -102.861604    1.327761    0.000000    0.000000    0.000000    0.000000
  0.039200000   -7.263293  133.435135 -101.440046   -9.142525    0.000000    0.000000    0.000000    0.000000
  0.039400000   -7.262124  133.186203 -101.423124   -0.918918    0.000000    0.000000    0.000000    0.000000
  0.039600000   -7.260770  132.949326 -100.319894    6.994870    0.000000    0.000000    0.000000    0.000000
  0.039800000   -7.257758  132.644394  -98.921186   10.661522    0.000000    0.000000    0.000000    0.000000
  0.040000000   -7.250680  132.378860  -99.246161    1.797195    0.000000    0.000000    0.000000    0.000000
  0.040200000   -7.246314  132.155243 -103.065695   13.642578    0.000000    0.000000    0.000000    0.000000
  0.040400000   -7.242371  131.926605 -100.351472   19.530945    0.000000    0.000000    0.000000    0.000000
  0.040600000   -7.240590  131.710281 -100.961541    2.201877    0.000000    0.000000    0.000000    0.000000
  0.040800000   -7.244190  131.534821  -99.152742   -2.183127    0.000000    0.000000    0.000000    0.000000
  0.041000000   -7.244994  131.336426  -99.887551   16.451628    0.000000    0.000000    0.000000    0.000000
  0.041200000   -7.252853  131.082489 -101.008305   11.395999    0.000000    0.000000    0.000000    0.000000
  0.041400000   -7.260481  130.845367  -98.869866    8.978361    0.000000    0.000000    0.000000    0.000000
  0.041600000   -7.260742  130.572220  -98.710999   21.894737    0.000000    0.000000    0.000000    0.000000
  0.041800000   -7.268871  130.314011 -101.600059   16.965607    0.000000    0.000000    0.000000    0.000000
  0.042000000   -7.270933  130.070526 -100.187481    3.990520    0.000000    0.000000    0.000000    0.000000
  0.042200000   -7.266362  129.808548  -99.898929   17.072578    0.000000    0.000000    0.000000    0.000000
  0.042400000   -7.266600  129.518616  -98.656543    9.057261    0.000000    0.000000    0.000000    0.000000
  0.042600000   -7.265452  129.265457 -100.420699   11.886741    0.000000    0.000000    0.000000    0.000000
  0.042800000   -7.254785  129.006622  -99.298695   -8.094203    0.000000    0.000000    0.000000    0.000000
