! Anritsu VNA Master:                     Model: MS2036C/10/77
! SN:                                  1601066
! /card0/usr/255.ew.sma.r50.1.s2p
! Existing Calibration Information:
! TYPE:                         Current Settings,       Active Cal Settings
! TIME:             	   12/17/2017 05:54:59 PM,    12/17/2017 05:44:58 PM
! INTERNAL TEMP:    	                   44.0 C,                    43.8 C
! # POINTS:         	                      501,                       501
! START FREQ:       	               10.000 MHz,                10.000 MHz
! STOP FREQ:        	          107.903 125 MHz,           107.903 125 MHz
! SOURCE POWER:     	                     High,                      High
! IFBW:             	                   100 Hz,                    100 Hz
! AVG FACTOR:       	                       1 ,                        1 
! REF PLANE 1:      	                     0 mm,                      0 mm
! REF PLANE 2:      	                     0 mm,                      0 mm
! CAL TYPE:         	                 Full S11,                  Full S11
! CAL METHOD:       	                     SOLT,                      SOLT
! CAL LINE TYPE:    	                     Coax,                      Coax
! DUT PORT 1:       	                K-Conn(F),                 K-Conn(F)
! DUT PORT 2:       	                K-Conn(F),                 K-Conn(F)
! CAL STATUS:       	        OK: Accuracy High,                        --
# GHZ S DB R 50.0
! FREQ.GHZ       S11DB        S11A       S21DB        S21A       S12DB        S12A       S22DB        S22A
  0.010000000  -45.103014   70.236214  -83.127740   78.527336 -121.551026  123.090584   -0.588002  172.280014
  0.010195806  -45.421433   69.029633  -83.639428   75.358078 -111.156652 -139.363144   -0.614261  171.756805
  0.010391613  -45.249851   68.654068  -83.308694   77.141174 -126.924351  159.437988   -0.615995  171.607132
  0.010587419  -44.920475   68.304817  -83.781306   72.612518 -110.403518  169.533417   -0.609453  171.463760
  0.010783225  -45.151423   70.003433  -83.541659   73.667900 -123.471967 -118.426804   -0.603912  171.313934
  0.010979031  -45.121273   68.487915  -84.107388   72.317253 -108.485646  -25.079380   -0.602774  171.182785
  0.011174837  -44.513642   68.165817  -83.912562   71.698326 -112.238377   44.568310   -0.641629  170.634628
  0.011370644  -44.531927   69.512665  -84.617085   70.043739 -106.363797   95.461937   -0.649560  170.514847
  0.011566450  -44.554756   69.286591  -84.631604   71.261047 -116.484481  179.403305   -0.649099  170.399200
  0.011762256  -44.539767   69.112373  -84.977453   67.788010 -117.543457   36.029179   -0.654176  170.303619
  0.011958062  -44.084577   69.851021  -85.377450   64.031639 -108.351844  150.243637   -0.659789  170.200134
  0.012153869  -44.054108   67.717667  -85.268180   66.034821 -113.479374   16.563011   -0.702788  169.681625
  0.012349675  -44.090603   66.958366  -85.629796   62.856880 -111.683410  -38.620892   -0.705224  169.584763
  0.012545481  -43.862651   67.802139  -85.741538   65.395134 -115.768900   81.070313   -0.707717  169.491028
  0.012741288  -43.773178   68.026085  -85.650926   64.834328 -109.346432 -177.272049   -0.712266  169.396820
  0.012937094  -43.703174   66.364334  -85.817352   63.218586 -106.561326   51.725491   -0.714128  169.322754
  0.013132900  -43.817541   67.853424  -86.525102   63.390141 -108.855432  100.628426   -0.755278  168.818695
  0.013328706  -43.407465   68.526382  -86.316317   62.562176 -111.240869  146.242569   -0.747527  168.735641
  0.013524512  -43.609087   68.363968  -86.478083   60.179668 -116.239749 -151.996811   -0.749421  168.642395
  0.013720319  -43.586708   66.389610  -86.438811   60.946220 -127.773927  -85.120300   -0.750694  168.559830
  0.013916125  -43.597931   67.520050  -86.893823   60.921879 -118.967092   13.924558   -0.755471  168.474503
  0.014111931  -43.496240   67.749733  -87.095392   58.696507 -118.306563  148.824936   -0.797071  167.981552
  0.014307738  -43.225967   66.671486  -87.613769   58.495098 -120.508967 -172.650208   -0.799777  167.897064
  0.014503544  -43.287726   68.199272  -87.099186   54.314968 -113.640095   52.540459   -0.800963  167.814285
  0.014699350  -43.310711   66.200745  -87.121041   53.888924 -111.101006   79.847672   -0.801783  167.728561
  0.014895156  -43.088199   66.128220  -87.547311   53.675549 -133.507521  143.059723   -0.801900  167.653992
  0.015090962  -43.282749   67.392715  -87.425541   54.464687 -110.669640   47.422878   -0.843783  167.157562
  0.015286769  -43.053564   65.998680  -87.487052   52.413513 -114.361939  -18.417633   -0.843418  167.073715
  0.015482575  -43.054629   66.793526  -88.207267   48.773476 -121.612739   37.868504   -0.854055  167.044769
  0.015678381  -42.987520   66.009422  -88.873958   53.439785 -112.365884   80.706100   -0.852160  166.965591
  0.015874188  -42.757436   65.768997  -88.421718   49.623600 -122.977025  -50.353245   -0.852816  166.881989
  0.016069994  -42.767032   64.940269  -89.140016   48.096882 -128.326234  149.822113   -0.891879  166.395218
  0.016265800  -42.747869   64.628426  -88.747831   50.342751 -116.028737  100.087273   -0.888744  166.305237
  0.016461606  -42.584137   64.526039  -88.309400   46.899849 -110.833777  -56.064945   -0.885923  166.221085
  0.016657412  -42.486940   64.249168  -88.728202   48.978794 -112.927601  -48.693142   -0.883155  166.126984
  0.016853219  -42.355409   63.678017  -89.165638   50.244202 -125.008940   10.147751   -0.876128  166.041672
  0.017049025  -42.261250   63.392796  -89.103522   46.121407 -127.818195 -124.950851   -0.869888  165.960388
  0.017244831  -42.333334   64.413040  -89.744424   45.025379 -108.774635   46.338692   -0.900610  165.446854
  0.017440638  -42.314384   62.761646  -89.394165   39.017002 -109.425291   -6.500253   -0.891359  165.364014
  0.017636444  -42.056943   62.410690  -89.422858   45.728176 -118.633488  -86.878387   -0.879652  165.261810
  0.017832250  -41.832248   62.830406  -89.849632   44.601337 -124.900723 -116.082840   -0.868588  165.178177
  0.018028056  -42.133035   63.626408  -90.102869   45.187206 -113.993178 -137.324570   -0.856089  165.077988
  0.018223862  -41.855420   62.786850  -90.533718   45.220974 -112.071745  151.757965   -0.885448  164.566574
  0.018419669  -41.725736   62.052113  -89.588587   42.089520 -112.795721  126.009529   -0.871182  164.466934
  0.018615475  -41.601684   62.233589  -90.091194   43.606773 -119.674813  -46.936306   -0.857169  164.364273
  0.018811281  -41.665216   62.456635  -90.964499   44.170197 -110.071080  108.215324   -0.848014  164.278214
  0.019007087  -41.589557   62.542637  -90.496100   36.712898 -118.932162  -11.081933   -0.834771  164.200165
  0.019202894  -41.477396   63.220444  -90.345264   36.829475 -107.887397   89.509285   -0.864009  163.696228
  0.019398700  -41.251798   63.103802  -90.897798   35.239212 -116.075511   71.500923   -0.855500  163.611160
  0.019594506  -41.326066   62.374741  -90.704391   38.923470 -129.780405   42.234722   -0.848278  163.526703
  0.019790313  -41.234542   62.755852  -90.728497   33.536121 -109.840737  105.814201   -0.841556  163.444016
  0.019986119  -41.196168   61.096027  -90.868452   41.787357 -121.017299  -73.751854   -0.835799  163.365189
  0.020181925  -41.341310   62.765129  -90.518664   40.695065 -110.450025   73.482491   -0.872162  162.876816
  0.020377731  -41.139276   62.676369  -91.869389   40.561619 -112.296097  129.033661   -0.867422  162.801773
  0.020573537  -40.991512   61.689106  -92.158724   42.035179 -104.268240   80.295792   -0.862540  162.725739
  0.020769344  -40.998121   62.037514  -91.478174   35.698433 -122.092630  103.785507   -0.856070  162.651520
  0.020965150  -41.006519   62.217648  -91.987862   35.311096 -127.857548  101.738205   -0.852374  162.579987
  0.021160956  -40.845487   62.125938  -91.603097   35.786385 -114.987294  141.108215   -0.889263  162.100601
  0.021356762  -40.744956   61.036503  -92.084335   32.743252 -113.996047  116.392471   -0.883818  162.024231
  0.021552569  -40.596786   61.867271  -92.632037   35.490993 -113.501736   32.522827   -0.880374  161.956390
  0.021748375  -40.658820   60.584679  -92.707211   33.719440 -110.053122   89.427773   -0.876627  161.888245
  0.021944181  -40.815587   61.943066  -92.540597   27.232054 -114.918952  130.254166   -0.870755  161.829468
  0.022139988  -40.806510   60.535114  -91.905133   35.972565 -109.498605   85.100288   -0.906048  161.346268
  0.022335794  -40.679265   60.021332  -93.361793   35.646824 -110.604504   98.679428   -0.902400  161.286819
  0.022531600  -40.464341   61.036182  -93.180400   28.750120 -126.680589   20.792585   -0.898519  161.221268
  0.022727406  -40.581906   60.578861  -93.245405   28.602898 -109.497724   10.574533   -0.895429  161.158081
  0.022923213  -40.565293   60.424538  -92.486527   36.277740 -119.097549  -40.095184   -0.893502  161.092819
  0.023119019  -40.497530   59.711823  -92.420874   31.658276 -117.408438  -56.498550   -0.889046  161.039612
  0.023314825  -40.513011   58.976421  -92.349775   29.547976 -111.241581   67.845367   -0.925890  160.560242
  0.023510631  -40.386560   60.187122  -93.332669   29.039207 -110.668326   61.570145   -0.922365  160.502884
  0.023706438  -40.370431   59.570354  -93.694724   27.517881 -112.831733   64.486412   -0.915899  160.445297
  0.023902244  -39.999410   59.342602  -92.779760   25.705976 -107.698071  -11.754658   -0.911649  160.387589
  0.024098050  -40.158912   57.997272  -94.270852   29.397045 -114.077297   31.168421   -0.910504  160.344269
  0.024293856  -39.905438   57.808727  -93.100521   27.323484 -122.512857   68.408165   -0.948098  159.873642
  0.024489662  -40.019561   57.810825  -94.046128   26.741667 -116.259922  116.540871   -0.944743  159.822617
  0.024685469  -39.855512   57.879063  -93.901011   26.586737 -117.592819  -91.314255   -0.942601  159.770721
  0.024881275  -39.873967   57.049232  -94.163505   27.369513 -111.355695  -52.751629   -0.939377  159.723038
  0.025077081  -39.794664   57.046349  -94.199272   18.873152 -125.612363  -72.947708   -0.935707  159.679108
  0.025272888  -39.789492   57.871784  -94.494879   19.933670 -106.952700   65.062126   -0.969485  159.218323
  0.025468694  -39.551544   57.207409  -93.771210   27.725475 -107.821492  -26.141514   -0.966333  159.166351
  0.025664500  -39.541970   57.230675  -93.887090   29.118395 -121.326864  -75.651421   -0.962978  159.121185
  0.025860306  -39.485108   57.352512  -94.662636   24.050114 -111.425904   14.889971   -0.959273  159.084610
  0.026056112  -39.439526   57.084667  -94.383057   24.957066 -116.309097   80.464020   -0.955207  159.044937
  0.026251919  -39.388556   56.148022  -95.606499   25.355843 -124.801187  -48.205074   -0.989896  158.602783
  0.026447725  -39.309011   55.980003  -96.239263   20.557272 -112.477810 -119.846512   -0.984489  158.552292
  0.026643531  -39.321510   56.175663  -95.397658   25.467312 -117.247881  -34.919773   -0.978173  158.505966
  0.026839338  -39.180156   56.802826  -95.536878   20.610996 -116.110321 -159.660614   -0.972568  158.463196
  0.027035144  -39.310865   56.945896  -94.606579   20.935627 -124.450296  -13.079736   -0.966604  158.427429
  0.027230950  -39.008821   56.776196  -96.720821   19.932980 -115.985216  -62.340797   -1.000079  157.981308
  0.027426756  -38.960920   56.587196  -96.241503   15.451587 -115.239973   82.773201   -0.991623  157.942337
  0.027622562  -38.964944   56.262901  -95.115050   18.269630 -114.350375   10.900688   -0.985227  157.900131
  0.027818369  -38.903772   56.805695  -94.925549   23.525421 -120.429335  -30.384640   -0.977702  157.862350
  0.028014175  -38.859150   57.059967  -95.653573   21.441591 -116.634765  -95.928818   -0.971432  157.833176
  0.028209981  -38.817987   57.186886  -96.355055   18.457491 -125.237919  -88.037346   -1.005765  157.393112
  0.028405788  -38.682407   56.674232  -95.966195   27.602720 -121.460197  123.516090   -0.998950  157.366150
  0.028601594  -38.715180   56.838676  -96.195515   14.736985 -115.368776   47.006920   -0.992703  157.335312
  0.028797400  -38.665481   56.118820  -95.934487   20.003994 -121.261446  117.219650   -0.985777  157.307083
  0.028993206  -38.686781   56.744011  -95.436396   19.601353 -120.980491   43.475235   -0.976814  157.279465
  0.029189013  -38.566973   56.884235  -96.184012   22.421345 -112.787603   -2.964338   -0.970201  157.248337
  0.029384819  -38.639602   56.220936  -96.510448   16.943157 -110.456135    1.921647   -1.002081  156.798050
  0.029580625  -38.547649   56.153347  -97.565531   21.860497 -120.599582   87.565643   -0.995972  156.762802
  0.029776431  -38.566262   56.577160  -97.194548   15.575203 -113.770065   -6.484373   -0.989049  156.724045
  0.029972237  -38.460618   56.493919  -95.951373   13.993817 -114.452400   -3.798218   -0.981680  156.686630
  0.030168044  -38.453314   56.333698  -96.123264   16.007896 -125.360251  -60.611351   -0.975141  156.638123
  0.030363850  -38.447171   55.871334  -96.968691   16.355597 -112.997191   24.053099   -1.008138  156.171326
  0.030559656  -38.442030   56.134506  -97.373642   28.493317 -109.839780  -59.216709   -1.001792  156.108322
  0.030755463  -38.370335   55.642441  -97.146725   13.160417 -112.229369    7.455657   -0.993341  156.050156
  0.030951269  -38.249974   55.832188  -96.932730   22.177099 -115.473982   58.655998   -0.984626  155.986481
  0.031147075  -38.341568   56.066074  -98.575532   16.871399 -117.825170  -50.930450   -0.876666  155.984009
  0.031342881  -38.300921   54.980480  -97.807849    6.425798 -114.824700 -128.705917   -0.911733  155.520050
  0.031538687  -38.331787   55.024899  -95.560119   20.727707 -116.780293 -147.658554   -0.907429  155.460693
  0.031734494  -38.237906   55.294769  -98.179526   17.220821 -120.072497   44.671944   -0.902460  155.411774
  0.031930300  -38.126470   55.010895  -97.976519   12.275922 -117.469135 -139.636169   -0.897755  155.367828
  0.032126106  -38.015408   54.423580  -99.269024    8.975294 -120.182245    0.196644   -0.893550  155.307114
  0.032321913  -38.166969   54.351109  -97.179249   17.478622 -106.341533 -160.197754   -0.928837  154.846283
  0.032517719  -38.137044   54.509010  -98.267718   19.355524 -117.009232  -67.493828   -0.924062  154.782776
  0.032713525  -37.957482   54.292294  -96.800625    7.052639 -123.824544  -99.594749   -0.918263  154.722549
  0.032909331  -37.981351   54.071049  -97.640253   10.521385 -123.259201   13.841915   -0.914066  154.676071
  0.033105137  -37.897660   54.100121  -98.543091   14.161644 -117.548235  150.040817   -0.908681  154.611359
  0.033300944  -37.836608   53.670574  -97.314607   17.959814 -108.862164  147.571304   -0.943148  154.146454
  0.033496750  -37.871823   53.637394 -100.243589   30.613483 -109.991591    2.126992   -0.935431  154.091110
  0.033692556  -37.940774   53.873268  -97.123055    8.963342 -118.763568  113.238342   -0.929485  154.030319
  0.033888362  -37.830816   53.156166  -97.222162   12.003757 -115.608759  165.669937   -0.921568  153.972961
  0.034084169  -37.719905   53.005638  -97.140786   17.135967 -117.905095  115.361732   -0.914814  153.922867
  0.034279975  -37.728488   52.738590  -98.072354    5.965950 -114.119782 -151.539337   -0.948022  153.463150
  0.034475781  -37.545244   52.774197  -97.659798    6.812079 -113.442128  -73.653152   -0.940115  153.409241
  0.034671588  -37.543462   52.114872  -97.483139   10.096834 -110.265861    0.392001   -0.931658  153.353912
  0.034867394  -37.618217   52.211739  -99.022205    7.841103 -128.169106  -31.275003   -0.923968  153.307480
  0.035063200  -37.350727   51.362816  -97.441751   10.734907 -106.587751   96.384781   -0.916763  153.250885
  0.035259006  -37.465563   51.953190  -97.680075   12.525987 -120.661920   46.926376   -0.907633  153.202286
  0.035454812  -37.390711   51.466686  -97.890174   18.120937 -115.222888   -7.413298   -0.938553  152.724701
  0.035650619  -37.317426   51.532215  -98.543092    5.528223 -113.237674  -78.588310   -0.928871  152.670944
  0.035846425  -37.209843   51.620548  -98.143649   11.260205 -122.285963 -125.612724   -0.920601  152.619873
  0.036042231  -37.152009   50.796219 -100.034559   13.963766 -113.965939   29.771938   -0.911653  152.545914
  0.036238037  -37.102373   51.556686  -98.575223   12.370042 -116.861371  112.477043   -0.902108  152.496780
  0.036433844  -37.157036   51.522770  -99.468415   12.703190 -108.103811   43.290306   -0.932495  152.009705
  0.036629650  -37.017564   51.099552  -99.071037   10.512506 -116.506693  -10.614599   -0.923920  151.945496
  0.036825456  -37.063305   51.493053  -98.565586    9.536651 -120.588856    4.599552   -0.913840  151.887848
  0.037021262  -37.026704   50.503021  -99.374979    9.616470 -108.701394   66.324974   -0.903989  151.816559
  0.037217069  -36.996740   51.436317  -98.007207   10.638560 -120.053872  123.332687   -0.891927  151.756424
  0.037412875  -36.851074   51.159824  -99.796102   11.522482 -109.888176  -63.753239   -0.922009  151.283508
  0.037608681  -36.937296   51.033844  -99.807065   12.166444 -115.193577   -2.582661   -0.913091  151.219177
  0.037804487  -36.790684   50.909294 -100.187533   15.105375 -115.256414 -161.371933   -0.904891  151.163330
  0.038000294  -36.644401   51.091526 -100.281822    7.191651 -113.809407   96.819168   -0.895764  151.106903
  0.038196100  -36.667973   51.113499  -99.502890   16.968950 -113.873201  -51.141304   -0.885679  151.058258
  0.038391906  -36.606315   51.419682 -100.402622   11.339439 -111.760013  -11.374333   -0.916429  150.581467
  0.038587713  -36.724403   51.147156  -97.472803   15.553090 -115.628221 -161.198868   -0.906719  150.523926
  0.038783519  -36.628480   50.182716  -99.945405    4.844703 -109.878532   72.779015   -0.898163  150.452744
  0.038979325  -36.472126   51.072174 -100.969479   17.529844 -113.830854  -21.537081   -0.889410  150.382401
  0.039175131  -36.529256   50.683384 -100.298587    1.326894 -118.901654   40.253765   -0.881858  150.322205
  0.039370938  -36.533191   50.876251 -101.096708    8.156018 -114.070028   70.839821   -0.914108  149.839920
  0.039566744  -36.403931   51.473270 -101.105861   -4.120235 -118.965084  141.440338   -0.906194  149.769821
  0.039762550  -36.396258   51.453476  -99.611572   -4.293241 -115.839235   63.760300   -0.899124  149.708054
  0.039958356  -36.312620   51.030930  -98.552777    3.475495 -115.146282   -5.103358   -0.890159  149.645447
  0.040154163  -36.339265   51.730835  -98.871673   -1.948702 -108.521410   27.691727   -0.883450  149.578644
  0.040349969  -36.286355   50.770267 -101.044591   -2.990144 -114.709873   66.129143   -0.916377  149.102448
  0.040545775  -36.351363   51.432522 -100.482831    3.467560 -110.409344   42.207882   -0.909644  149.049728
  0.040741581  -36.333171   51.024303 -100.664092   -7.165597 -113.910813   87.622513   -0.902832  148.980576
  0.040937387  -36.328025   51.483017 -100.634484   -2.804683 -111.863623   90.796791   -0.891548  148.931946
  0.041133194  -36.299196   51.041725 -103.369696    7.050982 -115.885979   47.377289   -0.884984  148.863113
  0.041329000  -36.261711   50.878483 -100.124773  -12.610899 -110.551919  114.400314   -0.918895  148.398209
  0.041524806  -36.219290   51.094570 -102.729839   18.547310 -118.538258  -26.947605   -0.912100  148.326675
  0.041720612  -36.188128   50.569191 -100.989170   15.780797 -117.343981   -9.548753   -0.903495  148.263336
  0.041916419  -36.280087   50.663677  -99.534853   -3.196929 -137.031626   52.220791   -0.896089  148.198227
  0.042112225  -36.187023   51.577862 -100.397865   19.635752 -119.488719  -51.782036   -0.889894  148.144653
