! Anritsu VNA Master:                     Model: MS2036C/10/77
! SN:                                  1601066
! /card0/usr/255.ew.sma.r20.22.s2p
! Existing Calibration Information:
! TYPE:                         Current Settings,       Active Cal Settings
! TIME:             	   12/19/2017 06:23:16 PM,    12/19/2017 06:04:41 PM
! INTERNAL TEMP:    	                   41.8 C,                    39.8 C
! # POINTS:         	                      501,                       501
! START FREQ:       	               10.000 MHz,                10.000 MHz
! STOP FREQ:        	              110.000 MHz,               110.000 MHz
! SOURCE POWER:     	                     High,                      High
! IFBW:             	                   100 Hz,                    100 Hz
! AVG FACTOR:       	                       1 ,                        1 
! REF PLANE 1:      	                     0 mm,                      0 mm
! REF PLANE 2:      	                     0 mm,                      0 mm
! CAL TYPE:         	                 Full S11,                  Full S11
! CAL METHOD:       	                     SOLT,                      SOLT
! CAL LINE TYPE:    	                     Coax,                      Coax
! DUT PORT 1:       	                N-Conn(F),                 N-Conn(F)
! DUT PORT 2:       	                K-Conn(F),                 K-Conn(F)
! CAL STATUS:       	        OK: Accuracy High,                        --
# GHZ S DB R 50.0
! FREQ.GHZ       S11DB        S11A       S21DB        S21A       S12DB        S12A       S22DB        S22A
  0.010000000   -7.216647  167.858902  -82.717171   78.255913    0.000000    0.000000    0.000000    0.000000
  0.010200000   -7.201235  167.666626  -83.067315   75.826134    0.000000    0.000000    0.000000    0.000000
  0.010400000   -7.199677  167.488785  -82.989550   72.401962    0.000000    0.000000    0.000000    0.000000
  0.010600000   -7.210148  167.226059  -82.659134   71.537277    0.000000    0.000000    0.000000    0.000000
  0.010800000   -7.208018  166.995605  -83.334789   70.080856    0.000000    0.000000    0.000000    0.000000
  0.011000000   -7.209499  166.766052  -83.495297   70.554497    0.000000    0.000000    0.000000    0.000000
  0.011200000   -7.210615  166.545959  -83.601177   67.449875    0.000000    0.000000    0.000000    0.000000
  0.011400000   -7.210163  166.307404  -84.164897   66.453506    0.000000    0.000000    0.000000    0.000000
  0.011600000   -7.215862  166.069382  -84.216244   63.943684    0.000000    0.000000    0.000000    0.000000
  0.011800000   -7.215899  165.866425  -85.137708   61.345291    0.000000    0.000000    0.000000    0.000000
  0.012000000   -7.220103  165.594452  -84.829494   61.342484    0.000000    0.000000    0.000000    0.000000
  0.012200000   -7.223413  165.347229  -85.480438   63.249641    0.000000    0.000000    0.000000    0.000000
  0.012400000   -7.225982  165.086960  -85.591631   60.222004    0.000000    0.000000    0.000000    0.000000
  0.012600000   -7.226749  164.824249  -86.228533   62.096214    0.000000    0.000000    0.000000    0.000000
  0.012800000   -7.232973  164.585953  -86.588344   60.755497    0.000000    0.000000    0.000000    0.000000
  0.013000000   -7.234748  164.351013  -86.679532   57.342915    0.000000    0.000000    0.000000    0.000000
  0.013200000   -7.238885  164.079742  -86.759480   59.267975    0.000000    0.000000    0.000000    0.000000
  0.013400000   -7.237281  163.824081  -86.856716   60.351456    0.000000    0.000000    0.000000    0.000000
  0.013600000   -7.233802  163.600800  -87.317978   59.533916    0.000000    0.000000    0.000000    0.000000
  0.013800000   -7.229005  163.365753  -87.487762   58.089420    0.000000    0.000000    0.000000    0.000000
  0.014000000   -7.234741  163.090439  -87.280661   60.433273    0.000000    0.000000    0.000000    0.000000
  0.014200000   -7.232479  162.843369  -87.544759   62.834366    0.000000    0.000000    0.000000    0.000000
  0.014400000   -7.232365  162.604507  -88.216907   58.468536    0.000000    0.000000    0.000000    0.000000
  0.014600000   -7.233287  162.362869  -88.029239   58.293209    0.000000    0.000000    0.000000    0.000000
  0.014800000   -7.236376  162.119293  -88.427236   60.464401    0.000000    0.000000    0.000000    0.000000
  0.015000000   -7.237593  161.848618  -87.924189   57.946827    0.000000    0.000000    0.000000    0.000000
  0.015200000   -7.235447  161.612320  -88.198392   56.106598    0.000000    0.000000    0.000000    0.000000
  0.015400000   -7.233116  161.376221  -88.047521   54.104713    0.000000    0.000000    0.000000    0.000000
  0.015600000   -7.232526  161.049393  -88.399851   57.518246    0.000000    0.000000    0.000000    0.000000
  0.015800000   -7.232670  160.891296  -88.144777   54.020527    0.000000    0.000000    0.000000    0.000000
  0.016000000   -7.234447  160.670364  -87.985979   57.377831    0.000000    0.000000    0.000000    0.000000
  0.016200000   -7.233472  160.444305  -87.931338   52.515419    0.000000    0.000000    0.000000    0.000000
  0.016400000   -7.231009  160.248795  -88.571995   51.980221    0.000000    0.000000    0.000000    0.000000
  0.016600000   -7.233025  160.018463  -88.176518   46.887726    0.000000    0.000000    0.000000    0.000000
  0.016800000   -7.232408  159.796051  -88.726037   47.996262    0.000000    0.000000    0.000000    0.000000
  0.017000000   -7.233665  159.568741  -89.209065   46.973145    0.000000    0.000000    0.000000    0.000000
  0.017200000   -7.233418  159.309265  -89.217683   48.218063    0.000000    0.000000    0.000000    0.000000
  0.017400000   -7.237717  159.110306  -88.894593   41.381893    0.000000    0.000000    0.000000    0.000000
  0.017600000   -7.237461  158.881927  -88.928994   37.203274    0.000000    0.000000    0.000000    0.000000
  0.017800000   -7.240848  158.628647  -89.172549   39.850788    0.000000    0.000000    0.000000    0.000000
  0.018000000   -7.241816  158.389282  -89.470257   44.289417    0.000000    0.000000    0.000000    0.000000
  0.018200000   -7.242970  158.185211  -90.135334   41.495003    0.000000    0.000000    0.000000    0.000000
  0.018400000   -7.247759  157.955597  -89.620091   34.994877    0.000000    0.000000    0.000000    0.000000
  0.018600000   -7.255656  157.714233  -90.166014   39.063236    0.000000    0.000000    0.000000    0.000000
  0.018800000   -7.255304  157.475708  -90.485722   39.571774    0.000000    0.000000    0.000000    0.000000
  0.019000000   -7.255044  157.232819  -90.952170   38.880959    0.000000    0.000000    0.000000    0.000000
  0.019200000   -7.256067  157.013336  -90.399964   36.002335    0.000000    0.000000    0.000000    0.000000
  0.019400000   -7.259462  156.781265  -90.895088   39.299694    0.000000    0.000000    0.000000    0.000000
  0.019600000   -7.265062  156.530899  -91.010838   35.476440    0.000000    0.000000    0.000000    0.000000
  0.019800000   -7.265665  156.271423  -91.636024   33.277225    0.000000    0.000000    0.000000    0.000000
  0.020000000   -7.267598  156.040482  -91.322114   36.085728    0.000000    0.000000    0.000000    0.000000
  0.020200000   -7.269420  155.780197  -91.513862   38.075481    0.000000    0.000000    0.000000    0.000000
  0.020400000   -7.258901  155.522629  -92.226162   38.707413    0.000000    0.000000    0.000000    0.000000
  0.020600000   -7.259292  155.289474  -91.366414   36.417244    0.000000    0.000000    0.000000    0.000000
  0.020800000   -7.256622  155.032486  -92.234967   33.430855    0.000000    0.000000    0.000000    0.000000
  0.021000000   -7.258833  154.759659  -92.211132   33.790863    0.000000    0.000000    0.000000    0.000000
  0.021200000   -7.257047  154.524704  -92.461594   36.622852    0.000000    0.000000    0.000000    0.000000
  0.021400000   -7.256233  154.271042  -91.738509   38.147144    0.000000    0.000000    0.000000    0.000000
  0.021600000   -7.257804  154.055374  -92.956840   39.943821    0.000000    0.000000    0.000000    0.000000
  0.021800000   -7.253490  153.817368  -91.599699   40.011589    0.000000    0.000000    0.000000    0.000000
  0.022000000   -7.259159  153.567795  -92.086290   41.945313    0.000000    0.000000    0.000000    0.000000
  0.022200000   -7.263226  153.298111  -92.117898   35.373020    0.000000    0.000000    0.000000    0.000000
  0.022400000   -7.261024  153.090256  -93.150067   36.047394    0.000000    0.000000    0.000000    0.000000
  0.022600000   -7.261840  152.856171  -91.287744   31.219057    0.000000    0.000000    0.000000    0.000000
  0.022800000   -7.265341  152.658676  -92.363761   35.822803    0.000000    0.000000    0.000000    0.000000
  0.023000000   -7.260516  152.402832  -93.683133   30.781990    0.000000    0.000000    0.000000    0.000000
  0.023200000   -7.258411  152.172913  -91.908843   30.004860    0.000000    0.000000    0.000000    0.000000
  0.023400000   -7.258090  151.937698  -92.464105   30.305347    0.000000    0.000000    0.000000    0.000000
  0.023600000   -7.257320  151.681519  -92.330918   29.729654    0.000000    0.000000    0.000000    0.000000
  0.023800000   -7.253260  151.468597  -93.027909   27.849352    0.000000    0.000000    0.000000    0.000000
  0.024000000   -7.255890  151.219940  -93.084151   31.499979    0.000000    0.000000    0.000000    0.000000
  0.024200000   -7.257284  150.970367  -94.411792   27.571070    0.000000    0.000000    0.000000    0.000000
  0.024400000   -7.258215  150.742905  -93.876034   22.344107    0.000000    0.000000    0.000000    0.000000
  0.024600000   -7.254344  150.480576  -93.123650   19.995005    0.000000    0.000000    0.000000    0.000000
  0.024800000   -7.252425  150.241470  -93.361086   29.686543    0.000000    0.000000    0.000000    0.000000
  0.025000000   -7.251442  150.011765  -94.083495   16.043154    0.000000    0.000000    0.000000    0.000000
  0.025200000   -7.254098  149.786835  -94.683028   18.856192    0.000000    0.000000    0.000000    0.000000
  0.025400000   -7.252992  149.571091  -93.890538   19.545794    0.000000    0.000000    0.000000    0.000000
  0.025600000   -7.259702  149.350494  -95.157977   17.079144    0.000000    0.000000    0.000000    0.000000
  0.025800000   -7.254755  149.134964  -94.059703   27.099436    0.000000    0.000000    0.000000    0.000000
  0.026000000   -7.261729  148.902512  -95.109631   30.562922    0.000000    0.000000    0.000000    0.000000
  0.026200000   -7.260302  148.690781  -95.847193   30.935795    0.000000    0.000000    0.000000    0.000000
  0.026400000   -7.265555  148.399277  -95.253470   24.538919    0.000000    0.000000    0.000000    0.000000
  0.026600000   -7.261768  148.173477  -95.051497   25.341509    0.000000    0.000000    0.000000    0.000000
  0.026800000   -7.267288  147.946182  -95.854495   24.668718    0.000000    0.000000    0.000000    0.000000
  0.027000000   -7.264493  147.685730  -97.531465   22.253998    0.000000    0.000000    0.000000    0.000000
  0.027200000   -7.261231  147.414108  -94.878323   25.423250    0.000000    0.000000    0.000000    0.000000
  0.027400000   -7.256612  147.151260  -95.742738   23.232277    0.000000    0.000000    0.000000    0.000000
  0.027600000   -7.255504  146.913986  -96.119679   13.401335    0.000000    0.000000    0.000000    0.000000
  0.027800000   -7.250678  146.654175  -96.026178   29.705511    0.000000    0.000000    0.000000    0.000000
  0.028000000   -7.248717  146.429169  -95.490799   27.420576    0.000000    0.000000    0.000000    0.000000
  0.028200000   -7.249188  146.172607  -95.503309   23.916723    0.000000    0.000000    0.000000    0.000000
  0.028400000   -7.244777  145.946899  -96.481761   26.193253    0.000000    0.000000    0.000000    0.000000
  0.028600000   -7.242095  145.767792  -96.185963   24.463694    0.000000    0.000000    0.000000    0.000000
  0.028800000   -7.237297  145.581833  -95.986335   20.697262    0.000000    0.000000    0.000000    0.000000
  0.029000000   -7.237673  145.392807  -95.599064   19.856159    0.000000    0.000000    0.000000    0.000000
  0.029200000   -7.235104  145.211334  -96.408549   15.307263    0.000000    0.000000    0.000000    0.000000
  0.029400000   -7.234287  145.055603  -96.234774   20.439150    0.000000    0.000000    0.000000    0.000000
  0.029600000   -7.235417  144.877533  -96.051356   17.008205    0.000000    0.000000    0.000000    0.000000
  0.029800000   -7.239151  144.665833  -96.120753   17.987270    0.000000    0.000000    0.000000    0.000000
  0.030000000   -7.243148  144.450882  -96.005355   13.781077    0.000000    0.000000    0.000000    0.000000
  0.030200000   -7.246463  144.206680  -96.659256   17.197855    0.000000    0.000000    0.000000    0.000000
  0.030400000   -7.245845  144.011063  -97.006900   16.943504    0.000000    0.000000    0.000000    0.000000
  0.030600000   -7.251654  143.737808  -96.936368   19.000101    0.000000    0.000000    0.000000    0.000000
  0.030800000   -7.251873  143.500916  -97.968390   14.847161    0.000000    0.000000    0.000000    0.000000
  0.031000000   -7.258458  143.255981  -97.480842   24.237364    0.000000    0.000000    0.000000    0.000000
  0.031200000   -7.254898  143.078293  -97.958606   15.915601    0.000000    0.000000    0.000000    0.000000
  0.031400000   -7.261177  142.809921  -97.532383   12.677469    0.000000    0.000000    0.000000    0.000000
  0.031600000   -7.264557  142.546524  -97.233705   18.017389    0.000000    0.000000    0.000000    0.000000
  0.031800000   -7.266297  142.286713  -97.788871    9.011467    0.000000    0.000000    0.000000    0.000000
  0.032000000   -7.265682  142.075714  -96.466505    8.937432    0.000000    0.000000    0.000000    0.000000
  0.032200000   -7.264293  141.802750  -96.811032   10.255838    0.000000    0.000000    0.000000    0.000000
  0.032400000   -7.261832  141.571060  -97.256287    9.507350    0.000000    0.000000    0.000000    0.000000
  0.032600000   -7.260425  141.336273  -97.465506   12.375261    0.000000    0.000000    0.000000    0.000000
  0.032800000   -7.259833  141.116135  -98.210463    1.420455    0.000000    0.000000    0.000000    0.000000
  0.033000000   -7.256998  140.874664  -97.898655    9.955845    0.000000    0.000000    0.000000    0.000000
  0.033200000   -7.259274  140.666595  -96.692429   11.280525    0.000000    0.000000    0.000000    0.000000
  0.033400000   -7.262414  140.428207  -98.450830    3.844179    0.000000    0.000000    0.000000    0.000000
  0.033600000   -7.267714  140.250122  -97.041227   20.497622    0.000000    0.000000    0.000000    0.000000
  0.033800000   -7.267463  139.956314  -98.198774   11.674081    0.000000    0.000000    0.000000    0.000000
  0.034000000   -7.270100  139.667130  -99.395453   10.217155    0.000000    0.000000    0.000000    0.000000
  0.034200000   -7.271549  139.380264  -98.866077    8.048033    0.000000    0.000000    0.000000    0.000000
  0.034400000   -7.273982  139.095215  -97.625792   13.937938    0.000000    0.000000    0.000000    0.000000
  0.034600000   -7.276291  138.826569  -99.516243   15.392592    0.000000    0.000000    0.000000    0.000000
  0.034800000   -7.273577  138.557297  -97.379424    1.211352    0.000000    0.000000    0.000000    0.000000
  0.035000000   -7.279523  138.270920 -100.228739   12.443418    0.000000    0.000000    0.000000    0.000000
  0.035200000   -7.271660  138.036362  -96.186241   24.428421    0.000000    0.000000    0.000000    0.000000
  0.035400000   -7.261544  137.777222  -99.100992    9.037539    0.000000    0.000000    0.000000    0.000000
  0.035600000   -7.258757  137.530045  -98.912525    8.077891    0.000000    0.000000    0.000000    0.000000
  0.035800000   -7.254516  137.316040  -97.029467    1.265959    0.000000    0.000000    0.000000    0.000000
  0.036000000   -7.243702  137.066330 -100.081070   13.239537    0.000000    0.000000    0.000000    0.000000
  0.036200000   -7.237839  136.855087  -99.034718    2.238280    0.000000    0.000000    0.000000    0.000000
  0.036400000   -7.230999  136.667053 -100.892054   17.681652    0.000000    0.000000    0.000000    0.000000
  0.036600000   -7.225631  136.481186 -101.401972    3.233610    0.000000    0.000000    0.000000    0.000000
  0.036800000   -7.222858  136.286438 -100.059053    8.956753    0.000000    0.000000    0.000000    0.000000
  0.037000000   -7.226658  136.125992  -97.919758    2.156011    0.000000    0.000000    0.000000    0.000000
  0.037200000   -7.226784  135.963348  -98.003486    8.459106    0.000000    0.000000    0.000000    0.000000
  0.037400000   -7.233966  135.724945  -99.257682    9.407997    0.000000    0.000000    0.000000    0.000000
  0.037600000   -7.233655  135.509186  -99.336766    5.449555    0.000000    0.000000    0.000000    0.000000
  0.037800000   -7.237270  135.281876  -98.066348   10.163795    0.000000    0.000000    0.000000    0.000000
  0.038000000   -7.249970  135.063568  -99.378185   17.815792    0.000000    0.000000    0.000000    0.000000
  0.038200000   -7.257137  134.818558 -101.503564   -1.819335    0.000000    0.000000    0.000000    0.000000
  0.038400000   -7.260995  134.602951 -100.064357   20.001822    0.000000    0.000000    0.000000    0.000000
  0.038600000   -7.267267  134.367981 -100.739901   -2.311230    0.000000    0.000000    0.000000    0.000000
  0.038800000   -7.269378  134.113235  -98.572943   -1.139507    0.000000    0.000000    0.000000    0.000000
  0.039000000   -7.271036  133.887238 -100.074835    9.354088    0.000000    0.000000    0.000000    0.000000
  0.039200000   -7.275556  133.633911 -103.434310   11.380998    0.000000    0.000000    0.000000    0.000000
  0.039400000   -7.275433  133.363358 -101.240181  -11.708829    0.000000    0.000000    0.000000    0.000000
  0.039600000   -7.275261  133.104767  -98.675350   -1.711174    0.000000    0.000000    0.000000    0.000000
  0.039800000   -7.272978  132.816162 -102.266219   13.112812    0.000000    0.000000    0.000000    0.000000
  0.040000000   -7.268564  132.534805 -104.426799   19.318283    0.000000    0.000000    0.000000    0.000000
  0.040200000   -7.267202  132.288483 -100.368125    0.104977    0.000000    0.000000    0.000000    0.000000
  0.040400000   -7.260958  132.071823 -101.301409    9.907103    0.000000    0.000000    0.000000    0.000000
  0.040600000   -7.257318  131.825119 -101.595527    2.557923    0.000000    0.000000    0.000000    0.000000
  0.040800000   -7.262032  131.624252 -100.336343    0.371383    0.000000    0.000000    0.000000    0.000000
  0.041000000   -7.261120  131.401077 -100.608490    9.085966    0.000000    0.000000    0.000000    0.000000
  0.041200000   -7.268656  131.151199 -101.648983    8.681585    0.000000    0.000000    0.000000    0.000000
  0.041400000   -7.271881  130.906433 -100.387966    9.625600    0.000000    0.000000    0.000000    0.000000
  0.041600000   -7.277182  130.628052  -99.314415    8.660857    0.000000    0.000000    0.000000    0.000000
  0.041800000   -7.277783  130.374023  -99.254809    6.466019    0.000000    0.000000    0.000000    0.000000
  0.042000000   -7.279306  130.113052  -99.967309   19.084311    0.000000    0.000000    0.000000    0.000000
  0.042200000   -7.275109  129.849075 -101.249260   13.651463    0.000000    0.000000    0.000000    0.000000
  0.042400000   -7.272152  129.566528 -101.173609   -0.682373    0.000000    0.000000    0.000000    0.000000
  0.042600000   -7.269445  129.314529 -102.197203   15.581581    0.000000    0.000000    0.000000    0.000000
  0.042800000   -7.258797  129.022446  -98.856501    5.376832    0.000000    0.000000    0.000000    0.000000
