! Anritsu VNA Master:                     Model: MS2036C/10/77
! SN:                                  1601066
! /card0/usr/255.ew.n.r50.2.s2p
! Existing Calibration Information:
! TYPE:                         Current Settings,       Active Cal Settings
! TIME:             	   12/17/2017 06:54:16 PM,    12/17/2017 06:38:14 PM
! INTERNAL TEMP:    	                   42.8 C,                    43.8 C
! # POINTS:         	                      501,                       501
! START FREQ:       	               10.000 MHz,                10.000 MHz
! STOP FREQ:        	          107.903 125 MHz,           107.903 125 MHz
! SOURCE POWER:     	                     High,                      High
! IFBW:             	                   100 Hz,                    100 Hz
! AVG FACTOR:       	                       1 ,                        1 
! REF PLANE 1:      	                     0 mm,                      0 mm
! REF PLANE 2:      	                     0 mm,                      0 mm
! CAL TYPE:         	                 Full S11,                  Full S11
! CAL METHOD:       	                     SOLT,                      SOLT
! CAL LINE TYPE:    	                     Coax,                      Coax
! DUT PORT 1:       	                N-Conn(F),                 N-Conn(F)
! DUT PORT 2:       	                K-Conn(F),                 K-Conn(F)
! CAL STATUS:       	        OK: Accuracy High,                        --
# GHZ S DB R 50.0
! FREQ.GHZ       S11DB        S11A       S21DB        S21A       S12DB        S12A       S22DB        S22A
  0.010000000  -44.786405   42.880390  -83.132339   79.795975    0.000000    0.000000    0.000000    0.000000
  0.010195806  -44.126744   43.986988  -83.624081   78.914162    0.000000    0.000000    0.000000    0.000000
  0.010391613  -43.956388   43.479004  -83.533720   72.694733    0.000000    0.000000    0.000000    0.000000
  0.010587419  -43.665441   45.472717  -83.832977   75.825226    0.000000    0.000000    0.000000    0.000000
  0.010783225  -43.353080   47.411797  -84.067208   71.207794    0.000000    0.000000    0.000000    0.000000
  0.010979031  -43.028528   47.777905  -83.949103   71.919052    0.000000    0.000000    0.000000    0.000000
  0.011174837  -42.717963   50.142769  -84.619352   71.255180    0.000000    0.000000    0.000000    0.000000
  0.011370644  -42.732204   51.030560  -84.366829   73.766357    0.000000    0.000000    0.000000    0.000000
  0.011566450  -42.415803   52.381573  -84.462117   68.448853    0.000000    0.000000    0.000000    0.000000
  0.011762256  -42.394980   52.635246  -84.991029   66.280258    0.000000    0.000000    0.000000    0.000000
  0.011958062  -42.339206   55.836510  -85.234636   69.928696    0.000000    0.000000    0.000000    0.000000
  0.012153869  -42.117774   56.022358  -85.429103   65.288017    0.000000    0.000000    0.000000    0.000000
  0.012349675  -42.289773   57.562302  -85.673103   64.868050    0.000000    0.000000    0.000000    0.000000
  0.012545481  -42.183816   59.764874  -86.505697   63.911774    0.000000    0.000000    0.000000    0.000000
  0.012741288  -42.161380   58.674564  -85.605461   64.831947    0.000000    0.000000    0.000000    0.000000
  0.012937094  -42.381262   59.094044  -86.126709   61.460331    0.000000    0.000000    0.000000    0.000000
  0.013132900  -42.324807   59.619217  -86.662904   62.800972    0.000000    0.000000    0.000000    0.000000
  0.013328706  -42.469353   60.259132  -86.761771   62.524452    0.000000    0.000000    0.000000    0.000000
  0.013524512  -42.702358   61.034412  -86.887379   60.537243    0.000000    0.000000    0.000000    0.000000
  0.013720319  -42.782124   60.049221  -86.955086   57.792778    0.000000    0.000000    0.000000    0.000000
  0.013916125  -42.870948   58.842552  -86.969006   57.867035    0.000000    0.000000    0.000000    0.000000
  0.014111931  -42.810665   58.260571  -87.467985   59.838371    0.000000    0.000000    0.000000    0.000000
  0.014307738  -43.044390   56.320084  -87.633000   58.171539    0.000000    0.000000    0.000000    0.000000
  0.014503544  -43.134400   54.898521  -87.007864   55.445522    0.000000    0.000000    0.000000    0.000000
  0.014699350  -42.982867   54.540558  -87.135526   58.125980    0.000000    0.000000    0.000000    0.000000
  0.014895156  -42.846572   52.806408  -87.697102   53.475239    0.000000    0.000000    0.000000    0.000000
  0.015090962  -42.976548   53.684311  -87.960891   53.414734    0.000000    0.000000    0.000000    0.000000
  0.015286769  -42.660192   50.859142  -87.811291   53.416264    0.000000    0.000000    0.000000    0.000000
  0.015482575  -42.606791   49.494022  -87.694831   52.933182    0.000000    0.000000    0.000000    0.000000
  0.015678381  -42.419463   47.390507  -88.491179   51.887379    0.000000    0.000000    0.000000    0.000000
  0.015874188  -42.283331   47.143364  -88.070211   49.982040    0.000000    0.000000    0.000000    0.000000
  0.016069994  -41.903268   47.053074  -88.434824   48.529312    0.000000    0.000000    0.000000    0.000000
  0.016265800  -41.862958   45.971531  -88.755755   49.729317    0.000000    0.000000    0.000000    0.000000
  0.016461606  -41.424253   45.093605  -89.146445   48.967953    0.000000    0.000000    0.000000    0.000000
  0.016657412  -41.217462   46.481064  -88.921709   48.121368    0.000000    0.000000    0.000000    0.000000
  0.016853219  -41.015422   46.072266  -88.899117   45.936829    0.000000    0.000000    0.000000    0.000000
  0.017049025  -40.713178   46.090755  -88.913675   47.456543    0.000000    0.000000    0.000000    0.000000
  0.017244831  -40.499873   46.201000  -89.430178   38.232761    0.000000    0.000000    0.000000    0.000000
  0.017440638  -40.489802   46.685249  -89.749245   43.159370    0.000000    0.000000    0.000000    0.000000
  0.017636444  -40.203048   47.887665  -89.604635   41.770538    0.000000    0.000000    0.000000    0.000000
  0.017832250  -40.109673   48.728764  -89.063975   42.912113    0.000000    0.000000    0.000000    0.000000
  0.018028056  -39.933763   49.544594  -89.389982   45.827309    0.000000    0.000000    0.000000    0.000000
  0.018223862  -39.788805   49.835514  -89.619611   43.664341    0.000000    0.000000    0.000000    0.000000
  0.018419669  -39.823253   51.302437  -90.438074   47.144016    0.000000    0.000000    0.000000    0.000000
  0.018615475  -39.792815   51.844673  -90.573966   44.199837    0.000000    0.000000    0.000000    0.000000
  0.018811281  -39.736516   51.238140  -90.527974   41.120541    0.000000    0.000000    0.000000    0.000000
  0.019007087  -39.692026   52.597691  -90.808762   39.963131    0.000000    0.000000    0.000000    0.000000
  0.019202894  -39.803585   53.877167  -89.967768   37.868839    0.000000    0.000000    0.000000    0.000000
  0.019398700  -39.853269   53.904758  -90.467358   45.562981    0.000000    0.000000    0.000000    0.000000
  0.019594506  -39.777204   53.703392  -91.296167   39.485134    0.000000    0.000000    0.000000    0.000000
  0.019790313  -39.998387   53.767792  -90.716087   41.095154    0.000000    0.000000    0.000000    0.000000
  0.019986119  -39.911407   54.269024  -91.250058   38.696373    0.000000    0.000000    0.000000    0.000000
  0.020181925  -39.978948   54.852802  -91.260392   38.702698    0.000000    0.000000    0.000000    0.000000
  0.020377731  -40.141195   52.473022  -90.973764   38.341881    0.000000    0.000000    0.000000    0.000000
  0.020573537  -40.041528   52.415981  -91.720255   33.814667    0.000000    0.000000    0.000000    0.000000
  0.020769344  -40.115809   52.251965  -91.648561   40.110249    0.000000    0.000000    0.000000    0.000000
  0.020965150  -40.089566   50.687969  -91.626733   36.102924    0.000000    0.000000    0.000000    0.000000
  0.021160956  -40.041960   49.438206  -92.044542   41.480934    0.000000    0.000000    0.000000    0.000000
  0.021356762  -40.134909   48.652092  -92.310604   39.080292    0.000000    0.000000    0.000000    0.000000
  0.021552569  -40.030345   48.094940  -91.283401   32.210968    0.000000    0.000000    0.000000    0.000000
  0.021748375  -39.851492   47.121574  -92.509036   33.901844    0.000000    0.000000    0.000000    0.000000
  0.021944181  -39.684770   46.844940  -91.464825   33.471405    0.000000    0.000000    0.000000    0.000000
  0.022139988  -39.508320   45.805191  -91.948756   33.750633    0.000000    0.000000    0.000000    0.000000
  0.022335794  -39.388699   45.623978  -91.965945   26.032507    0.000000    0.000000    0.000000    0.000000
  0.022531600  -39.331146   44.923103  -92.309830   37.296902    0.000000    0.000000    0.000000    0.000000
  0.022727406  -39.057565   44.903381  -92.344222   39.954979    0.000000    0.000000    0.000000    0.000000
  0.022923213  -38.849157   44.286556  -93.149713   31.090174    0.000000    0.000000    0.000000    0.000000
  0.023119019  -38.656667   45.238552  -93.562750   30.394672    0.000000    0.000000    0.000000    0.000000
  0.023314825  -38.459341   45.915081  -92.821013   30.016329    0.000000    0.000000    0.000000    0.000000
  0.023510631  -38.342025   45.878197  -92.999430   30.180008    0.000000    0.000000    0.000000    0.000000
  0.023706438  -38.111536   46.383671  -94.092441   23.371935    0.000000    0.000000    0.000000    0.000000
  0.023902244  -37.945902   47.328949  -94.079051   26.531902    0.000000    0.000000    0.000000    0.000000
  0.024098050  -37.828800   48.491379  -93.477876   26.818085    0.000000    0.000000    0.000000    0.000000
  0.024293856  -37.914015   49.447151  -93.274057   30.649836    0.000000    0.000000    0.000000    0.000000
  0.024489662  -37.797515   50.485016  -93.383560   27.617271    0.000000    0.000000    0.000000    0.000000
  0.024685469  -37.646129   51.953304  -93.673412   22.977396    0.000000    0.000000    0.000000    0.000000
  0.024881275  -37.683626   52.092968  -93.915981   27.040806    0.000000    0.000000    0.000000    0.000000
  0.025077081  -37.695123   53.657799  -94.146890   20.609541    0.000000    0.000000    0.000000    0.000000
  0.025272888  -37.818764   54.613686  -94.403324   26.811098    0.000000    0.000000    0.000000    0.000000
  0.025468694  -37.979849   55.784554  -93.967758   25.029547    0.000000    0.000000    0.000000    0.000000
  0.025664500  -37.988412   56.315857  -94.292644   25.927126    0.000000    0.000000    0.000000    0.000000
  0.025860306  -38.039415   56.899124  -95.178776   15.925638    0.000000    0.000000    0.000000    0.000000
  0.026056112  -38.202248   57.593788  -94.427206   26.009003    0.000000    0.000000    0.000000    0.000000
  0.026251919  -38.506652   57.684063  -95.801794   23.281950    0.000000    0.000000    0.000000    0.000000
  0.026447725  -38.710593   57.621456  -94.254547   26.761827    0.000000    0.000000    0.000000    0.000000
  0.026643531  -39.028169   57.777000  -95.154502   26.056660    0.000000    0.000000    0.000000    0.000000
  0.026839338  -39.396669   57.515827  -95.425650   17.208233    0.000000    0.000000    0.000000    0.000000
  0.027035144  -39.597052   55.391312  -96.072532   24.390638    0.000000    0.000000    0.000000    0.000000
  0.027230950  -39.875981   55.257057  -95.026818   16.296591    0.000000    0.000000    0.000000    0.000000
  0.027426756  -40.012660   54.155045  -96.080537   22.506332    0.000000    0.000000    0.000000    0.000000
  0.027622562  -40.239162   50.083309  -94.745944   20.561010    0.000000    0.000000    0.000000    0.000000
  0.027818369  -40.363091   48.331230  -96.750267   17.656113    0.000000    0.000000    0.000000    0.000000
  0.028014175  -40.305778   45.441944  -95.177120   23.533884    0.000000    0.000000    0.000000    0.000000
  0.028209981  -40.382423   42.330860  -96.662553   27.162683    0.000000    0.000000    0.000000    0.000000
  0.028405788  -40.233018   39.236984  -95.855403   20.376358    0.000000    0.000000    0.000000    0.000000
  0.028601594  -39.975526   36.842117  -95.736662   17.766069    0.000000    0.000000    0.000000    0.000000
  0.028797400  -39.834646   33.394501  -95.887095   19.923479    0.000000    0.000000    0.000000    0.000000
  0.028993206  -39.528848   32.197269  -96.491543   21.233295    0.000000    0.000000    0.000000    0.000000
  0.029189013  -39.027465   29.832972  -96.099020   23.606781    0.000000    0.000000    0.000000    0.000000
  0.029384819  -38.661442   28.820715  -96.416695   11.920104    0.000000    0.000000    0.000000    0.000000
  0.029580625  -38.281850   27.444635  -96.634040   12.122358    0.000000    0.000000    0.000000    0.000000
  0.029776431  -37.779886   26.772345  -96.144832   13.556341    0.000000    0.000000    0.000000    0.000000
  0.029972237  -37.350912   26.840174  -96.948165   13.199675    0.000000    0.000000    0.000000    0.000000
  0.030168044  -37.150393   27.166422  -97.245459   20.016573    0.000000    0.000000    0.000000    0.000000
  0.030363850  -36.691160   27.353632  -97.578571   15.417093    0.000000    0.000000    0.000000    0.000000
  0.030559656  -36.289237   28.548082  -97.961531   24.934351    0.000000    0.000000    0.000000    0.000000
  0.030755463  -35.938673   29.036299  -96.540009   17.887005    0.000000    0.000000    0.000000    0.000000
  0.030951269  -35.638047   30.643070  -97.187604   23.566771    0.000000    0.000000    0.000000    0.000000
  0.031147075  -35.380410   32.011707  -97.010988   11.797793    0.000000    0.000000    0.000000    0.000000
  0.031342881  -35.234756   33.669979  -98.000136   18.614422    0.000000    0.000000    0.000000    0.000000
  0.031538687  -35.068095   34.425522  -97.783888   25.965631    0.000000    0.000000    0.000000    0.000000
  0.031734494  -34.811860   35.990887  -98.521249   19.539644    0.000000    0.000000    0.000000    0.000000
  0.031930300  -34.683295   38.243092  -97.153846   -0.202897    0.000000    0.000000    0.000000    0.000000
  0.032126106  -34.603200   39.392109  -97.750476    2.621245    0.000000    0.000000    0.000000    0.000000
  0.032321913  -34.530372   41.401573  -98.356812   10.022119    0.000000    0.000000    0.000000    0.000000
  0.032517719  -34.505354   43.128143  -99.508954   22.615667    0.000000    0.000000    0.000000    0.000000
  0.032713525  -34.533828   44.300606  -99.253829    8.256296    0.000000    0.000000    0.000000    0.000000
  0.032909331  -34.529745   46.704811  -98.629339   14.953985    0.000000    0.000000    0.000000    0.000000
  0.033105137  -34.684198   48.330669  -97.660262   15.113623    0.000000    0.000000    0.000000    0.000000
  0.033300944  -34.676727   48.949608  -98.155181    9.517834    0.000000    0.000000    0.000000    0.000000
  0.033496750  -34.752479   50.621315  -97.948776   15.967886    0.000000    0.000000    0.000000    0.000000
  0.033692556  -34.899919   51.653027  -99.576129   12.781972    0.000000    0.000000    0.000000    0.000000
  0.033888362  -35.106415   52.938053  -99.103657    9.237352    0.000000    0.000000    0.000000    0.000000
  0.034084169  -35.240106   53.296246  -97.725948    3.242121    0.000000    0.000000    0.000000    0.000000
  0.034279975  -35.440091   53.969952  -96.717534    7.501365    0.000000    0.000000    0.000000    0.000000
  0.034475781  -35.671797   54.674004  -99.952836   27.553802    0.000000    0.000000    0.000000    0.000000
  0.034671588  -35.852814   54.514267  -98.997942   21.162189    0.000000    0.000000    0.000000    0.000000
  0.034867394  -36.238053   54.063168  -98.832950    5.923077    0.000000    0.000000    0.000000    0.000000
  0.035063200  -36.395844   54.639454  -98.271143   14.312385    0.000000    0.000000    0.000000    0.000000
  0.035259006  -36.624735   53.434074 -100.055553   16.943102    0.000000    0.000000    0.000000    0.000000
  0.035454812  -36.790459   53.331673  -98.424433    8.876040    0.000000    0.000000    0.000000    0.000000
  0.035650619  -37.015927   51.771179  -97.976555    8.671037    0.000000    0.000000    0.000000    0.000000
  0.035846425  -37.029588   49.854156  -99.612737   10.053280    0.000000    0.000000    0.000000    0.000000
  0.036042231  -37.247077   48.765316  -99.793159    3.141840    0.000000    0.000000    0.000000    0.000000
  0.036238037  -37.253548   46.485718  -98.623915   17.798195    0.000000    0.000000    0.000000    0.000000
  0.036433844  -37.226514   45.087433 -100.253682    1.189189    0.000000    0.000000    0.000000    0.000000
  0.036629650  -37.246980   44.619419 -100.422915   10.552738    0.000000    0.000000    0.000000    0.000000
  0.036825456  -37.197485   42.877655  -99.037806    2.202538    0.000000    0.000000    0.000000    0.000000
  0.037021262  -37.146580   41.115955  -99.112155    8.382848    0.000000    0.000000    0.000000    0.000000
  0.037217069  -36.973143   40.254574 -100.046259   12.055577    0.000000    0.000000    0.000000    0.000000
  0.037412875  -36.824308   39.249355  -98.637267   10.614414    0.000000    0.000000    0.000000    0.000000
  0.037608681  -36.692170   38.874783  -99.732630   -3.844581    0.000000    0.000000    0.000000    0.000000
  0.037804487  -36.504694   37.538521 -100.525458   -6.416693    0.000000    0.000000    0.000000    0.000000
  0.038000294  -36.340221   37.307617 -101.092818   12.162609    0.000000    0.000000    0.000000    0.000000
  0.038196100  -36.245923   37.254303  -99.462305    6.978188    0.000000    0.000000    0.000000    0.000000
  0.038391906  -36.003678   37.155140  -99.839168  -11.855519    0.000000    0.000000    0.000000    0.000000
  0.038587713  -35.873871   37.549267  -99.495745    6.632534    0.000000    0.000000    0.000000    0.000000
  0.038783519  -35.780854   37.135872  -98.499000    0.810799    0.000000    0.000000    0.000000    0.000000
  0.038979325  -35.652841   38.437393  -99.963813   15.437655    0.000000    0.000000    0.000000    0.000000
  0.039175131  -35.671978   38.990467  -99.912932    1.621664    0.000000    0.000000    0.000000    0.000000
  0.039370938  -35.554263   39.340393 -101.921467    8.325309    0.000000    0.000000    0.000000    0.000000
  0.039566744  -35.491942   39.686649 -100.631946    4.090929    0.000000    0.000000    0.000000    0.000000
  0.039762550  -35.540024   39.684586 -101.222264    3.934039    0.000000    0.000000    0.000000    0.000000
  0.039958356  -35.576305   41.078003  -98.302934    9.673073    0.000000    0.000000    0.000000    0.000000
  0.040154163  -35.684874   41.470566 -100.575053   15.313583    0.000000    0.000000    0.000000    0.000000
  0.040349969  -35.699723   41.524147  -98.241964    4.684188    0.000000    0.000000    0.000000    0.000000
  0.040545775  -35.864686   40.977428 -100.521985   -6.217124    0.000000    0.000000    0.000000    0.000000
  0.040741581  -35.938606   41.742912 -100.973570   18.906336    0.000000    0.000000    0.000000    0.000000
  0.040937387  -36.021964   40.360203 -101.726405   -0.737281    0.000000    0.000000    0.000000    0.000000
  0.041133194  -36.227134   39.819645 -100.781376   13.199840    0.000000    0.000000    0.000000    0.000000
  0.041329000  -36.227016   39.613251 -100.811722   -4.423338    0.000000    0.000000    0.000000    0.000000
  0.041524806  -36.402698   37.877567  -98.803861   -5.400061    0.000000    0.000000    0.000000    0.000000
  0.041720612  -36.504220   37.955616 -101.943753    6.206974    0.000000    0.000000    0.000000    0.000000
  0.041916419  -36.526204   35.425812  -99.984100   11.746444    0.000000    0.000000    0.000000    0.000000
  0.042112225  -36.484413   34.383877 -104.374009   25.624638    0.000000    0.000000    0.000000    0.000000
