! Anritsu VNA Master:                     Model: MS2036C/10/77
! SN:                                  1601066
! /card0/usr/255.ew.sma.r20.21.s2p
! Existing Calibration Information:
! TYPE:                         Current Settings,       Active Cal Settings
! TIME:             	   12/19/2017 06:19:25 PM,    12/19/2017 06:04:41 PM
! INTERNAL TEMP:    	                   41.3 C,                    39.8 C
! # POINTS:         	                      501,                       501
! START FREQ:       	               10.000 MHz,                10.000 MHz
! STOP FREQ:        	              110.000 MHz,               110.000 MHz
! SOURCE POWER:     	                     High,                      High
! IFBW:             	                   100 Hz,                    100 Hz
! AVG FACTOR:       	                       1 ,                        1 
! REF PLANE 1:      	                     0 mm,                      0 mm
! REF PLANE 2:      	                     0 mm,                      0 mm
! CAL TYPE:         	                 Full S11,                  Full S11
! CAL METHOD:       	                     SOLT,                      SOLT
! CAL LINE TYPE:    	                     Coax,                      Coax
! DUT PORT 1:       	                N-Conn(F),                 N-Conn(F)
! DUT PORT 2:       	                K-Conn(F),                 K-Conn(F)
! CAL STATUS:       	        OK: Accuracy High,                        --
# GHZ S DB R 50.0
! FREQ.GHZ       S11DB        S11A       S21DB        S21A       S12DB        S12A       S22DB        S22A
  0.010000000   -7.210509  167.866959  -82.630567   76.836182    0.000000    0.000000    0.000000    0.000000
  0.010200000   -7.198324  167.694977  -82.727862   78.744492    0.000000    0.000000    0.000000    0.000000
  0.010400000   -7.199417  167.457443  -83.360189   76.822212    0.000000    0.000000    0.000000    0.000000
  0.010600000   -7.204804  167.238724  -83.095717   73.814575    0.000000    0.000000    0.000000    0.000000
  0.010800000   -7.205173  167.022354  -83.023467   70.829521    0.000000    0.000000    0.000000    0.000000
  0.011000000   -7.207136  166.769760  -83.375064   70.434006    0.000000    0.000000    0.000000    0.000000
  0.011200000   -7.210425  166.559372  -83.936946   68.170822    0.000000    0.000000    0.000000    0.000000
  0.011400000   -7.211634  166.320602  -84.276275   64.479134    0.000000    0.000000    0.000000    0.000000
  0.011600000   -7.208864  166.084213  -84.575682   61.594761    0.000000    0.000000    0.000000    0.000000
  0.011800000   -7.212466  165.867523  -85.004776   68.074081    0.000000    0.000000    0.000000    0.000000
  0.012000000   -7.219654  165.596710  -84.782075   63.798885    0.000000    0.000000    0.000000    0.000000
  0.012200000   -7.224169  165.338715  -85.131535   62.561417    0.000000    0.000000    0.000000    0.000000
  0.012400000   -7.221429  165.083099  -85.265764   61.441460    0.000000    0.000000    0.000000    0.000000
  0.012600000   -7.223317  164.821259  -85.416824   61.864956    0.000000    0.000000    0.000000    0.000000
  0.012800000   -7.227193  164.594833  -86.811563   56.991150    0.000000    0.000000    0.000000    0.000000
  0.013000000   -7.232659  164.369247  -86.824948   57.484184    0.000000    0.000000    0.000000    0.000000
  0.013200000   -7.232063  164.104095  -86.544970   59.968365    0.000000    0.000000    0.000000    0.000000
  0.013400000   -7.237898  163.823456  -87.100835   55.830204    0.000000    0.000000    0.000000    0.000000
  0.013600000   -7.230568  163.602966  -87.035541   57.664146    0.000000    0.000000    0.000000    0.000000
  0.013800000   -7.226555  163.363159  -87.353915   59.535378    0.000000    0.000000    0.000000    0.000000
  0.014000000   -7.233019  163.098846  -87.610241   56.245586    0.000000    0.000000    0.000000    0.000000
  0.014200000   -7.233623  162.845047  -87.898690   57.426651    0.000000    0.000000    0.000000    0.000000
  0.014400000   -7.231950  162.626617  -87.848109   58.876579    0.000000    0.000000    0.000000    0.000000
  0.014600000   -7.231147  162.359329  -86.974893   57.244362    0.000000    0.000000    0.000000    0.000000
  0.014800000   -7.235319  162.121277  -87.525859   56.352303    0.000000    0.000000    0.000000    0.000000
  0.015000000   -7.234494  161.868332  -87.930207   56.786091    0.000000    0.000000    0.000000    0.000000
  0.015200000   -7.232368  161.626831  -88.360734   59.429283    0.000000    0.000000    0.000000    0.000000
  0.015400000   -7.233851  161.381134  -87.973467   54.036427    0.000000    0.000000    0.000000    0.000000
  0.015600000   -7.233016  161.075439  -88.705132   56.187199    0.000000    0.000000    0.000000    0.000000
  0.015800000   -7.230555  160.906586  -87.762622   56.584919    0.000000    0.000000    0.000000    0.000000
  0.016000000   -7.232835  160.653992  -87.963577   53.062542    0.000000    0.000000    0.000000    0.000000
  0.016200000   -7.232579  160.467499  -88.035084   50.558876    0.000000    0.000000    0.000000    0.000000
  0.016400000   -7.231091  160.254181  -88.265927   51.056454    0.000000    0.000000    0.000000    0.000000
  0.016600000   -7.230012  160.032822  -88.806686   49.612652    0.000000    0.000000    0.000000    0.000000
  0.016800000   -7.231540  159.821304  -88.584489   50.107845    0.000000    0.000000    0.000000    0.000000
  0.017000000   -7.234946  159.587677  -88.528361   48.195538    0.000000    0.000000    0.000000    0.000000
  0.017200000   -7.229637  159.359222  -89.655018   44.638493    0.000000    0.000000    0.000000    0.000000
  0.017400000   -7.237352  159.149887  -89.052390   42.729809    0.000000    0.000000    0.000000    0.000000
  0.017600000   -7.232577  158.894348  -89.017123   46.108013    0.000000    0.000000    0.000000    0.000000
  0.017800000   -7.237988  158.654999  -89.402925   38.705746    0.000000    0.000000    0.000000    0.000000
  0.018000000   -7.239448  158.423965  -89.044057   45.347740    0.000000    0.000000    0.000000    0.000000
  0.018200000   -7.244252  158.210968  -90.203369   40.069935    0.000000    0.000000    0.000000    0.000000
  0.018400000   -7.243746  157.971436  -90.194615   42.593109    0.000000    0.000000    0.000000    0.000000
  0.018600000   -7.254730  157.732422  -90.060762   38.157604    0.000000    0.000000    0.000000    0.000000
  0.018800000   -7.256995  157.494675  -90.700408   37.230808    0.000000    0.000000    0.000000    0.000000
  0.019000000   -7.253825  157.259399  -90.934340   39.525234    0.000000    0.000000    0.000000    0.000000
  0.019200000   -7.256848  157.027512  -89.995000   37.793159    0.000000    0.000000    0.000000    0.000000
  0.019400000   -7.260560  156.800156  -91.183881   34.761181    0.000000    0.000000    0.000000    0.000000
  0.019600000   -7.264221  156.547012  -90.026354   41.807915    0.000000    0.000000    0.000000    0.000000
  0.019800000   -7.263029  156.295959  -90.215190   40.932022    0.000000    0.000000    0.000000    0.000000
  0.020000000   -7.268404  156.036819  -91.127317   36.831650    0.000000    0.000000    0.000000    0.000000
  0.020200000   -7.265035  155.835251  -91.666126   36.626869    0.000000    0.000000    0.000000    0.000000
  0.020400000   -7.258131  155.568924  -92.278447   37.699272    0.000000    0.000000    0.000000    0.000000
  0.020600000   -7.261325  155.299026  -91.663735   37.987034    0.000000    0.000000    0.000000    0.000000
  0.020800000   -7.259453  155.047546  -92.247907   41.446346    0.000000    0.000000    0.000000    0.000000
  0.021000000   -7.260020  154.771011  -92.210989   35.318077    0.000000    0.000000    0.000000    0.000000
  0.021200000   -7.257840  154.550735  -91.851797   31.448128    0.000000    0.000000    0.000000    0.000000
  0.021400000   -7.258016  154.299103  -92.172636   41.464848    0.000000    0.000000    0.000000    0.000000
  0.021600000   -7.257608  154.065689  -91.117794   37.483582    0.000000    0.000000    0.000000    0.000000
  0.021800000   -7.256173  153.829437  -91.540697   35.960583    0.000000    0.000000    0.000000    0.000000
  0.022000000   -7.259743  153.607651  -93.282909   39.378201    0.000000    0.000000    0.000000    0.000000
  0.022200000   -7.263271  153.326385  -91.956487   34.272461    0.000000    0.000000    0.000000    0.000000
  0.022400000   -7.262758  153.105804  -92.612990   26.310976    0.000000    0.000000    0.000000    0.000000
  0.022600000   -7.260617  152.877228  -92.261256   32.902096    0.000000    0.000000    0.000000    0.000000
  0.022800000   -7.265932  152.667084  -93.169192   34.329979    0.000000    0.000000    0.000000    0.000000
  0.023000000   -7.261035  152.439362  -92.667766   29.216459    0.000000    0.000000    0.000000    0.000000
  0.023200000   -7.257635  152.184723  -92.002440   29.214277    0.000000    0.000000    0.000000    0.000000
  0.023400000   -7.255593  151.954544  -92.949085   33.279148    0.000000    0.000000    0.000000    0.000000
  0.023600000   -7.257798  151.717468  -93.218016   38.945644    0.000000    0.000000    0.000000    0.000000
  0.023800000   -7.256264  151.472412  -93.973516   30.319931    0.000000    0.000000    0.000000    0.000000
  0.024000000   -7.256058  151.248871  -93.400743   26.313919    0.000000    0.000000    0.000000    0.000000
  0.024200000   -7.255473  151.004944  -93.558248   23.879869    0.000000    0.000000    0.000000    0.000000
  0.024400000   -7.255856  150.759186  -93.881497   21.563150    0.000000    0.000000    0.000000    0.000000
  0.024600000   -7.255263  150.499619  -93.562605   25.524357    0.000000    0.000000    0.000000    0.000000
  0.024800000   -7.255350  150.247025  -94.414906   16.331656    0.000000    0.000000    0.000000    0.000000
  0.025000000   -7.255668  150.020676  -93.450900   31.329903    0.000000    0.000000    0.000000    0.000000
  0.025200000   -7.256390  149.803864  -94.105595   23.747009    0.000000    0.000000    0.000000    0.000000
  0.025400000   -7.255772  149.598923  -94.044059   26.517090    0.000000    0.000000    0.000000    0.000000
  0.025600000   -7.257838  149.383408  -94.705257   21.788801    0.000000    0.000000    0.000000    0.000000
  0.025800000   -7.257295  149.155289  -94.417840   25.690540    0.000000    0.000000    0.000000    0.000000
  0.026000000   -7.264808  148.932877  -95.022267   18.039043    0.000000    0.000000    0.000000    0.000000
  0.026200000   -7.260576  148.696777  -94.446025   18.830963    0.000000    0.000000    0.000000    0.000000
  0.026400000   -7.267641  148.439102  -95.229567   16.130888    0.000000    0.000000    0.000000    0.000000
  0.026600000   -7.263523  148.203186  -94.653191   26.172150    0.000000    0.000000    0.000000    0.000000
  0.026800000   -7.270930  147.951904  -95.482526   17.132462    0.000000    0.000000    0.000000    0.000000
  0.027000000   -7.267050  147.686157  -95.002305   23.075827    0.000000    0.000000    0.000000    0.000000
  0.027200000   -7.263986  147.408905  -94.812467   25.127548    0.000000    0.000000    0.000000    0.000000
  0.027400000   -7.257424  147.143250  -96.185973   23.683964    0.000000    0.000000    0.000000    0.000000
  0.027600000   -7.254656  146.916519  -95.980986   19.190765    0.000000    0.000000    0.000000    0.000000
  0.027800000   -7.253491  146.679276  -95.441899   23.729939    0.000000    0.000000    0.000000    0.000000
  0.028000000   -7.251141  146.433456  -95.953932   17.716066    0.000000    0.000000    0.000000    0.000000
  0.028200000   -7.249200  146.173676  -95.822057   14.307729    0.000000    0.000000    0.000000    0.000000
  0.028400000   -7.245671  145.971420  -95.894429   29.695169    0.000000    0.000000    0.000000    0.000000
  0.028600000   -7.244078  145.781403  -96.087247   27.027864    0.000000    0.000000    0.000000    0.000000
  0.028800000   -7.237292  145.570831  -96.442531   24.892841    0.000000    0.000000    0.000000    0.000000
  0.029000000   -7.239088  145.416794  -95.654376   20.835421    0.000000    0.000000    0.000000    0.000000
  0.029200000   -7.235926  145.242722  -95.193490   19.670166    0.000000    0.000000    0.000000    0.000000
  0.029400000   -7.232529  145.073517  -96.878867   15.556773    0.000000    0.000000    0.000000    0.000000
  0.029600000   -7.235891  144.882904  -94.833230   17.096354    0.000000    0.000000    0.000000    0.000000
  0.029800000   -7.240830  144.688522  -96.274387   21.719618    0.000000    0.000000    0.000000    0.000000
  0.030000000   -7.245198  144.477524  -97.850431   12.523048    0.000000    0.000000    0.000000    0.000000
  0.030200000   -7.245171  144.237045  -95.849568   18.710371    0.000000    0.000000    0.000000    0.000000
  0.030400000   -7.248180  144.033646  -95.941626    3.531841    0.000000    0.000000    0.000000    0.000000
  0.030600000   -7.252276  143.776230  -96.656715   16.958948    0.000000    0.000000    0.000000    0.000000
  0.030800000   -7.252979  143.515884  -97.741535   30.848976    0.000000    0.000000    0.000000    0.000000
  0.031000000   -7.259020  143.283722  -98.247557   14.197336    0.000000    0.000000    0.000000    0.000000
  0.031200000   -7.260503  143.119614  -96.481053   16.496380    0.000000    0.000000    0.000000    0.000000
  0.031400000   -7.260716  142.819687  -97.217847    7.182899    0.000000    0.000000    0.000000    0.000000
  0.031600000   -7.266741  142.571640  -97.828306    4.743617    0.000000    0.000000    0.000000    0.000000
  0.031800000   -7.267282  142.309616  -97.405924    8.547599    0.000000    0.000000    0.000000    0.000000
  0.032000000   -7.268675  142.103439  -97.767753   11.833735    0.000000    0.000000    0.000000    0.000000
  0.032200000   -7.267649  141.840515  -98.689341   16.870226    0.000000    0.000000    0.000000    0.000000
  0.032400000   -7.264970  141.593124  -96.540000   -0.730970    0.000000    0.000000    0.000000    0.000000
  0.032600000   -7.263746  141.352432  -96.919929   17.772898    0.000000    0.000000    0.000000    0.000000
  0.032800000   -7.260564  141.146545  -96.522939    6.797410    0.000000    0.000000    0.000000    0.000000
  0.033000000   -7.258696  140.902710  -97.112482   14.995459    0.000000    0.000000    0.000000    0.000000
  0.033200000   -7.263026  140.702026  -98.799632   10.266168    0.000000    0.000000    0.000000    0.000000
  0.033400000   -7.265406  140.448776  -98.292906   10.269649    0.000000    0.000000    0.000000    0.000000
  0.033600000   -7.267054  140.273865  -98.461580   13.365074    0.000000    0.000000    0.000000    0.000000
  0.033800000   -7.276395  139.983047  -97.838495   11.067379    0.000000    0.000000    0.000000    0.000000
  0.034000000   -7.274623  139.682419  -97.059764   11.870872    0.000000    0.000000    0.000000    0.000000
  0.034200000   -7.279191  139.392685  -99.623438   21.719782    0.000000    0.000000    0.000000    0.000000
  0.034400000   -7.279926  139.107513  -96.445700   15.167589    0.000000    0.000000    0.000000    0.000000
  0.034600000   -7.279024  138.850204  -98.370540    9.635632    0.000000    0.000000    0.000000    0.000000
  0.034800000   -7.276479  138.576782  -99.103660   12.194693    0.000000    0.000000    0.000000    0.000000
  0.035000000   -7.282782  138.300217  -99.750062   11.672354    0.000000    0.000000    0.000000    0.000000
  0.035200000   -7.274805  138.074310  -99.307796    0.574812    0.000000    0.000000    0.000000    0.000000
  0.035400000   -7.264163  137.812607  -99.017327   13.268526    0.000000    0.000000    0.000000    0.000000
  0.035600000   -7.258287  137.549362  -96.684140    8.438763    0.000000    0.000000    0.000000    0.000000
  0.035800000   -7.257211  137.317978  -99.843750    5.280900    0.000000    0.000000    0.000000    0.000000
  0.036000000   -7.244880  137.093872  -99.280408    2.893109    0.000000    0.000000    0.000000    0.000000
  0.036200000   -7.239348  136.876114 -100.093134   11.945163    0.000000    0.000000    0.000000    0.000000
  0.036400000   -7.234496  136.700348  -98.631610   16.041031    0.000000    0.000000    0.000000    0.000000
  0.036600000   -7.228179  136.493729  -98.501411    7.769631    0.000000    0.000000    0.000000    0.000000
  0.036800000   -7.224365  136.311890  -99.941132    0.514161    0.000000    0.000000    0.000000    0.000000
  0.037000000   -7.230091  136.139481  -98.617479   14.391790    0.000000    0.000000    0.000000    0.000000
  0.037200000   -7.230492  135.975952 -100.843642   17.507317    0.000000    0.000000    0.000000    0.000000
  0.037400000   -7.236374  135.758408 -100.710372    2.139536    0.000000    0.000000    0.000000    0.000000
  0.037600000   -7.235912  135.561813  -98.762847   10.610375    0.000000    0.000000    0.000000    0.000000
  0.037800000   -7.241069  135.321075  -99.852013    6.903051    0.000000    0.000000    0.000000    0.000000
  0.038000000   -7.248606  135.085770 -100.205990    9.583382    0.000000    0.000000    0.000000    0.000000
  0.038200000   -7.257908  134.867798  -99.147122   11.120529    0.000000    0.000000    0.000000    0.000000
  0.038400000   -7.262879  134.630814  -99.610786    5.899481    0.000000    0.000000    0.000000    0.000000
  0.038600000   -7.270411  134.373642  -99.879071   10.418154    0.000000    0.000000    0.000000    0.000000
  0.038800000   -7.274850  134.135147  -99.470728    8.391807    0.000000    0.000000    0.000000    0.000000
  0.039000000   -7.273966  133.903992  -99.500484    1.440451    0.000000    0.000000    0.000000    0.000000
  0.039200000   -7.276916  133.656738 -100.190903   17.741518    0.000000    0.000000    0.000000    0.000000
  0.039400000   -7.279751  133.363480 -100.492147   -6.620338    0.000000    0.000000    0.000000    0.000000
  0.039600000   -7.278570  133.136292 -103.760803   13.707439    0.000000    0.000000    0.000000    0.000000
  0.039800000   -7.273726  132.830124  -98.971606    8.143988    0.000000    0.000000    0.000000    0.000000
  0.040000000   -7.271589  132.554733 -103.170929   -0.245542    0.000000    0.000000    0.000000    0.000000
  0.040200000   -7.271388  132.310028 -101.451320   13.152284    0.000000    0.000000    0.000000    0.000000
  0.040400000   -7.263394  132.058548 -104.787091   -9.510399    0.000000    0.000000    0.000000    0.000000
  0.040600000   -7.260850  131.847031 -102.244067   10.875751    0.000000    0.000000    0.000000    0.000000
  0.040800000   -7.263124  131.633652  -99.946013    5.785099    0.000000    0.000000    0.000000    0.000000
  0.041000000   -7.264305  131.419418  -99.265439   13.578712    0.000000    0.000000    0.000000    0.000000
  0.041200000   -7.271715  131.157059  -98.812909    9.309042    0.000000    0.000000    0.000000    0.000000
  0.041400000   -7.275346  130.925537  -99.405778    7.498310    0.000000    0.000000    0.000000    0.000000
  0.041600000   -7.277857  130.649490 -100.229618   14.166416    0.000000    0.000000    0.000000    0.000000
  0.041800000   -7.283267  130.401840 -101.427573   -2.253946    0.000000    0.000000    0.000000    0.000000
  0.042000000   -7.286529  130.116974 -100.904453    7.555328    0.000000    0.000000    0.000000    0.000000
  0.042200000   -7.280608  129.842621 -100.560424    5.655972    0.000000    0.000000    0.000000    0.000000
  0.042400000   -7.272429  129.581772 -102.034672   -2.749496    0.000000    0.000000    0.000000    0.000000
  0.042600000   -7.274274  129.327438 -101.026771   26.839281    0.000000    0.000000    0.000000    0.000000
  0.042800000   -7.260804  129.046616 -101.310784  -14.719983    0.000000    0.000000    0.000000    0.000000
