! Anritsu VNA Master:                     Model: MS2036C/10/77
! SN:                                  1601066
! /card0/usr/255.ew.sma.me.s2p
! Existing Calibration Information:
! TYPE:                         Current Settings,       Active Cal Settings
! TIME:             	   12/19/2017 06:16:06 PM,    12/19/2017 06:04:41 PM
! INTERNAL TEMP:    	                   41.0 C,                    39.8 C
! # POINTS:         	                      501,                       501
! START FREQ:       	               10.000 MHz,                10.000 MHz
! STOP FREQ:        	              110.000 MHz,               110.000 MHz
! SOURCE POWER:     	                     High,                      High
! IFBW:             	                   100 Hz,                    100 Hz
! AVG FACTOR:       	                       1 ,                        1 
! REF PLANE 1:      	                     0 mm,                      0 mm
! REF PLANE 2:      	                     0 mm,                      0 mm
! CAL TYPE:         	                 Full S11,                  Full S11
! CAL METHOD:       	                     SOLT,                      SOLT
! CAL LINE TYPE:    	                     Coax,                      Coax
! DUT PORT 1:       	                N-Conn(F),                 N-Conn(F)
! DUT PORT 2:       	                K-Conn(F),                 K-Conn(F)
! CAL STATUS:       	        OK: Accuracy High,                        --
# GHZ S DB R 50.0
! FREQ.GHZ       S11DB        S11A       S21DB        S21A       S12DB        S12A       S22DB        S22A
  0.010000000   -0.716695  -58.505371  -84.587381   83.278816    0.000000    0.000000    0.000000    0.000000
  0.010200000   -0.710377  -59.681778  -85.219697   83.296776    0.000000    0.000000    0.000000    0.000000
  0.010400000   -0.721849  -60.936111  -83.984764   85.820328    0.000000    0.000000    0.000000    0.000000
  0.010600000   -0.727098  -62.189693  -84.318934   85.194847    0.000000    0.000000    0.000000    0.000000
  0.010800000   -0.731209  -63.469902  -84.161297   83.526779    0.000000    0.000000    0.000000    0.000000
  0.011000000   -0.740186  -64.727066  -83.936791   80.904373    0.000000    0.000000    0.000000    0.000000
  0.011200000   -0.744310  -65.962364  -83.980995   80.934036    0.000000    0.000000    0.000000    0.000000
  0.011400000   -0.747314  -67.205399  -84.461877   77.681114    0.000000    0.000000    0.000000    0.000000
  0.011600000   -0.752591  -68.423050  -84.108665   75.527069    0.000000    0.000000    0.000000    0.000000
  0.011800000   -0.764280  -69.683655  -84.136541   75.469711    0.000000    0.000000    0.000000    0.000000
  0.012000000   -0.772318  -70.924774  -83.753172   70.747276    0.000000    0.000000    0.000000    0.000000
  0.012200000   -0.776576  -72.198509  -83.940964   70.497063    0.000000    0.000000    0.000000    0.000000
  0.012400000   -0.783469  -73.469818  -83.763738   65.534912    0.000000    0.000000    0.000000    0.000000
  0.012600000   -0.789107  -74.720299  -84.103436   64.970840    0.000000    0.000000    0.000000    0.000000
  0.012800000   -0.795203  -75.991417  -84.358124   61.597950    0.000000    0.000000    0.000000    0.000000
  0.013000000   -0.805038  -77.245468  -85.005677   60.074368    0.000000    0.000000    0.000000    0.000000
  0.013200000   -0.811814  -78.516342  -85.362109   58.150890    0.000000    0.000000    0.000000    0.000000
  0.013400000   -0.818899  -79.754524  -85.203096   56.531746    0.000000    0.000000    0.000000    0.000000
  0.013600000   -0.823932  -81.015335  -85.793936   51.917290    0.000000    0.000000    0.000000    0.000000
  0.013800000   -0.830542  -82.272705  -86.300247   50.253990    0.000000    0.000000    0.000000    0.000000
  0.014000000   -0.840487  -83.540054  -86.319431   49.249374    0.000000    0.000000    0.000000    0.000000
  0.014200000   -0.850344  -84.834038  -86.784808   46.702793    0.000000    0.000000    0.000000    0.000000
  0.014400000   -0.859332  -86.132004  -87.219613   43.109535    0.000000    0.000000    0.000000    0.000000
  0.014600000   -0.872869  -87.432770  -87.603810   49.105042    0.000000    0.000000    0.000000    0.000000
  0.014800000   -0.884836  -88.751114  -88.441387   46.773079    0.000000    0.000000    0.000000    0.000000
  0.015000000   -0.894768  -90.055038  -89.192403   46.836319    0.000000    0.000000    0.000000    0.000000
  0.015200000   -0.903580  -91.372589  -89.184134   48.749451    0.000000    0.000000    0.000000    0.000000
  0.015400000   -0.911423  -92.669685  -89.187003   48.068714    0.000000    0.000000    0.000000    0.000000
  0.015600000   -0.914014  -93.980820  -89.201151   50.863266    0.000000    0.000000    0.000000    0.000000
  0.015800000   -0.923035  -95.277878  -90.013655   56.530380    0.000000    0.000000    0.000000    0.000000
  0.016000000   -0.933072  -96.565887  -90.302996   58.303764    0.000000    0.000000    0.000000    0.000000
  0.016200000   -0.937913  -97.906677  -89.692518   49.331894    0.000000    0.000000    0.000000    0.000000
  0.016400000   -0.943126  -99.243332  -89.528030   56.542622    0.000000    0.000000    0.000000    0.000000
  0.016600000   -0.948877 -100.604317  -89.291179   55.652451    0.000000    0.000000    0.000000    0.000000
  0.016800000   -0.958248 -101.933533  -89.606118   56.677940    0.000000    0.000000    0.000000    0.000000
  0.017000000   -0.965723 -103.292252  -88.974983   55.128376    0.000000    0.000000    0.000000    0.000000
  0.017200000   -0.974321 -104.630058  -88.788197   53.982105    0.000000    0.000000    0.000000    0.000000
  0.017400000   -0.989056 -105.954865  -89.388007   53.841587    0.000000    0.000000    0.000000    0.000000
  0.017600000   -1.001249 -107.284882  -88.964558   51.812840    0.000000    0.000000    0.000000    0.000000
  0.017800000   -1.014898 -108.614906  -89.434146   51.077698    0.000000    0.000000    0.000000    0.000000
  0.018000000   -1.026641 -109.954147  -89.119526   51.937126    0.000000    0.000000    0.000000    0.000000
  0.018200000   -1.034167 -111.320023  -88.692529   47.215397    0.000000    0.000000    0.000000    0.000000
  0.018400000   -1.046670 -112.696983  -89.562183   44.618336    0.000000    0.000000    0.000000    0.000000
  0.018600000   -1.056776 -114.032196  -89.158455   46.688847    0.000000    0.000000    0.000000    0.000000
  0.018800000   -1.065143 -115.409653  -89.813547   40.206146    0.000000    0.000000    0.000000    0.000000
  0.019000000   -1.075124 -116.791687  -89.500187   35.977272    0.000000    0.000000    0.000000    0.000000
  0.019200000   -1.088225 -118.162422  -89.569563   38.352852    0.000000    0.000000    0.000000    0.000000
  0.019400000   -1.098242 -119.560303  -89.895833   34.541641    0.000000    0.000000    0.000000    0.000000
  0.019600000   -1.107794 -120.961678  -90.583071   33.919056    0.000000    0.000000    0.000000    0.000000
  0.019800000   -1.118666 -122.393585  -90.814425   35.992172    0.000000    0.000000    0.000000    0.000000
  0.020000000   -1.125950 -123.805855  -90.751707   29.806610    0.000000    0.000000    0.000000    0.000000
  0.020200000   -1.132862 -125.203499  -91.991349   27.680599    0.000000    0.000000    0.000000    0.000000
  0.020400000   -1.144803 -126.603119  -91.600089   27.957983    0.000000    0.000000    0.000000    0.000000
  0.020600000   -1.156683 -128.008179  -91.188250   35.473366    0.000000    0.000000    0.000000    0.000000
  0.020800000   -1.171015 -129.475800  -92.066478   32.666519    0.000000    0.000000    0.000000    0.000000
  0.021000000   -1.187237 -130.922958  -92.649103   28.891356    0.000000    0.000000    0.000000    0.000000
  0.021200000   -1.202505 -132.420914  -92.744461   31.727818    0.000000    0.000000    0.000000    0.000000
  0.021400000   -1.217795 -133.904312  -93.004910   40.339844    0.000000    0.000000    0.000000    0.000000
  0.021600000   -1.227123 -135.374603  -92.637311   42.085556    0.000000    0.000000    0.000000    0.000000
  0.021800000   -1.243398 -136.871353  -92.841376   26.734640    0.000000    0.000000    0.000000    0.000000
  0.022000000   -1.258723 -138.359360  -91.721706   34.054863    0.000000    0.000000    0.000000    0.000000
  0.022200000   -1.271237 -139.858093  -93.258581   32.819382    0.000000    0.000000    0.000000    0.000000
  0.022400000   -1.283587 -141.381577  -93.705722   35.647007    0.000000    0.000000    0.000000    0.000000
  0.022600000   -1.297755 -142.922150  -93.724574   37.459629    0.000000    0.000000    0.000000    0.000000
  0.022800000   -1.312377 -144.453629  -92.336058   41.409550    0.000000    0.000000    0.000000    0.000000
  0.023000000   -1.321631 -146.002182  -92.890191   37.953201    0.000000    0.000000    0.000000    0.000000
  0.023200000   -1.330728 -147.549942  -93.001857   36.825256    0.000000    0.000000    0.000000    0.000000
  0.023400000   -1.342984 -148.989426  -93.244794   38.686657    0.000000    0.000000    0.000000    0.000000
  0.023600000   -1.360277 -150.617462  -93.025715   29.730301    0.000000    0.000000    0.000000    0.000000
  0.023800000   -1.376719 -152.178818  -91.808572   33.515865    0.000000    0.000000    0.000000    0.000000
  0.024000000   -1.394430 -153.730667  -91.352050   25.543634    0.000000    0.000000    0.000000    0.000000
  0.024200000   -1.412053 -155.328964  -92.616089   28.644169    0.000000    0.000000    0.000000    0.000000
  0.024400000   -1.428360 -156.923752  -93.618147   30.259342    0.000000    0.000000    0.000000    0.000000
  0.024600000   -1.448457 -158.527695  -92.607089   27.076365    0.000000    0.000000    0.000000    0.000000
  0.024800000   -1.467016 -160.138123  -93.357054   25.940458    0.000000    0.000000    0.000000    0.000000
  0.025000000   -1.485364 -161.737457  -93.111199   25.731018    0.000000    0.000000    0.000000    0.000000
  0.025200000   -1.506698 -163.362976  -94.149769   24.825819    0.000000    0.000000    0.000000    0.000000
  0.025400000   -1.529527 -165.005234  -93.952601   27.872711    0.000000    0.000000    0.000000    0.000000
  0.025600000   -1.554950 -166.662476  -94.049664   20.277096    0.000000    0.000000    0.000000    0.000000
  0.025800000   -1.575248 -168.343307  -94.842625   22.941917    0.000000    0.000000    0.000000    0.000000
  0.026000000   -1.595248 -170.021973  -95.406318   22.371889    0.000000    0.000000    0.000000    0.000000
  0.026200000   -1.615629 -171.721039  -95.578081   20.256363    0.000000    0.000000    0.000000    0.000000
  0.026400000   -1.638366 -173.405472  -95.054890   15.987470    0.000000    0.000000    0.000000    0.000000
  0.026600000   -1.660281 -175.105423  -94.322266   19.208939    0.000000    0.000000    0.000000    0.000000
  0.026800000   -1.686362 -176.807892  -95.950861   18.789957    0.000000    0.000000    0.000000    0.000000
  0.027000000   -1.712930 -178.539810  -96.182224   21.870512    0.000000    0.000000    0.000000    0.000000
  0.027200000   -1.737682  179.742416  -95.690141   20.765318    0.000000    0.000000    0.000000    0.000000
  0.027400000   -1.762697  177.998825  -95.536213   21.023699    0.000000    0.000000    0.000000    0.000000
  0.027600000   -1.789244  176.235809  -95.076693   24.355415    0.000000    0.000000    0.000000    0.000000
  0.027800000   -1.817560  174.479156  -95.494331   26.448761    0.000000    0.000000    0.000000    0.000000
  0.028000000   -1.850132  172.701614  -96.993635   23.386023    0.000000    0.000000    0.000000    0.000000
  0.028200000   -1.882463  170.908859  -95.149622   29.521481    0.000000    0.000000    0.000000    0.000000
  0.028400000   -1.911988  169.124100  -95.493621   19.778315    0.000000    0.000000    0.000000    0.000000
  0.028600000   -1.942035  167.339462  -96.949524   25.885658    0.000000    0.000000    0.000000    0.000000
  0.028800000   -1.972323  165.565247  -95.874694   21.826258    0.000000    0.000000    0.000000    0.000000
  0.029000000   -1.999939  163.793106  -96.759348   19.647598    0.000000    0.000000    0.000000    0.000000
  0.029200000   -2.030104  162.016098  -95.187543   23.932600    0.000000    0.000000    0.000000    0.000000
  0.029400000   -2.063455  160.234329  -96.647138   18.941917    0.000000    0.000000    0.000000    0.000000
  0.029600000   -2.098275  158.433182  -95.890671   15.187855    0.000000    0.000000    0.000000    0.000000
  0.029800000   -2.136939  156.619507  -97.018607   15.043422    0.000000    0.000000    0.000000    0.000000
  0.030000000   -2.176169  154.784958  -96.310771   20.334579    0.000000    0.000000    0.000000    0.000000
  0.030200000   -2.213843  152.915298  -96.060578   12.077696    0.000000    0.000000    0.000000    0.000000
  0.030400000   -2.251589  151.054016  -96.831948   18.504032    0.000000    0.000000    0.000000    0.000000
  0.030600000   -2.293804  149.203339  -97.136572   12.830914    0.000000    0.000000    0.000000    0.000000
  0.030800000   -2.333464  147.324448  -98.041534   21.947086    0.000000    0.000000    0.000000    0.000000
  0.031000000   -2.378745  145.443726  -97.300992   16.582561    0.000000    0.000000    0.000000    0.000000
  0.031200000   -2.419884  143.590393  -96.251952   12.003015    0.000000    0.000000    0.000000    0.000000
  0.031400000   -2.464605  141.644363  -97.202620   15.835040    0.000000    0.000000    0.000000    0.000000
  0.031600000   -2.509446  139.696472  -97.394609   16.315964    0.000000    0.000000    0.000000    0.000000
  0.031800000   -2.549404  137.735596  -97.811384   18.541698    0.000000    0.000000    0.000000    0.000000
  0.032000000   -2.591995  135.789459  -96.507250   23.650753    0.000000    0.000000    0.000000    0.000000
  0.032200000   -2.629733  133.855423  -97.365359   -1.064211    0.000000    0.000000    0.000000    0.000000
  0.032400000   -2.668861  131.912689  -96.550440    5.457033    0.000000    0.000000    0.000000    0.000000
  0.032600000   -2.709052  129.966919  -95.556078    7.237607    0.000000    0.000000    0.000000    0.000000
  0.032800000   -2.753392  128.046844  -97.579901   11.361042    0.000000    0.000000    0.000000    0.000000
  0.033000000   -2.799050  126.101204  -98.159661   19.180969    0.000000    0.000000    0.000000    0.000000
  0.033200000   -2.847584  124.158875  -98.413674   -1.816460    0.000000    0.000000    0.000000    0.000000
  0.033400000   -2.899177  122.176277  -97.083778   18.067183    0.000000    0.000000    0.000000    0.000000
  0.033600000   -2.956506  120.218117  -97.254892   13.544368    0.000000    0.000000    0.000000    0.000000
  0.033800000   -3.005789  118.168175  -96.886716    5.526103    0.000000    0.000000    0.000000    0.000000
  0.034000000   -3.052192  116.101524  -98.805295   13.329892    0.000000    0.000000    0.000000    0.000000
  0.034200000   -3.098062  114.012283  -98.028942   11.442203    0.000000    0.000000    0.000000    0.000000
  0.034400000   -3.139824  111.907585  -96.825585   22.453669    0.000000    0.000000    0.000000    0.000000
  0.034600000   -3.179558  109.835869  -98.660109   29.874454    0.000000    0.000000    0.000000    0.000000
  0.034800000   -3.214553  107.769562  -98.523041   -9.658935    0.000000    0.000000    0.000000    0.000000
  0.035000000   -3.251880  105.674042 -100.038911   21.047098    0.000000    0.000000    0.000000    0.000000
  0.035200000   -3.281971  103.638573  -99.367247   31.276823    0.000000    0.000000    0.000000    0.000000
  0.035400000   -3.307300  101.591698  -98.966605   17.311275    0.000000    0.000000    0.000000    0.000000
  0.035600000   -3.335221   99.554657  -97.110604    8.614722    0.000000    0.000000    0.000000    0.000000
  0.035800000   -3.365138   97.525002  -98.801609    1.853992    0.000000    0.000000    0.000000    0.000000
  0.036000000   -3.386204   95.507263  -99.695402    7.896371    0.000000    0.000000    0.000000    0.000000
  0.036200000   -3.411039   93.491478  -99.652056   18.283020    0.000000    0.000000    0.000000    0.000000
  0.036400000   -3.436808   91.510788  -99.408174   14.976134    0.000000    0.000000    0.000000    0.000000
  0.036600000   -3.460086   89.447205  -98.323739   17.825623    0.000000    0.000000    0.000000    0.000000
  0.036800000   -3.475206   87.387772  -97.979027    8.983157    0.000000    0.000000    0.000000    0.000000
  0.037000000   -3.495436   85.259758  -99.803772    8.919317    0.000000    0.000000    0.000000    0.000000
  0.037200000   -3.508014   83.049873 -101.960705    2.495816    0.000000    0.000000    0.000000    0.000000
  0.037400000   -3.514137   80.682274  -98.592860    6.305608    0.000000    0.000000    0.000000    0.000000
  0.037600000   -3.513976   78.225525 -100.398584   -1.140966    0.000000    0.000000    0.000000    0.000000
  0.037800000   -3.520816   75.545120 -103.316072   -1.485187    0.000000    0.000000    0.000000    0.000000
  0.038000000   -3.547827   72.714020 -101.113133   21.652637    0.000000    0.000000    0.000000    0.000000
  0.038200000   -3.601496   69.769775  -98.967089    8.756577    0.000000    0.000000    0.000000    0.000000
  0.038400000   -3.691052   66.872597  -99.144374    1.297066    0.000000    0.000000    0.000000    0.000000
  0.038600000   -3.809588   64.067772  -97.885619    3.146690    0.000000    0.000000    0.000000    0.000000
  0.038800000   -3.945365   61.549019  -99.013437    7.989546    0.000000    0.000000    0.000000    0.000000
  0.039000000   -4.075093   59.291573 -101.672276   14.575327    0.000000    0.000000    0.000000    0.000000
  0.039200000   -4.199438   57.200905 -100.561036    8.543325    0.000000    0.000000    0.000000    0.000000
  0.039400000   -4.307622   55.221977  -99.864653    5.885719    0.000000    0.000000    0.000000    0.000000
  0.039600000   -4.415049   53.264275 -101.708921   10.387720    0.000000    0.000000    0.000000    0.000000
  0.039800000   -4.499084   51.339874  -99.687679    9.216199    0.000000    0.000000    0.000000    0.000000
  0.040000000   -4.583600   49.380745  -99.100994   18.625994    0.000000    0.000000    0.000000    0.000000
  0.040200000   -4.657714   47.405128  -99.356169    0.017099    0.000000    0.000000    0.000000    0.000000
  0.040400000   -4.726487   45.407639 -101.139636    2.370614    0.000000    0.000000    0.000000    0.000000
  0.040600000   -4.786065   43.410618  -99.533941    8.882004    0.000000    0.000000    0.000000    0.000000
  0.040800000   -4.844146   41.389191 -100.294193   17.901638    0.000000    0.000000    0.000000    0.000000
  0.041000000   -4.899121   39.383213 -100.244353    4.828073    0.000000    0.000000    0.000000    0.000000
  0.041200000   -4.949065   37.342350 -102.373221    4.255556    0.000000    0.000000    0.000000    0.000000
  0.041400000   -4.998965   35.312618 -101.506849    4.355380    0.000000    0.000000    0.000000    0.000000
  0.041600000   -5.038833   33.274902  -98.628942    2.156421    0.000000    0.000000    0.000000    0.000000
  0.041800000   -5.083150   31.238297 -101.324289   -1.453976    0.000000    0.000000    0.000000    0.000000
  0.042000000   -5.119744   29.213194  -97.180089   -4.095012    0.000000    0.000000    0.000000    0.000000
  0.042200000   -5.159474   27.198513 -100.909403   11.359030    0.000000    0.000000    0.000000    0.000000
  0.042400000   -5.195156   25.217085 -100.885420   16.271374    0.000000    0.000000    0.000000    0.000000
  0.042600000   -5.232302   23.236488 -103.030406  -14.010202    0.000000    0.000000    0.000000    0.000000
  0.042800000   -5.266984   21.247921 -100.558525   -4.986599    0.000000    0.000000    0.000000    0.000000
