! Anritsu VNA Master:                     Model: MS2036C/10/77
! SN:                                  1601066
! /card0/usr/255.ew.n.r200.1.s2p
! Existing Calibration Information:
! TYPE:                         Current Settings,       Active Cal Settings
! TIME:             	   12/17/2017 06:46:50 PM,    12/17/2017 06:38:14 PM
! INTERNAL TEMP:    	                   43.5 C,                    43.8 C
! # POINTS:         	                      501,                       501
! START FREQ:       	               10.000 MHz,                10.000 MHz
! STOP FREQ:        	          107.903 125 MHz,           107.903 125 MHz
! SOURCE POWER:     	                     High,                      High
! IFBW:             	                   100 Hz,                    100 Hz
! AVG FACTOR:       	                       1 ,                        1 
! REF PLANE 1:      	                     0 mm,                      0 mm
! REF PLANE 2:      	                     0 mm,                      0 mm
! CAL TYPE:         	                 Full S11,                  Full S11
! CAL METHOD:       	                     SOLT,                      SOLT
! CAL LINE TYPE:    	                     Coax,                      Coax
! DUT PORT 1:       	                N-Conn(F),                 N-Conn(F)
! DUT PORT 2:       	                K-Conn(F),                 K-Conn(F)
! CAL STATUS:       	        OK: Accuracy High,                        --
# GHZ S DB R 50.0
! FREQ.GHZ       S11DB        S11A       S21DB        S21A       S12DB        S12A       S22DB        S22A
  0.010000000   -4.538196  -11.725488  -84.395932   76.968773    0.000000    0.000000    0.000000    0.000000
  0.010195806   -4.530705  -11.899054  -84.606600   78.288391    0.000000    0.000000    0.000000    0.000000
  0.010391613   -4.526140  -12.121743  -84.282009   75.059509    0.000000    0.000000    0.000000    0.000000
  0.010587419   -4.530980  -12.336623  -84.862720   77.611420    0.000000    0.000000    0.000000    0.000000
  0.010783225   -4.533086  -12.559472  -85.018395   75.092232    0.000000    0.000000    0.000000    0.000000
  0.010979031   -4.536122  -12.758465  -84.893869   76.842255    0.000000    0.000000    0.000000    0.000000
  0.011174837   -4.537636  -13.020576  -84.657477   76.066475    0.000000    0.000000    0.000000    0.000000
  0.011370644   -4.533317  -13.261971  -85.432901   75.350029    0.000000    0.000000    0.000000    0.000000
  0.011566450   -4.536504  -13.455164  -85.288936   75.054489    0.000000    0.000000    0.000000    0.000000
  0.011762256   -4.539215  -13.678816  -84.974555   76.385162    0.000000    0.000000    0.000000    0.000000
  0.011958062   -4.538939  -13.931188  -85.641054   71.980476    0.000000    0.000000    0.000000    0.000000
  0.012153869   -4.543501  -14.154600  -85.136887   70.348099    0.000000    0.000000    0.000000    0.000000
  0.012349675   -4.544255  -14.414443  -84.853597   71.325447    0.000000    0.000000    0.000000    0.000000
  0.012545481   -4.547745  -14.648970  -85.064733   71.089653    0.000000    0.000000    0.000000    0.000000
  0.012741288   -4.546822  -14.879301  -85.145716   64.564804    0.000000    0.000000    0.000000    0.000000
  0.012937094   -4.550482  -15.110679  -85.075299   64.606476    0.000000    0.000000    0.000000    0.000000
  0.013132900   -4.551279  -15.362707  -85.603841   64.402489    0.000000    0.000000    0.000000    0.000000
  0.013328706   -4.552589  -15.598347  -85.625111   61.025562    0.000000    0.000000    0.000000    0.000000
  0.013524512   -4.551404  -15.843241  -85.730437   64.092613    0.000000    0.000000    0.000000    0.000000
  0.013720319   -4.549487  -16.081640  -85.580955   60.224243    0.000000    0.000000    0.000000    0.000000
  0.013916125   -4.549077  -16.337336  -85.584832   55.632504    0.000000    0.000000    0.000000    0.000000
  0.014111931   -4.551674  -16.574421  -86.106277   55.573318    0.000000    0.000000    0.000000    0.000000
  0.014307738   -4.551243  -16.818640  -86.737219   52.050510    0.000000    0.000000    0.000000    0.000000
  0.014503544   -4.551649  -17.076080  -86.488885   52.656860    0.000000    0.000000    0.000000    0.000000
  0.014699350   -4.550714  -17.301645  -86.764502   46.672588    0.000000    0.000000    0.000000    0.000000
  0.014895156   -4.552698  -17.539818  -87.330978   50.101276    0.000000    0.000000    0.000000    0.000000
  0.015090962   -4.551589  -17.795242  -87.585164   49.118694    0.000000    0.000000    0.000000    0.000000
  0.015286769   -4.555562  -18.027582  -87.901899   47.423756    0.000000    0.000000    0.000000    0.000000
  0.015482575   -4.552255  -18.257341  -88.040649   44.659317    0.000000    0.000000    0.000000    0.000000
  0.015678381   -4.552738  -18.490278  -88.187512   45.916798    0.000000    0.000000    0.000000    0.000000
  0.015874188   -4.550055  -18.738956  -88.670966   43.378387    0.000000    0.000000    0.000000    0.000000
  0.016069994   -4.549783  -18.949945  -88.974650   46.741749    0.000000    0.000000    0.000000    0.000000
  0.016265800   -4.554732  -19.188427  -89.281389   45.722309    0.000000    0.000000    0.000000    0.000000
  0.016461606   -4.552643  -19.395662  -89.559626   46.739948    0.000000    0.000000    0.000000    0.000000
  0.016657412   -4.555208  -19.621502  -89.504306   44.890728    0.000000    0.000000    0.000000    0.000000
  0.016853219   -4.553729  -19.834249  -90.770410   41.465420    0.000000    0.000000    0.000000    0.000000
  0.017049025   -4.548240  -20.064438  -90.106956   46.165993    0.000000    0.000000    0.000000    0.000000
  0.017244831   -4.546375  -20.267111  -90.111789   45.606846    0.000000    0.000000    0.000000    0.000000
  0.017440638   -4.545509  -20.506487  -90.211381   48.025814    0.000000    0.000000    0.000000    0.000000
  0.017636444   -4.547711  -20.732344  -90.314168   43.626209    0.000000    0.000000    0.000000    0.000000
  0.017832250   -4.545844  -20.939781  -90.090028   42.841007    0.000000    0.000000    0.000000    0.000000
  0.018028056   -4.550138  -21.150591  -90.542357   44.749485    0.000000    0.000000    0.000000    0.000000
  0.018223862   -4.550833  -21.371735  -89.780568   46.964394    0.000000    0.000000    0.000000    0.000000
  0.018419669   -4.554852  -21.607136  -90.243853   47.733845    0.000000    0.000000    0.000000    0.000000
  0.018615475   -4.558688  -21.846510  -90.831839   48.229336    0.000000    0.000000    0.000000    0.000000
  0.018811281   -4.554480  -22.054737  -89.738751   44.538265    0.000000    0.000000    0.000000    0.000000
  0.019007087   -4.560309  -22.289560  -90.552643   41.538132    0.000000    0.000000    0.000000    0.000000
  0.019202894   -4.560572  -22.513845  -89.643978   45.461151    0.000000    0.000000    0.000000    0.000000
  0.019398700   -4.564264  -22.755245  -90.373572   45.041595    0.000000    0.000000    0.000000    0.000000
  0.019594506   -4.563099  -22.971994  -90.091101   41.453415    0.000000    0.000000    0.000000    0.000000
  0.019790313   -4.566147  -23.193983  -89.652350   41.338264    0.000000    0.000000    0.000000    0.000000
  0.019986119   -4.567498  -23.419041  -89.670035   40.749947    0.000000    0.000000    0.000000    0.000000
  0.020181925   -4.566812  -23.664808  -91.026278   36.647923    0.000000    0.000000    0.000000    0.000000
  0.020377731   -4.563909  -23.906742  -91.603005   37.799664    0.000000    0.000000    0.000000    0.000000
  0.020573537   -4.562561  -24.151546  -91.110055   34.133301    0.000000    0.000000    0.000000    0.000000
  0.020769344   -4.564381  -24.387070  -90.688936   37.388069    0.000000    0.000000    0.000000    0.000000
  0.020965150   -4.562923  -24.635181  -91.368407   33.219627    0.000000    0.000000    0.000000    0.000000
  0.021160956   -4.565664  -24.891855  -91.426849   30.277433    0.000000    0.000000    0.000000    0.000000
  0.021356762   -4.566243  -25.141985  -91.955281   31.033497    0.000000    0.000000    0.000000    0.000000
  0.021552569   -4.566717  -25.395126  -92.463695   29.124691    0.000000    0.000000    0.000000    0.000000
  0.021748375   -4.565918  -25.627165  -91.725031   27.598080    0.000000    0.000000    0.000000    0.000000
  0.021944181   -4.566341  -25.843269  -92.256106   30.727461    0.000000    0.000000    0.000000    0.000000
  0.022139988   -4.570515  -26.083235  -92.526263   28.707146    0.000000    0.000000    0.000000    0.000000
  0.022335794   -4.569337  -26.302670  -92.198585   28.928505    0.000000    0.000000    0.000000    0.000000
  0.022531600   -4.568986  -26.525290  -92.192026   28.166931    0.000000    0.000000    0.000000    0.000000
  0.022727406   -4.571513  -26.750513  -92.431875   28.054352    0.000000    0.000000    0.000000    0.000000
  0.022923213   -4.569095  -26.974504  -92.672572   25.096960    0.000000    0.000000    0.000000    0.000000
  0.023119019   -4.573467  -27.210941  -94.473232   30.220818    0.000000    0.000000    0.000000    0.000000
  0.023314825   -4.572665  -27.461323  -93.254403   30.409508    0.000000    0.000000    0.000000    0.000000
  0.023510631   -4.573178  -27.674713  -93.531629   29.454710    0.000000    0.000000    0.000000    0.000000
  0.023706438   -4.569834  -27.901306  -92.976225   23.681063    0.000000    0.000000    0.000000    0.000000
  0.023902244   -4.569219  -28.136169  -94.457368   33.695107    0.000000    0.000000    0.000000    0.000000
  0.024098050   -4.563561  -28.365559  -94.178265   27.511837    0.000000    0.000000    0.000000    0.000000
  0.024293856   -4.564195  -28.615229  -94.292466   25.960766    0.000000    0.000000    0.000000    0.000000
  0.024489662   -4.564502  -28.849190  -94.553039   28.509333    0.000000    0.000000    0.000000    0.000000
  0.024685469   -4.566363  -29.076191  -93.693254   24.151154    0.000000    0.000000    0.000000    0.000000
  0.024881275   -4.566801  -29.305529  -93.463718   28.276567    0.000000    0.000000    0.000000    0.000000
  0.025077081   -4.569576  -29.529865  -94.242839   25.452805    0.000000    0.000000    0.000000    0.000000
  0.025272888   -4.569742  -29.729164  -93.869088   28.928549    0.000000    0.000000    0.000000    0.000000
  0.025468694   -4.573880  -29.954248  -93.750548   22.608397    0.000000    0.000000    0.000000    0.000000
  0.025664500   -4.577270  -30.162027  -93.799904   31.922661    0.000000    0.000000    0.000000    0.000000
  0.025860306   -4.580584  -30.357622  -93.882520   33.979851    0.000000    0.000000    0.000000    0.000000
  0.026056112   -4.580600  -30.582401  -93.722219   20.985432    0.000000    0.000000    0.000000    0.000000
  0.026251919   -4.583316  -30.820589  -93.856431   22.338139    0.000000    0.000000    0.000000    0.000000
  0.026447725   -4.585210  -31.072468  -94.094868   27.079191    0.000000    0.000000    0.000000    0.000000
  0.026643531   -4.591671  -31.313538  -95.024920   21.509016    0.000000    0.000000    0.000000    0.000000
  0.026839338   -4.592343  -31.571480  -94.279171   21.339952    0.000000    0.000000    0.000000    0.000000
  0.027035144   -4.590493  -31.835758  -94.642178   17.468233    0.000000    0.000000    0.000000    0.000000
  0.027230950   -4.589631  -32.125996  -95.612859   18.144428    0.000000    0.000000    0.000000    0.000000
  0.027426756   -4.591743  -32.377861  -95.372589   26.051796    0.000000    0.000000    0.000000    0.000000
  0.027622562   -4.592383  -32.630112  -95.389788   22.955153    0.000000    0.000000    0.000000    0.000000
  0.027818369   -4.595057  -32.887157  -95.187464   22.132156    0.000000    0.000000    0.000000    0.000000
  0.028014175   -4.594254  -33.151382  -95.175930   21.361170    0.000000    0.000000    0.000000    0.000000
  0.028209981   -4.590369  -33.427750  -95.394730   23.364910    0.000000    0.000000    0.000000    0.000000
  0.028405788   -4.587012  -33.685108  -95.770500   21.023684    0.000000    0.000000    0.000000    0.000000
  0.028601594   -4.581537  -33.923923  -97.120607   25.279852    0.000000    0.000000    0.000000    0.000000
  0.028797400   -4.576780  -34.124802  -96.636133   15.790900    0.000000    0.000000    0.000000    0.000000
  0.028993206   -4.575014  -34.330818  -97.510189   19.664148    0.000000    0.000000    0.000000    0.000000
  0.029189013   -4.572451  -34.505150  -96.496005   16.108765    0.000000    0.000000    0.000000    0.000000
  0.029384819   -4.573026  -34.687229  -96.986940   18.449945    0.000000    0.000000    0.000000    0.000000
  0.029580625   -4.571637  -34.898773  -96.347635   23.577255    0.000000    0.000000    0.000000    0.000000
  0.029776431   -4.575617  -35.079842  -97.519736   21.641233    0.000000    0.000000    0.000000    0.000000
  0.029972237   -4.583126  -35.305538  -97.576767   22.027758    0.000000    0.000000    0.000000    0.000000
  0.030168044   -4.585655  -35.540646  -97.695711   23.222113    0.000000    0.000000    0.000000    0.000000
  0.030363850   -4.589317  -35.772503  -97.697725    9.164227    0.000000    0.000000    0.000000    0.000000
  0.030559656   -4.590354  -36.015354  -98.257747   19.068129    0.000000    0.000000    0.000000    0.000000
  0.030755463   -4.587186  -36.274944  -97.934404   24.102400    0.000000    0.000000    0.000000    0.000000
  0.030951269   -4.586788  -36.507275  -97.267338   16.311682    0.000000    0.000000    0.000000    0.000000
  0.031147075   -4.581641  -36.745380  -97.764125   11.180678    0.000000    0.000000    0.000000    0.000000
  0.031342881   -4.582765  -36.975224  -97.700373   19.855991    0.000000    0.000000    0.000000    0.000000
  0.031538687   -4.581793  -37.210560  -96.696495    7.395182    0.000000    0.000000    0.000000    0.000000
  0.031734494   -4.573533  -37.406002  -98.301615    8.615156    0.000000    0.000000    0.000000    0.000000
  0.031930300   -4.574104  -37.632225  -97.570484   12.903788    0.000000    0.000000    0.000000    0.000000
  0.032126106   -4.570251  -37.823734  -96.900516   14.077247    0.000000    0.000000    0.000000    0.000000
  0.032321913   -4.568296  -38.036667  -99.091060   24.965660    0.000000    0.000000    0.000000    0.000000
  0.032517719   -4.560138  -38.216660  -98.216125   10.343738    0.000000    0.000000    0.000000    0.000000
  0.032713525   -4.561132  -38.402431  -96.708754   21.907829    0.000000    0.000000    0.000000    0.000000
  0.032909331   -4.560755  -38.608906  -98.241329   12.774839    0.000000    0.000000    0.000000    0.000000
  0.033105137   -4.559572  -38.810684  -99.186080   12.099369    0.000000    0.000000    0.000000    0.000000
  0.033300944   -4.564500  -39.022572  -97.326875   19.872442    0.000000    0.000000    0.000000    0.000000
  0.033496750   -4.571603  -39.223385  -97.064031   -0.758502    0.000000    0.000000    0.000000    0.000000
  0.033692556   -4.574660  -39.469589  -97.673527   10.826040    0.000000    0.000000    0.000000    0.000000
  0.033888362   -4.577471  -39.691139  -98.334153   12.455781    0.000000    0.000000    0.000000    0.000000
  0.034084169   -4.582515  -39.937019  -97.096448    7.633469    0.000000    0.000000    0.000000    0.000000
  0.034279975   -4.588495  -40.180359 -100.354714   10.318175    0.000000    0.000000    0.000000    0.000000
  0.034475781   -4.592838  -40.459503  -98.318370   24.883600    0.000000    0.000000    0.000000    0.000000
  0.034671588   -4.596324  -40.702621  -98.418468   16.197382    0.000000    0.000000    0.000000    0.000000
  0.034867394   -4.600893  -40.978531  -98.906594    8.022493    0.000000    0.000000    0.000000    0.000000
  0.035063200   -4.606287  -41.265324  -97.661903   10.786208    0.000000    0.000000    0.000000    0.000000
  0.035259006   -4.607707  -41.514496  -98.957003   24.170773    0.000000    0.000000    0.000000    0.000000
  0.035454812   -4.609615  -41.772545  -99.056042    4.664591    0.000000    0.000000    0.000000    0.000000
  0.035650619   -4.608879  -42.028091  -98.426692   18.782288    0.000000    0.000000    0.000000    0.000000
  0.035846425   -4.606240  -42.265450  -98.801816   -0.554097    0.000000    0.000000    0.000000    0.000000
  0.036042231   -4.603454  -42.537659  -99.242071   12.136916    0.000000    0.000000    0.000000    0.000000
  0.036238037   -4.596154  -42.779465  -98.600326    9.443995    0.000000    0.000000    0.000000    0.000000
  0.036433844   -4.593131  -43.032162  -98.461156    9.844661    0.000000    0.000000    0.000000    0.000000
  0.036629650   -4.586815  -43.232719 -100.131504    9.705273    0.000000    0.000000    0.000000    0.000000
  0.036825456   -4.586984  -43.462101 -100.613729   17.670696    0.000000    0.000000    0.000000    0.000000
  0.037021262   -4.581121  -43.641354 -103.517043   15.400721    0.000000    0.000000    0.000000    0.000000
  0.037217069   -4.584480  -43.826515 -100.182301    5.110421    0.000000    0.000000    0.000000    0.000000
  0.037412875   -4.587033  -44.028458  -98.698400    6.356908    0.000000    0.000000    0.000000    0.000000
  0.037608681   -4.596157  -44.266796  -99.817316   16.661676    0.000000    0.000000    0.000000    0.000000
  0.037804487   -4.602119  -44.485634  -99.944642   10.124233    0.000000    0.000000    0.000000    0.000000
  0.038000294   -4.608061  -44.744640  -97.917147    5.059182    0.000000    0.000000    0.000000    0.000000
  0.038196100   -4.615708  -45.007854  -99.134657    1.056732    0.000000    0.000000    0.000000    0.000000
  0.038391906   -4.624378  -45.232105  -99.305429   17.113003    0.000000    0.000000    0.000000    0.000000
  0.038587713   -4.624271  -45.494843  -97.278200    8.959705    0.000000    0.000000    0.000000    0.000000
  0.038783519   -4.625146  -45.771606  -99.829842    8.454979    0.000000    0.000000    0.000000    0.000000
  0.038979325   -4.628204  -46.021996  -99.033812   10.224669    0.000000    0.000000    0.000000    0.000000
  0.039175131   -4.627181  -46.306431 -100.476585   12.696435    0.000000    0.000000    0.000000    0.000000
  0.039370938   -4.623937  -46.570404  -98.810583   13.336466    0.000000    0.000000    0.000000    0.000000
  0.039566744   -4.616972  -46.817291 -100.645468    8.507640    0.000000    0.000000    0.000000    0.000000
  0.039762550   -4.614220  -47.052681  -99.121571   -6.148067    0.000000    0.000000    0.000000    0.000000
  0.039958356   -4.610104  -47.304214  -98.961837   23.070330    0.000000    0.000000    0.000000    0.000000
  0.040154163   -4.606965  -47.533295  -99.739989    0.935497    0.000000    0.000000    0.000000    0.000000
  0.040349969   -4.604228  -47.751217  -99.104092    4.118108    0.000000    0.000000    0.000000    0.000000
  0.040545775   -4.600294  -47.959259  -97.869596    2.857126    0.000000    0.000000    0.000000    0.000000
  0.040741581   -4.604112  -48.182323 -101.732258   -2.482143    0.000000    0.000000    0.000000    0.000000
  0.040937387   -4.606716  -48.406189 -101.386673    4.665831    0.000000    0.000000    0.000000    0.000000
  0.041133194   -4.608857  -48.661312 -100.242455    3.319114    0.000000    0.000000    0.000000    0.000000
  0.041329000   -4.616898  -48.904514 -104.702088    9.167398    0.000000    0.000000    0.000000    0.000000
  0.041524806   -4.619369  -49.175850 -102.334466   -1.677525    0.000000    0.000000    0.000000    0.000000
  0.041720612   -4.619583  -49.436245 -103.182819    4.411607    0.000000    0.000000    0.000000    0.000000
  0.041916419   -4.620893  -49.697968 -103.700078   -4.457624    0.000000    0.000000    0.000000    0.000000
  0.042112225   -4.623834  -49.956707 -104.044327  -11.352750    0.000000    0.000000    0.000000    0.000000
