! Anritsu VNA Master:                     Model: MS2036C/10/77
! SN:                                  1601066
! /card0/usr/255.ew.sma.r200.v2.s2p
! Existing Calibration Information:
! TYPE:                         Current Settings,       Active Cal Settings
! TIME:             	   12/17/2017 06:18:46 PM,    12/17/2017 06:11:23 PM
! INTERNAL TEMP:    	                   43.8 C,                    43.8 C
! # POINTS:         	                      501,                       501
! START FREQ:       	               10.000 MHz,                10.000 MHz
! STOP FREQ:        	          107.903 125 MHz,           107.903 125 MHz
! SOURCE POWER:     	                     High,                      High
! IFBW:             	                   100 Hz,                    100 Hz
! AVG FACTOR:       	                       1 ,                        1 
! REF PLANE 1:      	                     0 mm,                      0 mm
! REF PLANE 2:      	                     0 mm,                      0 mm
! CAL TYPE:         	                 Full S11,                  Full S11
! CAL METHOD:       	                     SOLT,                      SOLT
! CAL LINE TYPE:    	                     Coax,                      Coax
! DUT PORT 1:       	                K-Conn(F),                 K-Conn(F)
! DUT PORT 2:       	                K-Conn(F),                 K-Conn(F)
! CAL STATUS:       	        OK: Accuracy High,                        --
# GHZ S DB R 50.0
! FREQ.GHZ       S11DB        S11A       S21DB        S21A       S12DB        S12A       S22DB        S22A
  0.010000000   -4.543632  -10.722589  -84.022822   75.765656    0.000000    0.000000    0.000000    0.000000
  0.010195806   -4.532336  -10.902119  -84.630602   77.939888    0.000000    0.000000    0.000000    0.000000
  0.010391613   -4.529200  -11.110113  -84.709840   77.021584    0.000000    0.000000    0.000000    0.000000
  0.010587419   -4.533719  -11.317185  -84.697647   74.272102    0.000000    0.000000    0.000000    0.000000
  0.010783225   -4.533165  -11.555840  -84.728495   77.699242    0.000000    0.000000    0.000000    0.000000
  0.010979031   -4.538987  -11.770681  -85.321609   74.000336    0.000000    0.000000    0.000000    0.000000
  0.011174837   -4.537715  -11.973973  -84.871383   75.173172    0.000000    0.000000    0.000000    0.000000
  0.011370644   -4.538210  -12.186296  -85.047133   76.490051    0.000000    0.000000    0.000000    0.000000
  0.011566450   -4.536314  -12.406522  -84.879608   75.639061    0.000000    0.000000    0.000000    0.000000
  0.011762256   -4.536071  -12.618392  -85.230274   74.781715    0.000000    0.000000    0.000000    0.000000
  0.011958062   -4.537577  -12.834440  -84.894927   74.200623    0.000000    0.000000    0.000000    0.000000
  0.012153869   -4.537404  -13.042629  -85.487848   72.149178    0.000000    0.000000    0.000000    0.000000
  0.012349675   -4.540490  -13.266277  -84.568771   70.553886    0.000000    0.000000    0.000000    0.000000
  0.012545481   -4.537957  -13.490639  -85.261637   68.211052    0.000000    0.000000    0.000000    0.000000
  0.012741288   -4.539637  -13.713507  -85.213139   70.373695    0.000000    0.000000    0.000000    0.000000
  0.012937094   -4.540620  -13.919003  -85.308278   62.658195    0.000000    0.000000    0.000000    0.000000
  0.013132900   -4.541798  -14.133526  -85.308814   63.316200    0.000000    0.000000    0.000000    0.000000
  0.013328706   -4.542521  -14.339559  -85.453015   60.962055    0.000000    0.000000    0.000000    0.000000
  0.013524512   -4.544405  -14.542507  -85.339134   58.141144    0.000000    0.000000    0.000000    0.000000
  0.013720319   -4.545323  -14.762052  -85.814966   59.534504    0.000000    0.000000    0.000000    0.000000
  0.013916125   -4.546344  -14.973339  -85.965746   55.355385    0.000000    0.000000    0.000000    0.000000
  0.014111931   -4.545133  -15.206138  -86.083061   55.217865    0.000000    0.000000    0.000000    0.000000
  0.014307738   -4.548046  -15.433595  -86.501911   54.122543    0.000000    0.000000    0.000000    0.000000
  0.014503544   -4.548124  -15.644762  -86.649938   53.475861    0.000000    0.000000    0.000000    0.000000
  0.014699350   -4.548408  -15.853720  -87.175503   51.427372    0.000000    0.000000    0.000000    0.000000
  0.014895156   -4.552164  -16.072428  -87.114877   48.360966    0.000000    0.000000    0.000000    0.000000
  0.015090962   -4.551077  -16.292610  -87.906899   48.218689    0.000000    0.000000    0.000000    0.000000
  0.015286769   -4.555434  -16.496675  -87.591983   46.449234    0.000000    0.000000    0.000000    0.000000
  0.015482575   -4.551257  -16.745602  -88.079930   47.834152    0.000000    0.000000    0.000000    0.000000
  0.015678381   -4.553354  -16.961622  -88.829973   47.419407    0.000000    0.000000    0.000000    0.000000
  0.015874188   -4.554732  -17.196690  -88.400040   48.290794    0.000000    0.000000    0.000000    0.000000
  0.016069994   -4.557864  -17.379852  -88.319137   39.911423    0.000000    0.000000    0.000000    0.000000
  0.016265800   -4.558838  -17.602402  -88.749193   46.743832    0.000000    0.000000    0.000000    0.000000
  0.016461606   -4.559008  -17.816959  -89.868688   43.249657    0.000000    0.000000    0.000000    0.000000
  0.016657412   -4.558399  -18.024202  -89.987442   45.095440    0.000000    0.000000    0.000000    0.000000
  0.016853219   -4.559270  -18.242834  -89.434795   43.524952    0.000000    0.000000    0.000000    0.000000
  0.017049025   -4.559242  -18.461134  -89.620472   43.156898    0.000000    0.000000    0.000000    0.000000
  0.017244831   -4.553333  -18.695917  -89.479665   44.066715    0.000000    0.000000    0.000000    0.000000
  0.017440638   -4.552970  -18.888926  -90.669581   46.022438    0.000000    0.000000    0.000000    0.000000
  0.017636444   -4.554010  -19.119555  -90.088065   45.945602    0.000000    0.000000    0.000000    0.000000
  0.017832250   -4.554764  -19.331638  -90.218641   45.208900    0.000000    0.000000    0.000000    0.000000
  0.018028056   -4.555504  -19.526747  -90.197014   50.356342    0.000000    0.000000    0.000000    0.000000
  0.018223862   -4.553300  -19.736034  -89.917822   49.777893    0.000000    0.000000    0.000000    0.000000
  0.018419669   -4.561027  -19.961546  -90.378952   48.224609    0.000000    0.000000    0.000000    0.000000
  0.018615475   -4.561508  -20.165764  -91.047975   52.351242    0.000000    0.000000    0.000000    0.000000
  0.018811281   -4.562900  -20.383873  -89.982788   47.318031    0.000000    0.000000    0.000000    0.000000
  0.019007087   -4.558845  -20.591341  -90.244648   45.370296    0.000000    0.000000    0.000000    0.000000
  0.019202894   -4.561644  -20.801462  -90.395078   46.951229    0.000000    0.000000    0.000000    0.000000
  0.019398700   -4.561294  -21.011917  -90.013501   44.995251    0.000000    0.000000    0.000000    0.000000
  0.019594506   -4.560975  -21.230007  -90.582850   42.734371    0.000000    0.000000    0.000000    0.000000
  0.019790313   -4.562952  -21.445297  -90.815478   44.730785    0.000000    0.000000    0.000000    0.000000
  0.019986119   -4.562974  -21.643064  -90.869167   44.066666    0.000000    0.000000    0.000000    0.000000
  0.020181925   -4.562427  -21.873730  -90.405106   35.356388    0.000000    0.000000    0.000000    0.000000
  0.020377731   -4.565036  -22.090498  -90.506537   41.852901    0.000000    0.000000    0.000000    0.000000
  0.020573537   -4.562055  -22.300776  -90.217628   33.236160    0.000000    0.000000    0.000000    0.000000
  0.020769344   -4.562745  -22.518217  -91.486120   38.865501    0.000000    0.000000    0.000000    0.000000
  0.020965150   -4.562192  -22.758020  -90.973032   34.199944    0.000000    0.000000    0.000000    0.000000
  0.021160956   -4.565545  -22.969679  -91.112317   37.113197    0.000000    0.000000    0.000000    0.000000
  0.021356762   -4.566221  -23.208849  -91.519294   34.702484    0.000000    0.000000    0.000000    0.000000
  0.021552569   -4.566319  -23.434053  -92.209712   30.921638    0.000000    0.000000    0.000000    0.000000
  0.021748375   -4.570750  -23.641045  -91.944744   27.791117    0.000000    0.000000    0.000000    0.000000
  0.021944181   -4.569395  -23.841990  -92.068373   30.334909    0.000000    0.000000    0.000000    0.000000
  0.022139988   -4.569544  -24.068312  -93.258560   24.502005    0.000000    0.000000    0.000000    0.000000
  0.022335794   -4.572437  -24.294062  -92.000657   31.129711    0.000000    0.000000    0.000000    0.000000
  0.022531600   -4.571819  -24.511509  -94.202250   26.449957    0.000000    0.000000    0.000000    0.000000
  0.022727406   -4.570317  -24.704088  -93.042804   29.879854    0.000000    0.000000    0.000000    0.000000
  0.022923213   -4.572522  -24.931889  -93.575372   24.053495    0.000000    0.000000    0.000000    0.000000
  0.023119019   -4.576019  -25.155228  -92.988928   33.405361    0.000000    0.000000    0.000000    0.000000
  0.023314825   -4.575293  -25.376350  -93.357152   23.266546    0.000000    0.000000    0.000000    0.000000
  0.023510631   -4.576043  -25.623816  -94.289497   29.946238    0.000000    0.000000    0.000000    0.000000
  0.023706438   -4.574720  -25.827906  -93.127394   26.065845    0.000000    0.000000    0.000000    0.000000
  0.023902244   -4.571189  -26.061117  -92.859897   24.035248    0.000000    0.000000    0.000000    0.000000
  0.024098050   -4.568275  -26.279202  -93.835519   28.061218    0.000000    0.000000    0.000000    0.000000
  0.024293856   -4.565110  -26.494232  -94.197801   28.937786    0.000000    0.000000    0.000000    0.000000
  0.024489662   -4.564608  -26.730820  -94.635497   30.315966    0.000000    0.000000    0.000000    0.000000
  0.024685469   -4.565770  -26.949425  -95.140450   23.463955    0.000000    0.000000    0.000000    0.000000
  0.024881275   -4.564701  -27.151386  -94.176197   31.611881    0.000000    0.000000    0.000000    0.000000
  0.025077081   -4.565319  -27.362907  -93.194729   35.241909    0.000000    0.000000    0.000000    0.000000
  0.025272888   -4.564569  -27.557579  -93.441625   26.411654    0.000000    0.000000    0.000000    0.000000
  0.025468694   -4.567801  -27.726404  -94.514705   24.869059    0.000000    0.000000    0.000000    0.000000
  0.025664500   -4.570093  -27.935352  -93.841843   22.149227    0.000000    0.000000    0.000000    0.000000
  0.025860306   -4.568696  -28.113218  -94.293725   33.241734    0.000000    0.000000    0.000000    0.000000
  0.026056112   -4.571440  -28.317598  -94.743357   22.349428    0.000000    0.000000    0.000000    0.000000
  0.026251919   -4.576853  -28.510529  -95.280055   23.825583    0.000000    0.000000    0.000000    0.000000
  0.026447725   -4.579595  -28.725826  -94.812589   28.201052    0.000000    0.000000    0.000000    0.000000
  0.026643531   -4.578568  -28.931179  -94.051211   17.165421    0.000000    0.000000    0.000000    0.000000
  0.026839338   -4.578826  -29.152058  -94.475663   23.426569    0.000000    0.000000    0.000000    0.000000
  0.027035144   -4.583538  -29.386738  -95.109376   22.265007    0.000000    0.000000    0.000000    0.000000
  0.027230950   -4.580658  -29.620440  -94.154315   23.729445    0.000000    0.000000    0.000000    0.000000
  0.027426756   -4.583562  -29.822689  -95.200991   28.864460    0.000000    0.000000    0.000000    0.000000
  0.027622562   -4.584994  -30.062170  -94.465960   19.877537    0.000000    0.000000    0.000000    0.000000
  0.027818369   -4.587897  -30.298634  -94.595521   12.245371    0.000000    0.000000    0.000000    0.000000
  0.028014175   -4.590904  -30.535105  -95.735148   14.668339    0.000000    0.000000    0.000000    0.000000
  0.028209981   -4.589884  -30.782627  -97.007635   16.599619    0.000000    0.000000    0.000000    0.000000
  0.028405788   -4.586711  -31.022306  -95.448309   20.321472    0.000000    0.000000    0.000000    0.000000
  0.028601594   -4.582545  -31.232416  -96.379401   20.324238    0.000000    0.000000    0.000000    0.000000
  0.028797400   -4.580525  -31.432438  -95.930059   19.956240    0.000000    0.000000    0.000000    0.000000
  0.028993206   -4.583040  -31.627275  -96.718780   13.638311    0.000000    0.000000    0.000000    0.000000
  0.029189013   -4.580830  -31.817804  -95.850502   22.450787    0.000000    0.000000    0.000000    0.000000
  0.029384819   -4.583578  -32.004910  -97.290939   16.976934    0.000000    0.000000    0.000000    0.000000
  0.029580625   -4.585226  -32.178425  -95.967260   16.834711    0.000000    0.000000    0.000000    0.000000
  0.029776431   -4.589817  -32.399158  -97.364806   16.762129    0.000000    0.000000    0.000000    0.000000
  0.029972237   -4.595579  -32.617744  -96.281173    5.185432    0.000000    0.000000    0.000000    0.000000
  0.030168044   -4.600706  -32.855297  -98.592975   23.030415    0.000000    0.000000    0.000000    0.000000
  0.030363850   -4.601079  -33.101078  -96.472041   18.343008    0.000000    0.000000    0.000000    0.000000
  0.030559656   -4.604528  -33.344372  -98.028345   14.866533    0.000000    0.000000    0.000000    0.000000
  0.030755463   -4.603998  -33.613659  -96.765263   13.781975    0.000000    0.000000    0.000000    0.000000
  0.030951269   -4.599725  -33.875031  -97.257985    8.750315    0.000000    0.000000    0.000000    0.000000
  0.031147075   -4.593214  -34.103321  -97.130997   11.277145    0.000000    0.000000    0.000000    0.000000
  0.031342881   -4.593001  -34.309975  -96.600662   15.712439    0.000000    0.000000    0.000000    0.000000
  0.031538687   -4.589373  -34.577396  -96.769275   29.331501    0.000000    0.000000    0.000000    0.000000
  0.031734494   -4.589012  -34.777107  -97.042611   18.691410    0.000000    0.000000    0.000000    0.000000
  0.031930300   -4.579523  -35.013031  -98.508625   17.932888    0.000000    0.000000    0.000000    0.000000
  0.032126106   -4.572462  -35.197227  -96.903289   14.533063    0.000000    0.000000    0.000000    0.000000
  0.032321913   -4.566862  -35.389545  -98.432507   14.896197    0.000000    0.000000    0.000000    0.000000
  0.032517719   -4.558128  -35.585846  -97.976060    3.257770    0.000000    0.000000    0.000000    0.000000
  0.032713525   -4.560230  -35.752205  -96.618518   21.120543    0.000000    0.000000    0.000000    0.000000
  0.032909331   -4.549989  -35.950485  -97.464139    8.444907    0.000000    0.000000    0.000000    0.000000
  0.033105137   -4.553789  -36.101761  -97.081058    4.579145    0.000000    0.000000    0.000000    0.000000
  0.033300944   -4.557441  -36.281799  -96.532754   19.033491    0.000000    0.000000    0.000000    0.000000
  0.033496750   -4.558182  -36.501205  -97.054673    7.635009    0.000000    0.000000    0.000000    0.000000
  0.033692556   -4.559606  -36.697929  -99.152687   20.870802    0.000000    0.000000    0.000000    0.000000
  0.033888362   -4.557329  -36.888760  -96.407739   17.102945    0.000000    0.000000    0.000000    0.000000
  0.034084169   -4.560630  -37.109612  -98.992151   28.125925    0.000000    0.000000    0.000000    0.000000
  0.034279975   -4.566802  -37.306595  -97.218496   18.910711    0.000000    0.000000    0.000000    0.000000
  0.034475781   -4.568826  -37.499489  -98.108384   11.650202    0.000000    0.000000    0.000000    0.000000
  0.034671588   -4.573763  -37.728302  -97.778444   10.462229    0.000000    0.000000    0.000000    0.000000
  0.034867394   -4.581342  -37.963547  -97.750565   13.499028    0.000000    0.000000    0.000000    0.000000
  0.035063200   -4.583903  -38.199093  -97.506060   10.102569    0.000000    0.000000    0.000000    0.000000
  0.035259006   -4.589578  -38.420956 -100.306151    6.460836    0.000000    0.000000    0.000000    0.000000
  0.035454812   -4.588994  -38.630184  -97.998278    4.777623    0.000000    0.000000    0.000000    0.000000
  0.035650619   -4.588480  -38.846230 -102.639292    5.524246    0.000000    0.000000    0.000000    0.000000
  0.035846425   -4.588969  -39.043373  -97.258187    5.257214    0.000000    0.000000    0.000000    0.000000
  0.036042231   -4.585094  -39.299011  -99.602712   25.088114    0.000000    0.000000    0.000000    0.000000
  0.036238037   -4.582400  -39.541630 -100.253563    2.305876    0.000000    0.000000    0.000000    0.000000
  0.036433844   -4.580524  -39.755455  -98.668951   15.641954    0.000000    0.000000    0.000000    0.000000
  0.036629650   -4.577590  -39.961597  -98.918248   16.092018    0.000000    0.000000    0.000000    0.000000
  0.036825456   -4.574309  -40.138741  -98.741386   16.872250    0.000000    0.000000    0.000000    0.000000
  0.037021262   -4.570710  -40.310993  -99.534511   11.361054    0.000000    0.000000    0.000000    0.000000
  0.037217069   -4.573718  -40.476112  -99.636640    1.281436    0.000000    0.000000    0.000000    0.000000
  0.037412875   -4.577562  -40.690369  -99.495446    6.560194    0.000000    0.000000    0.000000    0.000000
  0.037608681   -4.586401  -40.878021  -98.706117   21.579521    0.000000    0.000000    0.000000    0.000000
  0.037804487   -4.591756  -41.098866  -98.804126   13.733229    0.000000    0.000000    0.000000    0.000000
  0.038000294   -4.598373  -41.315331  -99.940822    5.795530    0.000000    0.000000    0.000000    0.000000
  0.038196100   -4.605729  -41.557571 -101.626271   23.803949    0.000000    0.000000    0.000000    0.000000
  0.038391906   -4.610154  -41.817528  -99.418266    3.581551    0.000000    0.000000    0.000000    0.000000
  0.038587713   -4.613070  -42.057079  -98.804236   20.355415    0.000000    0.000000    0.000000    0.000000
  0.038783519   -4.614829  -42.304070 -100.531126   11.382225    0.000000    0.000000    0.000000    0.000000
  0.038979325   -4.612512  -42.556679 -100.053983   21.323109    0.000000    0.000000    0.000000    0.000000
  0.039175131   -4.609241  -42.796379 -100.855684    8.742989    0.000000    0.000000    0.000000    0.000000
  0.039370938   -4.607366  -43.058220  -98.606330    8.580766    0.000000    0.000000    0.000000    0.000000
  0.039566744   -4.603505  -43.271671  -98.914961    3.827649    0.000000    0.000000    0.000000    0.000000
  0.039762550   -4.594020  -43.488022  -98.900281   13.640868    0.000000    0.000000    0.000000    0.000000
  0.039958356   -4.589399  -43.667004  -97.370361   16.634089    0.000000    0.000000    0.000000    0.000000
  0.040154163   -4.586128  -43.875076 -100.084892    5.780801    0.000000    0.000000    0.000000    0.000000
  0.040349969   -4.582437  -44.056168 -101.123393    5.955976    0.000000    0.000000    0.000000    0.000000
  0.040545775   -4.583445  -44.245205 -100.255614    4.496165    0.000000    0.000000    0.000000    0.000000
  0.040741581   -4.582524  -44.412632 -100.653085    1.415329    0.000000    0.000000    0.000000    0.000000
  0.040937387   -4.588266  -44.618931 -103.639431   13.081864    0.000000    0.000000    0.000000    0.000000
  0.041133194   -4.595039  -44.814064 -100.204622   -2.625672    0.000000    0.000000    0.000000    0.000000
  0.041329000   -4.599078  -45.027584 -100.568239   -0.665159    0.000000    0.000000    0.000000    0.000000
  0.041524806   -4.603508  -45.257153 -100.889727   -2.882654    0.000000    0.000000    0.000000    0.000000
  0.041720612   -4.605135  -45.483498 -102.744819    3.287694    0.000000    0.000000    0.000000    0.000000
  0.041916419   -4.607630  -45.696781 -101.644076    1.807475    0.000000    0.000000    0.000000    0.000000
  0.042112225   -4.611290  -45.918793 -101.694428   -6.337692    0.000000    0.000000    0.000000    0.000000
