! Anritsu VNA Master:                     Model: MS2036C/10/77
! SN:                                  1601066
! /bd0/18may26.balun/4b.66.3.s2p
! Existing Calibration Information:
! TYPE:                         Current Settings,       Active Cal Settings
! TIME:             	   05/26/2018 05:16:19 PM,    05/26/2018 05:08:07 PM
! INTERNAL TEMP:    	                   52.8 C,                    52.5 C
! # POINTS:         	                      500,                       500
! START FREQ:       	               20.000 MHz,                20.000 MHz
! STOP FREQ:        	              120.000 MHz,               120.000 MHz
! SOURCE POWER:     	                     High,                      High
! IFBW:             	                    50 Hz,                     50 Hz
! AVG FACTOR:       	                       1 ,                        1 
! REF PLANE 1:      	                     0 mm,                      0 mm
! REF PLANE 2:      	                     0 mm,                      0 mm
! CAL TYPE:         	                 Full S11,                  Full S11
! CAL METHOD:       	                     SOLT,                      SOLT
! CAL LINE TYPE:    	                     Coax,                      Coax
! DUT PORT 1:       	                K-Conn(M),                 K-Conn(M)
! DUT PORT 2:       	                K-Conn(M),                 K-Conn(M)
! CAL STATUS:       	        OK: Accuracy High,                        --
# GHZ S DB R 50.0
! FREQ.GHZ       S11DB        S11A       S21DB        S21A       S12DB        S12A       S22DB        S22A
  0.020000000   -0.028910  -68.173302  -89.987153   34.699238    0.000000    0.000000    0.000000    0.000000
  0.020200401   -0.025363  -68.837479  -90.511513   33.007973    0.000000    0.000000    0.000000    0.000000
  0.020400802   -0.024348  -69.509636  -90.813685   31.577976    0.000000    0.000000    0.000000    0.000000
  0.020601202   -0.022618  -70.146317  -91.182272   29.693199    0.000000    0.000000    0.000000    0.000000
  0.020801603   -0.021421  -70.799606  -91.144065   28.356752    0.000000    0.000000    0.000000    0.000000
  0.021002004   -0.020721  -71.445038  -91.702914   27.333691    0.000000    0.000000    0.000000    0.000000
  0.021202405   -0.024280  -72.105415  -92.069139   25.671782    0.000000    0.000000    0.000000    0.000000
  0.021402806   -0.027246  -72.733742  -92.290943   23.219151    0.000000    0.000000    0.000000    0.000000
  0.021603206   -0.030628  -73.382645  -92.579201   27.028488    0.000000    0.000000    0.000000    0.000000
  0.021803607   -0.034692  -74.002487  -93.205836   31.751926    0.000000    0.000000    0.000000    0.000000
  0.022004008   -0.039289  -74.616631  -92.552229   26.061417    0.000000    0.000000    0.000000    0.000000
  0.022204409   -0.041933  -75.251236  -93.339342   30.368137    0.000000    0.000000    0.000000    0.000000
  0.022404810   -0.041408  -75.891655  -93.255767   27.568346    0.000000    0.000000    0.000000    0.000000
  0.022605210   -0.042253  -76.532776  -93.327713   32.593761    0.000000    0.000000    0.000000    0.000000
  0.022805611   -0.038998  -77.181587  -93.282928   37.287346    0.000000    0.000000    0.000000    0.000000
  0.023006012   -0.031554  -77.824089  -93.263175   34.452259    0.000000    0.000000    0.000000    0.000000
  0.023206413   -0.023774  -78.471153  -92.697146   34.168419    0.000000    0.000000    0.000000    0.000000
  0.023406814   -0.021614  -79.099327  -93.948777   33.883492    0.000000    0.000000    0.000000    0.000000
  0.023607214   -0.017234  -79.740311  -93.541219   34.081097    0.000000    0.000000    0.000000    0.000000
  0.023807615   -0.019697  -80.335579  -93.062776   32.679543    0.000000    0.000000    0.000000    0.000000
  0.024008016   -0.027629  -80.910934  -93.869605   36.252697    0.000000    0.000000    0.000000    0.000000
  0.024208417   -0.033410  -81.479820  -92.636990   25.704197    0.000000    0.000000    0.000000    0.000000
  0.024408818   -0.042047  -82.055641  -92.440619   28.064442    0.000000    0.000000    0.000000    0.000000
  0.024609218   -0.046186  -82.669609  -92.595213   29.293364    0.000000    0.000000    0.000000    0.000000
  0.024809619   -0.049714  -83.270691  -93.560166   22.706715    0.000000    0.000000    0.000000    0.000000
  0.025010020   -0.053234  -83.932915  -93.606518   22.395054    0.000000    0.000000    0.000000    0.000000
  0.025210421   -0.058684  -84.594193  -94.145915   21.744986    0.000000    0.000000    0.000000    0.000000
  0.025410822   -0.059707  -85.267700  -94.583968   23.407423    0.000000    0.000000    0.000000    0.000000
  0.025611222   -0.057175  -85.916412  -94.395109   21.547745    0.000000    0.000000    0.000000    0.000000
  0.025811623   -0.054191  -86.570702  -94.916025   16.482422    0.000000    0.000000    0.000000    0.000000
  0.026012024   -0.047186  -87.180099  -95.300082   17.356670    0.000000    0.000000    0.000000    0.000000
  0.026212425   -0.046746  -87.785721  -95.048405   13.774283    0.000000    0.000000    0.000000    0.000000
  0.026412826   -0.045764  -88.356758  -95.596334   16.142206    0.000000    0.000000    0.000000    0.000000
  0.026613226   -0.051322  -88.940971  -95.478328   17.019651    0.000000    0.000000    0.000000    0.000000
  0.026813627   -0.056342  -89.523422  -96.080141   18.917253    0.000000    0.000000    0.000000    0.000000
  0.027014028   -0.062906  -90.074715  -96.302939   14.829332    0.000000    0.000000    0.000000    0.000000
  0.027214429   -0.072867  -90.629684  -96.470318   22.575008    0.000000    0.000000    0.000000    0.000000
  0.027414830   -0.083618  -91.241013  -95.386614   23.909201    0.000000    0.000000    0.000000    0.000000
  0.027615230   -0.090066  -91.900467  -96.093715   19.331108    0.000000    0.000000    0.000000    0.000000
  0.027815631   -0.090932  -92.552269  -97.110549   18.859404    0.000000    0.000000    0.000000    0.000000
  0.028016032   -0.086552  -93.236130  -96.639027   24.497885    0.000000    0.000000    0.000000    0.000000
  0.028216433   -0.079202  -93.910454  -96.961753   17.701134    0.000000    0.000000    0.000000    0.000000
  0.028416834   -0.069560  -94.560379  -95.723315   22.804070    0.000000    0.000000    0.000000    0.000000
  0.028617234   -0.062419  -95.186211  -95.679722   20.714468    0.000000    0.000000    0.000000    0.000000
  0.028817635   -0.054006  -95.788010  -95.892030   15.105544    0.000000    0.000000    0.000000    0.000000
  0.029018036   -0.046707  -96.336349  -95.746649   22.284197    0.000000    0.000000    0.000000    0.000000
  0.029218437   -0.041559  -96.858055  -95.829830   17.114513    0.000000    0.000000    0.000000    0.000000
  0.029418838   -0.037772  -97.357895  -95.603367   19.043650    0.000000    0.000000    0.000000    0.000000
  0.029619238   -0.036313  -97.867355  -96.436070   17.301319    0.000000    0.000000    0.000000    0.000000
  0.029819639   -0.039981  -98.383118  -96.070826   16.722599    0.000000    0.000000    0.000000    0.000000
  0.030020040   -0.044223  -98.936272  -97.194902   16.570944    0.000000    0.000000    0.000000    0.000000
  0.030220441   -0.054232  -99.509689  -96.330092   11.043044    0.000000    0.000000    0.000000    0.000000
  0.030420842   -0.066794 -100.147781  -96.456813   11.945684    0.000000    0.000000    0.000000    0.000000
  0.030621242   -0.074501 -100.785469  -96.840021   12.791020    0.000000    0.000000    0.000000    0.000000
  0.030821643   -0.072884 -101.436508  -98.124344   10.305763    0.000000    0.000000    0.000000    0.000000
  0.031022044   -0.072954 -102.056671  -97.910042   10.681674    0.000000    0.000000    0.000000    0.000000
  0.031222445   -0.064871 -102.677376  -97.590929    7.941008    0.000000    0.000000    0.000000    0.000000
  0.031422846   -0.062823 -103.256905  -97.800300   13.953938    0.000000    0.000000    0.000000    0.000000
  0.031623246   -0.062956 -103.830917  -97.685294    6.593899    0.000000    0.000000    0.000000    0.000000
  0.031823647   -0.061621 -104.364441  -97.023892   11.214609    0.000000    0.000000    0.000000    0.000000
  0.032024048   -0.064582 -104.882141  -97.853134    3.852328    0.000000    0.000000    0.000000    0.000000
  0.032224449   -0.070438 -105.375778  -97.983362   15.752102    0.000000    0.000000    0.000000    0.000000
  0.032424850   -0.083451 -105.897789  -98.454797   12.757620    0.000000    0.000000    0.000000    0.000000
  0.032625251   -0.095428 -106.460846  -96.776974   24.866905    0.000000    0.000000    0.000000    0.000000
  0.032825651   -0.103544 -107.068161  -98.243418   16.418106    0.000000    0.000000    0.000000    0.000000
  0.033026052   -0.110839 -107.666557  -98.551848   10.746204    0.000000    0.000000    0.000000    0.000000
  0.033226453   -0.112647 -108.290367  -98.536902    9.706924    0.000000    0.000000    0.000000    0.000000
  0.033426854   -0.116351 -108.922508  -98.319027   24.347052    0.000000    0.000000    0.000000    0.000000
  0.033627255   -0.117972 -109.567924  -97.375039   10.371737    0.000000    0.000000    0.000000    0.000000
  0.033827655   -0.119095 -110.193253  -98.175781    9.439127    0.000000    0.000000    0.000000    0.000000
  0.034028056   -0.116162 -110.824821  -98.211731   21.438690    0.000000    0.000000    0.000000    0.000000
  0.034228457   -0.111267 -111.442108  -97.284206   10.357617    0.000000    0.000000    0.000000    0.000000
  0.034428858   -0.102812 -112.024414  -97.656326   13.078966    0.000000    0.000000    0.000000    0.000000
  0.034629259   -0.093223 -112.565575  -96.808429    5.408052    0.000000    0.000000    0.000000    0.000000
  0.034829659   -0.085760 -113.100349  -98.170072    9.565708    0.000000    0.000000    0.000000    0.000000
  0.035030060   -0.083840 -113.621826  -98.468210   10.231855    0.000000    0.000000    0.000000    0.000000
  0.035230461   -0.080227 -114.132927  -99.594865   11.357603    0.000000    0.000000    0.000000    0.000000
  0.035430862   -0.082078 -114.648125  -99.562017   12.198830    0.000000    0.000000    0.000000    0.000000
  0.035631263   -0.086326 -115.170731  -98.810934    4.179238    0.000000    0.000000    0.000000    0.000000
  0.035831663   -0.096084 -115.716316 -100.079427   -0.692327    0.000000    0.000000    0.000000    0.000000
  0.036032064   -0.103595 -116.307686  -98.989810   12.600468    0.000000    0.000000    0.000000    0.000000
  0.036232465   -0.108240 -116.922073  -98.992378    5.410610    0.000000    0.000000    0.000000    0.000000
  0.036432866   -0.111570 -117.548996  -99.138841    3.605858    0.000000    0.000000    0.000000    0.000000
  0.036633267   -0.113370 -118.161072 -100.133967    0.827846    0.000000    0.000000    0.000000    0.000000
  0.036833667   -0.106431 -118.740410  -99.063827    9.700047    0.000000    0.000000    0.000000    0.000000
  0.037034068   -0.095664 -119.302521 -100.594484    8.223517    0.000000    0.000000    0.000000    0.000000
  0.037234469   -0.085622 -119.777328 -101.966003   19.686460    0.000000    0.000000    0.000000    0.000000
  0.037434870   -0.080018 -120.229103  -99.602847   20.004562    0.000000    0.000000    0.000000    0.000000
  0.037635271   -0.084076 -120.695969  -99.174465   11.431728    0.000000    0.000000    0.000000    0.000000
  0.037835671   -0.087599 -121.176872  -97.829172   10.259928    0.000000    0.000000    0.000000    0.000000
  0.038036072   -0.097436 -121.686241  -98.768394    5.543369    0.000000    0.000000    0.000000    0.000000
  0.038236473   -0.104560 -122.236534 -101.619341   10.200557    0.000000    0.000000    0.000000    0.000000
  0.038436874   -0.110310 -122.763344  -99.425970   16.681572    0.000000    0.000000    0.000000    0.000000
  0.038637275   -0.115757 -123.292114  -98.766580    9.222771    0.000000    0.000000    0.000000    0.000000
  0.038837675   -0.124488 -123.821785  -97.812203    3.815241    0.000000    0.000000    0.000000    0.000000
  0.039038076   -0.133940 -124.402412  -98.146142    5.999769    0.000000    0.000000    0.000000    0.000000
  0.039238477   -0.139016 -124.973595  -99.603275    2.702065    0.000000    0.000000    0.000000    0.000000
  0.039438878   -0.140798 -125.546814  -99.233500    6.032018    0.000000    0.000000    0.000000    0.000000
  0.039639279   -0.139182 -126.101784 -100.596858    3.965292    0.000000    0.000000    0.000000    0.000000
  0.039839679   -0.136205 -126.643280 -100.630002    7.279959    0.000000    0.000000    0.000000    0.000000
  0.040040080   -0.132415 -127.165543  -99.566018   -3.986345    0.000000    0.000000    0.000000    0.000000
  0.040240481   -0.130440 -127.689552 -101.086479    8.455873    0.000000    0.000000    0.000000    0.000000
  0.040440882   -0.128734 -128.229187 -100.620757   -9.975624    0.000000    0.000000    0.000000    0.000000
  0.040641283   -0.127279 -128.758698 -102.933742    5.101497    0.000000    0.000000    0.000000    0.000000
  0.040841683   -0.126372 -129.292374 -100.743660   -2.027584    0.000000    0.000000    0.000000    0.000000
  0.041042084   -0.129550 -129.785965 -101.668127    0.829093    0.000000    0.000000    0.000000    0.000000
  0.041242485   -0.139461 -130.330490 -101.838726    6.484872    0.000000    0.000000    0.000000    0.000000
  0.041442886   -0.151570 -130.848068 -102.670680    1.524907    0.000000    0.000000    0.000000    0.000000
  0.041643287   -0.159934 -131.453583 -100.930951   10.001859    0.000000    0.000000    0.000000    0.000000
  0.041843687   -0.162631 -132.056931 -102.784482    7.322258    0.000000    0.000000    0.000000    0.000000
  0.042044088   -0.160743 -132.663239  -99.426886   17.821404    0.000000    0.000000    0.000000    0.000000
  0.042244489   -0.150131 -133.246902 -100.596075   21.051437    0.000000    0.000000    0.000000    0.000000
  0.042444890   -0.137586 -133.758652 -102.415238    3.170308    0.000000    0.000000    0.000000    0.000000
  0.042645291   -0.129826 -134.245514 -100.733593   12.730940    0.000000    0.000000    0.000000    0.000000
  0.042845691   -0.130184 -134.730042 -100.336232    9.330681    0.000000    0.000000    0.000000    0.000000
  0.043046092   -0.130564 -135.221695 -100.436416   14.341702    0.000000    0.000000    0.000000    0.000000
  0.043246493   -0.133238 -135.738327 -100.260686    6.843160    0.000000    0.000000    0.000000    0.000000
  0.043446894   -0.135587 -136.214798 -101.196356    0.804968    0.000000    0.000000    0.000000    0.000000
  0.043647295   -0.141519 -136.707108  -99.927493    4.911484    0.000000    0.000000    0.000000    0.000000
  0.043847695   -0.145331 -137.191315 -101.557763   13.144675    0.000000    0.000000    0.000000    0.000000
  0.044048096   -0.150020 -137.695053 -100.996475    0.066930    0.000000    0.000000    0.000000    0.000000
  0.044248497   -0.159265 -138.225616 -100.801796    7.258550    0.000000    0.000000    0.000000    0.000000
  0.044448898   -0.162084 -138.745132 -101.246690    4.087372    0.000000    0.000000    0.000000    0.000000
  0.044649299   -0.159974 -139.253113 -100.817574    5.298097    0.000000    0.000000    0.000000    0.000000
  0.044849699   -0.160300 -139.754501 -102.324549    1.630066    0.000000    0.000000    0.000000    0.000000
  0.045050100   -0.160210 -140.247482 -100.819893   -0.476046    0.000000    0.000000    0.000000    0.000000
  0.045250501   -0.161356 -140.736740 -102.126493    1.928052    0.000000    0.000000    0.000000    0.000000
  0.045450902   -0.162226 -141.241806 -103.218641    3.566147    0.000000    0.000000    0.000000    0.000000
  0.045651303   -0.160962 -141.751328 -103.077090   14.364318    0.000000    0.000000    0.000000    0.000000
  0.045851703   -0.159528 -142.256104 -102.775884   -0.103132    0.000000    0.000000    0.000000    0.000000
  0.046052104   -0.157002 -142.728683 -102.988422   15.889919    0.000000    0.000000    0.000000    0.000000
  0.046252505   -0.158463 -143.217880 -105.327133  -14.221535    0.000000    0.000000    0.000000    0.000000
  0.046452906   -0.161841 -143.664246 -103.385533   12.871167    0.000000    0.000000    0.000000    0.000000
  0.046653307   -0.171462 -144.145264 -102.080659    7.633939    0.000000    0.000000    0.000000    0.000000
  0.046853707   -0.178825 -144.658951 -103.884508    4.391168    0.000000    0.000000    0.000000    0.000000
  0.047054108   -0.182532 -145.192108 -101.753829   21.507751    0.000000    0.000000    0.000000    0.000000
  0.047254509   -0.179953 -145.748581 -101.177493    9.215755    0.000000    0.000000    0.000000    0.000000
  0.047454910   -0.174470 -146.287399 -103.381480   30.435493    0.000000    0.000000    0.000000    0.000000
  0.047655311   -0.168008 -146.776794 -102.290507   16.621639    0.000000    0.000000    0.000000    0.000000
  0.047855711   -0.165203 -147.262314  -99.744479   15.688433    0.000000    0.000000    0.000000    0.000000
  0.048056112   -0.162523 -147.739563  -99.622727   13.704240    0.000000    0.000000    0.000000    0.000000
  0.048256513   -0.164513 -148.232147  -99.842559    0.678625    0.000000    0.000000    0.000000    0.000000
  0.048456914   -0.163933 -148.732788 -101.295662    5.958442    0.000000    0.000000    0.000000    0.000000
  0.048657315   -0.164965 -149.197128 -100.493285    3.230093    0.000000    0.000000    0.000000    0.000000
  0.048857715   -0.167918 -149.664642 -101.800132  -11.215652    0.000000    0.000000    0.000000    0.000000
  0.049058116   -0.174104 -150.141266 -100.635891   -8.066599    0.000000    0.000000    0.000000    0.000000
  0.049258517   -0.180369 -150.635773 -102.182397  -18.547274    0.000000    0.000000    0.000000    0.000000
  0.049458918   -0.181901 -151.149429 -102.352187    1.466348    0.000000    0.000000    0.000000    0.000000
  0.049659319   -0.183074 -151.647507 -102.838766   -6.766780    0.000000    0.000000    0.000000    0.000000
  0.049859719   -0.184023 -152.134323 -101.700825  -15.148181    0.000000    0.000000    0.000000    0.000000
  0.050060120   -0.183568 -152.601227 -103.421555   10.787604    0.000000    0.000000    0.000000    0.000000
  0.050260521   -0.187160 -153.077744 -101.601736   -9.564400    0.000000    0.000000    0.000000    0.000000
  0.050460922   -0.189846 -153.555161 -104.263237   -2.378236    0.000000    0.000000    0.000000    0.000000
  0.050661323   -0.191171 -154.047577 -105.829437   -0.545761    0.000000    0.000000    0.000000    0.000000
  0.050861723   -0.191710 -154.535385 -104.684887    3.773055    0.000000    0.000000    0.000000    0.000000
  0.051062124   -0.188886 -155.036377 -104.409057    0.130852    0.000000    0.000000    0.000000    0.000000
  0.051262525   -0.187405 -155.501923 -104.257183    4.378858    0.000000    0.000000    0.000000    0.000000
  0.051462926   -0.186790 -155.962830 -102.852627   10.959236    0.000000    0.000000    0.000000    0.000000
  0.051663327   -0.192584 -156.416443 -102.511983    1.478617    0.000000    0.000000    0.000000    0.000000
  0.051863727   -0.197056 -156.872757 -105.756703   11.876412    0.000000    0.000000    0.000000    0.000000
  0.052064128   -0.201759 -157.338028 -103.851210   25.212412    0.000000    0.000000    0.000000    0.000000
  0.052264529   -0.204202 -157.817444 -104.704927   14.945360    0.000000    0.000000    0.000000    0.000000
  0.052464930   -0.205555 -158.314529 -105.211090   15.636760    0.000000    0.000000    0.000000    0.000000
  0.052665331   -0.203780 -158.814743 -102.346000   13.775069    0.000000    0.000000    0.000000    0.000000
  0.052865731   -0.202744 -159.277283 -101.469083   10.211546    0.000000    0.000000    0.000000    0.000000
