! Anritsu VNA Master:                     Model: MS2036C/10/77
! SN:                                  1601066
! /bd0/18may26.balun/4b.me1.s2p
! Existing Calibration Information:
! TYPE:                         Current Settings,       Active Cal Settings
! TIME:             	   05/26/2018 04:32:53 PM,    05/26/2018 04:28:16 PM
! INTERNAL TEMP:    	                   56.0 C,                    56.3 C
! # POINTS:         	                      500,                       500
! START FREQ:       	               20.000 MHz,                20.000 MHz
! STOP FREQ:        	              120.000 MHz,               120.000 MHz
! SOURCE POWER:     	                     High,                      High
! IFBW:             	                    50 Hz,                     50 Hz
! AVG FACTOR:       	                       1 ,                        1 
! REF PLANE 1:      	                     0 mm,                      0 mm
! REF PLANE 2:      	                     0 mm,                      0 mm
! CAL TYPE:         	                 Full S11,                  Full S11
! CAL METHOD:       	                     SOLT,                      SOLT
! CAL LINE TYPE:    	                     Coax,                      Coax
! DUT PORT 1:       	                K-Conn(M),                 K-Conn(M)
! DUT PORT 2:       	                K-Conn(M),                 K-Conn(M)
! CAL STATUS:       	        OK: Accuracy High,                        --
# GHZ S DB R 50.0
! FREQ.GHZ       S11DB        S11A       S21DB        S21A       S12DB        S12A       S22DB        S22A
  0.020000000   -0.617931 -126.803268  -90.728198   32.237518    0.000000    0.000000    0.000000    0.000000
  0.020200401   -0.617152 -128.299500  -91.833718   28.018187    0.000000    0.000000    0.000000    0.000000
  0.020400802   -0.614738 -129.783325  -91.878284   24.472027    0.000000    0.000000    0.000000    0.000000
  0.020601202   -0.614925 -131.246094  -91.877335   29.298800    0.000000    0.000000    0.000000    0.000000
  0.020801603   -0.619314 -132.755402  -92.436123   29.636238    0.000000    0.000000    0.000000    0.000000
  0.021002004   -0.624928 -134.284760  -92.671645   30.288792    0.000000    0.000000    0.000000    0.000000
  0.021202405   -0.632474 -135.835190  -93.409125   25.736208    0.000000    0.000000    0.000000    0.000000
  0.021402806   -0.639920 -137.379623  -93.282983   30.538820    0.000000    0.000000    0.000000    0.000000
  0.021603206   -0.643548 -138.921219  -93.495510   29.365917    0.000000    0.000000    0.000000    0.000000
  0.021803607   -0.650980 -140.468292  -92.913880   35.543095    0.000000    0.000000    0.000000    0.000000
  0.022004008   -0.656433 -142.044907  -92.509108   34.271008    0.000000    0.000000    0.000000    0.000000
  0.022204409   -0.658560 -143.625595  -93.349324   33.021889    0.000000    0.000000    0.000000    0.000000
  0.022404810   -0.660505 -145.231277  -92.857896   37.615387    0.000000    0.000000    0.000000    0.000000
  0.022605210   -0.663194 -146.805206  -92.574909   37.404697    0.000000    0.000000    0.000000    0.000000
  0.022805611   -0.665412 -148.379684  -92.609272   33.695156    0.000000    0.000000    0.000000    0.000000
  0.023006012   -0.666749 -149.964920  -92.615946   29.449760    0.000000    0.000000    0.000000    0.000000
  0.023206413   -0.673672 -151.566025  -92.592076   33.722912    0.000000    0.000000    0.000000    0.000000
  0.023406814   -0.682520 -153.176361  -92.336860   24.784945    0.000000    0.000000    0.000000    0.000000
  0.023607214   -0.690070 -154.815231  -92.733519   27.469719    0.000000    0.000000    0.000000    0.000000
  0.023807615   -0.697705 -156.443222  -92.953524   26.583609    0.000000    0.000000    0.000000    0.000000
  0.024008016   -0.707325 -158.080566  -93.331351   18.522425    0.000000    0.000000    0.000000    0.000000
  0.024208417   -0.717698 -159.711441  -93.820940   23.392387    0.000000    0.000000    0.000000    0.000000
  0.024408818   -0.730055 -161.370956  -93.380823   19.098394    0.000000    0.000000    0.000000    0.000000
  0.024609218   -0.741755 -163.049927  -93.350470   20.560898    0.000000    0.000000    0.000000    0.000000
  0.024809619   -0.748960 -164.758759  -94.536485   16.729584    0.000000    0.000000    0.000000    0.000000
  0.025010020   -0.754908 -166.450119  -94.325875   17.649588    0.000000    0.000000    0.000000    0.000000
  0.025210421   -0.764171 -168.141159  -94.393938   18.401720    0.000000    0.000000    0.000000    0.000000
  0.025410822   -0.774666 -169.857147  -95.063924   25.030777    0.000000    0.000000    0.000000    0.000000
  0.025611222   -0.784623 -171.566299  -95.749982   19.714001    0.000000    0.000000    0.000000    0.000000
  0.025811623   -0.795931 -173.284500  -96.519666   24.862808    0.000000    0.000000    0.000000    0.000000
  0.026012024   -0.808769 -175.040161  -96.224111   21.405830    0.000000    0.000000    0.000000    0.000000
  0.026212425   -0.822881 -176.780624  -96.208209   27.189590    0.000000    0.000000    0.000000    0.000000
  0.026412826   -0.838100 -178.531616  -95.820678   22.017069    0.000000    0.000000    0.000000    0.000000
  0.026613226   -0.853055  179.691574  -95.997369   20.812986    0.000000    0.000000    0.000000    0.000000
  0.026813627   -0.870271  177.916245  -96.408428   22.867683    0.000000    0.000000    0.000000    0.000000
  0.027014028   -0.885379  176.156616  -95.631903   25.335871    0.000000    0.000000    0.000000    0.000000
  0.027214429   -0.898267  174.391983  -94.720022   23.871367    0.000000    0.000000    0.000000    0.000000
  0.027414830   -0.913862  172.610153  -95.552616   19.571159    0.000000    0.000000    0.000000    0.000000
  0.027615230   -0.931199  170.827744  -95.331096   22.273111    0.000000    0.000000    0.000000    0.000000
  0.027815631   -0.953067  169.016022  -95.196186   18.767296    0.000000    0.000000    0.000000    0.000000
  0.028016032   -0.971277  167.175568  -95.300225   17.757271    0.000000    0.000000    0.000000    0.000000
  0.028216433   -0.991914  165.324020  -95.272646   11.604717    0.000000    0.000000    0.000000    0.000000
  0.028416834   -1.012338  163.482086  -97.024842   16.157225    0.000000    0.000000    0.000000    0.000000
  0.028617234   -1.033701  161.631149  -95.635520   14.228627    0.000000    0.000000    0.000000    0.000000
  0.028817635   -1.058411  159.763702  -96.485923   18.139618    0.000000    0.000000    0.000000    0.000000
  0.029018036   -1.083846  157.871277  -96.728643   11.009771    0.000000    0.000000    0.000000    0.000000
  0.029218437   -1.108542  155.949158  -96.573821   17.022181    0.000000    0.000000    0.000000    0.000000
  0.029418838   -1.128720  154.040756  -96.607455   13.026279    0.000000    0.000000    0.000000    0.000000
  0.029619238   -1.151749  152.143295  -98.165472   11.225146    0.000000    0.000000    0.000000    0.000000
  0.029819639   -1.174610  150.264252  -97.470512   16.509758    0.000000    0.000000    0.000000    0.000000
  0.030020040   -1.199878  148.370193  -98.379527   10.997616    0.000000    0.000000    0.000000    0.000000
  0.030220441   -1.226245  146.477661  -96.696101   14.574724    0.000000    0.000000    0.000000    0.000000
  0.030420842   -1.259955  144.574509  -98.213274   15.233180    0.000000    0.000000    0.000000    0.000000
  0.030621242   -1.300997  142.621094  -97.629676   21.361046    0.000000    0.000000    0.000000    0.000000
  0.030821643   -1.335724  140.628433  -97.582198   20.344332    0.000000    0.000000    0.000000    0.000000
  0.031022044   -1.370486  138.628311  -97.554473   20.321909    0.000000    0.000000    0.000000    0.000000
  0.031222445   -1.394489  136.602264  -98.086657   13.446547    0.000000    0.000000    0.000000    0.000000
  0.031422846   -1.422905  134.569275  -97.221411   12.581576    0.000000    0.000000    0.000000    0.000000
  0.031623246   -1.450454  132.565231  -97.113278   17.160057    0.000000    0.000000    0.000000    0.000000
  0.031823647   -1.471341  130.572937  -96.752603   13.753105    0.000000    0.000000    0.000000    0.000000
  0.032024048   -1.494557  128.612076  -96.891997   16.411572    0.000000    0.000000    0.000000    0.000000
  0.032224449   -1.523169  126.643181  -97.460994    8.543287    0.000000    0.000000    0.000000    0.000000
  0.032424850   -1.551985  124.689430  -97.821002   14.975573    0.000000    0.000000    0.000000    0.000000
  0.032625251   -1.586927  122.720184  -96.963015    8.446087    0.000000    0.000000    0.000000    0.000000
  0.032825651   -1.625678  120.763771  -98.450973   22.154007    0.000000    0.000000    0.000000    0.000000
  0.033026052   -1.671625  118.782753  -98.441723   14.696030    0.000000    0.000000    0.000000    0.000000
  0.033226453   -1.720192  116.783569  -98.488779   11.348881    0.000000    0.000000    0.000000    0.000000
  0.033426854   -1.764290  114.764496  -99.049723    8.820522    0.000000    0.000000    0.000000    0.000000
  0.033627255   -1.810386  112.714813  -99.567758    4.445992    0.000000    0.000000    0.000000    0.000000
  0.033827655   -1.854507  110.597382  -99.290887    4.207820    0.000000    0.000000    0.000000    0.000000
  0.034028056   -1.903316  108.518639  -99.134941    7.150529    0.000000    0.000000    0.000000    0.000000
  0.034228457   -1.950216  106.410477  -98.115910   11.094785    0.000000    0.000000    0.000000    0.000000
  0.034428858   -1.994256  104.299622  -99.386107    2.900156    0.000000    0.000000    0.000000    0.000000
  0.034629259   -2.035328  102.208450  -99.476192    5.634053    0.000000    0.000000    0.000000    0.000000
  0.034829659   -2.070629  100.143242  -99.296695    7.884022    0.000000    0.000000    0.000000    0.000000
  0.035030060   -2.108964   98.110359  -99.594210   11.403980    0.000000    0.000000    0.000000    0.000000
  0.035230461   -2.151601   96.084656 -100.981668    6.237938    0.000000    0.000000    0.000000    0.000000
  0.035430862   -2.202938   94.061264  -98.696879   11.532418    0.000000    0.000000    0.000000    0.000000
  0.035631263   -2.259269   92.047752  -99.421391    0.971656    0.000000    0.000000    0.000000    0.000000
  0.035831663   -2.315775   89.970070  -98.647988   11.665567    0.000000    0.000000    0.000000    0.000000
  0.036032064   -2.377802   87.869476  -98.098968   11.413211    0.000000    0.000000    0.000000    0.000000
  0.036232465   -2.431957   85.713905  -98.351719   12.164632    0.000000    0.000000    0.000000    0.000000
  0.036432866   -2.485652   83.553719  -99.834849   11.560420    0.000000    0.000000    0.000000    0.000000
  0.036633267   -2.540583   81.383385  -99.661402   11.710660    0.000000    0.000000    0.000000    0.000000
  0.036833667   -2.584839   79.226105  -98.595311    9.089690    0.000000    0.000000    0.000000    0.000000
  0.037034068   -2.631102   77.084167  -99.699987   13.457908    0.000000    0.000000    0.000000    0.000000
  0.037234469   -2.673287   74.964668  -98.285478   -5.240025    0.000000    0.000000    0.000000    0.000000
  0.037434870   -2.715027   72.867584 -100.133586   12.272899    0.000000    0.000000    0.000000    0.000000
  0.037635271   -2.759286   70.791008 -102.114169    1.005876    0.000000    0.000000    0.000000    0.000000
  0.037835671   -2.808940   68.721970 -100.340799    6.526774    0.000000    0.000000    0.000000    0.000000
  0.038036072   -2.861862   66.657219 -100.409964   -2.891839    0.000000    0.000000    0.000000    0.000000
  0.038236473   -2.915210   64.603783 -100.251139    3.655406    0.000000    0.000000    0.000000    0.000000
  0.038436874   -2.973398   62.535892 -100.570083    6.831285    0.000000    0.000000    0.000000    0.000000
  0.038637275   -3.036548   60.460999 -100.275352    6.749954    0.000000    0.000000    0.000000    0.000000
  0.038837675   -3.098179   58.354847 -100.362207    2.939400    0.000000    0.000000    0.000000    0.000000
  0.039038076   -3.159135   56.200150 -100.957406   11.183532    0.000000    0.000000    0.000000    0.000000
  0.039238477   -3.214362   54.030167  -99.175604    2.384626    0.000000    0.000000    0.000000    0.000000
  0.039438878   -3.259164   51.875378 -100.783429   15.850593    0.000000    0.000000    0.000000    0.000000
  0.039639279   -3.305370   49.795307 -100.096515   12.043051    0.000000    0.000000    0.000000    0.000000
  0.039839679   -3.349671   47.713039  -99.664760    1.795693    0.000000    0.000000    0.000000    0.000000
  0.040040080   -3.391316   45.703194  -99.689157    8.790832    0.000000    0.000000    0.000000    0.000000
  0.040240481   -3.443806   43.708241 -101.562620    3.970454    0.000000    0.000000    0.000000    0.000000
  0.040440882   -3.498954   41.671280 -102.179460   -0.899490    0.000000    0.000000    0.000000    0.000000
  0.040641283   -3.556115   39.660828  -99.969278    4.366831    0.000000    0.000000    0.000000    0.000000
  0.040841683   -3.611766   37.617634 -100.132789    7.309512    0.000000    0.000000    0.000000    0.000000
  0.041042084   -3.671966   35.561039 -100.683887    7.292948    0.000000    0.000000    0.000000    0.000000
  0.041242485   -3.725922   33.527786  -99.450859    3.084703    0.000000    0.000000    0.000000    0.000000
  0.041442886   -3.780725   31.473331 -100.856482   10.444985    0.000000    0.000000    0.000000    0.000000
  0.041643287   -3.834789   29.424021 -100.631612    4.697851    0.000000    0.000000    0.000000    0.000000
  0.041843687   -3.882548   27.349508 -101.028748   -4.150802    0.000000    0.000000    0.000000    0.000000
  0.042044088   -3.930484   25.309738 -100.911667   -3.287812    0.000000    0.000000    0.000000    0.000000
  0.042244489   -3.976194   23.294252 -101.041914    2.360345    0.000000    0.000000    0.000000    0.000000
  0.042444890   -4.021903   21.281164 -100.958707   -4.378892    0.000000    0.000000    0.000000    0.000000
  0.042645291   -4.070648   19.290091 -102.239266   -5.025772    0.000000    0.000000    0.000000    0.000000
  0.042845691   -4.115848   17.303091 -101.984094   -1.188582    0.000000    0.000000    0.000000    0.000000
  0.043046092   -4.158184   15.292428 -102.357186    2.172478    0.000000    0.000000    0.000000    0.000000
  0.043246493   -4.204616   13.323199 -104.342718    7.919978    0.000000    0.000000    0.000000    0.000000
  0.043446894   -4.249907   11.325714 -101.398629    3.446236    0.000000    0.000000    0.000000    0.000000
  0.043647295   -4.295789    9.352571 -102.166472   13.065891    0.000000    0.000000    0.000000    0.000000
  0.043847695   -4.339352    7.399134 -102.559558   26.130207    0.000000    0.000000    0.000000    0.000000
  0.044048096   -4.383082    5.438167 -101.853422   19.407503    0.000000    0.000000    0.000000    0.000000
  0.044248497   -4.424987    3.495365 -100.703142   11.723025    0.000000    0.000000    0.000000    0.000000
  0.044448898   -4.462987    1.535719 -102.929966  -12.991974    0.000000    0.000000    0.000000    0.000000
  0.044649299   -4.499458   -0.382661 -100.140139    2.614649    0.000000    0.000000    0.000000    0.000000
  0.044849699   -4.540652   -2.302818 -101.190125   11.455966    0.000000    0.000000    0.000000    0.000000
  0.045050100   -4.580966   -4.182228 -101.309915    7.209064    0.000000    0.000000    0.000000    0.000000
  0.045250501   -4.620698   -6.085307 -101.167861    1.574975    0.000000    0.000000    0.000000    0.000000
  0.045450902   -4.660291   -7.949569 -100.536541    1.229754    0.000000    0.000000    0.000000    0.000000
  0.045651303   -4.696521   -9.852395 -101.343309    7.146990    0.000000    0.000000    0.000000    0.000000
  0.045851703   -4.732599  -11.743999 -100.848096   -0.303667    0.000000    0.000000    0.000000    0.000000
  0.046052104   -4.770123  -13.600981 -101.791568   -3.833025    0.000000    0.000000    0.000000    0.000000
  0.046252505   -4.800063  -15.455006 -100.510788    0.392180    0.000000    0.000000    0.000000    0.000000
  0.046452906   -4.836793  -17.300728 -102.417879    0.871984    0.000000    0.000000    0.000000    0.000000
  0.046653307   -4.868662  -19.116817 -101.511676   -7.362018    0.000000    0.000000    0.000000    0.000000
  0.046853707   -4.905775  -20.956915 -104.399182    8.736143    0.000000    0.000000    0.000000    0.000000
  0.047054108   -4.936695  -22.782438 -102.870879  -11.362962    0.000000    0.000000    0.000000    0.000000
  0.047254509   -4.969963  -24.630289 -102.000194   -8.228594    0.000000    0.000000    0.000000    0.000000
  0.047454910   -4.996376  -26.435472 -104.679886    7.460227    0.000000    0.000000    0.000000    0.000000
  0.047655311   -5.028223  -28.253513 -104.835854   18.952614    0.000000    0.000000    0.000000    0.000000
  0.047855711   -5.056354  -30.057053 -105.153495   11.357482    0.000000    0.000000    0.000000    0.000000
  0.048056112   -5.087100  -31.862095 -108.986877    4.386368    0.000000    0.000000    0.000000    0.000000
  0.048256513   -5.112941  -33.648499 -105.058104    7.642691    0.000000    0.000000    0.000000    0.000000
  0.048456914   -5.133027  -35.453236 -103.778932   11.046735    0.000000    0.000000    0.000000    0.000000
  0.048657315   -5.152624  -37.253777 -104.174106   14.721933    0.000000    0.000000    0.000000    0.000000
  0.048857715   -5.172948  -38.995983 -102.693144    6.770282    0.000000    0.000000    0.000000    0.000000
  0.049058116   -5.192467  -40.737572 -104.225422    4.478284    0.000000    0.000000    0.000000    0.000000
  0.049258517   -5.210467  -42.399944 -101.870680    6.514040    0.000000    0.000000    0.000000    0.000000
  0.049458918   -5.230708  -44.068123 -104.377869    0.227382    0.000000    0.000000    0.000000    0.000000
  0.049659319   -5.249744  -45.725769 -102.302585   18.791662    0.000000    0.000000    0.000000    0.000000
  0.049859719   -5.274225  -47.396988 -101.961586   -0.855524    0.000000    0.000000    0.000000    0.000000
  0.050060120   -5.293385  -49.060825 -102.588977    0.437083    0.000000    0.000000    0.000000    0.000000
  0.050260521   -5.322179  -50.727577 -100.857200   -2.428364    0.000000    0.000000    0.000000    0.000000
  0.050460922   -5.342630  -52.386047 -100.825112  -11.605671    0.000000    0.000000    0.000000    0.000000
  0.050661323   -5.363520  -54.047123 -101.297121   -5.843292    0.000000    0.000000    0.000000    0.000000
  0.050861723   -5.379860  -55.723824 -103.193256   -5.847175    0.000000    0.000000    0.000000    0.000000
  0.051062124   -5.393425  -57.378376 -102.320734   -1.248923    0.000000    0.000000    0.000000    0.000000
  0.051262525   -5.404666  -58.972263 -103.912744    1.379433    0.000000    0.000000    0.000000    0.000000
  0.051462926   -5.421397  -60.583588 -103.096186    7.540353    0.000000    0.000000    0.000000    0.000000
  0.051663327   -5.435336  -62.157192 -103.235476   -2.809380    0.000000    0.000000    0.000000    0.000000
  0.051863727   -5.453496  -63.725304 -102.574648   14.270011    0.000000    0.000000    0.000000    0.000000
  0.052064128   -5.470696  -65.273811 -104.531007  -10.332165    0.000000    0.000000    0.000000    0.000000
  0.052264529   -5.487977  -66.832161 -102.703365    0.700116    0.000000    0.000000    0.000000    0.000000
  0.052464930   -5.501892  -68.404297 -105.386737   -8.892165    0.000000    0.000000    0.000000    0.000000
  0.052665331   -5.514706  -69.980331 -104.081082   10.281244    0.000000    0.000000    0.000000    0.000000
  0.052865731   -5.531586  -71.544159 -103.479632   10.709706    0.000000    0.000000    0.000000    0.000000
