! Anritsu VNA Master:                     Model: MS2036C/10/77
! SN:                                  1601066
! /bd0/18may26.balun/4b.r50.s2p
! Existing Calibration Information:
! TYPE:                         Current Settings,       Active Cal Settings
! TIME:             	   05/26/2018 04:43:00 PM,    05/26/2018 04:28:16 PM
! INTERNAL TEMP:    	                   55.3 C,                    56.3 C
! # POINTS:         	                      500,                       500
! START FREQ:       	               20.000 MHz,                20.000 MHz
! STOP FREQ:        	              120.000 MHz,               120.000 MHz
! SOURCE POWER:     	                     High,                      High
! IFBW:             	                    50 Hz,                     50 Hz
! AVG FACTOR:       	                       1 ,                        1 
! REF PLANE 1:      	                     0 mm,                      0 mm
! REF PLANE 2:      	                     0 mm,                      0 mm
! CAL TYPE:         	                 Full S11,                  Full S11
! CAL METHOD:       	                     SOLT,                      SOLT
! CAL LINE TYPE:    	                     Coax,                      Coax
! DUT PORT 1:       	                K-Conn(M),                 K-Conn(M)
! DUT PORT 2:       	                K-Conn(M),                 K-Conn(M)
! CAL STATUS:       	        OK: Accuracy High,                        --
# GHZ S DB R 50.0
! FREQ.GHZ       S11DB        S11A       S21DB        S21A       S12DB        S12A       S22DB        S22A
  0.020000000  -38.728565   49.509239  -91.545433   37.262272    0.000000    0.000000    0.000000    0.000000
  0.020200401  -38.700714   49.779221  -91.471184   35.646309    0.000000    0.000000    0.000000    0.000000
  0.020400802  -38.660532   50.451473  -91.266793   32.457012    0.000000    0.000000    0.000000    0.000000
  0.020601202  -38.605266   49.976990  -91.580107   36.691643    0.000000    0.000000    0.000000    0.000000
  0.020801603  -38.657066   50.704792  -91.327862   30.693518    0.000000    0.000000    0.000000    0.000000
  0.021002004  -38.644088   50.369659  -91.749696   31.755363    0.000000    0.000000    0.000000    0.000000
  0.021202405  -38.691910   50.468601  -91.899768   30.381382    0.000000    0.000000    0.000000    0.000000
  0.021402806  -38.628547   50.237797  -92.398992   32.064922    0.000000    0.000000    0.000000    0.000000
  0.021603206  -38.688932   49.930550  -91.754750   34.340527    0.000000    0.000000    0.000000    0.000000
  0.021803607  -38.661416   49.714458  -92.648894   33.021641    0.000000    0.000000    0.000000    0.000000
  0.022004008  -38.597593   50.311516  -92.085089   31.297802    0.000000    0.000000    0.000000    0.000000
  0.022204409  -38.644440   48.900780  -92.446877   31.089119    0.000000    0.000000    0.000000    0.000000
  0.022404810  -38.577016   48.495026  -92.938415   28.009661    0.000000    0.000000    0.000000    0.000000
  0.022605210  -38.512438   47.516594  -92.488504   25.644321    0.000000    0.000000    0.000000    0.000000
  0.022805611  -38.443494   47.052029  -92.874305   28.370443    0.000000    0.000000    0.000000    0.000000
  0.023006012  -38.323034   46.842083  -93.080781   26.827639    0.000000    0.000000    0.000000    0.000000
  0.023206413  -38.268235   46.736984  -93.362205   23.901588    0.000000    0.000000    0.000000    0.000000
  0.023406814  -38.215995   46.721508  -93.356363   29.612951    0.000000    0.000000    0.000000    0.000000
  0.023607214  -38.088523   47.127438  -93.898541   25.353514    0.000000    0.000000    0.000000    0.000000
  0.023807615  -38.025117   46.642662  -93.671341   27.973454    0.000000    0.000000    0.000000    0.000000
  0.024008016  -38.024008   46.998703  -94.169959   20.707424    0.000000    0.000000    0.000000    0.000000
  0.024208417  -37.844185   46.810352  -93.406621   25.891708    0.000000    0.000000    0.000000    0.000000
  0.024408818  -37.790932   47.239414  -93.612218   24.666759    0.000000    0.000000    0.000000    0.000000
  0.024609218  -37.746104   46.824043  -94.118794   26.787806    0.000000    0.000000    0.000000    0.000000
  0.024809619  -37.796480   47.269382  -93.966282   26.187620    0.000000    0.000000    0.000000    0.000000
  0.025010020  -37.726286   46.795547  -94.391667   22.581957    0.000000    0.000000    0.000000    0.000000
  0.025210421  -37.758559   46.433411  -94.041388   22.997643    0.000000    0.000000    0.000000    0.000000
  0.025410822  -37.711296   46.604721  -94.430993   20.452116    0.000000    0.000000    0.000000    0.000000
  0.025611222  -37.673138   46.652222  -94.652399   25.458551    0.000000    0.000000    0.000000    0.000000
  0.025811623  -37.712343   46.264454  -94.463564   23.913664    0.000000    0.000000    0.000000    0.000000
  0.026012024  -37.583602   46.176052  -94.301035   27.525208    0.000000    0.000000    0.000000    0.000000
  0.026212425  -37.564884   45.236271  -94.947523   21.292723    0.000000    0.000000    0.000000    0.000000
  0.026412826  -37.564710   44.875237  -95.695823   19.921429    0.000000    0.000000    0.000000    0.000000
  0.026613226  -37.471956   43.749378  -95.748969   17.374821    0.000000    0.000000    0.000000    0.000000
  0.026813627  -37.369229   43.534771  -95.059909   23.610376    0.000000    0.000000    0.000000    0.000000
  0.027014028  -37.357557   43.052559  -94.970712   19.500175    0.000000    0.000000    0.000000    0.000000
  0.027214429  -37.214208   42.441051  -96.021253   24.960583    0.000000    0.000000    0.000000    0.000000
  0.027414830  -37.122335   41.776901  -96.009443   19.519798    0.000000    0.000000    0.000000    0.000000
  0.027615230  -37.037262   41.702435  -95.809153   20.487326    0.000000    0.000000    0.000000    0.000000
  0.027815631  -36.879808   41.631992  -96.119282   18.850515    0.000000    0.000000    0.000000    0.000000
  0.028016032  -36.718032   41.308517  -95.805654   13.868074    0.000000    0.000000    0.000000    0.000000
  0.028216433  -36.532462   41.345695  -95.135991   19.743622    0.000000    0.000000    0.000000    0.000000
  0.028416834  -36.409853   42.135185  -95.824516   16.377378    0.000000    0.000000    0.000000    0.000000
  0.028617234  -36.265709   42.060715  -96.170887   15.897578    0.000000    0.000000    0.000000    0.000000
  0.028817635  -36.080790   42.229115  -96.031124   22.779261    0.000000    0.000000    0.000000    0.000000
  0.029018036  -36.083506   42.934517  -96.371383   16.117285    0.000000    0.000000    0.000000    0.000000
  0.029218437  -36.040184   43.416290  -95.919061   12.726480    0.000000    0.000000    0.000000    0.000000
  0.029418838  -35.936021   44.322216  -96.694077   15.444158    0.000000    0.000000    0.000000    0.000000
  0.029619238  -35.860108   44.556274  -96.088356   12.623366    0.000000    0.000000    0.000000    0.000000
  0.029819639  -35.826072   45.182407  -96.414052   17.111956    0.000000    0.000000    0.000000    0.000000
  0.030020040  -35.832986   45.567726  -96.863447   15.444992    0.000000    0.000000    0.000000    0.000000
  0.030220441  -35.790793   46.040157  -96.971041   14.596886    0.000000    0.000000    0.000000    0.000000
  0.030420842  -35.825717   46.756878  -96.353038   16.238138    0.000000    0.000000    0.000000    0.000000
  0.030621242  -35.858340   46.724995  -97.524122   18.930063    0.000000    0.000000    0.000000    0.000000
  0.030821643  -35.900032   46.495914  -97.392522   12.924534    0.000000    0.000000    0.000000    0.000000
  0.031022044  -35.938992   47.194714  -97.767348   18.175900    0.000000    0.000000    0.000000    0.000000
  0.031222445  -35.985465   46.958275  -97.896021   14.516870    0.000000    0.000000    0.000000    0.000000
  0.031422846  -36.044011   46.382397  -97.303443   11.817755    0.000000    0.000000    0.000000    0.000000
  0.031623246  -36.002916   45.929558  -98.250264   20.562668    0.000000    0.000000    0.000000    0.000000
  0.031823647  -36.010778   46.053017  -96.934139    7.460516    0.000000    0.000000    0.000000    0.000000
  0.032024048  -36.152472   45.369164  -96.989076   16.553152    0.000000    0.000000    0.000000    0.000000
  0.032224449  -36.087966   44.690121  -99.342292    8.436448    0.000000    0.000000    0.000000    0.000000
  0.032424850  -36.031714   44.295460  -97.106788   11.395902    0.000000    0.000000    0.000000    0.000000
  0.032625251  -36.024348   43.335571  -98.208701    7.638850    0.000000    0.000000    0.000000    0.000000
  0.032825651  -35.869733   42.774590  -97.789236    4.165346    0.000000    0.000000    0.000000    0.000000
  0.033026052  -35.816872   42.718212  -96.714211    8.508602    0.000000    0.000000    0.000000    0.000000
  0.033226453  -35.717976   42.397797  -98.105886   10.617200    0.000000    0.000000    0.000000    0.000000
  0.033426854  -35.555577   41.962372  -97.972418   16.061716    0.000000    0.000000    0.000000    0.000000
  0.033627255  -35.525888   41.722572  -97.589525    8.109290    0.000000    0.000000    0.000000    0.000000
  0.033827655  -35.276782   41.739944  -96.561427    6.232674    0.000000    0.000000    0.000000    0.000000
  0.034028056  -35.219115   41.471310  -98.209014    9.731065    0.000000    0.000000    0.000000    0.000000
  0.034228457  -35.169373   41.747475  -97.745999   10.521132    0.000000    0.000000    0.000000    0.000000
  0.034428858  -35.024013   42.153828  -97.077812   13.369576    0.000000    0.000000    0.000000    0.000000
  0.034629259  -34.988889   42.251892  -98.579316   11.960894    0.000000    0.000000    0.000000    0.000000
  0.034829659  -34.966501   42.676971  -99.000435    9.038752    0.000000    0.000000    0.000000    0.000000
  0.035030060  -34.827685   43.581341  -99.446914   15.481222    0.000000    0.000000    0.000000    0.000000
  0.035230461  -34.845869   43.888657  -98.780139    4.268542    0.000000    0.000000    0.000000    0.000000
  0.035430862  -34.850700   44.731712  -98.823283   13.360297    0.000000    0.000000    0.000000    0.000000
  0.035631263  -34.865269   45.028713  -97.975153    3.918774    0.000000    0.000000    0.000000    0.000000
  0.035831663  -34.873326   45.486340  -99.167422    8.173010    0.000000    0.000000    0.000000    0.000000
  0.036032064  -35.001472   45.165661  -98.375629    3.736294    0.000000    0.000000    0.000000    0.000000
  0.036232465  -35.012399   45.558987 -100.491314    6.195000    0.000000    0.000000    0.000000    0.000000
  0.036432866  -35.010871   45.367039 -100.261048   -1.619867    0.000000    0.000000    0.000000    0.000000
  0.036633267  -35.151956   44.754009  -99.142405    7.963072    0.000000    0.000000    0.000000    0.000000
  0.036833667  -35.142194   44.594486 -100.650452    9.387615    0.000000    0.000000    0.000000    0.000000
  0.037034068  -35.164889   44.614552  -98.679861    1.687198    0.000000    0.000000    0.000000    0.000000
  0.037234469  -35.233815   43.608002 -101.481575   -0.505825    0.000000    0.000000    0.000000    0.000000
  0.037434870  -35.210132   42.927128  -99.819486   12.952202    0.000000    0.000000    0.000000    0.000000
  0.037635271  -35.209781   42.626831  -99.084756    5.433827    0.000000    0.000000    0.000000    0.000000
  0.037835671  -35.145861   41.415554  -98.606488    7.185501    0.000000    0.000000    0.000000    0.000000
  0.038036072  -35.148251   41.349083 -100.561338    7.494355    0.000000    0.000000    0.000000    0.000000
  0.038236473  -35.055798   40.814827  -98.998379    0.215889    0.000000    0.000000    0.000000    0.000000
  0.038436874  -34.895154   40.088272 -100.892665    5.782071    0.000000    0.000000    0.000000    0.000000
  0.038637275  -34.886942   39.364368 -100.223667   12.276608    0.000000    0.000000    0.000000    0.000000
  0.038837675  -34.715951   38.712891  -99.898188   12.256701    0.000000    0.000000    0.000000    0.000000
  0.039038076  -34.617755   38.757751 -100.636269    7.837998    0.000000    0.000000    0.000000    0.000000
  0.039238477  -34.502268   39.137970 -101.788672    7.425869    0.000000    0.000000    0.000000    0.000000
  0.039438878  -34.316627   38.836136 -100.158390    4.959279    0.000000    0.000000    0.000000    0.000000
  0.039639279  -34.178998   39.212021 -100.630362    1.003568    0.000000    0.000000    0.000000    0.000000
  0.039839679  -34.121440   39.268593 -100.312639   -3.436131    0.000000    0.000000    0.000000    0.000000
  0.040040080  -33.993624   39.796089  -99.574509    5.344801    0.000000    0.000000    0.000000    0.000000
  0.040240481  -33.985387   40.490910 -100.799621   11.902654    0.000000    0.000000    0.000000    0.000000
  0.040440882  -33.888359   40.290726  -99.489729    4.470849    0.000000    0.000000    0.000000    0.000000
  0.040641283  -33.899299   41.707722 -101.350356    5.336679    0.000000    0.000000    0.000000    0.000000
  0.040841683  -33.835181   42.312923 -101.868586    5.688621    0.000000    0.000000    0.000000    0.000000
  0.041042084  -33.908408   42.539352  -99.601926    4.717379    0.000000    0.000000    0.000000    0.000000
  0.041242485  -33.959171   42.803848 -100.202703    7.710206    0.000000    0.000000    0.000000    0.000000
  0.041442886  -33.932561   43.144634 -101.610402   -9.389373    0.000000    0.000000    0.000000    0.000000
  0.041643287  -34.061257   43.318245 -100.028897    8.737836    0.000000    0.000000    0.000000    0.000000
  0.041843687  -33.981597   43.023838 -101.644729    9.225019    0.000000    0.000000    0.000000    0.000000
  0.042044088  -34.144129   42.879070  -99.931366    2.581702    0.000000    0.000000    0.000000    0.000000
  0.042244489  -34.143839   42.732048 -100.395287   10.045321    0.000000    0.000000    0.000000    0.000000
  0.042444890  -34.113195   42.485138 -101.912623   18.515789    0.000000    0.000000    0.000000    0.000000
  0.042645291  -34.139245   42.151009 -100.781871    0.589469    0.000000    0.000000    0.000000    0.000000
  0.042845691  -34.208572   41.836990 -100.239341   -2.809129    0.000000    0.000000    0.000000    0.000000
  0.043046092  -34.257240   41.450661 -101.712825    6.183957    0.000000    0.000000    0.000000    0.000000
  0.043246493  -34.236045   41.231644 -101.420758    9.151598    0.000000    0.000000    0.000000    0.000000
  0.043446894  -34.219456   40.319008 -103.104142    1.473568    0.000000    0.000000    0.000000    0.000000
  0.043647295  -34.161472   39.773621 -101.303203   -0.667113    0.000000    0.000000    0.000000    0.000000
  0.043847695  -34.065199   39.712849 -101.395748   14.810297    0.000000    0.000000    0.000000    0.000000
  0.044048096  -33.950059   39.071686 -102.324723   15.405333    0.000000    0.000000    0.000000    0.000000
  0.044248497  -33.876721   39.310043 -100.242365    3.788740    0.000000    0.000000    0.000000    0.000000
  0.044448898  -33.816972   38.695686 -100.932603    3.616227    0.000000    0.000000    0.000000    0.000000
  0.044649299  -33.764998   38.584908 -104.501625    5.484844    0.000000    0.000000    0.000000    0.000000
  0.044849699  -33.719030   38.297951 -101.900099    3.400759    0.000000    0.000000    0.000000    0.000000
  0.045050100  -33.635470   38.552902 -101.891710   -6.879309    0.000000    0.000000    0.000000    0.000000
  0.045250501  -33.590953   38.483456 -102.367186    9.471673    0.000000    0.000000    0.000000    0.000000
  0.045450902  -33.499215   38.907211 -102.020136    6.612517    0.000000    0.000000    0.000000    0.000000
  0.045651303  -33.477801   39.360504 -102.001319    5.936082    0.000000    0.000000    0.000000    0.000000
  0.045851703  -33.484135   39.622425 -102.402698   12.257249    0.000000    0.000000    0.000000    0.000000
  0.046052104  -33.435236   39.856766 -101.525631    1.490704    0.000000    0.000000    0.000000    0.000000
  0.046252505  -33.445110   40.480415 -101.201870    0.475809    0.000000    0.000000    0.000000    0.000000
  0.046452906  -33.449746   40.485264 -101.977260    4.700448    0.000000    0.000000    0.000000    0.000000
  0.046653307  -33.460446   40.719109 -100.769880    6.607497    0.000000    0.000000    0.000000    0.000000
  0.046853707  -33.457525   41.181812 -100.702341    4.271432    0.000000    0.000000    0.000000    0.000000
  0.047054108  -33.531532   40.782642 -101.612921    3.802510    0.000000    0.000000    0.000000    0.000000
  0.047254509  -33.564998   40.679180 -102.781297   13.978878    0.000000    0.000000    0.000000    0.000000
  0.047454910  -33.567386   40.096153 -101.898090    1.675805    0.000000    0.000000    0.000000    0.000000
  0.047655311  -33.683100   40.143414 -101.480464  -12.275223    0.000000    0.000000    0.000000    0.000000
  0.047855711  -33.655423   40.424225 -103.727833   14.771268    0.000000    0.000000    0.000000    0.000000
  0.048056112  -33.686593   39.902390 -104.551311    7.681438    0.000000    0.000000    0.000000    0.000000
  0.048256513  -33.699173   39.180134 -104.897700   -1.028009    0.000000    0.000000    0.000000    0.000000
  0.048456914  -33.720842   38.648037 -101.977752   -5.990252    0.000000    0.000000    0.000000    0.000000
  0.048657315  -33.677181   38.094864 -102.920277    9.877387    0.000000    0.000000    0.000000    0.000000
  0.048857715  -33.624447   37.579491 -101.480464    7.087481    0.000000    0.000000    0.000000    0.000000
  0.049058116  -33.647223   37.554001 -101.726227   -4.128932    0.000000    0.000000    0.000000    0.000000
  0.049258517  -33.557343   36.865147 -102.192085   -0.622073    0.000000    0.000000    0.000000    0.000000
  0.049458918  -33.482437   36.421757 -101.839258    0.978112    0.000000    0.000000    0.000000    0.000000
  0.049659319  -33.437289   36.435383 -101.171644   12.668468    0.000000    0.000000    0.000000    0.000000
  0.049859719  -33.433701   36.239590 -101.226391    2.176430    0.000000    0.000000    0.000000    0.000000
  0.050060120  -33.375231   35.883774 -103.546122   -5.564172    0.000000    0.000000    0.000000    0.000000
  0.050260521  -33.275688   36.341099 -102.685460    3.182825    0.000000    0.000000    0.000000    0.000000
  0.050460922  -33.213071   35.979240 -102.564949    2.585681    0.000000    0.000000    0.000000    0.000000
  0.050661323  -33.190259   35.992985 -101.106954    9.226148    0.000000    0.000000    0.000000    0.000000
  0.050861723  -33.184428   36.526489 -103.811784   11.438684    0.000000    0.000000    0.000000    0.000000
  0.051062124  -33.139456   36.558487 -104.312546    4.333557    0.000000    0.000000    0.000000    0.000000
  0.051262525  -33.089669   36.522980 -102.216306    6.448076    0.000000    0.000000    0.000000    0.000000
  0.051462926  -33.128940   36.808231 -104.169091   10.993748    0.000000    0.000000    0.000000    0.000000
  0.051663327  -33.102216   36.757717 -103.099226   -5.597484    0.000000    0.000000    0.000000    0.000000
  0.051863727  -33.232312   37.161156 -102.893103    4.175415    0.000000    0.000000    0.000000    0.000000
  0.052064128  -33.108415   36.998898 -103.032848   -7.696531    0.000000    0.000000    0.000000    0.000000
  0.052264529  -33.187333   36.905777 -103.590376   -0.343075    0.000000    0.000000    0.000000    0.000000
  0.052464930  -33.186866   36.636436 -103.544328    3.435168    0.000000    0.000000    0.000000    0.000000
  0.052665331  -33.221432   36.211380 -103.932529    5.555368    0.000000    0.000000    0.000000    0.000000
  0.052865731  -33.312666   36.770458 -103.575626    5.733095    0.000000    0.000000    0.000000    0.000000
