! Anritsu VNA Master:                     Model: MS2036C/10/77
! SN:                                  1601066
! /card0/usr/18may27.balun/5b.47.s2p
! Existing Calibration Information:
! TYPE:                         Current Settings,       Active Cal Settings
! TIME:             	   05/27/2018 03:29:14 PM,    05/27/2018 03:21:57 PM
! INTERNAL TEMP:    	                   52.8 C,                    52.3 C
! # POINTS:         	                      500,                       500
! START FREQ:       	               20.000 MHz,                20.000 MHz
! STOP FREQ:        	              120.000 MHz,               120.000 MHz
! SOURCE POWER:     	                     High,                      High
! IFBW:             	                    50 Hz,                     50 Hz
! AVG FACTOR:       	                       1 ,                        1 
! REF PLANE 1:      	                     0 mm,                      0 mm
! REF PLANE 2:      	                     0 mm,                      0 mm
! CAL TYPE:         	                 Full S11,                  Full S11
! CAL METHOD:       	                     SOLT,                      SOLT
! CAL LINE TYPE:    	                     Coax,                      Coax
! DUT PORT 1:       	                K-Conn(M),                 K-Conn(M)
! DUT PORT 2:       	                K-Conn(M),                 K-Conn(M)
! CAL STATUS:       	        OK: Accuracy High,                        --
# GHZ S DB R 50.0
! FREQ.GHZ       S11DB        S11A       S21DB        S21A       S12DB        S12A       S22DB        S22A
  0.020000000   -0.043717  -56.008507  -90.782621   37.213062    0.000000    0.000000    0.000000    0.000000
  0.020200401   -0.039840  -56.550320  -90.877248   36.244869    0.000000    0.000000    0.000000    0.000000
  0.020400802   -0.036059  -57.053268  -90.402275   32.129177    0.000000    0.000000    0.000000    0.000000
  0.020601202   -0.033807  -57.584217  -90.913082   30.983257    0.000000    0.000000    0.000000    0.000000
  0.020801603   -0.033711  -58.116215  -90.529013   29.535175    0.000000    0.000000    0.000000    0.000000
  0.021002004   -0.032102  -58.655334  -91.804250   31.083965    0.000000    0.000000    0.000000    0.000000
  0.021202405   -0.036253  -59.215145  -90.933819   30.221569    0.000000    0.000000    0.000000    0.000000
  0.021402806   -0.039096  -59.764626  -92.657100   23.285763    0.000000    0.000000    0.000000    0.000000
  0.021603206   -0.041538  -60.311924  -92.592452   27.734112    0.000000    0.000000    0.000000    0.000000
  0.021803607   -0.046140  -60.847103  -92.413939   28.552855    0.000000    0.000000    0.000000    0.000000
  0.022004008   -0.047763  -61.382397  -93.641041   27.587729    0.000000    0.000000    0.000000    0.000000
  0.022204409   -0.049778  -61.952785  -93.124270   35.160934    0.000000    0.000000    0.000000    0.000000
  0.022404810   -0.057133  -62.552937  -93.086697   26.938686    0.000000    0.000000    0.000000    0.000000
  0.022605210   -0.062146  -63.140511  -93.667698   26.069134    0.000000    0.000000    0.000000    0.000000
  0.022805611   -0.059142  -63.719402  -94.497056   31.527300    0.000000    0.000000    0.000000    0.000000
  0.023006012   -0.049922  -64.316231  -93.658782   35.775600    0.000000    0.000000    0.000000    0.000000
  0.023206413   -0.045428  -64.903412  -93.247034   34.342316    0.000000    0.000000    0.000000    0.000000
  0.023406814   -0.041330  -65.465500  -93.526011   32.278099    0.000000    0.000000    0.000000    0.000000
  0.023607214   -0.042694  -66.034554  -93.814822   38.535042    0.000000    0.000000    0.000000    0.000000
  0.023807615   -0.042059  -66.563011  -93.377790   35.984802    0.000000    0.000000    0.000000    0.000000
  0.024008016   -0.046568  -67.059929  -93.211821   30.616859    0.000000    0.000000    0.000000    0.000000
  0.024208417   -0.050677  -67.556702  -92.803086   30.512190    0.000000    0.000000    0.000000    0.000000
  0.024408818   -0.056735  -68.021194  -93.690431   32.652546    0.000000    0.000000    0.000000    0.000000
  0.024609218   -0.062881  -68.507851  -92.984196   25.438017    0.000000    0.000000    0.000000    0.000000
  0.024809619   -0.069360  -69.031898  -93.614372   29.692141    0.000000    0.000000    0.000000    0.000000
  0.025010020   -0.069113  -69.571747  -93.296006   28.024542    0.000000    0.000000    0.000000    0.000000
  0.025210421   -0.069677  -70.114861  -93.371890   20.749569    0.000000    0.000000    0.000000    0.000000
  0.025410822   -0.071147  -70.661629  -93.614698   26.320995    0.000000    0.000000    0.000000    0.000000
  0.025611222   -0.069836  -71.212265  -93.586477   17.229515    0.000000    0.000000    0.000000    0.000000
  0.025811623   -0.069168  -71.746040  -94.286168   18.636145    0.000000    0.000000    0.000000    0.000000
  0.026012024   -0.065719  -72.281471  -95.152576   16.955721    0.000000    0.000000    0.000000    0.000000
  0.026212425   -0.062844  -72.823692  -94.869767   17.836281    0.000000    0.000000    0.000000    0.000000
  0.026412826   -0.059983  -73.337814  -95.151667   18.967905    0.000000    0.000000    0.000000    0.000000
  0.026613226   -0.062378  -73.850334  -95.564716   16.883314    0.000000    0.000000    0.000000    0.000000
  0.026813627   -0.065982  -74.340508  -96.613478   17.223515    0.000000    0.000000    0.000000    0.000000
  0.027014028   -0.068892  -74.813034  -96.442972   17.594023    0.000000    0.000000    0.000000    0.000000
  0.027214429   -0.077714  -75.325974  -95.999931   14.664107    0.000000    0.000000    0.000000    0.000000
  0.027414830   -0.089058  -75.887039  -96.758883   12.315115    0.000000    0.000000    0.000000    0.000000
  0.027615230   -0.096509  -76.482956  -96.232093   18.445223    0.000000    0.000000    0.000000    0.000000
  0.027815631   -0.100011  -77.104950  -96.801443   18.275917    0.000000    0.000000    0.000000    0.000000
  0.028016032   -0.098725  -77.734802  -96.414695   22.742956    0.000000    0.000000    0.000000    0.000000
  0.028216433   -0.091519  -78.386719  -96.570300   25.631866    0.000000    0.000000    0.000000    0.000000
  0.028416834   -0.084534  -78.995758  -96.100333   25.410856    0.000000    0.000000    0.000000    0.000000
  0.028617234   -0.076154  -79.620003  -95.741111   26.965496    0.000000    0.000000    0.000000    0.000000
  0.028817635   -0.068106  -80.175743  -95.596404   22.583118    0.000000    0.000000    0.000000    0.000000
  0.029018036   -0.060622  -80.678947  -95.578558   19.885509    0.000000    0.000000    0.000000    0.000000
  0.029218437   -0.052702  -81.132294  -96.035824   19.804062    0.000000    0.000000    0.000000    0.000000
  0.029418838   -0.049817  -81.563507  -95.189797   14.732989    0.000000    0.000000    0.000000    0.000000
  0.029619238   -0.047764  -81.979988  -96.278762   18.149872    0.000000    0.000000    0.000000    0.000000
  0.029819639   -0.051730  -82.413208  -95.872620   10.569366    0.000000    0.000000    0.000000    0.000000
  0.030020040   -0.056540  -82.877014  -96.529827   10.907105    0.000000    0.000000    0.000000    0.000000
  0.030220441   -0.065593  -83.370674  -96.213383   12.368418    0.000000    0.000000    0.000000    0.000000
  0.030420842   -0.076776  -83.886681  -97.072094   11.589713    0.000000    0.000000    0.000000    0.000000
  0.030621242   -0.085460  -84.409836  -97.846495   11.245610    0.000000    0.000000    0.000000    0.000000
  0.030821643   -0.091456  -84.948746  -96.555117   11.747454    0.000000    0.000000    0.000000    0.000000
  0.031022044   -0.089335  -85.474648  -98.554436   10.081739    0.000000    0.000000    0.000000    0.000000
  0.031222445   -0.090268  -86.011955  -96.206255    9.844992    0.000000    0.000000    0.000000    0.000000
  0.031422846   -0.090437  -86.516907  -97.410991   15.270427    0.000000    0.000000    0.000000    0.000000
  0.031623246   -0.090703  -87.035011  -96.672099   17.095367    0.000000    0.000000    0.000000    0.000000
  0.031823647   -0.088927  -87.537354  -97.734583   10.151164    0.000000    0.000000    0.000000    0.000000
  0.032024048   -0.086319  -88.012947  -98.619588   12.378347    0.000000    0.000000    0.000000    0.000000
  0.032224449   -0.088167  -88.470558  -97.554904   22.690191    0.000000    0.000000    0.000000    0.000000
  0.032424850   -0.096895  -88.954735  -97.461038    4.910544    0.000000    0.000000    0.000000    0.000000
  0.032625251   -0.106110  -89.459518  -99.854499   10.956309    0.000000    0.000000    0.000000    0.000000
  0.032825651   -0.117812  -90.003700  -99.393275   16.475447    0.000000    0.000000    0.000000    0.000000
  0.033026052   -0.126083  -90.565414  -98.376425   17.299156    0.000000    0.000000    0.000000    0.000000
  0.033226453   -0.132890  -91.148682  -97.589286    7.892864    0.000000    0.000000    0.000000    0.000000
  0.033426854   -0.134971  -91.785507  -97.554027   11.503844    0.000000    0.000000    0.000000    0.000000
  0.033627255   -0.140858  -92.419189  -98.246721   12.539550    0.000000    0.000000    0.000000    0.000000
  0.033827655   -0.142284  -93.031288  -97.444363    8.775426    0.000000    0.000000    0.000000    0.000000
  0.034028056   -0.135495  -93.646004  -98.786627   13.963929    0.000000    0.000000    0.000000    0.000000
  0.034228457   -0.128196  -94.218285  -97.866541    6.629519    0.000000    0.000000    0.000000    0.000000
  0.034428858   -0.117700  -94.775505  -98.365356   11.706964    0.000000    0.000000    0.000000    0.000000
  0.034629259   -0.103129  -95.273109  -98.516444   10.000691    0.000000    0.000000    0.000000    0.000000
  0.034829659   -0.097215  -95.752670  -98.038828    5.962510    0.000000    0.000000    0.000000    0.000000
  0.035030060   -0.093707  -96.195313  -99.126959   12.342713    0.000000    0.000000    0.000000    0.000000
  0.035230461   -0.088970  -96.639458  -97.703880    3.416230    0.000000    0.000000    0.000000    0.000000
  0.035430862   -0.092104  -97.055786  -98.642783    3.962437    0.000000    0.000000    0.000000    0.000000
  0.035631263   -0.098942  -97.495682  -98.939186    7.521443    0.000000    0.000000    0.000000    0.000000
  0.035831663   -0.109588  -97.960556  -99.969885    0.145204    0.000000    0.000000    0.000000    0.000000
  0.036032064   -0.117198  -98.468445  -99.608018    8.313116    0.000000    0.000000    0.000000    0.000000
  0.036232465   -0.126132  -98.988220 -100.514292    6.452705    0.000000    0.000000    0.000000    0.000000
  0.036432866   -0.131470  -99.529770  -98.868039    4.572006    0.000000    0.000000    0.000000    0.000000
  0.036633267   -0.136111 -100.083679  -99.326311   -0.483580    0.000000    0.000000    0.000000    0.000000
  0.036833667   -0.137345 -100.586052 -101.195814    9.482817    0.000000    0.000000    0.000000    0.000000
  0.037034068   -0.132774 -101.122208  -99.593677    4.279107    0.000000    0.000000    0.000000    0.000000
  0.037234469   -0.122406 -101.602127 -100.626073   13.008890    0.000000    0.000000    0.000000    0.000000
  0.037434870   -0.113246 -102.063591 -100.320810   17.734417    0.000000    0.000000    0.000000    0.000000
  0.037635271   -0.109867 -102.486504  -99.895338    8.695105    0.000000    0.000000    0.000000    0.000000
  0.037835671   -0.113032 -102.932587  -97.970332    3.884959    0.000000    0.000000    0.000000    0.000000
  0.038036072   -0.120366 -103.405884  -99.550758   13.466201    0.000000    0.000000    0.000000    0.000000
  0.038236473   -0.127915 -103.906219 -100.622162    9.490583    0.000000    0.000000    0.000000    0.000000
  0.038436874   -0.136276 -104.401711  -98.731400    2.231310    0.000000    0.000000    0.000000    0.000000
  0.038637275   -0.144259 -104.935905  -99.328824    8.322073    0.000000    0.000000    0.000000    0.000000
  0.038837675   -0.152876 -105.485901  -98.322921    9.841808    0.000000    0.000000    0.000000    0.000000
  0.039038076   -0.161906 -106.067352 -100.089496    2.936047    0.000000    0.000000    0.000000    0.000000
  0.039238477   -0.166448 -106.649193  -98.497933   12.059513    0.000000    0.000000    0.000000    0.000000
  0.039438878   -0.168527 -107.206001  -99.419081    7.622637    0.000000    0.000000    0.000000    0.000000
  0.039639279   -0.165504 -107.763657  -99.287162   -1.205283    0.000000    0.000000    0.000000    0.000000
  0.039839679   -0.157660 -108.310905  -99.541042   -7.198802    0.000000    0.000000    0.000000    0.000000
  0.040040080   -0.150949 -108.818077  -99.691620   -7.231273    0.000000    0.000000    0.000000    0.000000
  0.040240481   -0.144749 -109.297523 -100.743101   -2.417244    0.000000    0.000000    0.000000    0.000000
  0.040440882   -0.139238 -109.763428 -100.736326  -15.744682    0.000000    0.000000    0.000000    0.000000
  0.040641283   -0.135454 -110.225609 -101.950374    2.799628    0.000000    0.000000    0.000000    0.000000
  0.040841683   -0.135317 -110.669975 -102.014678  -14.532160    0.000000    0.000000    0.000000    0.000000
  0.041042084   -0.139331 -111.111221 -102.011231    5.181551    0.000000    0.000000    0.000000    0.000000
  0.041242485   -0.147505 -111.554390 -101.649960   18.555471    0.000000    0.000000    0.000000    0.000000
  0.041442886   -0.159153 -112.011002 -102.461467   10.302174    0.000000    0.000000    0.000000    0.000000
  0.041643287   -0.169238 -112.528633 -102.235302    5.858288    0.000000    0.000000    0.000000    0.000000
  0.041843687   -0.176492 -113.037300 -102.117972   10.180179    0.000000    0.000000    0.000000    0.000000
  0.042044088   -0.177701 -113.567215 -102.607206   -4.583209    0.000000    0.000000    0.000000    0.000000
  0.042244489   -0.174743 -114.099312 -101.448961   24.513081    0.000000    0.000000    0.000000    0.000000
  0.042444890   -0.163328 -114.630943 -101.909984    6.907753    0.000000    0.000000    0.000000    0.000000
  0.042645291   -0.154701 -115.082092 -101.424816    8.589683    0.000000    0.000000    0.000000    0.000000
  0.042845691   -0.147652 -115.534889  -99.884681   11.876073    0.000000    0.000000    0.000000    0.000000
  0.043046092   -0.147699 -115.980942  -99.749788   23.568562    0.000000    0.000000    0.000000    0.000000
  0.043246493   -0.150197 -116.455162 -100.907109   19.984690    0.000000    0.000000    0.000000    0.000000
  0.043446894   -0.154539 -116.914177 -101.426278   19.964651    0.000000    0.000000    0.000000    0.000000
  0.043647295   -0.162078 -117.389153 -100.618691   -0.224376    0.000000    0.000000    0.000000    0.000000
  0.043847695   -0.166338 -117.861809 -101.118974    0.051893    0.000000    0.000000    0.000000    0.000000
  0.044048096   -0.174201 -118.365501 -102.872820   14.865168    0.000000    0.000000    0.000000    0.000000
  0.044248497   -0.181087 -118.879227 -100.857661    8.458447    0.000000    0.000000    0.000000    0.000000
  0.044448898   -0.188890 -119.421608 -100.259325    5.372212    0.000000    0.000000    0.000000    0.000000
  0.044649299   -0.193251 -119.954994 -100.428973   -3.662912    0.000000    0.000000    0.000000    0.000000
  0.044849699   -0.190420 -120.489754 -101.040726   -5.774097    0.000000    0.000000    0.000000    0.000000
  0.045050100   -0.186758 -120.988510 -101.419528    5.003144    0.000000    0.000000    0.000000    0.000000
  0.045250501   -0.186342 -121.497971 -100.696355   -9.350601    0.000000    0.000000    0.000000    0.000000
  0.045450902   -0.181167 -121.990280 -103.314249   -5.815099    0.000000    0.000000    0.000000    0.000000
  0.045651303   -0.178039 -122.487694 -103.710632  -16.096701    0.000000    0.000000    0.000000    0.000000
  0.045851703   -0.177034 -122.979385 -103.715065   -2.880279    0.000000    0.000000    0.000000    0.000000
  0.046052104   -0.173166 -123.457802 -103.302816   -1.175908    0.000000    0.000000    0.000000    0.000000
  0.046252505   -0.174816 -123.907333 -102.958491    2.475983    0.000000    0.000000    0.000000    0.000000
  0.046452906   -0.176120 -124.318420 -104.011139   13.461637    0.000000    0.000000    0.000000    0.000000
  0.046653307   -0.185749 -124.755798 -104.090355    1.168353    0.000000    0.000000    0.000000    0.000000
  0.046853707   -0.199671 -125.217049 -103.725589    9.217194    0.000000    0.000000    0.000000    0.000000
  0.047054108   -0.207968 -125.727295 -103.777786   16.706409    0.000000    0.000000    0.000000    0.000000
  0.047254509   -0.211698 -126.240173 -102.599127    6.413449    0.000000    0.000000    0.000000    0.000000
  0.047454910   -0.208735 -126.744118 -103.043254   10.500164    0.000000    0.000000    0.000000    0.000000
  0.047655311   -0.200155 -127.236137 -102.034201   22.492186    0.000000    0.000000    0.000000    0.000000
  0.047855711   -0.193215 -127.701477 -101.643828   17.818724    0.000000    0.000000    0.000000    0.000000
  0.048056112   -0.188312 -128.144928 -101.570924    3.629422    0.000000    0.000000    0.000000    0.000000
  0.048256513   -0.186502 -128.605133 -100.422275   -7.111870    0.000000    0.000000    0.000000    0.000000
  0.048456914   -0.189759 -129.062592 -102.131131    4.236927    0.000000    0.000000    0.000000    0.000000
  0.048657315   -0.191743 -129.489639 -102.790835   -3.759739    0.000000    0.000000    0.000000    0.000000
  0.048857715   -0.194604 -129.935440 -101.979215   -3.781188    0.000000    0.000000    0.000000    0.000000
  0.049058116   -0.199993 -130.394028 -101.171929   -1.317427    0.000000    0.000000    0.000000    0.000000
  0.049258517   -0.206634 -130.856262 -102.514511  -12.370148    0.000000    0.000000    0.000000    0.000000
  0.049458918   -0.214250 -131.339035 -101.553811  -15.796840    0.000000    0.000000    0.000000    0.000000
  0.049659319   -0.216771 -131.845428 -100.353913  -11.168234    0.000000    0.000000    0.000000    0.000000
  0.049859719   -0.218928 -132.355377 -101.397669  -20.334919    0.000000    0.000000    0.000000    0.000000
  0.050060120   -0.218234 -132.830124 -101.496647  -10.262892    0.000000    0.000000    0.000000    0.000000
  0.050260521   -0.220185 -133.307861 -104.989938  -18.088148    0.000000    0.000000    0.000000    0.000000
  0.050460922   -0.219066 -133.787460 -101.731842  -12.430260    0.000000    0.000000    0.000000    0.000000
  0.050661323   -0.219329 -134.279297 -105.879570   -7.503424    0.000000    0.000000    0.000000    0.000000
  0.050861723   -0.218964 -134.770615 -110.010008   22.300510    0.000000    0.000000    0.000000    0.000000
  0.051062124   -0.216103 -135.270432 -103.823755   -3.646780    0.000000    0.000000    0.000000    0.000000
  0.051262525   -0.213314 -135.750443 -104.898434    1.967790    0.000000    0.000000    0.000000    0.000000
  0.051462926   -0.211865 -136.193710 -105.000467   -3.458375    0.000000    0.000000    0.000000    0.000000
  0.051663327   -0.210682 -136.628448 -107.572381    0.416472    0.000000    0.000000    0.000000    0.000000
  0.051863727   -0.218168 -137.039230 -102.018932   22.436604    0.000000    0.000000    0.000000    0.000000
  0.052064128   -0.225576 -137.500214 -101.790962   -0.367018    0.000000    0.000000    0.000000    0.000000
  0.052264529   -0.231901 -137.979660 -102.688854   21.989271    0.000000    0.000000    0.000000    0.000000
  0.052464930   -0.235247 -138.476700 -102.572910   15.774568    0.000000    0.000000    0.000000    0.000000
  0.052665331   -0.233580 -138.975464 -101.495442   18.402298    0.000000    0.000000    0.000000    0.000000
  0.052865731   -0.230544 -139.458649 -100.888046    3.568818    0.000000    0.000000    0.000000    0.000000
