! Anritsu VNA Master:                     Model: MS2036C/10/77
! SN:                                  1601066
! /card0/usr/18may27.balun/5b.66.s2p
! Existing Calibration Information:
! TYPE:                         Current Settings,       Active Cal Settings
! TIME:             	   05/27/2018 03:30:40 PM,    05/27/2018 03:21:57 PM
! INTERNAL TEMP:    	                   52.8 C,                    52.3 C
! # POINTS:         	                      500,                       500
! START FREQ:       	               20.000 MHz,                20.000 MHz
! STOP FREQ:        	              120.000 MHz,               120.000 MHz
! SOURCE POWER:     	                     High,                      High
! IFBW:             	                    50 Hz,                     50 Hz
! AVG FACTOR:       	                       1 ,                        1 
! REF PLANE 1:      	                     0 mm,                      0 mm
! REF PLANE 2:      	                     0 mm,                      0 mm
! CAL TYPE:         	                 Full S11,                  Full S11
! CAL METHOD:       	                     SOLT,                      SOLT
! CAL LINE TYPE:    	                     Coax,                      Coax
! DUT PORT 1:       	                K-Conn(M),                 K-Conn(M)
! DUT PORT 2:       	                K-Conn(M),                 K-Conn(M)
! CAL STATUS:       	        OK: Accuracy High,                        --
# GHZ S DB R 50.0
! FREQ.GHZ       S11DB        S11A       S21DB        S21A       S12DB        S12A       S22DB        S22A
  0.020000000   -0.061615  -67.832405  -90.700290   38.510281    0.000000    0.000000    0.000000    0.000000
  0.020200401   -0.057876  -68.457603  -90.373547   32.043015    0.000000    0.000000    0.000000    0.000000
  0.020400802   -0.055462  -69.051193  -90.567173   33.502102    0.000000    0.000000    0.000000    0.000000
  0.020601202   -0.051939  -69.663261  -90.660382   31.778301    0.000000    0.000000    0.000000    0.000000
  0.020801603   -0.050307  -70.288460  -90.946852   30.648388    0.000000    0.000000    0.000000    0.000000
  0.021002004   -0.050581  -70.910370  -91.857318   26.960722    0.000000    0.000000    0.000000    0.000000
  0.021202405   -0.055702  -71.561607  -92.266785   26.795628    0.000000    0.000000    0.000000    0.000000
  0.021402806   -0.061055  -72.210365  -92.311015   31.005718    0.000000    0.000000    0.000000    0.000000
  0.021603206   -0.064974  -72.860985  -92.361235   26.039616    0.000000    0.000000    0.000000    0.000000
  0.021803607   -0.069344  -73.501144  -93.482597   20.283894    0.000000    0.000000    0.000000    0.000000
  0.022004008   -0.072027  -74.154045  -93.037853   26.633701    0.000000    0.000000    0.000000    0.000000
  0.022204409   -0.076328  -74.830559  -93.092438   25.853205    0.000000    0.000000    0.000000    0.000000
  0.022404810   -0.081178  -75.521614  -93.814261   30.574396    0.000000    0.000000    0.000000    0.000000
  0.022605210   -0.085656  -76.205223  -94.029686   33.464703    0.000000    0.000000    0.000000    0.000000
  0.022805611   -0.080556  -76.884506  -93.469750   35.736908    0.000000    0.000000    0.000000    0.000000
  0.023006012   -0.070468  -77.575882  -93.526010   31.845276    0.000000    0.000000    0.000000    0.000000
  0.023206413   -0.065377  -78.246857  -92.981961   30.293941    0.000000    0.000000    0.000000    0.000000
  0.023406814   -0.062556  -78.897377  -93.158430   34.388542    0.000000    0.000000    0.000000    0.000000
  0.023607214   -0.063009  -79.525375  -92.880407   30.931936    0.000000    0.000000    0.000000    0.000000
  0.023807615   -0.063724  -80.129715  -92.969097   28.171644    0.000000    0.000000    0.000000    0.000000
  0.024008016   -0.069726  -80.691612  -93.444731   33.025494    0.000000    0.000000    0.000000    0.000000
  0.024208417   -0.073944  -81.256775  -92.880487   30.992891    0.000000    0.000000    0.000000    0.000000
  0.024408818   -0.080373  -81.798492  -92.662587   26.564390    0.000000    0.000000    0.000000    0.000000
  0.024609218   -0.086305  -82.358826  -93.565926   29.111488    0.000000    0.000000    0.000000    0.000000
  0.024809619   -0.091319  -82.947601  -93.891294   22.458263    0.000000    0.000000    0.000000    0.000000
  0.025010020   -0.092084  -83.559586  -93.445080   21.933197    0.000000    0.000000    0.000000    0.000000
  0.025210421   -0.095469  -84.164230  -93.789907   23.865213    0.000000    0.000000    0.000000    0.000000
  0.025410822   -0.095570  -84.790504  -94.173547   22.768421    0.000000    0.000000    0.000000    0.000000
  0.025611222   -0.095557  -85.418137  -93.988946   17.716040    0.000000    0.000000    0.000000    0.000000
  0.025811623   -0.091645  -86.029083  -94.286241   17.979959    0.000000    0.000000    0.000000    0.000000
  0.026012024   -0.087697  -86.621719  -94.612858   14.911308    0.000000    0.000000    0.000000    0.000000
  0.026212425   -0.085553  -87.213669  -95.155074   12.177055    0.000000    0.000000    0.000000    0.000000
  0.026412826   -0.088968  -87.801590  -95.893263   16.270395    0.000000    0.000000    0.000000    0.000000
  0.026613226   -0.093230  -88.416245  -95.915824   20.766403    0.000000    0.000000    0.000000    0.000000
  0.026813627   -0.100558  -89.003448  -95.784749   20.304152    0.000000    0.000000    0.000000    0.000000
  0.027014028   -0.105447  -89.573158  -95.945501   19.771500    0.000000    0.000000    0.000000    0.000000
  0.027214429   -0.116025  -90.199310  -96.251542   19.830736    0.000000    0.000000    0.000000    0.000000
  0.027414830   -0.126582  -90.861397  -96.275369   23.364552    0.000000    0.000000    0.000000    0.000000
  0.027615230   -0.132839  -91.563683  -96.475664   19.078188    0.000000    0.000000    0.000000    0.000000
  0.027815631   -0.134244  -92.276955  -97.092790   24.005573    0.000000    0.000000    0.000000    0.000000
  0.028016032   -0.128147  -92.999382  -96.176460   24.106293    0.000000    0.000000    0.000000    0.000000
  0.028216433   -0.120167  -93.713287  -96.658206   26.132673    0.000000    0.000000    0.000000    0.000000
  0.028416834   -0.111283  -94.381111  -96.488206   20.097286    0.000000    0.000000    0.000000    0.000000
  0.028617234   -0.101922  -95.048660  -95.740583   23.078114    0.000000    0.000000    0.000000    0.000000
  0.028817635   -0.092552  -95.652008  -95.901616   22.479446    0.000000    0.000000    0.000000    0.000000
  0.029018036   -0.086176  -96.187881  -95.603047   20.194431    0.000000    0.000000    0.000000    0.000000
  0.029218437   -0.080391  -96.686028  -96.053216   20.992647    0.000000    0.000000    0.000000    0.000000
  0.029418838   -0.077491  -97.165329  -95.593705   22.598959    0.000000    0.000000    0.000000    0.000000
  0.029619238   -0.076100  -97.641006  -96.308730   18.894707    0.000000    0.000000    0.000000    0.000000
  0.029819639   -0.079911  -98.109879  -97.059669   11.333761    0.000000    0.000000    0.000000    0.000000
  0.030020040   -0.086414  -98.609360  -97.331071   13.285623    0.000000    0.000000    0.000000    0.000000
  0.030220441   -0.096971  -99.140717  -96.792530   14.890791    0.000000    0.000000    0.000000    0.000000
  0.030420842   -0.109994  -99.706406  -97.669434   11.246049    0.000000    0.000000    0.000000    0.000000
  0.030621242   -0.117557 -100.295013  -97.259305    9.552807    0.000000    0.000000    0.000000    0.000000
  0.030821643   -0.121660 -100.895897  -97.489943    3.483191    0.000000    0.000000    0.000000    0.000000
  0.031022044   -0.118278 -101.472946  -97.304533   12.328422    0.000000    0.000000    0.000000    0.000000
  0.031222445   -0.117803 -102.052681  -98.023229    9.050903    0.000000    0.000000    0.000000    0.000000
  0.031422846   -0.116738 -102.616837  -97.380786   12.137197    0.000000    0.000000    0.000000    0.000000
  0.031623246   -0.117096 -103.172501  -98.727792   14.192714    0.000000    0.000000    0.000000    0.000000
  0.031823647   -0.118202 -103.713333  -97.324072    7.318705    0.000000    0.000000    0.000000    0.000000
  0.032024048   -0.122099 -104.245186  -97.705783    7.669362    0.000000    0.000000    0.000000    0.000000
  0.032224449   -0.130267 -104.779411  -98.336422    9.311127    0.000000    0.000000    0.000000    0.000000
  0.032424850   -0.144036 -105.352524  -97.563258   10.991423    0.000000    0.000000    0.000000    0.000000
  0.032625251   -0.153910 -105.970688  -98.984111   11.638965    0.000000    0.000000    0.000000    0.000000
  0.032825651   -0.164753 -106.608681  -98.284829   22.337667    0.000000    0.000000    0.000000    0.000000
  0.033026052   -0.169186 -107.275368  -98.216204   12.675091    0.000000    0.000000    0.000000    0.000000
  0.033226453   -0.170980 -107.938660  -97.377310   12.423828    0.000000    0.000000    0.000000    0.000000
  0.033426854   -0.169291 -108.643349  -98.102297   10.203122    0.000000    0.000000    0.000000    0.000000
  0.033627255   -0.172961 -109.321739  -98.353703   13.171939    0.000000    0.000000    0.000000    0.000000
  0.033827655   -0.171684 -109.965477  -98.376983   11.325778    0.000000    0.000000    0.000000    0.000000
  0.034028056   -0.163316 -110.619522  -98.053081    1.854396    0.000000    0.000000    0.000000    0.000000
  0.034228457   -0.155704 -111.219162  -96.691112   12.494424    0.000000    0.000000    0.000000    0.000000
  0.034428858   -0.146913 -111.798973  -97.765831   18.113968    0.000000    0.000000    0.000000    0.000000
  0.034629259   -0.132105 -112.314796  -98.185245    2.652478    0.000000    0.000000    0.000000    0.000000
  0.034829659   -0.127486 -112.795563  -99.888626   11.952191    0.000000    0.000000    0.000000    0.000000
  0.035030060   -0.123140 -113.250946  -98.410366    0.740739    0.000000    0.000000    0.000000    0.000000
  0.035230461   -0.120468 -113.717865  -98.197900    8.395253    0.000000    0.000000    0.000000    0.000000
  0.035430862   -0.124648 -114.154037  -98.349322    3.376754    0.000000    0.000000    0.000000    0.000000
  0.035631263   -0.132480 -114.633293  -98.593179    5.589426    0.000000    0.000000    0.000000    0.000000
  0.035831663   -0.142527 -115.117905 -100.029299    6.318232    0.000000    0.000000    0.000000    0.000000
  0.036032064   -0.153054 -115.652672 -100.070481    1.498908    0.000000    0.000000    0.000000    0.000000
  0.036232465   -0.163512 -116.203636  -98.194648   16.284468    0.000000    0.000000    0.000000    0.000000
  0.036432866   -0.169847 -116.796822  -99.535907    7.769456    0.000000    0.000000    0.000000    0.000000
  0.036633267   -0.172084 -117.393806  -98.991595    8.384760    0.000000    0.000000    0.000000    0.000000
  0.036833667   -0.170066 -117.949051  -98.866940    5.847801    0.000000    0.000000    0.000000    0.000000
  0.037034068   -0.161974 -118.503044  -99.360748   16.928883    0.000000    0.000000    0.000000    0.000000
  0.037234469   -0.153976 -118.989258  -99.327863   15.049062    0.000000    0.000000    0.000000    0.000000
  0.037434870   -0.151828 -119.484390 -100.104011    8.246861    0.000000    0.000000    0.000000    0.000000
  0.037635271   -0.154929 -119.972015  -99.346361   11.241928    0.000000    0.000000    0.000000    0.000000
  0.037835671   -0.162901 -120.507500  -99.311499   12.375534    0.000000    0.000000    0.000000    0.000000
  0.038036072   -0.172139 -121.072205  -99.572707   -1.378407    0.000000    0.000000    0.000000    0.000000
  0.038236473   -0.179430 -121.673126  -98.899288    7.531985    0.000000    0.000000    0.000000    0.000000
  0.038436874   -0.184448 -122.254250  -99.454893    6.799412    0.000000    0.000000    0.000000    0.000000
  0.038637275   -0.189807 -122.846619 -100.653530    8.335627    0.000000    0.000000    0.000000    0.000000
  0.038837675   -0.195512 -123.461281  -99.349833   -0.910172    0.000000    0.000000    0.000000    0.000000
  0.039038076   -0.199960 -124.079414  -98.981492    1.550588    0.000000    0.000000    0.000000    0.000000
  0.039238477   -0.201666 -124.688843 -100.013552   -7.730906    0.000000    0.000000    0.000000    0.000000
  0.039438878   -0.200841 -125.280807  -99.736349   10.692888    0.000000    0.000000    0.000000    0.000000
  0.039639279   -0.195317 -125.837669 -100.347328    1.193206    0.000000    0.000000    0.000000    0.000000
  0.039839679   -0.185336 -126.368744  -99.208989   -4.491652    0.000000    0.000000    0.000000    0.000000
  0.040040080   -0.181895 -126.866394 -100.014284    3.910065    0.000000    0.000000    0.000000    0.000000
  0.040240481   -0.176689 -127.347878 -101.991874   15.693583    0.000000    0.000000    0.000000    0.000000
  0.040440882   -0.173317 -127.836372 -101.371366    4.830166    0.000000    0.000000    0.000000    0.000000
  0.040641283   -0.170797 -128.304474 -101.610469    7.266319    0.000000    0.000000    0.000000    0.000000
  0.040841683   -0.170347 -128.758728 -100.399966   12.020863    0.000000    0.000000    0.000000    0.000000
  0.041042084   -0.173514 -129.194672 -101.934709    4.562019    0.000000    0.000000    0.000000    0.000000
  0.041242485   -0.183161 -129.631042 -103.088448   -8.140639    0.000000    0.000000    0.000000    0.000000
  0.041442886   -0.197205 -130.097839 -101.778830   18.914013    0.000000    0.000000    0.000000    0.000000
  0.041643287   -0.208715 -130.640213 -102.193759   11.693885    0.000000    0.000000    0.000000    0.000000
  0.041843687   -0.213880 -131.185089 -100.594234    5.593075    0.000000    0.000000    0.000000    0.000000
  0.042044088   -0.210761 -131.733276 -102.454905   -0.150799    0.000000    0.000000    0.000000    0.000000
  0.042244489   -0.205363 -132.280899 -102.942830   11.772555    0.000000    0.000000    0.000000    0.000000
  0.042444890   -0.194800 -132.795212  -99.920676   14.207033    0.000000    0.000000    0.000000    0.000000
  0.042645291   -0.193136 -133.260071 -102.314884   10.222696    0.000000    0.000000    0.000000    0.000000
  0.042845691   -0.191211 -133.749969 -100.714897    5.899928    0.000000    0.000000    0.000000    0.000000
  0.043046092   -0.196359 -134.259018  -99.742260    9.808642    0.000000    0.000000    0.000000    0.000000
  0.043246493   -0.201432 -134.789230 -101.207181    0.938653    0.000000    0.000000    0.000000    0.000000
  0.043446894   -0.206151 -135.321686 -102.477305    4.319058    0.000000    0.000000    0.000000    0.000000
  0.043647295   -0.212301 -135.851532  -99.337639    4.371693    0.000000    0.000000    0.000000    0.000000
  0.043847695   -0.215242 -136.386795 -100.009580    5.253925    0.000000    0.000000    0.000000    0.000000
  0.044048096   -0.221720 -136.930649  -99.760676    6.674235    0.000000    0.000000    0.000000    0.000000
  0.044248497   -0.227117 -137.501907 -100.702183   -9.439671    0.000000    0.000000    0.000000    0.000000
  0.044448898   -0.229513 -138.076599 -100.899176  -13.276567    0.000000    0.000000    0.000000    0.000000
  0.044649299   -0.230836 -138.627075 -101.476428  -15.618071    0.000000    0.000000    0.000000    0.000000
  0.044849699   -0.226473 -139.164230 -101.669557   -4.711853    0.000000    0.000000    0.000000    0.000000
  0.045050100   -0.223495 -139.664963 -102.794105   -3.020041    0.000000    0.000000    0.000000    0.000000
  0.045250501   -0.222250 -140.176178 -103.232702   -8.113635    0.000000    0.000000    0.000000    0.000000
  0.045450902   -0.217918 -140.686539 -104.017082   -5.932613    0.000000    0.000000    0.000000    0.000000
  0.045651303   -0.214551 -141.198013 -103.916652    2.045762    0.000000    0.000000    0.000000    0.000000
  0.045851703   -0.212943 -141.682220 -102.806895    3.977045    0.000000    0.000000    0.000000    0.000000
  0.046052104   -0.208706 -142.153458 -105.959509    5.437870    0.000000    0.000000    0.000000    0.000000
  0.046252505   -0.211375 -142.591843 -103.116499    5.512016    0.000000    0.000000    0.000000    0.000000
  0.046452906   -0.216364 -143.012070 -108.493037   27.560709    0.000000    0.000000    0.000000    0.000000
  0.046653307   -0.225983 -143.455795 -104.645390    6.976078    0.000000    0.000000    0.000000    0.000000
  0.046853707   -0.237981 -143.932526 -102.796431    2.454172    0.000000    0.000000    0.000000    0.000000
  0.047054108   -0.244470 -144.444214 -102.647232   29.880096    0.000000    0.000000    0.000000    0.000000
  0.047254509   -0.244480 -144.961807 -101.080906   13.590279    0.000000    0.000000    0.000000    0.000000
  0.047454910   -0.238380 -145.458542 -102.407537   17.613476    0.000000    0.000000    0.000000    0.000000
  0.047655311   -0.232299 -145.935715 -103.017518   26.841553    0.000000    0.000000    0.000000    0.000000
  0.047855711   -0.230625 -146.394379 -100.230254   20.137951    0.000000    0.000000    0.000000    0.000000
  0.048056112   -0.230130 -146.854767 -100.395846    9.420078    0.000000    0.000000    0.000000    0.000000
  0.048256513   -0.232464 -147.353439 -101.179747   -3.072288    0.000000    0.000000    0.000000    0.000000
  0.048456914   -0.234682 -147.846069 -102.163658   -7.448004    0.000000    0.000000    0.000000    0.000000
  0.048657315   -0.237958 -148.315384 -102.740124   11.159432    0.000000    0.000000    0.000000    0.000000
  0.048857715   -0.242349 -148.794296 -101.598577   -0.091310    0.000000    0.000000    0.000000    0.000000
  0.049058116   -0.246859 -149.286301 -104.311934    4.958492    0.000000    0.000000    0.000000    0.000000
  0.049258517   -0.253967 -149.796600 -102.021744    0.618853    0.000000    0.000000    0.000000    0.000000
  0.049458918   -0.256232 -150.329636 -102.809472   -9.127223    0.000000    0.000000    0.000000    0.000000
  0.049659319   -0.255664 -150.850891 -103.249129  -17.366417    0.000000    0.000000    0.000000    0.000000
  0.049859719   -0.255318 -151.365295 -103.910002  -14.782706    0.000000    0.000000    0.000000    0.000000
  0.050060120   -0.254397 -151.845398 -105.128396   -4.440040    0.000000    0.000000    0.000000    0.000000
  0.050260521   -0.254920 -152.312317 -104.645918   -0.507130    0.000000    0.000000    0.000000    0.000000
  0.050460922   -0.256145 -152.808960 -106.035739  -19.202068    0.000000    0.000000    0.000000    0.000000
  0.050661323   -0.255823 -153.297241 -104.389094    3.347884    0.000000    0.000000    0.000000    0.000000
  0.050861723   -0.254462 -153.784546 -104.872422   -8.623892    0.000000    0.000000    0.000000    0.000000
  0.051062124   -0.249514 -154.270279 -110.372226   -3.874396    0.000000    0.000000    0.000000    0.000000
  0.051262525   -0.246709 -154.729156 -104.788305    5.079929    0.000000    0.000000    0.000000    0.000000
  0.051462926   -0.248002 -155.181885 -104.286051   -2.528805    0.000000    0.000000    0.000000    0.000000
  0.051663327   -0.249559 -155.605774 -103.900914   15.293875    0.000000    0.000000    0.000000    0.000000
  0.051863727   -0.255713 -156.033447 -103.903425   29.627090    0.000000    0.000000    0.000000    0.000000
  0.052064128   -0.260785 -156.494141 -103.819830    7.792699    0.000000    0.000000    0.000000    0.000000
  0.052264529   -0.264232 -156.968735 -103.195768   34.938751    0.000000    0.000000    0.000000    0.000000
  0.052464930   -0.265367 -157.445038 -100.790620   14.390869    0.000000    0.000000    0.000000    0.000000
  0.052665331   -0.263008 -157.927658 -103.371791  -12.296305    0.000000    0.000000    0.000000    0.000000
  0.052865731   -0.262044 -158.392273 -101.137429    9.892601    0.000000    0.000000    0.000000    0.000000
