! Anritsu VNA Master:                     Model: MS2036C/10/77
! SN:                                  1601066
! /card0/usr/18may27.balun/5b.m3.s2p
! Existing Calibration Information:
! TYPE:                         Current Settings,       Active Cal Settings
! TIME:             	   05/27/2018 03:56:13 PM,    05/27/2018 03:52:12 PM
! INTERNAL TEMP:    	                   52.3 C,                    52.5 C
! # POINTS:         	                      500,                       500
! START FREQ:       	               20.000 MHz,                20.000 MHz
! STOP FREQ:        	              120.000 MHz,               120.000 MHz
! SOURCE POWER:     	                     High,                      High
! IFBW:             	                    50 Hz,                     50 Hz
! AVG FACTOR:       	                       1 ,                        1 
! REF PLANE 1:      	                     0 mm,                      0 mm
! REF PLANE 2:      	                     0 mm,                      0 mm
! CAL TYPE:         	                 Full S11,                  Full S11
! CAL METHOD:       	                     SOLT,                      SOLT
! CAL LINE TYPE:    	                     Coax,                      Coax
! DUT PORT 1:       	                K-Conn(M),                 K-Conn(M)
! DUT PORT 2:       	                K-Conn(M),                 K-Conn(M)
! CAL STATUS:       	        OK: Accuracy High,                        --
# GHZ S DB R 50.0
! FREQ.GHZ       S11DB        S11A       S21DB        S21A       S12DB        S12A       S22DB        S22A
  0.020000000   -0.723993 -125.537186  -91.024029   32.885086    0.000000    0.000000    0.000000    0.000000
  0.020200401   -0.725425 -127.002151  -90.909200   30.328321    0.000000    0.000000    0.000000    0.000000
  0.020400802   -0.725103 -128.459991  -91.594327   28.724777    0.000000    0.000000    0.000000    0.000000
  0.020601202   -0.727677 -129.906219  -91.861751   29.624226    0.000000    0.000000    0.000000    0.000000
  0.020801603   -0.735714 -131.374481  -92.137124   30.192001    0.000000    0.000000    0.000000    0.000000
  0.021002004   -0.742375 -132.890015  -92.086792   34.269062    0.000000    0.000000    0.000000    0.000000
  0.021202405   -0.748912 -134.411118  -92.570961   32.729301    0.000000    0.000000    0.000000    0.000000
  0.021402806   -0.757672 -135.930069  -93.698865   35.663395    0.000000    0.000000    0.000000    0.000000
  0.021603206   -0.762826 -137.443649  -92.899297   34.849686    0.000000    0.000000    0.000000    0.000000
  0.021803607   -0.768981 -138.966446  -92.321147   35.855392    0.000000    0.000000    0.000000    0.000000
  0.022004008   -0.774476 -140.511719  -92.880649   38.911850    0.000000    0.000000    0.000000    0.000000
  0.022204409   -0.780045 -142.086273  -92.575749   33.251213    0.000000    0.000000    0.000000    0.000000
  0.022404810   -0.783363 -143.668915  -93.213982   33.417171    0.000000    0.000000    0.000000    0.000000
  0.022605210   -0.788080 -145.222824  -92.283167   33.690849    0.000000    0.000000    0.000000    0.000000
  0.022805611   -0.788975 -146.789642  -93.441276   31.858932    0.000000    0.000000    0.000000    0.000000
  0.023006012   -0.792526 -148.353210  -92.581586   36.861900    0.000000    0.000000    0.000000    0.000000
  0.023206413   -0.800555 -149.938339  -92.250170   28.740433    0.000000    0.000000    0.000000    0.000000
  0.023406814   -0.809470 -151.537537  -92.288615   31.947069    0.000000    0.000000    0.000000    0.000000
  0.023607214   -0.818445 -153.150757  -92.141111   29.116098    0.000000    0.000000    0.000000    0.000000
  0.023807615   -0.827849 -154.761917  -93.271574   28.648754    0.000000    0.000000    0.000000    0.000000
  0.024008016   -0.835348 -156.383530  -92.611307   24.643156    0.000000    0.000000    0.000000    0.000000
  0.024208417   -0.847083 -158.006500  -92.807475   23.802391    0.000000    0.000000    0.000000    0.000000
  0.024408818   -0.859285 -159.641647  -93.205890   24.286715    0.000000    0.000000    0.000000    0.000000
  0.024609218   -0.872263 -161.305954  -93.461866   21.206444    0.000000    0.000000    0.000000    0.000000
  0.024809619   -0.880784 -162.992355  -93.376537   20.359610    0.000000    0.000000    0.000000    0.000000
  0.025010020   -0.890351 -164.673386  -95.207957   19.510199    0.000000    0.000000    0.000000    0.000000
  0.025210421   -0.897779 -166.346039  -95.223420   19.844912    0.000000    0.000000    0.000000    0.000000
  0.025410822   -0.910806 -168.031815  -94.749306   21.279585    0.000000    0.000000    0.000000    0.000000
  0.025611222   -0.922197 -169.718735  -94.972824   20.847034    0.000000    0.000000    0.000000    0.000000
  0.025811623   -0.934917 -171.422714  -96.016904   20.278454    0.000000    0.000000    0.000000    0.000000
  0.026012024   -0.948018 -173.139496  -95.334546   23.195965    0.000000    0.000000    0.000000    0.000000
  0.026212425   -0.965053 -174.864578  -95.271283   22.800941    0.000000    0.000000    0.000000    0.000000
  0.026412826   -0.983181 -176.606949  -95.888302   20.822571    0.000000    0.000000    0.000000    0.000000
  0.026613226   -1.003180 -178.349213  -95.558973   24.230112    0.000000    0.000000    0.000000    0.000000
  0.026813627   -1.021345  179.895218  -95.853735   15.357955    0.000000    0.000000    0.000000    0.000000
  0.027014028   -1.038934  178.159271  -96.180228   25.886066    0.000000    0.000000    0.000000    0.000000
  0.027214429   -1.055348  176.395538  -95.896646   22.424990    0.000000    0.000000    0.000000    0.000000
  0.027414830   -1.073025  174.644241  -95.251851   18.606237    0.000000    0.000000    0.000000    0.000000
  0.027615230   -1.092976  172.869431  -95.692604   27.625231    0.000000    0.000000    0.000000    0.000000
  0.027815631   -1.116042  171.076981  -94.874828   20.207119    0.000000    0.000000    0.000000    0.000000
  0.028016032   -1.136104  169.260712  -95.508431   19.261686    0.000000    0.000000    0.000000    0.000000
  0.028216433   -1.159241  167.435196  -95.051138   19.512608    0.000000    0.000000    0.000000    0.000000
  0.028416834   -1.182882  165.608749  -97.140690   17.625154    0.000000    0.000000    0.000000    0.000000
  0.028617234   -1.206990  163.782074  -95.335847   12.835907    0.000000    0.000000    0.000000    0.000000
  0.028817635   -1.234486  161.931656  -96.016679   17.421503    0.000000    0.000000    0.000000    0.000000
  0.029018036   -1.262154  160.049774  -96.134267   11.868575    0.000000    0.000000    0.000000    0.000000
  0.029218437   -1.287766  158.154190  -96.562027   10.584851    0.000000    0.000000    0.000000    0.000000
  0.029418838   -1.310345  156.265991  -97.120408   15.899007    0.000000    0.000000    0.000000    0.000000
  0.029619238   -1.334014  154.400238  -95.903068   15.434368    0.000000    0.000000    0.000000    0.000000
  0.029819639   -1.360012  152.531586  -97.323247   11.046589    0.000000    0.000000    0.000000    0.000000
  0.030020040   -1.386810  150.677567  -97.181910   15.155822    0.000000    0.000000    0.000000    0.000000
  0.030220441   -1.419289  148.806900  -97.777640   13.247612    0.000000    0.000000    0.000000    0.000000
  0.030420842   -1.456022  146.913727  -98.317002   17.037119    0.000000    0.000000    0.000000    0.000000
  0.030621242   -1.496588  144.962357  -97.465154   16.740355    0.000000    0.000000    0.000000    0.000000
  0.030821643   -1.532624  142.980469  -98.100470   22.746485    0.000000    0.000000    0.000000    0.000000
  0.031022044   -1.566468  140.991486  -97.576577   21.420761    0.000000    0.000000    0.000000    0.000000
  0.031222445   -1.593823  138.996567  -97.656586   17.444624    0.000000    0.000000    0.000000    0.000000
  0.031422846   -1.621661  136.997223  -97.681487   16.009089    0.000000    0.000000    0.000000    0.000000
  0.031623246   -1.645796  135.009888  -97.472420   12.955297    0.000000    0.000000    0.000000    0.000000
  0.031823647   -1.672031  133.056473  -97.696665   19.162884    0.000000    0.000000    0.000000    0.000000
  0.032024048   -1.696926  131.114120  -97.763582    7.032452    0.000000    0.000000    0.000000    0.000000
  0.032224449   -1.724924  129.172195  -98.224018   16.934889    0.000000    0.000000    0.000000    0.000000
  0.032424850   -1.756226  127.258530  -97.474659   18.719473    0.000000    0.000000    0.000000    0.000000
  0.032625251   -1.793599  125.308235  -97.620872   16.073858    0.000000    0.000000    0.000000    0.000000
  0.032825651   -1.834942  123.355156  -97.198399   20.715302    0.000000    0.000000    0.000000    0.000000
  0.033026052   -1.880320  121.388542  -98.065382    3.079815    0.000000    0.000000    0.000000    0.000000
  0.033226453   -1.928741  119.415367  -98.365513   10.443959    0.000000    0.000000    0.000000    0.000000
  0.033426854   -1.973400  117.403244  -97.892575   11.869440    0.000000    0.000000    0.000000    0.000000
  0.033627255   -2.021525  115.352539  -98.585605   14.114036    0.000000    0.000000    0.000000    0.000000
  0.033827655   -2.066530  113.294334  -98.230012    5.524682    0.000000    0.000000    0.000000    0.000000
  0.034028056   -2.113229  111.206009  -99.469184   11.117391    0.000000    0.000000    0.000000    0.000000
  0.034228457   -2.159069  109.116974  -98.765752   11.660723    0.000000    0.000000    0.000000    0.000000
  0.034428858   -2.205615  107.032829  -98.243519   12.740683    0.000000    0.000000    0.000000    0.000000
  0.034629259   -2.245292  104.956245  -97.547620    5.868486    0.000000    0.000000    0.000000    0.000000
  0.034829659   -2.284703  102.906540  -97.577006    1.684405    0.000000    0.000000    0.000000    0.000000
  0.035030060   -2.325575  100.889252  -98.393914   14.336554    0.000000    0.000000    0.000000    0.000000
  0.035230461   -2.371822   98.891914  -99.482796   -3.019771    0.000000    0.000000    0.000000    0.000000
  0.035430862   -2.426231   96.901031  -97.876319    9.155866    0.000000    0.000000    0.000000    0.000000
  0.035631263   -2.484181   94.863731  -98.176368    9.057055    0.000000    0.000000    0.000000    0.000000
  0.035831663   -2.547193   92.795906  -96.650774   10.515810    0.000000    0.000000    0.000000    0.000000
  0.036032064   -2.608563   90.696739  -97.707231   13.052718    0.000000    0.000000    0.000000    0.000000
  0.036232465   -2.667995   88.521881  -97.808503    6.854584    0.000000    0.000000    0.000000    0.000000
  0.036432866   -2.723532   86.374329  -98.577134   15.710011    0.000000    0.000000    0.000000    0.000000
  0.036633267   -2.771929   84.199745  -99.900589   -5.358696    0.000000    0.000000    0.000000    0.000000
  0.036833667   -2.818364   82.065956  -99.333536   -0.015067    0.000000    0.000000    0.000000    0.000000
  0.037034068   -2.861131   79.951202  -99.864436    5.578090    0.000000    0.000000    0.000000    0.000000
  0.037234469   -2.902480   77.846230  -99.368770    7.736673    0.000000    0.000000    0.000000    0.000000
  0.037434870   -2.940181   75.791908  -99.596086    7.859418    0.000000    0.000000    0.000000    0.000000
  0.037635271   -2.977550   73.714218  -99.364719    3.922781    0.000000    0.000000    0.000000    0.000000
  0.037835671   -3.017137   71.601875 -100.098598    3.346149    0.000000    0.000000    0.000000    0.000000
  0.038036072   -3.069123   69.441605  -99.189682   -7.885927    0.000000    0.000000    0.000000    0.000000
  0.038236473   -3.135928   67.302795  -99.299813    9.666534    0.000000    0.000000    0.000000    0.000000
  0.038436874   -3.209181   65.217384  -99.510270    4.953808    0.000000    0.000000    0.000000    0.000000
  0.038637275   -3.280955   63.160023 -100.270811   -1.268948    0.000000    0.000000    0.000000    0.000000
  0.038837675   -3.354972   61.041447 -100.977390   -0.372391    0.000000    0.000000    0.000000    0.000000
  0.039038076   -3.418847   58.916309 -100.009479    7.422956    0.000000    0.000000    0.000000    0.000000
  0.039238477   -3.477520   56.764320 -100.734124    3.106117    0.000000    0.000000    0.000000    0.000000
  0.039438878   -3.527576   54.654091 -101.412121    5.417107    0.000000    0.000000    0.000000    0.000000
  0.039639279   -3.577049   52.552292  -99.943857   11.764287    0.000000    0.000000    0.000000    0.000000
  0.039839679   -3.619303   50.477108  -99.246229   18.724955    0.000000    0.000000    0.000000    0.000000
  0.040040080   -3.669272   48.470131  -99.744702   12.312883    0.000000    0.000000    0.000000    0.000000
  0.040240481   -3.719577   46.463535 -100.202151   10.651578    0.000000    0.000000    0.000000    0.000000
  0.040440882   -3.779431   44.439091  -99.811273    9.931891    0.000000    0.000000    0.000000    0.000000
  0.040641283   -3.838747   42.380646  -99.386429    7.782474    0.000000    0.000000    0.000000    0.000000
  0.040841683   -3.897883   40.335087 -100.014186    2.435848    0.000000    0.000000    0.000000    0.000000
  0.041042084   -3.957741   38.263008 -101.052006    9.239270    0.000000    0.000000    0.000000    0.000000
  0.041242485   -4.013914   36.199936  -99.878655   -6.539706    0.000000    0.000000    0.000000    0.000000
  0.041442886   -4.068719   34.120152  -99.022499    4.562234    0.000000    0.000000    0.000000    0.000000
  0.041643287   -4.121239   32.034439 -100.694586    1.176396    0.000000    0.000000    0.000000    0.000000
  0.041843687   -4.171689   29.957975 -102.686376   -5.907523    0.000000    0.000000    0.000000    0.000000
  0.042044088   -4.220894   27.914970 -101.603672   -6.748347    0.000000    0.000000    0.000000    0.000000
  0.042244489   -4.265719   25.875990 -101.641473   -7.240391    0.000000    0.000000    0.000000    0.000000
  0.042444890   -4.313077   23.844898 -102.169132   -4.051381    0.000000    0.000000    0.000000    0.000000
  0.042645291   -4.356648   21.839554 -101.471294    6.230543    0.000000    0.000000    0.000000    0.000000
  0.042845691   -4.406860   19.837360 -101.173672   13.848113    0.000000    0.000000    0.000000    0.000000
  0.043046092   -4.450114   17.841293 -100.295217    3.994401    0.000000    0.000000    0.000000    0.000000
  0.043246493   -4.497193   15.863823 -101.885373   -8.449052    0.000000    0.000000    0.000000    0.000000
  0.043446894   -4.544066   13.876235 -100.856697   13.249336    0.000000    0.000000    0.000000    0.000000
  0.043647295   -4.592887   11.912171 -102.006862    9.377978    0.000000    0.000000    0.000000    0.000000
  0.043847695   -4.639891    9.935975 -100.112885    3.639488    0.000000    0.000000    0.000000    0.000000
  0.044048096   -4.687173    7.976039 -102.205529   22.801004    0.000000    0.000000    0.000000    0.000000
  0.044248497   -4.729202    6.008825 -102.766811    5.187298    0.000000    0.000000    0.000000    0.000000
  0.044448898   -4.768704    4.031453 -100.718408   16.292292    0.000000    0.000000    0.000000    0.000000
  0.044649299   -4.808857    2.103814  -99.818399    5.816730    0.000000    0.000000    0.000000    0.000000
  0.044849699   -4.849117    0.188577 -102.568489   13.460532    0.000000    0.000000    0.000000    0.000000
  0.045050100   -4.889673   -1.730083 -101.612812    3.139920    0.000000    0.000000    0.000000    0.000000
  0.045250501   -4.931298   -3.632736  -99.924214    6.599007    0.000000    0.000000    0.000000    0.000000
  0.045450902   -4.967356   -5.544384 -100.742124   13.156110    0.000000    0.000000    0.000000    0.000000
  0.045651303   -5.004241   -7.456372 -101.172430   12.347754    0.000000    0.000000    0.000000    0.000000
  0.045851703   -5.039365   -9.347631 -101.740543   -8.550528    0.000000    0.000000    0.000000    0.000000
  0.046052104   -5.076939  -11.249070 -101.874408    7.446746    0.000000    0.000000    0.000000    0.000000
  0.046252505   -5.110087  -13.139077 -102.639315   -1.559703    0.000000    0.000000    0.000000    0.000000
  0.046452906   -5.142480  -14.995426 -102.621179   -2.179409    0.000000    0.000000    0.000000    0.000000
  0.046653307   -5.176466  -16.838268 -102.996915   -4.399018    0.000000    0.000000    0.000000    0.000000
  0.046853707   -5.211638  -18.673876 -105.300960    8.610482    0.000000    0.000000    0.000000    0.000000
  0.047054108   -5.244246  -20.531172 -103.002774   -5.842094    0.000000    0.000000    0.000000    0.000000
  0.047254509   -5.274718  -22.363827 -101.223866    7.249195    0.000000    0.000000    0.000000    0.000000
  0.047454910   -5.306527  -24.213474 -103.793721   -5.349448    0.000000    0.000000    0.000000    0.000000
  0.047655311   -5.335722  -26.003904 -103.776168   14.165413    0.000000    0.000000    0.000000    0.000000
  0.047855711   -5.365245  -27.852072 -104.918400    4.541327    0.000000    0.000000    0.000000    0.000000
  0.048056112   -5.392356  -29.635921 -103.662422    2.226874    0.000000    0.000000    0.000000    0.000000
  0.048256513   -5.422642  -31.425154 -103.339652   14.003850    0.000000    0.000000    0.000000    0.000000
  0.048456914   -5.446660  -33.253159 -102.352311    5.132167    0.000000    0.000000    0.000000    0.000000
  0.048657315   -5.469972  -35.027008 -104.740585    6.645396    0.000000    0.000000    0.000000    0.000000
  0.048857715   -5.492053  -36.799274 -102.102978   13.712171    0.000000    0.000000    0.000000    0.000000
  0.049058116   -5.513324  -38.529457 -103.652152   16.642471    0.000000    0.000000    0.000000    0.000000
  0.049258517   -5.532802  -40.223152 -101.269282   -3.545806    0.000000    0.000000    0.000000    0.000000
  0.049458918   -5.556790  -41.915993 -100.734065   10.187531    0.000000    0.000000    0.000000    0.000000
  0.049659319   -5.582028  -43.590511 -102.711333   -3.382551    0.000000    0.000000    0.000000    0.000000
  0.049859719   -5.606688  -45.291340 -100.127826    7.394603    0.000000    0.000000    0.000000    0.000000
  0.050060120   -5.634004  -47.001408 -103.824372    8.250780    0.000000    0.000000    0.000000    0.000000
  0.050260521   -5.660168  -48.675804 -101.437079    8.921488    0.000000    0.000000    0.000000    0.000000
  0.050460922   -5.681463  -50.381275 -102.701824   -1.013494    0.000000    0.000000    0.000000    0.000000
  0.050661323   -5.701160  -52.052338 -104.447429   -7.541206    0.000000    0.000000    0.000000    0.000000
  0.050861723   -5.716640  -53.754162 -103.182833    6.981456    0.000000    0.000000    0.000000    0.000000
  0.051062124   -5.729459  -55.432156 -101.568922   -9.130262    0.000000    0.000000    0.000000    0.000000
  0.051262525   -5.742103  -57.084175 -101.980236   -5.917783    0.000000    0.000000    0.000000    0.000000
  0.051462926   -5.753412  -58.698994 -101.852101    0.653092    0.000000    0.000000    0.000000    0.000000
  0.051663327   -5.769526  -60.291630 -102.796376    2.440364    0.000000    0.000000    0.000000    0.000000
  0.051863727   -5.786899  -61.867172 -103.918948   -1.837835    0.000000    0.000000    0.000000    0.000000
  0.052064128   -5.803181  -63.444645 -106.571384   -0.715951    0.000000    0.000000    0.000000    0.000000
  0.052264529   -5.824950  -65.030762 -105.995196    5.399980    0.000000    0.000000    0.000000    0.000000
  0.052464930   -5.838225  -66.620346 -103.962296   -1.370116    0.000000    0.000000    0.000000    0.000000
  0.052665331   -5.851282  -68.179909 -104.619160   12.928439    0.000000    0.000000    0.000000    0.000000
  0.052865731   -5.870892  -69.740898 -104.024787    8.137814    0.000000    0.000000    0.000000    0.000000
