! Anritsu VNA Master:                     Model: MS2036C/10/77
! SN:                                  1601066
! /card0/usr/18may27.balun/5b.m4.s2p
! Existing Calibration Information:
! TYPE:                         Current Settings,       Active Cal Settings
! TIME:             	   05/27/2018 04:11:18 PM,    05/27/2018 03:52:12 PM
! INTERNAL TEMP:    	                   51.5 C,                    52.5 C
! # POINTS:         	                      500,                       500
! START FREQ:       	               20.000 MHz,                20.000 MHz
! STOP FREQ:        	              120.000 MHz,               120.000 MHz
! SOURCE POWER:     	                     High,                      High
! IFBW:             	                    50 Hz,                     50 Hz
! AVG FACTOR:       	                       1 ,                        1 
! REF PLANE 1:      	                     0 mm,                      0 mm
! REF PLANE 2:      	                     0 mm,                      0 mm
! CAL TYPE:         	                 Full S11,                  Full S11
! CAL METHOD:       	                     SOLT,                      SOLT
! CAL LINE TYPE:    	                     Coax,                      Coax
! DUT PORT 1:       	                K-Conn(M),                 K-Conn(M)
! DUT PORT 2:       	                K-Conn(M),                 K-Conn(M)
! CAL STATUS:       	        OK: Accuracy High,                        --
# GHZ S DB R 50.0
! FREQ.GHZ       S11DB        S11A       S21DB        S21A       S12DB        S12A       S22DB        S22A
  0.020000000   -0.717421 -125.239494  -90.776630   31.947878    0.000000    0.000000    0.000000    0.000000
  0.020200401   -0.718944 -126.699242  -90.623557   31.840897    0.000000    0.000000    0.000000    0.000000
  0.020400802   -0.720115 -128.148438  -91.492827   30.523832    0.000000    0.000000    0.000000    0.000000
  0.020601202   -0.724211 -129.585022  -92.021288   27.938829    0.000000    0.000000    0.000000    0.000000
  0.020801603   -0.732077 -131.052124  -91.941370   28.351961    0.000000    0.000000    0.000000    0.000000
  0.021002004   -0.738289 -132.566635  -92.509756   31.871569    0.000000    0.000000    0.000000    0.000000
  0.021202405   -0.746384 -134.088440  -92.545921   31.860609    0.000000    0.000000    0.000000    0.000000
  0.021402806   -0.754938 -135.619736  -92.686925   30.998430    0.000000    0.000000    0.000000    0.000000
  0.021603206   -0.760627 -137.139221  -93.459208   36.206867    0.000000    0.000000    0.000000    0.000000
  0.021803607   -0.765744 -138.669540  -93.243035   37.067242    0.000000    0.000000    0.000000    0.000000
  0.022004008   -0.773475 -140.236725  -92.630672   40.305191    0.000000    0.000000    0.000000    0.000000
  0.022204409   -0.777691 -141.814484  -92.276865   36.212780    0.000000    0.000000    0.000000    0.000000
  0.022404810   -0.780380 -143.412506  -93.456659   34.976906    0.000000    0.000000    0.000000    0.000000
  0.022605210   -0.785208 -144.970184  -92.681421   30.984108    0.000000    0.000000    0.000000    0.000000
  0.022805611   -0.788423 -146.531128  -92.067246   33.879292    0.000000    0.000000    0.000000    0.000000
  0.023006012   -0.791087 -148.102463  -92.570308   34.524754    0.000000    0.000000    0.000000    0.000000
  0.023206413   -0.797496 -149.687302  -92.427547   27.798616    0.000000    0.000000    0.000000    0.000000
  0.023406814   -0.806813 -151.285141  -92.008823   28.630724    0.000000    0.000000    0.000000    0.000000
  0.023607214   -0.813349 -152.889099  -93.040510   31.867252    0.000000    0.000000    0.000000    0.000000
  0.023807615   -0.824156 -154.495834  -91.548198   27.090696    0.000000    0.000000    0.000000    0.000000
  0.024008016   -0.831426 -156.106354  -92.717104   26.935085    0.000000    0.000000    0.000000    0.000000
  0.024208417   -0.843400 -157.718033  -93.665315   23.573092    0.000000    0.000000    0.000000    0.000000
  0.024408818   -0.855930 -159.351898  -93.943933   21.692162    0.000000    0.000000    0.000000    0.000000
  0.024609218   -0.868923 -160.998322  -93.511701   19.569033    0.000000    0.000000    0.000000    0.000000
  0.024809619   -0.878514 -162.684708  -93.936444   20.832937    0.000000    0.000000    0.000000    0.000000
  0.025010020   -0.886345 -164.363281  -94.393774   17.736609    0.000000    0.000000    0.000000    0.000000
  0.025210421   -0.895735 -166.032013  -94.672432   23.911709    0.000000    0.000000    0.000000    0.000000
  0.025410822   -0.910235 -167.720123  -95.519598   21.940739    0.000000    0.000000    0.000000    0.000000
  0.025611222   -0.922624 -169.410431  -95.214056   19.165260    0.000000    0.000000    0.000000    0.000000
  0.025811623   -0.935629 -171.117798  -97.249845   21.082039    0.000000    0.000000    0.000000    0.000000
  0.026012024   -0.949632 -172.847870  -95.721196   21.448660    0.000000    0.000000    0.000000    0.000000
  0.026212425   -0.966415 -174.580994  -95.419784   25.634939    0.000000    0.000000    0.000000    0.000000
  0.026412826   -0.984203 -176.322784  -95.903010   23.743828    0.000000    0.000000    0.000000    0.000000
  0.026613226   -1.003739 -178.071823  -95.578932   21.791178    0.000000    0.000000    0.000000    0.000000
  0.026813627   -1.021633 -179.829926  -95.012063   27.191231    0.000000    0.000000    0.000000    0.000000
  0.027014028   -1.038786  178.430161  -95.617097   19.058834    0.000000    0.000000    0.000000    0.000000
  0.027214429   -1.053376  176.670883  -95.145251   20.985859    0.000000    0.000000    0.000000    0.000000
  0.027414830   -1.071476  174.927460  -94.854153   19.817795    0.000000    0.000000    0.000000    0.000000
  0.027615230   -1.089160  173.160812  -95.418840   26.679304    0.000000    0.000000    0.000000    0.000000
  0.027815631   -1.112262  171.390518  -95.479687   21.719656    0.000000    0.000000    0.000000    0.000000
  0.028016032   -1.132262  169.590668  -95.752638   13.086142    0.000000    0.000000    0.000000    0.000000
  0.028216433   -1.153203  167.787781  -95.015159   20.469591    0.000000    0.000000    0.000000    0.000000
  0.028416834   -1.177013  165.983795  -95.077821   16.434784    0.000000    0.000000    0.000000    0.000000
  0.028617234   -1.201320  164.186600  -95.360939   18.445242    0.000000    0.000000    0.000000    0.000000
  0.028817635   -1.228714  162.366760  -95.768726   21.236595    0.000000    0.000000    0.000000    0.000000
  0.029018036   -1.256557  160.513123  -95.877363   12.875949    0.000000    0.000000    0.000000    0.000000
  0.029218437   -1.282478  158.640076  -96.700728   15.780590    0.000000    0.000000    0.000000    0.000000
  0.029418838   -1.306207  156.777115  -96.640331   10.432151    0.000000    0.000000    0.000000    0.000000
  0.029619238   -1.331347  154.922958  -97.458752   13.647314    0.000000    0.000000    0.000000    0.000000
  0.029819639   -1.358611  153.064590  -97.426649   16.373516    0.000000    0.000000    0.000000    0.000000
  0.030020040   -1.387247  151.209229  -97.350409   20.331797    0.000000    0.000000    0.000000    0.000000
  0.030220441   -1.420273  149.331497  -98.805150   16.433043    0.000000    0.000000    0.000000    0.000000
  0.030420842   -1.458750  147.425583  -97.654346   19.729668    0.000000    0.000000    0.000000    0.000000
  0.030621242   -1.499733  145.460098  -96.188634   16.166382    0.000000    0.000000    0.000000    0.000000
  0.030821643   -1.537275  143.465179  -97.574118   15.700342    0.000000    0.000000    0.000000    0.000000
  0.031022044   -1.571021  141.462143  -96.910179   15.909802    0.000000    0.000000    0.000000    0.000000
  0.031222445   -1.596696  139.451065  -97.935515   15.913656    0.000000    0.000000    0.000000    0.000000
  0.031422846   -1.625613  137.437454  -97.879863    9.429898    0.000000    0.000000    0.000000    0.000000
  0.031623246   -1.649382  135.442657  -97.245000    8.812497    0.000000    0.000000    0.000000    0.000000
  0.031823647   -1.674745  133.459244  -97.096129    7.667617    0.000000    0.000000    0.000000    0.000000
  0.032024048   -1.698707  131.523773  -98.102925   17.972418    0.000000    0.000000    0.000000    0.000000
  0.032224449   -1.724546  129.582123  -97.093136   11.727609    0.000000    0.000000    0.000000    0.000000
  0.032424850   -1.754774  127.669716  -98.273957    7.392053    0.000000    0.000000    0.000000    0.000000
  0.032625251   -1.789945  125.741585  -98.083757   11.279697    0.000000    0.000000    0.000000    0.000000
  0.032825651   -1.830994  123.808739  -97.634330   11.516770    0.000000    0.000000    0.000000    0.000000
  0.033026052   -1.874165  121.867691  -98.154343   16.667648    0.000000    0.000000    0.000000    0.000000
  0.033226453   -1.920466  119.932793  -98.520922    3.811929    0.000000    0.000000    0.000000    0.000000
  0.033426854   -1.967164  117.933136  -97.786680    9.059897    0.000000    0.000000    0.000000    0.000000
  0.033627255   -2.012767  115.935150  -98.214804   10.216645    0.000000    0.000000    0.000000    0.000000
  0.033827655   -2.059391  113.896065  -98.126664    8.538050    0.000000    0.000000    0.000000    0.000000
  0.034028056   -2.108422  111.860214  -99.184552    3.780363    0.000000    0.000000    0.000000    0.000000
  0.034228457   -2.155623  109.763535  -97.923604    5.671449    0.000000    0.000000    0.000000    0.000000
  0.034428858   -2.203210  107.722198  -98.618983    1.852338    0.000000    0.000000    0.000000    0.000000
  0.034629259   -2.246659  105.647865  -98.151914    5.100557    0.000000    0.000000    0.000000    0.000000
  0.034829659   -2.286627  103.601456  -99.040647    8.504585    0.000000    0.000000    0.000000    0.000000
  0.035030060   -2.330107  101.578850  -98.042616   10.685645    0.000000    0.000000    0.000000    0.000000
  0.035230461   -2.379085   99.572258  -99.379419    3.926575    0.000000    0.000000    0.000000    0.000000
  0.035430862   -2.434131   97.563805  -98.410590   10.455924    0.000000    0.000000    0.000000    0.000000
  0.035631263   -2.494511   95.505295  -98.877090   14.457748    0.000000    0.000000    0.000000    0.000000
  0.035831663   -2.558864   93.409477  -98.757336    6.120615    0.000000    0.000000    0.000000    0.000000
  0.036032064   -2.618411   91.283279  -99.109380   12.905457    0.000000    0.000000    0.000000    0.000000
  0.036232465   -2.677379   89.085701  -97.970508    7.826650    0.000000    0.000000    0.000000    0.000000
  0.036432866   -2.733145   86.928970  -98.005984    4.465170    0.000000    0.000000    0.000000    0.000000
  0.036633267   -2.779747   84.721596  -98.662189    9.245934    0.000000    0.000000    0.000000    0.000000
  0.036833667   -2.821872   82.584335  -97.888326   11.388002    0.000000    0.000000    0.000000    0.000000
  0.037034068   -2.863428   80.467644  -98.281126    9.332211    0.000000    0.000000    0.000000    0.000000
  0.037234469   -2.900802   78.383041  -99.120312   11.953223    0.000000    0.000000    0.000000    0.000000
  0.037434870   -2.935236   76.341873  -98.656948    2.521000    0.000000    0.000000    0.000000    0.000000
  0.037635271   -2.966603   74.304726  -98.702928    7.848888    0.000000    0.000000    0.000000    0.000000
  0.037835671   -3.001157   72.210014 -100.140873    2.498400    0.000000    0.000000    0.000000    0.000000
  0.038036072   -3.047903   70.092377  -99.304443    8.045220    0.000000    0.000000    0.000000    0.000000
  0.038236473   -3.112030   67.987938 -101.076904   -4.379855    0.000000    0.000000    0.000000    0.000000
  0.038436874   -3.187019   65.936790 -100.202876   13.335333    0.000000    0.000000    0.000000    0.000000
  0.038637275   -3.258894   63.913078 -100.486908   -2.386347    0.000000    0.000000    0.000000    0.000000
  0.038837675   -3.333739   61.834541 -101.373041    2.561106    0.000000    0.000000    0.000000    0.000000
  0.039038076   -3.401829   59.741493  -99.835222    9.295054    0.000000    0.000000    0.000000    0.000000
  0.039238477   -3.465301   57.632160 -101.281893    2.810185    0.000000    0.000000    0.000000    0.000000
  0.039438878   -3.518933   55.525425 -103.466246    5.514512    0.000000    0.000000    0.000000    0.000000
  0.039639279   -3.573788   53.443756 -101.014114   13.118896    0.000000    0.000000    0.000000    0.000000
  0.039839679   -3.620192   51.364410  -99.803893    0.534508    0.000000    0.000000    0.000000    0.000000
  0.040040080   -3.674616   49.341743  -99.942468    5.699085    0.000000    0.000000    0.000000    0.000000
  0.040240481   -3.727259   47.304905 -101.019010    3.680777    0.000000    0.000000    0.000000    0.000000
  0.040440882   -3.791742   45.247311 -100.372241    5.286097    0.000000    0.000000    0.000000    0.000000
  0.040641283   -3.854870   43.143978 -100.543331    8.214585    0.000000    0.000000    0.000000    0.000000
  0.040841683   -3.915680   41.049435  -99.753987    2.111057    0.000000    0.000000    0.000000    0.000000
  0.041042084   -3.976000   38.921619 -101.011680    7.801619    0.000000    0.000000    0.000000    0.000000
  0.041242485   -4.031208   36.803093  -99.381533    6.365406    0.000000    0.000000    0.000000    0.000000
  0.041442886   -4.083985   34.681183  -99.790688    1.215842    0.000000    0.000000    0.000000    0.000000
  0.041643287   -4.134470   32.557301 -100.695341    6.074893    0.000000    0.000000    0.000000    0.000000
  0.041843687   -4.181472   30.457726 -100.710134    8.509195    0.000000    0.000000    0.000000    0.000000
  0.042044088   -4.224297   28.385456 -102.117840   -8.343741    0.000000    0.000000    0.000000    0.000000
  0.042244489   -4.264512   26.346594 -100.113923   -4.722610    0.000000    0.000000    0.000000    0.000000
  0.042444890   -4.304302   24.335604 -101.712759    4.856517    0.000000    0.000000    0.000000    0.000000
  0.042645291   -4.344849   22.346031 -100.919663   -5.159333    0.000000    0.000000    0.000000    0.000000
  0.042845691   -4.389370   20.389603 -101.739494    6.607301    0.000000    0.000000    0.000000    0.000000
  0.043046092   -4.428453   18.418268 -102.079682    7.136021    0.000000    0.000000    0.000000    0.000000
  0.043246493   -4.472770   16.487461 -102.223283   23.923225    0.000000    0.000000    0.000000    0.000000
  0.043446894   -4.517853   14.556787 -102.779114    2.302037    0.000000    0.000000    0.000000    0.000000
  0.043647295   -4.567976   12.636387 -103.858106    5.277165    0.000000    0.000000    0.000000    0.000000
  0.043847695   -4.614116   10.722409 -100.915653   15.637362    0.000000    0.000000    0.000000    0.000000
  0.044048096   -4.663977    8.809360 -103.718917   18.111115    0.000000    0.000000    0.000000    0.000000
  0.044248497   -4.707605    6.879029 -102.455078   20.799639    0.000000    0.000000    0.000000    0.000000
  0.044448898   -4.749484    4.934685 -101.723764   12.473475    0.000000    0.000000    0.000000    0.000000
  0.044649299   -4.792956    3.042597 -101.581889   16.871822    0.000000    0.000000    0.000000    0.000000
  0.044849699   -4.838036    1.135688 -101.596343   13.135510    0.000000    0.000000    0.000000    0.000000
  0.045050100   -4.884285   -0.781851 -100.236570   11.020439    0.000000    0.000000    0.000000    0.000000
  0.045250501   -4.932037   -2.692340 -101.566240   -7.555734    0.000000    0.000000    0.000000    0.000000
  0.045450902   -4.974023   -4.609880 -102.733059    3.642376    0.000000    0.000000    0.000000    0.000000
  0.045651303   -5.012455   -6.544815 -100.663626    1.157271    0.000000    0.000000    0.000000    0.000000
  0.045851703   -5.045513   -8.458895 -100.297816   -3.361784    0.000000    0.000000    0.000000    0.000000
  0.046052104   -5.084849  -10.389271 -101.793683    3.012279    0.000000    0.000000    0.000000    0.000000
  0.046252505   -5.115210  -12.285703 -101.971808   -5.284858    0.000000    0.000000    0.000000    0.000000
  0.046452906   -5.147587  -14.168000 -102.513795    7.872396    0.000000    0.000000    0.000000    0.000000
  0.046653307   -5.179171  -16.036505 -100.407401  -10.681106    0.000000    0.000000    0.000000    0.000000
  0.046853707   -5.208484  -17.890663 -104.435379   -7.414841    0.000000    0.000000    0.000000    0.000000
  0.047054108   -5.241815  -19.733168 -101.491826   -2.143491    0.000000    0.000000    0.000000    0.000000
  0.047254509   -5.270156  -21.576818 -101.283905   -6.168135    0.000000    0.000000    0.000000    0.000000
  0.047454910   -5.296883  -23.390562 -103.732787   -7.474462    0.000000    0.000000    0.000000    0.000000
  0.047655311   -5.321021  -25.187189 -101.792418   -1.822293    0.000000    0.000000    0.000000    0.000000
  0.047855711   -5.348787  -26.973923 -101.997772   -3.440454    0.000000    0.000000    0.000000    0.000000
  0.048056112   -5.373972  -28.749821 -103.667702    1.852672    0.000000    0.000000    0.000000    0.000000
  0.048256513   -5.402780  -30.482786 -104.322747   10.710295    0.000000    0.000000    0.000000    0.000000
  0.048456914   -5.428036  -32.277287 -105.180834    7.088739    0.000000    0.000000    0.000000    0.000000
  0.048657315   -5.451346  -33.993740 -103.796189   -5.326829    0.000000    0.000000    0.000000    0.000000
  0.048857715   -5.477369  -35.742271 -102.762104    9.191056    0.000000    0.000000    0.000000    0.000000
  0.049058116   -5.498344  -37.444176 -104.012211    5.705173    0.000000    0.000000    0.000000    0.000000
  0.049258517   -5.526469  -39.110016 -103.846852    4.835814    0.000000    0.000000    0.000000    0.000000
  0.049458918   -5.553879  -40.781677 -100.909218    8.513486    0.000000    0.000000    0.000000    0.000000
  0.049659319   -5.580510  -42.466583 -103.142031   -0.125975    0.000000    0.000000    0.000000    0.000000
  0.049859719   -5.613526  -44.163540 -100.485237   10.351526    0.000000    0.000000    0.000000    0.000000
  0.050060120   -5.640566  -45.867386 -102.034518    7.178682    0.000000    0.000000    0.000000    0.000000
  0.050260521   -5.672793  -47.579506 -103.359596  -12.007421    0.000000    0.000000    0.000000    0.000000
  0.050460922   -5.697907  -49.302216 -101.205763    0.172604    0.000000    0.000000    0.000000    0.000000
  0.050661323   -5.717756  -51.013199 -104.997058   -5.642761    0.000000    0.000000    0.000000    0.000000
  0.050861723   -5.736278  -52.744942 -101.451347    2.468707    0.000000    0.000000    0.000000    0.000000
  0.051062124   -5.744674  -54.461700 -102.447772    4.224641    0.000000    0.000000    0.000000    0.000000
  0.051262525   -5.758966  -56.136894 -103.246364   -2.103942    0.000000    0.000000    0.000000    0.000000
  0.051462926   -5.770790  -57.785435 -103.557848   -6.053905    0.000000    0.000000    0.000000    0.000000
  0.051663327   -5.780744  -59.402607 -102.721119   -8.920766    0.000000    0.000000    0.000000    0.000000
  0.051863727   -5.793553  -60.985798 -105.781997   -5.960571    0.000000    0.000000    0.000000    0.000000
  0.052064128   -5.806785  -62.583302 -106.580700   13.887402    0.000000    0.000000    0.000000    0.000000
  0.052264529   -5.824272  -64.149269 -103.996704  -11.930205    0.000000    0.000000    0.000000    0.000000
  0.052464930   -5.832898  -65.711563 -102.945377   -6.113759    0.000000    0.000000    0.000000    0.000000
  0.052665331   -5.843837  -67.277237 -102.900297    1.575947    0.000000    0.000000    0.000000    0.000000
  0.052865731   -5.859397  -68.795578 -104.766508    0.021732    0.000000    0.000000    0.000000    0.000000
