! Anritsu VNA Master:                     Model: MS2036C/10/77
! SN:                                  1601066
! /card0/usr/18may27.balun/5b.m2.s2p
! Existing Calibration Information:
! TYPE:                         Current Settings,       Active Cal Settings
! TIME:             	   05/27/2018 03:40:13 PM,    05/27/2018 03:21:57 PM
! INTERNAL TEMP:    	                   53.5 C,                    52.3 C
! # POINTS:         	                      500,                       500
! START FREQ:       	               20.000 MHz,                20.000 MHz
! STOP FREQ:        	              120.000 MHz,               120.000 MHz
! SOURCE POWER:     	                     High,                      High
! IFBW:             	                    50 Hz,                     50 Hz
! AVG FACTOR:       	                       1 ,                        1 
! REF PLANE 1:      	                     0 mm,                      0 mm
! REF PLANE 2:      	                     0 mm,                      0 mm
! CAL TYPE:         	                 Full S11,                  Full S11
! CAL METHOD:       	                     SOLT,                      SOLT
! CAL LINE TYPE:    	                     Coax,                      Coax
! DUT PORT 1:       	                K-Conn(M),                 K-Conn(M)
! DUT PORT 2:       	                K-Conn(M),                 K-Conn(M)
! CAL STATUS:       	        OK: Accuracy High,                        --
# GHZ S DB R 50.0
! FREQ.GHZ       S11DB        S11A       S21DB        S21A       S12DB        S12A       S22DB        S22A
  0.020000000   -0.733400 -125.095840  -90.833304   29.611876    0.000000    0.000000    0.000000    0.000000
  0.020200401   -0.733914 -126.571785  -90.982763   31.223991    0.000000    0.000000    0.000000    0.000000
  0.020400802   -0.732480 -128.022644  -91.407226   27.646156    0.000000    0.000000    0.000000    0.000000
  0.020601202   -0.733960 -129.498322  -91.647565   25.571959    0.000000    0.000000    0.000000    0.000000
  0.020801603   -0.739257 -130.996368  -92.480393   29.144728    0.000000    0.000000    0.000000    0.000000
  0.021002004   -0.746346 -132.527847  -92.466749   29.158237    0.000000    0.000000    0.000000    0.000000
  0.021202405   -0.755095 -134.093231  -92.514403   33.394993    0.000000    0.000000    0.000000    0.000000
  0.021402806   -0.763564 -135.663605  -93.094481   32.529430    0.000000    0.000000    0.000000    0.000000
  0.021603206   -0.767436 -137.239243  -93.227736   35.221355    0.000000    0.000000    0.000000    0.000000
  0.021803607   -0.773295 -138.791473  -94.237755   33.140327    0.000000    0.000000    0.000000    0.000000
  0.022004008   -0.778817 -140.363800  -93.493293   31.130350    0.000000    0.000000    0.000000    0.000000
  0.022204409   -0.779458 -141.954926  -92.610127   34.901852    0.000000    0.000000    0.000000    0.000000
  0.022404810   -0.782183 -143.544983  -92.641287   34.606468    0.000000    0.000000    0.000000    0.000000
  0.022605210   -0.781945 -145.124695  -92.626301   36.392578    0.000000    0.000000    0.000000    0.000000
  0.022805611   -0.779128 -146.675659  -92.613595   36.831123    0.000000    0.000000    0.000000    0.000000
  0.023006012   -0.780902 -148.219345  -92.880378   37.550411    0.000000    0.000000    0.000000    0.000000
  0.023206413   -0.789943 -149.757965  -92.457796   35.686543    0.000000    0.000000    0.000000    0.000000
  0.023406814   -0.798537 -151.294052  -92.835430   30.203455    0.000000    0.000000    0.000000    0.000000
  0.023607214   -0.807342 -152.853012  -93.219291   28.481672    0.000000    0.000000    0.000000    0.000000
  0.023807615   -0.813525 -154.410446  -93.095990   25.697594    0.000000    0.000000    0.000000    0.000000
  0.024008016   -0.823382 -155.968338  -92.902328   27.410847    0.000000    0.000000    0.000000    0.000000
  0.024208417   -0.835236 -157.519623  -93.986005   22.203308    0.000000    0.000000    0.000000    0.000000
  0.024408818   -0.849887 -159.108643  -93.498751   20.524834    0.000000    0.000000    0.000000    0.000000
  0.024609218   -0.865063 -160.739655  -93.806716   23.258604    0.000000    0.000000    0.000000    0.000000
  0.024809619   -0.876157 -162.392563  -94.264018   19.244545    0.000000    0.000000    0.000000    0.000000
  0.025010020   -0.885565 -164.055038  -94.729219   17.321491    0.000000    0.000000    0.000000    0.000000
  0.025210421   -0.897464 -165.728928  -93.651846   18.710775    0.000000    0.000000    0.000000    0.000000
  0.025410822   -0.909794 -167.421967  -94.694171   16.781681    0.000000    0.000000    0.000000    0.000000
  0.025611222   -0.923141 -169.131683  -95.377083   22.591936    0.000000    0.000000    0.000000    0.000000
  0.025811623   -0.937396 -170.877716  -95.067117   23.373158    0.000000    0.000000    0.000000    0.000000
  0.026012024   -0.950351 -172.635147  -96.059428   24.979048    0.000000    0.000000    0.000000    0.000000
  0.026212425   -0.967498 -174.421219  -96.137266   21.096745    0.000000    0.000000    0.000000    0.000000
  0.026412826   -0.986343 -176.206955  -94.963740   22.869289    0.000000    0.000000    0.000000    0.000000
  0.026613226   -1.004099 -178.020782  -95.904269   28.114489    0.000000    0.000000    0.000000    0.000000
  0.026813627   -1.020405 -179.834869  -94.921526   23.473518    0.000000    0.000000    0.000000    0.000000
  0.027014028   -1.035525  178.390427  -95.091769   23.983646    0.000000    0.000000    0.000000    0.000000
  0.027214429   -1.049943  176.586655  -95.059169   23.773291    0.000000    0.000000    0.000000    0.000000
  0.027414830   -1.063122  174.825012  -94.335551   23.628119    0.000000    0.000000    0.000000    0.000000
  0.027615230   -1.079724  173.046265  -95.446985   22.737106    0.000000    0.000000    0.000000    0.000000
  0.027815631   -1.098105  171.264633  -94.896709   20.232937    0.000000    0.000000    0.000000    0.000000
  0.028016032   -1.116524  169.473175  -95.490376   27.655970    0.000000    0.000000    0.000000    0.000000
  0.028216433   -1.136390  167.692673  -94.839338   20.549715    0.000000    0.000000    0.000000    0.000000
  0.028416834   -1.157704  165.917587  -95.337580   16.313013    0.000000    0.000000    0.000000    0.000000
  0.028617234   -1.180881  164.150528  -95.944319   15.606260    0.000000    0.000000    0.000000    0.000000
  0.028817635   -1.205979  162.363876  -96.499800   17.597549    0.000000    0.000000    0.000000    0.000000
  0.029018036   -1.233937  160.546570  -95.836112   14.951790    0.000000    0.000000    0.000000    0.000000
  0.029218437   -1.260901  158.714508  -96.716282   10.046609    0.000000    0.000000    0.000000    0.000000
  0.029418838   -1.286232  156.881058  -97.882880   13.036174    0.000000    0.000000    0.000000    0.000000
  0.029619238   -1.312333  155.059799  -96.716190   10.366815    0.000000    0.000000    0.000000    0.000000
  0.029819639   -1.340251  153.227631  -97.781281   11.168282    0.000000    0.000000    0.000000    0.000000
  0.030020040   -1.369583  151.377701  -97.408374   14.604368    0.000000    0.000000    0.000000    0.000000
  0.030220441   -1.403300  149.511566  -97.675966   12.296169    0.000000    0.000000    0.000000    0.000000
  0.030420842   -1.442965  147.604355  -98.470613   18.322701    0.000000    0.000000    0.000000    0.000000
  0.030621242   -1.486249  145.646194  -98.113205   15.099897    0.000000    0.000000    0.000000    0.000000
  0.030821643   -1.524903  143.631317  -97.603308   24.197948    0.000000    0.000000    0.000000    0.000000
  0.031022044   -1.559910  141.592239  -97.499495   23.561371    0.000000    0.000000    0.000000    0.000000
  0.031222445   -1.591236  139.524216  -96.769045   15.241110    0.000000    0.000000    0.000000    0.000000
  0.031422846   -1.618741  137.468750  -97.089775   16.861605    0.000000    0.000000    0.000000    0.000000
  0.031623246   -1.645484  135.430756  -96.871808   14.506005    0.000000    0.000000    0.000000    0.000000
  0.031823647   -1.666114  133.401917  -97.879032   11.310064    0.000000    0.000000    0.000000    0.000000
  0.032024048   -1.688352  131.430389  -97.869660   19.482185    0.000000    0.000000    0.000000    0.000000
  0.032224449   -1.716498  129.465698  -96.822312   12.570805    0.000000    0.000000    0.000000    0.000000
  0.032424850   -1.740842  127.529518  -97.244695   14.799674    0.000000    0.000000    0.000000    0.000000
  0.032625251   -1.775311  125.590393  -96.611446   12.144858    0.000000    0.000000    0.000000    0.000000
  0.032825651   -1.814608  123.654213  -97.710919   18.883430    0.000000    0.000000    0.000000    0.000000
  0.033026052   -1.858845  121.753693  -97.875975   13.861570    0.000000    0.000000    0.000000    0.000000
  0.033226453   -1.902776  119.795891  -98.020119    6.932561    0.000000    0.000000    0.000000    0.000000
  0.033426854   -1.947630  117.859871  -96.950967    8.348798    0.000000    0.000000    0.000000    0.000000
  0.033627255   -1.994616  115.884674  -99.182544    6.213368    0.000000    0.000000    0.000000    0.000000
  0.033827655   -2.039613  113.873215  -99.025435   10.009271    0.000000    0.000000    0.000000    0.000000
  0.034028056   -2.089419  111.847595 -100.895463    1.559835    0.000000    0.000000    0.000000    0.000000
  0.034228457   -2.138750  109.816742  -98.287282   11.115408    0.000000    0.000000    0.000000    0.000000
  0.034428858   -2.188243  107.777740  -99.132257   13.676619    0.000000    0.000000    0.000000    0.000000
  0.034629259   -2.232578  105.725754  -99.471766   15.502523    0.000000    0.000000    0.000000    0.000000
  0.034829659   -2.276520  103.678741  -98.169655    6.462317    0.000000    0.000000    0.000000    0.000000
  0.035030060   -2.319413  101.645386  -97.795393   12.207071    0.000000    0.000000    0.000000    0.000000
  0.035230461   -2.369696   99.609299  -98.905359   13.848217    0.000000    0.000000    0.000000    0.000000
  0.035430862   -2.424223   97.574120  -98.516425    6.427667    0.000000    0.000000    0.000000    0.000000
  0.035631263   -2.486622   95.504250  -98.407011    9.970865    0.000000    0.000000    0.000000    0.000000
  0.035831663   -2.550147   93.399849  -97.997046   18.484901    0.000000    0.000000    0.000000    0.000000
  0.036032064   -2.611200   91.224342  -97.889377    5.885688    0.000000    0.000000    0.000000    0.000000
  0.036232465   -2.667480   89.011864  -98.326674   13.839248    0.000000    0.000000    0.000000    0.000000
  0.036432866   -2.723126   86.793694  -99.422368   14.338701    0.000000    0.000000    0.000000    0.000000
  0.036633267   -2.769534   84.596626  -98.707049   15.774606    0.000000    0.000000    0.000000    0.000000
  0.036833667   -2.814447   82.403114  -98.416355    6.657927    0.000000    0.000000    0.000000    0.000000
  0.037034068   -2.851688   80.278656 -101.084782    3.532405    0.000000    0.000000    0.000000    0.000000
  0.037234469   -2.891181   78.160011  -99.473967    8.074718    0.000000    0.000000    0.000000    0.000000
  0.037434870   -2.923582   76.128616  -99.585552    0.445951    0.000000    0.000000    0.000000    0.000000
  0.037635271   -2.956410   74.089958  -98.671158    3.096889    0.000000    0.000000    0.000000    0.000000
  0.037835671   -2.991405   72.044525  -99.972016   10.557474    0.000000    0.000000    0.000000    0.000000
  0.038036072   -3.040268   69.945290 -100.114749    1.505982    0.000000    0.000000    0.000000    0.000000
  0.038236473   -3.102917   67.880211  -99.967435    8.944808    0.000000    0.000000    0.000000    0.000000
  0.038436874   -3.174436   65.816147 -100.284113    0.645297    0.000000    0.000000    0.000000    0.000000
  0.038637275   -3.249032   63.810024  -99.173144    7.453591    0.000000    0.000000    0.000000    0.000000
  0.038837675   -3.322306   61.747101 -101.435155    1.436032    0.000000    0.000000    0.000000    0.000000
  0.039038076   -3.394181   59.637905 -101.456556    3.032472    0.000000    0.000000    0.000000    0.000000
  0.039238477   -3.457318   57.518696 -100.648450    9.467479    0.000000    0.000000    0.000000    0.000000
  0.039438878   -3.516466   55.402523 -103.362688    2.210997    0.000000    0.000000    0.000000    0.000000
  0.039639279   -3.567700   53.307446 -101.969777   23.780148    0.000000    0.000000    0.000000    0.000000
  0.039839679   -3.614552   51.233765  -99.707752    4.342302    0.000000    0.000000    0.000000    0.000000
  0.040040080   -3.665744   49.193127 -100.402393    2.610196    0.000000    0.000000    0.000000    0.000000
  0.040240481   -3.721031   47.177551 -100.331443   10.083856    0.000000    0.000000    0.000000    0.000000
  0.040440882   -3.781756   45.115780  -99.188896   10.969776    0.000000    0.000000    0.000000    0.000000
  0.040641283   -3.843659   43.035698 -102.130822    7.353361    0.000000    0.000000    0.000000    0.000000
  0.040841683   -3.901654   40.943420  -99.485128    4.436234    0.000000    0.000000    0.000000    0.000000
  0.041042084   -3.960636   38.808453  -98.927618    6.643652    0.000000    0.000000    0.000000    0.000000
  0.041242485   -4.013359   36.724453 -100.355080    6.305476    0.000000    0.000000    0.000000    0.000000
  0.041442886   -4.064994   34.620651  -99.863273   10.951262    0.000000    0.000000    0.000000    0.000000
  0.041643287   -4.113922   32.532211  -99.980912    6.658476    0.000000    0.000000    0.000000    0.000000
  0.041843687   -4.156903   30.450195 -102.397036   -2.654799    0.000000    0.000000    0.000000    0.000000
  0.042044088   -4.199999   28.392759 -100.505103    2.540649    0.000000    0.000000    0.000000    0.000000
  0.042244489   -4.241123   26.392403 -101.761199   -7.978201    0.000000    0.000000    0.000000    0.000000
  0.042444890   -4.285083   24.414406 -101.938680    9.442070    0.000000    0.000000    0.000000    0.000000
  0.042645291   -4.326258   22.466677 -102.669363    5.640660    0.000000    0.000000    0.000000    0.000000
  0.042845691   -4.371099   20.537022 -103.520065    4.158898    0.000000    0.000000    0.000000    0.000000
  0.043046092   -4.414040   18.592405 -103.208165    4.842250    0.000000    0.000000    0.000000    0.000000
  0.043246493   -4.460032   16.678986 -101.254389   -0.079160    0.000000    0.000000    0.000000    0.000000
  0.043446894   -4.507434   14.769611 -102.660554    1.676547    0.000000    0.000000    0.000000    0.000000
  0.043647295   -4.560135   12.863223 -103.147117    9.753949    0.000000    0.000000    0.000000    0.000000
  0.043847695   -4.611838   10.945052 -101.131881    6.484559    0.000000    0.000000    0.000000    0.000000
  0.044048096   -4.667721    9.018246 -102.144853   -1.409061    0.000000    0.000000    0.000000    0.000000
  0.044248497   -4.718860    7.074218 -102.521940   17.702538    0.000000    0.000000    0.000000    0.000000
  0.044448898   -4.765724    5.117964 -101.257462    5.328303    0.000000    0.000000    0.000000    0.000000
  0.044649299   -4.810296    3.178527 -102.064843    9.605389    0.000000    0.000000    0.000000    0.000000
  0.044849699   -4.856982    1.236770 -101.423407   11.802004    0.000000    0.000000    0.000000    0.000000
  0.045050100   -4.898546   -0.737415 -102.094521   -0.029103    0.000000    0.000000    0.000000    0.000000
  0.045250501   -4.944799   -2.694133 -103.441739   19.106045    0.000000    0.000000    0.000000    0.000000
  0.045450902   -4.984348   -4.667844 -102.022888   14.871762    0.000000    0.000000    0.000000    0.000000
  0.045651303   -5.022135   -6.642377 -103.355603    2.446803    0.000000    0.000000    0.000000    0.000000
  0.045851703   -5.057390   -8.599291 -100.794590    4.901330    0.000000    0.000000    0.000000    0.000000
  0.046052104   -5.092727  -10.567312 -102.315476    0.252882    0.000000    0.000000    0.000000    0.000000
  0.046252505   -5.123664  -12.496893 -102.544688  -10.524130    0.000000    0.000000    0.000000    0.000000
  0.046452906   -5.152310  -14.398536 -100.818591    1.995410    0.000000    0.000000    0.000000    0.000000
  0.046653307   -5.182150  -16.277115 -102.140001    2.438535    0.000000    0.000000    0.000000    0.000000
  0.046853707   -5.209714  -18.124317 -103.732230    4.076739    0.000000    0.000000    0.000000    0.000000
  0.047054108   -5.236360  -19.969152 -102.672098   -4.885810    0.000000    0.000000    0.000000    0.000000
  0.047254509   -5.262619  -21.785204 -103.072351  -15.564973    0.000000    0.000000    0.000000    0.000000
  0.047454910   -5.286882  -23.579149 -101.167039   -4.136096    0.000000    0.000000    0.000000    0.000000
  0.047655311   -5.314078  -25.343670 -103.632853   -6.920294    0.000000    0.000000    0.000000    0.000000
  0.047855711   -5.344317  -27.109589 -103.579366   11.126316    0.000000    0.000000    0.000000    0.000000
  0.048056112   -5.371477  -28.853041 -102.007968    4.576138    0.000000    0.000000    0.000000    0.000000
  0.048256513   -5.399782  -30.602192 -104.563879   12.420690    0.000000    0.000000    0.000000    0.000000
  0.048456914   -5.428911  -32.364273 -106.863175   17.184252    0.000000    0.000000    0.000000    0.000000
  0.048657315   -5.455741  -34.092350 -101.613379    9.921690    0.000000    0.000000    0.000000    0.000000
  0.048857715   -5.480240  -35.819485 -101.414795    6.217241    0.000000    0.000000    0.000000    0.000000
  0.049058116   -5.508128  -37.521286 -100.905296    9.968830    0.000000    0.000000    0.000000    0.000000
  0.049258517   -5.531444  -39.220963 -102.387184   11.579720    0.000000    0.000000    0.000000    0.000000
  0.049458918   -5.561283  -40.902599 -101.272978    6.294397    0.000000    0.000000    0.000000    0.000000
  0.049659319   -5.589171  -42.603893 -104.640036   -6.940215    0.000000    0.000000    0.000000    0.000000
  0.049859719   -5.618416  -44.328403 -102.018136   13.939105    0.000000    0.000000    0.000000    0.000000
  0.050060120   -5.647104  -46.049301 -101.440533    3.543114    0.000000    0.000000    0.000000    0.000000
  0.050260521   -5.675333  -47.794022 -101.733882  -15.229447    0.000000    0.000000    0.000000    0.000000
  0.050460922   -5.699697  -49.514732 -101.758332   -0.183910    0.000000    0.000000    0.000000    0.000000
  0.050661323   -5.718052  -51.249279 -101.630945   -6.586766    0.000000    0.000000    0.000000    0.000000
  0.050861723   -5.734345  -52.981194 -104.427923    5.546030    0.000000    0.000000    0.000000    0.000000
  0.051062124   -5.745695  -54.690281 -102.811778   -0.963752    0.000000    0.000000    0.000000    0.000000
  0.051262525   -5.751197  -56.365486 -104.302145  -12.352084    0.000000    0.000000    0.000000    0.000000
  0.051462926   -5.761421  -57.997234 -104.540613   -4.075793    0.000000    0.000000    0.000000    0.000000
  0.051663327   -5.771539  -59.603352 -103.656167   11.597990    0.000000    0.000000    0.000000    0.000000
  0.051863727   -5.784464  -61.168201 -103.588406   15.943516    0.000000    0.000000    0.000000    0.000000
  0.052064128   -5.796490  -62.711525 -104.792060   -4.118320    0.000000    0.000000    0.000000    0.000000
  0.052264529   -5.808891  -64.269897 -104.367293   -3.673709    0.000000    0.000000    0.000000    0.000000
  0.052464930   -5.821189  -65.808899 -102.905791    3.343367    0.000000    0.000000    0.000000    0.000000
  0.052665331   -5.832104  -67.351303 -103.997199    1.430889    0.000000    0.000000    0.000000    0.000000
  0.052865731   -5.850115  -68.854141 -102.948880    1.848639    0.000000    0.000000    0.000000    0.000000
