! Anritsu VNA Master:                     Model: MS2036C/10/77
! SN:                                  1601066
! /card0/usr/18may27.balun/5b.r50.s2p
! Existing Calibration Information:
! TYPE:                         Current Settings,       Active Cal Settings
! TIME:             	   05/27/2018 03:35:15 PM,    05/27/2018 03:21:57 PM
! INTERNAL TEMP:    	                   53.3 C,                    52.3 C
! # POINTS:         	                      500,                       500
! START FREQ:       	               20.000 MHz,                20.000 MHz
! STOP FREQ:        	              120.000 MHz,               120.000 MHz
! SOURCE POWER:     	                     High,                      High
! IFBW:             	                    50 Hz,                     50 Hz
! AVG FACTOR:       	                       1 ,                        1 
! REF PLANE 1:      	                     0 mm,                      0 mm
! REF PLANE 2:      	                     0 mm,                      0 mm
! CAL TYPE:         	                 Full S11,                  Full S11
! CAL METHOD:       	                     SOLT,                      SOLT
! CAL LINE TYPE:    	                     Coax,                      Coax
! DUT PORT 1:       	                K-Conn(M),                 K-Conn(M)
! DUT PORT 2:       	                K-Conn(M),                 K-Conn(M)
! CAL STATUS:       	        OK: Accuracy High,                        --
# GHZ S DB R 50.0
! FREQ.GHZ       S11DB        S11A       S21DB        S21A       S12DB        S12A       S22DB        S22A
  0.020000000  -38.559214   44.496429  -91.417875   33.081398    0.000000    0.000000    0.000000    0.000000
  0.020200401  -38.137465   44.315189  -91.473411   35.666351    0.000000    0.000000    0.000000    0.000000
  0.020400802  -37.671439   44.234444  -91.570608   35.400818    0.000000    0.000000    0.000000    0.000000
  0.020601202  -37.283567   45.244507  -91.062935   35.889362    0.000000    0.000000    0.000000    0.000000
  0.020801603  -36.920119   46.437855  -91.335188   33.803989    0.000000    0.000000    0.000000    0.000000
  0.021002004  -36.601043   47.635960  -91.974804   33.922138    0.000000    0.000000    0.000000    0.000000
  0.021202405  -36.402303   49.913021  -92.356653   28.921619    0.000000    0.000000    0.000000    0.000000
  0.021402806  -36.216105   51.600658  -92.456354   32.626457    0.000000    0.000000    0.000000    0.000000
  0.021603206  -36.097209   54.202282  -92.298062   29.978039    0.000000    0.000000    0.000000    0.000000
  0.021803607  -36.090533   56.427509  -91.844281   33.185616    0.000000    0.000000    0.000000    0.000000
  0.022004008  -36.094828   58.791447  -92.271509   29.089394    0.000000    0.000000    0.000000    0.000000
  0.022204409  -36.188419   60.887203  -92.153026   31.721157    0.000000    0.000000    0.000000    0.000000
  0.022404810  -36.305955   62.431923  -92.535356   26.688736    0.000000    0.000000    0.000000    0.000000
  0.022605210  -36.457572   64.417526  -92.567110   26.605669    0.000000    0.000000    0.000000    0.000000
  0.022805611  -36.753527   65.305771  -92.885250   27.983894    0.000000    0.000000    0.000000    0.000000
  0.023006012  -37.114544   66.684021  -92.836201   30.886183    0.000000    0.000000    0.000000    0.000000
  0.023206413  -37.383837   66.721695  -92.657093   27.003727    0.000000    0.000000    0.000000    0.000000
  0.023406814  -37.892808   66.493668  -92.953880   25.646519    0.000000    0.000000    0.000000    0.000000
  0.023607214  -38.131050   65.261642  -93.163159   23.805286    0.000000    0.000000    0.000000    0.000000
  0.023807615  -38.527173   63.650055  -93.607279   29.904238    0.000000    0.000000    0.000000    0.000000
  0.024008016  -38.812733   60.736500  -93.909882   23.071434    0.000000    0.000000    0.000000    0.000000
  0.024208417  -38.997250   58.087872  -93.012916   25.613728    0.000000    0.000000    0.000000    0.000000
  0.024408818  -38.953910   54.676498  -93.106289   25.508490    0.000000    0.000000    0.000000    0.000000
  0.024609218  -38.923186   51.889282  -93.762942   24.582476    0.000000    0.000000    0.000000    0.000000
  0.024809619  -38.693397   49.346004  -94.952669   25.387289    0.000000    0.000000    0.000000    0.000000
  0.025010020  -38.267458   46.290092  -94.536643   27.116047    0.000000    0.000000    0.000000    0.000000
  0.025210421  -37.885348   44.361240  -94.632714   20.021818    0.000000    0.000000    0.000000    0.000000
  0.025410822  -37.387776   43.436504  -94.288848   26.216784    0.000000    0.000000    0.000000    0.000000
  0.025611222  -36.949371   43.273888  -94.719795   22.775600    0.000000    0.000000    0.000000    0.000000
  0.025811623  -36.559269   43.900150  -94.236339   25.485155    0.000000    0.000000    0.000000    0.000000
  0.026012024  -36.047475   45.020046  -94.716173   24.173502    0.000000    0.000000    0.000000    0.000000
  0.026212425  -35.805137   46.160378  -93.792475   16.601921    0.000000    0.000000    0.000000    0.000000
  0.026412826  -35.457581   47.796242  -95.224791   24.044285    0.000000    0.000000    0.000000    0.000000
  0.026613226  -35.298847   49.878296  -95.336260   20.054840    0.000000    0.000000    0.000000    0.000000
  0.026813627  -35.120741   52.368263  -95.967200   14.758954    0.000000    0.000000    0.000000    0.000000
  0.027014028  -35.082122   54.553711  -95.962435   20.471148    0.000000    0.000000    0.000000    0.000000
  0.027214429  -35.092413   56.439957  -95.496844   19.349764    0.000000    0.000000    0.000000    0.000000
  0.027414830  -35.099112   59.133858  -95.530537   23.017866    0.000000    0.000000    0.000000    0.000000
  0.027615230  -35.265706   61.094662  -96.310619   19.741365    0.000000    0.000000    0.000000    0.000000
  0.027815631  -35.418836   62.621986  -96.696838   23.181906    0.000000    0.000000    0.000000    0.000000
  0.028016032  -35.729609   64.570663  -95.969662   20.037189    0.000000    0.000000    0.000000    0.000000
  0.028216433  -36.002767   65.991043  -96.682294   17.899841    0.000000    0.000000    0.000000    0.000000
  0.028416834  -36.353662   66.448936  -95.301869   15.216937    0.000000    0.000000    0.000000    0.000000
  0.028617234  -36.794723   67.265770  -95.846134   18.359993    0.000000    0.000000    0.000000    0.000000
  0.028817635  -37.258294   66.804947  -96.351943   18.398819    0.000000    0.000000    0.000000    0.000000
  0.029018036  -37.690800   65.474808  -96.510901   12.011732    0.000000    0.000000    0.000000    0.000000
  0.029218437  -38.166637   63.398602  -97.140947   22.220280    0.000000    0.000000    0.000000    0.000000
  0.029418838  -38.539219   60.610382  -96.989677   19.352589    0.000000    0.000000    0.000000    0.000000
  0.029619238  -38.773850   56.921528  -96.757302   20.315065    0.000000    0.000000    0.000000    0.000000
  0.029819639  -38.813719   52.674908  -95.857616   19.070166    0.000000    0.000000    0.000000    0.000000
  0.030020040  -38.740740   48.026554  -96.810751   20.478287    0.000000    0.000000    0.000000    0.000000
  0.030220441  -38.500664   44.779121  -96.682390   18.596058    0.000000    0.000000    0.000000    0.000000
  0.030420842  -37.994244   41.423576  -96.841878    8.709517    0.000000    0.000000    0.000000    0.000000
  0.030621242  -37.470606   39.116470  -96.968209   15.807840    0.000000    0.000000    0.000000    0.000000
  0.030821643  -36.970915   37.956520  -97.506065   14.485299    0.000000    0.000000    0.000000    0.000000
  0.031022044  -36.373235   37.419014  -96.873744   14.612692    0.000000    0.000000    0.000000    0.000000
  0.031222445  -35.862158   37.657753  -98.658235   14.994413    0.000000    0.000000    0.000000    0.000000
  0.031422846  -35.305009   38.552185  -96.776001   10.603207    0.000000    0.000000    0.000000    0.000000
  0.031623246  -34.993852   39.904015  -97.648456   17.447529    0.000000    0.000000    0.000000    0.000000
  0.031823647  -34.609965   41.742645  -97.403642   19.433105    0.000000    0.000000    0.000000    0.000000
  0.032024048  -34.369418   43.917046  -98.286651   18.332029    0.000000    0.000000    0.000000    0.000000
  0.032224449  -34.169657   45.970112  -97.960072   11.931958    0.000000    0.000000    0.000000    0.000000
  0.032424850  -34.050624   48.837254  -98.123705   16.578308    0.000000    0.000000    0.000000    0.000000
  0.032625251  -34.025308   51.192665  -97.587947   11.829769    0.000000    0.000000    0.000000    0.000000
  0.032825651  -33.992193   53.086838  -97.769589    9.306951    0.000000    0.000000    0.000000    0.000000
  0.033026052  -34.121375   55.677776  -98.303061    8.860204    0.000000    0.000000    0.000000    0.000000
  0.033226453  -34.253168   57.812408  -98.491996    4.228358    0.000000    0.000000    0.000000    0.000000
  0.033426854  -34.536501   59.760960  -98.029279   15.733476    0.000000    0.000000    0.000000    0.000000
  0.033627255  -34.737364   61.500793  -97.170824   10.728266    0.000000    0.000000    0.000000    0.000000
  0.033827655  -35.101170   62.543995  -99.550848    4.726370    0.000000    0.000000    0.000000    0.000000
  0.034028056  -35.537852   63.246365  -97.577374    9.776770    0.000000    0.000000    0.000000    0.000000
  0.034228457  -35.999816   63.335552  -98.195752   13.171346    0.000000    0.000000    0.000000    0.000000
  0.034428858  -36.465551   62.421509  -98.251125   20.479359    0.000000    0.000000    0.000000    0.000000
  0.034629259  -36.869806   60.720928  -98.877204    8.988050    0.000000    0.000000    0.000000    0.000000
  0.034829659  -37.271387   58.475372  -98.714243   10.407125    0.000000    0.000000    0.000000    0.000000
  0.035030060  -37.569124   54.839626  -98.461057   11.961738    0.000000    0.000000    0.000000    0.000000
  0.035230461  -37.803243   50.579674 -100.059308    6.850300    0.000000    0.000000    0.000000    0.000000
  0.035430862  -37.685059   46.947147  -99.551879   15.166788    0.000000    0.000000    0.000000    0.000000
  0.035631263  -37.594014   43.090710  -99.528531   10.909275    0.000000    0.000000    0.000000    0.000000
  0.035831663  -37.228778   39.883759  -99.176073   17.878069    0.000000    0.000000    0.000000    0.000000
  0.036032064  -36.839080   37.270241  -98.440458   15.158582    0.000000    0.000000    0.000000    0.000000
  0.036232465  -36.282320   35.136425  -98.754479    7.740474    0.000000    0.000000    0.000000    0.000000
  0.036432866  -35.839116   34.399044  -99.091548    6.195599    0.000000    0.000000    0.000000    0.000000
  0.036633267  -35.388206   34.439201  -98.806364    3.167434    0.000000    0.000000    0.000000    0.000000
  0.036833667  -34.800424   34.474419  -99.616430    0.867038    0.000000    0.000000    0.000000    0.000000
  0.037034068  -34.467710   36.039158  -99.603969    7.989908    0.000000    0.000000    0.000000    0.000000
  0.037234469  -33.997030   36.636055  -99.124256    7.726415    0.000000    0.000000    0.000000    0.000000
  0.037434870  -33.754513   38.929848  -99.567221   -8.511979    0.000000    0.000000    0.000000    0.000000
  0.037635271  -33.547416   40.559578  -99.583239    3.440734    0.000000    0.000000    0.000000    0.000000
  0.037835671  -33.364087   42.867760  -98.769872   10.619466    0.000000    0.000000    0.000000    0.000000
  0.038036072  -33.262447   45.196224 -100.106209    2.429112    0.000000    0.000000    0.000000    0.000000
  0.038236473  -33.246096   47.545238  -99.284670    4.020070    0.000000    0.000000    0.000000    0.000000
  0.038436874  -33.265072   49.256405 -101.091326    9.824018    0.000000    0.000000    0.000000    0.000000
  0.038637275  -33.387077   51.411194 -101.470161    0.139731    0.000000    0.000000    0.000000    0.000000
  0.038837675  -33.580693   53.334610 -100.083116    4.013085    0.000000    0.000000    0.000000    0.000000
  0.039038076  -33.767763   54.920006 -100.672923   18.319635    0.000000    0.000000    0.000000    0.000000
  0.039238477  -34.107764   56.182850  -99.870201    7.285905    0.000000    0.000000    0.000000    0.000000
  0.039438878  -34.383896   57.153545 -100.382633    1.188634    0.000000    0.000000    0.000000    0.000000
  0.039639279  -34.768365   57.375263 -101.253659   -4.226140    0.000000    0.000000    0.000000    0.000000
  0.039839679  -35.088533   56.839199 -102.020658   -0.439271    0.000000    0.000000    0.000000    0.000000
  0.040040080  -35.488972   56.292480 -101.043341    5.489269    0.000000    0.000000    0.000000    0.000000
  0.040240481  -35.769090   54.698849  -99.665189    3.778485    0.000000    0.000000    0.000000    0.000000
  0.040440882  -36.175338   53.246685  -99.589008   16.780323    0.000000    0.000000    0.000000    0.000000
  0.040641283  -36.370665   49.471855 -102.752689    7.338026    0.000000    0.000000    0.000000    0.000000
  0.040841683  -36.535670   47.024086 -101.316180   -3.380539    0.000000    0.000000    0.000000    0.000000
  0.041042084  -36.461482   42.775974  -99.814913   21.321688    0.000000    0.000000    0.000000    0.000000
  0.041242485  -36.276675   39.654160 -100.854279    4.581028    0.000000    0.000000    0.000000    0.000000
  0.041442886  -36.022233   36.918392  -99.354285   -1.193801    0.000000    0.000000    0.000000    0.000000
  0.041643287  -35.689759   34.669498 -100.582416    1.559878    0.000000    0.000000    0.000000    0.000000
  0.041843687  -35.219749   32.949753 -100.365366   -1.225010    0.000000    0.000000    0.000000    0.000000
  0.042044088  -34.772131   31.986555 -102.104813   17.457130    0.000000    0.000000    0.000000    0.000000
  0.042244489  -34.338894   31.737055 -102.715276    6.947164    0.000000    0.000000    0.000000    0.000000
  0.042444890  -34.002314   32.127567 -102.610524   19.865908    0.000000    0.000000    0.000000    0.000000
  0.042645291  -33.596317   32.819603 -101.382853    3.820294    0.000000    0.000000    0.000000    0.000000
  0.042845691  -33.297538   33.737812 -101.012536   15.827632    0.000000    0.000000    0.000000    0.000000
  0.043046092  -33.037386   35.280293 -100.691199    6.057724    0.000000    0.000000    0.000000    0.000000
  0.043246493  -32.859138   36.747116 -102.592653    8.887302    0.000000    0.000000    0.000000    0.000000
  0.043446894  -32.672417   38.064812 -101.224106    4.356639    0.000000    0.000000    0.000000    0.000000
  0.043647295  -32.587604   39.985882 -100.701971    7.407693    0.000000    0.000000    0.000000    0.000000
  0.043847695  -32.491286   41.287422 -101.965283   -0.109484    0.000000    0.000000    0.000000    0.000000
  0.044048096  -32.503372   43.155357 -101.289664    7.305623    0.000000    0.000000    0.000000    0.000000
  0.044248497  -32.540104   44.533997 -101.188438    6.610819    0.000000    0.000000    0.000000    0.000000
  0.044448898  -32.641476   45.922138 -102.422423   -0.971775    0.000000    0.000000    0.000000    0.000000
  0.044649299  -32.722300   47.176228 -102.558655    6.264966    0.000000    0.000000    0.000000    0.000000
  0.044849699  -32.909260   48.062279 -100.618790    9.274902    0.000000    0.000000    0.000000    0.000000
  0.045050100  -33.118712   48.703899 -100.137376    9.284252    0.000000    0.000000    0.000000    0.000000
  0.045250501  -33.272947   49.247543 -101.922256   -1.970294    0.000000    0.000000    0.000000    0.000000
  0.045450902  -33.501971   49.007504 -102.009198   12.141895    0.000000    0.000000    0.000000    0.000000
  0.045651303  -33.714544   49.165272 -102.187258   11.928518    0.000000    0.000000    0.000000    0.000000
  0.045851703  -33.841911   48.428963 -102.392276   14.491689    0.000000    0.000000    0.000000    0.000000
  0.046052104  -34.135538   47.360527 -101.228104    5.714973    0.000000    0.000000    0.000000    0.000000
  0.046252505  -34.196806   46.195847 -101.807728    4.424893    0.000000    0.000000    0.000000    0.000000
  0.046452906  -34.246686   44.145355 -103.138223   10.545744    0.000000    0.000000    0.000000    0.000000
  0.046653307  -34.285824   43.005440 -100.197642   -1.901996    0.000000    0.000000    0.000000    0.000000
  0.046853707  -34.277760   41.685883 -100.904668    9.792933    0.000000    0.000000    0.000000    0.000000
  0.047054108  -34.121166   39.796440 -102.838871    4.152479    0.000000    0.000000    0.000000    0.000000
  0.047254509  -33.988603   38.830898 -104.623581    6.908911    0.000000    0.000000    0.000000    0.000000
  0.047454910  -33.734980   37.875885 -103.191766    8.357045    0.000000    0.000000    0.000000    0.000000
  0.047655311  -33.521557   37.783787 -103.563561   -3.119232    0.000000    0.000000    0.000000    0.000000
  0.047855711  -33.362052   37.386158 -102.609350    4.020883    0.000000    0.000000    0.000000    0.000000
  0.048056112  -33.144132   37.302845 -104.352514    2.598291    0.000000    0.000000    0.000000    0.000000
  0.048256513  -32.986174   37.388058 -102.134870    5.541911    0.000000    0.000000    0.000000    0.000000
  0.048456914  -32.836331   37.981773 -103.423830    8.879573    0.000000    0.000000    0.000000    0.000000
  0.048657315  -32.688761   38.788647 -102.100174    1.815049    0.000000    0.000000    0.000000    0.000000
  0.048857715  -32.577403   39.258190 -100.563196   -4.184247    0.000000    0.000000    0.000000    0.000000
  0.049058116  -32.537890   40.360348 -103.724530   -3.457764    0.000000    0.000000    0.000000    0.000000
  0.049258517  -32.449843   41.292183 -103.533297   -3.525149    0.000000    0.000000    0.000000    0.000000
  0.049458918  -32.441010   41.825157 -100.591520    4.904200    0.000000    0.000000    0.000000    0.000000
  0.049659319  -32.516148   42.711430 -102.580917   -5.403665    0.000000    0.000000    0.000000    0.000000
  0.049859719  -32.530710   43.653461 -100.543944   12.503811    0.000000    0.000000    0.000000    0.000000
  0.050060120  -32.580254   44.222992 -103.843282   11.533320    0.000000    0.000000    0.000000    0.000000
  0.050260521  -32.705632   44.422337 -103.991538   14.321837    0.000000    0.000000    0.000000    0.000000
  0.050460922  -32.801373   44.910145 -101.849572    2.058705    0.000000    0.000000    0.000000    0.000000
  0.050661323  -32.828767   45.169098 -102.416675    4.285339    0.000000    0.000000    0.000000    0.000000
  0.050861723  -32.986897   44.594334 -101.798375   23.929136    0.000000    0.000000    0.000000    0.000000
  0.051062124  -33.102160   45.013733 -102.284803  -10.535220    0.000000    0.000000    0.000000    0.000000
  0.051262525  -33.223648   44.054604 -102.254520   -1.711388    0.000000    0.000000    0.000000    0.000000
  0.051462926  -33.278432   43.522289 -103.147560   -4.110566    0.000000    0.000000    0.000000    0.000000
  0.051663327  -33.380675   42.700760 -103.141908   -3.769230    0.000000    0.000000    0.000000    0.000000
  0.051863727  -33.382793   42.229576 -102.605910   -9.527270    0.000000    0.000000    0.000000    0.000000
  0.052064128  -33.374439   40.807217 -103.042133    5.535145    0.000000    0.000000    0.000000    0.000000
  0.052264529  -33.353917   40.337486 -103.366956   -2.587379    0.000000    0.000000    0.000000    0.000000
  0.052464930  -33.233949   39.308464 -104.220698   -6.946561    0.000000    0.000000    0.000000    0.000000
  0.052665331  -33.232925   38.669128 -104.972035   -4.693428    0.000000    0.000000    0.000000    0.000000
  0.052865731  -33.078796   38.237427 -103.226108    1.075763    0.000000    0.000000    0.000000    0.000000
