! Anritsu VNA Master:                     Model: MS2036C/10/77
! SN:                                  1601066
! /card0/usr/18may27.balun/5b.r200.3.s2p
! Existing Calibration Information:
! TYPE:                         Current Settings,       Active Cal Settings
! TIME:             	   05/27/2018 04:07:43 PM,    05/27/2018 03:52:12 PM
! INTERNAL TEMP:    	                   51.5 C,                    52.5 C
! # POINTS:         	                      500,                       500
! START FREQ:       	               20.000 MHz,                20.000 MHz
! STOP FREQ:        	              120.000 MHz,               120.000 MHz
! SOURCE POWER:     	                     High,                      High
! IFBW:             	                    50 Hz,                     50 Hz
! AVG FACTOR:       	                       1 ,                        1 
! REF PLANE 1:      	                     0 mm,                      0 mm
! REF PLANE 2:      	                     0 mm,                      0 mm
! CAL TYPE:         	                 Full S11,                  Full S11
! CAL METHOD:       	                     SOLT,                      SOLT
! CAL LINE TYPE:    	                     Coax,                      Coax
! DUT PORT 1:       	                K-Conn(M),                 K-Conn(M)
! DUT PORT 2:       	                K-Conn(M),                 K-Conn(M)
! CAL STATUS:       	        OK: Accuracy High,                        --
# GHZ S DB R 50.0
! FREQ.GHZ       S11DB        S11A       S21DB        S21A       S12DB        S12A       S22DB        S22A
  0.020000000   -4.548392  -22.262379  -90.482392   38.859055    0.000000    0.000000    0.000000    0.000000
  0.020200401   -4.545595  -22.486546  -90.880000   38.232971    0.000000    0.000000    0.000000    0.000000
  0.020400802   -4.546156  -22.698914  -91.028254   35.365879    0.000000    0.000000    0.000000    0.000000
  0.020601202   -4.544537  -22.938951  -91.185737   34.980812    0.000000    0.000000    0.000000    0.000000
  0.020801603   -4.544047  -23.145388  -91.092715   34.594284    0.000000    0.000000    0.000000    0.000000
  0.021002004   -4.543265  -23.376984  -91.569173   36.714264    0.000000    0.000000    0.000000    0.000000
  0.021202405   -4.543682  -23.613136  -91.154463   31.146919    0.000000    0.000000    0.000000    0.000000
  0.021402806   -4.545647  -23.820639  -91.831689   29.959770    0.000000    0.000000    0.000000    0.000000
  0.021603206   -4.546744  -24.040836  -91.876486   25.719641    0.000000    0.000000    0.000000    0.000000
  0.021803607   -4.548823  -24.257282  -91.663851   31.087948    0.000000    0.000000    0.000000    0.000000
  0.022004008   -4.549589  -24.472170  -92.066565   26.749361    0.000000    0.000000    0.000000    0.000000
  0.022204409   -4.553033  -24.661497  -92.557821   24.158831    0.000000    0.000000    0.000000    0.000000
  0.022404810   -4.550431  -24.877903  -92.599780   24.358253    0.000000    0.000000    0.000000    0.000000
  0.022605210   -4.557903  -25.088377  -92.920685   29.045540    0.000000    0.000000    0.000000    0.000000
  0.022805611   -4.562159  -25.321898  -93.169726   32.276928    0.000000    0.000000    0.000000    0.000000
  0.023006012   -4.560953  -25.544125  -93.057987   28.510035    0.000000    0.000000    0.000000    0.000000
  0.023206413   -4.556080  -25.792986  -93.292440   27.503735    0.000000    0.000000    0.000000    0.000000
  0.023406814   -4.553909  -26.006411  -93.032243   29.746027    0.000000    0.000000    0.000000    0.000000
  0.023607214   -4.550477  -26.249891  -93.401038   22.802977    0.000000    0.000000    0.000000    0.000000
  0.023807615   -4.552607  -26.458889  -93.452754   32.435749    0.000000    0.000000    0.000000    0.000000
  0.024008016   -4.554021  -26.681273  -94.213897   30.904499    0.000000    0.000000    0.000000    0.000000
  0.024208417   -4.555665  -26.898628  -93.765459   30.368725    0.000000    0.000000    0.000000    0.000000
  0.024408818   -4.560279  -27.085936  -93.708213   30.032257    0.000000    0.000000    0.000000    0.000000
  0.024609218   -4.561226  -27.288095  -93.699794   26.971323    0.000000    0.000000    0.000000    0.000000
  0.024809619   -4.565770  -27.495811  -93.756573   21.043617    0.000000    0.000000    0.000000    0.000000
  0.025010020   -4.565465  -27.699478  -94.072463   28.484404    0.000000    0.000000    0.000000    0.000000
  0.025210421   -4.568487  -27.932150  -93.884386   24.790815    0.000000    0.000000    0.000000    0.000000
  0.025410822   -4.572424  -28.162224  -94.174474   24.049965    0.000000    0.000000    0.000000    0.000000
  0.025611222   -4.571712  -28.397585  -94.124505   21.643129    0.000000    0.000000    0.000000    0.000000
  0.025811623   -4.573011  -28.642448  -94.306892   20.409510    0.000000    0.000000    0.000000    0.000000
  0.026012024   -4.575847  -28.891003  -94.578941   19.882734    0.000000    0.000000    0.000000    0.000000
  0.026212425   -4.575118  -29.143307  -94.187590   16.318470    0.000000    0.000000    0.000000    0.000000
  0.026412826   -4.573864  -29.400928  -95.807584   17.613445    0.000000    0.000000    0.000000    0.000000
  0.026613226   -4.573646  -29.653643  -95.316713   19.005333    0.000000    0.000000    0.000000    0.000000
  0.026813627   -4.571239  -29.859856  -94.826330   19.606037    0.000000    0.000000    0.000000    0.000000
  0.027014028   -4.570850  -30.047649  -96.108133   18.344397    0.000000    0.000000    0.000000    0.000000
  0.027214429   -4.574810  -30.248131  -95.728920   16.786440    0.000000    0.000000    0.000000    0.000000
  0.027414830   -4.578226  -30.452036  -96.251302   20.154005    0.000000    0.000000    0.000000    0.000000
  0.027615230   -4.581781  -30.678638  -96.297551   19.253464    0.000000    0.000000    0.000000    0.000000
  0.027815631   -4.588181  -30.917978  -96.527466   19.771030    0.000000    0.000000    0.000000    0.000000
  0.028016032   -4.594555  -31.191111  -97.289400   20.479378    0.000000    0.000000    0.000000    0.000000
  0.028216433   -4.597991  -31.452648  -95.756479   17.354124    0.000000    0.000000    0.000000    0.000000
  0.028416834   -4.593116  -31.744923  -96.734811   16.889885    0.000000    0.000000    0.000000    0.000000
  0.028617234   -4.588788  -32.024334  -96.157898   17.761320    0.000000    0.000000    0.000000    0.000000
  0.028817635   -4.584310  -32.283810  -95.924471   21.710337    0.000000    0.000000    0.000000    0.000000
  0.029018036   -4.582318  -32.526691  -96.447245   24.704880    0.000000    0.000000    0.000000    0.000000
  0.029218437   -4.576581  -32.759068  -96.810596   20.416275    0.000000    0.000000    0.000000    0.000000
  0.029418838   -4.568636  -32.948757  -95.959108   20.460997    0.000000    0.000000    0.000000    0.000000
  0.029619238   -4.565717  -33.120083  -96.537912   20.041346    0.000000    0.000000    0.000000    0.000000
  0.029819639   -4.563148  -33.278893  -97.015862   20.845400    0.000000    0.000000    0.000000    0.000000
  0.030020040   -4.557427  -33.450497  -96.407651   21.740023    0.000000    0.000000    0.000000    0.000000
  0.030220441   -4.560114  -33.615364  -96.566051   13.632090    0.000000    0.000000    0.000000    0.000000
  0.030420842   -4.563862  -33.834652  -96.864933   17.984011    0.000000    0.000000    0.000000    0.000000
  0.030621242   -4.568434  -34.053341  -97.721309   14.700471    0.000000    0.000000    0.000000    0.000000
  0.030821643   -4.571043  -34.274548  -96.903186   13.060635    0.000000    0.000000    0.000000    0.000000
  0.031022044   -4.575744  -34.481586  -97.703544   16.875641    0.000000    0.000000    0.000000    0.000000
  0.031222445   -4.570007  -34.664368  -96.704065   18.587311    0.000000    0.000000    0.000000    0.000000
  0.031422846   -4.576171  -34.898460  -97.167641   10.467157    0.000000    0.000000    0.000000    0.000000
  0.031623246   -4.580895  -35.134449  -97.400323   10.676871    0.000000    0.000000    0.000000    0.000000
  0.031823647   -4.583960  -35.391117  -98.625641   12.045961    0.000000    0.000000    0.000000    0.000000
  0.032024048   -4.582212  -35.626144  -97.021985    9.215808    0.000000    0.000000    0.000000    0.000000
  0.032224449   -4.583913  -35.858921  -98.323418    7.988950    0.000000    0.000000    0.000000    0.000000
  0.032424850   -4.577965  -36.086693  -96.912288   12.408996    0.000000    0.000000    0.000000    0.000000
  0.032625251   -4.576167  -36.306019  -98.489339   16.737200    0.000000    0.000000    0.000000    0.000000
  0.032825651   -4.575428  -36.509789  -97.863338   15.772138    0.000000    0.000000    0.000000    0.000000
  0.033026052   -4.580366  -36.706161  -98.222263   11.076522    0.000000    0.000000    0.000000    0.000000
  0.033226453   -4.588699  -36.899887  -98.601312   22.847925    0.000000    0.000000    0.000000    0.000000
  0.033426854   -4.596811  -37.147499  -97.621527    8.698015    0.000000    0.000000    0.000000    0.000000
  0.033627255   -4.599176  -37.436092  -97.378895    8.113228    0.000000    0.000000    0.000000    0.000000
  0.033827655   -4.604956  -37.743641  -98.712066   11.786933    0.000000    0.000000    0.000000    0.000000
  0.034028056   -4.609419  -38.025661  -98.631311    9.309784    0.000000    0.000000    0.000000    0.000000
  0.034228457   -4.609442  -38.314224  -97.775569   11.727652    0.000000    0.000000    0.000000    0.000000
  0.034428858   -4.607986  -38.578831  -98.080998   19.440783    0.000000    0.000000    0.000000    0.000000
  0.034629259   -4.599264  -38.844715  -98.363354   12.949935    0.000000    0.000000    0.000000    0.000000
  0.034829659   -4.592109  -39.089104  -97.519518   10.950839    0.000000    0.000000    0.000000    0.000000
  0.035030060   -4.583013  -39.312870  -97.997447   -0.285383    0.000000    0.000000    0.000000    0.000000
  0.035230461   -4.574835  -39.538815  -98.720967    8.972589    0.000000    0.000000    0.000000    0.000000
  0.035430862   -4.567661  -39.718975  -98.711303   11.830292    0.000000    0.000000    0.000000    0.000000
  0.035631263   -4.567331  -39.881954  -98.741622   -0.658782    0.000000    0.000000    0.000000    0.000000
  0.035831663   -4.568233  -40.031239  -98.822831    4.409584    0.000000    0.000000    0.000000    0.000000
  0.036032064   -4.570920  -40.241112  -98.697285   -4.057314    0.000000    0.000000    0.000000    0.000000
  0.036232465   -4.572556  -40.435921  -99.946709   -2.113088    0.000000    0.000000    0.000000    0.000000
  0.036432866   -4.578310  -40.660954  -98.475037   -0.675784    0.000000    0.000000    0.000000    0.000000
  0.036633267   -4.582287  -40.864552  -99.347873   11.180676    0.000000    0.000000    0.000000    0.000000
  0.036833667   -4.587616  -41.086269  -99.608334   11.315303    0.000000    0.000000    0.000000    0.000000
  0.037034068   -4.590318  -41.308762  -99.012026   -3.571393    0.000000    0.000000    0.000000    0.000000
  0.037234469   -4.591152  -41.507229  -99.817733    0.319273    0.000000    0.000000    0.000000    0.000000
  0.037434870   -4.593471  -41.731232 -100.788853   14.414824    0.000000    0.000000    0.000000    0.000000
  0.037635271   -4.593039  -41.957989  -99.980915   -0.921746    0.000000    0.000000    0.000000    0.000000
  0.037835671   -4.591100  -42.205391  -99.589473   10.837375    0.000000    0.000000    0.000000    0.000000
  0.038036072   -4.586028  -42.444756 -101.710397    8.035286    0.000000    0.000000    0.000000    0.000000
  0.038236473   -4.582655  -42.637367 -100.514249   10.785060    0.000000    0.000000    0.000000    0.000000
  0.038436874   -4.583386  -42.815922  -98.714496   20.020910    0.000000    0.000000    0.000000    0.000000
  0.038637275   -4.590956  -43.011063 -100.205406    0.557363    0.000000    0.000000    0.000000    0.000000
  0.038837675   -4.599272  -43.201069  -99.163931   13.165813    0.000000    0.000000    0.000000    0.000000
  0.039038076   -4.612259  -43.475887  -98.664485   19.683931    0.000000    0.000000    0.000000    0.000000
  0.039238477   -4.622437  -43.732098  -99.765634    1.941318    0.000000    0.000000    0.000000    0.000000
  0.039438878   -4.629328  -44.035522  -99.321797   -1.707764    0.000000    0.000000    0.000000    0.000000
  0.039639279   -4.634438  -44.325108  -98.982589    5.201511    0.000000    0.000000    0.000000    0.000000
  0.039839679   -4.633176  -44.621925 -101.157315    3.629256    0.000000    0.000000    0.000000    0.000000
  0.040040080   -4.630615  -44.927639 -100.101994    8.400664    0.000000    0.000000    0.000000    0.000000
  0.040240481   -4.624516  -45.190090 -100.035882   10.023760    0.000000    0.000000    0.000000    0.000000
  0.040440882   -4.611978  -45.462585  -99.807446    9.864614    0.000000    0.000000    0.000000    0.000000
  0.040641283   -4.604897  -45.712189 -100.305550    4.832428    0.000000    0.000000    0.000000    0.000000
  0.040841683   -4.598113  -45.933842 -100.514961    7.959436    0.000000    0.000000    0.000000    0.000000
  0.041042084   -4.594180  -46.118881 -100.403171   -1.087633    0.000000    0.000000    0.000000    0.000000
  0.041242485   -4.594737  -46.329758 -101.506312   -0.232289    0.000000    0.000000    0.000000    0.000000
  0.041442886   -4.598815  -46.546188 -100.729231    1.926732    0.000000    0.000000    0.000000    0.000000
  0.041643287   -4.598812  -46.774952 -101.405238   -6.555100    0.000000    0.000000    0.000000    0.000000
  0.041843687   -4.600061  -46.997154 -102.133191    4.199023    0.000000    0.000000    0.000000    0.000000
  0.042044088   -4.602112  -47.220612 -100.547084    4.924698    0.000000    0.000000    0.000000    0.000000
  0.042244489   -4.601675  -47.417614 -101.222547    2.768180    0.000000    0.000000    0.000000    0.000000
  0.042444890   -4.602771  -47.619770 -103.068158    5.196786    0.000000    0.000000    0.000000    0.000000
  0.042645291   -4.601032  -47.819229 -101.290375    4.526419    0.000000    0.000000    0.000000    0.000000
  0.042845691   -4.600915  -48.046844 -101.449717    6.299628    0.000000    0.000000    0.000000    0.000000
  0.043046092   -4.597416  -48.276318 -105.904379   11.049070    0.000000    0.000000    0.000000    0.000000
  0.043246493   -4.592946  -48.498653 -101.932113    7.995336    0.000000    0.000000    0.000000    0.000000
  0.043446894   -4.586847  -48.700363 -100.513090    6.014147    0.000000    0.000000    0.000000    0.000000
  0.043647295   -4.587149  -48.871037 -100.324489   13.412108    0.000000    0.000000    0.000000    0.000000
  0.043847695   -4.585673  -49.015308 -101.044970    0.265529    0.000000    0.000000    0.000000    0.000000
  0.044048096   -4.593448  -49.168003 -102.870104    1.062598    0.000000    0.000000    0.000000    0.000000
  0.044248497   -4.599242  -49.354710 -100.786160    1.884838    0.000000    0.000000    0.000000    0.000000
  0.044448898   -4.609337  -49.569324 -101.744005    3.466100    0.000000    0.000000    0.000000    0.000000
  0.044649299   -4.617821  -49.800209 -100.837584    8.112898    0.000000    0.000000    0.000000    0.000000
  0.044849699   -4.625545  -50.036793 -100.482618   -3.081763    0.000000    0.000000    0.000000    0.000000
  0.045050100   -4.632937  -50.302250 -100.706244   14.432705    0.000000    0.000000    0.000000    0.000000
  0.045250501   -4.638508  -50.572380 -100.001841    1.522845    0.000000    0.000000    0.000000    0.000000
  0.045450902   -4.634808  -50.844360 -101.495030    3.825350    0.000000    0.000000    0.000000    0.000000
  0.045651303   -4.631498  -51.104088 -101.806357    1.255148    0.000000    0.000000    0.000000    0.000000
  0.045851703   -4.622149  -51.370403 -103.954659   -8.578958    0.000000    0.000000    0.000000    0.000000
  0.046052104   -4.618441  -51.596046 -101.404421    3.947213    0.000000    0.000000    0.000000    0.000000
  0.046252505   -4.613816  -51.814278 -101.712605   -4.653283    0.000000    0.000000    0.000000    0.000000
  0.046452906   -4.614391  -51.991615 -101.121213    0.897160    0.000000    0.000000    0.000000    0.000000
  0.046653307   -4.619895  -52.224152 -101.482937   -0.821715    0.000000    0.000000    0.000000    0.000000
  0.046853707   -4.622075  -52.439899 -102.882748   -9.113501    0.000000    0.000000    0.000000    0.000000
  0.047054108   -4.629136  -52.679558 -103.230655    7.254510    0.000000    0.000000    0.000000    0.000000
  0.047254509   -4.630496  -52.907745 -102.482465    0.221148    0.000000    0.000000    0.000000    0.000000
  0.047454910   -4.631184  -53.143169 -102.527995   -0.470276    0.000000    0.000000    0.000000    0.000000
  0.047655311   -4.631876  -53.343800 -104.704816    8.581050    0.000000    0.000000    0.000000    0.000000
  0.047855711   -4.634126  -53.598995 -102.959093  -11.451180    0.000000    0.000000    0.000000    0.000000
  0.048056112   -4.630863  -53.836884 -101.359118    6.905571    0.000000    0.000000    0.000000    0.000000
  0.048256513   -4.629836  -54.064510 -104.668187    0.214295    0.000000    0.000000    0.000000    0.000000
  0.048456914   -4.628913  -54.332287 -101.688056   11.110099    0.000000    0.000000    0.000000    0.000000
  0.048657315   -4.624233  -54.531231 -104.644778   15.655504    0.000000    0.000000    0.000000    0.000000
  0.048857715   -4.622580  -54.775074 -103.583239   14.878317    0.000000    0.000000    0.000000    0.000000
  0.049058116   -4.618439  -54.928738 -102.510061   23.218910    0.000000    0.000000    0.000000    0.000000
  0.049258517   -4.623600  -55.105991 -103.767177    9.697961    0.000000    0.000000    0.000000    0.000000
  0.049458918   -4.628505  -55.280087 -101.555264    4.337626    0.000000    0.000000    0.000000    0.000000
  0.049659319   -4.635242  -55.494572 -100.513150    1.848748    0.000000    0.000000    0.000000    0.000000
  0.049859719   -4.641825  -55.708847 -103.510888    0.080805    0.000000    0.000000    0.000000    0.000000
  0.050060120   -4.649385  -55.944077 -102.025417   -1.944954    0.000000    0.000000    0.000000    0.000000
  0.050260521   -4.658677  -56.174030 -103.256924    4.409892    0.000000    0.000000    0.000000    0.000000
  0.050460922   -4.661143  -56.438618 -102.462970   -5.309299    0.000000    0.000000    0.000000    0.000000
  0.050661323   -4.661839  -56.709389 -100.802946  -14.077246    0.000000    0.000000    0.000000    0.000000
  0.050861723   -4.660943  -56.981647 -102.583979  -16.069752    0.000000    0.000000    0.000000    0.000000
  0.051062124   -4.653218  -57.251003 -105.214762    3.191223    0.000000    0.000000    0.000000    0.000000
  0.051262525   -4.650883  -57.499470 -102.373393   -0.736216    0.000000    0.000000    0.000000    0.000000
  0.051462926   -4.648044  -57.726082 -105.263358   -0.109738    0.000000    0.000000    0.000000    0.000000
  0.051663327   -4.647791  -57.952271 -104.612081  -19.669731    0.000000    0.000000    0.000000    0.000000
  0.051863727   -4.648400  -58.160652 -103.273916   -2.714153    0.000000    0.000000    0.000000    0.000000
  0.052064128   -4.649810  -58.388214 -104.102249    6.583033    0.000000    0.000000    0.000000    0.000000
  0.052264529   -4.658147  -58.621143 -105.573313    6.917814    0.000000    0.000000    0.000000    0.000000
  0.052464930   -4.658351  -58.850441 -104.786823   -4.018068    0.000000    0.000000    0.000000    0.000000
  0.052665331   -4.657181  -59.067272 -103.731269   16.078484    0.000000    0.000000    0.000000    0.000000
  0.052865731   -4.661585  -59.285740 -102.204212    3.153326    0.000000    0.000000    0.000000    0.000000
