! Anritsu VNA Master:                     Model: MS2036C/10/77
! SN:                                  1601066
! /card0/usr/18may27.balun/5b.r20.3.s2p
! Existing Calibration Information:
! TYPE:                         Current Settings,       Active Cal Settings
! TIME:             	   05/27/2018 04:03:30 PM,    05/27/2018 03:52:12 PM
! INTERNAL TEMP:    	                   51.5 C,                    52.5 C
! # POINTS:         	                      500,                       500
! START FREQ:       	               20.000 MHz,                20.000 MHz
! STOP FREQ:        	              120.000 MHz,               120.000 MHz
! SOURCE POWER:     	                     High,                      High
! IFBW:             	                    50 Hz,                     50 Hz
! AVG FACTOR:       	                       1 ,                        1 
! REF PLANE 1:      	                     0 mm,                      0 mm
! REF PLANE 2:      	                     0 mm,                      0 mm
! CAL TYPE:         	                 Full S11,                  Full S11
! CAL METHOD:       	                     SOLT,                      SOLT
! CAL LINE TYPE:    	                     Coax,                      Coax
! DUT PORT 1:       	                K-Conn(M),                 K-Conn(M)
! DUT PORT 2:       	                K-Conn(M),                 K-Conn(M)
! CAL STATUS:       	        OK: Accuracy High,                        --
# GHZ S DB R 50.0
! FREQ.GHZ       S11DB        S11A       S21DB        S21A       S12DB        S12A       S22DB        S22A
  0.020000000   -7.266775  154.658859  -91.599268   39.352886    0.000000    0.000000    0.000000    0.000000
  0.020200401   -7.269810  154.390244  -91.255989   34.604763    0.000000    0.000000    0.000000    0.000000
  0.020400802   -7.270371  154.148285  -92.405732   37.262875    0.000000    0.000000    0.000000    0.000000
  0.020601202   -7.270039  153.901199  -92.512256   39.214226    0.000000    0.000000    0.000000    0.000000
  0.020801603   -7.267133  153.619934  -92.252839   33.779884    0.000000    0.000000    0.000000    0.000000
  0.021002004   -7.265773  153.362793  -92.685973   35.936195    0.000000    0.000000    0.000000    0.000000
  0.021202405   -7.265800  153.119339  -92.560693   37.626804    0.000000    0.000000    0.000000    0.000000
  0.021402806   -7.267904  152.857651  -92.313444   36.711788    0.000000    0.000000    0.000000    0.000000
  0.021603206   -7.273188  152.635773  -91.787911   38.075523    0.000000    0.000000    0.000000    0.000000
  0.021803607   -7.276548  152.352112  -93.094057   32.251293    0.000000    0.000000    0.000000    0.000000
  0.022004008   -7.278084  152.122894  -92.616182   35.291626    0.000000    0.000000    0.000000    0.000000
  0.022204409   -7.276695  151.873230  -92.227332   38.024323    0.000000    0.000000    0.000000    0.000000
  0.022404810   -7.274293  151.594925  -92.333862   27.085123    0.000000    0.000000    0.000000    0.000000
  0.022605210   -7.283798  151.352478  -92.719418   30.886709    0.000000    0.000000    0.000000    0.000000
  0.022805611   -7.282916  151.098511  -92.570548   32.368645    0.000000    0.000000    0.000000    0.000000
  0.023006012   -7.280670  150.843811  -92.805399   30.899591    0.000000    0.000000    0.000000    0.000000
  0.023206413   -7.279359  150.559601  -92.482797   28.586058    0.000000    0.000000    0.000000    0.000000
  0.023406814   -7.275795  150.293839  -92.805463   26.854927    0.000000    0.000000    0.000000    0.000000
  0.023607214   -7.274679  150.018417  -92.881424   25.915590    0.000000    0.000000    0.000000    0.000000
  0.023807615   -7.275939  149.749863  -93.403710   24.317167    0.000000    0.000000    0.000000    0.000000
  0.024008016   -7.275526  149.500381  -93.613570   26.709995    0.000000    0.000000    0.000000    0.000000
  0.024208417   -7.272576  149.269165  -92.881422   24.349257    0.000000    0.000000    0.000000    0.000000
  0.024408818   -7.275101  149.024979  -93.063069   21.732042    0.000000    0.000000    0.000000    0.000000
  0.024609218   -7.280186  148.817657  -94.164171   19.829725    0.000000    0.000000    0.000000    0.000000
  0.024809619   -7.278671  148.587799  -93.884704   24.807236    0.000000    0.000000    0.000000    0.000000
  0.025010020   -7.278494  148.322601  -94.287704   21.192875    0.000000    0.000000    0.000000    0.000000
  0.025210421   -7.283822  148.066788  -95.308484   27.543766    0.000000    0.000000    0.000000    0.000000
  0.025410822   -7.284331  147.814484  -94.493727   22.090767    0.000000    0.000000    0.000000    0.000000
  0.025611222   -7.283459  147.530792  -94.948074   26.049694    0.000000    0.000000    0.000000    0.000000
  0.025811623   -7.283091  147.266022  -95.123292   25.977633    0.000000    0.000000    0.000000    0.000000
  0.026012024   -7.275393  146.990982  -95.156222   25.150984    0.000000    0.000000    0.000000    0.000000
  0.026212425   -7.272411  146.739029  -94.884524   25.796757    0.000000    0.000000    0.000000    0.000000
  0.026412826   -7.270068  146.481842  -95.167786   25.481028    0.000000    0.000000    0.000000    0.000000
  0.026613226   -7.267578  146.262680  -95.482047   25.812994    0.000000    0.000000    0.000000    0.000000
  0.026813627   -7.263681  146.054764  -95.187809   24.403959    0.000000    0.000000    0.000000    0.000000
  0.027014028   -7.267004  145.851944  -95.609465   22.779104    0.000000    0.000000    0.000000    0.000000
  0.027214429   -7.266420  145.675369  -95.345665   20.823011    0.000000    0.000000    0.000000    0.000000
  0.027414830   -7.266926  145.500259  -95.348603   21.212034    0.000000    0.000000    0.000000    0.000000
  0.027615230   -7.270943  145.254776  -95.775986   24.644896    0.000000    0.000000    0.000000    0.000000
  0.027815631   -7.278314  145.032486  -96.016470   14.826777    0.000000    0.000000    0.000000    0.000000
  0.028016032   -7.280404  144.761627  -95.575753   20.405851    0.000000    0.000000    0.000000    0.000000
  0.028216433   -7.283513  144.471756  -96.554065   17.948139    0.000000    0.000000    0.000000    0.000000
  0.028416834   -7.285253  144.199722  -96.298876   18.921589    0.000000    0.000000    0.000000    0.000000
  0.028617234   -7.286564  143.937408  -95.616408   16.917675    0.000000    0.000000    0.000000    0.000000
  0.028817635   -7.288633  143.646759  -95.867066   11.265142    0.000000    0.000000    0.000000    0.000000
  0.029018036   -7.288179  143.362457  -95.889532    9.184348    0.000000    0.000000    0.000000    0.000000
  0.029218437   -7.282983  143.085236  -97.403718   10.809506    0.000000    0.000000    0.000000    0.000000
  0.029418838   -7.280842  142.857712  -97.201542   19.444782    0.000000    0.000000    0.000000    0.000000
  0.029619238   -7.276103  142.614716  -97.437500   14.987583    0.000000    0.000000    0.000000    0.000000
  0.029819639   -7.276412  142.421097  -96.645070   13.952419    0.000000    0.000000    0.000000    0.000000
  0.030020040   -7.276800  142.231583  -96.951386   18.100630    0.000000    0.000000    0.000000    0.000000
  0.030220441   -7.279337  142.013000  -97.223606   16.967974    0.000000    0.000000    0.000000    0.000000
  0.030420842   -7.285588  141.767136  -97.629659   11.615149    0.000000    0.000000    0.000000    0.000000
  0.030621242   -7.293338  141.495422  -97.655005   21.334295    0.000000    0.000000    0.000000    0.000000
  0.030821643   -7.297785  141.185593  -97.429063   21.711351    0.000000    0.000000    0.000000    0.000000
  0.031022044   -7.295194  140.881241  -97.233301   13.689296    0.000000    0.000000    0.000000    0.000000
  0.031222445   -7.283616  140.644318  -97.587369    9.297961    0.000000    0.000000    0.000000    0.000000
  0.031422846   -7.281930  140.330902  -96.739205   11.639524    0.000000    0.000000    0.000000    0.000000
  0.031623246   -7.274452  140.054092  -99.330502   13.645390    0.000000    0.000000    0.000000    0.000000
  0.031823647   -7.270010  139.806870  -97.660949   12.612648    0.000000    0.000000    0.000000    0.000000
  0.032024048   -7.264562  139.572296  -97.694602   11.875057    0.000000    0.000000    0.000000    0.000000
  0.032224449   -7.252978  139.338028  -97.884119   10.646773    0.000000    0.000000    0.000000    0.000000
  0.032424850   -7.246005  139.128616  -96.569154   16.289892    0.000000    0.000000    0.000000    0.000000
  0.032625251   -7.240025  138.925262  -98.015203   16.545137    0.000000    0.000000    0.000000    0.000000
  0.032825651   -7.238932  138.721359  -98.372744   19.866184    0.000000    0.000000    0.000000    0.000000
  0.033026052   -7.240003  138.516571  -98.555683   15.644313    0.000000    0.000000    0.000000    0.000000
  0.033226453   -7.242997  138.330139  -97.253217   11.724157    0.000000    0.000000    0.000000    0.000000
  0.033426854   -7.247974  138.061829  -98.912249   11.532354    0.000000    0.000000    0.000000    0.000000
  0.033627255   -7.253459  137.819702  -98.311393   10.485331    0.000000    0.000000    0.000000    0.000000
  0.033827655   -7.254699  137.584976  -97.123219    9.069404    0.000000    0.000000    0.000000    0.000000
  0.034028056   -7.260903  137.293900  -99.005741    4.011575    0.000000    0.000000    0.000000    0.000000
  0.034228457   -7.263455  137.020813  -99.855782   -1.591802    0.000000    0.000000    0.000000    0.000000
  0.034428858   -7.270493  136.783905  -97.577268   11.248891    0.000000    0.000000    0.000000    0.000000
  0.034629259   -7.269241  136.507813  -98.857880   10.209333    0.000000    0.000000    0.000000    0.000000
  0.034829659   -7.267920  136.243256  -98.949627   -2.268436    0.000000    0.000000    0.000000    0.000000
  0.035030060   -7.261383  135.984009  -99.035740   11.494560    0.000000    0.000000    0.000000    0.000000
  0.035230461   -7.255838  135.730026  -99.359895   14.009289    0.000000    0.000000    0.000000    0.000000
  0.035430862   -7.249024  135.529633  -99.095734   20.023438    0.000000    0.000000    0.000000    0.000000
  0.035631263   -7.247068  135.318130  -98.513400   11.793522    0.000000    0.000000    0.000000    0.000000
  0.035831663   -7.250649  135.117813  -98.767416    9.753732    0.000000    0.000000    0.000000    0.000000
  0.036032064   -7.256307  134.912460  -98.565295   10.005739    0.000000    0.000000    0.000000    0.000000
  0.036232465   -7.267592  134.636612  -98.497689    6.915347    0.000000    0.000000    0.000000    0.000000
  0.036432866   -7.274446  134.377472  -98.878517    7.937654    0.000000    0.000000    0.000000    0.000000
  0.036633267   -7.279330  134.027344  -99.004531   19.576324    0.000000    0.000000    0.000000    0.000000
  0.036833667   -7.281014  133.758774  -99.212346   11.798023    0.000000    0.000000    0.000000    0.000000
  0.037034068   -7.279149  133.453262  -98.456872   19.031584    0.000000    0.000000    0.000000    0.000000
  0.037234469   -7.277995  133.157974  -98.655321    3.090918    0.000000    0.000000    0.000000    0.000000
  0.037434870   -7.268622  132.883728  -99.808418   15.834975    0.000000    0.000000    0.000000    0.000000
  0.037635271   -7.259574  132.617523 -100.280821    4.107052    0.000000    0.000000    0.000000    0.000000
  0.037835671   -7.246590  132.373184 -100.261248    1.871382    0.000000    0.000000    0.000000    0.000000
  0.038036072   -7.239257  132.131790  -98.506556    4.288807    0.000000    0.000000    0.000000    0.000000
  0.038236473   -7.234324  131.955292  -99.139153   11.590599    0.000000    0.000000    0.000000    0.000000
  0.038436874   -7.233590  131.781631 -100.989609    6.150854    0.000000    0.000000    0.000000    0.000000
  0.038637275   -7.231812  131.576263 -101.872293   -0.227349    0.000000    0.000000    0.000000    0.000000
  0.038837675   -7.236403  131.359116 -100.229084    6.814457    0.000000    0.000000    0.000000    0.000000
  0.039038076   -7.239483  131.119553 -100.533405   13.821098    0.000000    0.000000    0.000000    0.000000
  0.039238477   -7.243686  130.874542 -100.758652   10.346225    0.000000    0.000000    0.000000    0.000000
  0.039438878   -7.245390  130.646301 -100.884039    6.734144    0.000000    0.000000    0.000000    0.000000
  0.039639279   -7.246948  130.413757 -100.679457    2.359298    0.000000    0.000000    0.000000    0.000000
  0.039839679   -7.250539  130.163742 -102.017309   -2.046931    0.000000    0.000000    0.000000    0.000000
  0.040040080   -7.248793  129.935547 -100.345012   13.737368    0.000000    0.000000    0.000000    0.000000
  0.040240481   -7.242768  129.672623 -100.455779   17.703756    0.000000    0.000000    0.000000    0.000000
  0.040440882   -7.238345  129.412369 -101.831619    8.324541    0.000000    0.000000    0.000000    0.000000
  0.040641283   -7.232621  129.165894 -102.338020   19.193140    0.000000    0.000000    0.000000    0.000000
  0.040841683   -7.226273  128.971954 -101.401273   18.899002    0.000000    0.000000    0.000000    0.000000
  0.041042084   -7.227948  128.771301  -99.670660    3.224708    0.000000    0.000000    0.000000    0.000000
  0.041242485   -7.231083  128.582565 -100.520058    1.854297    0.000000    0.000000    0.000000    0.000000
  0.041442886   -7.242502  128.404831 -100.756154    8.272858    0.000000    0.000000    0.000000    0.000000
  0.041643287   -7.251254  128.137543  -99.984511   17.419209    0.000000    0.000000    0.000000    0.000000
  0.041843687   -7.262287  127.878357  -99.706893    4.329155    0.000000    0.000000    0.000000    0.000000
  0.042044088   -7.265259  127.631485  -99.722733   11.502789    0.000000    0.000000    0.000000    0.000000
  0.042244489   -7.271986  127.315262  -99.041258    0.430891    0.000000    0.000000    0.000000    0.000000
  0.042444890   -7.275580  127.034012  -99.751499    6.339823    0.000000    0.000000    0.000000    0.000000
  0.042645291   -7.272832  126.728638 -101.285580   -0.643835    0.000000    0.000000    0.000000    0.000000
  0.042845691   -7.269824  126.452988 -100.303217    4.314955    0.000000    0.000000    0.000000    0.000000
  0.043046092   -7.261531  126.136490 -100.820625    8.311255    0.000000    0.000000    0.000000    0.000000
  0.043246493   -7.252906  125.895676 -100.676916   -3.035196    0.000000    0.000000    0.000000    0.000000
  0.043446894   -7.248922  125.667938 -102.524366    0.746505    0.000000    0.000000    0.000000    0.000000
  0.043647295   -7.245041  125.422737 -100.021928    5.380341    0.000000    0.000000    0.000000    0.000000
  0.043847695   -7.249805  125.188828 -101.033146    5.005048    0.000000    0.000000    0.000000    0.000000
  0.044048096   -7.252004  124.963478 -101.414410    7.733294    0.000000    0.000000    0.000000    0.000000
  0.044248497   -7.254161  124.695374 -102.784060   14.868518    0.000000    0.000000    0.000000    0.000000
  0.044448898   -7.254764  124.415039 -103.838084   12.461590    0.000000    0.000000    0.000000    0.000000
  0.044649299   -7.255301  124.180817 -103.782262    1.844112    0.000000    0.000000    0.000000    0.000000
  0.044849699   -7.255905  123.921082 -101.332420   12.378801    0.000000    0.000000    0.000000    0.000000
  0.045050100   -7.258036  123.668007 -101.220119    1.746135    0.000000    0.000000    0.000000    0.000000
  0.045250501   -7.255322  123.433716 -101.910735    7.493904    0.000000    0.000000    0.000000    0.000000
  0.045450902   -7.256320  123.155144 -100.570294  -14.012856    0.000000    0.000000    0.000000    0.000000
  0.045651303   -7.247046  122.884842 -106.375436    6.851407    0.000000    0.000000    0.000000    0.000000
  0.045851703   -7.239128  122.610504 -102.009932    6.605773    0.000000    0.000000    0.000000    0.000000
  0.046052104   -7.233579  122.369354 -103.874906   14.353806    0.000000    0.000000    0.000000    0.000000
  0.046252505   -7.224804  122.155121 -102.247055    7.118649    0.000000    0.000000    0.000000    0.000000
  0.046452906   -7.226579  121.972000 -103.635388    6.401827    0.000000    0.000000    0.000000    0.000000
  0.046653307   -7.224502  121.793404 -100.722104    4.238443    0.000000    0.000000    0.000000    0.000000
  0.046853707   -7.233153  121.587654 -100.412483   10.297829    0.000000    0.000000    0.000000    0.000000
  0.047054108   -7.237260  121.349754 -100.816316    4.959640    0.000000    0.000000    0.000000    0.000000
  0.047254509   -7.243032  121.131645 -100.580478    3.114058    0.000000    0.000000    0.000000    0.000000
  0.047454910   -7.249771  120.866768 -102.259697    5.276146    0.000000    0.000000    0.000000    0.000000
  0.047655311   -7.255095  120.586700 -101.402150   -3.760829    0.000000    0.000000    0.000000    0.000000
  0.047855711   -7.255029  120.325027 -101.566897   -2.829357    0.000000    0.000000    0.000000    0.000000
  0.048056112   -7.252660  120.048248 -103.126433    4.033861    0.000000    0.000000    0.000000    0.000000
  0.048256513   -7.243833  119.730553 -102.831551   -5.371986    0.000000    0.000000    0.000000    0.000000
  0.048456914   -7.236367  119.491875 -102.044122    5.284026    0.000000    0.000000    0.000000    0.000000
  0.048657315   -7.232520  119.232208 -103.572656    3.800702    0.000000    0.000000    0.000000    0.000000
  0.048857715   -7.224289  119.025566 -103.232449   -1.743878    0.000000    0.000000    0.000000    0.000000
  0.049058116   -7.226119  118.794037 -104.004790  -12.065858    0.000000    0.000000    0.000000    0.000000
  0.049258517   -7.228251  118.571648 -104.602444    5.593515    0.000000    0.000000    0.000000    0.000000
  0.049458918   -7.230300  118.348274 -102.611667    4.905846    0.000000    0.000000    0.000000    0.000000
  0.049659319   -7.232307  118.105255 -104.596878   -2.521523    0.000000    0.000000    0.000000    0.000000
  0.049859719   -7.232080  117.866043 -106.624957   -2.706220    0.000000    0.000000    0.000000    0.000000
  0.050060120   -7.235722  117.624245 -102.916488  -12.918266    0.000000    0.000000    0.000000    0.000000
  0.050260521   -7.231863  117.374054 -103.092049   -0.529496    0.000000    0.000000    0.000000    0.000000
  0.050460922   -7.234841  117.132195 -103.128706  -10.476837    0.000000    0.000000    0.000000    0.000000
  0.050661323   -7.231770  116.877419 -102.637803   14.800147    0.000000    0.000000    0.000000    0.000000
  0.050861723   -7.227951  116.581886 -101.734831    4.479815    0.000000    0.000000    0.000000    0.000000
  0.051062124   -7.225311  116.307373 -101.994038    6.792735    0.000000    0.000000    0.000000    0.000000
  0.051262525   -7.216325  116.084213 -102.948259    9.910642    0.000000    0.000000    0.000000    0.000000
  0.051462926   -7.215042  115.852943 -101.351071   13.637607    0.000000    0.000000    0.000000    0.000000
  0.051663327   -7.208326  115.663162 -102.462563    7.570276    0.000000    0.000000    0.000000    0.000000
  0.051863727   -7.208159  115.474319 -105.373163    5.336217    0.000000    0.000000    0.000000    0.000000
  0.052064128   -7.207491  115.271133 -102.874790    0.662198    0.000000    0.000000    0.000000    0.000000
  0.052264529   -7.209042  115.053131 -102.260886   -0.330859    0.000000    0.000000    0.000000    0.000000
  0.052464930   -7.214780  114.841827 -101.105842    0.067185    0.000000    0.000000    0.000000    0.000000
  0.052665331   -7.219826  114.591484 -103.499871   -0.167273    0.000000    0.000000    0.000000    0.000000
  0.052865731   -7.223080  114.355339 -101.600785    3.760478    0.000000    0.000000    0.000000    0.000000
