! Anritsu VNA Master:                     Model: MS2036C/10/77
! SN:                                  1601066
! /bd0/18may10/255.ew.m1.s2p
! Existing Calibration Information:
! TYPE:                         Current Settings,       Active Cal Settings
! TIME:             	   05/10/2018 01:39:26 PM,    05/10/2018 01:36:00 PM
! INTERNAL TEMP:    	                   55.0 C,                    54.5 C
! # POINTS:         	                      492,                       492
! START FREQ:       	               20.000 MHz,                20.000 MHz
! STOP FREQ:        	          118.396 793 MHz,           118.396 793 MHz
! SOURCE POWER:     	                     High,                      High
! IFBW:             	                    50 Hz,                     50 Hz
! AVG FACTOR:       	                       1 ,                        1 
! REF PLANE 1:      	                     0 mm,                      0 mm
! REF PLANE 2:      	                     0 mm,                      0 mm
! CAL TYPE:         	                 Full S22,                  Full S22
! CAL METHOD:       	                     SOLT,                      SOLT
! CAL LINE TYPE:    	                     Coax,                      Coax
! DUT PORT 1:       	                K-Conn(M),                 K-Conn(M)
! DUT PORT 2:       	                K-Conn(M),                 K-Conn(M)
! CAL STATUS:       	        OK: Accuracy High,                        --
# GHZ S DB R 50.0
! FREQ.GHZ       S11DB        S11A       S21DB        S21A       S12DB        S12A       S22DB        S22A
  0.020000000    0.000000    0.000000    0.000000    0.000000  -89.390202   34.403717   -0.907981 -125.653503
  0.020200401    0.000000    0.000000    0.000000    0.000000  -89.621279   36.721836   -0.917737 -127.095970
  0.020400802    0.000000    0.000000    0.000000    0.000000  -90.399656   32.476765   -0.927949 -128.533401
  0.020601202    0.000000    0.000000    0.000000    0.000000  -90.509018   34.705994   -0.936917 -129.996262
  0.020801603    0.000000    0.000000    0.000000    0.000000  -91.062421   32.732826   -0.948754 -131.486923
  0.021002004    0.000000    0.000000    0.000000    0.000000  -91.014334   35.642326   -0.956415 -132.984497
  0.021202405    0.000000    0.000000    0.000000    0.000000  -91.358698   37.722725   -0.966607 -134.489746
  0.021402806    0.000000    0.000000    0.000000    0.000000  -91.616627   37.177631   -0.976408 -135.983841
  0.021603206    0.000000    0.000000    0.000000    0.000000  -91.507439   40.445511   -0.983875 -137.476440
  0.021803607    0.000000    0.000000    0.000000    0.000000  -91.345540   43.090961   -0.994582 -138.976089
  0.022004008    0.000000    0.000000    0.000000    0.000000  -92.581564   41.918396   -1.005775 -140.467850
  0.022204409    0.000000    0.000000    0.000000    0.000000  -91.843280   40.618500   -1.016650 -141.986679
  0.022404810    0.000000    0.000000    0.000000    0.000000  -91.793276   40.605789   -1.031113 -143.529999
  0.022605210    0.000000    0.000000    0.000000    0.000000  -91.482511   39.015675   -1.039794 -145.078796
  0.022805611    0.000000    0.000000    0.000000    0.000000  -91.717910   44.407139   -1.046752 -146.640793
  0.023006012    0.000000    0.000000    0.000000    0.000000  -91.576840   40.281124   -1.055218 -148.194046
  0.023206413    0.000000    0.000000    0.000000    0.000000  -91.860970   38.903950   -1.065520 -149.748260
  0.023406814    0.000000    0.000000    0.000000    0.000000  -91.447851   40.330795   -1.075537 -151.296875
  0.023607214    0.000000    0.000000    0.000000    0.000000  -90.705382   39.397129   -1.088695 -152.858047
  0.023807615    0.000000    0.000000    0.000000    0.000000  -91.458261   35.986534   -1.101299 -154.429398
  0.024008016    0.000000    0.000000    0.000000    0.000000  -91.678291   32.058784   -1.113486 -156.039993
  0.024208417    0.000000    0.000000    0.000000    0.000000  -91.357054   35.539059   -1.126202 -157.661240
  0.024408818    0.000000    0.000000    0.000000    0.000000  -91.363594   35.977753   -1.136421 -159.292572
  0.024609218    0.000000    0.000000    0.000000    0.000000  -91.231437   30.491365   -1.147397 -160.905685
  0.024809619    0.000000    0.000000    0.000000    0.000000  -91.345310   33.469288   -1.162824 -162.546570
  0.025010020    0.000000    0.000000    0.000000    0.000000  -91.740042   28.671871   -1.176368 -164.184814
  0.025210421    0.000000    0.000000    0.000000    0.000000  -91.829206   28.529280   -1.192634 -165.824142
  0.025410822    0.000000    0.000000    0.000000    0.000000  -92.137904   27.674910   -1.208303 -167.483948
  0.025611222    0.000000    0.000000    0.000000    0.000000  -92.441699   25.125706   -1.224176 -169.152756
  0.025811623    0.000000    0.000000    0.000000    0.000000  -92.825899   30.029736   -1.241099 -170.843811
  0.026012024    0.000000    0.000000    0.000000    0.000000  -92.981218   23.352648   -1.257751 -172.546295
  0.026212425    0.000000    0.000000    0.000000    0.000000  -93.427608   26.486973   -1.273206 -174.254379
  0.026412826    0.000000    0.000000    0.000000    0.000000  -93.269518   24.712320   -1.292771 -175.966278
  0.026613226    0.000000    0.000000    0.000000    0.000000  -93.747665   26.864264   -1.311588 -177.693024
  0.026813627    0.000000    0.000000    0.000000    0.000000  -93.925632   26.161270   -1.331679 -179.430695
  0.027014028    0.000000    0.000000    0.000000    0.000000  -94.853130   32.557816   -1.352710  178.835724
  0.027214429    0.000000    0.000000    0.000000    0.000000  -94.511700   25.199455   -1.373818  177.078522
  0.027414830    0.000000    0.000000    0.000000    0.000000  -95.375189   29.137526   -1.396278  175.330063
  0.027615230    0.000000    0.000000    0.000000    0.000000  -94.617238   28.663660   -1.419489  173.558334
  0.027815631    0.000000    0.000000    0.000000    0.000000  -95.022240   33.353992   -1.443070  171.777603
  0.028016032    0.000000    0.000000    0.000000    0.000000  -94.723946   30.172243   -1.467296  169.994827
  0.028216433    0.000000    0.000000    0.000000    0.000000  -94.697274   25.356895   -1.493414  168.183701
  0.028416834    0.000000    0.000000    0.000000    0.000000  -94.187293   29.933458   -1.520582  166.375717
  0.028617234    0.000000    0.000000    0.000000    0.000000  -94.076535   35.548050   -1.546209  164.556198
  0.028817635    0.000000    0.000000    0.000000    0.000000  -94.293551   28.949320   -1.573503  162.734039
  0.029018036    0.000000    0.000000    0.000000    0.000000  -94.539893   30.669943   -1.601382  160.916382
  0.029218437    0.000000    0.000000    0.000000    0.000000  -94.624287   31.150843   -1.632812  159.070236
  0.029418838    0.000000    0.000000    0.000000    0.000000  -94.241348   30.071711   -1.663000  157.220245
  0.029619238    0.000000    0.000000    0.000000    0.000000  -93.780379   33.987255   -1.693895  155.351471
  0.029819639    0.000000    0.000000    0.000000    0.000000  -93.486917   28.802601   -1.723928  153.482010
  0.030020040    0.000000    0.000000    0.000000    0.000000  -94.257111   30.813402   -1.757034  151.609161
  0.030220441    0.000000    0.000000    0.000000    0.000000  -93.943531   26.906048   -1.788463  149.725403
  0.030420842    0.000000    0.000000    0.000000    0.000000  -94.789372   29.029499   -1.821217  147.835083
  0.030621242    0.000000    0.000000    0.000000    0.000000  -94.364774   27.859911   -1.854979  145.957382
  0.030821643    0.000000    0.000000    0.000000    0.000000  -94.584131   22.217415   -1.891610  144.065063
  0.031022044    0.000000    0.000000    0.000000    0.000000  -94.811679   24.111818   -1.925768  142.138611
  0.031222445    0.000000    0.000000    0.000000    0.000000  -94.704115   16.076138   -1.956520  140.237808
  0.031422846    0.000000    0.000000    0.000000    0.000000  -94.289073   22.857460   -1.993904  138.283401
  0.031623246    0.000000    0.000000    0.000000    0.000000  -94.305764   15.621902   -2.031093  136.327972
  0.031823647    0.000000    0.000000    0.000000    0.000000  -94.715819   21.517036   -2.069178  134.364838
  0.032024048    0.000000    0.000000    0.000000    0.000000  -96.106022   17.005388   -2.109710  132.414673
  0.032224449    0.000000    0.000000    0.000000    0.000000  -95.680371   12.263548   -2.148156  130.433807
  0.032424850    0.000000    0.000000    0.000000    0.000000  -94.410344   18.971699   -2.190052  128.456696
  0.032625250    0.000000    0.000000    0.000000    0.000000  -95.262526   13.510633   -2.230823  126.462158
  0.032825651    0.000000    0.000000    0.000000    0.000000  -96.412343   20.384674   -2.272700  124.452728
  0.033026052    0.000000    0.000000    0.000000    0.000000  -96.064377   23.476212   -2.314519  122.430649
  0.033226453    0.000000    0.000000    0.000000    0.000000  -96.143030   22.193211   -2.357064  120.418816
  0.033426854    0.000000    0.000000    0.000000    0.000000  -95.499668   24.942722   -2.399070  118.382713
  0.033627254    0.000000    0.000000    0.000000    0.000000  -97.381617   21.799603   -2.443075  116.366974
  0.033827655    0.000000    0.000000    0.000000    0.000000  -96.035594   26.658590   -2.488313  114.359314
  0.034028056    0.000000    0.000000    0.000000    0.000000  -96.278236   25.767839   -2.531051  112.333031
  0.034228457    0.000000    0.000000    0.000000    0.000000  -96.777033   25.100079   -2.579575  110.292564
  0.034428858    0.000000    0.000000    0.000000    0.000000  -96.464079   27.364017   -2.625372  108.234947
  0.034629258    0.000000    0.000000    0.000000    0.000000  -96.937616   26.222494   -2.671118  106.164413
  0.034829659    0.000000    0.000000    0.000000    0.000000  -96.084773   22.679520   -2.718923  104.122581
  0.035030060    0.000000    0.000000    0.000000    0.000000  -95.806520   24.949444   -2.766925  102.054352
  0.035230461    0.000000    0.000000    0.000000    0.000000  -95.771837   34.053368   -2.816325   99.987473
  0.035430862    0.000000    0.000000    0.000000    0.000000  -95.415573   30.532295   -2.863633   97.917969
  0.035631262    0.000000    0.000000    0.000000    0.000000  -96.160034   33.593468   -2.914633   95.852882
  0.035831663    0.000000    0.000000    0.000000    0.000000  -95.880546   21.556581   -2.964975   93.792236
  0.036032064    0.000000    0.000000    0.000000    0.000000  -95.421966   28.202709   -3.010775   91.713516
  0.036232465    0.000000    0.000000    0.000000    0.000000  -96.437310   18.963326   -3.060887   89.631340
  0.036432866    0.000000    0.000000    0.000000    0.000000  -95.724596   23.234661   -3.107861   87.546585
  0.036633266    0.000000    0.000000    0.000000    0.000000  -96.793930   21.820093   -3.153101   85.454651
  0.036833667    0.000000    0.000000    0.000000    0.000000  -96.869624   21.375978   -3.197463   83.372063
  0.037034068    0.000000    0.000000    0.000000    0.000000  -95.936739   20.001995   -3.241714   81.270744
  0.037234469    0.000000    0.000000    0.000000    0.000000  -96.470352   22.048735   -3.281060   79.158974
  0.037434870    0.000000    0.000000    0.000000    0.000000  -97.692293   25.339661   -3.316392   76.995659
  0.037635270    0.000000    0.000000    0.000000    0.000000  -97.264461   16.893501   -3.352343   74.777893
  0.037835671    0.000000    0.000000    0.000000    0.000000  -96.684698   18.531073   -3.393116   72.482803
  0.038036072    0.000000    0.000000    0.000000    0.000000  -98.228882   25.721203   -3.449041   70.126389
  0.038236473    0.000000    0.000000    0.000000    0.000000  -99.951415   24.698248   -3.519909   67.790390
  0.038436874    0.000000    0.000000    0.000000    0.000000  -98.172435   23.546133   -3.601772   65.538147
  0.038637274    0.000000    0.000000    0.000000    0.000000  -98.005046   22.769777   -3.679496   63.340702
  0.038837675    0.000000    0.000000    0.000000    0.000000  -98.126910   22.090368   -3.750693   61.220139
  0.039038076    0.000000    0.000000    0.000000    0.000000  -97.756970   16.155804   -3.818751   59.130054
  0.039238477    0.000000    0.000000    0.000000    0.000000  -97.489417   27.873142   -3.878449   57.024742
  0.039438878    0.000000    0.000000    0.000000    0.000000  -99.738589   25.085068   -3.939829   54.944717
  0.039639278    0.000000    0.000000    0.000000    0.000000  -97.315684   28.801395   -4.001578   52.842972
  0.039839679    0.000000    0.000000    0.000000    0.000000  -98.467621   24.913671   -4.055691   50.742058
  0.040040080    0.000000    0.000000    0.000000    0.000000  -97.089250   29.623947   -4.108275   48.627140
  0.040240481    0.000000    0.000000    0.000000    0.000000  -98.178833   30.597963   -4.162115   46.523754
  0.040440882    0.000000    0.000000    0.000000    0.000000  -97.996728   26.298439   -4.212566   44.408173
  0.040641283    0.000000    0.000000    0.000000    0.000000  -97.579072   31.594488   -4.262626   42.303680
  0.040841683    0.000000    0.000000    0.000000    0.000000  -97.745570   32.178486   -4.314530   40.210022
  0.041042084    0.000000    0.000000    0.000000    0.000000  -97.408533   24.001963   -4.367129   38.136536
  0.041242485    0.000000    0.000000    0.000000    0.000000  -97.237070   22.932585   -4.415608   36.033825
  0.041442886    0.000000    0.000000    0.000000    0.000000  -97.996718   27.914139   -4.466699   33.951523
  0.041643287    0.000000    0.000000    0.000000    0.000000  -97.862079   18.886755   -4.515841   31.840296
  0.041843687    0.000000    0.000000    0.000000    0.000000  -98.597294   29.841499   -4.566083   29.721186
  0.042044088    0.000000    0.000000    0.000000    0.000000  -97.383604   26.556406   -4.614440   27.642376
  0.042244489    0.000000    0.000000    0.000000    0.000000  -98.350500   32.726368   -4.659105   25.557806
  0.042444890    0.000000    0.000000    0.000000    0.000000  -98.868669   21.383057   -4.707223   23.500952
  0.042645291    0.000000    0.000000    0.000000    0.000000  -97.821442   27.162443   -4.754594   21.442541
  0.042845691    0.000000    0.000000    0.000000    0.000000  -97.739278   21.721691   -4.801629   19.384169
  0.043046092    0.000000    0.000000    0.000000    0.000000  -97.966998   23.396896   -4.846131   17.326008
  0.043246493    0.000000    0.000000    0.000000    0.000000  -99.397553   33.625366   -4.890636   15.270288
  0.043446894    0.000000    0.000000    0.000000    0.000000  -98.607015   29.648649   -4.933953   13.225936
  0.043647295    0.000000    0.000000    0.000000    0.000000  -97.915774   21.776217   -4.973311   11.195429
  0.043847695    0.000000    0.000000    0.000000    0.000000  -97.645866   31.230446   -5.014211    9.153302
  0.044048096    0.000000    0.000000    0.000000    0.000000  -98.962498   32.858055   -5.055753    7.154481
  0.044248497    0.000000    0.000000    0.000000    0.000000  -99.349866   30.081621   -5.095318    5.127701
  0.044448898    0.000000    0.000000    0.000000    0.000000 -100.377784   29.023865   -5.134772    3.151296
  0.044649299    0.000000    0.000000    0.000000    0.000000  -98.329314   26.183558   -5.173205    1.153916
  0.044849699    0.000000    0.000000    0.000000    0.000000  -98.767468   26.988071   -5.209912   -0.812254
  0.045050100    0.000000    0.000000    0.000000    0.000000  -98.832166   32.368004   -5.242933   -2.815790
  0.045250501    0.000000    0.000000    0.000000    0.000000  -99.627403   32.391083   -5.276351   -4.774747
  0.045450902    0.000000    0.000000    0.000000    0.000000  -98.196385   34.481815   -5.306552   -6.760757
  0.045651303    0.000000    0.000000    0.000000    0.000000  -97.925788   26.092869   -5.339775   -8.705760
  0.045851703    0.000000    0.000000    0.000000    0.000000  -98.678335   38.443466   -5.367870  -10.637947
  0.046052104    0.000000    0.000000    0.000000    0.000000  -97.684214   24.270229   -5.397414  -12.577188
  0.046252505    0.000000    0.000000    0.000000    0.000000  -99.289341   36.349739   -5.429112  -14.492027
  0.046452906    0.000000    0.000000    0.000000    0.000000  -99.198122   30.045759   -5.456277  -16.385548
  0.046653307    0.000000    0.000000    0.000000    0.000000  -97.771875   26.568262   -5.482366  -18.296087
  0.046853707    0.000000    0.000000    0.000000    0.000000  -99.249569   33.990955   -5.509490  -20.183506
  0.047054108    0.000000    0.000000    0.000000    0.000000  -99.151576   34.049557   -5.537095  -22.072460
  0.047254509    0.000000    0.000000    0.000000    0.000000  -99.642499   39.171436   -5.560388  -23.962278
  0.047454910    0.000000    0.000000    0.000000    0.000000  -98.500941   30.714708   -5.581356  -25.833603
  0.047655311    0.000000    0.000000    0.000000    0.000000  -98.998397   29.770765   -5.601813  -27.682409
  0.047855711    0.000000    0.000000    0.000000    0.000000  -99.628472   18.830374   -5.624286  -29.504406
  0.048056112    0.000000    0.000000    0.000000    0.000000  -99.036042   28.537468   -5.648762  -31.343929
  0.048256513    0.000000    0.000000    0.000000    0.000000  -99.121277   29.147652   -5.671555  -33.138504
  0.048456914    0.000000    0.000000    0.000000    0.000000  -98.184211   25.275856   -5.689299  -34.927818
  0.048657315    0.000000    0.000000    0.000000    0.000000 -100.787167   25.945410   -5.709208  -36.748905
  0.048857715    0.000000    0.000000    0.000000    0.000000  -99.467077   36.710106   -5.726342  -38.543514
  0.049058116    0.000000    0.000000    0.000000    0.000000  -98.634432   25.096697   -5.743837  -40.319466
  0.049258517    0.000000    0.000000    0.000000    0.000000  -99.726812   22.199972   -5.761235  -42.078735
  0.049458918    0.000000    0.000000    0.000000    0.000000  -99.495983   30.957218   -5.778457  -43.822079
  0.049659319    0.000000    0.000000    0.000000    0.000000  -99.237318   22.749756   -5.796446  -45.557652
  0.049859719    0.000000    0.000000    0.000000    0.000000  -99.179697   29.415327   -5.811881  -47.279526
  0.050060120    0.000000    0.000000    0.000000    0.000000 -100.013513   37.717594   -5.827724  -48.987541
  0.050260521    0.000000    0.000000    0.000000    0.000000 -100.724299   30.700111   -5.840338  -50.702679
  0.050460922    0.000000    0.000000    0.000000    0.000000  -98.282999   34.508675   -5.854203  -52.425430
  0.050661323    0.000000    0.000000    0.000000    0.000000  -98.930420   39.750866   -5.863598  -54.109146
  0.050861723    0.000000    0.000000    0.000000    0.000000  -98.320567   34.665752   -5.873156  -55.801785
  0.051062124    0.000000    0.000000    0.000000    0.000000 -100.422973   36.657841   -5.888735  -57.473015
  0.051262525    0.000000    0.000000    0.000000    0.000000  -98.182494   46.719353   -5.899796  -59.117352
  0.051462926    0.000000    0.000000    0.000000    0.000000  -98.973485   25.857563   -5.910478  -60.749062
  0.051663327    0.000000    0.000000    0.000000    0.000000  -99.936360   32.759224   -5.919815  -62.378212
  0.051863727    0.000000    0.000000    0.000000    0.000000  -98.973318   28.364819   -5.926285  -64.011299
  0.052064128    0.000000    0.000000    0.000000    0.000000  -99.130465   33.366753   -5.935969  -65.623871
  0.052264529    0.000000    0.000000    0.000000    0.000000  -99.108669   28.760237   -5.939124  -67.218575
  0.052464930    0.000000    0.000000    0.000000    0.000000  -98.191140   24.302860   -5.944333  -68.818504
  0.052665331    0.000000    0.000000    0.000000    0.000000  -99.118296   32.932827   -5.954345  -70.381905
  0.052865731    0.000000    0.000000    0.000000    0.000000  -98.156428   29.254055   -5.961632  -71.953438
