! Anritsu VNA Master:                     Model: MS2036C/10/77
! SN:                                  1601066
! /bd0/18may10/255.ew.m5.s2p
! Existing Calibration Information:
! TYPE:                         Current Settings,       Active Cal Settings
! TIME:             	   05/10/2018 01:47:34 PM,    05/10/2018 01:36:00 PM
! INTERNAL TEMP:    	                   55.8 C,                    54.5 C
! # POINTS:         	                      492,                       492
! START FREQ:       	               20.000 MHz,                20.000 MHz
! STOP FREQ:        	          118.396 793 MHz,           118.396 793 MHz
! SOURCE POWER:     	                     High,                      High
! IFBW:             	                    50 Hz,                     50 Hz
! AVG FACTOR:       	                       1 ,                        1 
! REF PLANE 1:      	                     0 mm,                      0 mm
! REF PLANE 2:      	                     0 mm,                      0 mm
! CAL TYPE:         	                 Full S22,                  Full S22
! CAL METHOD:       	                     SOLT,                      SOLT
! CAL LINE TYPE:    	                     Coax,                      Coax
! DUT PORT 1:       	                K-Conn(M),                 K-Conn(M)
! DUT PORT 2:       	                K-Conn(M),                 K-Conn(M)
! CAL STATUS:       	        OK: Accuracy High,                        --
# GHZ S DB R 50.0
! FREQ.GHZ       S11DB        S11A       S21DB        S21A       S12DB        S12A       S22DB        S22A
  0.020000000    0.000000    0.000000    0.000000    0.000000  -89.620825   34.210575   -0.924881 -125.539658
  0.020200401    0.000000    0.000000    0.000000    0.000000  -89.921726   33.924431   -0.934164 -126.978500
  0.020400802    0.000000    0.000000    0.000000    0.000000  -89.726314   33.908794   -0.944806 -128.418625
  0.020601202    0.000000    0.000000    0.000000    0.000000  -90.714915   36.649563   -0.952693 -129.881424
  0.020801603    0.000000    0.000000    0.000000    0.000000  -90.984132   31.733435   -0.964153 -131.381790
  0.021002004    0.000000    0.000000    0.000000    0.000000  -91.173214   37.199024   -0.971059 -132.879715
  0.021202405    0.000000    0.000000    0.000000    0.000000  -91.040440   37.758831   -0.981133 -134.392853
  0.021402806    0.000000    0.000000    0.000000    0.000000  -91.524483   39.608238   -0.992002 -135.887146
  0.021603206    0.000000    0.000000    0.000000    0.000000  -91.621255   37.079445   -0.998845 -137.382675
  0.021803607    0.000000    0.000000    0.000000    0.000000  -91.306831   39.862877   -1.010375 -138.882050
  0.022004008    0.000000    0.000000    0.000000    0.000000  -91.819080   39.249580   -1.022782 -140.386169
  0.022204409    0.000000    0.000000    0.000000    0.000000  -92.258118   42.980301   -1.035032 -141.898788
  0.022404810    0.000000    0.000000    0.000000    0.000000  -91.888737   43.837490   -1.045276 -143.450882
  0.022605210    0.000000    0.000000    0.000000    0.000000  -92.130512   41.625832   -1.051391 -145.012939
  0.022805611    0.000000    0.000000    0.000000    0.000000  -91.488566   38.904751   -1.059871 -146.578384
  0.023006012    0.000000    0.000000    0.000000    0.000000  -91.299892   42.205479   -1.070200 -148.126724
  0.023206413    0.000000    0.000000    0.000000    0.000000  -90.853934   41.582325   -1.080377 -149.668869
  0.023406814    0.000000    0.000000    0.000000    0.000000  -91.182471   40.454361   -1.089428 -151.224640
  0.023607214    0.000000    0.000000    0.000000    0.000000  -91.147075   39.994751   -1.099032 -152.792801
  0.023807615    0.000000    0.000000    0.000000    0.000000  -91.445937   40.047245   -1.112923 -154.361694
  0.024008016    0.000000    0.000000    0.000000    0.000000  -91.144198   38.589375   -1.125214 -155.965530
  0.024208417    0.000000    0.000000    0.000000    0.000000  -91.234351   34.335312   -1.136469 -157.576828
  0.024408818    0.000000    0.000000    0.000000    0.000000  -90.955994   33.882374   -1.146762 -159.202774
  0.024609218    0.000000    0.000000    0.000000    0.000000  -90.964324   33.266449   -1.157474 -160.814468
  0.024809619    0.000000    0.000000    0.000000    0.000000  -91.807342   30.941376   -1.171777 -162.448776
  0.025010020    0.000000    0.000000    0.000000    0.000000  -91.721404   33.407017   -1.185510 -164.087021
  0.025210421    0.000000    0.000000    0.000000    0.000000  -91.911825   26.111755   -1.200196 -165.717743
  0.025410822    0.000000    0.000000    0.000000    0.000000  -92.019141   27.772829   -1.217060 -167.381851
  0.025611222    0.000000    0.000000    0.000000    0.000000  -92.175693   28.987190   -1.232680 -169.040604
  0.025811623    0.000000    0.000000    0.000000    0.000000  -92.355811   27.238102   -1.248974 -170.719757
  0.026012024    0.000000    0.000000    0.000000    0.000000  -93.029883   23.659245   -1.264268 -172.424881
  0.026212425    0.000000    0.000000    0.000000    0.000000  -93.201653   24.654264   -1.281678 -174.132797
  0.026412826    0.000000    0.000000    0.000000    0.000000  -93.172391   27.313208   -1.301217 -175.846313
  0.026613226    0.000000    0.000000    0.000000    0.000000  -93.519281   28.762074   -1.320083 -177.568695
  0.026813627    0.000000    0.000000    0.000000    0.000000  -93.907235   28.634756   -1.339804 -179.309738
  0.027014028    0.000000    0.000000    0.000000    0.000000  -93.989794   26.613436   -1.361683  178.951813
  0.027214429    0.000000    0.000000    0.000000    0.000000  -94.394013   26.917051   -1.383352  177.201645
  0.027414830    0.000000    0.000000    0.000000    0.000000  -94.842269   34.387726   -1.405849  175.444458
  0.027615230    0.000000    0.000000    0.000000    0.000000  -94.795756   30.076523   -1.429543  173.657455
  0.027815631    0.000000    0.000000    0.000000    0.000000  -95.217036   28.662735   -1.453394  171.879517
  0.028016032    0.000000    0.000000    0.000000    0.000000  -94.374969   27.731686   -1.478092  170.075760
  0.028216433    0.000000    0.000000    0.000000    0.000000  -94.816903   32.212708   -1.504486  168.260422
  0.028416834    0.000000    0.000000    0.000000    0.000000  -94.629505   30.976461   -1.529861  166.448456
  0.028617234    0.000000    0.000000    0.000000    0.000000  -94.087965   31.502144   -1.556650  164.623535
  0.028817635    0.000000    0.000000    0.000000    0.000000  -94.112553   34.571720   -1.584230  162.797485
  0.029018036    0.000000    0.000000    0.000000    0.000000  -94.096129   32.327534   -1.611357  160.975113
  0.029218437    0.000000    0.000000    0.000000    0.000000  -93.936381   28.060230   -1.642775  159.131790
  0.029418838    0.000000    0.000000    0.000000    0.000000  -93.954837   33.469170   -1.671970  157.271240
  0.029619238    0.000000    0.000000    0.000000    0.000000  -94.122304   31.463970   -1.702101  155.398849
  0.029819639    0.000000    0.000000    0.000000    0.000000  -94.159881   26.268404   -1.733124  153.524734
  0.030020040    0.000000    0.000000    0.000000    0.000000  -93.880116   27.260185   -1.765696  151.653687
  0.030220441    0.000000    0.000000    0.000000    0.000000  -94.918987   27.100786   -1.796905  149.771683
  0.030420842    0.000000    0.000000    0.000000    0.000000  -94.286040   25.273222   -1.828095  147.891495
  0.030621242    0.000000    0.000000    0.000000    0.000000  -93.501659   21.640261   -1.862310  146.011383
  0.030821643    0.000000    0.000000    0.000000    0.000000  -94.615727   27.111849   -1.898931  144.121429
  0.031022044    0.000000    0.000000    0.000000    0.000000  -94.654184   24.771109   -1.933118  142.203049
  0.031222445    0.000000    0.000000    0.000000    0.000000  -94.452894   22.065844   -1.965944  140.298553
  0.031422846    0.000000    0.000000    0.000000    0.000000  -94.434706   17.037626   -2.003264  138.358612
  0.031623246    0.000000    0.000000    0.000000    0.000000  -95.022387   23.187050   -2.040884  136.395401
  0.031823647    0.000000    0.000000    0.000000    0.000000  -95.141131   17.934868   -2.078239  134.432739
  0.032024048    0.000000    0.000000    0.000000    0.000000  -94.650894   21.138781   -2.119156  132.485931
  0.032224449    0.000000    0.000000    0.000000    0.000000  -95.955897   19.983553   -2.158767  130.504929
  0.032424850    0.000000    0.000000    0.000000    0.000000  -95.480269   18.668854   -2.199570  128.527908
  0.032625250    0.000000    0.000000    0.000000    0.000000  -95.474375   23.796314   -2.242175  126.532669
  0.032825651    0.000000    0.000000    0.000000    0.000000  -95.246174   20.691244   -2.282834  124.528107
  0.033026052    0.000000    0.000000    0.000000    0.000000  -96.568492   16.790003   -2.325815  122.503426
  0.033226453    0.000000    0.000000    0.000000    0.000000  -95.544498   23.272469   -2.367446  120.478607
  0.033426854    0.000000    0.000000    0.000000    0.000000  -95.727016   19.326668   -2.410452  118.442314
  0.033627254    0.000000    0.000000    0.000000    0.000000  -95.432013   21.664139   -2.454778  116.422073
  0.033827655    0.000000    0.000000    0.000000    0.000000  -97.035203   26.307255   -2.498910  114.414810
  0.034028056    0.000000    0.000000    0.000000    0.000000  -95.357416   24.706512   -2.543133  112.374680
  0.034228457    0.000000    0.000000    0.000000    0.000000  -96.744195   30.332771   -2.590917  110.341156
  0.034428858    0.000000    0.000000    0.000000    0.000000  -95.677510   31.216812   -2.634199  108.274078
  0.034629258    0.000000    0.000000    0.000000    0.000000  -96.044966   27.588673   -2.681852  106.196823
  0.034829659    0.000000    0.000000    0.000000    0.000000  -96.056244   28.285847   -2.729022  104.150833
  0.035030060    0.000000    0.000000    0.000000    0.000000  -95.773659   21.342199   -2.776187  102.080391
  0.035230461    0.000000    0.000000    0.000000    0.000000  -96.305856   24.538908   -2.824009  100.012749
  0.035430862    0.000000    0.000000    0.000000    0.000000  -96.626280   17.426083   -2.873768   97.949921
  0.035631262    0.000000    0.000000    0.000000    0.000000  -95.832374   23.841316   -2.921794   95.884979
  0.035831663    0.000000    0.000000    0.000000    0.000000  -96.179457   26.523260   -2.971346   93.817680
  0.036032064    0.000000    0.000000    0.000000    0.000000  -95.549093   27.807962   -3.017760   91.747986
  0.036232465    0.000000    0.000000    0.000000    0.000000  -96.374014   27.039349   -3.067713   89.661179
  0.036432866    0.000000    0.000000    0.000000    0.000000  -96.384764   20.865875   -3.114776   87.588936
  0.036633266    0.000000    0.000000    0.000000    0.000000  -96.960009   17.042780   -3.159278   85.503792
  0.036833667    0.000000    0.000000    0.000000    0.000000  -97.018013   19.793530   -3.203206   83.431473
  0.037034068    0.000000    0.000000    0.000000    0.000000  -96.414662   23.223206   -3.247410   81.330269
  0.037234469    0.000000    0.000000    0.000000    0.000000  -97.160123   22.037413   -3.286897   79.227737
  0.037434870    0.000000    0.000000    0.000000    0.000000  -97.686765   23.826450   -3.323151   77.066551
  0.037635270    0.000000    0.000000    0.000000    0.000000  -96.961536   19.768730   -3.357605   74.853645
  0.037835671    0.000000    0.000000    0.000000    0.000000  -97.289763   22.076164   -3.400695   72.581009
  0.038036072    0.000000    0.000000    0.000000    0.000000  -97.007915   22.026979   -3.457116   70.212784
  0.038236473    0.000000    0.000000    0.000000    0.000000  -96.784346   19.941977   -3.528643   67.887405
  0.038436874    0.000000    0.000000    0.000000    0.000000  -97.910568   24.497770   -3.611482   65.630302
  0.038637274    0.000000    0.000000    0.000000    0.000000  -97.811674   29.986494   -3.689535   63.442589
  0.038837675    0.000000    0.000000    0.000000    0.000000  -97.755772   20.492085   -3.762969   61.325085
  0.039038076    0.000000    0.000000    0.000000    0.000000  -99.034056   22.992373   -3.829856   59.228004
  0.039238477    0.000000    0.000000    0.000000    0.000000  -98.430048   15.963460   -3.892120   57.129059
  0.039438878    0.000000    0.000000    0.000000    0.000000  -97.798914   25.088947   -3.951953   55.031826
  0.039639278    0.000000    0.000000    0.000000    0.000000  -98.256985   30.155914   -4.013868   52.931736
  0.039839679    0.000000    0.000000    0.000000    0.000000  -97.101147   26.245312   -4.069603   50.833267
  0.040040080    0.000000    0.000000    0.000000    0.000000  -97.924732   36.256073   -4.122815   48.719631
  0.040240481    0.000000    0.000000    0.000000    0.000000  -98.269731   27.270977   -4.175161   46.600636
  0.040440882    0.000000    0.000000    0.000000    0.000000  -97.709670   26.548397   -4.224191   44.486912
  0.040641283    0.000000    0.000000    0.000000    0.000000  -98.957976   39.880997   -4.275331   42.401115
  0.040841683    0.000000    0.000000    0.000000    0.000000  -98.020244   29.191162   -4.326773   40.294571
  0.041042084    0.000000    0.000000    0.000000    0.000000  -97.854282   25.702101   -4.377177   38.221085
  0.041242485    0.000000    0.000000    0.000000    0.000000  -97.027769   30.902378   -4.427360   36.138332
  0.041442886    0.000000    0.000000    0.000000    0.000000  -97.392790   23.408016   -4.476595   34.032196
  0.041643287    0.000000    0.000000    0.000000    0.000000  -97.138637   28.283823   -4.524371   31.932186
  0.041843687    0.000000    0.000000    0.000000    0.000000  -98.720703   33.276417   -4.574528   29.834509
  0.042044088    0.000000    0.000000    0.000000    0.000000  -98.270803   24.703966   -4.620611   27.768700
  0.042244489    0.000000    0.000000    0.000000    0.000000  -98.102085   32.942223   -4.664784   25.693378
  0.042444890    0.000000    0.000000    0.000000    0.000000  -98.600452   27.121878   -4.711809   23.642296
  0.042645291    0.000000    0.000000    0.000000    0.000000  -97.678133   26.668413   -4.760773   21.584713
  0.042845691    0.000000    0.000000    0.000000    0.000000  -97.909420   24.744566   -4.808556   19.533869
  0.043046092    0.000000    0.000000    0.000000    0.000000  -99.127408   27.563618   -4.850919   17.494991
  0.043246493    0.000000    0.000000    0.000000    0.000000  -98.253547   18.349165   -4.896010   15.449003
  0.043446894    0.000000    0.000000    0.000000    0.000000  -99.024805   27.005854   -4.940185   13.417997
  0.043647295    0.000000    0.000000    0.000000    0.000000  -98.616581   26.845137   -4.980315   11.386509
  0.043847695    0.000000    0.000000    0.000000    0.000000  -99.437051   21.369762   -5.022621    9.364501
  0.044048096    0.000000    0.000000    0.000000    0.000000  -97.941562   22.988411   -5.063386    7.367187
  0.044248497    0.000000    0.000000    0.000000    0.000000  -98.489998   31.461483   -5.104686    5.350117
  0.044448898    0.000000    0.000000    0.000000    0.000000  -99.012384   33.900391   -5.143682    3.366734
  0.044649299    0.000000    0.000000    0.000000    0.000000  -99.753428   30.016708   -5.182279    1.360169
  0.044849699    0.000000    0.000000    0.000000    0.000000  -97.619822   28.849155   -5.221313   -0.599958
  0.045050100    0.000000    0.000000    0.000000    0.000000  -99.189783   25.832811   -5.252653   -2.600991
  0.045250501    0.000000    0.000000    0.000000    0.000000  -98.657827   29.406506   -5.286838   -4.566577
  0.045450902    0.000000    0.000000    0.000000    0.000000  -99.403498   32.794334   -5.320085   -6.532192
  0.045651303    0.000000    0.000000    0.000000    0.000000  -99.163763   23.065578   -5.354525   -8.492828
  0.045851703    0.000000    0.000000    0.000000    0.000000  -98.662953   31.286272   -5.385438  -10.418530
  0.046052104    0.000000    0.000000    0.000000    0.000000  -99.072599   30.359392   -5.413916  -12.376796
  0.046252505    0.000000    0.000000    0.000000    0.000000  -96.778784   34.568916   -5.445065  -14.282305
  0.046452906    0.000000    0.000000    0.000000    0.000000  -97.627768   28.972403   -5.472558  -16.178076
  0.046653307    0.000000    0.000000    0.000000    0.000000  -98.023701   29.682724   -5.499113  -18.095329
  0.046853707    0.000000    0.000000    0.000000    0.000000  -98.476547   37.009613   -5.525260  -20.001741
  0.047054108    0.000000    0.000000    0.000000    0.000000  -97.816190   28.602322   -5.548674  -21.900364
  0.047254509    0.000000    0.000000    0.000000    0.000000  -99.075461   31.153996   -5.571266  -23.779980
  0.047454910    0.000000    0.000000    0.000000    0.000000  -98.743645   33.575577   -5.593352  -25.640837
  0.047655311    0.000000    0.000000    0.000000    0.000000  -98.585974   28.388445   -5.614970  -27.495090
  0.047855711    0.000000    0.000000    0.000000    0.000000  -98.228634   32.475052   -5.637454  -29.315281
  0.048056112    0.000000    0.000000    0.000000    0.000000  -98.720853   18.627054   -5.658591  -31.139399
  0.048256513    0.000000    0.000000    0.000000    0.000000  -99.022717   29.104395   -5.682233  -32.940708
  0.048456914    0.000000    0.000000    0.000000    0.000000  -99.692467   32.247112   -5.701931  -34.727066
  0.048657315    0.000000    0.000000    0.000000    0.000000  -99.495063   23.111763   -5.721301  -36.526695
  0.048857715    0.000000    0.000000    0.000000    0.000000  -99.785354   32.554577   -5.737431  -38.325630
  0.049058116    0.000000    0.000000    0.000000    0.000000 -101.007058   28.972853   -5.755297  -40.087551
  0.049258517    0.000000    0.000000    0.000000    0.000000  -98.781708   30.489223   -5.771688  -41.849937
  0.049458918    0.000000    0.000000    0.000000    0.000000  -98.854195   32.091335   -5.789784  -43.579746
  0.049659319    0.000000    0.000000    0.000000    0.000000  -98.707994   40.664253   -5.805550  -45.319275
  0.049859719    0.000000    0.000000    0.000000    0.000000 -100.354051   27.983580   -5.822924  -47.042980
  0.050060120    0.000000    0.000000    0.000000    0.000000  -99.846321   28.579569   -5.838350  -48.747807
  0.050260521    0.000000    0.000000    0.000000    0.000000  -99.539047   29.158724   -5.853734  -50.458336
  0.050460922    0.000000    0.000000    0.000000    0.000000  -97.526618   43.793880   -5.866521  -52.170383
  0.050661323    0.000000    0.000000    0.000000    0.000000  -98.202332   23.810852   -5.879607  -53.841820
  0.050861723    0.000000    0.000000    0.000000    0.000000  -99.850385   38.467094   -5.888790  -55.534309
  0.051062124    0.000000    0.000000    0.000000    0.000000  -99.322901   31.653347   -5.905338  -57.199234
  0.051262525    0.000000    0.000000    0.000000    0.000000  -99.296267   38.345325   -5.917398  -58.872433
  0.051462926    0.000000    0.000000    0.000000    0.000000  -99.205167   33.540703   -5.928222  -60.497040
  0.051663327    0.000000    0.000000    0.000000    0.000000  -98.516214   37.961063   -5.938370  -62.141014
  0.051863727    0.000000    0.000000    0.000000    0.000000  -98.556565   28.513853   -5.946798  -63.760559
  0.052064128    0.000000    0.000000    0.000000    0.000000  -98.206848   32.197773   -5.956995  -65.398270
  0.052264529    0.000000    0.000000    0.000000    0.000000  -98.386156   33.481934   -5.957155  -66.989349
  0.052464930    0.000000    0.000000    0.000000    0.000000  -98.312574   26.351822   -5.963732  -68.616600
  0.052665331    0.000000    0.000000    0.000000    0.000000  -98.135931   33.284885   -5.970731  -70.164665
  0.052865731    0.000000    0.000000    0.000000    0.000000  -99.770869   29.520044   -5.978531  -71.740891
