! Anritsu VNA Master:                     Model: MS2036C/10/77
! SN:                                  1601066
! /bd0/18may10/255.ns.m4.s2p
! Existing Calibration Information:
! TYPE:                         Current Settings,       Active Cal Settings
! TIME:             	   05/10/2018 02:25:37 PM,    05/10/2018 02:13:17 PM
! INTERNAL TEMP:    	                   59.0 C,                    57.5 C
! # POINTS:         	                      492,                       492
! START FREQ:       	               20.000 MHz,                20.000 MHz
! STOP FREQ:        	          118.396 793 MHz,           118.396 793 MHz
! SOURCE POWER:     	                     High,                      High
! IFBW:             	                    50 Hz,                     50 Hz
! AVG FACTOR:       	                       1 ,                        1 
! REF PLANE 1:      	                     0 mm,                      0 mm
! REF PLANE 2:      	                     0 mm,                      0 mm
! CAL TYPE:         	                 Full S22,                  Full S22
! CAL METHOD:       	                     SOLT,                      SOLT
! CAL LINE TYPE:    	                     Coax,                      Coax
! DUT PORT 1:       	                K-Conn(M),                 K-Conn(M)
! DUT PORT 2:       	                K-Conn(M),                 K-Conn(M)
! CAL STATUS:       	        OK: Accuracy High,                        --
# GHZ S DB R 50.0
! FREQ.GHZ       S11DB        S11A       S21DB        S21A       S12DB        S12A       S22DB        S22A
  0.020000000    0.000000    0.000000    0.000000    0.000000  -89.458529   33.654137   -0.642705 -125.352318
  0.020200401    0.000000    0.000000    0.000000    0.000000  -90.163006   35.397038   -0.647494 -126.802162
  0.020400802    0.000000    0.000000    0.000000    0.000000  -90.236694   30.621702   -0.648848 -128.239548
  0.020601202    0.000000    0.000000    0.000000    0.000000  -89.986141   32.942642   -0.653480 -129.711594
  0.020801603    0.000000    0.000000    0.000000    0.000000  -90.693714   29.281971   -0.657271 -131.205597
  0.021002004    0.000000    0.000000    0.000000    0.000000  -90.520225   32.140923   -0.659268 -132.718781
  0.021202405    0.000000    0.000000    0.000000    0.000000  -91.594057   32.696133   -0.664127 -134.234985
  0.021402806    0.000000    0.000000    0.000000    0.000000  -91.710307   32.411682   -0.665927 -135.756805
  0.021603206    0.000000    0.000000    0.000000    0.000000  -91.639890   36.887138   -0.670237 -137.265564
  0.021803607    0.000000    0.000000    0.000000    0.000000  -92.081780   38.921597   -0.674073 -138.786972
  0.022004008    0.000000    0.000000    0.000000    0.000000  -92.150941   41.411362   -0.677761 -140.297897
  0.022204409    0.000000    0.000000    0.000000    0.000000  -92.694575   39.389774   -0.685291 -141.854874
  0.022404810    0.000000    0.000000    0.000000    0.000000  -92.368594   40.529095   -0.687544 -143.433167
  0.022605210    0.000000    0.000000    0.000000    0.000000  -91.686823   41.884411   -0.689583 -145.033630
  0.022805611    0.000000    0.000000    0.000000    0.000000  -91.319435   39.659801   -0.693925 -146.613678
  0.023006012    0.000000    0.000000    0.000000    0.000000  -91.465773   42.491356   -0.698548 -148.198730
  0.023206413    0.000000    0.000000    0.000000    0.000000  -91.654356   41.927094   -0.703134 -149.779175
  0.023406814    0.000000    0.000000    0.000000    0.000000  -91.100445   38.972931   -0.707220 -151.357834
  0.023607214    0.000000    0.000000    0.000000    0.000000  -91.331190   39.626751   -0.711427 -152.961746
  0.023807615    0.000000    0.000000    0.000000    0.000000  -91.394019   40.823174   -0.718315 -154.564789
  0.024008016    0.000000    0.000000    0.000000    0.000000  -90.688555   41.086124   -0.726364 -156.199326
  0.024208417    0.000000    0.000000    0.000000    0.000000  -90.954859   36.392807   -0.733252 -157.840134
  0.024408818    0.000000    0.000000    0.000000    0.000000  -91.032048   35.953537   -0.739206 -159.491425
  0.024609218    0.000000    0.000000    0.000000    0.000000  -91.390092   34.119984   -0.743535 -161.139236
  0.024809619    0.000000    0.000000    0.000000    0.000000  -91.181394   31.539778   -0.752152 -162.788864
  0.025010020    0.000000    0.000000    0.000000    0.000000  -92.001125   32.180557   -0.760060 -164.454224
  0.025210421    0.000000    0.000000    0.000000    0.000000  -91.995523   27.746296   -0.770423 -166.120956
  0.025410822    0.000000    0.000000    0.000000    0.000000  -92.110210   25.509460   -0.779920 -167.813950
  0.025611222    0.000000    0.000000    0.000000    0.000000  -92.375038   27.354954   -0.790882 -169.489990
  0.025811623    0.000000    0.000000    0.000000    0.000000  -92.679995   25.510265   -0.802907 -171.194916
  0.026012024    0.000000    0.000000    0.000000    0.000000  -93.202527   23.703831   -0.812648 -172.918060
  0.026212425    0.000000    0.000000    0.000000    0.000000  -92.927876   28.096361   -0.822726 -174.640411
  0.026412826    0.000000    0.000000    0.000000    0.000000  -93.830239   23.853371   -0.836121 -176.362076
  0.026613226    0.000000    0.000000    0.000000    0.000000  -93.342760   19.910305   -0.851617 -178.102325
  0.026813627    0.000000    0.000000    0.000000    0.000000  -93.979020   22.155401   -0.866354 -179.845901
  0.027014028    0.000000    0.000000    0.000000    0.000000  -94.570771   27.788109   -0.882619  178.407211
  0.027214429    0.000000    0.000000    0.000000    0.000000  -94.525158   24.602077   -0.899876  176.647430
  0.027414830    0.000000    0.000000    0.000000    0.000000  -93.990011   28.948118   -0.915504  174.877563
  0.027615230    0.000000    0.000000    0.000000    0.000000  -94.368492   33.391338   -0.933912  173.103851
  0.027815631    0.000000    0.000000    0.000000    0.000000  -94.028622   33.315147   -0.952393  171.319870
  0.028016032    0.000000    0.000000    0.000000    0.000000  -94.906277   29.044765   -0.970407  169.508591
  0.028216433    0.000000    0.000000    0.000000    0.000000  -94.552439   35.144192   -0.991827  167.706787
  0.028416834    0.000000    0.000000    0.000000    0.000000  -95.194886   35.238937   -1.011708  165.883377
  0.028617234    0.000000    0.000000    0.000000    0.000000  -94.665425   32.263439   -1.034551  164.063293
  0.028817635    0.000000    0.000000    0.000000    0.000000  -94.702957   35.537571   -1.057318  162.237122
  0.029018036    0.000000    0.000000    0.000000    0.000000  -94.669953   30.943783   -1.080395  160.411575
  0.029218437    0.000000    0.000000    0.000000    0.000000  -94.356172   33.929291   -1.105597  158.561996
  0.029418838    0.000000    0.000000    0.000000    0.000000  -94.321370   33.096493   -1.133443  156.698273
  0.029619238    0.000000    0.000000    0.000000    0.000000  -94.091936   30.191853   -1.158951  154.827118
  0.029819639    0.000000    0.000000    0.000000    0.000000  -93.902268   29.608679   -1.186669  152.945480
  0.030020040    0.000000    0.000000    0.000000    0.000000  -94.352889   27.373840   -1.215651  151.051483
  0.030220441    0.000000    0.000000    0.000000    0.000000  -93.987076   24.881989   -1.245789  149.169098
  0.030420842    0.000000    0.000000    0.000000    0.000000  -93.807872   23.029970   -1.273418  147.273209
  0.030621242    0.000000    0.000000    0.000000    0.000000  -94.145086   23.730000   -1.306021  145.391998
  0.030821643    0.000000    0.000000    0.000000    0.000000  -94.537282   26.474806   -1.339465  143.482132
  0.031022044    0.000000    0.000000    0.000000    0.000000  -94.676813   22.274857   -1.372219  141.559586
  0.031222445    0.000000    0.000000    0.000000    0.000000  -94.834009   20.006216   -1.404415  139.634323
  0.031422846    0.000000    0.000000    0.000000    0.000000  -93.981078   19.699778   -1.439536  137.668732
  0.031623246    0.000000    0.000000    0.000000    0.000000  -95.053473   22.027916   -1.474649  135.705780
  0.031823647    0.000000    0.000000    0.000000    0.000000  -94.793158   19.578775   -1.508133  133.734711
  0.032024048    0.000000    0.000000    0.000000    0.000000  -94.255013   19.688707   -1.546359  131.766403
  0.032224449    0.000000    0.000000    0.000000    0.000000  -96.146854   20.184526   -1.584830  129.790268
  0.032424850    0.000000    0.000000    0.000000    0.000000  -95.413387   14.622107   -1.623119  127.805000
  0.032625250    0.000000    0.000000    0.000000    0.000000  -96.387128   19.049013   -1.659821  125.815216
  0.032825651    0.000000    0.000000    0.000000    0.000000  -95.420816   17.300631   -1.696303  123.786194
  0.033026052    0.000000    0.000000    0.000000    0.000000  -96.138472   20.902809   -1.734878  121.767807
  0.033226453    0.000000    0.000000    0.000000    0.000000  -96.266055   24.330080   -1.775426  119.742180
  0.033426854    0.000000    0.000000    0.000000    0.000000  -94.576978   24.633171   -1.810473  117.720604
  0.033627254    0.000000    0.000000    0.000000    0.000000  -96.004243   16.276241   -1.853466  115.745476
  0.033827655    0.000000    0.000000    0.000000    0.000000  -96.321721   21.304941   -1.890586  113.724213
  0.034028056    0.000000    0.000000    0.000000    0.000000  -96.018103   25.486774   -1.930759  111.704865
  0.034228457    0.000000    0.000000    0.000000    0.000000  -98.629782   31.412975   -1.975750  109.685799
  0.034428858    0.000000    0.000000    0.000000    0.000000  -95.964092   34.495098   -2.017277  107.662209
  0.034629258    0.000000    0.000000    0.000000    0.000000  -96.746466   28.787683   -2.059529  105.629890
  0.034829659    0.000000    0.000000    0.000000    0.000000  -97.150467   29.118608   -2.102873  103.607437
  0.035030060    0.000000    0.000000    0.000000    0.000000  -96.355648   27.171782   -2.149311  101.569984
  0.035230461    0.000000    0.000000    0.000000    0.000000  -96.172035   26.800804   -2.197934   99.538139
  0.035430862    0.000000    0.000000    0.000000    0.000000  -97.257527   25.967690   -2.249657   97.505089
  0.035631262    0.000000    0.000000    0.000000    0.000000  -96.359128   30.502941   -2.298337   95.486748
  0.035831663    0.000000    0.000000    0.000000    0.000000  -96.407800   29.520321   -2.349145   93.433868
  0.036032064    0.000000    0.000000    0.000000    0.000000  -95.936137   25.752886   -2.402644   91.394844
  0.036232465    0.000000    0.000000    0.000000    0.000000  -95.731157   20.894930   -2.455611   89.344612
  0.036432866    0.000000    0.000000    0.000000    0.000000  -96.325255   22.810192   -2.507472   87.289276
  0.036633266    0.000000    0.000000    0.000000    0.000000  -96.544608   23.091141   -2.563221   85.226837
  0.036833667    0.000000    0.000000    0.000000    0.000000  -96.698607   15.934541   -2.622729   83.147270
  0.037034068    0.000000    0.000000    0.000000    0.000000  -97.078765   25.735394   -2.680300   81.069199
  0.037234469    0.000000    0.000000    0.000000    0.000000  -97.022284   24.009094   -2.739291   78.989388
  0.037434870    0.000000    0.000000    0.000000    0.000000  -97.142961   21.773499   -2.797901   76.902191
  0.037635270    0.000000    0.000000    0.000000    0.000000  -96.482765   16.120279   -2.859644   74.814720
  0.037835671    0.000000    0.000000    0.000000    0.000000  -96.881700   18.196430   -2.922164   72.717499
  0.038036072    0.000000    0.000000    0.000000    0.000000  -97.439074   23.847187   -2.981997   70.600258
  0.038236473    0.000000    0.000000    0.000000    0.000000  -96.876178   23.900953   -3.042458   68.462479
  0.038436874    0.000000    0.000000    0.000000    0.000000  -96.682739   19.440239   -3.105413   66.312859
  0.038637274    0.000000    0.000000    0.000000    0.000000  -99.129994    9.148760   -3.168060   64.182549
  0.038837675    0.000000    0.000000    0.000000    0.000000  -96.514146   21.577156   -3.226702   62.057472
  0.039038076    0.000000    0.000000    0.000000    0.000000  -99.007997   21.321478   -3.285035   59.944984
  0.039238477    0.000000    0.000000    0.000000    0.000000  -97.518692   30.207827   -3.340492   57.843185
  0.039438878    0.000000    0.000000    0.000000    0.000000  -97.803160   22.429495   -3.397072   55.721310
  0.039639278    0.000000    0.000000    0.000000    0.000000  -98.899884   27.778603   -3.454573   53.615425
  0.039839679    0.000000    0.000000    0.000000    0.000000  -98.118881   21.693541   -3.509442   51.480133
  0.040040080    0.000000    0.000000    0.000000    0.000000  -96.961219   31.273254   -3.561639   49.389126
  0.040240481    0.000000    0.000000    0.000000    0.000000  -97.460637   25.527185   -3.611817   47.304077
  0.040440882    0.000000    0.000000    0.000000    0.000000  -97.131131   27.817804   -3.664673   45.229263
  0.040641283    0.000000    0.000000    0.000000    0.000000  -97.802585   27.180447   -3.714541   43.178211
  0.040841683    0.000000    0.000000    0.000000    0.000000  -98.684966   25.913540   -3.765500   41.139744
  0.041042084    0.000000    0.000000    0.000000    0.000000  -97.439518   25.754250   -3.817609   39.130852
  0.041242485    0.000000    0.000000    0.000000    0.000000  -96.583960   25.972733   -3.870495   37.110806
  0.041442886    0.000000    0.000000    0.000000    0.000000  -98.338407   32.182926   -3.923438   35.087147
  0.041643287    0.000000    0.000000    0.000000    0.000000  -97.075775   34.077122   -3.974248   33.092419
  0.041843687    0.000000    0.000000    0.000000    0.000000  -96.459439   24.956427   -4.025778   31.077593
  0.042044088    0.000000    0.000000    0.000000    0.000000  -97.871781   33.788315   -4.073470   29.098928
  0.042244489    0.000000    0.000000    0.000000    0.000000  -97.821786   20.753723   -4.127321   27.129311
  0.042444890    0.000000    0.000000    0.000000    0.000000  -98.617739   24.220415   -4.180757   25.160385
  0.042645291    0.000000    0.000000    0.000000    0.000000  -98.067822   24.991261   -4.234774   23.200907
  0.042845691    0.000000    0.000000    0.000000    0.000000  -98.196482   24.856842   -4.287819   21.252682
  0.043046092    0.000000    0.000000    0.000000    0.000000  -97.918804   27.203461   -4.340070   19.275639
  0.043246493    0.000000    0.000000    0.000000    0.000000  -97.428660   23.892839   -4.395540   17.304071
  0.043446894    0.000000    0.000000    0.000000    0.000000  -98.586488   35.183716   -4.446017   15.341718
  0.043647295    0.000000    0.000000    0.000000    0.000000  -98.814878   26.086237   -4.496351   13.369809
  0.043847695    0.000000    0.000000    0.000000    0.000000  -98.963227   27.203936   -4.551826   11.405766
  0.044048096    0.000000    0.000000    0.000000    0.000000  -98.160259   33.168308   -4.604313    9.428211
  0.044248497    0.000000    0.000000    0.000000    0.000000  -98.536543   25.502348   -4.654486    7.463363
  0.044448898    0.000000    0.000000    0.000000    0.000000  -98.541787   24.020235   -4.706545    5.509124
  0.044649299    0.000000    0.000000    0.000000    0.000000  -99.005218   35.581936   -4.754767    3.531529
  0.044849699    0.000000    0.000000    0.000000    0.000000 -100.042869   29.986145   -4.800732    1.556949
  0.045050100    0.000000    0.000000    0.000000    0.000000  -99.677082   34.158527   -4.849528   -0.401249
  0.045250501    0.000000    0.000000    0.000000    0.000000  -98.429273   35.502312   -4.895008   -2.365343
  0.045450902    0.000000    0.000000    0.000000    0.000000  -99.245341   27.178181   -4.938323   -4.327525
  0.045651303    0.000000    0.000000    0.000000    0.000000  -97.429660   30.467535   -4.983802   -6.280129
  0.045851703    0.000000    0.000000    0.000000    0.000000  -99.461982   33.695072   -5.021813   -8.222975
  0.046052104    0.000000    0.000000    0.000000    0.000000  -98.620999   25.902927   -5.060599  -10.165200
  0.046252505    0.000000    0.000000    0.000000    0.000000  -98.656690   23.727003   -5.098223  -12.076427
  0.046452906    0.000000    0.000000    0.000000    0.000000  -98.549640   30.610867   -5.134719  -13.966949
  0.046653307    0.000000    0.000000    0.000000    0.000000  -98.221697   27.329559   -5.166056  -15.886580
  0.046853707    0.000000    0.000000    0.000000    0.000000  -99.105341   33.102207   -5.198153  -17.760506
  0.047054108    0.000000    0.000000    0.000000    0.000000  -97.896334   27.883022   -5.230547  -19.656858
  0.047254509    0.000000    0.000000    0.000000    0.000000  -99.256125   29.477825   -5.259925  -21.524075
  0.047454910    0.000000    0.000000    0.000000    0.000000 -100.148945   32.417828   -5.290131  -23.366371
  0.047655311    0.000000    0.000000    0.000000    0.000000  -98.431737   25.367298   -5.317869  -25.207548
  0.047855711    0.000000    0.000000    0.000000    0.000000 -101.304569   28.977350   -5.346952  -26.995604
  0.048056112    0.000000    0.000000    0.000000    0.000000  -99.405604   29.412676   -5.376147  -28.772749
  0.048256513    0.000000    0.000000    0.000000    0.000000  -99.866121   41.846142   -5.407199  -30.565773
  0.048456914    0.000000    0.000000    0.000000    0.000000  -99.878126   33.584534   -5.432518  -32.340698
  0.048657315    0.000000    0.000000    0.000000    0.000000  -98.761375   28.389864   -5.461245  -34.101368
  0.048857715    0.000000    0.000000    0.000000    0.000000  -98.803031   42.569801   -5.487227  -35.866604
  0.049058116    0.000000    0.000000    0.000000    0.000000  -98.823107   27.194918   -5.511063  -37.618923
  0.049258517    0.000000    0.000000    0.000000    0.000000  -99.280966   29.782240   -5.536710  -39.369095
  0.049458918    0.000000    0.000000    0.000000    0.000000  -98.947084   41.186378   -5.563899  -41.090714
  0.049659319    0.000000    0.000000    0.000000    0.000000 -100.956965   27.146114   -5.590331  -42.800289
  0.049859719    0.000000    0.000000    0.000000    0.000000 -100.108374   36.804424   -5.616517  -44.512020
  0.050060120    0.000000    0.000000    0.000000    0.000000  -97.803769   31.085966   -5.642535  -46.200672
  0.050260521    0.000000    0.000000    0.000000    0.000000  -98.364325   36.640205   -5.665567  -47.921482
  0.050460922    0.000000    0.000000    0.000000    0.000000  -98.868285   45.821007   -5.689012  -49.606262
  0.050661323    0.000000    0.000000    0.000000    0.000000  -99.779781   28.795404   -5.707247  -51.305012
  0.050861723    0.000000    0.000000    0.000000    0.000000  -98.073571   35.915710   -5.728926  -52.987736
  0.051062124    0.000000    0.000000    0.000000    0.000000  -99.423822   39.136047   -5.749167  -54.668064
  0.051262525    0.000000    0.000000    0.000000    0.000000  -99.782129   38.186821   -5.772700  -56.331459
  0.051462926    0.000000    0.000000    0.000000    0.000000  -99.623046   36.991627   -5.792407  -57.985363
  0.051663327    0.000000    0.000000    0.000000    0.000000  -99.261881   32.795139   -5.806475  -59.620708
  0.051863727    0.000000    0.000000    0.000000    0.000000  -98.828279   29.015877   -5.824508  -61.268082
  0.052064128    0.000000    0.000000    0.000000    0.000000  -99.584002   31.803682   -5.836162  -62.896816
  0.052264529    0.000000    0.000000    0.000000    0.000000  -97.744714   30.061878   -5.850030  -64.528061
  0.052464930    0.000000    0.000000    0.000000    0.000000  -98.900081   34.824097   -5.863416  -66.126221
  0.052665331    0.000000    0.000000    0.000000    0.000000  -98.350972   25.186544   -5.873658  -67.720947
  0.052865731    0.000000    0.000000    0.000000    0.000000  -99.868259   24.207558   -5.886974  -69.306320
