! Anritsu VNA Master:                     Model: MS2036C/10/77
! SN:                                  1601066
! /bd0/18may10/255.ns.m2.s2p
! Existing Calibration Information:
! TYPE:                         Current Settings,       Active Cal Settings
! TIME:             	   05/10/2018 02:20:19 PM,    05/10/2018 02:13:17 PM
! INTERNAL TEMP:    	                   58.5 C,                    57.5 C
! # POINTS:         	                      492,                       492
! START FREQ:       	               20.000 MHz,                20.000 MHz
! STOP FREQ:        	          118.396 793 MHz,           118.396 793 MHz
! SOURCE POWER:     	                     High,                      High
! IFBW:             	                    50 Hz,                     50 Hz
! AVG FACTOR:       	                       1 ,                        1 
! REF PLANE 1:      	                     0 mm,                      0 mm
! REF PLANE 2:      	                     0 mm,                      0 mm
! CAL TYPE:         	                 Full S22,                  Full S22
! CAL METHOD:       	                     SOLT,                      SOLT
! CAL LINE TYPE:    	                     Coax,                      Coax
! DUT PORT 1:       	                K-Conn(M),                 K-Conn(M)
! DUT PORT 2:       	                K-Conn(M),                 K-Conn(M)
! CAL STATUS:       	        OK: Accuracy High,                        --
# GHZ S DB R 50.0
! FREQ.GHZ       S11DB        S11A       S21DB        S21A       S12DB        S12A       S22DB        S22A
  0.020000000    0.000000    0.000000    0.000000    0.000000  -89.390699   34.942024   -0.647041 -125.279480
  0.020200401    0.000000    0.000000    0.000000    0.000000  -89.813984   33.365482   -0.650868 -126.729477
  0.020400802    0.000000    0.000000    0.000000    0.000000  -90.438904   34.390797   -0.652045 -128.178116
  0.020601202    0.000000    0.000000    0.000000    0.000000  -90.100689   36.280365   -0.655638 -129.659424
  0.020801603    0.000000    0.000000    0.000000    0.000000  -91.224469   34.709255   -0.660031 -131.150253
  0.021002004    0.000000    0.000000    0.000000    0.000000  -90.950963   33.924870   -0.661073 -132.671158
  0.021202405    0.000000    0.000000    0.000000    0.000000  -91.241937   36.091843   -0.664762 -134.186768
  0.021402806    0.000000    0.000000    0.000000    0.000000  -92.095915   35.286091   -0.666724 -135.707962
  0.021603206    0.000000    0.000000    0.000000    0.000000  -91.724831   39.060535   -0.669962 -137.215805
  0.021803607    0.000000    0.000000    0.000000    0.000000  -91.965241   36.553200   -0.673873 -138.731644
  0.022004008    0.000000    0.000000    0.000000    0.000000  -92.060059   35.831085   -0.676447 -140.245483
  0.022204409    0.000000    0.000000    0.000000    0.000000  -91.975662   44.947083   -0.682831 -141.799744
  0.022404810    0.000000    0.000000    0.000000    0.000000  -91.787693   43.066345   -0.685430 -143.371841
  0.022605210    0.000000    0.000000    0.000000    0.000000  -91.567012   40.266609   -0.686898 -144.952454
  0.022805611    0.000000    0.000000    0.000000    0.000000  -91.901272   47.615055   -0.691414 -146.528107
  0.023006012    0.000000    0.000000    0.000000    0.000000  -91.475761   42.575100   -0.695331 -148.108780
  0.023206413    0.000000    0.000000    0.000000    0.000000  -91.509000   47.092506   -0.699441 -149.681137
  0.023406814    0.000000    0.000000    0.000000    0.000000  -90.493207   41.118523   -0.703274 -151.251022
  0.023607214    0.000000    0.000000    0.000000    0.000000  -90.531422   40.242634   -0.707609 -152.842911
  0.023807615    0.000000    0.000000    0.000000    0.000000  -91.082974   35.607132   -0.715508 -154.447311
  0.024008016    0.000000    0.000000    0.000000    0.000000  -90.971690   36.938309   -0.723634 -156.063644
  0.024208417    0.000000    0.000000    0.000000    0.000000  -91.079731   35.413132   -0.729610 -157.708817
  0.024408818    0.000000    0.000000    0.000000    0.000000  -91.176653   28.727789   -0.735886 -159.355865
  0.024609218    0.000000    0.000000    0.000000    0.000000  -91.002187   31.700302   -0.741478 -161.005600
  0.024809619    0.000000    0.000000    0.000000    0.000000  -91.364995   29.673170   -0.749457 -162.656815
  0.025010020    0.000000    0.000000    0.000000    0.000000  -91.624234   30.723547   -0.758917 -164.317368
  0.025210421    0.000000    0.000000    0.000000    0.000000  -91.618465   26.928219   -0.769118 -165.995300
  0.025410822    0.000000    0.000000    0.000000    0.000000  -92.175596   29.004665   -0.779979 -167.673965
  0.025611222    0.000000    0.000000    0.000000    0.000000  -92.039004   25.042917   -0.791315 -169.361023
  0.025811623    0.000000    0.000000    0.000000    0.000000  -92.796953   24.358068   -0.802731 -171.074127
  0.026012024    0.000000    0.000000    0.000000    0.000000  -92.331638   24.606815   -0.813624 -172.799881
  0.026212425    0.000000    0.000000    0.000000    0.000000  -92.833979   24.745981   -0.823493 -174.536240
  0.026412826    0.000000    0.000000    0.000000    0.000000  -93.978332   24.173754   -0.837722 -176.268936
  0.026613226    0.000000    0.000000    0.000000    0.000000  -93.586351   23.922375   -0.851669 -178.022720
  0.026813627    0.000000    0.000000    0.000000    0.000000  -94.532741   26.538969   -0.867573 -179.770004
  0.027014028    0.000000    0.000000    0.000000    0.000000  -93.459025   24.810928   -0.884259  178.466583
  0.027214429    0.000000    0.000000    0.000000    0.000000  -93.818128   27.127260   -0.900236  176.697006
  0.027414830    0.000000    0.000000    0.000000    0.000000  -94.146944   26.117435   -0.915795  174.916275
  0.027615230    0.000000    0.000000    0.000000    0.000000  -94.654462   27.115124   -0.933796  173.135880
  0.027815631    0.000000    0.000000    0.000000    0.000000  -94.517104   34.359890   -0.951411  171.336777
  0.028016032    0.000000    0.000000    0.000000    0.000000  -94.588779   24.161932   -0.970529  169.518936
  0.028216433    0.000000    0.000000    0.000000    0.000000  -94.539432   30.405079   -0.989957  167.703232
  0.028416834    0.000000    0.000000    0.000000    0.000000  -94.393943   31.101841   -1.010132  165.880554
  0.028617234    0.000000    0.000000    0.000000    0.000000  -94.461962   31.305506   -1.031901  164.047684
  0.028817635    0.000000    0.000000    0.000000    0.000000  -94.543055   34.109402   -1.053154  162.224121
  0.029018036    0.000000    0.000000    0.000000    0.000000  -94.357878   28.264051   -1.076077  160.394028
  0.029218437    0.000000    0.000000    0.000000    0.000000  -94.499098   29.772781   -1.100818  158.546692
  0.029418838    0.000000    0.000000    0.000000    0.000000  -94.151087   33.308929   -1.126791  156.692230
  0.029619238    0.000000    0.000000    0.000000    0.000000  -94.416452   27.355854   -1.152755  154.827118
  0.029819639    0.000000    0.000000    0.000000    0.000000  -93.935394   27.226049   -1.179251  152.950989
  0.030020040    0.000000    0.000000    0.000000    0.000000  -93.801056   27.735119   -1.207869  151.064285
  0.030220441    0.000000    0.000000    0.000000    0.000000  -94.413116   30.653517   -1.237690  149.186127
  0.030420842    0.000000    0.000000    0.000000    0.000000  -94.172599   27.092356   -1.264809  147.293381
  0.030621242    0.000000    0.000000    0.000000    0.000000  -94.471255   23.436472   -1.297796  145.415909
  0.030821643    0.000000    0.000000    0.000000    0.000000  -94.532327   25.481421   -1.332071  143.520782
  0.031022044    0.000000    0.000000    0.000000    0.000000  -94.815745   20.894167   -1.364164  141.607117
  0.031222445    0.000000    0.000000    0.000000    0.000000  -94.377497   20.742018   -1.395885  139.697647
  0.031422846    0.000000    0.000000    0.000000    0.000000  -95.402848   22.181982   -1.429144  137.743423
  0.031623246    0.000000    0.000000    0.000000    0.000000  -94.680188   17.022161   -1.467724  135.789413
  0.031823647    0.000000    0.000000    0.000000    0.000000  -94.542698    9.167511   -1.501045  133.824936
  0.032024048    0.000000    0.000000    0.000000    0.000000  -93.610886   16.909723   -1.539270  131.851746
  0.032224449    0.000000    0.000000    0.000000    0.000000  -96.268425   23.498369   -1.578867  129.888596
  0.032424850    0.000000    0.000000    0.000000    0.000000  -95.391206   17.622246   -1.616814  127.909348
  0.032625250    0.000000    0.000000    0.000000    0.000000  -96.290929   16.705511   -1.654756  125.928047
  0.032825651    0.000000    0.000000    0.000000    0.000000  -95.243048   17.518333   -1.692225  123.888718
  0.033026052    0.000000    0.000000    0.000000    0.000000  -96.621313   21.278070   -1.731942  121.870789
  0.033226453    0.000000    0.000000    0.000000    0.000000  -96.203467   21.745161   -1.771645  119.840202
  0.033426854    0.000000    0.000000    0.000000    0.000000  -96.987640   15.724632   -1.806819  117.807281
  0.033627254    0.000000    0.000000    0.000000    0.000000  -96.930911   17.454340   -1.851035  115.818619
  0.033827655    0.000000    0.000000    0.000000    0.000000  -96.213136   28.049461   -1.888464  113.794548
  0.034028056    0.000000    0.000000    0.000000    0.000000  -95.977272   17.390535   -1.929282  111.771606
  0.034228457    0.000000    0.000000    0.000000    0.000000  -96.011396   24.243011   -1.973458  109.729279
  0.034428858    0.000000    0.000000    0.000000    0.000000  -96.272329   28.823477   -2.015923  107.695236
  0.034629258    0.000000    0.000000    0.000000    0.000000  -96.757403   21.221060   -2.057879  105.649094
  0.034829659    0.000000    0.000000    0.000000    0.000000  -95.319968   25.066250   -2.100994  103.606842
  0.035030060    0.000000    0.000000    0.000000    0.000000  -97.150025   18.982265   -2.147346  101.561943
  0.035230461    0.000000    0.000000    0.000000    0.000000  -96.039254   27.334259   -2.195554   99.527802
  0.035430862    0.000000    0.000000    0.000000    0.000000  -95.902339   32.144955   -2.246712   97.489960
  0.035631262    0.000000    0.000000    0.000000    0.000000  -95.560072   27.020864   -2.294211   95.450691
  0.035831663    0.000000    0.000000    0.000000    0.000000  -96.665065   27.324001   -2.344722   93.389687
  0.036032064    0.000000    0.000000    0.000000    0.000000  -96.688539   19.637712   -2.397710   91.343536
  0.036232465    0.000000    0.000000    0.000000    0.000000  -96.353064   22.411789   -2.449379   89.293716
  0.036432866    0.000000    0.000000    0.000000    0.000000  -96.207281   25.701166   -2.500610   87.237236
  0.036633266    0.000000    0.000000    0.000000    0.000000  -95.994096   27.465025   -2.553820   85.181396
  0.036833667    0.000000    0.000000    0.000000    0.000000  -96.050089   25.016476   -2.611819   83.104874
  0.037034068    0.000000    0.000000    0.000000    0.000000  -95.746033   30.043673   -2.668822   81.029915
  0.037234469    0.000000    0.000000    0.000000    0.000000  -96.627575   22.610071   -2.727055   78.949867
  0.037434870    0.000000    0.000000    0.000000    0.000000  -97.380691   20.955976   -2.784997   76.880157
  0.037635270    0.000000    0.000000    0.000000    0.000000  -97.063382   18.654360   -2.846395   74.786522
  0.037835671    0.000000    0.000000    0.000000    0.000000  -97.245089   23.435137   -2.908480   72.698006
  0.038036072    0.000000    0.000000    0.000000    0.000000  -96.556246   19.755875   -2.966952   70.596107
  0.038236473    0.000000    0.000000    0.000000    0.000000  -96.910543   22.552864   -3.026432   68.464188
  0.038436874    0.000000    0.000000    0.000000    0.000000  -96.960463   20.064451   -3.090965   66.329712
  0.038637274    0.000000    0.000000    0.000000    0.000000  -97.845273   27.209154   -3.150897   64.209541
  0.038837675    0.000000    0.000000    0.000000    0.000000  -97.506224   27.495413   -3.210235   62.101700
  0.039038076    0.000000    0.000000    0.000000    0.000000  -97.234642   16.451729   -3.268994   59.997173
  0.039238477    0.000000    0.000000    0.000000    0.000000  -98.074632   25.003498   -3.323946   57.901501
  0.039438878    0.000000    0.000000    0.000000    0.000000  -97.409951   30.060205   -3.381614   55.788570
  0.039639278    0.000000    0.000000    0.000000    0.000000  -97.241493   25.136913   -3.438277   53.702648
  0.039839679    0.000000    0.000000    0.000000    0.000000  -98.329348   28.038885   -3.493648   51.574089
  0.040040080    0.000000    0.000000    0.000000    0.000000  -97.150073   27.692795   -3.546079   49.482780
  0.040240481    0.000000    0.000000    0.000000    0.000000  -97.419329   30.981533   -3.597025   47.409977
  0.040440882    0.000000    0.000000    0.000000    0.000000  -97.936914   28.129442   -3.649586   45.332474
  0.040641283    0.000000    0.000000    0.000000    0.000000  -98.157632   26.703213   -3.701319   43.299416
  0.040841683    0.000000    0.000000    0.000000    0.000000  -99.010993   30.899288   -3.753085   41.257042
  0.041042084    0.000000    0.000000    0.000000    0.000000  -99.734371   26.055883   -3.804239   39.250973
  0.041242485    0.000000    0.000000    0.000000    0.000000  -98.286343   16.707083   -3.858365   37.236153
  0.041442886    0.000000    0.000000    0.000000    0.000000  -97.597972   28.719337   -3.910573   35.207684
  0.041643287    0.000000    0.000000    0.000000    0.000000  -98.471838   31.604296   -3.960462   33.202023
  0.041843687    0.000000    0.000000    0.000000    0.000000  -97.987034   28.899153   -4.011809   31.193529
  0.042044088    0.000000    0.000000    0.000000    0.000000  -97.647576   25.270611   -4.060356   29.200306
  0.042244489    0.000000    0.000000    0.000000    0.000000  -98.060219   27.065628   -4.113899   27.235794
  0.042444890    0.000000    0.000000    0.000000    0.000000  -98.144316   28.852434   -4.166370   25.262129
  0.042645291    0.000000    0.000000    0.000000    0.000000  -97.110630   23.085213   -4.219903   23.300999
  0.042845691    0.000000    0.000000    0.000000    0.000000  -99.512517   28.965576   -4.274892   21.342058
  0.043046092    0.000000    0.000000    0.000000    0.000000  -98.268360   22.200018   -4.326430   19.367683
  0.043246493    0.000000    0.000000    0.000000    0.000000  -98.476000   29.482611   -4.381777   17.396585
  0.043446894    0.000000    0.000000    0.000000    0.000000 -100.325730   26.191549   -4.429957   15.435092
  0.043647295    0.000000    0.000000    0.000000    0.000000  -96.669688   37.007710   -4.481637   13.459940
  0.043847695    0.000000    0.000000    0.000000    0.000000  -99.858179   35.013729   -4.533909   11.494558
  0.044048096    0.000000    0.000000    0.000000    0.000000  -99.222517   26.844002   -4.586585    9.528603
  0.044248497    0.000000    0.000000    0.000000    0.000000  -98.154373   27.304636   -4.636291    7.555896
  0.044448898    0.000000    0.000000    0.000000    0.000000  -98.057754   33.603039   -4.687141    5.609335
  0.044649299    0.000000    0.000000    0.000000    0.000000  -97.866364   30.842205   -4.733528    3.635014
  0.044849699    0.000000    0.000000    0.000000    0.000000  -99.844189   24.253582   -4.780734    1.669333
  0.045050100    0.000000    0.000000    0.000000    0.000000  -99.510246   25.342134   -4.828294   -0.293253
  0.045250501    0.000000    0.000000    0.000000    0.000000  -99.040128   25.264181   -4.871962   -2.255640
  0.045450902    0.000000    0.000000    0.000000    0.000000  -97.963839   28.396372   -4.917297   -4.195336
  0.045651303    0.000000    0.000000    0.000000    0.000000  -98.411439   36.706917   -4.959865   -6.153210
  0.045851703    0.000000    0.000000    0.000000    0.000000  -98.534795   38.055260   -4.998262   -8.086732
  0.046052104    0.000000    0.000000    0.000000    0.000000  -97.901033   29.307434   -5.037222  -10.009395
  0.046252505    0.000000    0.000000    0.000000    0.000000  -98.848975   36.221317   -5.072872  -11.916868
  0.046452906    0.000000    0.000000    0.000000    0.000000  -97.727318   38.870205   -5.108668  -13.803984
  0.046653307    0.000000    0.000000    0.000000    0.000000  -98.145049   28.181515   -5.141590  -15.698882
  0.046853707    0.000000    0.000000    0.000000    0.000000 -100.024179   37.788052   -5.174418  -17.568079
  0.047054108    0.000000    0.000000    0.000000    0.000000  -98.711265   31.929066   -5.205700  -19.450624
  0.047254509    0.000000    0.000000    0.000000    0.000000  -97.904237   26.749687   -5.235925  -21.318489
  0.047454910    0.000000    0.000000    0.000000    0.000000  -98.158888   40.503143   -5.265405  -23.149363
  0.047655311    0.000000    0.000000    0.000000    0.000000  -98.177048   22.910051   -5.294754  -24.967415
  0.047855711    0.000000    0.000000    0.000000    0.000000  -99.517437   27.306896   -5.322650  -26.747591
  0.048056112    0.000000    0.000000    0.000000    0.000000  -98.017264   28.841082   -5.353497  -28.531637
  0.048256513    0.000000    0.000000    0.000000    0.000000  -99.253881   21.995758   -5.383671  -30.294796
  0.048456914    0.000000    0.000000    0.000000    0.000000  -98.896635   29.406721   -5.411570  -32.066578
  0.048657315    0.000000    0.000000    0.000000    0.000000  -98.844851   35.986919   -5.439040  -33.809196
  0.048857715    0.000000    0.000000    0.000000    0.000000  -97.882063   26.983700   -5.465773  -35.555824
  0.049058116    0.000000    0.000000    0.000000    0.000000  -99.964204   25.766132   -5.490999  -37.309845
  0.049258517    0.000000    0.000000    0.000000    0.000000 -100.426181   29.642494   -5.518652  -39.033443
  0.049458918    0.000000    0.000000    0.000000    0.000000 -100.093079   20.852053   -5.545487  -40.747143
  0.049659319    0.000000    0.000000    0.000000    0.000000 -100.277352   33.631527   -5.573724  -42.472107
  0.049859719    0.000000    0.000000    0.000000    0.000000  -99.768487   31.300943   -5.596191  -44.167751
  0.050060120    0.000000    0.000000    0.000000    0.000000  -99.772326   38.411785   -5.626567  -45.859562
  0.050260521    0.000000    0.000000    0.000000    0.000000  -98.728475   33.972118   -5.647225  -47.563141
  0.050460922    0.000000    0.000000    0.000000    0.000000  -98.737479   34.051682   -5.671977  -49.264542
  0.050661323    0.000000    0.000000    0.000000    0.000000 -100.578635   44.471539   -5.694712  -50.965660
  0.050861723    0.000000    0.000000    0.000000    0.000000  -99.130728   39.457050   -5.711951  -52.640133
  0.051062124    0.000000    0.000000    0.000000    0.000000  -98.172805   25.501579   -5.732943  -54.322407
  0.051262525    0.000000    0.000000    0.000000    0.000000  -97.872780   31.050596   -5.757075  -55.972809
  0.051462926    0.000000    0.000000    0.000000    0.000000  -99.462277   34.662006   -5.776969  -57.626450
  0.051663327    0.000000    0.000000    0.000000    0.000000  -98.493812   27.860435   -5.795008  -59.261848
  0.051863727    0.000000    0.000000    0.000000    0.000000  -98.271761   28.755369   -5.811602  -60.907387
  0.052064128    0.000000    0.000000    0.000000    0.000000  -98.779808   27.828663   -5.823450  -62.538334
  0.052264529    0.000000    0.000000    0.000000    0.000000  -98.826179   34.258610   -5.835256  -64.160751
  0.052464930    0.000000    0.000000    0.000000    0.000000  -99.017845   33.319992   -5.847710  -65.760101
  0.052665331    0.000000    0.000000    0.000000    0.000000  -98.558677   29.075890   -5.859807  -67.360245
  0.052865731    0.000000    0.000000    0.000000    0.000000  -98.714711   31.075144   -5.872861  -68.933838
