! Anritsu VNA Master:                     Model: MS2036C/10/77
! SN:                                  1601066
! /bd0/18may09/254.ns.m1.s2p
! Existing Calibration Information:
! TYPE:                         Current Settings,       Active Cal Settings
! TIME:             	   05/09/2018 12:40:21 PM,    05/09/2018 12:35:56 PM
! INTERNAL TEMP:    	                   57.5 C,                    56.8 C
! # POINTS:         	                      494,                       494
! START FREQ:       	               20.000 MHz,                20.000 MHz
! STOP FREQ:        	          118.797 594 MHz,           118.797 594 MHz
! SOURCE POWER:     	                     High,                      High
! IFBW:             	                    50 Hz,                     50 Hz
! AVG FACTOR:       	                       1 ,                        1 
! REF PLANE 1:      	                     0 mm,                      0 mm
! REF PLANE 2:      	                     0 mm,                      0 mm
! CAL TYPE:         	                 Full S22,                  Full S22
! CAL METHOD:       	                     SOLT,                      SOLT
! CAL LINE TYPE:    	                     Coax,                      Coax
! DUT PORT 1:       	                K-Conn(M),                 K-Conn(M)
! DUT PORT 2:       	                K-Conn(M),                 K-Conn(M)
! CAL STATUS:       	        OK: Accuracy High,                        --
# GHZ S DB R 50.0
! FREQ.GHZ       S11DB        S11A       S21DB        S21A       S12DB        S12A       S22DB        S22A
  0.020000000    0.000000    0.000000    0.000000    0.000000  -89.324507   32.366516   -0.630894 -126.664505
  0.020200401    0.000000    0.000000    0.000000    0.000000  -89.296329   35.989254   -0.634276 -128.122681
  0.020400802    0.000000    0.000000    0.000000    0.000000  -90.387111   33.611885   -0.637824 -129.597214
  0.020601202    0.000000    0.000000    0.000000    0.000000  -90.445843   31.738213   -0.642147 -131.110504
  0.020801603    0.000000    0.000000    0.000000    0.000000  -90.641670   30.618860   -0.644417 -132.613388
  0.021002004    0.000000    0.000000    0.000000    0.000000  -91.123564   32.215458   -0.646170 -134.172363
  0.021202405    0.000000    0.000000    0.000000    0.000000  -91.743001   34.075348   -0.648665 -135.707275
  0.021402806    0.000000    0.000000    0.000000    0.000000  -91.231501   35.615005   -0.650452 -137.251404
  0.021603206    0.000000    0.000000    0.000000    0.000000  -91.842845   37.482258   -0.653226 -138.787384
  0.021803607    0.000000    0.000000    0.000000    0.000000  -91.559343   38.978031   -0.658370 -140.339371
  0.022004008    0.000000    0.000000    0.000000    0.000000  -92.085488   37.350513   -0.664727 -141.895691
  0.022204409    0.000000    0.000000    0.000000    0.000000  -91.831592   43.264515   -0.669624 -143.477280
  0.022404810    0.000000    0.000000    0.000000    0.000000  -92.126320   38.452408   -0.675351 -145.078583
  0.022605210    0.000000    0.000000    0.000000    0.000000  -92.227395   42.268745   -0.675847 -146.694672
  0.022805611    0.000000    0.000000    0.000000    0.000000  -91.966444   41.793156   -0.681899 -148.318832
  0.023006012    0.000000    0.000000    0.000000    0.000000  -91.144048   40.866108   -0.687982 -149.925095
  0.023206413    0.000000    0.000000    0.000000    0.000000  -91.477846   42.370186   -0.695304 -151.521469
  0.023406814    0.000000    0.000000    0.000000    0.000000  -91.045608   38.940670   -0.700891 -153.137161
  0.023607214    0.000000    0.000000    0.000000    0.000000  -91.083483   39.420933   -0.708146 -154.755646
  0.023807615    0.000000    0.000000    0.000000    0.000000  -91.137154   38.534630   -0.717744 -156.382324
  0.024008016    0.000000    0.000000    0.000000    0.000000  -90.989663   38.231606   -0.728804 -158.043213
  0.024208417    0.000000    0.000000    0.000000    0.000000  -91.393670   34.924042   -0.737393 -159.706375
  0.024408818    0.000000    0.000000    0.000000    0.000000  -91.354589   34.128922   -0.743891 -161.374817
  0.024609218    0.000000    0.000000    0.000000    0.000000  -90.729784   31.038347   -0.751357 -163.046356
  0.024809619    0.000000    0.000000    0.000000    0.000000  -91.669160   30.158745   -0.760536 -164.715958
  0.025010020    0.000000    0.000000    0.000000    0.000000  -91.603745   29.672224   -0.771684 -166.394821
  0.025210421    0.000000    0.000000    0.000000    0.000000  -92.215089   27.419075   -0.782282 -168.088760
  0.025410822    0.000000    0.000000    0.000000    0.000000  -91.881762   26.547037   -0.790787 -169.779251
  0.025611222    0.000000    0.000000    0.000000    0.000000  -92.177037   28.839708   -0.802256 -171.485992
  0.025811623    0.000000    0.000000    0.000000    0.000000  -93.001785   25.954750   -0.813483 -173.219833
  0.026012024    0.000000    0.000000    0.000000    0.000000  -92.746652   22.931618   -0.824376 -174.957413
  0.026212425    0.000000    0.000000    0.000000    0.000000  -93.458450   24.611347   -0.835773 -176.701813
  0.026412826    0.000000    0.000000    0.000000    0.000000  -93.680803   22.084394   -0.847622 -178.460907
  0.026613226    0.000000    0.000000    0.000000    0.000000  -93.943343   25.833271   -0.861244  179.776276
  0.026813627    0.000000    0.000000    0.000000    0.000000  -93.729247   20.482590   -0.876441  177.999939
  0.027014028    0.000000    0.000000    0.000000    0.000000  -94.439564   27.125618   -0.890857  176.219711
  0.027214429    0.000000    0.000000    0.000000    0.000000  -94.749831   29.909460   -0.906778  174.435043
  0.027414830    0.000000    0.000000    0.000000    0.000000  -94.802050   27.487286   -0.923440  172.636383
  0.027615230    0.000000    0.000000    0.000000    0.000000  -95.332886   27.365185   -0.939384  170.820648
  0.027815631    0.000000    0.000000    0.000000    0.000000  -94.955396   30.297026   -0.957642  169.007690
  0.028016032    0.000000    0.000000    0.000000    0.000000  -94.813511   30.410427   -0.976162  167.168701
  0.028216433    0.000000    0.000000    0.000000    0.000000  -95.006947   35.396439   -0.995892  165.329895
  0.028416834    0.000000    0.000000    0.000000    0.000000  -94.626541   31.000044   -1.015556  163.468765
  0.028617234    0.000000    0.000000    0.000000    0.000000  -94.365693   33.187496   -1.035957  161.608994
  0.028817635    0.000000    0.000000    0.000000    0.000000  -94.003780   36.439949   -1.057056  159.741333
  0.029018036    0.000000    0.000000    0.000000    0.000000  -93.788037   29.612900   -1.080673  157.889587
  0.029218437    0.000000    0.000000    0.000000    0.000000  -94.334849   33.364017   -1.104161  156.006927
  0.029418838    0.000000    0.000000    0.000000    0.000000  -94.572947   28.960661   -1.129775  154.100128
  0.029619238    0.000000    0.000000    0.000000    0.000000  -94.200828   29.805702   -1.156606  152.199646
  0.029819639    0.000000    0.000000    0.000000    0.000000  -94.685337   33.212181   -1.182004  150.290665
  0.030020040    0.000000    0.000000    0.000000    0.000000  -93.886304   27.986359   -1.210012  148.367264
  0.030220441    0.000000    0.000000    0.000000    0.000000  -94.013644   25.914253   -1.236765  146.445999
  0.030420842    0.000000    0.000000    0.000000    0.000000  -94.131769   29.930071   -1.264079  144.527145
  0.030621242    0.000000    0.000000    0.000000    0.000000  -94.351430   28.474392   -1.294662  142.613083
  0.030821643    0.000000    0.000000    0.000000    0.000000  -94.756965   27.416510   -1.324271  140.688889
  0.031022044    0.000000    0.000000    0.000000    0.000000  -93.748198   23.478069   -1.356465  138.743515
  0.031222445    0.000000    0.000000    0.000000    0.000000  -94.715416   14.246120   -1.381430  136.807373
  0.031422846    0.000000    0.000000    0.000000    0.000000  -94.211880   22.524546   -1.415772  134.830612
  0.031623246    0.000000    0.000000    0.000000    0.000000  -94.412809   19.287743   -1.449018  132.842819
  0.031823647    0.000000    0.000000    0.000000    0.000000  -95.026819   12.362603   -1.482636  130.862427
  0.032024048    0.000000    0.000000    0.000000    0.000000  -96.188703   16.733677   -1.516500  128.882095
  0.032224449    0.000000    0.000000    0.000000    0.000000  -94.992706   13.386207   -1.551557  126.887756
  0.032424850    0.000000    0.000000    0.000000    0.000000  -95.512656   18.250820   -1.588532  124.892288
  0.032625250    0.000000    0.000000    0.000000    0.000000  -95.719427   24.960838   -1.622811  122.882408
  0.032825651    0.000000    0.000000    0.000000    0.000000  -95.694197   18.739361   -1.659575  120.843079
  0.033026052    0.000000    0.000000    0.000000    0.000000  -95.330196   19.406738   -1.695616  118.813805
  0.033226453    0.000000    0.000000    0.000000    0.000000  -96.177072   22.315338   -1.731628  116.753220
  0.033426854    0.000000    0.000000    0.000000    0.000000  -96.608228   22.899303   -1.763837  114.726715
  0.033627254    0.000000    0.000000    0.000000    0.000000  -96.173875   19.209162   -1.808208  112.683868
  0.033827655    0.000000    0.000000    0.000000    0.000000  -97.790256   22.996710   -1.844734  110.651741
  0.034028056    0.000000    0.000000    0.000000    0.000000  -96.411717   32.312122   -1.883765  108.599426
  0.034228457    0.000000    0.000000    0.000000    0.000000  -96.185298   23.441965   -1.925892  106.536591
  0.034428858    0.000000    0.000000    0.000000    0.000000  -96.525935   19.386784   -1.966285  104.470657
  0.034629258    0.000000    0.000000    0.000000    0.000000  -96.450799   26.318443   -2.006135  102.374290
  0.034829659    0.000000    0.000000    0.000000    0.000000  -96.456446   29.251719   -2.050379  100.304405
  0.035030060    0.000000    0.000000    0.000000    0.000000  -95.345296   21.673002   -2.096490   98.228401
  0.035230461    0.000000    0.000000    0.000000    0.000000  -95.840854   21.355213   -2.142027   96.145927
  0.035430862    0.000000    0.000000    0.000000    0.000000  -96.914583   29.119268   -2.189797   94.056030
  0.035631262    0.000000    0.000000    0.000000    0.000000  -95.692996   25.488371   -2.234512   91.963577
  0.035831663    0.000000    0.000000    0.000000    0.000000  -96.428738   29.789894   -2.284435   89.873993
  0.036032064    0.000000    0.000000    0.000000    0.000000  -96.179860   23.374260   -2.332141   87.777336
  0.036232465    0.000000    0.000000    0.000000    0.000000  -96.527135   24.937237   -2.380398   85.696709
  0.036432866    0.000000    0.000000    0.000000    0.000000  -97.068865   25.149914   -2.429410   83.601471
  0.036633266    0.000000    0.000000    0.000000    0.000000  -97.780197   17.589760   -2.479602   81.509254
  0.036833667    0.000000    0.000000    0.000000    0.000000  -96.072276   22.591908   -2.532003   79.421432
  0.037034068    0.000000    0.000000    0.000000    0.000000  -95.830590   21.381250   -2.586016   77.326721
  0.037234469    0.000000    0.000000    0.000000    0.000000  -95.855424   20.944334   -2.636239   75.226738
  0.037434870    0.000000    0.000000    0.000000    0.000000  -97.945340   16.965395   -2.689453   73.131630
  0.037635270    0.000000    0.000000    0.000000    0.000000  -96.666802   22.119377   -2.741609   71.018372
  0.037835671    0.000000    0.000000    0.000000    0.000000  -97.081983   18.979080   -2.806981   68.913834
  0.038036072    0.000000    0.000000    0.000000    0.000000  -99.275335   23.155880   -2.867908   66.867638
  0.038236473    0.000000    0.000000    0.000000    0.000000  -98.844276   25.444902   -2.923555   64.805077
  0.038436874    0.000000    0.000000    0.000000    0.000000  -96.642659   22.220964   -2.979074   62.720917
  0.038637274    0.000000    0.000000    0.000000    0.000000  -97.309948   24.152689   -3.033118   60.650032
  0.038837675    0.000000    0.000000    0.000000    0.000000  -98.458836   18.134951   -3.083930   58.577282
  0.039038076    0.000000    0.000000    0.000000    0.000000  -97.821183   27.152096   -3.136309   56.501511
  0.039238477    0.000000    0.000000    0.000000    0.000000  -98.250390   25.492289   -3.188505   54.450436
  0.039438878    0.000000    0.000000    0.000000    0.000000  -97.692269   22.717249   -3.242527   52.376217
  0.039639278    0.000000    0.000000    0.000000    0.000000  -98.597709   26.336029   -3.295592   50.328129
  0.039839679    0.000000    0.000000    0.000000    0.000000  -98.379718   28.800524   -3.350268   48.248112
  0.040040080    0.000000    0.000000    0.000000    0.000000  -97.476171   23.898584   -3.398516   46.154335
  0.040240481    0.000000    0.000000    0.000000    0.000000  -97.465122   20.672606   -3.453008   44.099384
  0.040440882    0.000000    0.000000    0.000000    0.000000  -97.827531   25.786131   -3.502373   42.048115
  0.040641283    0.000000    0.000000    0.000000    0.000000  -98.515052   25.816441   -3.555273   40.003819
  0.040841683    0.000000    0.000000    0.000000    0.000000  -97.389354   24.894892   -3.602847   37.967289
  0.041042084    0.000000    0.000000    0.000000    0.000000  -98.525460   24.220493   -3.654071   35.940601
  0.041242485    0.000000    0.000000    0.000000    0.000000  -98.550413   27.233482   -3.705442   33.912563
  0.041442886    0.000000    0.000000    0.000000    0.000000  -97.424078   28.940516   -3.756068   31.880711
  0.041643287    0.000000    0.000000    0.000000    0.000000  -99.176721   32.185452   -3.801799   29.851475
  0.041843687    0.000000    0.000000    0.000000    0.000000  -98.818442   27.362640   -3.852344   27.820461
  0.042044088    0.000000    0.000000    0.000000    0.000000  -98.358928   28.713831   -3.899837   25.811632
  0.042244489    0.000000    0.000000    0.000000    0.000000  -97.794496   20.775213   -3.945091   23.787813
  0.042444890    0.000000    0.000000    0.000000    0.000000  -97.324953   27.328766   -3.992093   21.817230
  0.042645291    0.000000    0.000000    0.000000    0.000000  -97.002360   27.082840   -4.042270   19.819826
  0.042845691    0.000000    0.000000    0.000000    0.000000  -97.583583   29.718010   -4.087537   17.850048
  0.043046092    0.000000    0.000000    0.000000    0.000000  -97.269100   24.716326   -4.133912   15.856563
  0.043246493    0.000000    0.000000    0.000000    0.000000  -96.985230   20.401077   -4.179156   13.896152
  0.043446894    0.000000    0.000000    0.000000    0.000000  -98.939542   28.640749   -4.222005   11.937060
  0.043647295    0.000000    0.000000    0.000000    0.000000  -98.626697   27.876732   -4.264267    9.963377
  0.043847695    0.000000    0.000000    0.000000    0.000000  -98.898309   31.588007   -4.306712    8.033534
  0.044048096    0.000000    0.000000    0.000000    0.000000  -99.384986   33.804066   -4.350265    6.108356
  0.044248497    0.000000    0.000000    0.000000    0.000000  -97.938284   38.079319   -4.392831    4.185100
  0.044448898    0.000000    0.000000    0.000000    0.000000  -98.904840   32.753792   -4.432015    2.293053
  0.044649299    0.000000    0.000000    0.000000    0.000000 -100.103392   27.404028   -4.474636    0.393971
  0.044849699    0.000000    0.000000    0.000000    0.000000  -98.862904   27.050926   -4.512877   -1.492270
  0.045050100    0.000000    0.000000    0.000000    0.000000  -99.772000   39.886379   -4.551925   -3.399321
  0.045250501    0.000000    0.000000    0.000000    0.000000  -97.688366   33.280499   -4.589116   -5.265497
  0.045450902    0.000000    0.000000    0.000000    0.000000  -98.045156   27.500011   -4.629252   -7.131322
  0.045651303    0.000000    0.000000    0.000000    0.000000  -99.497178   31.846819   -4.670232   -9.007765
  0.045851703    0.000000    0.000000    0.000000    0.000000  -98.548980   28.362818   -4.704150  -10.854726
  0.046052104    0.000000    0.000000    0.000000    0.000000  -99.392590   37.205799   -4.739740  -12.694425
  0.046252505    0.000000    0.000000    0.000000    0.000000  -98.574676   30.334980   -4.775937  -14.527862
  0.046452906    0.000000    0.000000    0.000000    0.000000  -99.037457   39.634495   -4.810675  -16.352100
  0.046653307    0.000000    0.000000    0.000000    0.000000  -98.587208   26.048538   -4.845007  -18.184504
  0.046853707    0.000000    0.000000    0.000000    0.000000  -97.578913   34.634544   -4.876225  -20.007648
  0.047054108    0.000000    0.000000    0.000000    0.000000  -99.712794   35.121948   -4.910918  -21.833206
  0.047254509    0.000000    0.000000    0.000000    0.000000  -98.504718   24.123190   -4.940129  -23.664837
  0.047454910    0.000000    0.000000    0.000000    0.000000  -98.877823   28.097126   -4.970032  -25.460871
  0.047655311    0.000000    0.000000    0.000000    0.000000  -98.568624   30.756510   -5.003844  -27.258200
  0.047855711    0.000000    0.000000    0.000000    0.000000  -99.871345   34.951118   -5.034966  -29.050987
  0.048056112    0.000000    0.000000    0.000000    0.000000  -99.360755   29.865614   -5.063725  -30.823410
  0.048256513    0.000000    0.000000    0.000000    0.000000  -99.173652   27.786196   -5.091616  -32.579197
  0.048456914    0.000000    0.000000    0.000000    0.000000 -100.472955   24.871988   -5.120493  -34.343121
  0.048657315    0.000000    0.000000    0.000000    0.000000  -99.145893   36.712852   -5.146893  -36.101513
  0.048857715    0.000000    0.000000    0.000000    0.000000  -99.746313   41.285896   -5.168088  -37.855339
  0.049058116    0.000000    0.000000    0.000000    0.000000  -98.554854   23.138029   -5.192559  -39.609226
  0.049258517    0.000000    0.000000    0.000000    0.000000  -99.853840   25.871998   -5.213115  -41.347187
  0.049458918    0.000000    0.000000    0.000000    0.000000  -99.085147   32.543598   -5.239425  -43.061794
  0.049659319    0.000000    0.000000    0.000000    0.000000  -99.238346   31.615446   -5.263332  -44.772015
  0.049859719    0.000000    0.000000    0.000000    0.000000  -99.625257   31.820910   -5.281403  -46.447506
  0.050060120    0.000000    0.000000    0.000000    0.000000  -99.252482   22.856077   -5.302366  -48.110840
  0.050260521    0.000000    0.000000    0.000000    0.000000  -99.388458   35.382164   -5.321386  -49.800804
  0.050460922    0.000000    0.000000    0.000000    0.000000 -101.286243   25.781609   -5.338966  -51.473267
  0.050661323    0.000000    0.000000    0.000000    0.000000  -99.657936   24.828804   -5.353800  -53.118492
  0.050861723    0.000000    0.000000    0.000000    0.000000  -99.566528   28.581736   -5.369996  -54.765472
  0.051062124    0.000000    0.000000    0.000000    0.000000  -98.354311   30.347357   -5.387506  -56.388824
  0.051262525    0.000000    0.000000    0.000000    0.000000  -99.517546   26.371624   -5.403932  -57.961819
  0.051462926    0.000000    0.000000    0.000000    0.000000  -99.089045   40.344975   -5.422795  -59.547768
  0.051663327    0.000000    0.000000    0.000000    0.000000  -99.124756   38.547382   -5.437067  -61.128124
  0.051863727    0.000000    0.000000    0.000000    0.000000  -99.554301   38.177635   -5.452165  -62.692215
  0.052064128    0.000000    0.000000    0.000000    0.000000  -98.556144   36.667477   -5.461505  -64.255806
  0.052264529    0.000000    0.000000    0.000000    0.000000  -98.145686   37.371651   -5.473093  -65.817924
  0.052464930    0.000000    0.000000    0.000000    0.000000 -100.758364   23.243021   -5.486938  -67.335724
  0.052665331    0.000000    0.000000    0.000000    0.000000  -98.545461   33.976288   -5.499508  -68.873459
  0.052865731    0.000000    0.000000    0.000000    0.000000  -98.327833   33.455944   -5.509650  -70.366425
