! Anritsu VNA Master:                     Model: MS2036C/10/77
! SN:                                  1601066
! /bd0/18may09/254.ns.m3.s2p
! Existing Calibration Information:
! TYPE:                         Current Settings,       Active Cal Settings
! TIME:             	   05/09/2018 12:44:33 PM,    05/09/2018 12:35:56 PM
! INTERNAL TEMP:    	                   57.8 C,                    56.8 C
! # POINTS:         	                      494,                       494
! START FREQ:       	               20.000 MHz,                20.000 MHz
! STOP FREQ:        	          118.797 594 MHz,           118.797 594 MHz
! SOURCE POWER:     	                     High,                      High
! IFBW:             	                    50 Hz,                     50 Hz
! AVG FACTOR:       	                       1 ,                        1 
! REF PLANE 1:      	                     0 mm,                      0 mm
! REF PLANE 2:      	                     0 mm,                      0 mm
! CAL TYPE:         	                 Full S22,                  Full S22
! CAL METHOD:       	                     SOLT,                      SOLT
! CAL LINE TYPE:    	                     Coax,                      Coax
! DUT PORT 1:       	                K-Conn(M),                 K-Conn(M)
! DUT PORT 2:       	                K-Conn(M),                 K-Conn(M)
! CAL STATUS:       	        OK: Accuracy High,                        --
# GHZ S DB R 50.0
! FREQ.GHZ       S11DB        S11A       S21DB        S21A       S12DB        S12A       S22DB        S22A
  0.020000000    0.000000    0.000000    0.000000    0.000000  -89.423661   32.549149   -0.634500 -126.501343
  0.020200401    0.000000    0.000000    0.000000    0.000000  -90.167937   32.451057   -0.638474 -127.957024
  0.020400802    0.000000    0.000000    0.000000    0.000000  -90.634802   32.523277   -0.641971 -129.425903
  0.020601202    0.000000    0.000000    0.000000    0.000000  -90.551920   35.274338   -0.647179 -130.937927
  0.020801603    0.000000    0.000000    0.000000    0.000000  -91.028102   33.681297   -0.649616 -132.447342
  0.021002004    0.000000    0.000000    0.000000    0.000000  -90.887507   31.913574   -0.650666 -133.990707
  0.021202405    0.000000    0.000000    0.000000    0.000000  -91.237352   35.808918   -0.654792 -135.532150
  0.021402806    0.000000    0.000000    0.000000    0.000000  -91.693835   35.814030   -0.657115 -137.085831
  0.021603206    0.000000    0.000000    0.000000    0.000000  -92.199660   31.942814   -0.659986 -138.622955
  0.021803607    0.000000    0.000000    0.000000    0.000000  -92.101718   37.281948   -0.665729 -140.180237
  0.022004008    0.000000    0.000000    0.000000    0.000000  -92.159864   41.137665   -0.672647 -141.730194
  0.022204409    0.000000    0.000000    0.000000    0.000000  -92.253817   36.601212   -0.676182 -143.325256
  0.022404810    0.000000    0.000000    0.000000    0.000000  -91.362314   43.391804   -0.681272 -144.944351
  0.022605210    0.000000    0.000000    0.000000    0.000000  -91.558891   45.915726   -0.684298 -146.562927
  0.022805611    0.000000    0.000000    0.000000    0.000000  -91.902327   44.387402   -0.691288 -148.195358
  0.023006012    0.000000    0.000000    0.000000    0.000000  -91.662585   38.808075   -0.697540 -149.802826
  0.023206413    0.000000    0.000000    0.000000    0.000000  -91.494734   38.953663   -0.703834 -151.410446
  0.023406814    0.000000    0.000000    0.000000    0.000000  -91.372621   40.984802   -0.708017 -153.038376
  0.023607214    0.000000    0.000000    0.000000    0.000000  -91.245517   38.694622   -0.714950 -154.666626
  0.023807615    0.000000    0.000000    0.000000    0.000000  -91.321376   37.876629   -0.724343 -156.298004
  0.024008016    0.000000    0.000000    0.000000    0.000000  -91.662024   38.610264   -0.734712 -157.954330
  0.024208417    0.000000    0.000000    0.000000    0.000000  -91.122981   36.279480   -0.742963 -159.618103
  0.024408818    0.000000    0.000000    0.000000    0.000000  -91.002924   33.419167   -0.747890 -161.291367
  0.024609218    0.000000    0.000000    0.000000    0.000000  -91.721918   30.696472   -0.755955 -162.960236
  0.024809619    0.000000    0.000000    0.000000    0.000000  -91.677459   31.684233   -0.764383 -164.623505
  0.025010020    0.000000    0.000000    0.000000    0.000000  -91.657887   28.801888   -0.775116 -166.311508
  0.025210421    0.000000    0.000000    0.000000    0.000000  -91.975075   25.443253   -0.784240 -167.995392
  0.025410822    0.000000    0.000000    0.000000    0.000000  -92.464253   25.609543   -0.794815 -169.696609
  0.025611222    0.000000    0.000000    0.000000    0.000000  -92.672758   24.378075   -0.806108 -171.394287
  0.025811623    0.000000    0.000000    0.000000    0.000000  -92.149205   27.262547   -0.816606 -173.110443
  0.026012024    0.000000    0.000000    0.000000    0.000000  -92.610294   24.048265   -0.827387 -174.855164
  0.026212425    0.000000    0.000000    0.000000    0.000000  -93.130177   24.271338   -0.838042 -176.595871
  0.026412826    0.000000    0.000000    0.000000    0.000000  -93.261988   21.542915   -0.850882 -178.350174
  0.026613226    0.000000    0.000000    0.000000    0.000000  -93.790718   26.360508   -0.864698  179.886383
  0.026813627    0.000000    0.000000    0.000000    0.000000  -93.874374   23.557583   -0.879304  178.111557
  0.027014028    0.000000    0.000000    0.000000    0.000000  -95.155358   24.448513   -0.894886  176.336838
  0.027214429    0.000000    0.000000    0.000000    0.000000  -94.263999   30.695959   -0.912456  174.553101
  0.027414830    0.000000    0.000000    0.000000    0.000000  -95.443618   27.517252   -0.928235  172.748718
  0.027615230    0.000000    0.000000    0.000000    0.000000  -94.706532   30.521509   -0.945607  170.930862
  0.027815631    0.000000    0.000000    0.000000    0.000000  -94.910019   28.012743   -0.962423  169.117935
  0.028016032    0.000000    0.000000    0.000000    0.000000  -95.331741   33.361115   -0.981032  167.272949
  0.028216433    0.000000    0.000000    0.000000    0.000000  -94.774729   30.401237   -1.001797  165.428528
  0.028416834    0.000000    0.000000    0.000000    0.000000  -94.244972   31.144901   -1.021372  163.568008
  0.028617234    0.000000    0.000000    0.000000    0.000000  -93.896471   29.596121   -1.042315  161.703888
  0.028817635    0.000000    0.000000    0.000000    0.000000  -95.587676   31.102493   -1.063295  159.839462
  0.029018036    0.000000    0.000000    0.000000    0.000000  -94.526184   30.814821   -1.086066  157.975952
  0.029218437    0.000000    0.000000    0.000000    0.000000  -94.338346   32.410259   -1.110177  156.086792
  0.029418838    0.000000    0.000000    0.000000    0.000000  -93.741989   32.067524   -1.134419  154.188782
  0.029619238    0.000000    0.000000    0.000000    0.000000  -93.913230   36.411877   -1.160576  152.285522
  0.029819639    0.000000    0.000000    0.000000    0.000000  -94.442755   29.808130   -1.186163  150.380081
  0.030020040    0.000000    0.000000    0.000000    0.000000  -94.150353   28.872467   -1.213194  148.458389
  0.030220441    0.000000    0.000000    0.000000    0.000000  -93.538065   25.790813   -1.239248  146.540634
  0.030420842    0.000000    0.000000    0.000000    0.000000  -94.430163   27.014116   -1.266355  144.625793
  0.030621242    0.000000    0.000000    0.000000    0.000000  -94.496808   19.783007   -1.295291  142.722168
  0.030821643    0.000000    0.000000    0.000000    0.000000  -94.705829   22.769552   -1.325941  140.811752
  0.031022044    0.000000    0.000000    0.000000    0.000000  -94.531309   23.082632   -1.357378  138.879669
  0.031222445    0.000000    0.000000    0.000000    0.000000  -94.926747   14.098730   -1.382989  136.948975
  0.031422846    0.000000    0.000000    0.000000    0.000000  -94.671128   18.433369   -1.416323  134.980774
  0.031623246    0.000000    0.000000    0.000000    0.000000  -94.999394   14.509928   -1.450724  133.009460
  0.031823647    0.000000    0.000000    0.000000    0.000000  -95.372290   19.025976   -1.482166  131.034912
  0.032024048    0.000000    0.000000    0.000000    0.000000  -95.498025   14.580140   -1.518029  129.058838
  0.032224449    0.000000    0.000000    0.000000    0.000000  -95.348584   18.894056   -1.552760  127.079247
  0.032424850    0.000000    0.000000    0.000000    0.000000  -95.704902   16.517504   -1.589881  125.085693
  0.032625250    0.000000    0.000000    0.000000    0.000000  -95.790256   24.471981   -1.624020  123.087593
  0.032825651    0.000000    0.000000    0.000000    0.000000  -96.990199   22.164959   -1.661839  121.056755
  0.033026052    0.000000    0.000000    0.000000    0.000000  -95.870281   16.441212   -1.699089  119.021988
  0.033226453    0.000000    0.000000    0.000000    0.000000  -95.433485   15.247422   -1.734453  116.962738
  0.033426854    0.000000    0.000000    0.000000    0.000000  -96.727208   19.042431   -1.769693  114.948174
  0.033627254    0.000000    0.000000    0.000000    0.000000  -96.155746   23.718077   -1.813973  112.908173
  0.033827655    0.000000    0.000000    0.000000    0.000000  -96.078097   24.472925   -1.850401  110.857895
  0.034028056    0.000000    0.000000    0.000000    0.000000  -96.183387   23.683336   -1.890667  108.803139
  0.034228457    0.000000    0.000000    0.000000    0.000000  -96.590755   29.295139   -1.935059  106.734642
  0.034428858    0.000000    0.000000    0.000000    0.000000  -96.733773   26.528601   -1.974128  104.652313
  0.034629258    0.000000    0.000000    0.000000    0.000000  -96.664856   21.552216   -2.017413  102.556435
  0.034829659    0.000000    0.000000    0.000000    0.000000  -96.230898   19.760195   -2.060625  100.464767
  0.035030060    0.000000    0.000000    0.000000    0.000000  -96.393248   24.076351   -2.106101   98.376160
  0.035230461    0.000000    0.000000    0.000000    0.000000  -95.876501   23.487972   -2.151679   96.285713
  0.035430862    0.000000    0.000000    0.000000    0.000000  -96.312003   33.964886   -2.199926   94.183929
  0.035631262    0.000000    0.000000    0.000000    0.000000  -96.750028   28.904274   -2.245429   92.084152
  0.035831663    0.000000    0.000000    0.000000    0.000000  -97.843276   23.496717   -2.294325   89.990318
  0.036032064    0.000000    0.000000    0.000000    0.000000  -96.690877   25.206230   -2.341444   87.887985
  0.036232465    0.000000    0.000000    0.000000    0.000000  -96.599878   21.473330   -2.387712   85.794449
  0.036432866    0.000000    0.000000    0.000000    0.000000  -97.249169   25.541807   -2.437990   83.704163
  0.036633266    0.000000    0.000000    0.000000    0.000000  -96.449400   21.027338   -2.486467   81.601364
  0.036833667    0.000000    0.000000    0.000000    0.000000  -96.425018   25.947750   -2.537846   79.511177
  0.037034068    0.000000    0.000000    0.000000    0.000000  -97.086003   26.426769   -2.590629   77.414116
  0.037234469    0.000000    0.000000    0.000000    0.000000  -96.148819   18.532381   -2.640451   75.324829
  0.037434870    0.000000    0.000000    0.000000    0.000000  -96.511195   21.161732   -2.693891   73.229263
  0.037635270    0.000000    0.000000    0.000000    0.000000  -96.928559   19.730501   -2.745938   71.128784
  0.037835671    0.000000    0.000000    0.000000    0.000000  -97.454006   14.593616   -2.810649   69.037704
  0.038036072    0.000000    0.000000    0.000000    0.000000  -97.975837   22.677896   -2.871887   67.003349
  0.038236473    0.000000    0.000000    0.000000    0.000000  -97.470099   21.877739   -2.926484   64.952698
  0.038436874    0.000000    0.000000    0.000000    0.000000  -99.653662   23.039316   -2.980842   62.862274
  0.038637274    0.000000    0.000000    0.000000    0.000000  -97.185477   19.095604   -3.034156   60.807140
  0.038837675    0.000000    0.000000    0.000000    0.000000  -98.554370   22.878683   -3.085544   58.755547
  0.039038076    0.000000    0.000000    0.000000    0.000000  -96.650589   15.179891   -3.139746   56.685535
  0.039238477    0.000000    0.000000    0.000000    0.000000  -97.049544   19.852966   -3.192078   54.643978
  0.039438878    0.000000    0.000000    0.000000    0.000000  -97.717858   23.136906   -3.246322   52.571430
  0.039639278    0.000000    0.000000    0.000000    0.000000  -98.277350   24.387791   -3.299752   50.519619
  0.039839679    0.000000    0.000000    0.000000    0.000000  -98.582265   28.600863   -3.355322   48.442833
  0.040040080    0.000000    0.000000    0.000000    0.000000  -98.609360   29.832150   -3.403788   46.371632
  0.040240481    0.000000    0.000000    0.000000    0.000000  -97.994514   24.564310   -3.456353   44.321564
  0.040440882    0.000000    0.000000    0.000000    0.000000  -98.449544   25.075224   -3.508748   42.253605
  0.040641283    0.000000    0.000000    0.000000    0.000000  -98.658483   31.374853   -3.559179   40.214741
  0.040841683    0.000000    0.000000    0.000000    0.000000  -97.168772   34.664551   -3.609330   38.177826
  0.041042084    0.000000    0.000000    0.000000    0.000000  -96.946258   28.371876   -3.661429   36.151920
  0.041242485    0.000000    0.000000    0.000000    0.000000  -96.762497   23.550507   -3.713307   34.115925
  0.041442886    0.000000    0.000000    0.000000    0.000000  -98.546258   26.565311   -3.761853   32.085407
  0.041643287    0.000000    0.000000    0.000000    0.000000  -98.156212   19.811827   -3.809664   30.043184
  0.041843687    0.000000    0.000000    0.000000    0.000000  -98.185099   26.924086   -3.858474   28.007027
  0.042044088    0.000000    0.000000    0.000000    0.000000  -97.533555   21.581989   -3.904400   25.994646
  0.042244489    0.000000    0.000000    0.000000    0.000000  -96.440477   27.157326   -3.949952   23.978708
  0.042444890    0.000000    0.000000    0.000000    0.000000  -97.722332   33.059940   -3.997782   21.992447
  0.042645291    0.000000    0.000000    0.000000    0.000000  -98.208683   25.481913   -4.044983   20.003555
  0.042845691    0.000000    0.000000    0.000000    0.000000 -100.171167   29.177519   -4.088912   18.030207
  0.043046092    0.000000    0.000000    0.000000    0.000000  -98.549639   30.290386   -4.136298   16.054161
  0.043246493    0.000000    0.000000    0.000000    0.000000  -98.601329   31.667219   -4.178971   14.084333
  0.043446894    0.000000    0.000000    0.000000    0.000000  -98.271495   29.753984   -4.222037   12.122462
  0.043647295    0.000000    0.000000    0.000000    0.000000  -98.073362   35.490574   -4.261953   10.161916
  0.043847695    0.000000    0.000000    0.000000    0.000000  -98.853136   29.915936   -4.304637    8.233648
  0.044048096    0.000000    0.000000    0.000000    0.000000  -97.932524   24.329281   -4.348067    6.335540
  0.044248497    0.000000    0.000000    0.000000    0.000000  -98.303481   26.557043   -4.387510    4.421312
  0.044448898    0.000000    0.000000    0.000000    0.000000 -100.738679   25.226585   -4.428062    2.537622
  0.044649299    0.000000    0.000000    0.000000    0.000000 -100.078659   28.891644   -4.469163    0.643065
  0.044849699    0.000000    0.000000    0.000000    0.000000  -99.481570   29.387976   -4.507313   -1.228569
  0.045050100    0.000000    0.000000    0.000000    0.000000  -97.554724   21.929953   -4.547586   -3.110402
  0.045250501    0.000000    0.000000    0.000000    0.000000  -98.316599   25.199677   -4.585929   -4.955202
  0.045450902    0.000000    0.000000    0.000000    0.000000  -98.574981   36.705654   -4.626272   -6.825157
  0.045651303    0.000000    0.000000    0.000000    0.000000  -98.865677   30.156921   -4.665277   -8.684647
  0.045851703    0.000000    0.000000    0.000000    0.000000  -99.201102   25.053699   -4.702970  -10.527077
  0.046052104    0.000000    0.000000    0.000000    0.000000  -98.392581   27.374226   -4.738899  -12.350039
  0.046252505    0.000000    0.000000    0.000000    0.000000  -99.072344   30.493008   -4.775540  -14.188966
  0.046452906    0.000000    0.000000    0.000000    0.000000  -98.921147   28.739212   -4.809663  -16.003382
  0.046653307    0.000000    0.000000    0.000000    0.000000  -98.730188   34.975758   -4.846164  -17.838921
  0.046853707    0.000000    0.000000    0.000000    0.000000  -99.024041   33.894039   -4.878875  -19.660137
  0.047054108    0.000000    0.000000    0.000000    0.000000  -99.070084   33.566277   -4.913616  -21.490273
  0.047254509    0.000000    0.000000    0.000000    0.000000  -98.385484   21.133394   -4.946447  -23.311663
  0.047454910    0.000000    0.000000    0.000000    0.000000  -98.166877   35.496620   -4.978800  -25.126627
  0.047655311    0.000000    0.000000    0.000000    0.000000  -98.032474   29.000185   -5.011510  -26.921303
  0.047855711    0.000000    0.000000    0.000000    0.000000  -97.865668   27.149019   -5.044457  -28.717995
  0.048056112    0.000000    0.000000    0.000000    0.000000  -99.609911   28.763638   -5.073988  -30.508478
  0.048256513    0.000000    0.000000    0.000000    0.000000  -98.531445   24.839968   -5.102529  -32.283382
  0.048456914    0.000000    0.000000    0.000000    0.000000  -98.611135   27.473730   -5.130704  -34.046452
  0.048657315    0.000000    0.000000    0.000000    0.000000  -98.607739   31.190605   -5.158065  -35.812553
  0.048857715    0.000000    0.000000    0.000000    0.000000  -98.202663   32.396694   -5.179546  -37.591831
  0.049058116    0.000000    0.000000    0.000000    0.000000  -99.208112   37.986244   -5.203320  -39.356674
  0.049258517    0.000000    0.000000    0.000000    0.000000  -99.267860   32.468689   -5.224745  -41.110149
  0.049458918    0.000000    0.000000    0.000000    0.000000  -99.032240   34.349213   -5.246309  -42.823524
  0.049659319    0.000000    0.000000    0.000000    0.000000  -99.622982   25.317467   -5.268907  -44.547367
  0.049859719    0.000000    0.000000    0.000000    0.000000  -99.282547   31.029638   -5.287471  -46.232651
  0.050060120    0.000000    0.000000    0.000000    0.000000  -99.032159   28.828259   -5.310204  -47.912075
  0.050260521    0.000000    0.000000    0.000000    0.000000 -100.525337   29.597065   -5.324648  -49.600227
  0.050460922    0.000000    0.000000    0.000000    0.000000 -101.592196   32.812996   -5.340113  -51.276684
  0.050661323    0.000000    0.000000    0.000000    0.000000 -100.083103   30.889124   -5.354689  -52.920380
  0.050861723    0.000000    0.000000    0.000000    0.000000  -99.102103   22.475111   -5.369329  -54.564762
  0.051062124    0.000000    0.000000    0.000000    0.000000  -99.550905   45.507271   -5.384882  -56.182293
  0.051262525    0.000000    0.000000    0.000000    0.000000  -97.934927   38.430088   -5.398193  -57.761551
  0.051462926    0.000000    0.000000    0.000000    0.000000  -98.669545   24.202599   -5.414092  -59.339058
  0.051663327    0.000000    0.000000    0.000000    0.000000  -99.476296   38.550407   -5.426743  -60.899345
  0.051863727    0.000000    0.000000    0.000000    0.000000  -99.644972   42.176140   -5.440824  -62.443783
  0.052064128    0.000000    0.000000    0.000000    0.000000  -99.548040   33.014988   -5.449878  -64.007553
  0.052264529    0.000000    0.000000    0.000000    0.000000  -98.011042   25.631351   -5.460145  -65.554726
  0.052464930    0.000000    0.000000    0.000000    0.000000  -98.446732   33.157444   -5.473101  -67.035698
  0.052665331    0.000000    0.000000    0.000000    0.000000  -98.802719   23.667982   -5.484576  -68.567101
  0.052865731    0.000000    0.000000    0.000000    0.000000  -97.331854   34.312946   -5.495757  -70.039474
