! Anritsu VNA Master:                     Model: MS2036C/10/77
! SN:                                  1601066
! /card0/usr/254.ew.sma.r200.22.s2p
! Existing Calibration Information:
! TYPE:                         Current Settings,       Active Cal Settings
! TIME:             	   12/20/2017 01:11:30 PM,    12/20/2017 12:55:07 PM
! INTERNAL TEMP:    	                   44.3 C,                    44.3 C
! # POINTS:         	                      501,                       501
! START FREQ:       	               10.000 MHz,                10.000 MHz
! STOP FREQ:        	              110.000 MHz,               110.000 MHz
! SOURCE POWER:     	                     High,                      High
! IFBW:             	                   100 Hz,                    100 Hz
! AVG FACTOR:       	                       1 ,                        1 
! REF PLANE 1:      	                     0 mm,                      0 mm
! REF PLANE 2:      	                     0 mm,                      0 mm
! CAL TYPE:         	                 Full S11,                  Full S11
! CAL METHOD:       	                     SOLT,                      SOLT
! CAL LINE TYPE:    	                     Coax,                      Coax
! DUT PORT 1:       	                N-Conn(F),                 N-Conn(F)
! DUT PORT 2:       	                K-Conn(F),                 K-Conn(F)
! CAL STATUS:       	        OK: Accuracy High,                        --
# GHZ S DB R 50.0
! FREQ.GHZ       S11DB        S11A       S21DB        S21A       S12DB        S12A       S22DB        S22A
  0.010000000   -4.555168  -10.626482  -84.263832   75.960602    0.000000    0.000000    0.000000    0.000000
  0.010200000   -4.540564  -10.784071  -84.357131   73.474533    0.000000    0.000000    0.000000    0.000000
  0.010400000   -4.538778  -11.037661  -84.851335   76.492599    0.000000    0.000000    0.000000    0.000000
  0.010600000   -4.539241  -11.230781  -84.660061   76.700287    0.000000    0.000000    0.000000    0.000000
  0.010800000   -4.540045  -11.480210  -84.854937   74.418365    0.000000    0.000000    0.000000    0.000000
  0.011000000   -4.544041  -11.687087  -85.239978   76.777290    0.000000    0.000000    0.000000    0.000000
  0.011200000   -4.536661  -11.934979  -85.143520   73.384392    0.000000    0.000000    0.000000    0.000000
  0.011400000   -4.540524  -12.169623  -84.832495   72.907608    0.000000    0.000000    0.000000    0.000000
  0.011600000   -4.543024  -12.355890  -84.548554   72.629021    0.000000    0.000000    0.000000    0.000000
  0.011800000   -4.539851  -12.585259  -84.989832   75.179466    0.000000    0.000000    0.000000    0.000000
  0.012000000   -4.538539  -12.806557  -85.016748   74.838478    0.000000    0.000000    0.000000    0.000000
  0.012200000   -4.537319  -13.019300  -85.184716   70.594879    0.000000    0.000000    0.000000    0.000000
  0.012400000   -4.541086  -13.262638  -85.054544   68.493011    0.000000    0.000000    0.000000    0.000000
  0.012600000   -4.540483  -13.478337  -85.023883   67.628204    0.000000    0.000000    0.000000    0.000000
  0.012800000   -4.541190  -13.686164  -85.272399   66.310936    0.000000    0.000000    0.000000    0.000000
  0.013000000   -4.544973  -13.904007  -85.019466   66.984283    0.000000    0.000000    0.000000    0.000000
  0.013200000   -4.541841  -14.106687  -85.786031   64.241058    0.000000    0.000000    0.000000    0.000000
  0.013400000   -4.541791  -14.308004  -85.070805   65.305901    0.000000    0.000000    0.000000    0.000000
  0.013600000   -4.538082  -14.529697  -85.722580   61.441433    0.000000    0.000000    0.000000    0.000000
  0.013800000   -4.536439  -14.733734  -85.626377   57.649693    0.000000    0.000000    0.000000    0.000000
  0.014000000   -4.539744  -14.946798  -85.913737   57.644619    0.000000    0.000000    0.000000    0.000000
  0.014200000   -4.542618  -15.175386  -86.151622   55.687981    0.000000    0.000000    0.000000    0.000000
  0.014400000   -4.541675  -15.384103  -86.296000   52.195862    0.000000    0.000000    0.000000    0.000000
  0.014600000   -4.543539  -15.598151  -86.329709   51.247875    0.000000    0.000000    0.000000    0.000000
  0.014800000   -4.543900  -15.816439  -87.050116   49.994411    0.000000    0.000000    0.000000    0.000000
  0.015000000   -4.548858  -16.023670  -87.107037   49.500824    0.000000    0.000000    0.000000    0.000000
  0.015200000   -4.547026  -16.246418  -87.493780   46.577377    0.000000    0.000000    0.000000    0.000000
  0.015400000   -4.548748  -16.451645  -87.909736   47.037895    0.000000    0.000000    0.000000    0.000000
  0.015600000   -4.552251  -16.721804  -87.948133   45.136463    0.000000    0.000000    0.000000    0.000000
  0.015800000   -4.551224  -16.927397  -88.785737   49.880535    0.000000    0.000000    0.000000    0.000000
  0.016000000   -4.550764  -17.138771  -89.709229   40.066803    0.000000    0.000000    0.000000    0.000000
  0.016200000   -4.553421  -17.353239  -89.353418   43.654579    0.000000    0.000000    0.000000    0.000000
  0.016400000   -4.558646  -17.570507  -88.873281   47.385105    0.000000    0.000000    0.000000    0.000000
  0.016600000   -4.558960  -17.779938  -89.337515   43.302925    0.000000    0.000000    0.000000    0.000000
  0.016800000   -4.559824  -18.024412  -90.008003   47.315147    0.000000    0.000000    0.000000    0.000000
  0.017000000   -4.558080  -18.241573  -90.175447   42.780144    0.000000    0.000000    0.000000    0.000000
  0.017200000   -4.554615  -18.463293  -90.243144   51.156864    0.000000    0.000000    0.000000    0.000000
  0.017400000   -4.554290  -18.714096  -91.108679   47.155525    0.000000    0.000000    0.000000    0.000000
  0.017600000   -4.552780  -18.933201  -90.550383   41.674129    0.000000    0.000000    0.000000    0.000000
  0.017800000   -4.553485  -19.152264  -90.980742   49.664814    0.000000    0.000000    0.000000    0.000000
  0.018000000   -4.551250  -19.370171  -90.093721   46.447136    0.000000    0.000000    0.000000    0.000000
  0.018200000   -4.553184  -19.573595  -90.567073   45.418766    0.000000    0.000000    0.000000    0.000000
  0.018400000   -4.554679  -19.804306  -90.072753   44.189537    0.000000    0.000000    0.000000    0.000000
  0.018600000   -4.558496  -20.009169  -90.599385   50.507114    0.000000    0.000000    0.000000    0.000000
  0.018800000   -4.557204  -20.245718  -90.874394   49.428413    0.000000    0.000000    0.000000    0.000000
  0.019000000   -4.555343  -20.464725  -90.378073   41.457348    0.000000    0.000000    0.000000    0.000000
  0.019200000   -4.553388  -20.654547  -90.590126   41.947819    0.000000    0.000000    0.000000    0.000000
  0.019400000   -4.554830  -20.850153  -89.546374   42.635342    0.000000    0.000000    0.000000    0.000000
  0.019600000   -4.554374  -21.075281  -90.430186   38.678242    0.000000    0.000000    0.000000    0.000000
  0.019800000   -4.555109  -21.267530  -90.113476   41.064163    0.000000    0.000000    0.000000    0.000000
  0.020000000   -4.553039  -21.474531  -90.438976   38.822968    0.000000    0.000000    0.000000    0.000000
  0.020200000   -4.549588  -21.673937  -90.650868   39.639122    0.000000    0.000000    0.000000    0.000000
  0.020400000   -4.552675  -21.889212  -91.428274   34.294556    0.000000    0.000000    0.000000    0.000000
  0.020600000   -4.546841  -22.105085  -90.772358   35.010025    0.000000    0.000000    0.000000    0.000000
  0.020800000   -4.548065  -22.326519  -90.500328   39.036285    0.000000    0.000000    0.000000    0.000000
  0.021000000   -4.550948  -22.536776  -90.841569   31.605696    0.000000    0.000000    0.000000    0.000000
  0.021200000   -4.554423  -22.745033  -91.148748   35.503204    0.000000    0.000000    0.000000    0.000000
  0.021400000   -4.553234  -22.963980  -91.716586   29.254568    0.000000    0.000000    0.000000    0.000000
  0.021600000   -4.555944  -23.185280  -91.482702   29.922491    0.000000    0.000000    0.000000    0.000000
  0.021800000   -4.556774  -23.389795  -92.272245   28.309107    0.000000    0.000000    0.000000    0.000000
  0.022000000   -4.561541  -23.590052  -91.987414   33.451847    0.000000    0.000000    0.000000    0.000000
  0.022200000   -4.560056  -23.814041  -91.847768   28.817747    0.000000    0.000000    0.000000    0.000000
  0.022400000   -4.562053  -24.024931  -91.918862   27.195074    0.000000    0.000000    0.000000    0.000000
  0.022600000   -4.563812  -24.233648  -92.641384   29.499249    0.000000    0.000000    0.000000    0.000000
  0.022800000   -4.564466  -24.432020  -94.024008   26.166355    0.000000    0.000000    0.000000    0.000000
  0.023000000   -4.569236  -24.673170  -93.480920   29.282970    0.000000    0.000000    0.000000    0.000000
  0.023200000   -4.569795  -24.871363  -93.375541   31.709221    0.000000    0.000000    0.000000    0.000000
  0.023400000   -4.573529  -25.184706  -93.572336   26.574488    0.000000    0.000000    0.000000    0.000000
  0.023600000   -4.573936  -25.384563  -92.603205   31.947145    0.000000    0.000000    0.000000    0.000000
  0.023800000   -4.571461  -25.583406  -93.829178   26.792160    0.000000    0.000000    0.000000    0.000000
  0.024000000   -4.568499  -25.811174  -94.391405   27.713768    0.000000    0.000000    0.000000    0.000000
  0.024200000   -4.567230  -26.069933  -94.212972   30.861380    0.000000    0.000000    0.000000    0.000000
  0.024400000   -4.562431  -26.302315  -94.123648   35.106060    0.000000    0.000000    0.000000    0.000000
  0.024600000   -4.564491  -26.527822  -94.230774   32.310497    0.000000    0.000000    0.000000    0.000000
  0.024800000   -4.566066  -26.746624  -94.991188   31.089891    0.000000    0.000000    0.000000    0.000000
  0.025000000   -4.565594  -26.977551  -94.424559   23.096552    0.000000    0.000000    0.000000    0.000000
  0.025200000   -4.565312  -27.176870  -94.732768   24.022020    0.000000    0.000000    0.000000    0.000000
  0.025400000   -4.566086  -27.382658  -94.204087   30.701126    0.000000    0.000000    0.000000    0.000000
  0.025600000   -4.566670  -27.558687  -94.449755   29.730448    0.000000    0.000000    0.000000    0.000000
  0.025800000   -4.565825  -27.753498  -94.038613   30.607843    0.000000    0.000000    0.000000    0.000000
  0.026000000   -4.566460  -27.952816  -94.291847   33.249245    0.000000    0.000000    0.000000    0.000000
  0.026200000   -4.568872  -28.159357  -94.838762   24.577999    0.000000    0.000000    0.000000    0.000000
  0.026400000   -4.574061  -28.374426  -94.695812   18.069586    0.000000    0.000000    0.000000    0.000000
  0.026600000   -4.572267  -28.576687  -94.738462   23.682789    0.000000    0.000000    0.000000    0.000000
  0.026800000   -4.572175  -28.797033  -95.079777   23.024885    0.000000    0.000000    0.000000    0.000000
  0.027000000   -4.573140  -29.013281  -95.881528   20.192541    0.000000    0.000000    0.000000    0.000000
  0.027200000   -4.574382  -29.239729  -94.406378   17.203987    0.000000    0.000000    0.000000    0.000000
  0.027400000   -4.573639  -29.450546  -94.899190   19.185436    0.000000    0.000000    0.000000    0.000000
  0.027600000   -4.574973  -29.673361  -94.547951   13.597930    0.000000    0.000000    0.000000    0.000000
  0.027800000   -4.577621  -29.898928  -95.170417   23.690018    0.000000    0.000000    0.000000    0.000000
  0.028000000   -4.581087  -30.146116  -96.169464   21.330511    0.000000    0.000000    0.000000    0.000000
  0.028200000   -4.581689  -30.397228  -95.391737   21.672188    0.000000    0.000000    0.000000    0.000000
  0.028400000   -4.580251  -30.607092  -96.504096   19.423967    0.000000    0.000000    0.000000    0.000000
  0.028600000   -4.575515  -30.805273  -96.056896   18.721064    0.000000    0.000000    0.000000    0.000000
  0.028800000   -4.573585  -30.998463  -95.781819   18.521482    0.000000    0.000000    0.000000    0.000000
  0.029000000   -4.574592  -31.196312  -96.570269   18.106998    0.000000    0.000000    0.000000    0.000000
  0.029200000   -4.573115  -31.388834  -95.964428   18.034765    0.000000    0.000000    0.000000    0.000000
  0.029400000   -4.573518  -31.553209  -96.529821   14.518754    0.000000    0.000000    0.000000    0.000000
  0.029600000   -4.577442  -31.746059  -96.343006   18.746735    0.000000    0.000000    0.000000    0.000000
  0.029800000   -4.584983  -31.942917  -97.001447   16.765497    0.000000    0.000000    0.000000    0.000000
  0.030000000   -4.588207  -32.176910  -97.835521   15.434727    0.000000    0.000000    0.000000    0.000000
  0.030200000   -4.595416  -32.414082  -96.152953   16.140091    0.000000    0.000000    0.000000    0.000000
  0.030400000   -4.600062  -32.664993  -96.782344   21.791603    0.000000    0.000000    0.000000    0.000000
  0.030600000   -4.600624  -32.912769  -98.425838   23.971880    0.000000    0.000000    0.000000    0.000000
  0.030800000   -4.601056  -33.184078  -97.827941   17.967232    0.000000    0.000000    0.000000    0.000000
  0.031000000   -4.598645  -33.447250  -97.193121   20.665392    0.000000    0.000000    0.000000    0.000000
  0.031200000   -4.598236  -33.660954  -98.750688   17.087357    0.000000    0.000000    0.000000    0.000000
  0.031400000   -4.593501  -33.920444  -95.969798    9.722739    0.000000    0.000000    0.000000    0.000000
  0.031600000   -4.590806  -34.176292  -97.853888   27.256107    0.000000    0.000000    0.000000    0.000000
  0.031800000   -4.589287  -34.386482  -99.844450   29.631830    0.000000    0.000000    0.000000    0.000000
  0.032000000   -4.581797  -34.626583  -97.007686    5.550985    0.000000    0.000000    0.000000    0.000000
  0.032200000   -4.575473  -34.816620  -98.665491   21.513948    0.000000    0.000000    0.000000    0.000000
  0.032400000   -4.569707  -35.019550  -97.883951   14.306685    0.000000    0.000000    0.000000    0.000000
  0.032600000   -4.564171  -35.218910  -99.201386   10.160624    0.000000    0.000000    0.000000    0.000000
  0.032800000   -4.558399  -35.409897  -98.965993   15.410778    0.000000    0.000000    0.000000    0.000000
  0.033000000   -4.554757  -35.589458  -97.525584   17.084139    0.000000    0.000000    0.000000    0.000000
  0.033200000   -4.555475  -35.771732  -96.977852   22.963457    0.000000    0.000000    0.000000    0.000000
  0.033400000   -4.557925  -35.957607  -97.467513   14.179139    0.000000    0.000000    0.000000    0.000000
  0.033600000   -4.559077  -36.162350  -98.543313   18.146852    0.000000    0.000000    0.000000    0.000000
  0.033800000   -4.561978  -36.362583  -97.915699   12.755808    0.000000    0.000000    0.000000    0.000000
  0.034000000   -4.561743  -36.565495  -98.484603   11.056860    0.000000    0.000000    0.000000    0.000000
  0.034200000   -4.564611  -36.770317 -100.374858    4.488842    0.000000    0.000000    0.000000    0.000000
  0.034400000   -4.566555  -36.959343  -98.106854    6.532234    0.000000    0.000000    0.000000    0.000000
  0.034600000   -4.572044  -37.202187  -98.550553   21.821354    0.000000    0.000000    0.000000    0.000000
  0.034800000   -4.577823  -37.416283  -97.858345   18.685186    0.000000    0.000000    0.000000    0.000000
  0.035000000   -4.583772  -37.674938  -99.281678   12.362311    0.000000    0.000000    0.000000    0.000000
  0.035200000   -4.587292  -37.864479  -98.765284   16.508959    0.000000    0.000000    0.000000    0.000000
  0.035400000   -4.587462  -38.100800 -101.502895    3.690008    0.000000    0.000000    0.000000    0.000000
  0.035600000   -4.588999  -38.316658  -99.284464    5.158147    0.000000    0.000000    0.000000    0.000000
  0.035800000   -4.592630  -38.538403 -100.285031    6.153201    0.000000    0.000000    0.000000    0.000000
  0.036000000   -4.591849  -38.761829  -99.465070   21.586061    0.000000    0.000000    0.000000    0.000000
  0.036200000   -4.588291  -38.996723  -97.593577    4.103509    0.000000    0.000000    0.000000    0.000000
  0.036400000   -4.588682  -39.248581 -100.112317   17.601395    0.000000    0.000000    0.000000    0.000000
  0.036600000   -4.582291  -39.463127  -98.851987   16.401262    0.000000    0.000000    0.000000    0.000000
  0.036800000   -4.580729  -39.656258  -99.188308   19.842319    0.000000    0.000000    0.000000    0.000000
  0.037000000   -4.581669  -39.837696 -101.583776   28.117218    0.000000    0.000000    0.000000    0.000000
  0.037200000   -4.577124  -40.023239  -99.729148   12.045247    0.000000    0.000000    0.000000    0.000000
  0.037400000   -4.582443  -40.208046  -99.932312   -1.898586    0.000000    0.000000    0.000000    0.000000
  0.037600000   -4.585244  -40.425240 -100.581062   12.771708    0.000000    0.000000    0.000000    0.000000
  0.037800000   -4.596530  -40.657619  -98.489945    4.972894    0.000000    0.000000    0.000000    0.000000
  0.038000000   -4.603264  -40.893803  -98.048990   24.342836    0.000000    0.000000    0.000000    0.000000
  0.038200000   -4.612299  -41.150387  -99.289237   -1.687888    0.000000    0.000000    0.000000    0.000000
  0.038400000   -4.614386  -41.391182  -98.544182   18.296768    0.000000    0.000000    0.000000    0.000000
  0.038600000   -4.617416  -41.644787 -100.628931    4.815298    0.000000    0.000000    0.000000    0.000000
  0.038800000   -4.618484  -41.913490  -96.843395   17.306911    0.000000    0.000000    0.000000    0.000000
  0.039000000   -4.617067  -42.172104  -97.570856   15.727233    0.000000    0.000000    0.000000    0.000000
  0.039200000   -4.614994  -42.415859  -99.451377   12.126810    0.000000    0.000000    0.000000    0.000000
  0.039400000   -4.610932  -42.670609  -98.903509   27.270567    0.000000    0.000000    0.000000    0.000000
  0.039600000   -4.603103  -42.899734  -98.253074    0.154268    0.000000    0.000000    0.000000    0.000000
  0.039800000   -4.598575  -43.136864  -99.573777    7.628169    0.000000    0.000000    0.000000    0.000000
  0.040000000   -4.592096  -43.342297 -100.699186    0.347009    0.000000    0.000000    0.000000    0.000000
  0.040200000   -4.587818  -43.562302  -98.701254    1.873773    0.000000    0.000000    0.000000    0.000000
  0.040400000   -4.582464  -43.718548  -99.495210   16.000340    0.000000    0.000000    0.000000    0.000000
  0.040600000   -4.581376  -43.894920 -101.145172    2.784339    0.000000    0.000000    0.000000    0.000000
  0.040800000   -4.578120  -44.094940 -101.641816    1.853307    0.000000    0.000000    0.000000    0.000000
  0.041000000   -4.582106  -44.279312 -101.234979    5.604149    0.000000    0.000000    0.000000    0.000000
  0.041200000   -4.584972  -44.469955 -101.836503   11.336018    0.000000    0.000000    0.000000    0.000000
  0.041400000   -4.590828  -44.686176 -100.871358   -3.838338    0.000000    0.000000    0.000000    0.000000
  0.041600000   -4.595002  -44.908886 -100.270548    3.329434    0.000000    0.000000    0.000000    0.000000
  0.041800000   -4.596778  -45.115406 -104.672463    4.780779    0.000000    0.000000    0.000000    0.000000
  0.042000000   -4.600690  -45.339092 -101.195567   -2.026908    0.000000    0.000000    0.000000    0.000000
  0.042200000   -4.604375  -45.549816  -99.142654   -3.309947    0.000000    0.000000    0.000000    0.000000
  0.042400000   -4.604133  -45.729744 -100.763129   -5.607264    0.000000    0.000000    0.000000    0.000000
  0.042600000   -4.606915  -45.964882 -102.050618    6.123394    0.000000    0.000000    0.000000    0.000000
  0.042800000   -4.606751  -46.180626 -101.618448   13.579637    0.000000    0.000000    0.000000    0.000000
