! Anritsu VNA Master:                     Model: MS2036C/10/77
! SN:                                  1601066
! /card0/usr/254.ew.sma.r200.12.s2p
! Existing Calibration Information:
! TYPE:                         Current Settings,       Active Cal Settings
! TIME:             	   12/20/2017 12:41:40 PM,    12/20/2017 12:32:09 PM
! INTERNAL TEMP:    	                   45.0 C,                    45.8 C
! # POINTS:         	                      501,                       501
! START FREQ:       	               10.000 MHz,                10.000 MHz
! STOP FREQ:        	              110.000 MHz,               110.000 MHz
! SOURCE POWER:     	                     High,                      High
! IFBW:             	                   100 Hz,                    100 Hz
! AVG FACTOR:       	                       1 ,                        1 
! REF PLANE 1:      	                     0 mm,                      0 mm
! REF PLANE 2:      	                     0 mm,                      0 mm
! CAL TYPE:         	                 Full S11,                  Full S11
! CAL METHOD:       	                     SOLT,                      SOLT
! CAL LINE TYPE:    	                     Coax,                      Coax
! DUT PORT 1:       	                N-Conn(F),                 N-Conn(F)
! DUT PORT 2:       	                K-Conn(F),                 K-Conn(F)
! CAL STATUS:       	        OK: Accuracy High,                        --
# GHZ S DB R 50.0
! FREQ.GHZ       S11DB        S11A       S21DB        S21A       S12DB        S12A       S22DB        S22A
  0.010000000  -47.781516 -104.853096  -84.744774   75.180481    0.000000    0.000000    0.000000    0.000000
  0.010200000  -48.206944 -107.394531  -84.926749   74.983917    0.000000    0.000000    0.000000    0.000000
  0.010400000  -47.338632 -108.233650  -84.612902   76.158600    0.000000    0.000000    0.000000    0.000000
  0.010600000  -47.589254 -109.076469  -84.657310   76.273033    0.000000    0.000000    0.000000    0.000000
  0.010800000  -47.611385 -106.405266  -84.713629   72.282219    0.000000    0.000000    0.000000    0.000000
  0.011000000  -47.223734 -111.721825  -85.259498   76.743546    0.000000    0.000000    0.000000    0.000000
  0.011200000  -47.085408 -109.257759  -84.711164   77.876205    0.000000    0.000000    0.000000    0.000000
  0.011400000  -46.896523 -110.949295  -85.105903   72.577644    0.000000    0.000000    0.000000    0.000000
  0.011600000  -46.828625 -112.401543  -84.655222   75.346443    0.000000    0.000000    0.000000    0.000000
  0.011800000  -46.969592 -112.372093  -84.854917   73.569031    0.000000    0.000000    0.000000    0.000000
  0.012000000  -46.946095 -112.900642  -84.844159   71.789520    0.000000    0.000000    0.000000    0.000000
  0.012200000  -46.805493 -114.446587  -85.592384   71.935379    0.000000    0.000000    0.000000    0.000000
  0.012400000  -46.662550 -115.900742  -84.932274   68.005638    0.000000    0.000000    0.000000    0.000000
  0.012600000  -46.558740 -114.798294  -85.000725   69.273521    0.000000    0.000000    0.000000    0.000000
  0.012800000  -46.478375 -114.730156  -85.384344   65.389618    0.000000    0.000000    0.000000    0.000000
  0.013000000  -46.346497 -117.797722  -84.962909   66.322609    0.000000    0.000000    0.000000    0.000000
  0.013200000  -46.210559 -116.284027  -85.531635   65.402206    0.000000    0.000000    0.000000    0.000000
  0.013400000  -46.197502 -121.012512  -85.184569   60.777531    0.000000    0.000000    0.000000    0.000000
  0.013600000  -45.902058 -117.756599  -85.507602   59.698441    0.000000    0.000000    0.000000    0.000000
  0.013800000  -45.829615 -119.468918  -85.606527   56.165783    0.000000    0.000000    0.000000    0.000000
  0.014000000  -46.028425 -120.844368  -85.752511   59.334911    0.000000    0.000000    0.000000    0.000000
  0.014200000  -45.519102 -122.158562  -86.811687   52.669018    0.000000    0.000000    0.000000    0.000000
  0.014400000  -45.700312 -120.928619  -86.181186   55.320538    0.000000    0.000000    0.000000    0.000000
  0.014600000  -45.523330 -122.460373  -86.661041   53.966068    0.000000    0.000000    0.000000    0.000000
  0.014800000  -45.404655 -122.491722  -87.123522   49.952499    0.000000    0.000000    0.000000    0.000000
  0.015000000  -45.402374 -123.619652  -87.160927   48.595924    0.000000    0.000000    0.000000    0.000000
  0.015200000  -45.022606 -123.386124  -87.592137   45.717190    0.000000    0.000000    0.000000    0.000000
  0.015400000  -45.122808 -123.820511  -87.597312   45.469173    0.000000    0.000000    0.000000    0.000000
  0.015600000  -45.675310 -126.298660  -88.140602   46.293888    0.000000    0.000000    0.000000    0.000000
  0.015800000  -45.002823 -126.205299  -88.531903   48.602959    0.000000    0.000000    0.000000    0.000000
  0.016000000  -44.928355 -126.630096  -89.221894   43.287289    0.000000    0.000000    0.000000    0.000000
  0.016200000  -44.745218 -127.384232  -88.739587   46.527168    0.000000    0.000000    0.000000    0.000000
  0.016400000  -44.599262 -127.943947  -89.703627   41.277351    0.000000    0.000000    0.000000    0.000000
  0.016600000  -44.653052 -127.826920  -89.421715   44.468868    0.000000    0.000000    0.000000    0.000000
  0.016800000  -44.476515 -128.211258  -89.746299   42.805649    0.000000    0.000000    0.000000    0.000000
  0.017000000  -44.663624 -127.815201  -90.012775   48.550827    0.000000    0.000000    0.000000    0.000000
  0.017200000  -44.470245 -129.232315  -90.581935   46.633614    0.000000    0.000000    0.000000    0.000000
  0.017400000  -44.268684 -129.404114  -90.345881   47.101357    0.000000    0.000000    0.000000    0.000000
  0.017600000  -44.393221 -130.388931  -90.800645   43.958645    0.000000    0.000000    0.000000    0.000000
  0.017800000  -44.210101 -130.709778  -89.826346   46.129303    0.000000    0.000000    0.000000    0.000000
  0.018000000  -44.072783 -130.549072  -90.856826   49.886902    0.000000    0.000000    0.000000    0.000000
  0.018200000  -44.010952 -130.313889  -90.025549   50.768612    0.000000    0.000000    0.000000    0.000000
  0.018400000  -44.032158 -131.525681  -90.475397   50.727142    0.000000    0.000000    0.000000    0.000000
  0.018600000  -43.927584 -131.203186  -90.561696   43.054588    0.000000    0.000000    0.000000    0.000000
  0.018800000  -43.872461 -132.157211  -91.305860   48.511520    0.000000    0.000000    0.000000    0.000000
  0.019000000  -43.792755 -132.077057  -90.621050   41.883446    0.000000    0.000000    0.000000    0.000000
  0.019200000  -43.718131 -132.724136  -90.420027   41.390862    0.000000    0.000000    0.000000    0.000000
  0.019400000  -43.732227 -133.396606  -90.989880   44.945156    0.000000    0.000000    0.000000    0.000000
  0.019600000  -43.587209 -133.714233  -90.090518   37.375141    0.000000    0.000000    0.000000    0.000000
  0.019800000  -43.516614 -134.738174  -90.556675   40.361153    0.000000    0.000000    0.000000    0.000000
  0.020000000  -43.429815 -134.410522  -90.629986   36.704659    0.000000    0.000000    0.000000    0.000000
  0.020200000  -43.414481 -134.881577  -90.724061   37.743816    0.000000    0.000000    0.000000    0.000000
  0.020400000  -43.365772 -135.140259  -90.832291   34.109612    0.000000    0.000000    0.000000    0.000000
  0.020600000  -43.385684 -135.667206  -90.910427   34.649620    0.000000    0.000000    0.000000    0.000000
  0.020800000  -43.155219 -136.530960  -91.115046   31.404741    0.000000    0.000000    0.000000    0.000000
  0.021000000  -43.262910 -136.668854  -90.875574   31.736559    0.000000    0.000000    0.000000    0.000000
  0.021200000  -42.997200 -137.359741  -91.671577   40.454571    0.000000    0.000000    0.000000    0.000000
  0.021400000  -43.193301 -138.356506  -91.951335   29.648355    0.000000    0.000000    0.000000    0.000000
  0.021600000  -43.134874 -137.493408  -91.865122   35.060165    0.000000    0.000000    0.000000    0.000000
  0.021800000  -43.034023 -138.450089  -91.612740   31.105101    0.000000    0.000000    0.000000    0.000000
  0.022000000  -42.818503 -138.555679  -92.214577   26.963118    0.000000    0.000000    0.000000    0.000000
  0.022200000  -42.891143 -138.221313  -93.513370   33.108257    0.000000    0.000000    0.000000    0.000000
  0.022400000  -42.797578 -139.321716  -92.310157   32.100555    0.000000    0.000000    0.000000    0.000000
  0.022600000  -42.707660 -139.657257  -93.282198   23.212702    0.000000    0.000000    0.000000    0.000000
  0.022800000  -42.655927 -140.395691  -93.407895   30.723717    0.000000    0.000000    0.000000    0.000000
  0.023000000  -42.906187 -142.034241  -93.240540   27.149313    0.000000    0.000000    0.000000    0.000000
  0.023200000  -42.750641 -141.593384  -93.900573   29.240149    0.000000    0.000000    0.000000    0.000000
  0.023400000  -42.144156 -143.101608  -93.594201   31.404804    0.000000    0.000000    0.000000    0.000000
  0.023600000  -42.563262 -142.167267  -93.944416   30.484989    0.000000    0.000000    0.000000    0.000000
  0.023800000  -42.496467 -142.954483  -94.852808   32.666348    0.000000    0.000000    0.000000    0.000000
  0.024000000  -42.508362 -142.586945  -93.670883   36.281200    0.000000    0.000000    0.000000    0.000000
  0.024200000  -42.484332 -143.955460  -93.578564   32.224983    0.000000    0.000000    0.000000    0.000000
  0.024400000  -42.367854 -143.571701  -93.384862   23.114573    0.000000    0.000000    0.000000    0.000000
  0.024600000  -42.344965 -143.926010  -94.981613   31.417780    0.000000    0.000000    0.000000    0.000000
  0.024800000  -42.390944 -144.370407  -93.672456   26.756689    0.000000    0.000000    0.000000    0.000000
  0.025000000  -42.420698 -145.061768  -93.660633   31.746792    0.000000    0.000000    0.000000    0.000000
  0.025200000  -42.217276 -145.281967  -94.940857   34.548538    0.000000    0.000000    0.000000    0.000000
  0.025400000  -42.168799 -145.481476  -94.294309   25.594078    0.000000    0.000000    0.000000    0.000000
  0.025600000  -42.186690 -145.394531  -94.323370   25.136967    0.000000    0.000000    0.000000    0.000000
  0.025800000  -42.222147 -145.823563  -94.992952   22.718536    0.000000    0.000000    0.000000    0.000000
  0.026000000  -42.131132 -146.994232  -94.136347   20.980928    0.000000    0.000000    0.000000    0.000000
  0.026200000  -42.188990 -146.476303  -94.157498   18.978224    0.000000    0.000000    0.000000    0.000000
  0.026400000  -42.097493 -147.260330  -95.041264   23.526775    0.000000    0.000000    0.000000    0.000000
  0.026600000  -42.003216 -147.618011  -94.700938   24.254913    0.000000    0.000000    0.000000    0.000000
  0.026800000  -41.948628 -147.729523  -95.237457   22.700752    0.000000    0.000000    0.000000    0.000000
  0.027000000  -41.913937 -148.441101  -95.231235   19.982275    0.000000    0.000000    0.000000    0.000000
  0.027200000  -41.931660 -148.867218  -95.085969   20.077715    0.000000    0.000000    0.000000    0.000000
  0.027400000  -41.850135 -148.938538  -94.600410   29.533199    0.000000    0.000000    0.000000    0.000000
  0.027600000  -41.842567 -149.491684  -95.935033   11.305041    0.000000    0.000000    0.000000    0.000000
  0.027800000  -41.774612 -149.814209  -96.192393   13.144257    0.000000    0.000000    0.000000    0.000000
  0.028000000  -41.741625 -150.319885  -97.391418   18.563803    0.000000    0.000000    0.000000    0.000000
  0.028200000  -41.726968 -150.926071  -96.402170   21.799896    0.000000    0.000000    0.000000    0.000000
  0.028400000  -41.734775 -150.949066  -94.802542   17.376154    0.000000    0.000000    0.000000    0.000000
  0.028600000  -41.724719 -151.205627  -96.046675   23.667408    0.000000    0.000000    0.000000    0.000000
  0.028800000  -41.641257 -151.694321  -95.607544   14.651073    0.000000    0.000000    0.000000    0.000000
  0.029000000  -41.608567 -152.023529  -96.415508   14.473740    0.000000    0.000000    0.000000    0.000000
  0.029200000  -41.578209 -151.639496  -96.248760   13.441240    0.000000    0.000000    0.000000    0.000000
  0.029400000  -41.605772 -151.948074  -96.736184   10.788877    0.000000    0.000000    0.000000    0.000000
  0.029600000  -41.574723 -152.387360  -97.888777   13.576222    0.000000    0.000000    0.000000    0.000000
  0.029800000  -41.537131 -153.611603  -97.188126   22.018892    0.000000    0.000000    0.000000    0.000000
  0.030000000  -41.608807 -152.732544  -96.710342   17.557808    0.000000    0.000000    0.000000    0.000000
  0.030200000  -41.552895 -153.016022  -96.710467   15.681244    0.000000    0.000000    0.000000    0.000000
  0.030400000  -41.444518 -154.309814  -96.495708   22.109196    0.000000    0.000000    0.000000    0.000000
  0.030600000  -41.544216 -154.697876  -97.298154   19.771837    0.000000    0.000000    0.000000    0.000000
  0.030800000  -41.515624 -155.240570  -98.111710   24.497139    0.000000    0.000000    0.000000    0.000000
  0.031000000  -41.382023 -154.676529  -98.335061   27.449194    0.000000    0.000000    0.000000    0.000000
  0.031200000  -41.340237 -155.385773  -96.913107   20.280661    0.000000    0.000000    0.000000    0.000000
  0.031400000  -41.371061 -155.192368  -95.585521   11.597007    0.000000    0.000000    0.000000    0.000000
  0.031600000  -41.253192 -155.768158  -96.812890   21.955551    0.000000    0.000000    0.000000    0.000000
  0.031800000  -41.270546 -156.200089  -98.888891    5.640913    0.000000    0.000000    0.000000    0.000000
  0.032000000  -41.151749 -156.078903  -96.569692   20.554192    0.000000    0.000000    0.000000    0.000000
  0.032200000  -41.210830 -156.872177  -97.738092    4.859695    0.000000    0.000000    0.000000    0.000000
  0.032400000  -41.164519 -156.816788  -97.376163   13.957900    0.000000    0.000000    0.000000    0.000000
  0.032600000  -41.103396 -157.484238  -96.240685   19.003578    0.000000    0.000000    0.000000    0.000000
  0.032800000  -41.117662 -157.994476  -96.209342    6.482425    0.000000    0.000000    0.000000    0.000000
  0.033000000  -41.071219 -157.672256  -97.327262   20.287472    0.000000    0.000000    0.000000    0.000000
  0.033200000  -41.082453 -157.482681  -99.557247   10.323645    0.000000    0.000000    0.000000    0.000000
  0.033400000  -41.107508 -158.660904  -96.667933   16.225565    0.000000    0.000000    0.000000    0.000000
  0.033600000  -40.951678 -158.522400  -98.194698    5.418083    0.000000    0.000000    0.000000    0.000000
  0.033800000  -40.917260 -159.239883  -98.651884    1.837199    0.000000    0.000000    0.000000    0.000000
  0.034000000  -40.882916 -159.263458  -98.143677    4.653706    0.000000    0.000000    0.000000    0.000000
  0.034200000  -41.048858 -159.450699  -98.575791   -1.219458    0.000000    0.000000    0.000000    0.000000
  0.034400000  -40.922465 -160.306595  -98.419409    8.118119    0.000000    0.000000    0.000000    0.000000
  0.034600000  -40.861128 -160.021515  -99.275696    1.082695    0.000000    0.000000    0.000000    0.000000
  0.034800000  -40.945384 -160.571442  -98.377980   14.519735    0.000000    0.000000    0.000000    0.000000
  0.035000000  -40.860545 -160.835266 -101.175588    9.493079    0.000000    0.000000    0.000000    0.000000
  0.035200000  -40.850823 -161.015671  -97.640324    5.971895    0.000000    0.000000    0.000000    0.000000
  0.035400000  -40.830267 -161.246368  -99.143981    3.890117    0.000000    0.000000    0.000000    0.000000
  0.035600000  -40.799963 -161.171539  -99.404263    5.562714    0.000000    0.000000    0.000000    0.000000
  0.035800000  -40.803856 -162.104034  -99.068336   16.085871    0.000000    0.000000    0.000000    0.000000
  0.036000000  -40.753041 -162.609558 -100.303815   -0.157245    0.000000    0.000000    0.000000    0.000000
  0.036200000  -40.727136 -162.436844  -98.171073   -6.705086    0.000000    0.000000    0.000000    0.000000
  0.036400000  -40.748601 -162.673950  -99.223514    6.016737    0.000000    0.000000    0.000000    0.000000
  0.036600000  -40.716152 -162.640549  -97.901234   17.301224    0.000000    0.000000    0.000000    0.000000
  0.036800000  -40.663918 -163.240021 -100.749516   -4.661233    0.000000    0.000000    0.000000    0.000000
  0.037000000  -40.651552 -163.240509  -98.947065    1.984980    0.000000    0.000000    0.000000    0.000000
  0.037200000  -40.638305 -163.303955 -100.654135    1.635574    0.000000    0.000000    0.000000    0.000000
  0.037400000  -40.683186 -163.682159  -98.189550    2.025867    0.000000    0.000000    0.000000    0.000000
  0.037600000  -40.671668 -164.092316  -99.243950   19.606585    0.000000    0.000000    0.000000    0.000000
  0.037800000  -40.679333 -164.016815 -100.415284   16.038717    0.000000    0.000000    0.000000    0.000000
  0.038000000  -40.725332 -164.301743  -98.312908    1.959308    0.000000    0.000000    0.000000    0.000000
  0.038200000  -40.632054 -164.532654  -99.045818   -1.486115    0.000000    0.000000    0.000000    0.000000
  0.038400000  -40.624576 -165.020111 -100.063749   17.485180    0.000000    0.000000    0.000000    0.000000
  0.038600000  -40.694903 -165.284485  -97.686339   -0.375549    0.000000    0.000000    0.000000    0.000000
  0.038800000  -40.617098 -165.770996  -98.363351    9.802837    0.000000    0.000000    0.000000    0.000000
  0.039000000  -40.617038 -166.121262  -98.601831    7.757451    0.000000    0.000000    0.000000    0.000000
  0.039200000  -40.550931 -165.898727  -97.841848   11.389647    0.000000    0.000000    0.000000    0.000000
  0.039400000  -40.506942 -166.596085 -101.060479    2.567931    0.000000    0.000000    0.000000    0.000000
  0.039600000  -40.531218 -166.939651  -98.623117   14.025855    0.000000    0.000000    0.000000    0.000000
  0.039800000  -40.564869 -166.830521  -99.424103    1.311754    0.000000    0.000000    0.000000    0.000000
  0.040000000  -40.473053 -167.458481  -98.732348    5.360826    0.000000    0.000000    0.000000    0.000000
  0.040200000  -40.474706 -167.673187 -100.595121    4.134906    0.000000    0.000000    0.000000    0.000000
  0.040400000  -40.454613 -167.497314 -101.053724   12.604604    0.000000    0.000000    0.000000    0.000000
  0.040600000  -40.414568 -167.824570 -101.381205   16.279034    0.000000    0.000000    0.000000    0.000000
  0.040800000  -40.434665 -168.053085  -98.377256   11.258524    0.000000    0.000000    0.000000    0.000000
  0.041000000  -40.453444 -168.469940  -98.936356  -13.228163    0.000000    0.000000    0.000000    0.000000
  0.041200000  -40.442494 -168.188858 -100.099995   -0.876273    0.000000    0.000000    0.000000    0.000000
  0.041400000  -40.336220 -168.621658 -101.103686   12.114050    0.000000    0.000000    0.000000    0.000000
  0.041600000  -40.329971 -169.308945 -102.079957   15.626737    0.000000    0.000000    0.000000    0.000000
  0.041800000  -40.403232 -169.426544  -99.934955   19.174553    0.000000    0.000000    0.000000    0.000000
  0.042000000  -40.316501 -169.678085 -101.219431  -16.132238    0.000000    0.000000    0.000000    0.000000
  0.042200000  -40.372392 -169.963181 -101.677381   -9.386774    0.000000    0.000000    0.000000    0.000000
  0.042400000  -40.373283 -170.361099 -100.892457    9.761580    0.000000    0.000000    0.000000    0.000000
  0.042600000  -40.358454 -170.532074  -99.561836   13.525621    0.000000    0.000000    0.000000    0.000000
  0.042800000  -40.350883 -170.818390 -102.105220   21.060055    0.000000    0.000000    0.000000    0.000000
