! Anritsu VNA Master:                     Model: MS2036C/10/77
! SN:                                  1601066
! /card0/usr/254.ew.sma.r50.11.s2p
! Existing Calibration Information:
! TYPE:                         Current Settings,       Active Cal Settings
! TIME:             	   12/20/2017 12:36:39 PM,    12/20/2017 12:32:09 PM
! INTERNAL TEMP:    	                   45.3 C,                    45.8 C
! # POINTS:         	                      501,                       501
! START FREQ:       	               10.000 MHz,                10.000 MHz
! STOP FREQ:        	              110.000 MHz,               110.000 MHz
! SOURCE POWER:     	                     High,                      High
! IFBW:             	                   100 Hz,                    100 Hz
! AVG FACTOR:       	                       1 ,                        1 
! REF PLANE 1:      	                     0 mm,                      0 mm
! REF PLANE 2:      	                     0 mm,                      0 mm
! CAL TYPE:         	                 Full S11,                  Full S11
! CAL METHOD:       	                     SOLT,                      SOLT
! CAL LINE TYPE:    	                     Coax,                      Coax
! DUT PORT 1:       	                N-Conn(F),                 N-Conn(F)
! DUT PORT 2:       	                K-Conn(F),                 K-Conn(F)
! CAL STATUS:       	        OK: Accuracy High,                        --
# GHZ S DB R 50.0
! FREQ.GHZ       S11DB        S11A       S21DB        S21A       S12DB        S12A       S22DB        S22A
  0.010000000  -95.524484  -15.626657  -83.255789   78.351349    0.000000    0.000000    0.000000    0.000000
  0.010200000  -95.535774  -18.619081  -83.492929   79.635979    0.000000    0.000000    0.000000    0.000000
  0.010400000  -94.519126  -19.013824  -83.992976   74.677361    0.000000    0.000000    0.000000    0.000000
  0.010600000  -94.794227  -19.342537  -84.095011   74.935661    0.000000    0.000000    0.000000    0.000000
  0.010800000  -94.514343  -17.692881  -83.508721   70.371490    0.000000    0.000000    0.000000    0.000000
  0.011000000  -94.037441  -21.627277  -84.172527   72.579636    0.000000    0.000000    0.000000    0.000000
  0.011200000  -93.906150  -19.111568  -84.370912   72.606194    0.000000    0.000000    0.000000    0.000000
  0.011400000  -93.444254  -20.059549  -84.213591   68.121040    0.000000    0.000000    0.000000    0.000000
  0.011600000  -93.244338  -21.612314  -85.274754   67.124893    0.000000    0.000000    0.000000    0.000000
  0.011800000  -93.137675  -22.419922  -84.919107   67.612961    0.000000    0.000000    0.000000    0.000000
  0.012000000  -93.102288  -20.547894  -85.307027   65.472282    0.000000    0.000000    0.000000    0.000000
  0.012200000  -92.931515  -22.351633  -85.398038   64.684853    0.000000    0.000000    0.000000    0.000000
  0.012400000  -92.444727  -23.491873  -85.790841   63.029034    0.000000    0.000000    0.000000    0.000000
  0.012600000  -92.138068  -22.511105  -85.806281   65.475845    0.000000    0.000000    0.000000    0.000000
  0.012800000  -91.978798  -21.887501  -86.121904   63.058163    0.000000    0.000000    0.000000    0.000000
  0.013000000  -91.772827  -24.124846  -86.163891   60.586079    0.000000    0.000000    0.000000    0.000000
  0.013200000  -91.512508  -21.068264  -86.082134   59.672726    0.000000    0.000000    0.000000    0.000000
  0.013400000  -91.441360  -26.693228  -86.247416   61.777885    0.000000    0.000000    0.000000    0.000000
  0.013600000  -91.174963  -22.266912  -86.282403   58.688099    0.000000    0.000000    0.000000    0.000000
  0.013800000  -90.656519  -22.455931  -86.996658   56.409397    0.000000    0.000000    0.000000    0.000000
  0.014000000  -90.966370  -24.817345  -86.678510   57.336521    0.000000    0.000000    0.000000    0.000000
  0.014200000  -90.313314  -24.673006  -86.957882   54.262470    0.000000    0.000000    0.000000    0.000000
  0.014400000  -90.252945  -23.949003  -87.244780   56.139194    0.000000    0.000000    0.000000    0.000000
  0.014600000  -90.261231  -24.611216  -86.905821   54.423485    0.000000    0.000000    0.000000    0.000000
  0.014800000  -90.149292  -23.083237  -87.288080   55.334236    0.000000    0.000000    0.000000    0.000000
  0.015000000  -89.928852  -25.407198  -87.684607   53.470608    0.000000    0.000000    0.000000    0.000000
  0.015200000  -89.316493  -24.497456  -87.736927   53.165623    0.000000    0.000000    0.000000    0.000000
  0.015400000  -89.440634  -25.305288  -87.986536   51.720917    0.000000    0.000000    0.000000    0.000000
  0.015600000  -89.923163  -26.408356  -87.988504   47.420898    0.000000    0.000000    0.000000    0.000000
  0.015800000  -89.230901  -24.797262  -88.875132   52.650784    0.000000    0.000000    0.000000    0.000000
  0.016000000  -88.917402  -27.320179  -88.524190   48.747288    0.000000    0.000000    0.000000    0.000000
  0.016200000  -88.734301  -27.321516  -88.957026   49.935326    0.000000    0.000000    0.000000    0.000000
  0.016400000  -88.661690  -26.879833  -88.585398   50.105648    0.000000    0.000000    0.000000    0.000000
  0.016600000  -88.463967  -28.468287  -88.530278   44.901127    0.000000    0.000000    0.000000    0.000000
  0.016800000  -88.169155  -27.503786  -88.375676   48.163746    0.000000    0.000000    0.000000    0.000000
  0.017000000  -88.195585  -26.267109  -89.233147   41.623112    0.000000    0.000000    0.000000    0.000000
  0.017200000  -88.058973  -27.628054  -89.084160   40.312008    0.000000    0.000000    0.000000    0.000000
  0.017400000  -87.596428  -28.921736  -89.560217   45.764877    0.000000    0.000000    0.000000    0.000000
  0.017600000  -88.013283  -28.782314  -89.548118   40.720264    0.000000    0.000000    0.000000    0.000000
  0.017800000  -87.432303  -29.573750  -90.109636   43.240387    0.000000    0.000000    0.000000    0.000000
  0.018000000  -87.401334  -29.575726  -89.991528   42.278244    0.000000    0.000000    0.000000    0.000000
  0.018200000  -87.130727  -30.075127  -90.053266   42.253651    0.000000    0.000000    0.000000    0.000000
  0.018400000  -86.871663  -31.076185  -90.557022   40.668034    0.000000    0.000000    0.000000    0.000000
  0.018600000  -86.642759  -30.146498  -90.622786   37.912716    0.000000    0.000000    0.000000    0.000000
  0.018800000  -86.575574  -30.781668  -90.340313   39.322430    0.000000    0.000000    0.000000    0.000000
  0.019000000  -86.353090  -30.346924  -90.744916   43.968937    0.000000    0.000000    0.000000    0.000000
  0.019200000  -86.153655  -31.732450  -91.154888   38.593521    0.000000    0.000000    0.000000    0.000000
  0.019400000  -85.941090  -31.577173  -90.763073   42.425869    0.000000    0.000000    0.000000    0.000000
  0.019600000  -85.600856  -31.690855  -91.189842   43.842583    0.000000    0.000000    0.000000    0.000000
  0.019800000  -85.707723  -32.577187  -90.974756   36.049488    0.000000    0.000000    0.000000    0.000000
  0.020000000  -85.364417  -31.977610  -90.684052   33.401203    0.000000    0.000000    0.000000    0.000000
  0.020200000  -85.114773  -30.860231  -91.068984   42.747589    0.000000    0.000000    0.000000    0.000000
  0.020400000  -85.052623  -31.267080  -91.591793   44.264252    0.000000    0.000000    0.000000    0.000000
  0.020600000  -85.006841  -32.193439  -91.705951   35.627781    0.000000    0.000000    0.000000    0.000000
  0.020800000  -84.532647  -32.707977  -92.101622   37.918221    0.000000    0.000000    0.000000    0.000000
  0.021000000  -84.461312  -32.325455  -91.091740   31.883207    0.000000    0.000000    0.000000    0.000000
  0.021200000  -84.035420  -31.124584  -92.007049   33.422878    0.000000    0.000000    0.000000    0.000000
  0.021400000  -84.293285  -32.903477  -91.255478   33.462040    0.000000    0.000000    0.000000    0.000000
  0.021600000  -84.015951  -31.910686  -92.129919   34.195843    0.000000    0.000000    0.000000    0.000000
  0.021800000  -83.975350  -31.545120  -92.139950   30.143326    0.000000    0.000000    0.000000    0.000000
  0.022000000  -83.695175  -30.860683  -92.860454   34.880974    0.000000    0.000000    0.000000    0.000000
  0.022200000  -83.544650  -30.467209  -92.256395   33.390011    0.000000    0.000000    0.000000    0.000000
  0.022400000  -83.431139  -31.138979  -92.387353   29.801796    0.000000    0.000000    0.000000    0.000000
  0.022600000  -83.213162  -30.148302  -91.956178   30.938574    0.000000    0.000000    0.000000    0.000000
  0.022800000  -83.189016  -31.190943  -92.701468   30.370996    0.000000    0.000000    0.000000    0.000000
  0.023000000  -83.480171  -33.221474  -92.070386   31.153685    0.000000    0.000000    0.000000    0.000000
  0.023200000  -83.124221  -31.444923  -92.560020   35.021160    0.000000    0.000000    0.000000    0.000000
  0.023400000  -82.539261  -32.513855  -93.914428   30.746557    0.000000    0.000000    0.000000    0.000000
  0.023600000  -82.713974  -31.550505  -93.454408   30.258301    0.000000    0.000000    0.000000    0.000000
  0.023800000  -82.717279  -32.316936  -92.967433   21.437307    0.000000    0.000000    0.000000    0.000000
  0.024000000  -82.647466  -31.055477  -93.443847   34.111401    0.000000    0.000000    0.000000    0.000000
  0.024200000  -82.634993  -31.995325  -94.499298   29.115208    0.000000    0.000000    0.000000    0.000000
  0.024400000  -82.542138  -31.441990  -94.292793   23.527052    0.000000    0.000000    0.000000    0.000000
  0.024600000  -82.283289  -31.876822  -93.842035   27.473135    0.000000    0.000000    0.000000    0.000000
  0.024800000  -82.240831  -32.093163  -93.715702   33.837906    0.000000    0.000000    0.000000    0.000000
  0.025000000  -82.498151  -32.905083  -93.842496   25.726267    0.000000    0.000000    0.000000    0.000000
  0.025200000  -82.058052  -33.456406  -95.093943   20.595295    0.000000    0.000000    0.000000    0.000000
  0.025400000  -81.987871  -33.699356  -94.660891   29.639793    0.000000    0.000000    0.000000    0.000000
  0.025600000  -81.956180  -33.406021  -94.080172   22.099430    0.000000    0.000000    0.000000    0.000000
  0.025800000  -81.874567  -34.209190  -94.740918   22.195580    0.000000    0.000000    0.000000    0.000000
  0.026000000  -81.774274  -34.656643  -95.138273   12.823803    0.000000    0.000000    0.000000    0.000000
  0.026200000  -81.546807  -34.144852  -94.795875   31.060989    0.000000    0.000000    0.000000    0.000000
  0.026400000  -81.554759  -35.614895  -94.893078   20.698620    0.000000    0.000000    0.000000    0.000000
  0.026600000  -81.316776  -36.064892  -94.459085   14.997207    0.000000    0.000000    0.000000    0.000000
  0.026800000  -81.091833  -35.884228  -95.584578   21.223995    0.000000    0.000000    0.000000    0.000000
  0.027000000  -80.998715  -36.854500  -94.994966   25.925241    0.000000    0.000000    0.000000    0.000000
  0.027200000  -80.871206  -36.054211  -94.587263   18.258604    0.000000    0.000000    0.000000    0.000000
  0.027400000  -80.657015  -35.534027  -96.105379   15.293875    0.000000    0.000000    0.000000    0.000000
  0.027600000  -80.597138  -36.301754  -95.759358   19.032763    0.000000    0.000000    0.000000    0.000000
  0.027800000  -80.373033  -37.094570  -95.925494   28.103111    0.000000    0.000000    0.000000    0.000000
  0.028000000  -80.206576  -36.636826  -95.897979   19.371943    0.000000    0.000000    0.000000    0.000000
  0.028200000  -80.169380  -37.008198  -95.474937   23.649151    0.000000    0.000000    0.000000    0.000000
  0.028400000  -80.024548  -35.964184  -95.480625   26.565144    0.000000    0.000000    0.000000    0.000000
  0.028600000  -79.881804  -36.526344  -95.467789   23.768364    0.000000    0.000000    0.000000    0.000000
  0.028800000  -79.839781  -36.476379  -95.072069   19.506720    0.000000    0.000000    0.000000    0.000000
  0.029000000  -79.634355  -36.755302  -95.370152   21.266205    0.000000    0.000000    0.000000    0.000000
  0.029200000  -79.632972  -36.212055  -95.480604   21.161179    0.000000    0.000000    0.000000    0.000000
  0.029400000  -79.550053  -35.757271  -95.908893   19.747034    0.000000    0.000000    0.000000    0.000000
  0.029600000  -79.459037  -35.440937  -96.725166   18.633976    0.000000    0.000000    0.000000    0.000000
  0.029800000  -79.276815  -36.080570  -95.892374   18.418915    0.000000    0.000000    0.000000    0.000000
  0.030000000  -79.412019  -35.283314  -96.566757   22.878952    0.000000    0.000000    0.000000    0.000000
  0.030200000  -79.196065  -35.730545  -97.471447   14.271894    0.000000    0.000000    0.000000    0.000000
  0.030400000  -78.986686  -36.527660  -95.512451   15.091804    0.000000    0.000000    0.000000    0.000000
  0.030600000  -79.073574  -37.254044  -98.656324   23.970394    0.000000    0.000000    0.000000    0.000000
  0.030800000  -79.048764  -37.497692  -97.247525   23.404352    0.000000    0.000000    0.000000    0.000000
  0.031000000  -78.788669  -36.341606  -96.038113   11.875707    0.000000    0.000000    0.000000    0.000000
  0.031200000  -78.682009  -36.398926  -97.488182   11.761729    0.000000    0.000000    0.000000    0.000000
  0.031400000  -78.521201  -34.685219  -97.012036   20.027653    0.000000    0.000000    0.000000    0.000000
  0.031600000  -78.616101  -36.317539  -96.891217    6.624511    0.000000    0.000000    0.000000    0.000000
  0.031800000  -78.548917  -36.661499  -97.109092    5.729067    0.000000    0.000000    0.000000    0.000000
  0.032000000  -78.359210  -36.404255  -98.373185   22.861252    0.000000    0.000000    0.000000    0.000000
  0.032200000  -78.386438  -36.941013  -97.043065   24.944208    0.000000    0.000000    0.000000    0.000000
  0.032400000  -78.337004  -36.760361  -97.876390   17.918531    0.000000    0.000000    0.000000    0.000000
  0.032600000  -78.185509  -37.732750  -96.979232   11.525156    0.000000    0.000000    0.000000    0.000000
  0.032800000  -78.168081  -37.909103  -96.466413   14.411252    0.000000    0.000000    0.000000    0.000000
  0.033000000  -78.064160  -36.838428  -96.731276   19.703367    0.000000    0.000000    0.000000    0.000000
  0.033200000  -78.055346  -37.509911  -98.203557   17.919321    0.000000    0.000000    0.000000    0.000000
  0.033400000  -78.107357  -37.911346  -98.983295   10.385817    0.000000    0.000000    0.000000    0.000000
  0.033600000  -77.858621  -39.383411  -98.178547   12.693153    0.000000    0.000000    0.000000    0.000000
  0.033800000  -77.751984  -38.730576  -99.924401   21.499384    0.000000    0.000000    0.000000    0.000000
  0.034000000  -77.518252  -40.125919  -97.925988   16.282837    0.000000    0.000000    0.000000    0.000000
  0.034200000  -77.605793  -40.094639  -99.201861   13.156299    0.000000    0.000000    0.000000    0.000000
  0.034400000  -77.325171  -40.533993  -98.071097    6.420959    0.000000    0.000000    0.000000    0.000000
  0.034600000  -77.187046  -40.649677  -98.661410   12.006327    0.000000    0.000000    0.000000    0.000000
  0.034800000  -77.178503  -40.788811  -98.618128   16.065363    0.000000    0.000000    0.000000    0.000000
  0.035000000  -77.042842  -41.041634  -98.282575   18.784451    0.000000    0.000000    0.000000    0.000000
  0.035200000  -76.966882  -41.793667  -97.782527   12.597142    0.000000    0.000000    0.000000    0.000000
  0.035400000  -76.771745  -41.541588 -100.788343   10.758980    0.000000    0.000000    0.000000    0.000000
  0.035600000  -76.690787  -40.733192  -98.131984   11.708629    0.000000    0.000000    0.000000    0.000000
  0.035800000  -76.557555  -41.560661  -98.116167    5.127159    0.000000    0.000000    0.000000    0.000000
  0.036000000  -76.389637  -42.472939 -100.210859    9.952350    0.000000    0.000000    0.000000    0.000000
  0.036200000  -76.383653  -42.140076  -97.360551    7.723547    0.000000    0.000000    0.000000    0.000000
  0.036400000  -76.170313  -41.433552 -100.149616    7.761296    0.000000    0.000000    0.000000    0.000000
  0.036600000  -76.069564  -41.461826  -99.420731   15.113647    0.000000    0.000000    0.000000    0.000000
  0.036800000  -75.945704  -41.315231  -97.643446   17.393789    0.000000    0.000000    0.000000    0.000000
  0.037000000  -75.853052  -41.529900  -98.906369   14.845556    0.000000    0.000000    0.000000    0.000000
  0.037200000  -75.906714  -41.028870  -99.688879   12.528040    0.000000    0.000000    0.000000    0.000000
  0.037400000  -75.791748  -41.665840  -99.100314   16.160158    0.000000    0.000000    0.000000    0.000000
  0.037600000  -75.831536  -41.511871  -98.824774    0.366843    0.000000    0.000000    0.000000    0.000000
  0.037800000  -75.647860  -41.694366  -97.023930   11.002223    0.000000    0.000000    0.000000    0.000000
  0.038000000  -75.629731  -41.237904  -98.774878    7.314034    0.000000    0.000000    0.000000    0.000000
  0.038200000  -75.459836  -41.615089  -97.696450   11.091051    0.000000    0.000000    0.000000    0.000000
  0.038400000  -75.478037  -40.857479  -99.982495   14.938315    0.000000    0.000000    0.000000    0.000000
  0.038600000  -75.368468  -41.427650  -98.929678   12.749556    0.000000    0.000000    0.000000    0.000000
  0.038800000  -75.217537  -41.825066 -102.434760    2.566401    0.000000    0.000000    0.000000    0.000000
  0.039000000  -75.195547  -41.698204 -100.782058   15.669338    0.000000    0.000000    0.000000    0.000000
  0.039200000  -75.075059  -41.008266  -98.230092   -1.070084    0.000000    0.000000    0.000000    0.000000
  0.039400000  -74.996011  -42.154556  -98.586302   16.216970    0.000000    0.000000    0.000000    0.000000
  0.039600000  -74.963219  -41.587284 -100.798519    3.041998    0.000000    0.000000    0.000000    0.000000
  0.039800000  -74.900818  -41.340042  -97.939024    7.020114    0.000000    0.000000    0.000000    0.000000
  0.040000000  -74.837049  -41.306580 -101.702326   -0.972982    0.000000    0.000000    0.000000    0.000000
  0.040200000  -74.819862  -41.148842 -101.330950   -3.657291    0.000000    0.000000    0.000000    0.000000
  0.040400000  -74.674722  -41.382530 -100.767502    2.197881    0.000000    0.000000    0.000000    0.000000
  0.040600000  -74.617425  -41.837887  -98.980522   13.030703    0.000000    0.000000    0.000000    0.000000
  0.040800000  -74.575139  -41.093132 -100.391751   -7.267306    0.000000    0.000000    0.000000    0.000000
  0.041000000  -74.600851  -42.563282  -99.764506   10.981084    0.000000    0.000000    0.000000    0.000000
  0.041200000  -74.491970  -42.150955 -100.018346    8.933073    0.000000    0.000000    0.000000    0.000000
  0.041400000  -74.393385  -42.612110 -100.435083   10.103926    0.000000    0.000000    0.000000    0.000000
  0.041600000  -74.310374  -43.365299 -103.512170    6.017234    0.000000    0.000000    0.000000    0.000000
  0.041800000  -74.228514  -43.178333 -102.497247    9.530632    0.000000    0.000000    0.000000    0.000000
  0.042000000  -74.110967  -42.511517 -101.569957   20.527483    0.000000    0.000000    0.000000    0.000000
  0.042200000  -74.099125  -43.356304 -101.853163    9.781701    0.000000    0.000000    0.000000    0.000000
  0.042400000  -73.943089  -43.750004 -101.086969    3.392906    0.000000    0.000000    0.000000    0.000000
  0.042600000  -73.934870  -43.522583  -99.004165    7.380127    0.000000    0.000000    0.000000    0.000000
  0.042800000  -73.974175  -43.204788 -100.837583   10.308305    0.000000    0.000000    0.000000    0.000000
