! Anritsu VNA Master:                     Model: MS2036C/10/77
! SN:                                  1601066
! /card0/usr/254.ew.sma.r20.21.s2p
! Existing Calibration Information:
! TYPE:                         Current Settings,       Active Cal Settings
! TIME:             	   12/20/2017 01:01:08 PM,    12/20/2017 12:55:07 PM
! INTERNAL TEMP:    	                   44.3 C,                    44.3 C
! # POINTS:         	                      501,                       501
! START FREQ:       	               10.000 MHz,                10.000 MHz
! STOP FREQ:        	              110.000 MHz,               110.000 MHz
! SOURCE POWER:     	                     High,                      High
! IFBW:             	                   100 Hz,                    100 Hz
! AVG FACTOR:       	                       1 ,                        1 
! REF PLANE 1:      	                     0 mm,                      0 mm
! REF PLANE 2:      	                     0 mm,                      0 mm
! CAL TYPE:         	                 Full S11,                  Full S11
! CAL METHOD:       	                     SOLT,                      SOLT
! CAL LINE TYPE:    	                     Coax,                      Coax
! DUT PORT 1:       	                N-Conn(F),                 N-Conn(F)
! DUT PORT 2:       	                K-Conn(F),                 K-Conn(F)
! CAL STATUS:       	        OK: Accuracy High,                        --
# GHZ S DB R 50.0
! FREQ.GHZ       S11DB        S11A       S21DB        S21A       S12DB        S12A       S22DB        S22A
  0.010000000   -7.204155  167.782944  -82.421702   77.536728    0.000000    0.000000    0.000000    0.000000
  0.010200000   -7.190943  167.572754  -82.538784   76.147835    0.000000    0.000000    0.000000    0.000000
  0.010400000   -7.191361  167.354980  -82.975020   75.157143    0.000000    0.000000    0.000000    0.000000
  0.010600000   -7.194052  167.095200  -82.993266   73.441490    0.000000    0.000000    0.000000    0.000000
  0.010800000   -7.199023  166.851028  -83.292295   70.925308    0.000000    0.000000    0.000000    0.000000
  0.011000000   -7.201093  166.595657  -83.788984   68.321892    0.000000    0.000000    0.000000    0.000000
  0.011200000   -7.194817  166.369019  -83.778827   65.573906    0.000000    0.000000    0.000000    0.000000
  0.011400000   -7.198206  166.106766  -84.150686   66.876335    0.000000    0.000000    0.000000    0.000000
  0.011600000   -7.205463  165.869125  -84.295736   61.742046    0.000000    0.000000    0.000000    0.000000
  0.011800000   -7.202426  165.631287  -84.580668   62.555874    0.000000    0.000000    0.000000    0.000000
  0.012000000   -7.205001  165.378006  -85.013216   63.834854    0.000000    0.000000    0.000000    0.000000
  0.012200000   -7.202715  165.139053  -85.129370   61.311569    0.000000    0.000000    0.000000    0.000000
  0.012400000   -7.203414  164.897232  -86.047759   59.895821    0.000000    0.000000    0.000000    0.000000
  0.012600000   -7.205630  164.626617  -86.228662   57.716145    0.000000    0.000000    0.000000    0.000000
  0.012800000   -7.206996  164.397446  -86.043048   60.684933    0.000000    0.000000    0.000000    0.000000
  0.013000000   -7.207954  164.151382  -86.198070   59.211231    0.000000    0.000000    0.000000    0.000000
  0.013200000   -7.213338  163.918137  -86.370430   57.832333    0.000000    0.000000    0.000000    0.000000
  0.013400000   -7.215168  163.683517  -87.008179   57.017506    0.000000    0.000000    0.000000    0.000000
  0.013600000   -7.211356  163.434372  -87.193528   55.745934    0.000000    0.000000    0.000000    0.000000
  0.013800000   -7.208066  163.206696  -87.447680   58.021526    0.000000    0.000000    0.000000    0.000000
  0.014000000   -7.212472  162.955002  -87.461808   59.647667    0.000000    0.000000    0.000000    0.000000
  0.014200000   -7.213819  162.692627  -87.731425   58.039936    0.000000    0.000000    0.000000    0.000000
  0.014400000   -7.210297  162.456635  -87.704621   60.832321    0.000000    0.000000    0.000000    0.000000
  0.014600000   -7.214335  162.223160  -87.312227   60.956097    0.000000    0.000000    0.000000    0.000000
  0.014800000   -7.214576  161.988892  -87.898705   57.831989    0.000000    0.000000    0.000000    0.000000
  0.015000000   -7.215472  161.742477  -88.367984   57.245583    0.000000    0.000000    0.000000    0.000000
  0.015200000   -7.221255  161.481949  -88.250528   62.147408    0.000000    0.000000    0.000000    0.000000
  0.015400000   -7.222004  161.221283  -87.991820   54.880211    0.000000    0.000000    0.000000    0.000000
  0.015600000   -7.218810  160.995148  -88.242016   51.262028    0.000000    0.000000    0.000000    0.000000
  0.015800000   -7.223545  160.740738  -88.059023   49.336292    0.000000    0.000000    0.000000    0.000000
  0.016000000   -7.229404  160.507767  -87.899574   52.978989    0.000000    0.000000    0.000000    0.000000
  0.016200000   -7.225040  160.266556  -88.405208   49.261662    0.000000    0.000000    0.000000    0.000000
  0.016400000   -7.227275  160.033646  -88.341436   50.134956    0.000000    0.000000    0.000000    0.000000
  0.016600000   -7.224672  159.777496  -88.085182   46.480675    0.000000    0.000000    0.000000    0.000000
  0.016800000   -7.224343  159.547806  -88.588097   48.730148    0.000000    0.000000    0.000000    0.000000
  0.017000000   -7.229635  159.310684  -89.336412   45.233471    0.000000    0.000000    0.000000    0.000000
  0.017200000   -7.225223  159.055923  -88.539193   43.483189    0.000000    0.000000    0.000000    0.000000
  0.017400000   -7.225982  158.814743  -89.655152   44.348625    0.000000    0.000000    0.000000    0.000000
  0.017600000   -7.230948  158.569305  -89.304057   42.915928    0.000000    0.000000    0.000000    0.000000
  0.017800000   -7.228339  158.312836  -89.251096   41.159298    0.000000    0.000000    0.000000    0.000000
  0.018000000   -7.229501  158.105682  -89.898014   42.275341    0.000000    0.000000    0.000000    0.000000
  0.018200000   -7.227605  157.845093  -90.109337   40.421268    0.000000    0.000000    0.000000    0.000000
  0.018400000   -7.228379  157.626434  -90.125844   36.083344    0.000000    0.000000    0.000000    0.000000
  0.018600000   -7.230224  157.371216  -90.027004   40.777119    0.000000    0.000000    0.000000    0.000000
  0.018800000   -7.232250  157.146500  -91.272054   37.857086    0.000000    0.000000    0.000000    0.000000
  0.019000000   -7.231673  156.900284  -90.628675   37.072514    0.000000    0.000000    0.000000    0.000000
  0.019200000   -7.230001  156.676697  -91.441597   34.158913    0.000000    0.000000    0.000000    0.000000
  0.019400000   -7.229077  156.452682  -90.616458   29.556021    0.000000    0.000000    0.000000    0.000000
  0.019600000   -7.233829  156.215729  -91.210750   40.451920    0.000000    0.000000    0.000000    0.000000
  0.019800000   -7.235224  155.983765  -91.713633   35.231190    0.000000    0.000000    0.000000    0.000000
  0.020000000   -7.235431  155.757568  -91.242356   39.496132    0.000000    0.000000    0.000000    0.000000
  0.020200000   -7.238172  155.504547  -91.369794   39.345646    0.000000    0.000000    0.000000    0.000000
  0.020400000   -7.232842  155.278702  -93.027258   42.008873    0.000000    0.000000    0.000000    0.000000
  0.020600000   -7.231854  155.038849  -92.297977   43.337917    0.000000    0.000000    0.000000    0.000000
  0.020800000   -7.231413  154.798309  -92.379742   39.828182    0.000000    0.000000    0.000000    0.000000
  0.021000000   -7.229097  154.539169  -92.504296   42.890911    0.000000    0.000000    0.000000    0.000000
  0.021200000   -7.229589  154.303116  -91.709287   35.577351    0.000000    0.000000    0.000000    0.000000
  0.021400000   -7.229579  154.059540  -91.681118   32.421947    0.000000    0.000000    0.000000    0.000000
  0.021600000   -7.233120  153.863678  -92.587536   38.538296    0.000000    0.000000    0.000000    0.000000
  0.021800000   -7.236748  153.603653  -92.004827   36.957401    0.000000    0.000000    0.000000    0.000000
  0.022000000   -7.238354  153.373276  -92.368697   34.241955    0.000000    0.000000    0.000000    0.000000
  0.022200000   -7.240670  153.133163  -92.259166   38.295834    0.000000    0.000000    0.000000    0.000000
  0.022400000   -7.238490  152.907013  -92.990287   40.687862    0.000000    0.000000    0.000000    0.000000
  0.022600000   -7.241041  152.663498  -92.459414   36.590595    0.000000    0.000000    0.000000    0.000000
  0.022800000   -7.241061  152.422363  -92.407745   33.960655    0.000000    0.000000    0.000000    0.000000
  0.023000000   -7.243425  152.211609  -92.650267   33.945404    0.000000    0.000000    0.000000    0.000000
  0.023200000   -7.246655  151.963226  -93.027188   31.389172    0.000000    0.000000    0.000000    0.000000
  0.023400000   -7.246888  151.642105  -93.897770   30.555305    0.000000    0.000000    0.000000    0.000000
  0.023600000   -7.242401  151.484406  -92.849864   33.125652    0.000000    0.000000    0.000000    0.000000
  0.023800000   -7.243426  151.225189  -93.530026   26.884964    0.000000    0.000000    0.000000    0.000000
  0.024000000   -7.242637  150.973129  -92.348572   24.115129    0.000000    0.000000    0.000000    0.000000
  0.024200000   -7.242108  150.712112  -93.552247   29.285252    0.000000    0.000000    0.000000    0.000000
  0.024400000   -7.243232  150.458832  -93.057985   25.827930    0.000000    0.000000    0.000000    0.000000
  0.024600000   -7.241996  150.201782  -93.083382   20.595253    0.000000    0.000000    0.000000    0.000000
  0.024800000   -7.242208  149.925629  -94.013089   22.665983    0.000000    0.000000    0.000000    0.000000
  0.025000000   -7.237978  149.705872  -94.666429   22.427567    0.000000    0.000000    0.000000    0.000000
  0.025200000   -7.239209  149.486023  -94.416044   22.948994    0.000000    0.000000    0.000000    0.000000
  0.025400000   -7.240953  149.260101  -93.372595   23.747690    0.000000    0.000000    0.000000    0.000000
  0.025600000   -7.242054  149.042053  -95.009020   31.014452    0.000000    0.000000    0.000000    0.000000
  0.025800000   -7.244740  148.813309  -94.608467   21.014114    0.000000    0.000000    0.000000    0.000000
  0.026000000   -7.243946  148.585037  -94.235289   20.721275    0.000000    0.000000    0.000000    0.000000
  0.026200000   -7.246731  148.375488  -95.031007   23.813286    0.000000    0.000000    0.000000    0.000000
  0.026400000   -7.248116  148.148407  -94.958274   19.911947    0.000000    0.000000    0.000000    0.000000
  0.026600000   -7.251973  147.884583  -95.279296   19.696049    0.000000    0.000000    0.000000    0.000000
  0.026800000   -7.252224  147.633743  -95.643286   25.058199    0.000000    0.000000    0.000000    0.000000
  0.027000000   -7.255153  147.382813  -95.706497   29.923731    0.000000    0.000000    0.000000    0.000000
  0.027200000   -7.250188  147.143112  -95.804977   22.194960    0.000000    0.000000    0.000000    0.000000
  0.027400000   -7.247676  146.832428  -96.130882   36.357468    0.000000    0.000000    0.000000    0.000000
  0.027600000   -7.243771  146.590790  -96.054525   21.309072    0.000000    0.000000    0.000000    0.000000
  0.027800000   -7.243843  146.316956  -95.521979   22.178881    0.000000    0.000000    0.000000    0.000000
  0.028000000   -7.241792  146.088547  -95.680023   25.215384    0.000000    0.000000    0.000000    0.000000
  0.028200000   -7.237917  145.863342  -95.245950   21.784855    0.000000    0.000000    0.000000    0.000000
  0.028400000   -7.239348  145.620514  -95.723918   17.151411    0.000000    0.000000    0.000000    0.000000
  0.028600000   -7.238212  145.402832  -96.578081   16.012999    0.000000    0.000000    0.000000    0.000000
  0.028800000   -7.235487  145.202042  -96.369159   23.790968    0.000000    0.000000    0.000000    0.000000
  0.029000000   -7.232087  145.021057  -95.797362   26.490059    0.000000    0.000000    0.000000    0.000000
  0.029200000   -7.231732  144.859024  -96.312672   18.912443    0.000000    0.000000    0.000000    0.000000
  0.029400000   -7.233433  144.668015  -96.727483   25.005222    0.000000    0.000000    0.000000    0.000000
  0.029600000   -7.232317  144.445236  -96.985517   19.026012    0.000000    0.000000    0.000000    0.000000
  0.029800000   -7.236003  144.225525  -96.935811   15.926753    0.000000    0.000000    0.000000    0.000000
  0.030000000   -7.238356  144.003433  -97.261640   27.394566    0.000000    0.000000    0.000000    0.000000
  0.030200000   -7.241972  143.768768  -97.057542   14.348393    0.000000    0.000000    0.000000    0.000000
  0.030400000   -7.242122  143.504501  -96.379607    9.859944    0.000000    0.000000    0.000000    0.000000
  0.030600000   -7.246213  143.261902  -96.472574   14.028763    0.000000    0.000000    0.000000    0.000000
  0.030800000   -7.247266  142.990112  -95.814474   14.264560    0.000000    0.000000    0.000000    0.000000
  0.031000000   -7.248015  142.759583  -96.365319   17.947622    0.000000    0.000000    0.000000    0.000000
  0.031200000   -7.242838  142.512238  -97.078971   15.349908    0.000000    0.000000    0.000000    0.000000
  0.031400000   -7.246773  142.271591  -97.140598    5.102138    0.000000    0.000000    0.000000    0.000000
  0.031600000   -7.247548  142.012360  -97.044858   15.098652    0.000000    0.000000    0.000000    0.000000
  0.031800000   -7.250295  141.756378  -96.659637   13.521606    0.000000    0.000000    0.000000    0.000000
  0.032000000   -7.248099  141.520706  -96.300383   -2.361246    0.000000    0.000000    0.000000    0.000000
  0.032200000   -7.247101  141.267746  -97.101028   -5.000078    0.000000    0.000000    0.000000    0.000000
  0.032400000   -7.242400  141.017075  -97.503715   14.338346    0.000000    0.000000    0.000000    0.000000
  0.032600000   -7.235954  140.758682  -97.791764   11.664905    0.000000    0.000000    0.000000    0.000000
  0.032800000   -7.232167  140.560043  -97.810436   21.744188    0.000000    0.000000    0.000000    0.000000
  0.033000000   -7.226061  140.338989  -97.824647   17.347166    0.000000    0.000000    0.000000    0.000000
  0.033200000   -7.229378  140.127731  -98.471193    6.468170    0.000000    0.000000    0.000000    0.000000
  0.033400000   -7.228025  139.929504  -96.461504    9.043447    0.000000    0.000000    0.000000    0.000000
  0.033600000   -7.232878  139.724243  -98.580457   16.851410    0.000000    0.000000    0.000000    0.000000
  0.033800000   -7.235633  139.511917  -99.113265   16.169958    0.000000    0.000000    0.000000    0.000000
  0.034000000   -7.235579  139.248123  -97.634958   22.863106    0.000000    0.000000    0.000000    0.000000
  0.034200000   -7.237202  138.986404  -97.540397   16.019588    0.000000    0.000000    0.000000    0.000000
  0.034400000   -7.243917  138.711441  -99.495011    5.036551    0.000000    0.000000    0.000000    0.000000
  0.034600000   -7.247823  138.441284  -97.110734    8.029793    0.000000    0.000000    0.000000    0.000000
  0.034800000   -7.246098  138.195908  -98.043071    5.114753    0.000000    0.000000    0.000000    0.000000
  0.035000000   -7.252813  137.917755  -97.773322   17.956480    0.000000    0.000000    0.000000    0.000000
  0.035200000   -7.250227  137.649597  -98.480233   16.598904    0.000000    0.000000    0.000000    0.000000
  0.035400000   -7.248375  137.454147  -99.718450    5.103982    0.000000    0.000000    0.000000    0.000000
  0.035600000   -7.243987  137.164703  -99.001882   -3.322214    0.000000    0.000000    0.000000    0.000000
  0.035800000   -7.239671  136.918716  -99.300456   13.613353    0.000000    0.000000    0.000000    0.000000
  0.036000000   -7.232702  136.658997  -97.383901   14.301942    0.000000    0.000000    0.000000    0.000000
  0.036200000   -7.228468  136.426147 -101.292754    4.356073    0.000000    0.000000    0.000000    0.000000
  0.036400000   -7.220794  136.228241  -98.398073   23.850428    0.000000    0.000000    0.000000    0.000000
  0.036600000   -7.216113  135.998062  -98.694528    6.173879    0.000000    0.000000    0.000000    0.000000
  0.036800000   -7.214927  135.816879  -97.864929   -0.282442    0.000000    0.000000    0.000000    0.000000
  0.037000000   -7.209654  135.617996  -97.081391    3.413820    0.000000    0.000000    0.000000    0.000000
  0.037200000   -7.213415  135.437454  -99.560060    5.339453    0.000000    0.000000    0.000000    0.000000
  0.037400000   -7.216245  135.182816 -100.318812  -16.280449    0.000000    0.000000    0.000000    0.000000
  0.037600000   -7.222972  134.965012  -98.975877   11.071046    0.000000    0.000000    0.000000    0.000000
  0.037800000   -7.222401  134.755554 -102.143567    9.414593    0.000000    0.000000    0.000000    0.000000
  0.038000000   -7.227794  134.490311  -98.543407   -1.369257    0.000000    0.000000    0.000000    0.000000
  0.038200000   -7.233281  134.249496  -99.336668  -10.466968    0.000000    0.000000    0.000000    0.000000
  0.038400000   -7.234833  133.987946 -101.061416    5.221517    0.000000    0.000000    0.000000    0.000000
  0.038600000   -7.239866  133.752167  -98.422448   11.978573    0.000000    0.000000    0.000000    0.000000
  0.038800000   -7.238853  133.514984  -99.498746    4.609572    0.000000    0.000000    0.000000    0.000000
  0.039000000   -7.240846  133.284592  -99.799774    1.843401    0.000000    0.000000    0.000000    0.000000
  0.039200000   -7.238219  133.032806  -98.851794    7.747210    0.000000    0.000000    0.000000    0.000000
  0.039400000   -7.238415  132.796570  -99.627650    4.175433    0.000000    0.000000    0.000000    0.000000
  0.039600000   -7.232335  132.555420  -99.228985   12.270487    0.000000    0.000000    0.000000    0.000000
  0.039800000   -7.229743  132.262024 -104.539011   10.110086    0.000000    0.000000    0.000000    0.000000
  0.040000000   -7.225816  132.019623  -98.678201   15.977062    0.000000    0.000000    0.000000    0.000000
  0.040200000   -7.219854  131.813644 -100.177667   13.528640    0.000000    0.000000    0.000000    0.000000
  0.040400000   -7.219615  131.571930 -100.292158   12.956007    0.000000    0.000000    0.000000    0.000000
  0.040600000   -7.212018  131.365326 -101.863401   14.394898    0.000000    0.000000    0.000000    0.000000
  0.040800000   -7.218459  131.183578  -99.502543    9.077946    0.000000    0.000000    0.000000    0.000000
  0.041000000   -7.219665  130.995728  -98.984214   17.595467    0.000000    0.000000    0.000000    0.000000
  0.041200000   -7.224761  130.784622 -103.225626   -4.542584    0.000000    0.000000    0.000000    0.000000
  0.041400000   -7.233685  130.547134  -99.482652   13.396858    0.000000    0.000000    0.000000    0.000000
  0.041600000   -7.238818  130.283752 -103.106730   14.956223    0.000000    0.000000    0.000000    0.000000
  0.041800000   -7.244266  130.025375  -99.411400    6.748307    0.000000    0.000000    0.000000    0.000000
  0.042000000   -7.245704  129.829437 -102.036404    6.818124    0.000000    0.000000    0.000000    0.000000
  0.042200000   -7.248750  129.560379  -99.831137    9.869980    0.000000    0.000000    0.000000    0.000000
  0.042400000   -7.251516  129.296448  -99.376534   12.053593    0.000000    0.000000    0.000000    0.000000
  0.042600000   -7.246482  129.015091  -98.984243   -3.565422    0.000000    0.000000    0.000000    0.000000
  0.042800000   -7.245877  128.770782 -100.987916    8.680710    0.000000    0.000000    0.000000    0.000000
