! Anritsu VNA Master:                     Model: MS2036C/10/77
! SN:                                  1601066
! /card0/usr/254.ew.sma.r50.12.s2p
! Existing Calibration Information:
! TYPE:                         Current Settings,       Active Cal Settings
! TIME:             	   12/20/2017 12:40:34 PM,    12/20/2017 12:32:09 PM
! INTERNAL TEMP:    	                   45.0 C,                    45.8 C
! # POINTS:         	                      501,                       501
! START FREQ:       	               10.000 MHz,                10.000 MHz
! STOP FREQ:        	              110.000 MHz,               110.000 MHz
! SOURCE POWER:     	                     High,                      High
! IFBW:             	                   100 Hz,                    100 Hz
! AVG FACTOR:       	                       1 ,                        1 
! REF PLANE 1:      	                     0 mm,                      0 mm
! REF PLANE 2:      	                     0 mm,                      0 mm
! CAL TYPE:         	                 Full S11,                  Full S11
! CAL METHOD:       	                     SOLT,                      SOLT
! CAL LINE TYPE:    	                     Coax,                      Coax
! DUT PORT 1:       	                N-Conn(F),                 N-Conn(F)
! DUT PORT 2:       	                K-Conn(F),                 K-Conn(F)
! CAL STATUS:       	        OK: Accuracy High,                        --
# GHZ S DB R 50.0
! FREQ.GHZ       S11DB        S11A       S21DB        S21A       S12DB        S12A       S22DB        S22A
  0.010000000  -95.424262  -15.644246  -82.943970   78.565483    0.000000    0.000000    0.000000    0.000000
  0.010200000  -95.685820  -17.531813  -83.477231   74.175697    0.000000    0.000000    0.000000    0.000000
  0.010400000  -94.516319  -17.961905  -83.701038   76.730965    0.000000    0.000000    0.000000    0.000000
  0.010600000  -94.831743  -17.485142  -83.887062   75.325096    0.000000    0.000000    0.000000    0.000000
  0.010800000  -94.717835  -15.586766  -84.341990   71.820732    0.000000    0.000000    0.000000    0.000000
  0.011000000  -94.151696  -20.072718  -84.188403   73.265289    0.000000    0.000000    0.000000    0.000000
  0.011200000  -93.877661  -19.462261  -84.567116   68.646568    0.000000    0.000000    0.000000    0.000000
  0.011400000  -93.697802  -20.106245  -84.623752   70.499519    0.000000    0.000000    0.000000    0.000000
  0.011600000  -93.477389  -19.966511  -84.631517   68.569077    0.000000    0.000000    0.000000    0.000000
  0.011800000  -93.325141  -19.372715  -84.644216   64.834412    0.000000    0.000000    0.000000    0.000000
  0.012000000  -92.992575  -19.682737  -85.178263   66.692764    0.000000    0.000000    0.000000    0.000000
  0.012200000  -93.047276  -21.534315  -85.065969   65.072205    0.000000    0.000000    0.000000    0.000000
  0.012400000  -92.578789  -22.685970  -85.775282   61.821320    0.000000    0.000000    0.000000    0.000000
  0.012600000  -92.290465  -20.878824  -85.635168   62.148834    0.000000    0.000000    0.000000    0.000000
  0.012800000  -92.134916  -20.391956  -85.546132   64.766090    0.000000    0.000000    0.000000    0.000000
  0.013000000  -91.799362  -23.024277  -85.942208   63.466946    0.000000    0.000000    0.000000    0.000000
  0.013200000  -91.679274  -20.795235  -86.086012   64.437637    0.000000    0.000000    0.000000    0.000000
  0.013400000  -91.361992  -25.026892  -86.447892   56.739731    0.000000    0.000000    0.000000    0.000000
  0.013600000  -91.148321  -20.106325  -87.230649   60.488277    0.000000    0.000000    0.000000    0.000000
  0.013800000  -90.848640  -21.851530  -86.971623   58.134205    0.000000    0.000000    0.000000    0.000000
  0.014000000  -91.074799  -23.307150  -86.798894   59.473427    0.000000    0.000000    0.000000    0.000000
  0.014200000  -90.420027  -23.810381  -87.238721   56.752068    0.000000    0.000000    0.000000    0.000000
  0.014400000  -90.526342  -22.923904  -86.942597   55.062046    0.000000    0.000000    0.000000    0.000000
  0.014600000  -90.471930  -23.211779  -87.164950   55.428112    0.000000    0.000000    0.000000    0.000000
  0.014800000  -90.239252  -22.014555  -87.491388   52.759815    0.000000    0.000000    0.000000    0.000000
  0.015000000  -89.988639  -23.927176  -88.084703   56.318680    0.000000    0.000000    0.000000    0.000000
  0.015200000  -89.437562  -22.936798  -88.052398   51.852329    0.000000    0.000000    0.000000    0.000000
  0.015400000  -89.565430  -23.109722  -87.841081   51.002003    0.000000    0.000000    0.000000    0.000000
  0.015600000  -90.151796  -26.072529  -88.098777   47.325027    0.000000    0.000000    0.000000    0.000000
  0.015800000  -89.399054  -25.137880  -88.017050   47.836662    0.000000    0.000000    0.000000    0.000000
  0.016000000  -89.237318  -26.204800  -88.301426   47.309292    0.000000    0.000000    0.000000    0.000000
  0.016200000  -89.001238  -26.818354  -88.624103   49.097172    0.000000    0.000000    0.000000    0.000000
  0.016400000  -88.786693  -26.833593  -88.636071   52.030846    0.000000    0.000000    0.000000    0.000000
  0.016600000  -88.704672  -27.207249  -88.704589   48.837994    0.000000    0.000000    0.000000    0.000000
  0.016800000  -88.278169  -27.465725  -88.537528   47.855019    0.000000    0.000000    0.000000    0.000000
  0.017000000  -88.442295  -25.608995  -88.586748   48.706001    0.000000    0.000000    0.000000    0.000000
  0.017200000  -88.464886  -26.615232  -88.939586   44.123322    0.000000    0.000000    0.000000    0.000000
  0.017400000  -87.819731  -28.558563  -89.649447   47.368641    0.000000    0.000000    0.000000    0.000000
  0.017600000  -88.123867  -29.804131  -89.506871   41.022617    0.000000    0.000000    0.000000    0.000000
  0.017800000  -87.742727  -29.959082  -89.603459   43.646008    0.000000    0.000000    0.000000    0.000000
  0.018000000  -87.504148  -30.421310  -89.590508   43.676144    0.000000    0.000000    0.000000    0.000000
  0.018200000  -87.304716  -29.639788  -89.628011   36.456791    0.000000    0.000000    0.000000    0.000000
  0.018400000  -87.228614  -30.691408  -90.232770   44.971310    0.000000    0.000000    0.000000    0.000000
  0.018600000  -86.904465  -29.737263  -90.041124   42.460194    0.000000    0.000000    0.000000    0.000000
  0.018800000  -86.773285  -30.431652  -90.378222   42.895218    0.000000    0.000000    0.000000    0.000000
  0.019000000  -86.491543  -30.170418  -90.394080   44.099056    0.000000    0.000000    0.000000    0.000000
  0.019200000  -86.291777  -31.897974  -90.834966   42.801422    0.000000    0.000000    0.000000    0.000000
  0.019400000  -86.193587  -31.457815  -90.490606   37.281094    0.000000    0.000000    0.000000    0.000000
  0.019600000  -85.951274  -31.456314  -90.261756   40.839554    0.000000    0.000000    0.000000    0.000000
  0.019800000  -85.806939  -33.361858  -90.762322   39.361847    0.000000    0.000000    0.000000    0.000000
  0.020000000  -85.407957  -32.635738  -91.830834   39.338734    0.000000    0.000000    0.000000    0.000000
  0.020200000  -85.256127  -31.083111  -92.130927   38.953175    0.000000    0.000000    0.000000    0.000000
  0.020400000  -85.193551  -31.746710  -91.128810   37.870567    0.000000    0.000000    0.000000    0.000000
  0.020600000  -85.029666  -32.009350  -91.703230   37.665833    0.000000    0.000000    0.000000    0.000000
  0.020800000  -84.481808  -32.590405  -91.972825   34.525211    0.000000    0.000000    0.000000    0.000000
  0.021000000  -84.644622  -32.419987  -91.571465   33.736496    0.000000    0.000000    0.000000    0.000000
  0.021200000  -84.284798  -31.708778  -91.668287   34.455692    0.000000    0.000000    0.000000    0.000000
  0.021400000  -84.418267  -33.591782  -92.327103   31.307688    0.000000    0.000000    0.000000    0.000000
  0.021600000  -84.088512  -32.496731  -91.394679   32.253220    0.000000    0.000000    0.000000    0.000000
  0.021800000  -83.980872  -32.234650  -91.842281   34.401165    0.000000    0.000000    0.000000    0.000000
  0.022000000  -83.644533  -30.938789  -92.616778   33.758526    0.000000    0.000000    0.000000    0.000000
  0.022200000  -83.573416  -29.979801  -91.730072   31.821766    0.000000    0.000000    0.000000    0.000000
  0.022400000  -83.407486  -30.590960  -92.618450   22.804605    0.000000    0.000000    0.000000    0.000000
  0.022600000  -83.355360  -31.243099  -92.593134   32.123791    0.000000    0.000000    0.000000    0.000000
  0.022800000  -83.270823  -30.975872  -93.077568   28.722427    0.000000    0.000000    0.000000    0.000000
  0.023000000  -83.536526  -33.107986  -94.033027   26.381018    0.000000    0.000000    0.000000    0.000000
  0.023200000  -83.269907  -30.707178  -92.684089   27.362484    0.000000    0.000000    0.000000    0.000000
  0.023400000  -82.580322  -31.872822  -91.744520   28.660769    0.000000    0.000000    0.000000    0.000000
  0.023600000  -82.832536  -31.138460  -93.236813   32.239925    0.000000    0.000000    0.000000    0.000000
  0.023800000  -82.750142  -32.013218  -92.738599   24.793543    0.000000    0.000000    0.000000    0.000000
  0.024000000  -82.835610  -30.730999  -92.890552   28.353699    0.000000    0.000000    0.000000    0.000000
  0.024200000  -82.723578  -32.216934  -93.644137   25.851147    0.000000    0.000000    0.000000    0.000000
  0.024400000  -82.552142  -31.115709  -94.551885   32.706818    0.000000    0.000000    0.000000    0.000000
  0.024600000  -82.555039  -30.776768  -93.637968   29.456301    0.000000    0.000000    0.000000    0.000000
  0.024800000  -82.437839  -32.036907  -93.725603   20.402056    0.000000    0.000000    0.000000    0.000000
  0.025000000  -82.583569  -32.751904  -93.226951   28.022619    0.000000    0.000000    0.000000    0.000000
  0.025200000  -82.049694  -33.941856  -93.669025   19.574263    0.000000    0.000000    0.000000    0.000000
  0.025400000  -82.199863  -33.687653  -93.937934   24.019913    0.000000    0.000000    0.000000    0.000000
  0.025600000  -81.996028  -33.170033  -93.678748   20.792995    0.000000    0.000000    0.000000    0.000000
  0.025800000  -81.966689  -33.841408  -95.576882   24.800060    0.000000    0.000000    0.000000    0.000000
  0.026000000  -81.847827  -35.262051  -93.664282   24.592466    0.000000    0.000000    0.000000    0.000000
  0.026200000  -81.634044  -34.497292  -95.019175   22.162868    0.000000    0.000000    0.000000    0.000000
  0.026400000  -81.637760  -35.633747  -94.776878   28.301735    0.000000    0.000000    0.000000    0.000000
  0.026600000  -81.423554  -36.233662  -95.491268   21.418907    0.000000    0.000000    0.000000    0.000000
  0.026800000  -81.198615  -36.923809  -95.254146   17.637447    0.000000    0.000000    0.000000    0.000000
  0.027000000  -81.054994  -36.993038  -95.043041   23.943333    0.000000    0.000000    0.000000    0.000000
  0.027200000  -80.985229  -36.801201  -96.199403   20.718927    0.000000    0.000000    0.000000    0.000000
  0.027400000  -80.707362  -36.453575  -95.882179   27.460331    0.000000    0.000000    0.000000    0.000000
  0.027600000  -80.699696  -36.766781  -94.278127   22.284477    0.000000    0.000000    0.000000    0.000000
  0.027800000  -80.498113  -37.535824  -95.534746   21.177282    0.000000    0.000000    0.000000    0.000000
  0.028000000  -80.292886  -36.542412  -96.000164   20.018423    0.000000    0.000000    0.000000    0.000000
  0.028200000  -80.227841  -37.448597  -95.471620   14.827803    0.000000    0.000000    0.000000    0.000000
  0.028400000  -80.019786  -36.283749  -96.848746   20.039335    0.000000    0.000000    0.000000    0.000000
  0.028600000  -80.001931  -36.692757  -95.754658   12.915962    0.000000    0.000000    0.000000    0.000000
  0.028800000  -79.802442  -37.151840  -95.354495   26.470642    0.000000    0.000000    0.000000    0.000000
  0.029000000  -79.723127  -36.455421  -97.686088   13.618219    0.000000    0.000000    0.000000    0.000000
  0.029200000  -79.694562  -36.163902  -95.824085   20.913570    0.000000    0.000000    0.000000    0.000000
  0.029400000  -79.617880  -35.979259  -97.394829   15.801469    0.000000    0.000000    0.000000    0.000000
  0.029600000  -79.507257  -35.995266  -97.225128   11.546887    0.000000    0.000000    0.000000    0.000000
  0.029800000  -79.282085  -36.277096  -96.554193   20.351536    0.000000    0.000000    0.000000    0.000000
  0.030000000  -79.366193  -35.481228  -96.364282   16.914711    0.000000    0.000000    0.000000    0.000000
  0.030200000  -79.195656  -35.617962  -95.881543   11.359939    0.000000    0.000000    0.000000    0.000000
  0.030400000  -79.011859  -36.475288  -96.313528   10.060297    0.000000    0.000000    0.000000    0.000000
  0.030600000  -79.121381  -37.383919  -97.324130   18.362358    0.000000    0.000000    0.000000    0.000000
  0.030800000  -78.987512  -37.082787  -96.599335   19.585190    0.000000    0.000000    0.000000    0.000000
  0.031000000  -78.838499  -36.216705  -96.761113   15.619113    0.000000    0.000000    0.000000    0.000000
  0.031200000  -78.707933  -36.724869  -96.352590   19.455338    0.000000    0.000000    0.000000    0.000000
  0.031400000  -78.669628  -35.083454  -97.993287   23.203171    0.000000    0.000000    0.000000    0.000000
  0.031600000  -78.700735  -36.119278  -96.886337    9.790606    0.000000    0.000000    0.000000    0.000000
  0.031800000  -78.590190  -36.423832  -98.789089   12.858045    0.000000    0.000000    0.000000    0.000000
  0.032000000  -78.442480  -36.035667  -98.140284   14.280167    0.000000    0.000000    0.000000    0.000000
  0.032200000  -78.472534  -36.778656  -97.281494    7.517465    0.000000    0.000000    0.000000    0.000000
  0.032400000  -78.385196  -36.315968  -97.127143   11.548750    0.000000    0.000000    0.000000    0.000000
  0.032600000  -78.273620  -36.975933  -96.739560    5.889516    0.000000    0.000000    0.000000    0.000000
  0.032800000  -78.322861  -37.418770  -97.170754   11.731115    0.000000    0.000000    0.000000    0.000000
  0.033000000  -78.206378  -36.841270  -97.078742    5.346518    0.000000    0.000000    0.000000    0.000000
  0.033200000  -78.176630  -37.743656  -99.419955    5.247472    0.000000    0.000000    0.000000    0.000000
  0.033400000  -78.104894  -39.203171  -97.514037    2.868509    0.000000    0.000000    0.000000    0.000000
  0.033600000  -77.950302  -39.456215  -98.231789    0.747958    0.000000    0.000000    0.000000    0.000000
  0.033800000  -77.825618  -39.538731  -97.605511    3.401297    0.000000    0.000000    0.000000    0.000000
  0.034000000  -77.602568  -40.419193  -96.767147   10.415484    0.000000    0.000000    0.000000    0.000000
  0.034200000  -77.666427  -40.024506  -99.587918    5.595329    0.000000    0.000000    0.000000    0.000000
  0.034400000  -77.439056  -40.804363  -99.434245    6.491565    0.000000    0.000000    0.000000    0.000000
  0.034600000  -77.285086  -40.736958  -98.026462   11.495301    0.000000    0.000000    0.000000    0.000000
  0.034800000  -77.280639  -40.959888  -99.544583   -2.275187    0.000000    0.000000    0.000000    0.000000
  0.035000000  -77.010648  -40.807701  -98.467580   10.420817    0.000000    0.000000    0.000000    0.000000
  0.035200000  -76.962486  -42.987911  -98.764975   15.101870    0.000000    0.000000    0.000000    0.000000
  0.035400000  -76.840348  -41.844006  -98.933585    5.930243    0.000000    0.000000    0.000000    0.000000
  0.035600000  -76.675933  -41.493778  -97.993579    7.182588    0.000000    0.000000    0.000000    0.000000
  0.035800000  -76.636795  -42.511707  -98.034193    6.368932    0.000000    0.000000    0.000000    0.000000
  0.036000000  -76.428994  -42.245026  -99.534218   10.383560    0.000000    0.000000    0.000000    0.000000
  0.036200000  -76.390305  -42.493885  -99.846466   12.344745    0.000000    0.000000    0.000000    0.000000
  0.036400000  -76.158746  -41.719978 -101.718459  -10.365325    0.000000    0.000000    0.000000    0.000000
  0.036600000  -76.136606  -41.689320  -98.128310   11.238099    0.000000    0.000000    0.000000    0.000000
  0.036800000  -75.955099  -42.060669  -97.937522    9.768271    0.000000    0.000000    0.000000    0.000000
  0.037000000  -75.864216  -42.106918  -99.684055   18.023687    0.000000    0.000000    0.000000    0.000000
  0.037200000  -75.879280  -40.861469  -99.991945    4.509722    0.000000    0.000000    0.000000    0.000000
  0.037400000  -75.717792  -41.658443  -98.482496    1.264040    0.000000    0.000000    0.000000    0.000000
  0.037600000  -75.723852  -41.976044  -99.147542    8.546818    0.000000    0.000000    0.000000    0.000000
  0.037800000  -75.602061  -41.299068  -98.626126    7.936234    0.000000    0.000000    0.000000    0.000000
  0.038000000  -75.588692  -41.152065  -99.345351   18.716589    0.000000    0.000000    0.000000    0.000000
  0.038200000  -75.400227  -41.259399 -100.029620    0.068130    0.000000    0.000000    0.000000    0.000000
  0.038400000  -75.443161  -41.556499  -99.509567    3.608417    0.000000    0.000000    0.000000    0.000000
  0.038600000  -75.319515  -41.652107  -99.396218   11.471986    0.000000    0.000000    0.000000    0.000000
  0.038800000  -75.181156  -41.649853  -99.651025    5.884421    0.000000    0.000000    0.000000    0.000000
  0.039000000  -75.169507  -41.738586  -99.390876    1.250505    0.000000    0.000000    0.000000    0.000000
  0.039200000  -75.008676  -40.904278 -101.986030    3.897334    0.000000    0.000000    0.000000    0.000000
  0.039400000  -74.923047  -42.128189  -99.801077   -4.011044    0.000000    0.000000    0.000000    0.000000
  0.039600000  -74.896106  -41.049175  -97.449178   14.193466    0.000000    0.000000    0.000000    0.000000
  0.039800000  -74.953221  -40.458851 -101.320972   -2.749029    0.000000    0.000000    0.000000    0.000000
  0.040000000  -74.688593  -41.181801  -97.670548    5.362530    0.000000    0.000000    0.000000    0.000000
  0.040200000  -74.791408  -41.285172  -99.240443   -0.519058    0.000000    0.000000    0.000000    0.000000
  0.040400000  -74.629020  -41.149300 -100.677979   15.771377    0.000000    0.000000    0.000000    0.000000
  0.040600000  -74.629216  -41.550190  -99.721098   14.861059    0.000000    0.000000    0.000000    0.000000
  0.040800000  -74.580758  -41.233986 -100.487632    6.876675    0.000000    0.000000    0.000000    0.000000
  0.041000000  -74.616890  -42.066868  -99.170787    4.764858    0.000000    0.000000    0.000000    0.000000
  0.041200000  -74.474373  -41.706379 -104.059678    0.029161    0.000000    0.000000    0.000000    0.000000
  0.041400000  -74.325194  -42.264904 -101.480914   -4.245593    0.000000    0.000000    0.000000    0.000000
  0.041600000  -74.339702  -42.481846 -103.291970   -2.307741    0.000000    0.000000    0.000000    0.000000
  0.041800000  -74.282702  -42.458858  -99.886230   13.138696    0.000000    0.000000    0.000000    0.000000
  0.042000000  -74.115290  -42.528198 -103.669933   -1.036983    0.000000    0.000000    0.000000    0.000000
  0.042200000  -74.029545  -43.169453 -100.000541   12.766762    0.000000    0.000000    0.000000    0.000000
  0.042400000  -74.019499  -43.299644 -103.398577   -6.283875    0.000000    0.000000    0.000000    0.000000
  0.042600000  -73.963626  -43.573303 -100.955589   -1.029202    0.000000    0.000000    0.000000    0.000000
  0.042800000  -73.996373  -43.639790 -100.429909   -3.516382    0.000000    0.000000    0.000000    0.000000
