! Anritsu VNA Master:                     Model: MS2036C/10/77
! SN:                                  1601066
! /bd0/18may09/b252.ew.m1.s2p
! Existing Calibration Information:
! TYPE:                         Current Settings,       Active Cal Settings
! TIME:             	   05/09/2018 09:23:37 PM,    05/09/2018 09:20:00 PM
! INTERNAL TEMP:    	                   50.8 C,                    51.0 C
! # POINTS:         	                      494,                       494
! START FREQ:       	               20.000 MHz,                20.000 MHz
! STOP FREQ:        	          118.797 594 MHz,           118.797 594 MHz
! SOURCE POWER:     	                     High,                      High
! IFBW:             	                    50 Hz,                     50 Hz
! AVG FACTOR:       	                       1 ,                        1 
! REF PLANE 1:      	                     0 mm,                      0 mm
! REF PLANE 2:      	                     0 mm,                      0 mm
! CAL TYPE:         	                 Full S22,                  Full S22
! CAL METHOD:       	                     SOLT,                      SOLT
! CAL LINE TYPE:    	                     Coax,                      Coax
! DUT PORT 1:       	                K-Conn(M),                 K-Conn(M)
! DUT PORT 2:       	                K-Conn(M),                 K-Conn(M)
! CAL STATUS:       	        OK: Accuracy High,                        --
# GHZ S DB R 50.0
! FREQ.GHZ       S11DB        S11A       S21DB        S21A       S12DB        S12A       S22DB        S22A
  0.020000000    0.000000    0.000000    0.000000    0.000000  -90.007767   35.916908   -0.622500 -125.589600
  0.020200401    0.000000    0.000000    0.000000    0.000000  -90.079830   35.346878   -0.624610 -127.030197
  0.020400802    0.000000    0.000000    0.000000    0.000000  -90.003008   38.752823   -0.626499 -128.504105
  0.020601202    0.000000    0.000000    0.000000    0.000000  -90.783099   37.970181   -0.629918 -129.988205
  0.020801603    0.000000    0.000000    0.000000    0.000000  -91.069108   36.966042   -0.633313 -131.496140
  0.021002004    0.000000    0.000000    0.000000    0.000000  -91.488775   32.706139   -0.634182 -133.026123
  0.021202405    0.000000    0.000000    0.000000    0.000000  -91.692892   36.994865   -0.639713 -134.551743
  0.021402806    0.000000    0.000000    0.000000    0.000000  -91.984166   34.856491   -0.641351 -136.070862
  0.021603206    0.000000    0.000000    0.000000    0.000000  -91.671150   36.082565   -0.642199 -137.588608
  0.021803607    0.000000    0.000000    0.000000    0.000000  -92.207779   36.932507   -0.646485 -139.111282
  0.022004008    0.000000    0.000000    0.000000    0.000000  -91.987315   40.974831   -0.651207 -140.654724
  0.022204409    0.000000    0.000000    0.000000    0.000000  -91.960822   40.374264   -0.658192 -142.204361
  0.022404810    0.000000    0.000000    0.000000    0.000000  -92.044050   38.315796   -0.662054 -143.776138
  0.022605210    0.000000    0.000000    0.000000    0.000000  -91.783919   43.601223   -0.665717 -145.362732
  0.022805611    0.000000    0.000000    0.000000    0.000000  -91.817651   44.040318   -0.668082 -146.961273
  0.023006012    0.000000    0.000000    0.000000    0.000000  -91.189174   44.905094   -0.671843 -148.537277
  0.023206413    0.000000    0.000000    0.000000    0.000000  -91.666310   40.756218   -0.677024 -150.133621
  0.023406814    0.000000    0.000000    0.000000    0.000000  -91.378527   39.312180   -0.682145 -151.721344
  0.023607214    0.000000    0.000000    0.000000    0.000000  -91.194224   38.191238   -0.689997 -153.317047
  0.023807615    0.000000    0.000000    0.000000    0.000000  -90.952832   38.141304   -0.699247 -154.933197
  0.024008016    0.000000    0.000000    0.000000    0.000000  -91.477772   36.996578   -0.708678 -156.571579
  0.024208417    0.000000    0.000000    0.000000    0.000000  -91.077366   35.413116   -0.714366 -158.227020
  0.024408818    0.000000    0.000000    0.000000    0.000000  -91.188629   32.118137   -0.721962 -159.893890
  0.024609218    0.000000    0.000000    0.000000    0.000000  -91.301895   34.733799   -0.730710 -161.549881
  0.024809619    0.000000    0.000000    0.000000    0.000000  -91.124782   31.411108   -0.739431 -163.216980
  0.025010020    0.000000    0.000000    0.000000    0.000000  -91.475170   30.928442   -0.750060 -164.885696
  0.025210421    0.000000    0.000000    0.000000    0.000000  -91.473258   33.725792   -0.761470 -166.568649
  0.025410822    0.000000    0.000000    0.000000    0.000000  -92.560725   27.385952   -0.773771 -168.253860
  0.025611222    0.000000    0.000000    0.000000    0.000000  -91.928983   27.081673   -0.785710 -169.958832
  0.025811623    0.000000    0.000000    0.000000    0.000000  -92.232723   28.769302   -0.797786 -171.682037
  0.026012024    0.000000    0.000000    0.000000    0.000000  -93.336733   25.134811   -0.808607 -173.405289
  0.026212425    0.000000    0.000000    0.000000    0.000000  -93.357793   26.506920   -0.820894 -175.141815
  0.026412826    0.000000    0.000000    0.000000    0.000000  -93.952931   25.910229   -0.835688 -176.885849
  0.026613226    0.000000    0.000000    0.000000    0.000000  -93.989541   26.896442   -0.850421 -178.636017
  0.026813627    0.000000    0.000000    0.000000    0.000000  -94.339453   26.455173   -0.866307  179.599136
  0.027014028    0.000000    0.000000    0.000000    0.000000  -93.175044   28.817142   -0.881756  177.836807
  0.027214429    0.000000    0.000000    0.000000    0.000000  -94.629339   28.202612   -0.899662  176.063400
  0.027414830    0.000000    0.000000    0.000000    0.000000  -94.307644   25.612093   -0.916833  174.276672
  0.027615230    0.000000    0.000000    0.000000    0.000000  -94.358336   31.000114   -0.934973  172.475464
  0.027815631    0.000000    0.000000    0.000000    0.000000  -94.762586   32.765987   -0.952215  170.677002
  0.028016032    0.000000    0.000000    0.000000    0.000000  -94.768314   29.207870   -0.971671  168.856110
  0.028216433    0.000000    0.000000    0.000000    0.000000  -94.688466   33.433666   -0.993498  167.014694
  0.028416834    0.000000    0.000000    0.000000    0.000000  -94.223093   39.990452   -1.013401  165.180634
  0.028617234    0.000000    0.000000    0.000000    0.000000  -95.110914   29.339724   -1.034085  163.343216
  0.028817635    0.000000    0.000000    0.000000    0.000000  -94.178103   31.148893   -1.055391  161.497635
  0.029018036    0.000000    0.000000    0.000000    0.000000  -94.685327   29.655813   -1.079407  159.645187
  0.029218437    0.000000    0.000000    0.000000    0.000000  -94.075019   31.914473   -1.104728  157.778427
  0.029418838    0.000000    0.000000    0.000000    0.000000  -94.577886   30.331385   -1.130564  155.887314
  0.029619238    0.000000    0.000000    0.000000    0.000000  -94.294805   30.850271   -1.155999  153.986481
  0.029819639    0.000000    0.000000    0.000000    0.000000  -93.814967   32.930122   -1.183264  152.083130
  0.030020040    0.000000    0.000000    0.000000    0.000000  -94.033471   29.128422   -1.211075  150.171509
  0.030220441    0.000000    0.000000    0.000000    0.000000  -94.250102   25.277975   -1.239059  148.252167
  0.030420842    0.000000    0.000000    0.000000    0.000000  -94.220913   29.868025   -1.268345  146.337601
  0.030621242    0.000000    0.000000    0.000000    0.000000  -94.475507   31.196257   -1.300054  144.422256
  0.030821643    0.000000    0.000000    0.000000    0.000000  -94.499618   25.848127   -1.333285  142.492676
  0.031022044    0.000000    0.000000    0.000000    0.000000  -94.681797   23.040842   -1.366351  140.534561
  0.031222445    0.000000    0.000000    0.000000    0.000000  -94.434494   21.136084   -1.390938  138.596786
  0.031422846    0.000000    0.000000    0.000000    0.000000  -93.937626   15.717472   -1.427285  136.620178
  0.031623246    0.000000    0.000000    0.000000    0.000000  -94.986321   20.395966   -1.464450  134.632751
  0.031823647    0.000000    0.000000    0.000000    0.000000  -94.626994   17.668922   -1.501739  132.644516
  0.032024048    0.000000    0.000000    0.000000    0.000000  -95.112634   21.534325   -1.538990  130.645172
  0.032224449    0.000000    0.000000    0.000000    0.000000  -94.811507   24.722198   -1.579336  128.648956
  0.032424850    0.000000    0.000000    0.000000    0.000000  -95.361270   23.515263   -1.618897  126.645630
  0.032625250    0.000000    0.000000    0.000000    0.000000  -95.761852   15.273907   -1.659198  124.619736
  0.032825651    0.000000    0.000000    0.000000    0.000000  -95.702151   24.046518   -1.700918  122.592773
  0.033026052    0.000000    0.000000    0.000000    0.000000  -96.254171   17.356947   -1.742257  120.542732
  0.033226453    0.000000    0.000000    0.000000    0.000000  -95.836125   18.660036   -1.785130  118.517159
  0.033426854    0.000000    0.000000    0.000000    0.000000  -95.533939   19.617592   -1.827227  116.463264
  0.033627254    0.000000    0.000000    0.000000    0.000000  -97.102656   19.290182   -1.871473  114.446823
  0.033827655    0.000000    0.000000    0.000000    0.000000  -97.347033   21.540951   -1.917958  112.400108
  0.034028056    0.000000    0.000000    0.000000    0.000000  -95.679151   22.498175   -1.965844  110.362862
  0.034228457    0.000000    0.000000    0.000000    0.000000  -96.455147   24.076311   -2.012130  108.298630
  0.034428858    0.000000    0.000000    0.000000    0.000000  -95.521608   27.863630   -2.060265  106.222443
  0.034629258    0.000000    0.000000    0.000000    0.000000  -96.661272   31.474768   -2.109608  104.155388
  0.034829659    0.000000    0.000000    0.000000    0.000000  -95.986999   36.815346   -2.159563  102.077599
  0.035030060    0.000000    0.000000    0.000000    0.000000  -96.610081   21.520330   -2.209773   99.988724
  0.035230461    0.000000    0.000000    0.000000    0.000000  -95.991524   20.440588   -2.261852   97.916443
  0.035430862    0.000000    0.000000    0.000000    0.000000  -96.714771   26.462080   -2.315970   95.853622
  0.035631262    0.000000    0.000000    0.000000    0.000000  -96.012271   23.151701   -2.370800   93.760864
  0.035831663    0.000000    0.000000    0.000000    0.000000  -96.032181   22.040947   -2.425530   91.695526
  0.036032064    0.000000    0.000000    0.000000    0.000000  -96.806128   19.974598   -2.479474   89.599350
  0.036232465    0.000000    0.000000    0.000000    0.000000  -96.238382   24.806347   -2.537409   87.514412
  0.036432866    0.000000    0.000000    0.000000    0.000000  -97.656247   17.324375   -2.589305   85.407906
  0.036633266    0.000000    0.000000    0.000000    0.000000  -95.916193   18.692406   -2.647269   83.314178
  0.036833667    0.000000    0.000000    0.000000    0.000000  -96.892766   24.044006   -2.706220   81.232498
  0.037034068    0.000000    0.000000    0.000000    0.000000  -96.831796   24.695765   -2.765838   79.123528
  0.037234469    0.000000    0.000000    0.000000    0.000000  -97.080299   14.137581   -2.825000   77.030380
  0.037434870    0.000000    0.000000    0.000000    0.000000  -98.476656   19.648754   -2.884769   74.928123
  0.037635270    0.000000    0.000000    0.000000    0.000000  -97.195458   18.521679   -2.942991   72.850479
  0.037835671    0.000000    0.000000    0.000000    0.000000  -97.234691   19.240034   -3.003074   70.761963
  0.038036072    0.000000    0.000000    0.000000    0.000000  -97.568301   26.740318   -3.061645   68.662514
  0.038236473    0.000000    0.000000    0.000000    0.000000  -97.637643   20.224596   -3.119675   66.498566
  0.038436874    0.000000    0.000000    0.000000    0.000000  -96.870301   26.156370   -3.183311   64.364906
  0.038637274    0.000000    0.000000    0.000000    0.000000  -98.724487   27.932615   -3.248405   62.241001
  0.038837675    0.000000    0.000000    0.000000    0.000000  -98.375903   26.001097   -3.309857   60.144390
  0.039038076    0.000000    0.000000    0.000000    0.000000  -97.315973   27.156965   -3.369102   58.056450
  0.039238477    0.000000    0.000000    0.000000    0.000000  -98.825419   28.453671   -3.431925   55.955334
  0.039438878    0.000000    0.000000    0.000000    0.000000  -98.133665   27.913294   -3.494550   53.879211
  0.039639278    0.000000    0.000000    0.000000    0.000000  -97.934585   23.953283   -3.557215   51.783630
  0.039839679    0.000000    0.000000    0.000000    0.000000  -97.774553   42.137856   -3.619186   49.698505
  0.040040080    0.000000    0.000000    0.000000    0.000000  -98.748352   26.668524   -3.679800   47.596790
  0.040240481    0.000000    0.000000    0.000000    0.000000  -97.680603   27.353075   -3.737839   45.500038
  0.040440882    0.000000    0.000000    0.000000    0.000000  -97.566433   28.968515   -3.800262   43.423874
  0.040641283    0.000000    0.000000    0.000000    0.000000  -97.795918   30.747429   -3.862020   41.365467
  0.040841683    0.000000    0.000000    0.000000    0.000000  -97.417113   32.758446   -3.921874   39.302082
  0.041042084    0.000000    0.000000    0.000000    0.000000  -97.962551   24.826134   -3.982881   37.268433
  0.041242485    0.000000    0.000000    0.000000    0.000000  -97.079847   24.655771   -4.043865   35.202114
  0.041442886    0.000000    0.000000    0.000000    0.000000  -97.089812   36.101784   -4.106841   33.135494
  0.041643287    0.000000    0.000000    0.000000    0.000000  -98.401671   30.218662   -4.164426   31.082932
  0.041843687    0.000000    0.000000    0.000000    0.000000  -96.888456   30.302492   -4.224263   29.028202
  0.042044088    0.000000    0.000000    0.000000    0.000000  -98.436025   26.715244   -4.281738   26.990799
  0.042244489    0.000000    0.000000    0.000000    0.000000  -98.280585   23.981203   -4.339541   24.964645
  0.042444890    0.000000    0.000000    0.000000    0.000000  -98.807308   23.880415   -4.398635   22.954998
  0.042645291    0.000000    0.000000    0.000000    0.000000  -96.935595   25.889486   -4.457681   20.928165
  0.042845691    0.000000    0.000000    0.000000    0.000000  -96.901254   25.753359   -4.514583   18.916023
  0.043046092    0.000000    0.000000    0.000000    0.000000  -98.655039   22.071301   -4.570907   16.909281
  0.043246493    0.000000    0.000000    0.000000    0.000000  -98.010623   21.026892   -4.629192   14.895150
  0.043446894    0.000000    0.000000    0.000000    0.000000  -98.419573   30.728334   -4.684738   12.897567
  0.043647295    0.000000    0.000000    0.000000    0.000000  -99.398858   35.871033   -4.736290   10.913675
  0.043847695    0.000000    0.000000    0.000000    0.000000  -99.651667   39.848167   -4.793007    8.948366
  0.044048096    0.000000    0.000000    0.000000    0.000000  -99.581102   26.001471   -4.847061    6.983979
  0.044248497    0.000000    0.000000    0.000000    0.000000 -100.851178   35.803612   -4.900508    5.015147
  0.044448898    0.000000    0.000000    0.000000    0.000000  -99.894179   25.237206   -4.953088    3.089441
  0.044649299    0.000000    0.000000    0.000000    0.000000  -98.941318   27.132957   -5.005140    1.162707
  0.044849699    0.000000    0.000000    0.000000    0.000000  -99.346631   30.575153   -5.054632   -0.769758
  0.045050100    0.000000    0.000000    0.000000    0.000000  -99.771353   31.556673   -5.102993   -2.701749
  0.045250501    0.000000    0.000000    0.000000    0.000000 -100.254636   33.820240   -5.150596   -4.613191
  0.045450902    0.000000    0.000000    0.000000    0.000000  -98.149780   25.394543   -5.197389   -6.516124
  0.045651303    0.000000    0.000000    0.000000    0.000000  -99.478156   37.092407   -5.243755   -8.397013
  0.045851703    0.000000    0.000000    0.000000    0.000000  -99.121434   30.344748   -5.291167  -10.263199
  0.046052104    0.000000    0.000000    0.000000    0.000000  -98.361963   29.141504   -5.336758  -12.113598
  0.046252505    0.000000    0.000000    0.000000    0.000000 -100.037010   40.340244   -5.380524  -13.973737
  0.046452906    0.000000    0.000000    0.000000    0.000000  -99.751817   29.335297   -5.423826  -15.805159
  0.046653307    0.000000    0.000000    0.000000    0.000000  -97.967048   36.679691   -5.467100  -17.638168
  0.046853707    0.000000    0.000000    0.000000    0.000000  -97.850421   26.673481   -5.509356  -19.462400
  0.047054108    0.000000    0.000000    0.000000    0.000000  -97.857297   29.319786   -5.550995  -21.278151
  0.047254509    0.000000    0.000000    0.000000    0.000000  -98.030229   27.290668   -5.587510  -23.108564
  0.047454910    0.000000    0.000000    0.000000    0.000000  -98.301935   31.605181   -5.622172  -24.897900
  0.047655311    0.000000    0.000000    0.000000    0.000000  -99.305100   34.182178   -5.659421  -26.683969
  0.047855711    0.000000    0.000000    0.000000    0.000000  -99.134280   39.269718   -5.693518  -28.434875
  0.048056112    0.000000    0.000000    0.000000    0.000000  -99.540093   32.718647   -5.730784  -30.184675
  0.048256513    0.000000    0.000000    0.000000    0.000000  -99.337712   21.503683   -5.763063  -31.926790
  0.048456914    0.000000    0.000000    0.000000    0.000000  -98.734527   38.541756   -5.795289  -33.667706
  0.048657315    0.000000    0.000000    0.000000    0.000000  -98.729940   35.826099   -5.826625  -35.408710
  0.048857715    0.000000    0.000000    0.000000    0.000000  -97.884223   23.332996   -5.852763  -37.138691
  0.049058116    0.000000    0.000000    0.000000    0.000000 -100.504486   29.691006   -5.880092  -38.855694
  0.049258517    0.000000    0.000000    0.000000    0.000000 -100.335952   23.162298   -5.903836  -40.521156
  0.049458918    0.000000    0.000000    0.000000    0.000000  -99.229204   41.057980   -5.930517  -42.214138
  0.049659319    0.000000    0.000000    0.000000    0.000000  -99.443574   36.027000   -5.955269  -43.895344
  0.049859719    0.000000    0.000000    0.000000    0.000000  -99.654169   33.224258   -5.980761  -45.580662
  0.050060120    0.000000    0.000000    0.000000    0.000000  -98.841756   30.803831   -6.002698  -47.227974
  0.050260521    0.000000    0.000000    0.000000    0.000000  -98.996638   39.852047   -6.023368  -48.879143
  0.050460922    0.000000    0.000000    0.000000    0.000000  -99.592303   24.008011   -6.038874  -50.528816
  0.050661323    0.000000    0.000000    0.000000    0.000000  -99.161675   36.608330   -6.056468  -52.174023
  0.050861723    0.000000    0.000000    0.000000    0.000000  -98.790473   29.094437   -6.072297  -53.789494
  0.051062124    0.000000    0.000000    0.000000    0.000000 -100.185314   42.781181   -6.091133  -55.418194
  0.051262525    0.000000    0.000000    0.000000    0.000000  -98.302151   38.096672   -6.105835  -57.021156
  0.051462926    0.000000    0.000000    0.000000    0.000000  -98.223252   30.388624   -6.121700  -58.597176
  0.051663327    0.000000    0.000000    0.000000    0.000000 -100.130204   23.444309   -6.134082  -60.194191
  0.051863727    0.000000    0.000000    0.000000    0.000000  -99.008722   33.435783   -6.145397  -61.781116
  0.052064128    0.000000    0.000000    0.000000    0.000000  -98.922327   41.693134   -6.157159  -63.364872
  0.052264529    0.000000    0.000000    0.000000    0.000000  -99.238433   26.223736   -6.163755  -64.927742
  0.052464930    0.000000    0.000000    0.000000    0.000000  -98.307284   36.765354   -6.173119  -66.488075
  0.052665331    0.000000    0.000000    0.000000    0.000000  -97.824763   31.813280   -6.182013  -68.025772
  0.052865731    0.000000    0.000000    0.000000    0.000000  -98.909876   33.461609   -6.192047  -69.553307
