! Anritsu VNA Master:                     Model: MS2036C/10/77
! SN:                                  1601066
! /bd0/18may08.cable.cal/bot.20.2.s2p
! Existing Calibration Information:
! TYPE:                         Current Settings,       Active Cal Settings
! TIME:             	   05/08/2018 06:07:41 PM,    05/08/2018 05:57:55 PM
! INTERNAL TEMP:    	                   49.3 C,                    49.3 C
! # POINTS:         	                      500,                       500
! START FREQ:       	               20.000 MHz,                20.000 MHz
! STOP FREQ:        	              120.000 MHz,               120.000 MHz
! SOURCE POWER:     	                     High,                      High
! IFBW:             	                    50 Hz,                     50 Hz
! AVG FACTOR:       	                       1 ,                        1 
! REF PLANE 1:      	                     0 mm,                      0 mm
! REF PLANE 2:      	                     0 mm,                      0 mm
! CAL TYPE:         	                 Full S11,                  Full S11
! CAL METHOD:       	                     SOLT,                      SOLT
! CAL LINE TYPE:    	                     Coax,                      Coax
! DUT PORT 1:       	                K-Conn(F),                 K-Conn(F)
! DUT PORT 2:       	                K-Conn(F),                 K-Conn(F)
! CAL STATUS:       	        OK: Accuracy High,                        --
# GHZ S DB R 50.0
! FREQ.GHZ       S11DB        S11A       S21DB        S21A       S12DB        S12A       S22DB        S22A
  0.020000000   -7.246775  155.730072  -90.722731   40.446026    0.000000    0.000000    0.000000    0.000000
  0.020200401   -7.249043  155.505081  -91.319730   38.313053    0.000000    0.000000    0.000000    0.000000
  0.020400802   -7.247632  155.255692  -91.058488   40.846775    0.000000    0.000000    0.000000    0.000000
  0.020601202   -7.245567  155.016632  -91.135118   36.370869    0.000000    0.000000    0.000000    0.000000
  0.020801603   -7.246173  154.781616  -90.978123   36.744415    0.000000    0.000000    0.000000    0.000000
  0.021002004   -7.248189  154.565079  -91.251291   32.622330    0.000000    0.000000    0.000000    0.000000
  0.021202405   -7.248410  154.290176  -91.161330   38.500320    0.000000    0.000000    0.000000    0.000000
  0.021402806   -7.248385  154.071640  -91.630618   33.630287    0.000000    0.000000    0.000000    0.000000
  0.021603206   -7.249485  153.846542  -91.535239   35.135246    0.000000    0.000000    0.000000    0.000000
  0.021803607   -7.247357  153.595718  -91.465111   35.905956    0.000000    0.000000    0.000000    0.000000
  0.022004008   -7.250649  153.358429  -91.802769   35.167347    0.000000    0.000000    0.000000    0.000000
  0.022204409   -7.249582  153.125717  -92.069170   32.950390    0.000000    0.000000    0.000000    0.000000
  0.022404810   -7.249968  152.883224  -92.102950   36.578926    0.000000    0.000000    0.000000    0.000000
  0.022605210   -7.250989  152.641891  -92.582307   28.396523    0.000000    0.000000    0.000000    0.000000
  0.022805611   -7.252017  152.397400  -92.282493   32.616100    0.000000    0.000000    0.000000    0.000000
  0.023006012   -7.252331  152.154953  -92.300852   29.258205    0.000000    0.000000    0.000000    0.000000
  0.023206413   -7.251473  151.940903  -92.879265   26.442919    0.000000    0.000000    0.000000    0.000000
  0.023406814   -7.253458  151.693283  -92.976687   28.568089    0.000000    0.000000    0.000000    0.000000
  0.023607214   -7.251714  151.465881  -92.536971   27.362005    0.000000    0.000000    0.000000    0.000000
  0.023807615   -7.252491  151.210419  -93.487555   26.850109    0.000000    0.000000    0.000000    0.000000
  0.024008016   -7.252299  150.971558  -93.124835   27.286362    0.000000    0.000000    0.000000    0.000000
  0.024208417   -7.255551  150.741531  -93.717137   28.131634    0.000000    0.000000    0.000000    0.000000
  0.024408818   -7.254190  150.510452  -93.344729   23.185854    0.000000    0.000000    0.000000    0.000000
  0.024609218   -7.254763  150.284973  -93.183674   26.331762    0.000000    0.000000    0.000000    0.000000
  0.024809619   -7.255703  150.042511  -93.765665   27.607359    0.000000    0.000000    0.000000    0.000000
  0.025010020   -7.255497  149.790329  -94.512171   27.864389    0.000000    0.000000    0.000000    0.000000
  0.025210421   -7.256677  149.568924  -94.090116   21.331245    0.000000    0.000000    0.000000    0.000000
  0.025410822   -7.256524  149.324188  -93.674641   26.128979    0.000000    0.000000    0.000000    0.000000
  0.025611222   -7.257124  149.071274  -93.589185   19.494326    0.000000    0.000000    0.000000    0.000000
  0.025811623   -7.259247  148.850327  -94.166350   21.219664    0.000000    0.000000    0.000000    0.000000
  0.026012024   -7.256485  148.621475  -94.245487   19.792072    0.000000    0.000000    0.000000    0.000000
  0.026212425   -7.255684  148.368896  -94.840717   19.015961    0.000000    0.000000    0.000000    0.000000
  0.026412826   -7.256610  148.139236  -95.140283   20.546633    0.000000    0.000000    0.000000    0.000000
  0.026613226   -7.254389  147.903259  -94.535914   19.568432    0.000000    0.000000    0.000000    0.000000
  0.026813627   -7.256005  147.654831  -94.889430   18.626812    0.000000    0.000000    0.000000    0.000000
  0.027014028   -7.256591  147.421417  -95.271491   20.963638    0.000000    0.000000    0.000000    0.000000
  0.027214429   -7.257336  147.187164  -95.520466   19.517006    0.000000    0.000000    0.000000    0.000000
  0.027414830   -7.256450  146.943665  -95.117984   19.541471    0.000000    0.000000    0.000000    0.000000
  0.027615230   -7.256043  146.714508  -95.942279   16.474562    0.000000    0.000000    0.000000    0.000000
  0.027815631   -7.256935  146.485611  -95.637245   19.604822    0.000000    0.000000    0.000000    0.000000
  0.028016032   -7.256188  146.245163  -95.361655   20.907173    0.000000    0.000000    0.000000    0.000000
  0.028216433   -7.256380  146.011200  -95.871450   17.491282    0.000000    0.000000    0.000000    0.000000
  0.028416834   -7.257090  145.766281  -96.622553   14.913342    0.000000    0.000000    0.000000    0.000000
  0.028617234   -7.256682  145.543594  -97.368745   16.901279    0.000000    0.000000    0.000000    0.000000
  0.028817635   -7.255965  145.295593  -95.880544   15.716119    0.000000    0.000000    0.000000    0.000000
  0.029018036   -7.255951  145.083252  -95.868559   18.962288    0.000000    0.000000    0.000000    0.000000
  0.029218437   -7.255094  144.845551  -96.181473   16.792130    0.000000    0.000000    0.000000    0.000000
  0.029418838   -7.255367  144.616791  -96.260137   17.307087    0.000000    0.000000    0.000000    0.000000
  0.029619238   -7.251690  144.369980  -96.113938   18.426540    0.000000    0.000000    0.000000    0.000000
  0.029819639   -7.252653  144.131760  -97.034396   18.378801    0.000000    0.000000    0.000000    0.000000
  0.030020040   -7.250973  143.898956  -96.068150   12.480119    0.000000    0.000000    0.000000    0.000000
  0.030220441   -7.251678  143.671997  -96.133533   14.691096    0.000000    0.000000    0.000000    0.000000
  0.030420842   -7.250193  143.432053  -97.858776    9.149932    0.000000    0.000000    0.000000    0.000000
  0.030621242   -7.248805  143.183380  -96.261753   14.799084    0.000000    0.000000    0.000000    0.000000
  0.030821643   -7.248541  142.967728  -96.943688    9.747529    0.000000    0.000000    0.000000    0.000000
  0.031022044   -7.247604  142.715057  -97.669063   18.902195    0.000000    0.000000    0.000000    0.000000
  0.031222445   -7.228854  142.559357  -96.505468   15.196113    0.000000    0.000000    0.000000    0.000000
  0.031422846   -7.229933  142.304642  -96.774412    9.228530    0.000000    0.000000    0.000000    0.000000
  0.031623246   -7.231243  142.088226  -97.446344   17.591030    0.000000    0.000000    0.000000    0.000000
  0.031823647   -7.231593  141.847412  -97.555063   10.988374    0.000000    0.000000    0.000000    0.000000
  0.032024048   -7.230869  141.608063  -97.397415    9.230929    0.000000    0.000000    0.000000    0.000000
  0.032224449   -7.232622  141.364487  -98.352723   10.301552    0.000000    0.000000    0.000000    0.000000
  0.032424850   -7.230226  141.130554  -97.129268    7.069855    0.000000    0.000000    0.000000    0.000000
  0.032625251   -7.231713  140.887894  -99.180723   12.965011    0.000000    0.000000    0.000000    0.000000
  0.032825651   -7.229152  140.645416  -98.014687   11.656251    0.000000    0.000000    0.000000    0.000000
  0.033026052   -7.231382  140.406357  -96.701934   13.635413    0.000000    0.000000    0.000000    0.000000
  0.033226453   -7.229886  140.161118  -97.793041    9.851774    0.000000    0.000000    0.000000    0.000000
  0.033426854   -7.229048  139.919525  -98.693598   12.053435    0.000000    0.000000    0.000000    0.000000
  0.033627255   -7.230763  139.672150 -100.000695    8.473490    0.000000    0.000000    0.000000    0.000000
  0.033827655   -7.228240  139.432968  -98.144202    7.010663    0.000000    0.000000    0.000000    0.000000
  0.034028056   -7.231360  139.216446  -97.711080   11.258433    0.000000    0.000000    0.000000    0.000000
  0.034228457   -7.230323  138.953934  -98.503327    9.225388    0.000000    0.000000    0.000000    0.000000
  0.034428858   -7.229528  138.713226  -98.187807   12.470707    0.000000    0.000000    0.000000    0.000000
  0.034629259   -7.229573  138.489105  -98.835763   14.337981    0.000000    0.000000    0.000000    0.000000
  0.034829659   -7.230549  138.249710  -98.683146   20.439409    0.000000    0.000000    0.000000    0.000000
  0.035030060   -7.230561  137.997040  -98.290937   16.818562    0.000000    0.000000    0.000000    0.000000
  0.035230461   -7.227396  137.759521  -96.696219   16.809505    0.000000    0.000000    0.000000    0.000000
  0.035430862   -7.229819  137.517883  -98.960229    1.423142    0.000000    0.000000    0.000000    0.000000
  0.035631263   -7.229473  137.283264 -100.594776   -0.820495    0.000000    0.000000    0.000000    0.000000
  0.035831663   -7.229857  137.045990  -98.819720    9.226202    0.000000    0.000000    0.000000    0.000000
  0.036032064   -7.231132  136.804260 -100.067384   13.169446    0.000000    0.000000    0.000000    0.000000
  0.036232465   -7.231303  136.563110  -99.524843    3.560197    0.000000    0.000000    0.000000    0.000000
  0.036432866   -7.229830  136.331726  -98.636731    6.947170    0.000000    0.000000    0.000000    0.000000
  0.036633267   -7.226928  136.096893  -99.394129   11.547663    0.000000    0.000000    0.000000    0.000000
  0.036833667   -7.228840  135.860001  -99.555410   -0.820794    0.000000    0.000000    0.000000    0.000000
  0.037034068   -7.229898  135.622604  -99.660576    8.939556    0.000000    0.000000    0.000000    0.000000
  0.037234469   -7.229619  135.387894  -99.257714    8.927999    0.000000    0.000000    0.000000    0.000000
  0.037434870   -7.229347  135.158875  -98.357356    8.186459    0.000000    0.000000    0.000000    0.000000
  0.037635271   -7.230193  134.928848 -100.375843    3.208707    0.000000    0.000000    0.000000    0.000000
  0.037835671   -7.229108  134.685043 -101.238351   -1.462250    0.000000    0.000000    0.000000    0.000000
  0.038036072   -7.229167  134.452332 -102.499126   14.104579    0.000000    0.000000    0.000000    0.000000
  0.038236473   -7.228272  134.203186  -98.647609   13.042944    0.000000    0.000000    0.000000    0.000000
  0.038436874   -7.224956  133.991150  -99.993717    3.927907    0.000000    0.000000    0.000000    0.000000
  0.038637275   -7.226807  133.737747 -101.386700   -8.323073    0.000000    0.000000    0.000000    0.000000
  0.038837675   -7.227205  133.520691 -100.768645   -2.793925    0.000000    0.000000    0.000000    0.000000
  0.039038076   -7.226713  133.284210  -99.918759   22.276508    0.000000    0.000000    0.000000    0.000000
  0.039238477   -7.226678  133.049866 -101.046229   16.566992    0.000000    0.000000    0.000000    0.000000
  0.039438878   -7.226641  132.803848  -99.918257    5.156536    0.000000    0.000000    0.000000    0.000000
  0.039639279   -7.226618  132.564941  -98.978157    0.145839    0.000000    0.000000    0.000000    0.000000
  0.039839679   -7.225218  132.330643 -102.236873    5.352012    0.000000    0.000000    0.000000    0.000000
  0.040040080   -7.222724  132.108826 -100.873610   13.610338    0.000000    0.000000    0.000000    0.000000
  0.040240481   -7.224839  131.877716 -102.527430    8.158621    0.000000    0.000000    0.000000    0.000000
  0.040440882   -7.221577  131.640961 -101.867032    4.777786    0.000000    0.000000    0.000000    0.000000
  0.040641283   -7.224704  131.405060 -101.151628    0.064008    0.000000    0.000000    0.000000    0.000000
  0.040841683   -7.223208  131.190536 -102.866913    6.483472    0.000000    0.000000    0.000000    0.000000
  0.041042084   -7.222087  130.952438 -101.311751   12.692327    0.000000    0.000000    0.000000    0.000000
  0.041242485   -7.222275  130.712112 -100.728307   16.348070    0.000000    0.000000    0.000000    0.000000
  0.041442886   -7.221803  130.476715 -101.486252    3.477773    0.000000    0.000000    0.000000    0.000000
  0.041643287   -7.220172  130.227234 -102.374667    7.568640    0.000000    0.000000    0.000000    0.000000
  0.041843687   -7.220254  130.016922 -101.170645   -4.609853    0.000000    0.000000    0.000000    0.000000
  0.042044088   -7.219483  129.793335 -100.369784   -1.096609    0.000000    0.000000    0.000000    0.000000
  0.042244489   -7.219505  129.556396 -100.974310    4.463310    0.000000    0.000000    0.000000    0.000000
  0.042444890   -7.220000  129.319229 -104.174255    4.727949    0.000000    0.000000    0.000000    0.000000
  0.042645291   -7.218822  129.087952 -100.880126    8.530263    0.000000    0.000000    0.000000    0.000000
  0.042845691   -7.220896  128.849106 -102.412079    3.152534    0.000000    0.000000    0.000000    0.000000
  0.043046092   -7.216817  128.620270 -101.709294   -0.491634    0.000000    0.000000    0.000000    0.000000
  0.043246493   -7.216839  128.386444 -101.392251   11.578866    0.000000    0.000000    0.000000    0.000000
  0.043446894   -7.217053  128.157913 -101.476201    8.733575    0.000000    0.000000    0.000000    0.000000
  0.043647295   -7.217010  127.914734 -102.076468    1.828528    0.000000    0.000000    0.000000    0.000000
  0.043847695   -7.214556  127.703293 -101.440968    7.177917    0.000000    0.000000    0.000000    0.000000
  0.044048096   -7.215405  127.457558 -102.260946   -0.699708    0.000000    0.000000    0.000000    0.000000
  0.044248497   -7.213080  127.221466 -101.346525   10.244300    0.000000    0.000000    0.000000    0.000000
  0.044448898   -7.211951  126.994469 -101.022999   -6.214323    0.000000    0.000000    0.000000    0.000000
  0.044649299   -7.212237  126.742874 -101.998460   -4.105878    0.000000    0.000000    0.000000    0.000000
  0.044849699   -7.214156  126.514107 -102.741890   -0.575823    0.000000    0.000000    0.000000    0.000000
  0.045050100   -7.211241  126.270340 -102.201125    1.512802    0.000000    0.000000    0.000000    0.000000
  0.045250501   -7.210162  126.049789 -102.489814    0.035829    0.000000    0.000000    0.000000    0.000000
  0.045450902   -7.209234  125.809883 -104.155769    7.911548    0.000000    0.000000    0.000000    0.000000
  0.045651303   -7.211614  125.566811 -106.400564    3.810471    0.000000    0.000000    0.000000    0.000000
  0.045851703   -7.209257  125.352608 -101.377222    6.051826    0.000000    0.000000    0.000000    0.000000
  0.046052104   -7.209402  125.105240 -102.517231   21.608778    0.000000    0.000000    0.000000    0.000000
  0.046252505   -7.208102  124.858055 -100.997047    8.251205    0.000000    0.000000    0.000000    0.000000
  0.046452906   -7.209250  124.633224 -102.199455   19.825432    0.000000    0.000000    0.000000    0.000000
  0.046653307   -7.208184  124.386024 -101.138426   11.840195    0.000000    0.000000    0.000000    0.000000
  0.046853707   -7.206128  124.156776 -103.037821   18.497641    0.000000    0.000000    0.000000    0.000000
  0.047054108   -7.205014  123.922935 -101.513742   -0.093813    0.000000    0.000000    0.000000    0.000000
  0.047254509   -7.204843  123.678635 -102.103827    5.875114    0.000000    0.000000    0.000000    0.000000
  0.047454910   -7.202988  123.449097 -101.246535    5.688304    0.000000    0.000000    0.000000    0.000000
  0.047655311   -7.201544  123.200233 -103.280661    7.381258    0.000000    0.000000    0.000000    0.000000
  0.047855711   -7.201628  122.958839 -100.546796   19.907108    0.000000    0.000000    0.000000    0.000000
  0.048056112   -7.200093  122.744637 -101.742849   17.303005    0.000000    0.000000    0.000000    0.000000
  0.048256513   -7.201080  122.505356 -102.649874   15.282125    0.000000    0.000000    0.000000    0.000000
  0.048456914   -7.200475  122.264359 -103.465740    8.792029    0.000000    0.000000    0.000000    0.000000
  0.048657315   -7.197778  122.039871 -107.049277   15.639311    0.000000    0.000000    0.000000    0.000000
  0.048857715   -7.195892  121.785591 -100.852225   19.293858    0.000000    0.000000    0.000000    0.000000
  0.049058116   -7.196628  121.564583 -103.843834   21.554468    0.000000    0.000000    0.000000    0.000000
  0.049258517   -7.194701  121.344269 -103.612298    6.655911    0.000000    0.000000    0.000000    0.000000
  0.049458918   -7.193367  121.090775 -103.648741   14.284750    0.000000    0.000000    0.000000    0.000000
  0.049659319   -7.192914  120.860291 -102.088516   22.057335    0.000000    0.000000    0.000000    0.000000
  0.049859719   -7.193300  120.627411 -104.948997   30.265917    0.000000    0.000000    0.000000    0.000000
  0.050060120   -7.192550  120.394020 -104.094382    7.069849    0.000000    0.000000    0.000000    0.000000
  0.050260521   -7.191416  120.168091 -103.584623   12.570714    0.000000    0.000000    0.000000    0.000000
  0.050460922   -7.188006  119.939705 -102.870307   12.254571    0.000000    0.000000    0.000000    0.000000
  0.050661323   -7.189176  119.715652 -102.975296   17.359354    0.000000    0.000000    0.000000    0.000000
  0.050861723   -7.187256  119.470146 -102.673353   20.370398    0.000000    0.000000    0.000000    0.000000
  0.051062124   -7.187452  119.252655 -104.003616   -0.882119    0.000000    0.000000    0.000000    0.000000
  0.051262525   -7.186194  119.000183 -103.593031   -6.745182    0.000000    0.000000    0.000000    0.000000
  0.051462926   -7.186072  118.766418 -102.318650    5.548526    0.000000    0.000000    0.000000    0.000000
  0.051663327   -7.184841  118.543823 -101.068095   10.939764    0.000000    0.000000    0.000000    0.000000
  0.051863727   -7.183024  118.298683 -101.457418   -5.290648    0.000000    0.000000    0.000000    0.000000
  0.052064128   -7.183873  118.078293 -104.277678   11.327658    0.000000    0.000000    0.000000    0.000000
  0.052264529   -7.180070  117.845642 -102.557311    3.289650    0.000000    0.000000    0.000000    0.000000
  0.052464930   -7.177807  117.614563 -101.462237   -0.037372    0.000000    0.000000    0.000000    0.000000
  0.052665331   -7.180921  117.398193 -103.650145    3.149456    0.000000    0.000000    0.000000    0.000000
  0.052865731   -7.179218  117.139587 -105.819164    5.091382    0.000000    0.000000    0.000000    0.000000
