! Anritsu VNA Master:                     Model: MS2036C/10/77
! SN:                                  1601066
! /bd0/18may08.cable.cal/bot..49p99.1.s2p
! Existing Calibration Information:
! TYPE:                         Current Settings,       Active Cal Settings
! TIME:             	   05/08/2018 03:35:41 PM,    05/08/2018 03:25:16 PM
! INTERNAL TEMP:    	                   52.0 C,                    53.3 C
! # POINTS:         	                      500,                       500
! START FREQ:       	               20.000 MHz,                20.000 MHz
! STOP FREQ:        	              120.000 MHz,               120.000 MHz
! SOURCE POWER:     	                     High,                      High
! IFBW:             	                    50 Hz,                     50 Hz
! AVG FACTOR:       	                       1 ,                        1 
! REF PLANE 1:      	                     0 mm,                      0 mm
! REF PLANE 2:      	                     0 mm,                      0 mm
! CAL TYPE:         	                 Full S11,                  Full S11
! CAL METHOD:       	                     SOLT,                      SOLT
! CAL LINE TYPE:    	                     Coax,                      Coax
! DUT PORT 1:       	                K-Conn(F),                 K-Conn(F)
! DUT PORT 2:       	                K-Conn(F),                 K-Conn(F)
! CAL STATUS:       	        OK: Accuracy High,                        --
# GHZ S DB R 50.0
! FREQ.GHZ       S11DB        S11A       S21DB        S21A       S12DB        S12A       S22DB        S22A
  0.020000000  -39.578619   55.267200  -91.513435   37.644402    0.000000    0.000000    0.000000    0.000000
  0.020200401  -39.634692   54.946945  -91.079799   35.091862    0.000000    0.000000    0.000000    0.000000
  0.020400802  -39.469095   54.964626  -91.360927   37.639565    0.000000    0.000000    0.000000    0.000000
  0.020601202  -39.476845   54.702293  -91.634366   28.375408    0.000000    0.000000    0.000000    0.000000
  0.020801603  -39.465026   54.763569  -91.841867   32.283241    0.000000    0.000000    0.000000    0.000000
  0.021002004  -39.314696   54.539238  -91.999439   35.543880    0.000000    0.000000    0.000000    0.000000
  0.021202405  -39.214038   54.241390  -92.702914   34.224163    0.000000    0.000000    0.000000    0.000000
  0.021402806  -39.250645   54.493374  -91.927154   35.421558    0.000000    0.000000    0.000000    0.000000
  0.021603206  -39.121943   54.627628  -92.310883   33.214165    0.000000    0.000000    0.000000    0.000000
  0.021803607  -39.081290   53.926983  -92.317293   34.206741    0.000000    0.000000    0.000000    0.000000
  0.022004008  -39.054279   53.811668  -92.698352   35.138474    0.000000    0.000000    0.000000    0.000000
  0.022204409  -38.945448   54.064453  -92.666537   32.564812    0.000000    0.000000    0.000000    0.000000
  0.022404810  -38.969808   53.735329  -92.499072   27.086359    0.000000    0.000000    0.000000    0.000000
  0.022605210  -38.847282   53.800797  -92.458032   27.699915    0.000000    0.000000    0.000000    0.000000
  0.022805611  -38.753906   53.603848  -93.407048   28.939484    0.000000    0.000000    0.000000    0.000000
  0.023006012  -38.740704   54.106747  -92.747278   29.225166    0.000000    0.000000    0.000000    0.000000
  0.023206413  -38.601907   53.646122  -93.172903   28.783756    0.000000    0.000000    0.000000    0.000000
  0.023406814  -38.534322   53.596706  -93.126335   29.144650    0.000000    0.000000    0.000000    0.000000
  0.023607214  -38.504739   53.047359  -93.410086   31.149927    0.000000    0.000000    0.000000    0.000000
  0.023807615  -38.473232   52.977982  -93.580534   23.992546    0.000000    0.000000    0.000000    0.000000
  0.024008016  -38.414124   53.243958  -94.090010   24.061382    0.000000    0.000000    0.000000    0.000000
  0.024208417  -38.319317   53.108120  -94.458739   26.890116    0.000000    0.000000    0.000000    0.000000
  0.024408818  -38.372108   53.136982  -93.658857   20.832457    0.000000    0.000000    0.000000    0.000000
  0.024609218  -38.266658   53.537380  -94.271663   28.503548    0.000000    0.000000    0.000000    0.000000
  0.024809619  -38.107913   52.582298  -93.882174   21.080351    0.000000    0.000000    0.000000    0.000000
  0.025010020  -38.129650   52.629253  -93.431115   27.651897    0.000000    0.000000    0.000000    0.000000
  0.025210421  -38.081002   52.946983  -94.459258   21.181381    0.000000    0.000000    0.000000    0.000000
  0.025410822  -37.984948   52.979137  -94.246745   25.517506    0.000000    0.000000    0.000000    0.000000
  0.025611222  -37.957098   52.254593  -94.814511   24.349216    0.000000    0.000000    0.000000    0.000000
  0.025811623  -37.906803   52.865654  -95.088134   21.661852    0.000000    0.000000    0.000000    0.000000
  0.026012024  -37.818895   52.452709  -94.897011   17.147589    0.000000    0.000000    0.000000    0.000000
  0.026212425  -37.791442   52.375042  -95.072486   20.280140    0.000000    0.000000    0.000000    0.000000
  0.026412826  -37.759720   52.657520  -94.834775   18.776993    0.000000    0.000000    0.000000    0.000000
  0.026613226  -37.688037   52.374210  -94.974504   29.979582    0.000000    0.000000    0.000000    0.000000
  0.026813627  -37.683344   52.436169  -95.660742   20.121006    0.000000    0.000000    0.000000    0.000000
  0.027014028  -37.621642   52.459171  -94.669023   18.552164    0.000000    0.000000    0.000000    0.000000
  0.027214429  -37.548879   52.271557  -95.555061   15.319556    0.000000    0.000000    0.000000    0.000000
  0.027414830  -37.489558   51.800163  -95.779317   12.831402    0.000000    0.000000    0.000000    0.000000
  0.027615230  -37.435850   52.195164  -96.105960   16.348761    0.000000    0.000000    0.000000    0.000000
  0.027815631  -37.393643   51.890827  -95.616929   21.108908    0.000000    0.000000    0.000000    0.000000
  0.028016032  -37.360390   51.501045  -96.422968   15.469023    0.000000    0.000000    0.000000    0.000000
  0.028216433  -37.327403   51.839577  -96.119449   19.717480    0.000000    0.000000    0.000000    0.000000
  0.028416834  -37.280216   51.522270  -96.166072   14.911051    0.000000    0.000000    0.000000    0.000000
  0.028617234  -37.172178   51.515560  -95.791357   16.916372    0.000000    0.000000    0.000000    0.000000
  0.028817635  -37.145400   51.304150  -96.260691   17.134241    0.000000    0.000000    0.000000    0.000000
  0.029018036  -37.099918   51.386139  -96.499086   21.940805    0.000000    0.000000    0.000000    0.000000
  0.029218437  -37.059453   51.202293  -96.723032   20.753597    0.000000    0.000000    0.000000    0.000000
  0.029418838  -36.983728   51.156197  -96.636953   18.824440    0.000000    0.000000    0.000000    0.000000
  0.029619238  -36.976152   51.141888  -96.360128   11.988753    0.000000    0.000000    0.000000    0.000000
  0.029819639  -36.925301   50.982792  -97.278802   12.688688    0.000000    0.000000    0.000000    0.000000
  0.030020040  -36.922544   50.367981  -96.201959   19.086716    0.000000    0.000000    0.000000    0.000000
  0.030220441  -36.854597   50.586109  -96.799531   14.008154    0.000000    0.000000    0.000000    0.000000
  0.030420842  -36.769478   50.396221  -97.878786   17.089579    0.000000    0.000000    0.000000    0.000000
  0.030621242  -36.746317   50.363228  -97.246654   21.029840    0.000000    0.000000    0.000000    0.000000
  0.030821643  -36.723844   50.552605  -98.140845   17.737852    0.000000    0.000000    0.000000    0.000000
  0.031022044  -36.687008   50.056679  -97.860631   21.826651    0.000000    0.000000    0.000000    0.000000
  0.031222445  -36.604313   50.073601  -97.672445   17.620764    0.000000    0.000000    0.000000    0.000000
  0.031422846  -36.533700   50.040409  -97.399320    9.847962    0.000000    0.000000    0.000000    0.000000
  0.031623246  -36.486649   49.919399  -97.757638    7.871603    0.000000    0.000000    0.000000    0.000000
  0.031823647  -36.454089   49.297123  -97.016393    7.394157    0.000000    0.000000    0.000000    0.000000
  0.032024048  -36.418276   49.673092  -97.391656   11.971990    0.000000    0.000000    0.000000    0.000000
  0.032224449  -36.363089   49.671970  -97.555432   18.304827    0.000000    0.000000    0.000000    0.000000
  0.032424850  -36.405832   49.653732  -96.855949    1.384381    0.000000    0.000000    0.000000    0.000000
  0.032625251  -36.289728   49.670322  -97.293442   12.305314    0.000000    0.000000    0.000000    0.000000
  0.032825651  -36.268452   49.435490  -99.442971   11.499049    0.000000    0.000000    0.000000    0.000000
  0.033026052  -36.214662   49.207428  -99.081189    7.974654    0.000000    0.000000    0.000000    0.000000
  0.033226453  -36.187187   49.319576  -98.276947   16.594383    0.000000    0.000000    0.000000    0.000000
  0.033426854  -36.151137   48.897442  -98.019906   11.719440    0.000000    0.000000    0.000000    0.000000
  0.033627255  -36.077806   48.995701  -98.595886   12.197128    0.000000    0.000000    0.000000    0.000000
  0.033827655  -36.083690   48.484982  -98.801878   16.458529    0.000000    0.000000    0.000000    0.000000
  0.034028056  -36.054650   48.975502  -99.029476   11.144732    0.000000    0.000000    0.000000    0.000000
  0.034228457  -35.969306   48.732841  -98.719428   13.700674    0.000000    0.000000    0.000000    0.000000
  0.034428858  -35.979617   48.446491  -97.824561   12.813775    0.000000    0.000000    0.000000    0.000000
  0.034629259  -35.922782   48.579842  -99.316146    4.697285    0.000000    0.000000    0.000000    0.000000
  0.034829659  -35.858495   48.562233  -99.232824    9.573318    0.000000    0.000000    0.000000    0.000000
  0.035030060  -35.868877   48.182846  -97.555392    4.499836    0.000000    0.000000    0.000000    0.000000
  0.035230461  -35.787710   48.483299  -99.200451    8.937146    0.000000    0.000000    0.000000    0.000000
  0.035430862  -35.798455   47.898003  -98.858998   14.240377    0.000000    0.000000    0.000000    0.000000
  0.035631263  -35.719505   47.823433  -99.051432    6.415207    0.000000    0.000000    0.000000    0.000000
  0.035831663  -35.729165   47.878181  -99.320544   11.536459    0.000000    0.000000    0.000000    0.000000
  0.036032064  -35.689109   47.880486  -98.225072   11.166306    0.000000    0.000000    0.000000    0.000000
  0.036232465  -35.656589   47.674141 -100.132825   15.197031    0.000000    0.000000    0.000000    0.000000
  0.036432866  -35.605532   47.643536  -99.003907   13.020307    0.000000    0.000000    0.000000    0.000000
  0.036633267  -35.596401   47.331047  -99.393796    0.720888    0.000000    0.000000    0.000000    0.000000
  0.036833667  -35.538494   47.499451  -98.961579    4.134254    0.000000    0.000000    0.000000    0.000000
  0.037034068  -35.495774   47.588104  -99.057139   13.018925    0.000000    0.000000    0.000000    0.000000
  0.037234469  -35.488117   47.146107  -98.596279    3.393458    0.000000    0.000000    0.000000    0.000000
  0.037434870  -35.434859   47.042622  -99.335724    4.692282    0.000000    0.000000    0.000000    0.000000
  0.037635271  -35.372999   47.338711 -100.526867   15.900925    0.000000    0.000000    0.000000    0.000000
  0.037835671  -35.367697   47.046623  -99.107519    4.648288    0.000000    0.000000    0.000000    0.000000
  0.038036072  -35.326216   46.882782  -98.876284   -2.558064    0.000000    0.000000    0.000000    0.000000
  0.038236473  -35.240808   47.099667 -100.144301    6.759277    0.000000    0.000000    0.000000    0.000000
  0.038436874  -35.270667   47.074677  -99.292149    8.227845    0.000000    0.000000    0.000000    0.000000
  0.038637275  -35.256776   46.765656  -98.993774   -3.274407    0.000000    0.000000    0.000000    0.000000
  0.038837675  -35.203252   46.692276 -100.141273    9.589119    0.000000    0.000000    0.000000    0.000000
  0.039038076  -35.130900   46.644913 -100.883463    7.673164    0.000000    0.000000    0.000000    0.000000
  0.039238477  -35.158201   46.707890 -100.238982    8.488089    0.000000    0.000000    0.000000    0.000000
  0.039438878  -35.113061   46.701115 -101.321864    4.691279    0.000000    0.000000    0.000000    0.000000
  0.039639279  -35.040699   46.234085 -100.380828    2.555575    0.000000    0.000000    0.000000    0.000000
  0.039839679  -35.042940   45.833889 -100.210634    8.121735    0.000000    0.000000    0.000000    0.000000
  0.040040080  -35.064545   46.010433  -99.843911    0.134350    0.000000    0.000000    0.000000    0.000000
  0.040240481  -34.970691   46.078602 -101.055547   12.809780    0.000000    0.000000    0.000000    0.000000
  0.040440882  -34.946741   45.812481 -100.696956    7.255045    0.000000    0.000000    0.000000    0.000000
  0.040641283  -34.918107   46.029655 -100.697363    5.197549    0.000000    0.000000    0.000000    0.000000
  0.040841683  -34.835188   45.786011 -100.934396    4.508698    0.000000    0.000000    0.000000    0.000000
  0.041042084  -34.850243   45.487957 -102.103576    3.438888    0.000000    0.000000    0.000000    0.000000
  0.041242485  -34.777827   45.461033  -99.409095   -2.755804    0.000000    0.000000    0.000000    0.000000
  0.041442886  -34.765580   45.488548 -100.215248    4.435139    0.000000    0.000000    0.000000    0.000000
  0.041643287  -34.770372   45.270477 -100.923883   12.990878    0.000000    0.000000    0.000000    0.000000
  0.041843687  -34.701309   45.078140 -100.975712    5.476531    0.000000    0.000000    0.000000    0.000000
  0.042044088  -34.687408   45.232521 -100.916521    7.124590    0.000000    0.000000    0.000000    0.000000
  0.042244489  -34.650076   45.029980 -100.330192    9.003178    0.000000    0.000000    0.000000    0.000000
  0.042444890  -34.675646   44.630398 -100.836844    3.869646    0.000000    0.000000    0.000000    0.000000
  0.042645291  -34.577036   45.006943 -100.492338    7.284742    0.000000    0.000000    0.000000    0.000000
  0.042845691  -34.594091   45.049137 -100.945232   -4.298997    0.000000    0.000000    0.000000    0.000000
  0.043046092  -34.548667   44.857895 -100.979216   14.318234    0.000000    0.000000    0.000000    0.000000
  0.043246493  -34.514592   44.966175 -100.486419    8.322395    0.000000    0.000000    0.000000    0.000000
  0.043446894  -34.457524   44.613880 -100.092465   11.603622    0.000000    0.000000    0.000000    0.000000
  0.043647295  -34.501912   44.540691 -101.637671    4.190722    0.000000    0.000000    0.000000    0.000000
  0.043847695  -34.432429   44.489925 -100.702504   14.050271    0.000000    0.000000    0.000000    0.000000
  0.044048096  -34.397562   44.311069 -101.699512    8.913215    0.000000    0.000000    0.000000    0.000000
  0.044248497  -34.417483   43.975597 -103.182283    1.336462    0.000000    0.000000    0.000000    0.000000
  0.044448898  -34.391096   44.525909 -103.961994    3.626809    0.000000    0.000000    0.000000    0.000000
  0.044649299  -34.321932   44.196079 -102.746346  -12.065584    0.000000    0.000000    0.000000    0.000000
  0.044849699  -34.297484   43.816483 -103.403723   13.651344    0.000000    0.000000    0.000000    0.000000
  0.045050100  -34.305078   43.740139 -100.916505    0.648143    0.000000    0.000000    0.000000    0.000000
  0.045250501  -34.305967   43.758102 -103.593741   15.336131    0.000000    0.000000    0.000000    0.000000
  0.045450902  -34.262724   43.551155 -103.828829    3.403101    0.000000    0.000000    0.000000    0.000000
  0.045651303  -34.131462   43.573299 -102.335075   -7.369422    0.000000    0.000000    0.000000    0.000000
  0.045851703  -34.175140   43.513672 -103.792592    1.291409    0.000000    0.000000    0.000000    0.000000
  0.046052104  -34.116677   43.451794 -102.488144    2.283857    0.000000    0.000000    0.000000    0.000000
  0.046252505  -34.180381   43.324051 -101.915612    7.837409    0.000000    0.000000    0.000000    0.000000
  0.046452906  -34.078673   43.071117 -101.388305    1.781261    0.000000    0.000000    0.000000    0.000000
  0.046653307  -34.108577   43.240559 -102.516208   -2.101135    0.000000    0.000000    0.000000    0.000000
  0.046853707  -34.048980   43.070961 -100.772141    9.538557    0.000000    0.000000    0.000000    0.000000
  0.047054108  -34.011992   43.078754 -101.612807   -2.402918    0.000000    0.000000    0.000000    0.000000
  0.047254509  -33.948811   42.945042 -100.090022    3.703113    0.000000    0.000000    0.000000    0.000000
  0.047454910  -33.968382   43.075626 -103.331693    3.030109    0.000000    0.000000    0.000000    0.000000
  0.047655311  -33.942965   42.715889 -102.635121    2.039784    0.000000    0.000000    0.000000    0.000000
  0.047855711  -33.915980   42.587929 -103.526542    7.394779    0.000000    0.000000    0.000000    0.000000
  0.048056112  -33.924853   42.649128 -102.501785    2.640641    0.000000    0.000000    0.000000    0.000000
  0.048256513  -33.876524   42.664986 -101.637155    7.311047    0.000000    0.000000    0.000000    0.000000
  0.048456914  -33.890908   42.309265 -103.346472    3.346948    0.000000    0.000000    0.000000    0.000000
  0.048657315  -33.852751   42.276897 -102.589628   -2.304044    0.000000    0.000000    0.000000    0.000000
  0.048857715  -33.807522   42.022808 -102.986126   -0.612147    0.000000    0.000000    0.000000    0.000000
  0.049058116  -33.790394   42.001087 -103.707197   -6.504379    0.000000    0.000000    0.000000    0.000000
  0.049258517  -33.759506   42.079975 -100.355316    3.397497    0.000000    0.000000    0.000000    0.000000
  0.049458918  -33.750409   41.761955 -101.720456    1.361097    0.000000    0.000000    0.000000    0.000000
  0.049659319  -33.763301   41.532291 -103.314006   -6.912096    0.000000    0.000000    0.000000    0.000000
  0.049859719  -33.706750   41.409279 -102.750140    8.868881    0.000000    0.000000    0.000000    0.000000
  0.050060120  -33.701211   41.466606 -103.639232    6.998156    0.000000    0.000000    0.000000    0.000000
  0.050260521  -33.674446   41.423801 -102.893576  -14.671607    0.000000    0.000000    0.000000    0.000000
  0.050460922  -33.658396   41.402634 -103.130951   -2.747526    0.000000    0.000000    0.000000    0.000000
  0.050661323  -33.602240   41.344803 -102.762738    1.076693    0.000000    0.000000    0.000000    0.000000
  0.050861723  -33.608942   40.919983 -103.797106   11.093036    0.000000    0.000000    0.000000    0.000000
  0.051062124  -33.629571   40.707756 -102.110186   -3.146454    0.000000    0.000000    0.000000    0.000000
  0.051262525  -33.573387   40.409348 -102.183243    3.245049    0.000000    0.000000    0.000000    0.000000
  0.051462926  -33.583264   40.408768 -102.545072   13.776744    0.000000    0.000000    0.000000    0.000000
  0.051663327  -33.568876   40.572990 -103.798033    2.833434    0.000000    0.000000    0.000000    0.000000
  0.051863727  -33.517139   40.379879 -102.820606    9.510923    0.000000    0.000000    0.000000    0.000000
  0.052064128  -33.488964   40.299606 -100.944926    1.561448    0.000000    0.000000    0.000000    0.000000
  0.052264529  -33.454167   40.259510 -104.609320   -5.539600    0.000000    0.000000    0.000000    0.000000
  0.052464930  -33.436678   40.185234 -104.039020   11.353725    0.000000    0.000000    0.000000    0.000000
  0.052665331  -33.384447   39.935829 -100.935295    4.244713    0.000000    0.000000    0.000000    0.000000
  0.052865731  -33.385784   39.799232 -102.132803   -6.350841    0.000000    0.000000    0.000000    0.000000
