! Anritsu VNA Master:                     Model: MS2036C/10/77
! SN:                                  1601066
! /bd0/18may08.cable.cal/bot.200.2.s2p
! Existing Calibration Information:
! TYPE:                         Current Settings,       Active Cal Settings
! TIME:             	   05/08/2018 06:10:38 PM,    05/08/2018 05:57:55 PM
! INTERNAL TEMP:    	                   49.3 C,                    49.3 C
! # POINTS:         	                      500,                       500
! START FREQ:       	               20.000 MHz,                20.000 MHz
! STOP FREQ:        	              120.000 MHz,               120.000 MHz
! SOURCE POWER:     	                     High,                      High
! IFBW:             	                    50 Hz,                     50 Hz
! AVG FACTOR:       	                       1 ,                        1 
! REF PLANE 1:      	                     0 mm,                      0 mm
! REF PLANE 2:      	                     0 mm,                      0 mm
! CAL TYPE:         	                 Full S11,                  Full S11
! CAL METHOD:       	                     SOLT,                      SOLT
! CAL LINE TYPE:    	                     Coax,                      Coax
! DUT PORT 1:       	                K-Conn(F),                 K-Conn(F)
! DUT PORT 2:       	                K-Conn(F),                 K-Conn(F)
! CAL STATUS:       	        OK: Accuracy High,                        --
# GHZ S DB R 50.0
! FREQ.GHZ       S11DB        S11A       S21DB        S21A       S12DB        S12A       S22DB        S22A
  0.020000000   -4.557415  -21.166571  -91.967006   33.738785    0.000000    0.000000    0.000000    0.000000
  0.020200401   -4.557243  -21.392239  -91.926660   29.898643    0.000000    0.000000    0.000000    0.000000
  0.020400802   -4.558384  -21.585119  -91.652321   30.694391    0.000000    0.000000    0.000000    0.000000
  0.020601202   -4.558013  -21.810509  -92.277634   28.222103    0.000000    0.000000    0.000000    0.000000
  0.020801603   -4.559978  -22.010292  -92.563113   35.557594    0.000000    0.000000    0.000000    0.000000
  0.021002004   -4.560205  -22.241135  -91.672744   32.540234    0.000000    0.000000    0.000000    0.000000
  0.021202405   -4.561016  -22.454573  -92.764743   29.516157    0.000000    0.000000    0.000000    0.000000
  0.021402806   -4.561549  -22.665298  -92.852661   33.524387    0.000000    0.000000    0.000000    0.000000
  0.021603206   -4.563657  -22.886440  -92.454205   30.598640    0.000000    0.000000    0.000000    0.000000
  0.021803607   -4.564277  -23.099331  -93.462112   29.398907    0.000000    0.000000    0.000000    0.000000
  0.022004008   -4.565661  -23.318037  -92.657902   29.280754    0.000000    0.000000    0.000000    0.000000
  0.022204409   -4.564362  -23.536228  -92.784496   30.044109    0.000000    0.000000    0.000000    0.000000
  0.022404810   -4.566639  -23.756838  -92.688712   28.503847    0.000000    0.000000    0.000000    0.000000
  0.022605210   -4.566497  -23.969564  -93.596032   31.251080    0.000000    0.000000    0.000000    0.000000
  0.022805611   -4.567783  -24.187931  -93.449400   27.427572    0.000000    0.000000    0.000000    0.000000
  0.023006012   -4.569329  -24.393250  -93.898368   30.304836    0.000000    0.000000    0.000000    0.000000
  0.023206413   -4.568851  -24.627096  -94.616226   30.263155    0.000000    0.000000    0.000000    0.000000
  0.023406814   -4.569758  -24.842823  -94.057639   24.212126    0.000000    0.000000    0.000000    0.000000
  0.023607214   -4.572546  -25.058245  -93.902881   25.689548    0.000000    0.000000    0.000000    0.000000
  0.023807615   -4.572324  -25.267813  -94.218832   27.956184    0.000000    0.000000    0.000000    0.000000
  0.024008016   -4.572963  -25.474205  -93.859672   21.496376    0.000000    0.000000    0.000000    0.000000
  0.024208417   -4.573397  -25.711872  -93.626450   27.020975    0.000000    0.000000    0.000000    0.000000
  0.024408818   -4.575697  -25.931324  -94.227626   20.993118    0.000000    0.000000    0.000000    0.000000
  0.024609218   -4.576043  -26.141079  -94.277720   21.585533    0.000000    0.000000    0.000000    0.000000
  0.024809619   -4.576880  -26.367887  -95.951833   28.491449    0.000000    0.000000    0.000000    0.000000
  0.025010020   -4.576208  -26.577940  -95.989551   27.106367    0.000000    0.000000    0.000000    0.000000
  0.025210421   -4.578712  -26.803059  -94.689469   24.573618    0.000000    0.000000    0.000000    0.000000
  0.025410822   -4.577641  -27.012583  -94.529871   20.509089    0.000000    0.000000    0.000000    0.000000
  0.025611222   -4.579668  -27.219866  -95.911606   27.936018    0.000000    0.000000    0.000000    0.000000
  0.025811623   -4.580593  -27.447813  -95.755594   25.256824    0.000000    0.000000    0.000000    0.000000
  0.026012024   -4.580742  -27.662304  -95.873033   25.831934    0.000000    0.000000    0.000000    0.000000
  0.026212425   -4.581728  -27.877728  -95.431439   20.462309    0.000000    0.000000    0.000000    0.000000
  0.026412826   -4.583067  -28.089369  -95.103009   25.671871    0.000000    0.000000    0.000000    0.000000
  0.026613226   -4.582643  -28.320818  -95.652986   22.554718    0.000000    0.000000    0.000000    0.000000
  0.026813627   -4.583691  -28.540569  -95.509287   25.993505    0.000000    0.000000    0.000000    0.000000
  0.027014028   -4.583516  -28.759619  -96.328326   19.943645    0.000000    0.000000    0.000000    0.000000
  0.027214429   -4.584460  -28.973652  -96.130920   22.043482    0.000000    0.000000    0.000000    0.000000
  0.027414830   -4.584465  -29.185614  -96.619143   20.366507    0.000000    0.000000    0.000000    0.000000
  0.027615230   -4.584928  -29.424465  -95.736943   22.652964    0.000000    0.000000    0.000000    0.000000
  0.027815631   -4.586527  -29.639780  -96.411553   23.243116    0.000000    0.000000    0.000000    0.000000
  0.028016032   -4.586352  -29.859896  -97.137921   13.540832    0.000000    0.000000    0.000000    0.000000
  0.028216433   -4.589542  -30.077063  -96.771225   16.840885    0.000000    0.000000    0.000000    0.000000
  0.028416834   -4.590247  -30.284618  -96.907453   19.199553    0.000000    0.000000    0.000000    0.000000
  0.028617234   -4.590223  -30.513273  -96.291181   24.159323    0.000000    0.000000    0.000000    0.000000
  0.028817635   -4.592142  -30.726795  -96.513145   19.619234    0.000000    0.000000    0.000000    0.000000
  0.029018036   -4.591502  -30.954790  -95.958036   12.200357    0.000000    0.000000    0.000000    0.000000
  0.029218437   -4.593994  -31.168301  -96.473044   23.469618    0.000000    0.000000    0.000000    0.000000
  0.029418838   -4.594098  -31.387608  -96.289663   24.176176    0.000000    0.000000    0.000000    0.000000
  0.029619238   -4.593161  -31.605389  -97.478454   17.778725    0.000000    0.000000    0.000000    0.000000
  0.029819639   -4.596260  -31.822409  -97.439999   16.380861    0.000000    0.000000    0.000000    0.000000
  0.030020040   -4.594592  -32.029484  -97.047622   13.153021    0.000000    0.000000    0.000000    0.000000
  0.030220441   -4.597995  -32.263565  -96.149807   20.355743    0.000000    0.000000    0.000000    0.000000
  0.030420842   -4.599408  -32.477272  -96.956814   21.292051    0.000000    0.000000    0.000000    0.000000
  0.030621242   -4.600289  -32.688259  -97.002438   17.764257    0.000000    0.000000    0.000000    0.000000
  0.030821643   -4.601939  -32.913170  -95.996549   20.211737    0.000000    0.000000    0.000000    0.000000
  0.031022044   -4.601608  -33.120319  -97.963415   14.975687    0.000000    0.000000    0.000000    0.000000
  0.031222445   -4.592228  -33.275108  -97.800834   13.902797    0.000000    0.000000    0.000000    0.000000
  0.031422846   -4.592658  -33.495522  -97.581095   14.534258    0.000000    0.000000    0.000000    0.000000
  0.031623246   -4.594232  -33.725639  -98.956053   14.175759    0.000000    0.000000    0.000000    0.000000
  0.031823647   -4.593964  -33.932106  -96.649116   18.571594    0.000000    0.000000    0.000000    0.000000
  0.032024048   -4.595749  -34.152130  -97.348748   16.576660    0.000000    0.000000    0.000000    0.000000
  0.032224449   -4.595112  -34.359760  -98.948607   11.768939    0.000000    0.000000    0.000000    0.000000
  0.032424850   -4.597577  -34.580444  -99.143139   16.094837    0.000000    0.000000    0.000000    0.000000
  0.032625251   -4.597783  -34.790779  -97.469730   12.894768    0.000000    0.000000    0.000000    0.000000
  0.032825651   -4.600156  -34.998955  -97.659328   11.038474    0.000000    0.000000    0.000000    0.000000
  0.033026052   -4.601796  -35.208298  -98.426422    6.824672    0.000000    0.000000    0.000000    0.000000
  0.033226453   -4.602416  -35.429115  -97.421608   13.359182    0.000000    0.000000    0.000000    0.000000
  0.033426854   -4.602672  -35.654968  -98.955257   13.983680    0.000000    0.000000    0.000000    0.000000
  0.033627255   -4.603864  -35.864910  -98.411871   15.330584    0.000000    0.000000    0.000000    0.000000
  0.033827655   -4.604273  -36.063755  -97.546909   12.701878    0.000000    0.000000    0.000000    0.000000
  0.034028056   -4.605860  -36.286461  -98.359478   10.164180    0.000000    0.000000    0.000000    0.000000
  0.034228457   -4.606481  -36.494263  -97.607849   16.077965    0.000000    0.000000    0.000000    0.000000
  0.034428858   -4.606806  -36.719177  -98.788807    9.453850    0.000000    0.000000    0.000000    0.000000
  0.034629259   -4.606460  -36.929371  -98.658635   13.444964    0.000000    0.000000    0.000000    0.000000
  0.034829659   -4.607595  -37.149986  -98.270724   10.033256    0.000000    0.000000    0.000000    0.000000
  0.035030060   -4.608121  -37.354259  -98.843998   22.209354    0.000000    0.000000    0.000000    0.000000
  0.035230461   -4.607793  -37.578503  -99.053506   15.710348    0.000000    0.000000    0.000000    0.000000
  0.035430862   -4.607447  -37.786179  -97.121457   14.822622    0.000000    0.000000    0.000000    0.000000
  0.035631263   -4.611258  -38.013626  -98.805794    7.318758    0.000000    0.000000    0.000000    0.000000
  0.035831663   -4.610929  -38.225670  -99.929207   14.004059    0.000000    0.000000    0.000000    0.000000
  0.036032064   -4.611305  -38.446358  -97.907454   17.317829    0.000000    0.000000    0.000000    0.000000
  0.036232465   -4.610117  -38.656754  -98.549591   12.694325    0.000000    0.000000    0.000000    0.000000
  0.036432866   -4.612285  -38.879795  -99.040791    9.389279    0.000000    0.000000    0.000000    0.000000
  0.036633267   -4.614058  -39.101395  -99.145304    5.561787    0.000000    0.000000    0.000000    0.000000
  0.036833667   -4.612560  -39.316067  -98.595256    5.872577    0.000000    0.000000    0.000000    0.000000
  0.037034068   -4.613619  -39.526554  -99.064060    2.729730    0.000000    0.000000    0.000000    0.000000
  0.037234469   -4.616047  -39.743591  -99.366061   13.530155    0.000000    0.000000    0.000000    0.000000
  0.037434870   -4.615225  -39.961384  -99.436855    4.656884    0.000000    0.000000    0.000000    0.000000
  0.037635271   -4.616157  -40.188469  -98.607503   13.822096    0.000000    0.000000    0.000000    0.000000
  0.037835671   -4.618440  -40.399242  -99.629164   21.716925    0.000000    0.000000    0.000000    0.000000
  0.038036072   -4.617361  -40.608593  -98.248437    5.722616    0.000000    0.000000    0.000000    0.000000
  0.038236473   -4.619229  -40.838051  -99.535265    5.848777    0.000000    0.000000    0.000000    0.000000
  0.038436874   -4.620953  -41.068222  -99.127760   16.017874    0.000000    0.000000    0.000000    0.000000
  0.038637275   -4.622025  -41.265522 -100.287824   19.721643    0.000000    0.000000    0.000000    0.000000
  0.038837675   -4.620522  -41.487648  -98.502268   11.929514    0.000000    0.000000    0.000000    0.000000
  0.039038076   -4.623862  -41.699997  -98.456432   13.777718    0.000000    0.000000    0.000000    0.000000
  0.039238477   -4.623952  -41.921497  -99.813379    4.286520    0.000000    0.000000    0.000000    0.000000
  0.039438878   -4.624628  -42.139378  -99.487807    7.556415    0.000000    0.000000    0.000000    0.000000
  0.039639279   -4.624723  -42.344376 -100.449654   12.319407    0.000000    0.000000    0.000000    0.000000
  0.039839679   -4.625821  -42.564877 -100.902245    2.814456    0.000000    0.000000    0.000000    0.000000
  0.040040080   -4.625876  -42.777580 -100.702961   10.907997    0.000000    0.000000    0.000000    0.000000
  0.040240481   -4.626236  -43.011185  -99.625757    0.603571    0.000000    0.000000    0.000000    0.000000
  0.040440882   -4.628562  -43.225864  -98.982652    9.593141    0.000000    0.000000    0.000000    0.000000
  0.040641283   -4.628505  -43.446030 -100.518072   11.563231    0.000000    0.000000    0.000000    0.000000
  0.040841683   -4.629472  -43.660217 -100.703739    0.284632    0.000000    0.000000    0.000000    0.000000
  0.041042084   -4.627855  -43.877388 -100.934873    6.300489    0.000000    0.000000    0.000000    0.000000
  0.041242485   -4.629792  -44.096237 -100.079356   11.543034    0.000000    0.000000    0.000000    0.000000
  0.041442886   -4.629578  -44.301186 -101.444971    8.006436    0.000000    0.000000    0.000000    0.000000
  0.041643287   -4.631940  -44.512180 -101.109450    3.554270    0.000000    0.000000    0.000000    0.000000
  0.041843687   -4.630140  -44.747993  -99.478197    0.400289    0.000000    0.000000    0.000000    0.000000
  0.042044088   -4.631301  -44.967617 -100.133300    6.280502    0.000000    0.000000    0.000000    0.000000
  0.042244489   -4.634221  -45.184570 -102.193753   -2.271883    0.000000    0.000000    0.000000    0.000000
  0.042444890   -4.633653  -45.402542  -99.893923   -2.399258    0.000000    0.000000    0.000000    0.000000
  0.042645291   -4.632364  -45.613815 -100.505462   11.140216    0.000000    0.000000    0.000000    0.000000
  0.042845691   -4.633408  -45.824703 -102.198124    5.469386    0.000000    0.000000    0.000000    0.000000
  0.043046092   -4.634925  -46.041374 -100.749029   17.200182    0.000000    0.000000    0.000000    0.000000
  0.043246493   -4.634744  -46.271706 -100.713803    4.593389    0.000000    0.000000    0.000000    0.000000
  0.043446894   -4.636603  -46.480289 -101.117536    2.534178    0.000000    0.000000    0.000000    0.000000
  0.043647295   -4.636082  -46.701160 -100.421975   -3.065975    0.000000    0.000000    0.000000    0.000000
  0.043847695   -4.637130  -46.932137  -99.544187    0.743576    0.000000    0.000000    0.000000    0.000000
  0.044048096   -4.637706  -47.151455 -100.064231    3.828715    0.000000    0.000000    0.000000    0.000000
  0.044248497   -4.639561  -47.358944 -102.100990   -2.282777    0.000000    0.000000    0.000000    0.000000
  0.044448898   -4.639400  -47.586845 -100.123539   -6.200693    0.000000    0.000000    0.000000    0.000000
  0.044649299   -4.639304  -47.800480 -100.596862    2.211759    0.000000    0.000000    0.000000    0.000000
  0.044849699   -4.639350  -48.017799 -100.949132   -5.462829    0.000000    0.000000    0.000000    0.000000
  0.045050100   -4.640813  -48.226692 -100.389872    4.703496    0.000000    0.000000    0.000000    0.000000
  0.045250501   -4.641568  -48.455708 -101.434930   -9.308141    0.000000    0.000000    0.000000    0.000000
  0.045450902   -4.641319  -48.674282 -101.232588   -3.841925    0.000000    0.000000    0.000000    0.000000
  0.045651303   -4.641747  -48.899639 -100.571488  -16.972342    0.000000    0.000000    0.000000    0.000000
  0.045851703   -4.642889  -49.122372 -102.527826   -6.802242    0.000000    0.000000    0.000000    0.000000
  0.046052104   -4.643422  -49.338196 -102.446674   -9.536540    0.000000    0.000000    0.000000    0.000000
  0.046252505   -4.646770  -49.549473 -100.653216    2.797032    0.000000    0.000000    0.000000    0.000000
  0.046452906   -4.644369  -49.772606 -101.238420    2.737585    0.000000    0.000000    0.000000    0.000000
  0.046653307   -4.646333  -50.000217 -100.886128  -10.614698    0.000000    0.000000    0.000000    0.000000
  0.046853707   -4.645686  -50.218864 -101.502494   -3.221930    0.000000    0.000000    0.000000    0.000000
  0.047054108   -4.646901  -50.439068 -100.810631    0.701515    0.000000    0.000000    0.000000    0.000000
  0.047254509   -4.646644  -50.650532 -100.172867    1.256383    0.000000    0.000000    0.000000    0.000000
  0.047454910   -4.647672  -50.882195 -102.532326    5.095505    0.000000    0.000000    0.000000    0.000000
  0.047655311   -4.646860  -51.102203  -99.521889    1.080123    0.000000    0.000000    0.000000    0.000000
  0.047855711   -4.647547  -51.332752 -101.944906   -1.218102    0.000000    0.000000    0.000000    0.000000
  0.048056112   -4.648645  -51.540699 -100.983496   -2.631904    0.000000    0.000000    0.000000    0.000000
  0.048256513   -4.647189  -51.772221 -101.975305    4.636618    0.000000    0.000000    0.000000    0.000000
  0.048456914   -4.648238  -51.982315 -101.991102    0.399953    0.000000    0.000000    0.000000    0.000000
  0.048657315   -4.648978  -52.208057 -100.114303   -4.682217    0.000000    0.000000    0.000000    0.000000
  0.048857715   -4.649343  -52.420860 -102.321188    3.628909    0.000000    0.000000    0.000000    0.000000
  0.049058116   -4.652166  -52.640148 -101.760882   -4.205471    0.000000    0.000000    0.000000    0.000000
  0.049258517   -4.651664  -52.854424 -102.570608  -10.698738    0.000000    0.000000    0.000000    0.000000
  0.049458918   -4.650521  -53.081051 -100.945528  -16.278095    0.000000    0.000000    0.000000    0.000000
  0.049659319   -4.653225  -53.299625 -101.004423    7.354421    0.000000    0.000000    0.000000    0.000000
  0.049859719   -4.650857  -53.514217 -104.454000   -1.939734    0.000000    0.000000    0.000000    0.000000
  0.050060120   -4.652647  -53.732746 -104.136781    4.412831    0.000000    0.000000    0.000000    0.000000
  0.050260521   -4.652586  -53.947048 -101.371826  -10.241165    0.000000    0.000000    0.000000    0.000000
  0.050460922   -4.652489  -54.177349 -101.890061   -4.450947    0.000000    0.000000    0.000000    0.000000
  0.050661323   -4.655902  -54.400894 -101.732763    2.234799    0.000000    0.000000    0.000000    0.000000
  0.050861723   -4.654308  -54.607922 -103.036650  -12.063452    0.000000    0.000000    0.000000    0.000000
  0.051062124   -4.656373  -54.842022 -102.489741   -9.481932    0.000000    0.000000    0.000000    0.000000
  0.051262525   -4.657372  -55.043072 -102.759480   -7.122526    0.000000    0.000000    0.000000    0.000000
  0.051462926   -4.656733  -55.270840 -103.059889  -24.196140    0.000000    0.000000    0.000000    0.000000
  0.051663327   -4.658965  -55.491825 -101.171534    0.531394    0.000000    0.000000    0.000000    0.000000
  0.051863727   -4.657134  -55.705475 -103.867031  -18.641870    0.000000    0.000000    0.000000    0.000000
  0.052064128   -4.658520  -55.936188 -102.885294  -18.388046    0.000000    0.000000    0.000000    0.000000
  0.052264529   -4.660129  -56.147675 -102.671840   -8.594717    0.000000    0.000000    0.000000    0.000000
  0.052464930   -4.659488  -56.364113 -101.896257   -3.074977    0.000000    0.000000    0.000000    0.000000
  0.052665331   -4.659744  -56.594273 -101.876634   -1.968777    0.000000    0.000000    0.000000    0.000000
  0.052865731   -4.662741  -56.816456 -103.803950    7.019806    0.000000    0.000000    0.000000    0.000000
