! Anritsu VNA Master:                     Model: MS2036C/10/77
! SN:                                  1601066
! /bd0/18may08.cable.cal/bot..194p65.1.s2p
! Existing Calibration Information:
! TYPE:                         Current Settings,       Active Cal Settings
! TIME:             	   05/08/2018 03:38:39 PM,    05/08/2018 03:25:16 PM
! INTERNAL TEMP:    	                   51.5 C,                    53.3 C
! # POINTS:         	                      500,                       500
! START FREQ:       	               20.000 MHz,                20.000 MHz
! STOP FREQ:        	              120.000 MHz,               120.000 MHz
! SOURCE POWER:     	                     High,                      High
! IFBW:             	                    50 Hz,                     50 Hz
! AVG FACTOR:       	                       1 ,                        1 
! REF PLANE 1:      	                     0 mm,                      0 mm
! REF PLANE 2:      	                     0 mm,                      0 mm
! CAL TYPE:         	                 Full S11,                  Full S11
! CAL METHOD:       	                     SOLT,                      SOLT
! CAL LINE TYPE:    	                     Coax,                      Coax
! DUT PORT 1:       	                K-Conn(F),                 K-Conn(F)
! DUT PORT 2:       	                K-Conn(F),                 K-Conn(F)
! CAL STATUS:       	        OK: Accuracy High,                        --
# GHZ S DB R 50.0
! FREQ.GHZ       S11DB        S11A       S21DB        S21A       S12DB        S12A       S22DB        S22A
  0.020000000   -4.529537  -21.197227  -92.019525   28.643503    0.000000    0.000000    0.000000    0.000000
  0.020200401   -4.528452  -21.407930  -92.060023   33.797279    0.000000    0.000000    0.000000    0.000000
  0.020400802   -4.530014  -21.617083  -91.948186   30.400408    0.000000    0.000000    0.000000    0.000000
  0.020601202   -4.532007  -21.848972  -92.449715   32.283344    0.000000    0.000000    0.000000    0.000000
  0.020801603   -4.533121  -22.055962  -92.153689   31.287071    0.000000    0.000000    0.000000    0.000000
  0.021002004   -4.534581  -22.275206  -92.301429   30.950392    0.000000    0.000000    0.000000    0.000000
  0.021202405   -4.535029  -22.495756  -92.476047   34.345188    0.000000    0.000000    0.000000    0.000000
  0.021402806   -4.535387  -22.707954  -92.670047   29.098471    0.000000    0.000000    0.000000    0.000000
  0.021603206   -4.535080  -22.912043  -93.056455   28.032772    0.000000    0.000000    0.000000    0.000000
  0.021803607   -4.535621  -23.144640  -92.933254   31.890970    0.000000    0.000000    0.000000    0.000000
  0.022004008   -4.540357  -23.346060  -93.019135   30.556683    0.000000    0.000000    0.000000    0.000000
  0.022204409   -4.541730  -23.573549  -94.088927   23.821522    0.000000    0.000000    0.000000    0.000000
  0.022404810   -4.540528  -23.797075  -93.001807   30.663824    0.000000    0.000000    0.000000    0.000000
  0.022605210   -4.541762  -24.004597  -93.020267   23.934765    0.000000    0.000000    0.000000    0.000000
  0.022805611   -4.542571  -24.224289  -93.408892   26.798925    0.000000    0.000000    0.000000    0.000000
  0.023006012   -4.547622  -24.438320  -93.735541   24.236814    0.000000    0.000000    0.000000    0.000000
  0.023206413   -4.546611  -24.646418  -93.859549   25.197840    0.000000    0.000000    0.000000    0.000000
  0.023406814   -4.548082  -24.861656  -94.204493   28.003786    0.000000    0.000000    0.000000    0.000000
  0.023607214   -4.546943  -25.085091  -93.462254   28.081369    0.000000    0.000000    0.000000    0.000000
  0.023807615   -4.547201  -25.308201  -94.297231   27.963030    0.000000    0.000000    0.000000    0.000000
  0.024008016   -4.548398  -25.515833  -93.878293   28.935110    0.000000    0.000000    0.000000    0.000000
  0.024208417   -4.549120  -25.735151  -93.746147   25.713190    0.000000    0.000000    0.000000    0.000000
  0.024408818   -4.549928  -25.972618  -94.186186   20.641300    0.000000    0.000000    0.000000    0.000000
  0.024609218   -4.551779  -26.174847  -94.449101   25.809139    0.000000    0.000000    0.000000    0.000000
  0.024809619   -4.551698  -26.393341  -94.927223   23.316673    0.000000    0.000000    0.000000    0.000000
  0.025010020   -4.551676  -26.599886  -94.524962   22.319221    0.000000    0.000000    0.000000    0.000000
  0.025210421   -4.552992  -26.825253  -94.946011   24.072182    0.000000    0.000000    0.000000    0.000000
  0.025410822   -4.555891  -27.026142  -95.506022   29.977396    0.000000    0.000000    0.000000    0.000000
  0.025611222   -4.556018  -27.249693  -95.725853   24.385399    0.000000    0.000000    0.000000    0.000000
  0.025811623   -4.558155  -27.467495  -95.181844   20.643797    0.000000    0.000000    0.000000    0.000000
  0.026012024   -4.558448  -27.684052  -95.554845   20.519730    0.000000    0.000000    0.000000    0.000000
  0.026212425   -4.558293  -27.896194  -95.204668   19.319624    0.000000    0.000000    0.000000    0.000000
  0.026412826   -4.559640  -28.111734  -95.822623   20.403999    0.000000    0.000000    0.000000    0.000000
  0.026613226   -4.559781  -28.317110  -95.827905   20.500187    0.000000    0.000000    0.000000    0.000000
  0.026813627   -4.558392  -28.540108  -96.041128   17.390835    0.000000    0.000000    0.000000    0.000000
  0.027014028   -4.559760  -28.762114  -95.466903   17.543659    0.000000    0.000000    0.000000    0.000000
  0.027214429   -4.560633  -28.975763  -95.964077   21.372303    0.000000    0.000000    0.000000    0.000000
  0.027414830   -4.561149  -29.193024  -96.082243   15.130921    0.000000    0.000000    0.000000    0.000000
  0.027615230   -4.561594  -29.417177  -95.937578   16.536253    0.000000    0.000000    0.000000    0.000000
  0.027815631   -4.562597  -29.639818  -95.968231   21.742016    0.000000    0.000000    0.000000    0.000000
  0.028016032   -4.564060  -29.870670  -95.979651   21.712669    0.000000    0.000000    0.000000    0.000000
  0.028216433   -4.565877  -30.086130  -96.121730   25.102251    0.000000    0.000000    0.000000    0.000000
  0.028416834   -4.567463  -30.301926  -96.950516   21.701426    0.000000    0.000000    0.000000    0.000000
  0.028617234   -4.567877  -30.516756  -96.625784   20.255997    0.000000    0.000000    0.000000    0.000000
  0.028817635   -4.568712  -30.743778  -95.665373   18.729364    0.000000    0.000000    0.000000    0.000000
  0.029018036   -4.568734  -30.953796  -97.708872   18.834444    0.000000    0.000000    0.000000    0.000000
  0.029218437   -4.569397  -31.171267  -96.186003   20.392479    0.000000    0.000000    0.000000    0.000000
  0.029418838   -4.570809  -31.385460  -96.360532   17.188179    0.000000    0.000000    0.000000    0.000000
  0.029619238   -4.570004  -31.591671  -97.067714   23.060659    0.000000    0.000000    0.000000    0.000000
  0.029819639   -4.572656  -31.808447  -97.867425   22.016525    0.000000    0.000000    0.000000    0.000000
  0.030020040   -4.572126  -32.036198  -97.448994    8.970103    0.000000    0.000000    0.000000    0.000000
  0.030220441   -4.574077  -32.256001  -97.801875   18.556520    0.000000    0.000000    0.000000    0.000000
  0.030420842   -4.575852  -32.473858  -97.192089   17.528318    0.000000    0.000000    0.000000    0.000000
  0.030621242   -4.577102  -32.710285  -97.085544   19.542561    0.000000    0.000000    0.000000    0.000000
  0.030821643   -4.578038  -32.914383  -97.121841   23.816515    0.000000    0.000000    0.000000    0.000000
  0.031022044   -4.578782  -33.140659  -97.620887   19.551994    0.000000    0.000000    0.000000    0.000000
  0.031222445   -4.561082  -33.281994  -97.526176    8.728837    0.000000    0.000000    0.000000    0.000000
  0.031422846   -4.563145  -33.501450  -98.013966   16.976938    0.000000    0.000000    0.000000    0.000000
  0.031623246   -4.562153  -33.702644  -96.543586    6.329949    0.000000    0.000000    0.000000    0.000000
  0.031823647   -4.562799  -33.910465  -97.688085   11.366720    0.000000    0.000000    0.000000    0.000000
  0.032024048   -4.564094  -34.132980  -97.250015   16.992664    0.000000    0.000000    0.000000    0.000000
  0.032224449   -4.565136  -34.331997  -97.423666    7.474918    0.000000    0.000000    0.000000    0.000000
  0.032424850   -4.566455  -34.555618  -96.086982   16.530172    0.000000    0.000000    0.000000    0.000000
  0.032625251   -4.567771  -34.761246  -97.706803   16.679352    0.000000    0.000000    0.000000    0.000000
  0.032825651   -4.568706  -34.993149  -97.578602   17.360300    0.000000    0.000000    0.000000    0.000000
  0.033026052   -4.571316  -35.203403  -97.689952   19.961908    0.000000    0.000000    0.000000    0.000000
  0.033226453   -4.570691  -35.422962  -99.313218   16.753502    0.000000    0.000000    0.000000    0.000000
  0.033426854   -4.569276  -35.632435  -98.523690    8.916939    0.000000    0.000000    0.000000    0.000000
  0.033627255   -4.573256  -35.842857  -98.246188   16.836246    0.000000    0.000000    0.000000    0.000000
  0.033827655   -4.570765  -36.066372  -98.979146   19.350439    0.000000    0.000000    0.000000    0.000000
  0.034028056   -4.574138  -36.287521  -98.044952   18.489344    0.000000    0.000000    0.000000    0.000000
  0.034228457   -4.574455  -36.493820  -98.557957   11.811666    0.000000    0.000000    0.000000    0.000000
  0.034428858   -4.573499  -36.722252  -98.762555    8.767465    0.000000    0.000000    0.000000    0.000000
  0.034629259   -4.576445  -36.929401  -99.020293   19.279997    0.000000    0.000000    0.000000    0.000000
  0.034829659   -4.575377  -37.138992  -97.887165   16.534054    0.000000    0.000000    0.000000    0.000000
  0.035030060   -4.575253  -37.370712  -97.328950   10.831972    0.000000    0.000000    0.000000    0.000000
  0.035230461   -4.575018  -37.574791  -98.152669   17.817495    0.000000    0.000000    0.000000    0.000000
  0.035430862   -4.576023  -37.787956  -98.569370    1.648772    0.000000    0.000000    0.000000    0.000000
  0.035631263   -4.575764  -38.000576  -97.493691   10.669272    0.000000    0.000000    0.000000    0.000000
  0.035831663   -4.575591  -38.215233  -97.892038   12.733796    0.000000    0.000000    0.000000    0.000000
  0.036032064   -4.577130  -38.418053  -98.963587    9.570466    0.000000    0.000000    0.000000    0.000000
  0.036232465   -4.575165  -38.637321  -98.762138   18.261724    0.000000    0.000000    0.000000    0.000000
  0.036432866   -4.577639  -38.856834  -99.349721   10.668713    0.000000    0.000000    0.000000    0.000000
  0.036633267   -4.578212  -39.058086  -99.038515    1.633923    0.000000    0.000000    0.000000    0.000000
  0.036833667   -4.577047  -39.286304  -99.302630    6.838374    0.000000    0.000000    0.000000    0.000000
  0.037034068   -4.579580  -39.506516  -99.976803   14.965503    0.000000    0.000000    0.000000    0.000000
  0.037234469   -4.577350  -39.720505  -99.758181    7.527645    0.000000    0.000000    0.000000    0.000000
  0.037434870   -4.579856  -39.936638  -99.294749    4.899078    0.000000    0.000000    0.000000    0.000000
  0.037635271   -4.581575  -40.162159  -98.566316    5.845308    0.000000    0.000000    0.000000    0.000000
  0.037835671   -4.580057  -40.388584  -99.280596    1.705184    0.000000    0.000000    0.000000    0.000000
  0.038036072   -4.580318  -40.591099  -97.802854   15.071128    0.000000    0.000000    0.000000    0.000000
  0.038236473   -4.581890  -40.804920  -99.068812   17.570711    0.000000    0.000000    0.000000    0.000000
  0.038436874   -4.581328  -41.037769  -99.154410    4.745456    0.000000    0.000000    0.000000    0.000000
  0.038637275   -4.582221  -41.242367  -98.972041    1.335855    0.000000    0.000000    0.000000    0.000000
  0.038837675   -4.584161  -41.452457  -99.418275    5.838717    0.000000    0.000000    0.000000    0.000000
  0.039038076   -4.583199  -41.662533  -97.898801    3.226345    0.000000    0.000000    0.000000    0.000000
  0.039238477   -4.584065  -41.893593 -100.236230   -2.411042    0.000000    0.000000    0.000000    0.000000
  0.039438878   -4.584154  -42.093414  -99.524374   -0.685058    0.000000    0.000000    0.000000    0.000000
  0.039639279   -4.584680  -42.302006 -100.475784    4.607617    0.000000    0.000000    0.000000    0.000000
  0.039839679   -4.584429  -42.514519  -98.843993    4.688842    0.000000    0.000000    0.000000    0.000000
  0.040040080   -4.585040  -42.741203 -100.461812    2.798248    0.000000    0.000000    0.000000    0.000000
  0.040240481   -4.586944  -42.944958  -98.365778   10.636935    0.000000    0.000000    0.000000    0.000000
  0.040440882   -4.586711  -43.169304 -100.126548    5.286065    0.000000    0.000000    0.000000    0.000000
  0.040641283   -4.587959  -43.400620  -99.435653   14.939389    0.000000    0.000000    0.000000    0.000000
  0.040841683   -4.588856  -43.606121 -102.172063   -3.158221    0.000000    0.000000    0.000000    0.000000
  0.041042084   -4.589158  -43.840527  -99.202593   19.433710    0.000000    0.000000    0.000000    0.000000
  0.041242485   -4.588136  -44.065788 -100.454686   -4.854236    0.000000    0.000000    0.000000    0.000000
  0.041442886   -4.590137  -44.280361  -99.911521   -1.609627    0.000000    0.000000    0.000000    0.000000
  0.041643287   -4.591225  -44.510471  -99.953824   12.663777    0.000000    0.000000    0.000000    0.000000
  0.041843687   -4.593170  -44.722942 -101.425530   11.019112    0.000000    0.000000    0.000000    0.000000
  0.042044088   -4.590110  -44.946877  -99.829560    2.900460    0.000000    0.000000    0.000000    0.000000
  0.042244489   -4.592633  -45.161274 -100.995666   -5.564377    0.000000    0.000000    0.000000    0.000000
  0.042444890   -4.591115  -45.376450 -101.711046   -1.325244    0.000000    0.000000    0.000000    0.000000
  0.042645291   -4.592520  -45.595814 -101.337392   -7.924794    0.000000    0.000000    0.000000    0.000000
  0.042845691   -4.594390  -45.811863 -101.785802   -1.548369    0.000000    0.000000    0.000000    0.000000
  0.043046092   -4.592844  -46.023964 -100.666129   16.937799    0.000000    0.000000    0.000000    0.000000
  0.043246493   -4.596124  -46.244053 -100.549951   -4.555494    0.000000    0.000000    0.000000    0.000000
  0.043446894   -4.596616  -46.459244 -100.574875    1.881849    0.000000    0.000000    0.000000    0.000000
  0.043647295   -4.595115  -46.684765 -101.474564   10.299964    0.000000    0.000000    0.000000    0.000000
  0.043847695   -4.596205  -46.901237 -102.365398    8.207449    0.000000    0.000000    0.000000    0.000000
  0.044048096   -4.595665  -47.120213 -100.173621    6.191003    0.000000    0.000000    0.000000    0.000000
  0.044248497   -4.595346  -47.343796  -99.619212    3.225329    0.000000    0.000000    0.000000    0.000000
  0.044448898   -4.598568  -47.555084 -100.977016    1.064827    0.000000    0.000000    0.000000    0.000000
  0.044649299   -4.598365  -47.771877 -102.364610    2.912175    0.000000    0.000000    0.000000    0.000000
  0.044849699   -4.596785  -47.995182 -100.579249   -0.246075    0.000000    0.000000    0.000000    0.000000
  0.045050100   -4.597956  -48.230495 -101.117132  -10.026661    0.000000    0.000000    0.000000    0.000000
  0.045250501   -4.598287  -48.440166 -100.105210    0.187168    0.000000    0.000000    0.000000    0.000000
  0.045450902   -4.600580  -48.648926 -101.062940    3.047130    0.000000    0.000000    0.000000    0.000000
  0.045651303   -4.602241  -48.852119 -101.330470   -0.936851    0.000000    0.000000    0.000000    0.000000
  0.045851703   -4.602844  -49.087994 -102.094804   15.400009    0.000000    0.000000    0.000000    0.000000
  0.046052104   -4.607612  -49.299179 -101.359084  -11.549788    0.000000    0.000000    0.000000    0.000000
  0.046252505   -4.604818  -49.526405 -100.456826   -1.107486    0.000000    0.000000    0.000000    0.000000
  0.046452906   -4.605973  -49.740108 -103.011756    3.543049    0.000000    0.000000    0.000000    0.000000
  0.046653307   -4.606591  -49.959984 -101.907681   -2.312704    0.000000    0.000000    0.000000    0.000000
  0.046853707   -4.607316  -50.188744 -101.926420   -3.344976    0.000000    0.000000    0.000000    0.000000
  0.047054108   -4.605907  -50.403149 -102.036838   -4.183522    0.000000    0.000000    0.000000    0.000000
  0.047254509   -4.605467  -50.612583 -101.084132  -11.365819    0.000000    0.000000    0.000000    0.000000
  0.047454910   -4.608844  -50.839664 -102.001716   -5.970047    0.000000    0.000000    0.000000    0.000000
  0.047655311   -4.607544  -51.051064 -100.603999   -3.767361    0.000000    0.000000    0.000000    0.000000
  0.047855711   -4.607921  -51.276234 -102.416325   -8.719627    0.000000    0.000000    0.000000    0.000000
  0.048056112   -4.608690  -51.504383 -101.744189   -2.259863    0.000000    0.000000    0.000000    0.000000
  0.048256513   -4.609721  -51.729130 -100.801710   -5.695450    0.000000    0.000000    0.000000    0.000000
  0.048456914   -4.606050  -51.953518 -100.755602   -6.973128    0.000000    0.000000    0.000000    0.000000
  0.048657315   -4.611003  -52.164921 -101.692511  -15.134857    0.000000    0.000000    0.000000    0.000000
  0.048857715   -4.609292  -52.383888 -101.619075   -5.393220    0.000000    0.000000    0.000000    0.000000
  0.049058116   -4.611364  -52.602673 -101.433238  -15.185094    0.000000    0.000000    0.000000    0.000000
  0.049258517   -4.611990  -52.803940 -102.123583   -8.485537    0.000000    0.000000    0.000000    0.000000
  0.049458918   -4.610940  -53.033279 -102.981750   15.843224    0.000000    0.000000    0.000000    0.000000
  0.049659319   -4.612646  -53.251831 -103.163127    3.654948    0.000000    0.000000    0.000000    0.000000
  0.049859719   -4.611950  -53.456242 -103.071064   -7.982845    0.000000    0.000000    0.000000    0.000000
  0.050060120   -4.614641  -53.682961 -101.842856   -0.084823    0.000000    0.000000    0.000000    0.000000
  0.050260521   -4.615867  -53.902092 -101.534942   -8.430406    0.000000    0.000000    0.000000    0.000000
  0.050460922   -4.615812  -54.113914 -104.151917    1.135672    0.000000    0.000000    0.000000    0.000000
  0.050661323   -4.619088  -54.329330 -102.568139   -8.649191    0.000000    0.000000    0.000000    0.000000
  0.050861723   -4.615899  -54.544163 -101.965510  -10.555700    0.000000    0.000000    0.000000    0.000000
  0.051062124   -4.617660  -54.769695 -103.566150    1.980664    0.000000    0.000000    0.000000    0.000000
  0.051262525   -4.618704  -54.979443 -101.781892  -13.854122    0.000000    0.000000    0.000000    0.000000
  0.051462926   -4.616677  -55.214180 -101.486079  -12.908798    0.000000    0.000000    0.000000    0.000000
  0.051663327   -4.619272  -55.430691 -104.602483   -5.521528    0.000000    0.000000    0.000000    0.000000
  0.051863727   -4.620554  -55.644661 -103.839367    1.427856    0.000000    0.000000    0.000000    0.000000
  0.052064128   -4.621544  -55.862755 -102.211815  -15.342281    0.000000    0.000000    0.000000    0.000000
  0.052264529   -4.620553  -56.080544 -102.748875  -24.783285    0.000000    0.000000    0.000000    0.000000
  0.052464930   -4.621739  -56.299057 -104.779289    3.758629    0.000000    0.000000    0.000000    0.000000
  0.052665331   -4.623940  -56.505150 -103.948241   -6.028675    0.000000    0.000000    0.000000    0.000000
  0.052865731   -4.623287  -56.724159 -105.556752   -3.106503    0.000000    0.000000    0.000000    0.000000
