! Anritsu VNA Master:                     Model: MS2036C/10/77
! SN:                                  1601066
! /bd0/18may08.cable.cal/unused.19p46.anomalous.0.s2p
! Existing Calibration Information:
! TYPE:                         Current Settings,       Active Cal Settings
! TIME:             	   05/08/2018 04:01:43 PM,    05/08/2018 03:57:21 PM
! INTERNAL TEMP:    	                   50.3 C,                    50.3 C
! # POINTS:         	                      500,                       500
! START FREQ:       	               20.000 MHz,                20.000 MHz
! STOP FREQ:        	              120.000 MHz,               120.000 MHz
! SOURCE POWER:     	                     High,                      High
! IFBW:             	                    50 Hz,                     50 Hz
! AVG FACTOR:       	                       1 ,                        1 
! REF PLANE 1:      	                     0 mm,                      0 mm
! REF PLANE 2:      	                     0 mm,                      0 mm
! CAL TYPE:         	                 Full S11,                  Full S11
! CAL METHOD:       	                     SOLT,                      SOLT
! CAL LINE TYPE:    	                     Coax,                      Coax
! DUT PORT 1:       	                K-Conn(F),                 K-Conn(F)
! DUT PORT 2:       	                K-Conn(F),                 K-Conn(F)
! CAL STATUS:       	        OK: Accuracy High,                        --
# GHZ S DB R 50.0
! FREQ.GHZ       S11DB        S11A       S21DB        S21A       S12DB        S12A       S22DB        S22A
  0.020000000  -54.746704   71.760506  -90.713308   40.078491    0.000000    0.000000    0.000000    0.000000
  0.020200401  -54.643440   72.326576  -90.694152   38.232811    0.000000    0.000000    0.000000    0.000000
  0.020400802  -54.491151   71.949638  -91.034810   40.005440    0.000000    0.000000    0.000000    0.000000
  0.020601202  -54.406905   71.582932  -92.066033   32.988205    0.000000    0.000000    0.000000    0.000000
  0.020801603  -54.314738   71.495445  -91.416111   35.404022    0.000000    0.000000    0.000000    0.000000
  0.021002004  -54.217395   71.884842  -92.285547   37.263371    0.000000    0.000000    0.000000    0.000000
  0.021202405  -54.168595   71.575691  -91.470081   35.544762    0.000000    0.000000    0.000000    0.000000
  0.021402806  -54.068322   71.417229  -91.948018   33.032898    0.000000    0.000000    0.000000    0.000000
  0.021603206  -54.017820   71.070724  -91.838024   33.258450    0.000000    0.000000    0.000000    0.000000
  0.021803607  -53.878709   71.210159  -91.426686   36.341450    0.000000    0.000000    0.000000    0.000000
  0.022004008  -53.778844   70.812653  -92.280839   29.392084    0.000000    0.000000    0.000000    0.000000
  0.022204409  -53.754147   71.241623  -92.137083   33.949844    0.000000    0.000000    0.000000    0.000000
  0.022404810  -53.583658   70.080727  -92.310022   34.112747    0.000000    0.000000    0.000000    0.000000
  0.022605210  -53.513769   70.696434  -92.269554   31.545475    0.000000    0.000000    0.000000    0.000000
  0.022805611  -53.469761   70.597343  -91.538731   27.447096    0.000000    0.000000    0.000000    0.000000
  0.023006012  -53.387971   70.459579  -92.858630   26.778217    0.000000    0.000000    0.000000    0.000000
  0.023206413  -53.290717   70.082672  -92.371087   29.653820    0.000000    0.000000    0.000000    0.000000
  0.023406814  -53.244019   69.916954  -92.240692   27.761761    0.000000    0.000000    0.000000    0.000000
  0.023607214  -53.195334   69.810432  -92.647636   26.056292    0.000000    0.000000    0.000000    0.000000
  0.023807615  -53.077076   70.055580  -93.778440   24.711758    0.000000    0.000000    0.000000    0.000000
  0.024008016  -53.013521   69.678902  -92.785110   26.428493    0.000000    0.000000    0.000000    0.000000
  0.024208417  -52.937947   68.919952  -92.841007   26.840944    0.000000    0.000000    0.000000    0.000000
  0.024408818  -52.848527   69.254547  -93.330515   24.248653    0.000000    0.000000    0.000000    0.000000
  0.024609218  -52.756338   69.338196  -92.889653   25.062782    0.000000    0.000000    0.000000    0.000000
  0.024809619  -52.650853   69.104492  -94.095821   24.747526    0.000000    0.000000    0.000000    0.000000
  0.025010020  -52.632759   69.033737  -93.722149   23.583126    0.000000    0.000000    0.000000    0.000000
  0.025210421  -52.526169   68.872017  -93.996101   19.949173    0.000000    0.000000    0.000000    0.000000
  0.025410822  -52.478106   68.784134  -94.563748   19.210789    0.000000    0.000000    0.000000    0.000000
  0.025611222  -52.390400   68.529678  -94.612325   27.159014    0.000000    0.000000    0.000000    0.000000
  0.025811623  -52.302094   68.193634  -93.999871   22.538198    0.000000    0.000000    0.000000    0.000000
  0.026012024  -52.216043   68.079613  -94.189583   22.279114    0.000000    0.000000    0.000000    0.000000
  0.026212425  -52.174513   67.971138  -94.392608   22.236712    0.000000    0.000000    0.000000    0.000000
  0.026412826  -52.115398   67.662277  -94.382624   18.463259    0.000000    0.000000    0.000000    0.000000
  0.026613226  -52.026084   67.631180  -95.773300   22.273451    0.000000    0.000000    0.000000    0.000000
  0.026813627  -51.980833   67.474617  -94.657376   20.838020    0.000000    0.000000    0.000000    0.000000
  0.027014028  -51.898882   67.286804  -94.130282   19.319883    0.000000    0.000000    0.000000    0.000000
  0.027214429  -51.879013   67.349899  -94.951692   23.811781    0.000000    0.000000    0.000000    0.000000
  0.027414830  -51.769726   66.854172  -95.167140   20.425732    0.000000    0.000000    0.000000    0.000000
  0.027615230  -51.673127   67.080193  -95.677012   19.858515    0.000000    0.000000    0.000000    0.000000
  0.027815631  -51.653500   66.770676  -95.796466   21.317616    0.000000    0.000000    0.000000    0.000000
  0.028016032  -51.544028   66.167450  -95.531426   18.855080    0.000000    0.000000    0.000000    0.000000
  0.028216433  -51.514233   66.082664  -95.976128   21.391624    0.000000    0.000000    0.000000    0.000000
  0.028416834  -51.397258   66.620979  -95.725452   22.077257    0.000000    0.000000    0.000000    0.000000
  0.028617234  -51.349409   65.759552  -96.045275   16.910423    0.000000    0.000000    0.000000    0.000000
  0.028817635  -51.293670   65.991478  -96.111196   16.607531    0.000000    0.000000    0.000000    0.000000
  0.029018036  -51.238265   65.520424  -96.172329   12.956610    0.000000    0.000000    0.000000    0.000000
  0.029218437  -51.158547   65.524429  -96.678977   15.004112    0.000000    0.000000    0.000000    0.000000
  0.029418838  -51.122571   65.636940  -96.134859   17.198606    0.000000    0.000000    0.000000    0.000000
  0.029619238  -51.003484   65.311348  -96.708833   10.694429    0.000000    0.000000    0.000000    0.000000
  0.029819639  -50.981000   65.065079  -96.688757   14.725990    0.000000    0.000000    0.000000    0.000000
  0.030020040  -50.965901   64.880974  -96.745759   18.996540    0.000000    0.000000    0.000000    0.000000
  0.030220441  -50.800557   64.722076  -96.792096   17.355268    0.000000    0.000000    0.000000    0.000000
  0.030420842  -50.760529   64.260773  -97.668566   11.738218    0.000000    0.000000    0.000000    0.000000
  0.030621242  -50.673624   64.160774  -97.421024   13.561844    0.000000    0.000000    0.000000    0.000000
  0.030821643  -50.649515   64.461189  -96.677804   17.476757    0.000000    0.000000    0.000000    0.000000
  0.031022044  -50.578808   64.019508  -96.697785   12.536486    0.000000    0.000000    0.000000    0.000000
  0.031222445  -50.441591   64.133888  -96.803651   11.176632    0.000000    0.000000    0.000000    0.000000
  0.031422846  -50.461786   64.013725  -96.410175   12.281651    0.000000    0.000000    0.000000    0.000000
  0.031623246  -50.402915   63.635937  -98.477481    5.963024    0.000000    0.000000    0.000000    0.000000
  0.031823647  -50.285917   63.312187  -97.256354   14.750359    0.000000    0.000000    0.000000    0.000000
  0.032024048  -50.254194   63.295029  -98.492023    9.242562    0.000000    0.000000    0.000000    0.000000
  0.032224449  -50.253120   63.339096  -96.503105    9.176157    0.000000    0.000000    0.000000    0.000000
  0.032424850  -50.157981   63.033916  -97.214786   12.740063    0.000000    0.000000    0.000000    0.000000
  0.032625251  -50.116596   62.966839  -98.024707    4.387902    0.000000    0.000000    0.000000    0.000000
  0.032825651  -50.050205   62.552204  -97.828013   11.231177    0.000000    0.000000    0.000000    0.000000
  0.033026052  -50.020302   62.352249  -97.554863   13.418583    0.000000    0.000000    0.000000    0.000000
  0.033226453  -49.931767   62.039242  -98.149173   11.708555    0.000000    0.000000    0.000000    0.000000
  0.033426854  -49.880385   62.369877  -98.273608    7.485873    0.000000    0.000000    0.000000    0.000000
  0.033627255  -49.864560   61.910671  -97.900703   12.794977    0.000000    0.000000    0.000000    0.000000
  0.033827655  -49.751026   61.898254  -97.490734    3.614051    0.000000    0.000000    0.000000    0.000000
  0.034028056  -49.729014   61.433357  -98.317137   10.446455    0.000000    0.000000    0.000000    0.000000
  0.034228457  -49.651266   61.524021  -98.801221    5.672850    0.000000    0.000000    0.000000    0.000000
  0.034428858  -49.594977   61.336254  -99.320725   11.161648    0.000000    0.000000    0.000000    0.000000
  0.034629259  -49.528784   60.771389  -98.247155    3.868435    0.000000    0.000000    0.000000    0.000000
  0.034829659  -49.496847   60.832993 -100.483326   11.153728    0.000000    0.000000    0.000000    0.000000
  0.035030060  -49.420710   60.707672  -97.931525    1.040787    0.000000    0.000000    0.000000    0.000000
  0.035230461  -49.402176   60.489323  -98.159534    5.520926    0.000000    0.000000    0.000000    0.000000
  0.035430862  -49.320310   60.042480  -98.070677   -5.042634    0.000000    0.000000    0.000000    0.000000
  0.035631263  -49.318991   60.205917  -99.169651    5.088246    0.000000    0.000000    0.000000    0.000000
  0.035831663  -49.177467   60.006615 -100.230231    8.626077    0.000000    0.000000    0.000000    0.000000
  0.036032064  -49.154679   59.968178  -99.270588   12.585622    0.000000    0.000000    0.000000    0.000000
  0.036232465  -49.107140   59.923107  -98.874887    5.014788    0.000000    0.000000    0.000000    0.000000
  0.036432866  -49.076029   59.564823  -99.135857    6.447020    0.000000    0.000000    0.000000    0.000000
  0.036633267  -49.025654   59.423527 -100.200041    0.445830    0.000000    0.000000    0.000000    0.000000
  0.036833667  -48.917639   59.210903  -99.934088    7.598232    0.000000    0.000000    0.000000    0.000000
  0.037034068  -48.946621   58.809746  -99.817972    8.187216    0.000000    0.000000    0.000000    0.000000
  0.037234469  -48.845992   59.018776  -99.949656    8.670548    0.000000    0.000000    0.000000    0.000000
  0.037434870  -48.803427   58.686066  -98.833781    5.547638    0.000000    0.000000    0.000000    0.000000
  0.037635271  -48.746842   58.663273  -99.447411    1.072137    0.000000    0.000000    0.000000    0.000000
  0.037835671  -48.687678   58.134232 -100.923794    6.811836    0.000000    0.000000    0.000000    0.000000
  0.038036072  -48.622132   58.182251  -99.913996    8.430758    0.000000    0.000000    0.000000    0.000000
  0.038236473  -48.591668   57.905598 -100.982277    7.386049    0.000000    0.000000    0.000000    0.000000
  0.038436874  -48.543153   57.795708  -98.826773    7.632154    0.000000    0.000000    0.000000    0.000000
  0.038637275  -48.499022   57.465481  -99.795258    5.597328    0.000000    0.000000    0.000000    0.000000
  0.038837675  -48.442840   57.420341  -98.198997    4.229525    0.000000    0.000000    0.000000    0.000000
  0.039038076  -48.386165   57.386868 -100.266317    1.625761    0.000000    0.000000    0.000000    0.000000
  0.039238477  -48.335137   57.126373  -99.488013    3.372119    0.000000    0.000000    0.000000    0.000000
  0.039438878  -48.308256   56.856697  -99.992312   17.089357    0.000000    0.000000    0.000000    0.000000
  0.039639279  -48.253737   56.907246 -101.239577   10.157218    0.000000    0.000000    0.000000    0.000000
  0.039839679  -48.167601   56.517391 -100.503790    3.639416    0.000000    0.000000    0.000000    0.000000
  0.040040080  -48.122227   56.626060  -99.325244    3.478674    0.000000    0.000000    0.000000    0.000000
  0.040240481  -48.077583   56.246983 -101.564360    7.073596    0.000000    0.000000    0.000000    0.000000
  0.040440882  -48.034680   56.083900 -101.194523    5.969552    0.000000    0.000000    0.000000    0.000000
  0.040641283  -48.013455   55.927658 -101.301740    8.332161    0.000000    0.000000    0.000000    0.000000
  0.040841683  -47.919652   56.029331 -103.736771    1.079296    0.000000    0.000000    0.000000    0.000000
  0.041042084  -47.885574   55.847008 -101.000072   -7.419238    0.000000    0.000000    0.000000    0.000000
  0.041242485  -47.808528   55.549915 -103.630769   13.596824    0.000000    0.000000    0.000000    0.000000
  0.041442886  -47.786558   55.187435 -102.888773    7.096178    0.000000    0.000000    0.000000    0.000000
  0.041643287  -47.710883   55.125229 -100.582799   -4.432116    0.000000    0.000000    0.000000    0.000000
  0.041843687  -47.701822   54.953785 -100.735523    1.469413    0.000000    0.000000    0.000000    0.000000
  0.042044088  -47.633720   54.723286 -100.599816    7.577117    0.000000    0.000000    0.000000    0.000000
  0.042244489  -47.603175   54.774445 -100.709633    5.866189    0.000000    0.000000    0.000000    0.000000
  0.042444890  -47.544363   54.364834 -102.080081   11.067049    0.000000    0.000000    0.000000    0.000000
  0.042645291  -47.488338   54.471058 -100.707247   13.241035    0.000000    0.000000    0.000000    0.000000
  0.042845691  -47.479893   54.305939 -103.917616   -0.675919    0.000000    0.000000    0.000000    0.000000
  0.043046092  -47.453027   53.847023 -101.603865   14.343924    0.000000    0.000000    0.000000    0.000000
  0.043246493  -47.395247   54.045021 -102.382701    5.085374    0.000000    0.000000    0.000000    0.000000
  0.043446894  -47.294116   53.680260 -101.617880   -5.933110    0.000000    0.000000    0.000000    0.000000
  0.043647295  -47.268945   53.560989 -102.662788    7.056651    0.000000    0.000000    0.000000    0.000000
  0.043847695  -47.222998   53.494598 -102.531422   -3.032573    0.000000    0.000000    0.000000    0.000000
  0.044048096  -47.221378   53.276791 -101.718936    4.679686    0.000000    0.000000    0.000000    0.000000
  0.044248497  -47.114457   52.877647 -102.160010   14.258224    0.000000    0.000000    0.000000    0.000000
  0.044448898  -47.074956   52.971169 -101.070603    8.287488    0.000000    0.000000    0.000000    0.000000
  0.044649299  -47.049664   52.712120 -102.851402   -9.009177    0.000000    0.000000    0.000000    0.000000
  0.044849699  -46.978527   52.324615 -102.855223   10.179740    0.000000    0.000000    0.000000    0.000000
  0.045050100  -46.956783   52.370716 -101.157455   14.587537    0.000000    0.000000    0.000000    0.000000
  0.045250501  -46.884619   52.127968 -100.208770   13.256805    0.000000    0.000000    0.000000    0.000000
  0.045450902  -46.858181   52.176250 -103.912318    9.204579    0.000000    0.000000    0.000000    0.000000
  0.045651303  -46.784107   51.890991 -103.641247   11.255574    0.000000    0.000000    0.000000    0.000000
  0.045851703  -46.765795   51.879162 -102.658800   12.295367    0.000000    0.000000    0.000000    0.000000
  0.046052104  -46.696799   51.525963 -101.270915    9.045137    0.000000    0.000000    0.000000    0.000000
  0.046252505  -46.680366   51.191807 -102.268678    8.306725    0.000000    0.000000    0.000000    0.000000
  0.046452906  -46.656853   51.281036 -103.180963    5.224030    0.000000    0.000000    0.000000    0.000000
  0.046653307  -46.590264   51.146805 -103.029456   -2.691064    0.000000    0.000000    0.000000    0.000000
  0.046853707  -46.545160   50.882210 -103.881810    9.924179    0.000000    0.000000    0.000000    0.000000
  0.047054108  -46.494017   50.553547 -103.501825   18.658028    0.000000    0.000000    0.000000    0.000000
  0.047254509  -46.405429   50.585011 -102.799033    6.666440    0.000000    0.000000    0.000000    0.000000
  0.047454910  -46.395826   50.416138 -103.526255   -1.962257    0.000000    0.000000    0.000000    0.000000
  0.047655311  -46.344013   50.365749 -104.092132    0.946309    0.000000    0.000000    0.000000    0.000000
  0.047855711  -46.327489   49.887184 -101.064782   14.175423    0.000000    0.000000    0.000000    0.000000
  0.048056112  -46.266783   49.915222 -102.067646   22.076292    0.000000    0.000000    0.000000    0.000000
  0.048256513  -46.227327   49.598965 -103.691162   11.162521    0.000000    0.000000    0.000000    0.000000
  0.048456914  -46.183791   49.482498 -102.220809    3.877468    0.000000    0.000000    0.000000    0.000000
  0.048657315  -46.112083   49.381996 -101.441169   15.683754    0.000000    0.000000    0.000000    0.000000
  0.048857715  -46.100776   49.111088 -103.472819    8.540671    0.000000    0.000000    0.000000    0.000000
  0.049058116  -46.072560   49.025818 -103.531363    9.930866    0.000000    0.000000    0.000000    0.000000
  0.049258517  -45.997123   48.912617 -102.873684   13.355127    0.000000    0.000000    0.000000    0.000000
  0.049458918  -45.963123   48.579239 -104.223087    4.995965    0.000000    0.000000    0.000000    0.000000
  0.049659319  -45.905584   48.641068 -102.977497   14.013572    0.000000    0.000000    0.000000    0.000000
  0.049859719  -45.868890   48.456169 -102.099010   -0.017609    0.000000    0.000000    0.000000    0.000000
  0.050060120  -45.811826   48.053917 -102.340598   17.626047    0.000000    0.000000    0.000000    0.000000
  0.050260521  -45.802176   48.039124 -103.288268    9.319320    0.000000    0.000000    0.000000    0.000000
  0.050460922  -45.760797   47.870960 -103.771890   29.011932    0.000000    0.000000    0.000000    0.000000
  0.050661323  -45.717598   47.528942 -103.643065    1.733337    0.000000    0.000000    0.000000    0.000000
  0.050861723  -45.660430   47.389946 -102.823909   -4.424082    0.000000    0.000000    0.000000    0.000000
  0.051062124  -45.612231   47.369209 -103.820000   14.547861    0.000000    0.000000    0.000000    0.000000
  0.051262525  -45.569904   47.272991 -101.394847    7.124249    0.000000    0.000000    0.000000    0.000000
  0.051462926  -45.549532   46.988941 -104.853477   26.533915    0.000000    0.000000    0.000000    0.000000
  0.051663327  -45.509336   46.886345 -102.130459    5.083473    0.000000    0.000000    0.000000    0.000000
  0.051863727  -45.443431   46.772629 -102.441144   23.221859    0.000000    0.000000    0.000000    0.000000
  0.052064128  -45.410569   46.576344 -103.332888   10.908919    0.000000    0.000000    0.000000    0.000000
  0.052264529  -45.358370   46.171108 -101.892703   11.931186    0.000000    0.000000    0.000000    0.000000
  0.052464930  -45.347669   45.994690 -103.770308    9.583797    0.000000    0.000000    0.000000    0.000000
  0.052665331  -45.255220   45.931252 -103.000387   16.011988    0.000000    0.000000    0.000000    0.000000
  0.052865731  -45.240851   45.876667 -104.020308   17.801506    0.000000    0.000000    0.000000    0.000000
