! Anritsu VNA Master:                     Model: MS2036C/10/77
! SN:                                  1601066
! /bd0/18may08.cable.cal/unused.49p99.1.s2p
! Existing Calibration Information:
! TYPE:                         Current Settings,       Active Cal Settings
! TIME:             	   05/08/2018 04:29:48 PM,    05/08/2018 04:21:58 PM
! INTERNAL TEMP:    	                   50.0 C,                    50.0 C
! # POINTS:         	                      500,                       500
! START FREQ:       	               20.000 MHz,                20.000 MHz
! STOP FREQ:        	              120.000 MHz,               120.000 MHz
! SOURCE POWER:     	                     High,                      High
! IFBW:             	                    50 Hz,                     50 Hz
! AVG FACTOR:       	                       1 ,                        1 
! REF PLANE 1:      	                     0 mm,                      0 mm
! REF PLANE 2:      	                     0 mm,                      0 mm
! CAL TYPE:         	                 Full S11,                  Full S11
! CAL METHOD:       	                     SOLT,                      SOLT
! CAL LINE TYPE:    	                     Coax,                      Coax
! DUT PORT 1:       	                K-Conn(F),                 K-Conn(F)
! DUT PORT 2:       	                K-Conn(F),                 K-Conn(F)
! CAL STATUS:       	        OK: Accuracy High,                        --
# GHZ S DB R 50.0
! FREQ.GHZ       S11DB        S11A       S21DB        S21A       S12DB        S12A       S22DB        S22A
  0.020000000  -39.769624   57.821152  -91.867941   37.937485    0.000000    0.000000    0.000000    0.000000
  0.020200401  -39.708647   58.017902  -91.842945   37.889244    0.000000    0.000000    0.000000    0.000000
  0.020400802  -39.642378   58.032341  -91.552423   35.140396    0.000000    0.000000    0.000000    0.000000
  0.020601202  -39.602781   57.649700  -91.508433   35.960117    0.000000    0.000000    0.000000    0.000000
  0.020801603  -39.592053   56.998119  -91.279665   36.978104    0.000000    0.000000    0.000000    0.000000
  0.021002004  -39.516591   57.488533  -92.267107   33.018482    0.000000    0.000000    0.000000    0.000000
  0.021202405  -39.518472   57.070766  -92.113497   35.238029    0.000000    0.000000    0.000000    0.000000
  0.021402806  -39.361716   56.748920  -92.234225   31.899693    0.000000    0.000000    0.000000    0.000000
  0.021603206  -39.315765   56.852207  -92.413608   29.531542    0.000000    0.000000    0.000000    0.000000
  0.021803607  -39.267670   57.202297  -92.290285   28.446230    0.000000    0.000000    0.000000    0.000000
  0.022004008  -39.180915   57.157360  -92.776625   30.022739    0.000000    0.000000    0.000000    0.000000
  0.022204409  -39.152389   56.866318  -92.678285   32.928192    0.000000    0.000000    0.000000    0.000000
  0.022404810  -39.110997   56.664272  -92.720805   28.482527    0.000000    0.000000    0.000000    0.000000
  0.022605210  -38.969642   56.695404  -92.303952   25.872025    0.000000    0.000000    0.000000    0.000000
  0.022805611  -39.008466   56.522991  -92.994432   24.303488    0.000000    0.000000    0.000000    0.000000
  0.023006012  -38.860243   55.752449  -92.253706   30.690187    0.000000    0.000000    0.000000    0.000000
  0.023206413  -38.804960   55.820747  -92.727462   28.367027    0.000000    0.000000    0.000000    0.000000
  0.023406814  -38.797297   56.049400  -92.160943   27.968168    0.000000    0.000000    0.000000    0.000000
  0.023607214  -38.737525   55.850048  -93.807740   31.707272    0.000000    0.000000    0.000000    0.000000
  0.023807615  -38.662595   55.673374  -93.079171   29.062454    0.000000    0.000000    0.000000    0.000000
  0.024008016  -38.629785   55.570107  -94.127060   25.997839    0.000000    0.000000    0.000000    0.000000
  0.024208417  -38.547411   55.498035  -93.759053   28.744473    0.000000    0.000000    0.000000    0.000000
  0.024408818  -38.569572   55.723988  -94.671600   26.865852    0.000000    0.000000    0.000000    0.000000
  0.024609218  -38.479041   55.413143  -94.341297   29.743811    0.000000    0.000000    0.000000    0.000000
  0.024809619  -38.490359   55.187725  -93.496638   28.195770    0.000000    0.000000    0.000000    0.000000
  0.025010020  -38.350365   55.042297  -94.228349   23.744118    0.000000    0.000000    0.000000    0.000000
  0.025210421  -38.289695   55.170933  -94.028582   28.126431    0.000000    0.000000    0.000000    0.000000
  0.025410822  -38.284445   55.235439  -94.335889   22.315830    0.000000    0.000000    0.000000    0.000000
  0.025611222  -38.167584   55.153561  -95.087984   27.682428    0.000000    0.000000    0.000000    0.000000
  0.025811623  -38.194143   55.044086  -95.731322   20.907803    0.000000    0.000000    0.000000    0.000000
  0.026012024  -38.077069   54.447292  -95.084106   21.504328    0.000000    0.000000    0.000000    0.000000
  0.026212425  -38.012107   54.982925  -95.755981   18.283323    0.000000    0.000000    0.000000    0.000000
  0.026412826  -38.054795   55.139488  -94.584057   24.445145    0.000000    0.000000    0.000000    0.000000
  0.026613226  -37.965915   54.614086  -94.845793   15.234701    0.000000    0.000000    0.000000    0.000000
  0.026813627  -37.861259   54.169426  -95.630824   20.005774    0.000000    0.000000    0.000000    0.000000
  0.027014028  -37.841790   54.107845  -95.565612   20.557386    0.000000    0.000000    0.000000    0.000000
  0.027214429  -37.833041   54.272919  -95.992358   19.660709    0.000000    0.000000    0.000000    0.000000
  0.027414830  -37.733655   54.712959  -95.785128   18.191463    0.000000    0.000000    0.000000    0.000000
  0.027615230  -37.709969   53.974186  -95.254669   21.974411    0.000000    0.000000    0.000000    0.000000
  0.027815631  -37.617302   53.857269  -95.737880   20.970381    0.000000    0.000000    0.000000    0.000000
  0.028016032  -37.639974   54.216347  -95.327920   16.511570    0.000000    0.000000    0.000000    0.000000
  0.028216433  -37.510152   54.024063  -95.908588   15.595976    0.000000    0.000000    0.000000    0.000000
  0.028416834  -37.503332   53.959965  -95.432149   17.949364    0.000000    0.000000    0.000000    0.000000
  0.028617234  -37.475516   53.706051  -96.195993   20.086636    0.000000    0.000000    0.000000    0.000000
  0.028817635  -37.451033   53.606400  -95.951003   17.617992    0.000000    0.000000    0.000000    0.000000
  0.029018036  -37.366049   53.596851  -96.659081   23.802940    0.000000    0.000000    0.000000    0.000000
  0.029218437  -37.310687   53.268764  -96.581146   21.384638    0.000000    0.000000    0.000000    0.000000
  0.029418838  -37.282255   53.192368  -95.719928   17.221113    0.000000    0.000000    0.000000    0.000000
  0.029619238  -37.284427   53.280167  -96.645375   15.991809    0.000000    0.000000    0.000000    0.000000
  0.029819639  -37.180428   52.822762  -96.296950   15.244678    0.000000    0.000000    0.000000    0.000000
  0.030020040  -37.156207   53.078564  -97.424329   17.168371    0.000000    0.000000    0.000000    0.000000
  0.030220441  -37.117919   52.859406  -96.371499   10.105034    0.000000    0.000000    0.000000    0.000000
  0.030420842  -37.103715   52.860226  -97.065189   16.268496    0.000000    0.000000    0.000000    0.000000
  0.030621242  -37.040197   52.704159  -96.420651   17.522844    0.000000    0.000000    0.000000    0.000000
  0.030821643  -36.997259   52.379269  -97.150607   11.513782    0.000000    0.000000    0.000000    0.000000
  0.031022044  -36.922586   52.309963  -97.374043   19.002203    0.000000    0.000000    0.000000    0.000000
  0.031222445  -36.920777   52.681324  -98.191376   12.666494    0.000000    0.000000    0.000000    0.000000
  0.031422846  -36.844101   52.402798  -96.733559   14.126822    0.000000    0.000000    0.000000    0.000000
  0.031623246  -36.852974   52.032623  -96.694107   13.988225    0.000000    0.000000    0.000000    0.000000
  0.031823647  -36.783018   52.283566  -97.441506   15.881093    0.000000    0.000000    0.000000    0.000000
  0.032024048  -36.754691   51.884911  -97.978289   17.354988    0.000000    0.000000    0.000000    0.000000
  0.032224449  -36.693347   51.974304  -97.776046    9.668063    0.000000    0.000000    0.000000    0.000000
  0.032424850  -36.656239   51.587040  -96.691770   15.727497    0.000000    0.000000    0.000000    0.000000
  0.032625251  -36.628128   51.554985  -97.230155   18.937916    0.000000    0.000000    0.000000    0.000000
  0.032825651  -36.566515   51.780212  -98.942216   11.467513    0.000000    0.000000    0.000000    0.000000
  0.033026052  -36.460985   51.551605  -97.066230   19.229094    0.000000    0.000000    0.000000    0.000000
  0.033226453  -36.505556   50.672367  -97.496024   16.279623    0.000000    0.000000    0.000000    0.000000
  0.033426854  -36.466357   50.839893  -98.978665   10.411138    0.000000    0.000000    0.000000    0.000000
  0.033627255  -36.411268   50.982349  -98.496774   22.348499    0.000000    0.000000    0.000000    0.000000
  0.033827655  -36.417801   50.983734  -99.513139    6.828628    0.000000    0.000000    0.000000    0.000000
  0.034028056  -36.353350   51.053734  -97.924687   10.207340    0.000000    0.000000    0.000000    0.000000
  0.034228457  -36.356867   50.753239  -98.441175    3.947364    0.000000    0.000000    0.000000    0.000000
  0.034428858  -36.254672   50.766094  -98.195994   15.656250    0.000000    0.000000    0.000000    0.000000
  0.034629259  -36.253707   50.431690  -98.052732   14.939439    0.000000    0.000000    0.000000    0.000000
  0.034829659  -36.180180   50.298191  -98.151763    1.677389    0.000000    0.000000    0.000000    0.000000
  0.035030060  -36.227687   50.212574 -100.384201   17.082674    0.000000    0.000000    0.000000    0.000000
  0.035230461  -36.147588   49.780071  -98.607671   12.550705    0.000000    0.000000    0.000000    0.000000
  0.035430862  -36.161418   50.524593  -98.271649    7.385203    0.000000    0.000000    0.000000    0.000000
  0.035631263  -36.070959   49.943878  -98.120002   15.091351    0.000000    0.000000    0.000000    0.000000
  0.035831663  -36.027717   49.713638  -98.698781    8.359480    0.000000    0.000000    0.000000    0.000000
  0.036032064  -36.013445   49.888554  -97.737867   12.056032    0.000000    0.000000    0.000000    0.000000
  0.036232465  -36.006573   49.640549  -99.405102   16.126760    0.000000    0.000000    0.000000    0.000000
  0.036432866  -35.915398   49.470348  -98.461297   18.154764    0.000000    0.000000    0.000000    0.000000
  0.036633267  -35.906949   49.433270 -100.316521    9.248470    0.000000    0.000000    0.000000    0.000000
  0.036833667  -35.859814   49.571213  -98.721529    7.837815    0.000000    0.000000    0.000000    0.000000
  0.037034068  -35.801057   49.405758  -99.301626   -2.220789    0.000000    0.000000    0.000000    0.000000
  0.037234469  -35.810699   49.298031  -99.484654    5.667397    0.000000    0.000000    0.000000    0.000000
  0.037434870  -35.773974   49.200195 -100.523566    6.272377    0.000000    0.000000    0.000000    0.000000
  0.037635271  -35.725509   49.093098  -99.249221    6.501774    0.000000    0.000000    0.000000    0.000000
  0.037835671  -35.708320   48.583813 -100.638589   -2.090515    0.000000    0.000000    0.000000    0.000000
  0.038036072  -35.714954   48.874367  -98.539364    8.592091    0.000000    0.000000    0.000000    0.000000
  0.038236473  -35.642734   48.682182  -98.702868    3.308439    0.000000    0.000000    0.000000    0.000000
  0.038436874  -35.619106   48.248619  -99.856733   -1.869185    0.000000    0.000000    0.000000    0.000000
  0.038637275  -35.549085   48.421616 -100.546635   -2.501273    0.000000    0.000000    0.000000    0.000000
  0.038837675  -35.484785   48.579536 -100.673982    9.701080    0.000000    0.000000    0.000000    0.000000
  0.039038076  -35.502894   48.079197  -98.580850    3.535335    0.000000    0.000000    0.000000    0.000000
  0.039238477  -35.466028   48.025223 -100.324471    9.756942    0.000000    0.000000    0.000000    0.000000
  0.039438878  -35.459867   48.244164 -100.980968    1.175414    0.000000    0.000000    0.000000    0.000000
  0.039639279  -35.382419   47.583122  -99.345577   10.239829    0.000000    0.000000    0.000000    0.000000
  0.039839679  -35.360831   47.589783 -101.282022   -1.557425    0.000000    0.000000    0.000000    0.000000
  0.040040080  -35.369632   47.641434 -101.610140   -0.464124    0.000000    0.000000    0.000000    0.000000
  0.040240481  -35.339145   47.286217 -100.024812    3.795845    0.000000    0.000000    0.000000    0.000000
  0.040440882  -35.264263   47.392105 -102.352402   11.133887    0.000000    0.000000    0.000000    0.000000
  0.040641283  -35.241955   47.293591 -100.391116   -3.081056    0.000000    0.000000    0.000000    0.000000
  0.040841683  -35.205972   47.127209  -98.638272   14.208241    0.000000    0.000000    0.000000    0.000000
  0.041042084  -35.173211   47.321320  -99.832387    8.161107    0.000000    0.000000    0.000000    0.000000
  0.041242485  -35.135208   47.022415  -99.949847   13.389407    0.000000    0.000000    0.000000    0.000000
  0.041442886  -35.129854   46.939484 -100.248190    7.072453    0.000000    0.000000    0.000000    0.000000
  0.041643287  -35.131219   46.870594  -99.885458    2.027596    0.000000    0.000000    0.000000    0.000000
  0.041843687  -35.042743   46.645248  -99.916234   -4.396109    0.000000    0.000000    0.000000    0.000000
  0.042044088  -34.997225   46.583328 -101.197931   11.014521    0.000000    0.000000    0.000000    0.000000
  0.042244489  -35.002156   46.438789  -99.282059    4.606154    0.000000    0.000000    0.000000    0.000000
  0.042444890  -34.954156   46.372368 -101.845731   -5.096978    0.000000    0.000000    0.000000    0.000000
  0.042645291  -34.919544   46.306400 -100.799786   13.801006    0.000000    0.000000    0.000000    0.000000
  0.042845691  -34.861078   46.136608 -101.343612   -2.458507    0.000000    0.000000    0.000000    0.000000
  0.043046092  -34.861942   45.919182 -100.247880   -5.601107    0.000000    0.000000    0.000000    0.000000
  0.043246493  -34.843954   45.726608 -101.874494   -2.220554    0.000000    0.000000    0.000000    0.000000
  0.043446894  -34.830033   45.702652 -101.532269   10.532986    0.000000    0.000000    0.000000    0.000000
  0.043647295  -34.783895   45.751606 -102.619437   16.767126    0.000000    0.000000    0.000000    0.000000
  0.043847695  -34.731863   45.903748 -100.279411    8.732657    0.000000    0.000000    0.000000    0.000000
  0.044048096  -34.757831   45.796326 -103.242743   13.933924    0.000000    0.000000    0.000000    0.000000
  0.044248497  -34.684342   45.638893 -101.902105    5.037070    0.000000    0.000000    0.000000    0.000000
  0.044448898  -34.704171   45.604897 -101.241717    4.112094    0.000000    0.000000    0.000000    0.000000
  0.044649299  -34.664720   44.992985 -103.815600    5.028638    0.000000    0.000000    0.000000    0.000000
  0.044849699  -34.638340   44.962631 -101.275685   10.846658    0.000000    0.000000    0.000000    0.000000
  0.045050100  -34.573386   44.995010 -101.362143   10.883733    0.000000    0.000000    0.000000    0.000000
  0.045250501  -34.566532   44.886211 -101.720553    4.381348    0.000000    0.000000    0.000000    0.000000
  0.045450902  -34.528154   44.941738 -101.302651    7.914128    0.000000    0.000000    0.000000    0.000000
  0.045651303  -34.491591   44.523617 -101.104746   -6.166888    0.000000    0.000000    0.000000    0.000000
  0.045851703  -34.444461   44.530254 -103.486412    1.246141    0.000000    0.000000    0.000000    0.000000
  0.046052104  -34.455623   44.539066 -101.478133   11.163385    0.000000    0.000000    0.000000    0.000000
  0.046252505  -34.463852   44.071228 -102.085645   -1.835206    0.000000    0.000000    0.000000    0.000000
  0.046452906  -34.388188   44.346851 -101.636956    8.349326    0.000000    0.000000    0.000000    0.000000
  0.046653307  -34.371594   44.470173 -102.597192    8.132288    0.000000    0.000000    0.000000    0.000000
  0.046853707  -34.353378   44.090794 -101.324309   -7.053286    0.000000    0.000000    0.000000    0.000000
  0.047054108  -34.299703   43.953033 -101.798350   14.786985    0.000000    0.000000    0.000000    0.000000
  0.047254509  -34.307611   44.012463 -101.176445   -1.452795    0.000000    0.000000    0.000000    0.000000
  0.047454910  -34.253651   43.931595 -100.039670    8.088712    0.000000    0.000000    0.000000    0.000000
  0.047655311  -34.196273   43.512131 -101.799131    8.947380    0.000000    0.000000    0.000000    0.000000
  0.047855711  -34.256924   43.847725 -103.396436   11.282271    0.000000    0.000000    0.000000    0.000000
  0.048056112  -34.165872   43.427475 -103.011010   -2.957936    0.000000    0.000000    0.000000    0.000000
  0.048256513  -34.210710   43.180401 -102.261211   15.144286    0.000000    0.000000    0.000000    0.000000
  0.048456914  -34.132824   43.298340 -101.587644    6.314162    0.000000    0.000000    0.000000    0.000000
  0.048657315  -34.096759   43.327995 -104.128560   17.834568    0.000000    0.000000    0.000000    0.000000
  0.048857715  -34.100289   42.910927 -101.929954    3.892182    0.000000    0.000000    0.000000    0.000000
  0.049058116  -34.082125   42.489204 -102.379877   -1.995462    0.000000    0.000000    0.000000    0.000000
  0.049258517  -34.040748   43.083813 -102.261672    9.573851    0.000000    0.000000    0.000000    0.000000
  0.049458918  -33.989017   42.740273 -103.181981    1.099713    0.000000    0.000000    0.000000    0.000000
  0.049659319  -34.024604   42.491924 -100.960744    9.485973    0.000000    0.000000    0.000000    0.000000
  0.049859719  -33.980755   42.323048 -102.210285    8.510621    0.000000    0.000000    0.000000    0.000000
  0.050060120  -33.938832   42.168808 -103.557085    0.942563    0.000000    0.000000    0.000000    0.000000
  0.050260521  -33.959999   42.063740 -103.888764   10.706147    0.000000    0.000000    0.000000    0.000000
  0.050460922  -33.935809   42.007130 -103.245989   -4.893714    0.000000    0.000000    0.000000    0.000000
  0.050661323  -33.894134   41.532452 -101.707424    4.244468    0.000000    0.000000    0.000000    0.000000
  0.050861723  -33.843290   41.887493 -101.122170    9.635585    0.000000    0.000000    0.000000    0.000000
  0.051062124  -33.819398   41.458389 -103.384196    3.742373    0.000000    0.000000    0.000000    0.000000
  0.051262525  -33.809168   41.446049 -103.743156    3.834002    0.000000    0.000000    0.000000    0.000000
  0.051462926  -33.753179   41.352631 -103.382503   12.826437    0.000000    0.000000    0.000000    0.000000
  0.051663327  -33.740507   41.186138 -101.680856    8.831942    0.000000    0.000000    0.000000    0.000000
  0.051863727  -33.732933   41.141708 -102.224755   -2.758530    0.000000    0.000000    0.000000    0.000000
  0.052064128  -33.698077   40.994808 -102.613872   -8.124956    0.000000    0.000000    0.000000    0.000000
  0.052264529  -33.660836   41.188911 -102.586740    2.922759    0.000000    0.000000    0.000000    0.000000
  0.052464930  -33.660523   40.866081 -101.957774   -0.376259    0.000000    0.000000    0.000000    0.000000
  0.052665331  -33.688637   40.757977 -102.856218    4.936938    0.000000    0.000000    0.000000    0.000000
  0.052865731  -33.620012   40.581501 -100.925239    6.500922    0.000000    0.000000    0.000000    0.000000
