! Anritsu VNA Master:                     Model: MS2036C/10/77
! SN:                                  1601066
! /bd0/18may07/256.ns.m2.s2p
! Existing Calibration Information:
! TYPE:                         Current Settings,       Active Cal Settings
! TIME:             	   05/07/2018 03:01:25 PM,    05/07/2018 02:58:54 PM
! INTERNAL TEMP:    	                   59.0 C,                    58.8 C
! # POINTS:         	                      500,                       500
! START FREQ:       	               20.000 MHz,                20.000 MHz
! STOP FREQ:        	              120.000 MHz,               120.000 MHz
! SOURCE POWER:     	                     High,                      High
! IFBW:             	                    50 Hz,                     50 Hz
! AVG FACTOR:       	                       1 ,                        1 
! REF PLANE 1:      	                     0 mm,                      0 mm
! REF PLANE 2:      	                     0 mm,                      0 mm
! CAL TYPE:         	                 Full S11,                  Full S11
! CAL METHOD:       	                     SOLT,                      SOLT
! CAL LINE TYPE:    	                     Coax,                      Coax
! DUT PORT 1:       	                K-Conn(F),                 K-Conn(F)
! DUT PORT 2:       	                K-Conn(F),                 K-Conn(F)
! CAL STATUS:       	        OK: Accuracy High,                        --
# GHZ S DB R 50.0
! FREQ.GHZ       S11DB        S11A       S21DB        S21A       S12DB        S12A       S22DB        S22A
  0.020000000   -0.620193 -125.877998  -91.597814   29.233322    0.000000    0.000000    0.000000    0.000000
  0.020200401   -0.619919 -127.349068  -91.191749   29.006519    0.000000    0.000000    0.000000    0.000000
  0.020400802   -0.620466 -128.812851  -91.960853   30.132069    0.000000    0.000000    0.000000    0.000000
  0.020601202   -0.622411 -130.280716  -92.173530   28.235254    0.000000    0.000000    0.000000    0.000000
  0.020801603   -0.628001 -131.785446  -92.621287   27.992931    0.000000    0.000000    0.000000    0.000000
  0.021002004   -0.633606 -133.313675  -92.590527   29.557432    0.000000    0.000000    0.000000    0.000000
  0.021202405   -0.641739 -134.843719  -93.056709   29.276039    0.000000    0.000000    0.000000    0.000000
  0.021402806   -0.646164 -136.385590  -92.533287   21.613440    0.000000    0.000000    0.000000    0.000000
  0.021603206   -0.651283 -137.929230  -93.331564   28.661175    0.000000    0.000000    0.000000    0.000000
  0.021803607   -0.657047 -139.482727  -93.296503   31.905815    0.000000    0.000000    0.000000    0.000000
  0.022004008   -0.662944 -141.027237  -93.259579   27.573740    0.000000    0.000000    0.000000    0.000000
  0.022204409   -0.669615 -142.606873  -93.772411   33.677113    0.000000    0.000000    0.000000    0.000000
  0.022404810   -0.677717 -144.183228  -93.186386   32.890343    0.000000    0.000000    0.000000    0.000000
  0.022605210   -0.682738 -145.779297  -92.932500   27.888596    0.000000    0.000000    0.000000    0.000000
  0.022805611   -0.687237 -147.379135  -94.043414   36.533386    0.000000    0.000000    0.000000    0.000000
  0.023006012   -0.690273 -148.987457  -93.118078   34.582691    0.000000    0.000000    0.000000    0.000000
  0.023206413   -0.690311 -150.587494  -93.119761   34.678020    0.000000    0.000000    0.000000    0.000000
  0.023406814   -0.693554 -152.194412  -92.636747   29.650139    0.000000    0.000000    0.000000    0.000000
  0.023607214   -0.700317 -153.800888  -92.944388   31.444189    0.000000    0.000000    0.000000    0.000000
  0.023807615   -0.707767 -155.397095  -93.465622   26.267572    0.000000    0.000000    0.000000    0.000000
  0.024008016   -0.716525 -157.044418  -93.199153   30.409740    0.000000    0.000000    0.000000    0.000000
  0.024208417   -0.727235 -158.689240  -92.887612   23.421246    0.000000    0.000000    0.000000    0.000000
  0.024408818   -0.738138 -160.353653  -93.436580   21.730694    0.000000    0.000000    0.000000    0.000000
  0.024609218   -0.745802 -162.007477  -93.144384   24.802355    0.000000    0.000000    0.000000    0.000000
  0.024809619   -0.756061 -163.664581  -93.628388   20.316160    0.000000    0.000000    0.000000    0.000000
  0.025010020   -0.768728 -165.324585  -93.471116   20.641531    0.000000    0.000000    0.000000    0.000000
  0.025210421   -0.779348 -167.010757  -94.054094   15.838993    0.000000    0.000000    0.000000    0.000000
  0.025410822   -0.794014 -168.702316  -94.334662   15.783817    0.000000    0.000000    0.000000    0.000000
  0.025611222   -0.808290 -170.395782  -94.569150   15.489477    0.000000    0.000000    0.000000    0.000000
  0.025811623   -0.821242 -172.124405  -94.179974   12.991605    0.000000    0.000000    0.000000    0.000000
  0.026012024   -0.833543 -173.867050  -95.354761   15.289466    0.000000    0.000000    0.000000    0.000000
  0.026212425   -0.845404 -175.605774  -95.481082   12.725085    0.000000    0.000000    0.000000    0.000000
  0.026412826   -0.858651 -177.343857  -95.542850    9.558425    0.000000    0.000000    0.000000    0.000000
  0.026613226   -0.873625 -179.098495  -95.629382   15.828200    0.000000    0.000000    0.000000    0.000000
  0.026813627   -0.889935  179.136703  -96.348965   13.495858    0.000000    0.000000    0.000000    0.000000
  0.027014028   -0.906203  177.356812  -96.261382   16.575706    0.000000    0.000000    0.000000    0.000000
  0.027214429   -0.925177  175.567642  -97.160567   19.767851    0.000000    0.000000    0.000000    0.000000
  0.027414830   -0.940917  173.760178  -95.821080   17.309216    0.000000    0.000000    0.000000    0.000000
  0.027615230   -0.957638  171.953598  -96.872255   23.519440    0.000000    0.000000    0.000000    0.000000
  0.027815631   -0.976828  170.123505  -96.320808   21.479731    0.000000    0.000000    0.000000    0.000000
  0.028016032   -0.997771  168.295776  -96.197248   28.250051    0.000000    0.000000    0.000000    0.000000
  0.028216433   -1.019616  166.444733  -96.988445   19.883373    0.000000    0.000000    0.000000    0.000000
  0.028416834   -1.040030  164.601669  -96.586416   18.020943    0.000000    0.000000    0.000000    0.000000
  0.028617234   -1.059983  162.752243  -96.092646   21.589306    0.000000    0.000000    0.000000    0.000000
  0.028817635   -1.079580  160.900864  -95.842985   22.571379    0.000000    0.000000    0.000000    0.000000
  0.029018036   -1.098583  159.054825  -95.988778   23.347542    0.000000    0.000000    0.000000    0.000000
  0.029218437   -1.118336  157.223267  -95.987218   23.686935    0.000000    0.000000    0.000000    0.000000
  0.029418838   -1.141031  155.387726  -95.412163   17.121620    0.000000    0.000000    0.000000    0.000000
  0.029619238   -1.166373  153.536774  -95.701153   17.623926    0.000000    0.000000    0.000000    0.000000
  0.029819639   -1.193832  151.657944  -96.121692   17.185139    0.000000    0.000000    0.000000    0.000000
  0.030020040   -1.225650  149.746490  -96.405616   18.298178    0.000000    0.000000    0.000000    0.000000
  0.030220441   -1.255425  147.824158  -96.777889   14.255727    0.000000    0.000000    0.000000    0.000000
  0.030420842   -1.285440  145.881195  -97.178534   20.733624    0.000000    0.000000    0.000000    0.000000
  0.030621242   -1.317010  143.968948  -97.727344   16.049036    0.000000    0.000000    0.000000    0.000000
  0.030821643   -1.349314  142.043701  -96.390972    8.518612    0.000000    0.000000    0.000000    0.000000
  0.031022044   -1.383696  140.111298  -97.263269    9.533422    0.000000    0.000000    0.000000    0.000000
  0.031222445   -1.413534  138.185425  -96.985277    5.388976    0.000000    0.000000    0.000000    0.000000
  0.031422846   -1.451611  136.212509  -96.728839    5.972545    0.000000    0.000000    0.000000    0.000000
  0.031623246   -1.488852  134.205154  -99.110553    6.953352    0.000000    0.000000    0.000000    0.000000
  0.031823647   -1.526507  132.196655  -96.876614   14.007883    0.000000    0.000000    0.000000    0.000000
  0.032024048   -1.563564  130.183456  -97.133693    4.811792    0.000000    0.000000    0.000000    0.000000
  0.032224449   -1.600686  128.177124  -99.086069    9.761788    0.000000    0.000000    0.000000    0.000000
  0.032424850   -1.637560  126.166855  -98.091349   13.510752    0.000000    0.000000    0.000000    0.000000
  0.032625251   -1.671598  124.145874  -97.548691    5.387070    0.000000    0.000000    0.000000    0.000000
  0.032825651   -1.709731  122.148903  -97.798120    5.399900    0.000000    0.000000    0.000000    0.000000
  0.033026052   -1.747846  120.132622  -98.658935    5.890966    0.000000    0.000000    0.000000    0.000000
  0.033226453   -1.790245  118.146225  -98.810866    9.082708    0.000000    0.000000    0.000000    0.000000
  0.033426854   -1.836566  116.161041  -97.304109    8.282983    0.000000    0.000000    0.000000    0.000000
  0.033627255   -1.885383  114.153366  -98.091459    9.326883    0.000000    0.000000    0.000000    0.000000
  0.033827655   -1.936930  112.116043  -98.364719    9.657567    0.000000    0.000000    0.000000    0.000000
  0.034028056   -1.989989  110.087082  -98.971747   14.813548    0.000000    0.000000    0.000000    0.000000
  0.034228457   -2.039874  107.971375  -97.613683   15.870802    0.000000    0.000000    0.000000    0.000000
  0.034428858   -2.090038  105.851021  -98.557261   13.387325    0.000000    0.000000    0.000000    0.000000
  0.034629259   -2.138619  103.721825  -99.216736    9.976348    0.000000    0.000000    0.000000    0.000000
  0.034829659   -2.187000  101.596466  -97.961422   13.772962    0.000000    0.000000    0.000000    0.000000
  0.035030060   -2.232164   99.480453  -97.561904    2.955625    0.000000    0.000000    0.000000    0.000000
  0.035230461   -2.277140   97.381859  -99.141077   10.204260    0.000000    0.000000    0.000000    0.000000
  0.035430862   -2.319626   95.259575  -99.958458    2.051757    0.000000    0.000000    0.000000    0.000000
  0.035631263   -2.363538   93.174164  -98.277509    4.762057    0.000000    0.000000    0.000000    0.000000
  0.035831663   -2.407957   91.097092  -98.512696    1.213861    0.000000    0.000000    0.000000    0.000000
  0.036032064   -2.450165   89.021194  -99.959055    4.834845    0.000000    0.000000    0.000000    0.000000
  0.036232465   -2.494829   86.984779 -100.778552   -6.025843    0.000000    0.000000    0.000000    0.000000
  0.036432866   -2.543084   84.937584  -99.077360    5.505324    0.000000    0.000000    0.000000    0.000000
  0.036633267   -2.594016   82.885750  -99.410507    6.334404    0.000000    0.000000    0.000000    0.000000
  0.036833667   -2.648082   80.828918  -99.319387    1.327291    0.000000    0.000000    0.000000    0.000000
  0.037034068   -2.706536   78.784973  -99.390418   -1.663309    0.000000    0.000000    0.000000    0.000000
  0.037234469   -2.767666   76.706139 -100.765660    0.680170    0.000000    0.000000    0.000000    0.000000
  0.037434870   -2.833222   74.616714 -101.261941    4.162988    0.000000    0.000000    0.000000    0.000000
  0.037635271   -2.904837   72.521362  -99.521684    2.177016    0.000000    0.000000    0.000000    0.000000
  0.037835671   -2.976815   70.495697 -100.265101    4.608802    0.000000    0.000000    0.000000    0.000000
  0.038036072   -3.034959   68.479286  -99.927343   -0.008631    0.000000    0.000000    0.000000    0.000000
  0.038236473   -3.085398   66.394867  -99.691986    9.179076    0.000000    0.000000    0.000000    0.000000
  0.038436874   -3.133066   64.238396 -100.287880   13.026405    0.000000    0.000000    0.000000    0.000000
  0.038637275   -3.182774   62.094486  -99.729953   10.245441    0.000000    0.000000    0.000000    0.000000
  0.038837675   -3.228736   59.960262 -100.539471   13.693544    0.000000    0.000000    0.000000    0.000000
  0.039038076   -3.274137   57.877659  -99.821786   11.374936    0.000000    0.000000    0.000000    0.000000
  0.039238477   -3.319230   55.789673 -100.136407   12.336698    0.000000    0.000000    0.000000    0.000000
  0.039438878   -3.364951   53.734592 -100.058614   16.937374    0.000000    0.000000    0.000000    0.000000
  0.039639279   -3.416609   51.715427  -98.852056   11.568132    0.000000    0.000000    0.000000    0.000000
  0.039839679   -3.472144   49.676872 -100.782957   16.769295    0.000000    0.000000    0.000000    0.000000
  0.040040080   -3.527643   47.625141  -99.061289   10.512138    0.000000    0.000000    0.000000    0.000000
  0.040240481   -3.583518   45.569702  -99.203146   10.655813    0.000000    0.000000    0.000000    0.000000
  0.040440882   -3.641571   43.498089 -100.411272   11.804914    0.000000    0.000000    0.000000    0.000000
  0.040641283   -3.698998   41.431953 -101.128956   16.574625    0.000000    0.000000    0.000000    0.000000
  0.040841683   -3.755979   39.357655 -100.002073   -3.309433    0.000000    0.000000    0.000000    0.000000
  0.041042084   -3.809319   37.319946 -100.385351    5.810884    0.000000    0.000000    0.000000    0.000000
  0.041242485   -3.862308   35.255611  -99.514810    0.552686    0.000000    0.000000    0.000000    0.000000
  0.041442886   -3.915591   33.215813 -101.162451   -6.163815    0.000000    0.000000    0.000000    0.000000
  0.041643287   -3.968414   31.142405 -101.627217   -5.980985    0.000000    0.000000    0.000000    0.000000
  0.041843687   -4.017935   29.095840 -102.416474   -1.330498    0.000000    0.000000    0.000000    0.000000
  0.042044088   -4.066600   27.063416 -101.263240   -0.906862    0.000000    0.000000    0.000000    0.000000
  0.042244489   -4.114961   25.064785 -100.605221    3.258122    0.000000    0.000000    0.000000    0.000000
  0.042444890   -4.162498   23.045309 -100.031050    1.428472    0.000000    0.000000    0.000000    0.000000
  0.042645291   -4.211034   21.055286 -101.149898    3.492573    0.000000    0.000000    0.000000    0.000000
  0.042845691   -4.261559   19.065929 -100.882660    0.696708    0.000000    0.000000    0.000000    0.000000
  0.043046092   -4.310092   17.092192 -101.141300   12.193898    0.000000    0.000000    0.000000    0.000000
  0.043246493   -4.358628   15.119021 -104.107970   18.322428    0.000000    0.000000    0.000000    0.000000
  0.043446894   -4.404750   13.148917 -103.049193    6.286963    0.000000    0.000000    0.000000    0.000000
  0.043647295   -4.452029   11.172815 -104.528768   14.141057    0.000000    0.000000    0.000000    0.000000
  0.043847695   -4.496905    9.207977 -103.636942    3.309843    0.000000    0.000000    0.000000    0.000000
  0.044048096   -4.544449    7.235161 -103.194255    9.824180    0.000000    0.000000    0.000000    0.000000
  0.044248497   -4.589768    5.287707 -102.423852   14.440645    0.000000    0.000000    0.000000    0.000000
  0.044448898   -4.638245    3.338023 -102.594893   13.094547    0.000000    0.000000    0.000000    0.000000
  0.044649299   -4.684426    1.391236 -101.849365   20.364962    0.000000    0.000000    0.000000    0.000000
  0.044849699   -4.730009   -0.537747 -100.766742    4.648580    0.000000    0.000000    0.000000    0.000000
  0.045050100   -4.773591   -2.442037 -101.168387   11.338688    0.000000    0.000000    0.000000    0.000000
  0.045250501   -4.814181   -4.373936 -101.572676   -1.956569    0.000000    0.000000    0.000000    0.000000
  0.045450902   -4.853486   -6.301505 -101.117860    3.741616    0.000000    0.000000    0.000000    0.000000
  0.045651303   -4.893391   -8.197667 -100.455260    7.529963    0.000000    0.000000    0.000000    0.000000
  0.045851703   -4.932869  -10.104725  -99.975323    7.196959    0.000000    0.000000    0.000000    0.000000
  0.046052104   -4.974063  -11.976428 -101.610234    6.256571    0.000000    0.000000    0.000000    0.000000
  0.046252505   -5.013445  -13.856040 -103.487805    0.917848    0.000000    0.000000    0.000000    0.000000
  0.046452906   -5.052828  -15.712020 -102.735254    6.291086    0.000000    0.000000    0.000000    0.000000
  0.046653307   -5.090694  -17.562428 -101.215553    0.429326    0.000000    0.000000    0.000000    0.000000
  0.046853707   -5.126610  -19.435631 -100.333039   -2.523273    0.000000    0.000000    0.000000    0.000000
  0.047054108   -5.163641  -21.265150 -100.476895    1.044877    0.000000    0.000000    0.000000    0.000000
  0.047254509   -5.196157  -23.102980 -100.793915   -4.887136    0.000000    0.000000    0.000000    0.000000
  0.047454910   -5.230401  -24.893082 -101.729872  -19.826868    0.000000    0.000000    0.000000    0.000000
  0.047655311   -5.260576  -26.706802 -102.926941   -3.703147    0.000000    0.000000    0.000000    0.000000
  0.047855711   -5.287692  -28.475410 -101.908828   -7.366784    0.000000    0.000000    0.000000    0.000000
  0.048056112   -5.315578  -30.193752 -103.008250   -8.423446    0.000000    0.000000    0.000000    0.000000
  0.048256513   -5.347127  -31.946236 -102.797803  -10.491929    0.000000    0.000000    0.000000    0.000000
  0.048456914   -5.380596  -33.661812 -104.686220   -2.523647    0.000000    0.000000    0.000000    0.000000
  0.048657315   -5.409858  -35.391148 -102.713371    2.437894    0.000000    0.000000    0.000000    0.000000
  0.048857715   -5.434306  -37.120155 -103.321673   11.110024    0.000000    0.000000    0.000000    0.000000
  0.049058116   -5.463888  -38.825226 -104.814209   -9.679852    0.000000    0.000000    0.000000    0.000000
  0.049258517   -5.492096  -40.541027 -104.053683    1.996698    0.000000    0.000000    0.000000    0.000000
  0.049458918   -5.514942  -42.222466 -104.513375    6.560573    0.000000    0.000000    0.000000    0.000000
  0.049659319   -5.542135  -43.907852 -103.778387   27.736801    0.000000    0.000000    0.000000    0.000000
  0.049859719   -5.571029  -45.559067 -105.863042   19.234407    0.000000    0.000000    0.000000    0.000000
  0.050060120   -5.595913  -47.235641 -103.531065   23.078583    0.000000    0.000000    0.000000    0.000000
  0.050260521   -5.620662  -48.897491 -102.484474    8.592957    0.000000    0.000000    0.000000    0.000000
  0.050460922   -5.640341  -50.567314 -104.181431   -9.643465    0.000000    0.000000    0.000000    0.000000
  0.050661323   -5.659834  -52.231857 -105.041225   11.954295    0.000000    0.000000    0.000000    0.000000
  0.050861723   -5.678423  -53.880417 -103.121286   21.126637    0.000000    0.000000    0.000000    0.000000
  0.051062124   -5.699051  -55.490173 -102.895923    7.537310    0.000000    0.000000    0.000000    0.000000
  0.051262525   -5.715743  -57.096130 -101.740504   11.540070    0.000000    0.000000    0.000000    0.000000
  0.051462926   -5.730600  -58.656231 -104.305858   11.904679    0.000000    0.000000    0.000000    0.000000
  0.051663327   -5.748365  -60.211189 -101.491449   -2.009313    0.000000    0.000000    0.000000    0.000000
  0.051863727   -5.762320  -61.754009 -102.247760   -2.750894    0.000000    0.000000    0.000000    0.000000
  0.052064128   -5.782570  -63.292297 -101.505171    0.985394    0.000000    0.000000    0.000000    0.000000
  0.052264529   -5.801600  -64.815125 -103.090443   -0.117036    0.000000    0.000000    0.000000    0.000000
  0.052464930   -5.815885  -66.333710 -106.441037   21.465139    0.000000    0.000000    0.000000    0.000000
  0.052665331   -5.836798  -67.880646 -103.052294   -0.977443    0.000000    0.000000    0.000000    0.000000
  0.052865731   -5.856850  -69.396500 -102.190581   -3.255896    0.000000    0.000000    0.000000    0.000000
