! Anritsu VNA Master:                     Model: MS2036C/10/77
! SN:                                  1601066
! /bd0/18may07/256.ns.m10.s2p
! Existing Calibration Information:
! TYPE:                         Current Settings,       Active Cal Settings
! TIME:             	   05/07/2018 03:24:03 PM,    05/07/2018 03:13:55 PM
! INTERNAL TEMP:    	                   61.8 C,                    60.5 C
! # POINTS:         	                      500,                       500
! START FREQ:       	               20.000 MHz,                20.000 MHz
! STOP FREQ:        	              120.000 MHz,               120.000 MHz
! SOURCE POWER:     	                     High,                      High
! IFBW:             	                    50 Hz,                     50 Hz
! AVG FACTOR:       	                       1 ,                        1 
! REF PLANE 1:      	                     0 mm,                      0 mm
! REF PLANE 2:      	                     0 mm,                      0 mm
! CAL TYPE:         	                 Full S11,                  Full S11
! CAL METHOD:       	                     SOLT,                      SOLT
! CAL LINE TYPE:    	                     Coax,                      Coax
! DUT PORT 1:       	                K-Conn(F),                 K-Conn(F)
! DUT PORT 2:       	                K-Conn(F),                 K-Conn(F)
! CAL STATUS:       	        OK: Accuracy High,                        --
# GHZ S DB R 50.0
! FREQ.GHZ       S11DB        S11A       S21DB        S21A       S12DB        S12A       S22DB        S22A
  0.020000000   -0.622298 -125.905205  -91.126247   25.054338    0.000000    0.000000    0.000000    0.000000
  0.020200401   -0.622096 -127.378235  -91.476666   25.879568    0.000000    0.000000    0.000000    0.000000
  0.020400802   -0.623631 -128.849640  -91.854240   21.402088    0.000000    0.000000    0.000000    0.000000
  0.020601202   -0.628974 -130.315811  -92.344360   24.701962    0.000000    0.000000    0.000000    0.000000
  0.020801603   -0.630981 -131.819473  -91.509884   26.099857    0.000000    0.000000    0.000000    0.000000
  0.021002004   -0.637397 -133.333725  -92.908684   23.070097    0.000000    0.000000    0.000000    0.000000
  0.021202405   -0.645417 -134.862015  -92.809466   29.794477    0.000000    0.000000    0.000000    0.000000
  0.021402806   -0.650574 -136.408707  -93.246471   26.795630    0.000000    0.000000    0.000000    0.000000
  0.021603206   -0.655219 -137.953384  -93.426944   29.525879    0.000000    0.000000    0.000000    0.000000
  0.021803607   -0.659520 -139.491074  -93.964800   28.782892    0.000000    0.000000    0.000000    0.000000
  0.022004008   -0.663949 -141.024796  -92.782722   32.935730    0.000000    0.000000    0.000000    0.000000
  0.022204409   -0.670699 -142.600632  -93.223133   36.272022    0.000000    0.000000    0.000000    0.000000
  0.022404810   -0.677447 -144.175583  -94.228097   32.067352    0.000000    0.000000    0.000000    0.000000
  0.022605210   -0.683985 -145.744003  -93.774207   32.597008    0.000000    0.000000    0.000000    0.000000
  0.022805611   -0.688814 -147.351318  -93.386606   36.719307    0.000000    0.000000    0.000000    0.000000
  0.023006012   -0.689501 -148.953613  -93.048209   31.711090    0.000000    0.000000    0.000000    0.000000
  0.023206413   -0.690168 -150.550339  -93.665523   34.221619    0.000000    0.000000    0.000000    0.000000
  0.023406814   -0.691933 -152.149963  -93.194896   32.553257    0.000000    0.000000    0.000000    0.000000
  0.023607214   -0.699918 -153.733429  -92.693388   30.377861    0.000000    0.000000    0.000000    0.000000
  0.023807615   -0.706965 -155.357956  -92.930799   28.023499    0.000000    0.000000    0.000000    0.000000
  0.024008016   -0.716781 -156.981308  -93.388467   26.625565    0.000000    0.000000    0.000000    0.000000
  0.024208417   -0.726076 -158.631165  -93.688731   25.363993    0.000000    0.000000    0.000000    0.000000
  0.024408818   -0.737865 -160.286194  -93.612855   20.529888    0.000000    0.000000    0.000000    0.000000
  0.024609218   -0.745007 -161.952194  -93.355854   19.693228    0.000000    0.000000    0.000000    0.000000
  0.024809619   -0.754524 -163.613632  -93.920152   23.490273    0.000000    0.000000    0.000000    0.000000
  0.025010020   -0.768205 -165.286972  -94.283585   21.577204    0.000000    0.000000    0.000000    0.000000
  0.025210421   -0.780059 -166.973129  -94.052158   17.764454    0.000000    0.000000    0.000000    0.000000
  0.025410822   -0.794373 -168.670654  -94.234967   16.789249    0.000000    0.000000    0.000000    0.000000
  0.025611222   -0.809080 -170.371552  -94.848042   19.000071    0.000000    0.000000    0.000000    0.000000
  0.025811623   -0.823108 -172.110428  -95.225355   17.464687    0.000000    0.000000    0.000000    0.000000
  0.026012024   -0.835296 -173.864838  -95.165198   16.286760    0.000000    0.000000    0.000000    0.000000
  0.026212425   -0.845942 -175.600082  -95.253282   15.293415    0.000000    0.000000    0.000000    0.000000
  0.026412826   -0.859743 -177.348938  -95.881370   16.882904    0.000000    0.000000    0.000000    0.000000
  0.026613226   -0.874948 -179.109558  -95.230416   21.201780    0.000000    0.000000    0.000000    0.000000
  0.026813627   -0.891586  179.113831  -96.481779   15.839005    0.000000    0.000000    0.000000    0.000000
  0.027014028   -0.907493  177.333069  -96.316862   15.662091    0.000000    0.000000    0.000000    0.000000
  0.027214429   -0.925997  175.526260  -96.038982   24.309574    0.000000    0.000000    0.000000    0.000000
  0.027414830   -0.942042  173.713684  -97.165123   16.683128    0.000000    0.000000    0.000000    0.000000
  0.027615230   -0.959343  171.900284  -97.286177   20.817593    0.000000    0.000000    0.000000    0.000000
  0.027815631   -0.978867  170.067459  -96.417791   19.768255    0.000000    0.000000    0.000000    0.000000
  0.028016032   -0.999948  168.221161  -97.664109   18.365829    0.000000    0.000000    0.000000    0.000000
  0.028216433   -1.020349  166.386292  -96.842787   21.240253    0.000000    0.000000    0.000000    0.000000
  0.028416834   -1.041340  164.535156  -96.530562   19.673088    0.000000    0.000000    0.000000    0.000000
  0.028617234   -1.060803  162.677475  -96.194014   19.299137    0.000000    0.000000    0.000000    0.000000
  0.028817635   -1.078184  160.830170  -96.430125   23.934511    0.000000    0.000000    0.000000    0.000000
  0.029018036   -1.098159  158.998856  -96.940031   19.079464    0.000000    0.000000    0.000000    0.000000
  0.029218437   -1.117431  157.144547  -96.506276   23.195114    0.000000    0.000000    0.000000    0.000000
  0.029418838   -1.142146  155.320877  -96.480171   19.662722    0.000000    0.000000    0.000000    0.000000
  0.029619238   -1.166307  153.452209  -96.738336   19.164595    0.000000    0.000000    0.000000    0.000000
  0.029819639   -1.193789  151.569351  -97.136767   12.566534    0.000000    0.000000    0.000000    0.000000
  0.030020040   -1.226045  149.665802  -96.584857   15.803990    0.000000    0.000000    0.000000    0.000000
  0.030220441   -1.255371  147.731720  -96.065374   13.230079    0.000000    0.000000    0.000000    0.000000
  0.030420842   -1.285654  145.809174  -96.337026   11.940036    0.000000    0.000000    0.000000    0.000000
  0.030621242   -1.315927  143.891998  -97.003461   12.015555    0.000000    0.000000    0.000000    0.000000
  0.030821643   -1.347707  141.963486  -97.790520    7.863302    0.000000    0.000000    0.000000    0.000000
  0.031022044   -1.383505  140.035248  -96.988367    9.646764    0.000000    0.000000    0.000000    0.000000
  0.031222445   -1.415471  138.104095  -96.007266   14.111606    0.000000    0.000000    0.000000    0.000000
  0.031422846   -1.450427  136.128204  -97.843127   11.460704    0.000000    0.000000    0.000000    0.000000
  0.031623246   -1.490602  134.141632  -98.137231    7.054764    0.000000    0.000000    0.000000    0.000000
  0.031823647   -1.528653  132.116486  -96.942099   10.816719    0.000000    0.000000    0.000000    0.000000
  0.032024048   -1.565287  130.125107  -98.029719   12.539125    0.000000    0.000000    0.000000    0.000000
  0.032224449   -1.603146  128.096649  -97.670763    6.756430    0.000000    0.000000    0.000000    0.000000
  0.032424850   -1.640611  126.102219  -98.370178   -4.602080    0.000000    0.000000    0.000000    0.000000
  0.032625251   -1.675733  124.081711  -97.603778   -0.604927    0.000000    0.000000    0.000000    0.000000
  0.032825651   -1.714585  122.080849  -98.760879    7.177047    0.000000    0.000000    0.000000    0.000000
  0.033026052   -1.751413  120.065903  -97.214652   13.525222    0.000000    0.000000    0.000000    0.000000
  0.033226453   -1.790785  118.072289  -97.739609    7.627362    0.000000    0.000000    0.000000    0.000000
  0.033426854   -1.837068  116.078064  -98.891168   14.629524    0.000000    0.000000    0.000000    0.000000
  0.033627255   -1.886723  114.082054  -98.055085   11.755237    0.000000    0.000000    0.000000    0.000000
  0.033827655   -1.937425  112.055618  -97.487986   13.369058    0.000000    0.000000    0.000000    0.000000
  0.034028056   -1.990288  110.014626  -98.015009   12.356356    0.000000    0.000000    0.000000    0.000000
  0.034228457   -2.039007  107.922920  -97.797915   10.980042    0.000000    0.000000    0.000000    0.000000
  0.034428858   -2.092584  105.800850 -100.047533   11.351014    0.000000    0.000000    0.000000    0.000000
  0.034629259   -2.141810  103.685608  -97.907326    2.987586    0.000000    0.000000    0.000000    0.000000
  0.034829659   -2.186853  101.560081  -97.787719    9.081769    0.000000    0.000000    0.000000    0.000000
  0.035030060   -2.234064   99.430946  -98.350363    8.908068    0.000000    0.000000    0.000000    0.000000
  0.035230461   -2.279229   97.319893  -99.473697   12.926739    0.000000    0.000000    0.000000    0.000000
  0.035430862   -2.323065   95.207199  -99.431825    6.564995    0.000000    0.000000    0.000000    0.000000
  0.035631263   -2.366488   93.113411  -99.698739    7.938983    0.000000    0.000000    0.000000    0.000000
  0.035831663   -2.409733   91.036827  -98.682054   -4.686283    0.000000    0.000000    0.000000    0.000000
  0.036032064   -2.455336   88.977058 -100.140812    4.488814    0.000000    0.000000    0.000000    0.000000
  0.036232465   -2.499763   86.917984  -98.963287    4.925533    0.000000    0.000000    0.000000    0.000000
  0.036432866   -2.547767   84.854301  -99.609807    4.007129    0.000000    0.000000    0.000000    0.000000
  0.036633267   -2.596419   82.816032 -100.598010   11.362319    0.000000    0.000000    0.000000    0.000000
  0.036833667   -2.653084   80.775925  -99.876948    8.521688    0.000000    0.000000    0.000000    0.000000
  0.037034068   -2.712188   78.706451  -99.183536    5.340465    0.000000    0.000000    0.000000    0.000000
  0.037234469   -2.773770   76.639816  -99.842690   13.607782    0.000000    0.000000    0.000000    0.000000
  0.037434870   -2.841200   74.565216 -100.794283    4.483944    0.000000    0.000000    0.000000    0.000000
  0.037635271   -2.909868   72.473206  -99.782071   10.279037    0.000000    0.000000    0.000000    0.000000
  0.037835671   -2.984307   70.424179  -99.078455    1.682598    0.000000    0.000000    0.000000    0.000000
  0.038036072   -3.042978   68.419586  -99.987139    9.950130    0.000000    0.000000    0.000000    0.000000
  0.038236473   -3.093357   66.332710  -99.392883   12.067465    0.000000    0.000000    0.000000    0.000000
  0.038436874   -3.143596   64.201828 -100.189824    5.619422    0.000000    0.000000    0.000000    0.000000
  0.038637275   -3.196394   62.069344  -99.876395   10.561913    0.000000    0.000000    0.000000    0.000000
  0.038837675   -3.244296   59.964806  -99.382182    2.238976    0.000000    0.000000    0.000000    0.000000
  0.039038076   -3.288747   57.862446  -99.903225    8.889692    0.000000    0.000000    0.000000    0.000000
  0.039238477   -3.331609   55.797256 -100.974639    9.953878    0.000000    0.000000    0.000000    0.000000
  0.039438878   -3.381263   53.744728  -98.491458   18.966934    0.000000    0.000000    0.000000    0.000000
  0.039639279   -3.429902   51.711048 -101.423525    2.238838    0.000000    0.000000    0.000000    0.000000
  0.039839679   -3.484296   49.660969  -98.414012    5.982179    0.000000    0.000000    0.000000    0.000000
  0.040040080   -3.541457   47.617493  -99.736104    7.452759    0.000000    0.000000    0.000000    0.000000
  0.040240481   -3.599305   45.571106 -102.002588   11.397127    0.000000    0.000000    0.000000    0.000000
  0.040440882   -3.659680   43.493465  -99.971188   16.107307    0.000000    0.000000    0.000000    0.000000
  0.040641283   -3.715983   41.422157 -100.428446    3.412804    0.000000    0.000000    0.000000    0.000000
  0.040841683   -3.774168   39.347801 -100.354894   13.532639    0.000000    0.000000    0.000000    0.000000
  0.041042084   -3.827021   37.293766 -101.653137    3.538305    0.000000    0.000000    0.000000    0.000000
  0.041242485   -3.882518   35.233017  -99.872541    4.401221    0.000000    0.000000    0.000000    0.000000
  0.041442886   -3.934390   33.170643  -99.584531   -7.963163    0.000000    0.000000    0.000000    0.000000
  0.041643287   -3.987332   31.120104 -100.190402   -4.267698    0.000000    0.000000    0.000000    0.000000
  0.041843687   -4.038074   29.049623 -102.557560   -0.314707    0.000000    0.000000    0.000000    0.000000
  0.042044088   -4.086406   27.004507 -101.460154   -7.069955    0.000000    0.000000    0.000000    0.000000
  0.042244489   -4.136321   24.965017 -100.311813   -4.409050    0.000000    0.000000    0.000000    0.000000
  0.042444890   -4.183928   22.978834 -101.773043   -2.948113    0.000000    0.000000    0.000000    0.000000
  0.042645291   -4.232911   20.969009 -101.109987   -2.340944    0.000000    0.000000    0.000000    0.000000
  0.042845691   -4.283072   18.988695 -102.595140   -3.923232    0.000000    0.000000    0.000000    0.000000
  0.043046092   -4.330884   16.985519 -102.777968    5.597257    0.000000    0.000000    0.000000    0.000000
  0.043246493   -4.376236   15.000179 -102.421955   13.655768    0.000000    0.000000    0.000000    0.000000
  0.043446894   -4.421987   13.032900 -101.243509    8.125334    0.000000    0.000000    0.000000    0.000000
  0.043647295   -4.469578   11.060987 -101.861780   -0.773656    0.000000    0.000000    0.000000    0.000000
  0.043847695   -4.514672    9.090487 -104.301095    0.790762    0.000000    0.000000    0.000000    0.000000
  0.044048096   -4.562708    7.126235 -103.198186    1.498061    0.000000    0.000000    0.000000    0.000000
  0.044248497   -4.607525    5.164816 -101.206029   21.261915    0.000000    0.000000    0.000000    0.000000
  0.044448898   -4.653472    3.224867 -100.197438    4.510509    0.000000    0.000000    0.000000    0.000000
  0.044649299   -4.700398    1.289951 -104.812991   -3.068713    0.000000    0.000000    0.000000    0.000000
  0.044849699   -4.743102   -0.609642 -101.739362    4.645429    0.000000    0.000000    0.000000    0.000000
  0.045050100   -4.784690   -2.534949 -103.633258    6.046426    0.000000    0.000000    0.000000    0.000000
  0.045250501   -4.824516   -4.460544 -100.999230   18.072264    0.000000    0.000000    0.000000    0.000000
  0.045450902   -4.860918   -6.356729 -101.704226    7.958086    0.000000    0.000000    0.000000    0.000000
  0.045651303   -4.898970   -8.247754 -100.797690    4.602379    0.000000    0.000000    0.000000    0.000000
  0.045851703   -4.941268  -10.125923 -102.229360   12.751621    0.000000    0.000000    0.000000    0.000000
  0.046052104   -4.982608  -11.995770 -100.061173   -3.763952    0.000000    0.000000    0.000000    0.000000
  0.046252505   -5.020384  -13.855028 -101.408553    6.044511    0.000000    0.000000    0.000000    0.000000
  0.046452906   -5.059420  -15.708913 -101.053310   -2.436251    0.000000    0.000000    0.000000    0.000000
  0.046653307   -5.100821  -17.558931 -101.105871   -8.200450    0.000000    0.000000    0.000000    0.000000
  0.046853707   -5.136117  -19.407068 -101.678423   -1.432746    0.000000    0.000000    0.000000    0.000000
  0.047054108   -5.174725  -21.229038 -101.144006   -0.937929    0.000000    0.000000    0.000000    0.000000
  0.047254509   -5.209975  -23.048964 -105.027657  -12.480737    0.000000    0.000000    0.000000    0.000000
  0.047454910   -5.242253  -24.853392 -101.841237    5.934614    0.000000    0.000000    0.000000    0.000000
  0.047655311   -5.273118  -26.642071 -101.914708   -7.012548    0.000000    0.000000    0.000000    0.000000
  0.047855711   -5.301784  -28.391617 -103.271602   -1.590296    0.000000    0.000000    0.000000    0.000000
  0.048056112   -5.334583  -30.130444 -101.762118   -5.368641    0.000000    0.000000    0.000000    0.000000
  0.048256513   -5.367391  -31.877394 -102.619614   -0.025264    0.000000    0.000000    0.000000    0.000000
  0.048456914   -5.395289  -33.621368 -102.345501   -5.745830    0.000000    0.000000    0.000000    0.000000
  0.048657315   -5.428717  -35.345573 -103.403516  -13.895864    0.000000    0.000000    0.000000    0.000000
  0.048857715   -5.456193  -37.063805 -102.294496    7.451198    0.000000    0.000000    0.000000    0.000000
  0.049058116   -5.485379  -38.797150 -103.484975    1.597135    0.000000    0.000000    0.000000    0.000000
  0.049258517   -5.513452  -40.492844 -101.008547   10.526451    0.000000    0.000000    0.000000    0.000000
  0.049458918   -5.536694  -42.182201 -103.779076   -4.130997    0.000000    0.000000    0.000000    0.000000
  0.049659319   -5.563962  -43.903255 -102.540146    9.288027    0.000000    0.000000    0.000000    0.000000
  0.049859719   -5.593095  -45.540199 -104.982143   11.617839    0.000000    0.000000    0.000000    0.000000
  0.050060120   -5.618390  -47.230522 -103.257963    4.973588    0.000000    0.000000    0.000000    0.000000
  0.050260521   -5.641232  -48.906208 -102.107685   18.653353    0.000000    0.000000    0.000000    0.000000
  0.050460922   -5.664098  -50.576672 -105.048924   28.079588    0.000000    0.000000    0.000000    0.000000
  0.050661323   -5.683590  -52.244144 -104.248016    9.752710    0.000000    0.000000    0.000000    0.000000
  0.050861723   -5.701587  -53.862976 -102.201347    5.975992    0.000000    0.000000    0.000000    0.000000
  0.051062124   -5.720201  -55.494625 -104.284825   16.048626    0.000000    0.000000    0.000000    0.000000
  0.051262525   -5.736238  -57.098106 -101.506149   14.402577    0.000000    0.000000    0.000000    0.000000
  0.051462926   -5.754886  -58.666660 -102.451044    0.542309    0.000000    0.000000    0.000000    0.000000
  0.051663327   -5.768600  -60.208698 -103.203899   19.786861    0.000000    0.000000    0.000000    0.000000
  0.051863727   -5.785470  -61.754658 -100.698735    9.768414    0.000000    0.000000    0.000000    0.000000
  0.052064128   -5.803299  -63.294106 -101.474903    5.603850    0.000000    0.000000    0.000000    0.000000
  0.052264529   -5.822784  -64.813095 -100.982745    1.725916    0.000000    0.000000    0.000000    0.000000
  0.052464930   -5.837279  -66.322136 -102.659587  -10.068749    0.000000    0.000000    0.000000    0.000000
  0.052665331   -5.856651  -67.861580 -102.087945    8.026015    0.000000    0.000000    0.000000    0.000000
  0.052865731   -5.874577  -69.356941 -103.376307   -5.686147    0.000000    0.000000    0.000000    0.000000
