! Anritsu VNA Master:                     Model: MS2036C/10/77
! SN:                                  1601066
! /bd0/18may07/256.ns.m11.s2p
! Existing Calibration Information:
! TYPE:                         Current Settings,       Active Cal Settings
! TIME:             	   05/07/2018 03:25:54 PM,    05/07/2018 03:13:55 PM
! INTERNAL TEMP:    	                   62.0 C,                    60.5 C
! # POINTS:         	                      500,                       500
! START FREQ:       	               20.000 MHz,                20.000 MHz
! STOP FREQ:        	              120.000 MHz,               120.000 MHz
! SOURCE POWER:     	                     High,                      High
! IFBW:             	                    50 Hz,                     50 Hz
! AVG FACTOR:       	                       1 ,                        1 
! REF PLANE 1:      	                     0 mm,                      0 mm
! REF PLANE 2:      	                     0 mm,                      0 mm
! CAL TYPE:         	                 Full S11,                  Full S11
! CAL METHOD:       	                     SOLT,                      SOLT
! CAL LINE TYPE:    	                     Coax,                      Coax
! DUT PORT 1:       	                K-Conn(F),                 K-Conn(F)
! DUT PORT 2:       	                K-Conn(F),                 K-Conn(F)
! CAL STATUS:       	        OK: Accuracy High,                        --
# GHZ S DB R 50.0
! FREQ.GHZ       S11DB        S11A       S21DB        S21A       S12DB        S12A       S22DB        S22A
  0.020000000   -0.628167 -125.924812  -91.488987   31.004183    0.000000    0.000000    0.000000    0.000000
  0.020200401   -0.626929 -127.404465  -91.645212   24.766148    0.000000    0.000000    0.000000    0.000000
  0.020400802   -0.628364 -128.862610  -92.155805   24.692728    0.000000    0.000000    0.000000    0.000000
  0.020601202   -0.633118 -130.329880  -92.575550   28.598711    0.000000    0.000000    0.000000    0.000000
  0.020801603   -0.635657 -131.839706  -92.402492   27.101536    0.000000    0.000000    0.000000    0.000000
  0.021002004   -0.642800 -133.348511  -93.020517   25.194353    0.000000    0.000000    0.000000    0.000000
  0.021202405   -0.649438 -134.875092  -93.023190   29.896164    0.000000    0.000000    0.000000    0.000000
  0.021402806   -0.655136 -136.414429  -93.350087   27.795982    0.000000    0.000000    0.000000    0.000000
  0.021603206   -0.659153 -137.961044  -93.707889   31.824638    0.000000    0.000000    0.000000    0.000000
  0.021803607   -0.663085 -139.497650  -94.066126   33.827938    0.000000    0.000000    0.000000    0.000000
  0.022004008   -0.666700 -141.030014  -93.726513   28.527370    0.000000    0.000000    0.000000    0.000000
  0.022204409   -0.673848 -142.589890  -93.308977   31.109842    0.000000    0.000000    0.000000    0.000000
  0.022404810   -0.683238 -144.159149  -93.759037   31.724720    0.000000    0.000000    0.000000    0.000000
  0.022605210   -0.688206 -145.732239  -92.912051   29.332523    0.000000    0.000000    0.000000    0.000000
  0.022805611   -0.691215 -147.330856  -93.188679   35.696968    0.000000    0.000000    0.000000    0.000000
  0.023006012   -0.690745 -148.940414  -92.269877   31.431175    0.000000    0.000000    0.000000    0.000000
  0.023206413   -0.692383 -150.531540  -93.140982   34.392117    0.000000    0.000000    0.000000    0.000000
  0.023406814   -0.696396 -152.128235  -93.602030   31.031828    0.000000    0.000000    0.000000    0.000000
  0.023607214   -0.702653 -153.713577  -92.838991   28.464514    0.000000    0.000000    0.000000    0.000000
  0.023807615   -0.708587 -155.338196  -93.040420   26.504427    0.000000    0.000000    0.000000    0.000000
  0.024008016   -0.718300 -156.957657  -92.920716   30.069286    0.000000    0.000000    0.000000    0.000000
  0.024208417   -0.728827 -158.602310  -93.645565   22.252235    0.000000    0.000000    0.000000    0.000000
  0.024408818   -0.739678 -160.261703  -93.379211   17.950201    0.000000    0.000000    0.000000    0.000000
  0.024609218   -0.747431 -161.924713  -93.075146   19.026817    0.000000    0.000000    0.000000    0.000000
  0.024809619   -0.758313 -163.588745  -93.990188   25.524645    0.000000    0.000000    0.000000    0.000000
  0.025010020   -0.769546 -165.268204  -93.939440   20.492891    0.000000    0.000000    0.000000    0.000000
  0.025210421   -0.781772 -166.948318  -93.616921   19.394718    0.000000    0.000000    0.000000    0.000000
  0.025410822   -0.796692 -168.643143  -93.902820   15.188581    0.000000    0.000000    0.000000    0.000000
  0.025611222   -0.812283 -170.358078  -94.929454   18.615166    0.000000    0.000000    0.000000    0.000000
  0.025811623   -0.825510 -172.095825  -95.272642   15.877615    0.000000    0.000000    0.000000    0.000000
  0.026012024   -0.839058 -173.847198  -94.862348   15.059216    0.000000    0.000000    0.000000    0.000000
  0.026212425   -0.848914 -175.591309  -95.710198   17.624254    0.000000    0.000000    0.000000    0.000000
  0.026412826   -0.862174 -177.341034  -96.085276   12.105589    0.000000    0.000000    0.000000    0.000000
  0.026613226   -0.877329 -179.100616  -95.976791   14.648444    0.000000    0.000000    0.000000    0.000000
  0.026813627   -0.894868  179.117584  -96.443671   17.080057    0.000000    0.000000    0.000000    0.000000
  0.027014028   -0.910496  177.329071  -96.677510   16.441986    0.000000    0.000000    0.000000    0.000000
  0.027214429   -0.928450  175.529541  -96.260409   15.082278    0.000000    0.000000    0.000000    0.000000
  0.027414830   -0.944918  173.714951  -96.772281   19.058001    0.000000    0.000000    0.000000    0.000000
  0.027615230   -0.961649  171.904984  -96.644228   22.567808    0.000000    0.000000    0.000000    0.000000
  0.027815631   -0.982426  170.066147  -97.413041   17.877800    0.000000    0.000000    0.000000    0.000000
  0.028016032   -1.002610  168.226974  -97.506734   22.872185    0.000000    0.000000    0.000000    0.000000
  0.028216433   -1.022941  166.388977  -96.543241   19.140537    0.000000    0.000000    0.000000    0.000000
  0.028416834   -1.042595  164.539169  -96.204723   21.542665    0.000000    0.000000    0.000000    0.000000
  0.028617234   -1.062678  162.684067  -96.700025   19.870506    0.000000    0.000000    0.000000    0.000000
  0.028817635   -1.081250  160.837982  -96.667599   22.273895    0.000000    0.000000    0.000000    0.000000
  0.029018036   -1.100100  159.002090  -96.412063   16.428888    0.000000    0.000000    0.000000    0.000000
  0.029218437   -1.120229  157.154099  -95.768696   13.993762    0.000000    0.000000    0.000000    0.000000
  0.029418838   -1.143213  155.331802  -96.022232   19.784323    0.000000    0.000000    0.000000    0.000000
  0.029619238   -1.167936  153.467133  -96.650933   27.454762    0.000000    0.000000    0.000000    0.000000
  0.029819639   -1.195755  151.581009  -96.026655   18.394148    0.000000    0.000000    0.000000    0.000000
  0.030020040   -1.226422  149.681168  -95.915144   15.379617    0.000000    0.000000    0.000000    0.000000
  0.030220441   -1.257218  147.753632  -97.429691   13.357746    0.000000    0.000000    0.000000    0.000000
  0.030420842   -1.287037  145.833496  -96.400475   14.536338    0.000000    0.000000    0.000000    0.000000
  0.030621242   -1.317349  143.908585  -96.739063   13.519762    0.000000    0.000000    0.000000    0.000000
  0.030821643   -1.350099  141.988876  -96.531916   11.266440    0.000000    0.000000    0.000000    0.000000
  0.031022044   -1.384485  140.059280  -97.374557   14.855389    0.000000    0.000000    0.000000    0.000000
  0.031222445   -1.416561  138.141296  -96.719706    6.922104    0.000000    0.000000    0.000000    0.000000
  0.031422846   -1.452887  136.162384  -97.061747    3.878164    0.000000    0.000000    0.000000    0.000000
  0.031623246   -1.492729  134.169968  -98.020049   10.402079    0.000000    0.000000    0.000000    0.000000
  0.031823647   -1.531548  132.157913  -98.409736   10.699209    0.000000    0.000000    0.000000    0.000000
  0.032024048   -1.567435  130.165237  -97.865665    8.017497    0.000000    0.000000    0.000000    0.000000
  0.032224449   -1.604652  128.129761  -98.258021    8.141898    0.000000    0.000000    0.000000    0.000000
  0.032424850   -1.643529  126.141708  -97.454010    1.518639    0.000000    0.000000    0.000000    0.000000
  0.032625251   -1.677125  124.122925  -99.276726   13.782978    0.000000    0.000000    0.000000    0.000000
  0.032825651   -1.717021  122.127350  -97.353822   10.867970    0.000000    0.000000    0.000000    0.000000
  0.033026052   -1.753786  120.100014  -98.052923   14.430719    0.000000    0.000000    0.000000    0.000000
  0.033226453   -1.792892  118.115952 -100.047965   17.482916    0.000000    0.000000    0.000000    0.000000
  0.033426854   -1.840421  116.123993  -99.526888    2.257777    0.000000    0.000000    0.000000    0.000000
  0.033627255   -1.888690  114.124367  -98.630136   15.324301    0.000000    0.000000    0.000000    0.000000
  0.033827655   -1.940616  112.108147  -98.983889   10.980908    0.000000    0.000000    0.000000    0.000000
  0.034028056   -1.993394  110.053093 -100.140153   16.097826    0.000000    0.000000    0.000000    0.000000
  0.034228457   -2.040548  107.966118  -97.816716    3.883702    0.000000    0.000000    0.000000    0.000000
  0.034428858   -2.096753  105.842903  -98.358451    5.338137    0.000000    0.000000    0.000000    0.000000
  0.034629259   -2.144932  103.728371  -98.447652   10.853014    0.000000    0.000000    0.000000    0.000000
  0.034829659   -2.188821  101.591110  -98.154617    8.774373    0.000000    0.000000    0.000000    0.000000
  0.035030060   -2.236682   99.467102  -98.741811   11.091737    0.000000    0.000000    0.000000    0.000000
  0.035230461   -2.282726   97.347855  -97.696888   18.004162    0.000000    0.000000    0.000000    0.000000
  0.035430862   -2.324752   95.252434  -99.291668    7.280411    0.000000    0.000000    0.000000    0.000000
  0.035631263   -2.368380   93.151161  -98.065284    2.862181    0.000000    0.000000    0.000000    0.000000
  0.035831663   -2.411936   91.068916  -99.206144    0.443379    0.000000    0.000000    0.000000    0.000000
  0.036032064   -2.457815   89.007072  -98.664796    9.235045    0.000000    0.000000    0.000000    0.000000
  0.036232465   -2.502833   86.943176  -98.430998    4.742518    0.000000    0.000000    0.000000    0.000000
  0.036432866   -2.550086   84.882042 -101.026537    1.857957    0.000000    0.000000    0.000000    0.000000
  0.036633267   -2.600770   82.840439 -100.126881   11.222365    0.000000    0.000000    0.000000    0.000000
  0.036833667   -2.653704   80.789917 -100.009058    7.426470    0.000000    0.000000    0.000000    0.000000
  0.037034068   -2.714225   78.726212  -99.956179    3.138895    0.000000    0.000000    0.000000    0.000000
  0.037234469   -2.774736   76.647224  -99.971685   11.147576    0.000000    0.000000    0.000000    0.000000
  0.037434870   -2.842228   74.572166 -101.041220   10.799203    0.000000    0.000000    0.000000    0.000000
  0.037635271   -2.911740   72.481735 -100.803713    2.222880    0.000000    0.000000    0.000000    0.000000
  0.037835671   -2.985401   70.448105 -100.520374   14.597341    0.000000    0.000000    0.000000    0.000000
  0.038036072   -3.044807   68.433708 -101.320442    9.703770    0.000000    0.000000    0.000000    0.000000
  0.038236473   -3.093828   66.350815 -100.590200    4.025345    0.000000    0.000000    0.000000    0.000000
  0.038436874   -3.144191   64.224144 -101.182801    6.262072    0.000000    0.000000    0.000000    0.000000
  0.038637275   -3.195669   62.097633  -99.507386   17.657648    0.000000    0.000000    0.000000    0.000000
  0.038837675   -3.242153   59.985756 -101.208023   11.113702    0.000000    0.000000    0.000000    0.000000
  0.039038076   -3.285666   57.884193  -99.785914    3.114305    0.000000    0.000000    0.000000    0.000000
  0.039238477   -3.331214   55.819759 -101.036357   10.952104    0.000000    0.000000    0.000000    0.000000
  0.039438878   -3.379258   53.771301  -99.419887    3.442302    0.000000    0.000000    0.000000    0.000000
  0.039639279   -3.429001   51.740437  -99.398296   10.194408    0.000000    0.000000    0.000000    0.000000
  0.039839679   -3.483594   49.711586  -99.656095    2.795230    0.000000    0.000000    0.000000    0.000000
  0.040040080   -3.539387   47.663746  -99.677862    8.483073    0.000000    0.000000    0.000000    0.000000
  0.040240481   -3.598468   45.613171 -100.499778    1.774879    0.000000    0.000000    0.000000    0.000000
  0.040440882   -3.656546   43.549084 -101.426585   -0.150620    0.000000    0.000000    0.000000    0.000000
  0.040641283   -3.714157   41.471779  -98.516850    0.323152    0.000000    0.000000    0.000000    0.000000
  0.040841683   -3.770901   39.409882 -100.281634    9.294785    0.000000    0.000000    0.000000    0.000000
  0.041042084   -3.825551   37.357563 -100.131249    5.786433    0.000000    0.000000    0.000000    0.000000
  0.041242485   -3.879742   35.295216 -101.821237   -2.705146    0.000000    0.000000    0.000000    0.000000
  0.041442886   -3.933005   33.236610 -100.447280   -8.615378    0.000000    0.000000    0.000000    0.000000
  0.041643287   -3.986044   31.178854 -101.263728    8.955470    0.000000    0.000000    0.000000    0.000000
  0.041843687   -4.036525   29.106657 -100.270397   -0.878005    0.000000    0.000000    0.000000    0.000000
  0.042044088   -4.086013   27.065477 -101.798824    1.953744    0.000000    0.000000    0.000000    0.000000
  0.042244489   -4.135341   25.036503 -101.834706   -3.615379    0.000000    0.000000    0.000000    0.000000
  0.042444890   -4.185055   23.026834 -101.337697    1.384212    0.000000    0.000000    0.000000    0.000000
  0.042645291   -4.234321   21.022636 -102.339031   -3.486635    0.000000    0.000000    0.000000    0.000000
  0.042845691   -4.281622   19.025089 -102.056166    7.015858    0.000000    0.000000    0.000000    0.000000
  0.043046092   -4.332281   17.033125 -103.149542   -4.030065    0.000000    0.000000    0.000000    0.000000
  0.043246493   -4.377989   15.053658 -103.341250    1.212460    0.000000    0.000000    0.000000    0.000000
  0.043446894   -4.423513   13.061658 -101.718002   -0.257212    0.000000    0.000000    0.000000    0.000000
  0.043647295   -4.469236   11.084965 -102.460824   11.086224    0.000000    0.000000    0.000000    0.000000
  0.043847695   -4.515822    9.107083 -100.923647    2.256161    0.000000    0.000000    0.000000    0.000000
  0.044048096   -4.563875    7.142021 -102.736468    7.528214    0.000000    0.000000    0.000000    0.000000
  0.044248497   -4.608205    5.181211 -102.647862    8.079941    0.000000    0.000000    0.000000    0.000000
  0.044448898   -4.652002    3.231732 -101.079519    7.852893    0.000000    0.000000    0.000000    0.000000
  0.044649299   -4.699113    1.325298 -101.319138   17.695908    0.000000    0.000000    0.000000    0.000000
  0.044849699   -4.741257   -0.609888 -101.973261    7.789615    0.000000    0.000000    0.000000    0.000000
  0.045050100   -4.782201   -2.521610 -101.753602   18.127823    0.000000    0.000000    0.000000    0.000000
  0.045250501   -4.821017   -4.461217 -102.229565    0.954989    0.000000    0.000000    0.000000    0.000000
  0.045450902   -4.858462   -6.347329 -101.552887    3.359962    0.000000    0.000000    0.000000    0.000000
  0.045651303   -4.896316   -8.257648 -101.229220    6.588413    0.000000    0.000000    0.000000    0.000000
  0.045851703   -4.935716  -10.110006 -101.548821   21.347582    0.000000    0.000000    0.000000    0.000000
  0.046052104   -4.975530  -11.976300 -101.636670   15.352617    0.000000    0.000000    0.000000    0.000000
  0.046252505   -5.013096  -13.840654 -101.316731    1.411733    0.000000    0.000000    0.000000    0.000000
  0.046452906   -5.053087  -15.671824 -100.275770    7.760041    0.000000    0.000000    0.000000    0.000000
  0.046653307   -5.091295  -17.528044 -101.536471    7.006296    0.000000    0.000000    0.000000    0.000000
  0.046853707   -5.129162  -19.360109 -100.517066    9.897411    0.000000    0.000000    0.000000    0.000000
  0.047054108   -5.165816  -21.195528 -102.230071    4.444677    0.000000    0.000000    0.000000    0.000000
  0.047254509   -5.200769  -23.002748 -101.660933   -8.279396    0.000000    0.000000    0.000000    0.000000
  0.047454910   -5.232785  -24.805342 -101.383868    3.978873    0.000000    0.000000    0.000000    0.000000
  0.047655311   -5.262460  -26.597080 -101.979107    1.297820    0.000000    0.000000    0.000000    0.000000
  0.047855711   -5.293327  -28.340040 -102.981726   -2.722626    0.000000    0.000000    0.000000    0.000000
  0.048056112   -5.326164  -30.069017 -104.131747   -0.885453    0.000000    0.000000    0.000000    0.000000
  0.048256513   -5.357657  -31.818499 -103.331482  -15.127740    0.000000    0.000000    0.000000    0.000000
  0.048456914   -5.387461  -33.546520 -104.176292   10.909156    0.000000    0.000000    0.000000    0.000000
  0.048657315   -5.421761  -35.260769 -102.554252   14.726967    0.000000    0.000000    0.000000    0.000000
  0.048857715   -5.448166  -37.002480 -103.573640   -6.518817    0.000000    0.000000    0.000000    0.000000
  0.049058116   -5.478243  -38.740005 -102.811716   -0.722211    0.000000    0.000000    0.000000    0.000000
  0.049258517   -5.505206  -40.429417 -103.850456  -22.893187    0.000000    0.000000    0.000000    0.000000
  0.049458918   -5.530126  -42.133038 -104.118802  -24.333252    0.000000    0.000000    0.000000    0.000000
  0.049659319   -5.559305  -43.838444 -103.331455   15.661154    0.000000    0.000000    0.000000    0.000000
  0.049859719   -5.586467  -45.488987 -104.614725    2.036384    0.000000    0.000000    0.000000    0.000000
  0.050060120   -5.613669  -47.180794 -104.452847   17.527479    0.000000    0.000000    0.000000    0.000000
  0.050260521   -5.635607  -48.855190 -103.329868   19.715805    0.000000    0.000000    0.000000    0.000000
  0.050460922   -5.659544  -50.529770 -102.042605    1.590586    0.000000    0.000000    0.000000    0.000000
  0.050661323   -5.678610  -52.200867 -104.306678    9.869865    0.000000    0.000000    0.000000    0.000000
  0.050861723   -5.694127  -53.833977 -103.334675   -1.237346    0.000000    0.000000    0.000000    0.000000
  0.051062124   -5.713599  -55.469379 -103.037877    8.645606    0.000000    0.000000    0.000000    0.000000
  0.051262525   -5.729777  -57.089378 -100.731965   21.314106    0.000000    0.000000    0.000000    0.000000
  0.051462926   -5.747484  -58.652050 -102.489991   29.301208    0.000000    0.000000    0.000000    0.000000
  0.051663327   -5.759390  -60.192844 -102.622576   17.306183    0.000000    0.000000    0.000000    0.000000
  0.051863727   -5.775940  -61.758945 -102.448179    6.706229    0.000000    0.000000    0.000000    0.000000
  0.052064128   -5.794469  -63.277271 -100.855793   19.761929    0.000000    0.000000    0.000000    0.000000
  0.052264529   -5.813117  -64.800896 -103.434199   -1.602284    0.000000    0.000000    0.000000    0.000000
  0.052464930   -5.826750  -66.318436 -103.056875   -4.768393    0.000000    0.000000    0.000000    0.000000
  0.052665331   -5.844210  -67.855194 -102.693272    5.495083    0.000000    0.000000    0.000000    0.000000
  0.052865731   -5.860354  -69.342964 -104.612856    5.021618    0.000000    0.000000    0.000000    0.000000
