! Anritsu VNA Master:                     Model: MS2036C/10/77
! SN:                                  1601066
! /bd0/18may07/256.ns.m1.s2p
! Existing Calibration Information:
! TYPE:                         Current Settings,       Active Cal Settings
! TIME:             	   05/07/2018 02:53:09 PM,    05/07/2018 02:45:31 PM
! INTERNAL TEMP:    	                   57.8 C,                    56.0 C
! # POINTS:         	                      500,                       500
! START FREQ:       	               20.000 MHz,                20.000 MHz
! STOP FREQ:        	              120.000 MHz,               120.000 MHz
! SOURCE POWER:     	                     High,                      High
! IFBW:             	                    50 Hz,                     50 Hz
! AVG FACTOR:       	                       1 ,                        1 
! REF PLANE 1:      	                     0 mm,                      0 mm
! REF PLANE 2:      	                     0 mm,                      0 mm
! CAL TYPE:         	                 Full S11,                  Full S11
! CAL METHOD:       	                     SOLT,                      SOLT
! CAL LINE TYPE:    	                     Coax,                      Coax
! DUT PORT 1:       	                K-Conn(F),                 K-Conn(F)
! DUT PORT 2:       	                K-Conn(F),                 K-Conn(F)
! CAL STATUS:       	        OK: Accuracy High,                        --
# GHZ S DB R 50.0
! FREQ.GHZ       S11DB        S11A       S21DB        S21A       S12DB        S12A       S22DB        S22A
  0.020000000   -0.627530 -125.792580  -91.313238   27.626507    0.000000    0.000000    0.000000    0.000000
  0.020200401   -0.625096 -127.256317  -91.731433   32.884502    0.000000    0.000000    0.000000    0.000000
  0.020400802   -0.627472 -128.709961  -92.127797   30.572607    0.000000    0.000000    0.000000    0.000000
  0.020601202   -0.629267 -130.193237  -91.961610   29.717815    0.000000    0.000000    0.000000    0.000000
  0.020801603   -0.634459 -131.690674  -92.659415   26.597960    0.000000    0.000000    0.000000    0.000000
  0.021002004   -0.639489 -133.208649  -93.111787   24.861319    0.000000    0.000000    0.000000    0.000000
  0.021202405   -0.646744 -134.752563  -92.621506   30.710836    0.000000    0.000000    0.000000    0.000000
  0.021402806   -0.652591 -136.298370  -92.834307   24.193239    0.000000    0.000000    0.000000    0.000000
  0.021603206   -0.657378 -137.842331  -93.802072   30.906330    0.000000    0.000000    0.000000    0.000000
  0.021803607   -0.663784 -139.397171  -93.563218   27.695278    0.000000    0.000000    0.000000    0.000000
  0.022004008   -0.669364 -140.953125  -93.521826   27.575998    0.000000    0.000000    0.000000    0.000000
  0.022204409   -0.676716 -142.510803  -93.261873   35.402153    0.000000    0.000000    0.000000    0.000000
  0.022404810   -0.681164 -144.087662  -93.588271   35.206867    0.000000    0.000000    0.000000    0.000000
  0.022605210   -0.685141 -145.709610  -93.113921   35.259480    0.000000    0.000000    0.000000    0.000000
  0.022805611   -0.688228 -147.325302  -94.148444   35.172672    0.000000    0.000000    0.000000    0.000000
  0.023006012   -0.692147 -148.933029  -94.059574   34.167217    0.000000    0.000000    0.000000    0.000000
  0.023206413   -0.694346 -150.520660  -93.216008   31.686741    0.000000    0.000000    0.000000    0.000000
  0.023406814   -0.697650 -152.115982  -92.594606   30.647943    0.000000    0.000000    0.000000    0.000000
  0.023607214   -0.702040 -153.722778  -92.730619   30.114952    0.000000    0.000000    0.000000    0.000000
  0.023807615   -0.707511 -155.331665  -93.079587   33.036232    0.000000    0.000000    0.000000    0.000000
  0.024008016   -0.718203 -156.950409  -93.125746   28.016768    0.000000    0.000000    0.000000    0.000000
  0.024208417   -0.728410 -158.597168  -93.098601   26.885138    0.000000    0.000000    0.000000    0.000000
  0.024408818   -0.737288 -160.249725  -93.949653   28.350296    0.000000    0.000000    0.000000    0.000000
  0.024609218   -0.745887 -161.901184  -93.304606   25.745975    0.000000    0.000000    0.000000    0.000000
  0.024809619   -0.754983 -163.569931  -93.310434   21.543783    0.000000    0.000000    0.000000    0.000000
  0.025010020   -0.768351 -165.229889  -93.654564   21.930700    0.000000    0.000000    0.000000    0.000000
  0.025210421   -0.778505 -166.897919  -93.778467   18.691740    0.000000    0.000000    0.000000    0.000000
  0.025410822   -0.794340 -168.583939  -93.885193   14.913090    0.000000    0.000000    0.000000    0.000000
  0.025611222   -0.808004 -170.288727  -94.231068   18.940289    0.000000    0.000000    0.000000    0.000000
  0.025811623   -0.821353 -172.011932  -95.324073   20.431458    0.000000    0.000000    0.000000    0.000000
  0.026012024   -0.832771 -173.749954  -94.692646   19.344555    0.000000    0.000000    0.000000    0.000000
  0.026212425   -0.844234 -175.482346  -95.591547   14.849835    0.000000    0.000000    0.000000    0.000000
  0.026412826   -0.857549 -177.217438  -95.686691   13.128464    0.000000    0.000000    0.000000    0.000000
  0.026613226   -0.872845 -178.976822  -95.836406   14.382538    0.000000    0.000000    0.000000    0.000000
  0.026813627   -0.890526  179.246719  -95.953590   20.889582    0.000000    0.000000    0.000000    0.000000
  0.027014028   -0.905994  177.472809  -96.576425   16.463612    0.000000    0.000000    0.000000    0.000000
  0.027214429   -0.924634  175.676071  -95.779355   20.328161    0.000000    0.000000    0.000000    0.000000
  0.027414830   -0.942474  173.876953  -96.220781   18.448458    0.000000    0.000000    0.000000    0.000000
  0.027615230   -0.959037  172.070908  -96.123794   27.154390    0.000000    0.000000    0.000000    0.000000
  0.027815631   -0.978435  170.240829  -95.481971   15.741358    0.000000    0.000000    0.000000    0.000000
  0.028016032   -0.998767  168.405334  -97.216988   22.327339    0.000000    0.000000    0.000000    0.000000
  0.028216433   -1.020142  166.563568  -96.754184   18.354561    0.000000    0.000000    0.000000    0.000000
  0.028416834   -1.040752  164.715210  -96.720384   18.344254    0.000000    0.000000    0.000000    0.000000
  0.028617234   -1.060512  162.869553  -96.524532   28.093246    0.000000    0.000000    0.000000    0.000000
  0.028817635   -1.080243  161.034912  -96.731572   17.301889    0.000000    0.000000    0.000000    0.000000
  0.029018036   -1.099507  159.202942  -96.825254   24.245256    0.000000    0.000000    0.000000    0.000000
  0.029218437   -1.119704  157.381134  -95.492039   23.691313    0.000000    0.000000    0.000000    0.000000
  0.029418838   -1.142550  155.550232  -96.646811   24.433914    0.000000    0.000000    0.000000    0.000000
  0.029619238   -1.166387  153.701843  -95.550838   16.193457    0.000000    0.000000    0.000000    0.000000
  0.029819639   -1.196308  151.829437  -96.324322   14.147173    0.000000    0.000000    0.000000    0.000000
  0.030020040   -1.226291  149.938705  -95.748057   16.940722    0.000000    0.000000    0.000000    0.000000
  0.030220441   -1.254695  148.022186  -96.626898   14.165279    0.000000    0.000000    0.000000    0.000000
  0.030420842   -1.286397  146.100052  -96.962987    9.215485    0.000000    0.000000    0.000000    0.000000
  0.030621242   -1.318197  144.183548  -97.288937   14.741182    0.000000    0.000000    0.000000    0.000000
  0.030821643   -1.350853  142.276169  -96.622337   13.424358    0.000000    0.000000    0.000000    0.000000
  0.031022044   -1.385964  140.353867  -97.651781   15.106039    0.000000    0.000000    0.000000    0.000000
  0.031222445   -1.421448  138.441513  -96.018170   12.066035    0.000000    0.000000    0.000000    0.000000
  0.031422846   -1.460557  136.464035  -97.349694    8.738132    0.000000    0.000000    0.000000    0.000000
  0.031623246   -1.499147  134.472443  -97.479197    3.708540    0.000000    0.000000    0.000000    0.000000
  0.031823647   -1.536407  132.456451  -97.488522    9.657851    0.000000    0.000000    0.000000    0.000000
  0.032024048   -1.574945  130.444672  -97.285670   14.209078    0.000000    0.000000    0.000000    0.000000
  0.032224449   -1.612864  128.426880  -97.724325   12.625389    0.000000    0.000000    0.000000    0.000000
  0.032424850   -1.650397  126.419647  -97.270891    7.841908    0.000000    0.000000    0.000000    0.000000
  0.032625251   -1.686392  124.397194  -97.019405   13.658236    0.000000    0.000000    0.000000    0.000000
  0.032825651   -1.723867  122.382317  -99.008607   15.806963    0.000000    0.000000    0.000000    0.000000
  0.033026052   -1.764511  120.372765  -98.358152   22.173292    0.000000    0.000000    0.000000    0.000000
  0.033226453   -1.808966  118.385239  -98.119772    8.043284    0.000000    0.000000    0.000000    0.000000
  0.033426854   -1.856269  116.375824  -98.797833   13.789450    0.000000    0.000000    0.000000    0.000000
  0.033627255   -1.904214  114.349388  -98.412034   -1.478835    0.000000    0.000000    0.000000    0.000000
  0.033827655   -1.959305  112.303314  -97.195550   14.333471    0.000000    0.000000    0.000000    0.000000
  0.034028056   -2.010577  110.233917  -99.009411    2.666409    0.000000    0.000000    0.000000    0.000000
  0.034228457   -2.062893  108.131371  -97.883360   10.005355    0.000000    0.000000    0.000000    0.000000
  0.034428858   -2.113795  106.003738  -98.793880   19.715471    0.000000    0.000000    0.000000    0.000000
  0.034629259   -2.161915  103.878899  -99.151115    8.116948    0.000000    0.000000    0.000000    0.000000
  0.034829659   -2.207657  101.757095  -98.240549   14.004787    0.000000    0.000000    0.000000    0.000000
  0.035030060   -2.254330   99.605835  -97.758896    6.566131    0.000000    0.000000    0.000000    0.000000
  0.035230461   -2.298376   97.501091  -98.178810    8.279449    0.000000    0.000000    0.000000    0.000000
  0.035430862   -2.340986   95.406830  -98.220984   15.064982    0.000000    0.000000    0.000000    0.000000
  0.035631263   -2.384018   93.339699  -98.813665   14.462997    0.000000    0.000000    0.000000    0.000000
  0.035831663   -2.430172   91.250702  -98.810187    7.249649    0.000000    0.000000    0.000000    0.000000
  0.036032064   -2.472509   89.194267  -98.354258   11.259588    0.000000    0.000000    0.000000    0.000000
  0.036232465   -2.520903   87.155510 -100.044653    5.695545    0.000000    0.000000    0.000000    0.000000
  0.036432866   -2.570772   85.107643  -99.115734    3.593911    0.000000    0.000000    0.000000    0.000000
  0.036633267   -2.623093   83.082512 -101.110453    7.048958    0.000000    0.000000    0.000000    0.000000
  0.036833667   -2.677495   81.041954  -98.584627    6.331445    0.000000    0.000000    0.000000    0.000000
  0.037034068   -2.740659   79.007004  -99.408838    3.665330    0.000000    0.000000    0.000000    0.000000
  0.037234469   -2.804488   76.938553 -100.030916    4.988198    0.000000    0.000000    0.000000    0.000000
  0.037434870   -2.871082   74.846039 -101.443471    4.088199    0.000000    0.000000    0.000000    0.000000
  0.037635271   -2.944520   72.792984  -99.114660   10.860840    0.000000    0.000000    0.000000    0.000000
  0.037835671   -3.015345   70.765976 -100.581030    8.588437    0.000000    0.000000    0.000000    0.000000
  0.038036072   -3.072687   68.717705  -99.775253    7.160072    0.000000    0.000000    0.000000    0.000000
  0.038236473   -3.124672   66.609428 -101.251390   18.561031    0.000000    0.000000    0.000000    0.000000
  0.038436874   -3.176958   64.448021  -98.840842    9.434527    0.000000    0.000000    0.000000    0.000000
  0.038637275   -3.228651   62.299911 -100.384232    3.609359    0.000000    0.000000    0.000000    0.000000
  0.038837675   -3.278234   60.161869  -99.644591    7.843692    0.000000    0.000000    0.000000    0.000000
  0.039038076   -3.324797   58.024342 -101.346633    7.540930    0.000000    0.000000    0.000000    0.000000
  0.039238477   -3.368999   55.934944 -100.484511   11.698500    0.000000    0.000000    0.000000    0.000000
  0.039438878   -3.416905   53.867428  -99.346396   18.314457    0.000000    0.000000    0.000000    0.000000
  0.039639279   -3.469920   51.814274 -101.230845   10.405554    0.000000    0.000000    0.000000    0.000000
  0.039839679   -3.525121   49.745262 -100.317506    2.531373    0.000000    0.000000    0.000000    0.000000
  0.040040080   -3.581536   47.677204 -101.180880    4.350335    0.000000    0.000000    0.000000    0.000000
  0.040240481   -3.639994   45.601513  -99.745483    7.941650    0.000000    0.000000    0.000000    0.000000
  0.040440882   -3.697760   43.524502 -100.206500   22.260859    0.000000    0.000000    0.000000    0.000000
  0.040641283   -3.756862   41.438663  -99.760012    6.154427    0.000000    0.000000    0.000000    0.000000
  0.040841683   -3.806797   39.361984  -99.888969   -0.401493    0.000000    0.000000    0.000000    0.000000
  0.041042084   -3.862972   37.311615  -99.560563   11.811846    0.000000    0.000000    0.000000    0.000000
  0.041242485   -3.915569   35.263874 -100.900030    8.976882    0.000000    0.000000    0.000000    0.000000
  0.041442886   -3.968960   33.215153  -99.650910    1.682935    0.000000    0.000000    0.000000    0.000000
  0.041643287   -4.020174   31.161734 -101.109910    3.737124    0.000000    0.000000    0.000000    0.000000
  0.041843687   -4.069863   29.117954 -101.299009   -2.521978    0.000000    0.000000    0.000000    0.000000
  0.042044088   -4.116784   27.110268 -101.770162   -1.119212    0.000000    0.000000    0.000000    0.000000
  0.042244489   -4.165800   25.105705 -100.496061   -4.565742    0.000000    0.000000    0.000000    0.000000
  0.042444890   -4.214246   23.104485 -101.421690   -2.107572    0.000000    0.000000    0.000000    0.000000
  0.042645291   -4.263609   21.132250 -101.691493    2.765178    0.000000    0.000000    0.000000    0.000000
  0.042845691   -4.310909   19.172720 -103.609322    6.430035    0.000000    0.000000    0.000000    0.000000
  0.043046092   -4.362140   17.198902 -102.462974   -6.153821    0.000000    0.000000    0.000000    0.000000
  0.043246493   -4.411353   15.237866 -100.978582   -3.937799    0.000000    0.000000    0.000000    0.000000
  0.043446894   -4.461072   13.266109 -101.166091    1.107676    0.000000    0.000000    0.000000    0.000000
  0.043647295   -4.509032   11.306344 -103.928766    1.408297    0.000000    0.000000    0.000000    0.000000
  0.043847695   -4.555540    9.337551 -101.313125   -1.197362    0.000000    0.000000    0.000000    0.000000
  0.044048096   -4.607118    7.384058 -102.982951   13.569260    0.000000    0.000000    0.000000    0.000000
  0.044248497   -4.655648    5.424445 -104.198024   15.507968    0.000000    0.000000    0.000000    0.000000
  0.044448898   -4.703280    3.459620 -102.647495    2.043346    0.000000    0.000000    0.000000    0.000000
  0.044649299   -4.752231    1.522770 -102.182983    6.265272    0.000000    0.000000    0.000000    0.000000
  0.044849699   -4.795595   -0.424356 -101.005058    8.280128    0.000000    0.000000    0.000000    0.000000
  0.045050100   -4.840035   -2.366951 -101.186033   14.545402    0.000000    0.000000    0.000000    0.000000
  0.045250501   -4.880792   -4.310079 -101.428947   22.997238    0.000000    0.000000    0.000000    0.000000
  0.045450902   -4.920476   -6.223429 -101.398948   19.444305    0.000000    0.000000    0.000000    0.000000
  0.045651303   -4.963752   -8.149100  -99.831785    1.785893    0.000000    0.000000    0.000000    0.000000
  0.045851703   -5.002592  -10.067202 -101.702359    7.965162    0.000000    0.000000    0.000000    0.000000
  0.046052104   -5.043676  -11.961486  -99.122440    0.276944    0.000000    0.000000    0.000000    0.000000
  0.046252505   -5.082990  -13.859779 -100.130217    0.577628    0.000000    0.000000    0.000000    0.000000
  0.046452906   -5.121929  -15.745769 -100.426971    3.165646    0.000000    0.000000    0.000000    0.000000
  0.046653307   -5.155492  -17.641220 -101.763008   -8.681031    0.000000    0.000000    0.000000    0.000000
  0.046853707   -5.189692  -19.512224 -103.435847   -1.266647    0.000000    0.000000    0.000000    0.000000
  0.047054108   -5.222880  -21.346991 -102.340293  -15.165124    0.000000    0.000000    0.000000    0.000000
  0.047254509   -5.252197  -23.204321 -101.932478   -3.898401    0.000000    0.000000    0.000000    0.000000
  0.047454910   -5.282180  -24.994308 -102.206153   -1.930716    0.000000    0.000000    0.000000    0.000000
  0.047655311   -5.310502  -26.806934 -103.186497    8.271156    0.000000    0.000000    0.000000    0.000000
  0.047855711   -5.338390  -28.562159 -101.166300    4.520880    0.000000    0.000000    0.000000    0.000000
  0.048056112   -5.366492  -30.293272 -102.777645    6.558327    0.000000    0.000000    0.000000    0.000000
  0.048256513   -5.394948  -32.028915 -103.788507   -9.396701    0.000000    0.000000    0.000000    0.000000
  0.048456914   -5.423148  -33.755817 -105.438494   -3.539829    0.000000    0.000000    0.000000    0.000000
  0.048657315   -5.454568  -35.496456 -103.258067   -1.393686    0.000000    0.000000    0.000000    0.000000
  0.048857715   -5.479603  -37.206501 -103.003884  -13.509511    0.000000    0.000000    0.000000    0.000000
  0.049058116   -5.506480  -38.930786 -103.061493  -10.225179    0.000000    0.000000    0.000000    0.000000
  0.049258517   -5.532058  -40.621525 -102.935447   12.581924    0.000000    0.000000    0.000000    0.000000
  0.049458918   -5.557070  -42.316006 -102.971940  -14.884466    0.000000    0.000000    0.000000    0.000000
  0.049659319   -5.584342  -44.001259 -104.895008    6.606909    0.000000    0.000000    0.000000    0.000000
  0.049859719   -5.613328  -45.664635 -102.981290    5.095123    0.000000    0.000000    0.000000    0.000000
  0.050060120   -5.636649  -47.339180 -105.461673   23.699121    0.000000    0.000000    0.000000    0.000000
  0.050260521   -5.663026  -49.009960 -105.236056   24.500362    0.000000    0.000000    0.000000    0.000000
  0.050460922   -5.684802  -50.692799 -103.348103   14.748466    0.000000    0.000000    0.000000    0.000000
  0.050661323   -5.704440  -52.369251 -104.064532   26.104362    0.000000    0.000000    0.000000    0.000000
  0.050861723   -5.725207  -54.011543 -103.369237    5.646169    0.000000    0.000000    0.000000    0.000000
  0.051062124   -5.743099  -55.677059 -102.841227   23.638603    0.000000    0.000000    0.000000    0.000000
  0.051262525   -5.763545  -57.274574 -102.084205   15.258121    0.000000    0.000000    0.000000    0.000000
  0.051462926   -5.776712  -58.882462 -101.746040    2.803498    0.000000    0.000000    0.000000    0.000000
  0.051663327   -5.794788  -60.448627 -101.371645   11.138118    0.000000    0.000000    0.000000    0.000000
  0.051863727   -5.811145  -62.011417 -101.931253   12.742281    0.000000    0.000000    0.000000    0.000000
  0.052064128   -5.825842  -63.567944 -101.979301    5.808768    0.000000    0.000000    0.000000    0.000000
  0.052264529   -5.843699  -65.132729 -102.151463    8.807184    0.000000    0.000000    0.000000    0.000000
  0.052464930   -5.859434  -66.663460 -102.089420    0.961606    0.000000    0.000000    0.000000    0.000000
  0.052665331   -5.876475  -68.225090 -104.208065    2.715462    0.000000    0.000000    0.000000    0.000000
  0.052865731   -5.892854  -69.749100 -101.582775   -1.295306    0.000000    0.000000    0.000000    0.000000
