! Anritsu VNA Master:                     Model: MS2036C/10/77
! SN:                                  1601066
! /bd0/18may07/256.ns.m5.s2p
! Existing Calibration Information:
! TYPE:                         Current Settings,       Active Cal Settings
! TIME:             	   05/07/2018 03:08:26 PM,    05/07/2018 02:58:54 PM
! INTERNAL TEMP:    	                   59.8 C,                    58.8 C
! # POINTS:         	                      500,                       500
! START FREQ:       	               20.000 MHz,                20.000 MHz
! STOP FREQ:        	              120.000 MHz,               120.000 MHz
! SOURCE POWER:     	                     High,                      High
! IFBW:             	                    50 Hz,                     50 Hz
! AVG FACTOR:       	                       1 ,                        1 
! REF PLANE 1:      	                     0 mm,                      0 mm
! REF PLANE 2:      	                     0 mm,                      0 mm
! CAL TYPE:         	                 Full S11,                  Full S11
! CAL METHOD:       	                     SOLT,                      SOLT
! CAL LINE TYPE:    	                     Coax,                      Coax
! DUT PORT 1:       	                K-Conn(F),                 K-Conn(F)
! DUT PORT 2:       	                K-Conn(F),                 K-Conn(F)
! CAL STATUS:       	        OK: Accuracy High,                        --
# GHZ S DB R 50.0
! FREQ.GHZ       S11DB        S11A       S21DB        S21A       S12DB        S12A       S22DB        S22A
  0.020000000   -0.633357 -125.890877  -91.071813   28.031202    0.000000    0.000000    0.000000    0.000000
  0.020200401   -0.633456 -127.370132  -91.402961   26.624094    0.000000    0.000000    0.000000    0.000000
  0.020400802   -0.634685 -128.831558  -91.572819   30.418987    0.000000    0.000000    0.000000    0.000000
  0.020601202   -0.636452 -130.303116  -91.842708   27.258202    0.000000    0.000000    0.000000    0.000000
  0.020801603   -0.641905 -131.806503  -92.432203   29.047060    0.000000    0.000000    0.000000    0.000000
  0.021002004   -0.646907 -133.329971  -92.363831   31.733034    0.000000    0.000000    0.000000    0.000000
  0.021202405   -0.654160 -134.860687  -92.674936   29.781452    0.000000    0.000000    0.000000    0.000000
  0.021402806   -0.657686 -136.402069  -93.194764   24.662878    0.000000    0.000000    0.000000    0.000000
  0.021603206   -0.662998 -137.941147  -93.386154   30.099026    0.000000    0.000000    0.000000    0.000000
  0.021803607   -0.668202 -139.489655  -94.380257   32.959236    0.000000    0.000000    0.000000    0.000000
  0.022004008   -0.672878 -141.042419  -92.836618   31.650068    0.000000    0.000000    0.000000    0.000000
  0.022204409   -0.679775 -142.619110  -93.519610   33.777332    0.000000    0.000000    0.000000    0.000000
  0.022404810   -0.687219 -144.178894  -94.286812   33.858486    0.000000    0.000000    0.000000    0.000000
  0.022605210   -0.691365 -145.778824  -93.519180   30.183586    0.000000    0.000000    0.000000    0.000000
  0.022805611   -0.693449 -147.376984  -92.981149   33.596291    0.000000    0.000000    0.000000    0.000000
  0.023006012   -0.695322 -148.981567  -92.831835   35.108540    0.000000    0.000000    0.000000    0.000000
  0.023206413   -0.695069 -150.573288  -92.769448   37.316269    0.000000    0.000000    0.000000    0.000000
  0.023406814   -0.700418 -152.178192  -93.276972   30.014341    0.000000    0.000000    0.000000    0.000000
  0.023607214   -0.707613 -153.783157  -92.592486   33.255917    0.000000    0.000000    0.000000    0.000000
  0.023807615   -0.714032 -155.383972  -92.854601   28.667164    0.000000    0.000000    0.000000    0.000000
  0.024008016   -0.721888 -157.012726  -93.193747   25.312954    0.000000    0.000000    0.000000    0.000000
  0.024208417   -0.733478 -158.659851  -93.455991   26.225540    0.000000    0.000000    0.000000    0.000000
  0.024408818   -0.742525 -160.313370  -92.820387   25.400000    0.000000    0.000000    0.000000    0.000000
  0.024609218   -0.751627 -161.971146  -93.975973   22.832775    0.000000    0.000000    0.000000    0.000000
  0.024809619   -0.761584 -163.630630  -93.472826   19.187925    0.000000    0.000000    0.000000    0.000000
  0.025010020   -0.774878 -165.282272  -93.938410   20.639242    0.000000    0.000000    0.000000    0.000000
  0.025210421   -0.787016 -166.975647  -95.467729   19.267532    0.000000    0.000000    0.000000    0.000000
  0.025410822   -0.801495 -168.664703  -93.593252   16.774231    0.000000    0.000000    0.000000    0.000000
  0.025611222   -0.816258 -170.374176  -94.179088   16.416807    0.000000    0.000000    0.000000    0.000000
  0.025811623   -0.829949 -172.095886  -94.449616   18.241993    0.000000    0.000000    0.000000    0.000000
  0.026012024   -0.841744 -173.844315  -94.622933   16.250319    0.000000    0.000000    0.000000    0.000000
  0.026212425   -0.853334 -175.580673  -95.901147   11.237489    0.000000    0.000000    0.000000    0.000000
  0.026412826   -0.866379 -177.321655  -95.760754   15.649703    0.000000    0.000000    0.000000    0.000000
  0.026613226   -0.882560 -179.073105  -96.004264   16.974869    0.000000    0.000000    0.000000    0.000000
  0.026813627   -0.898609  179.152817  -96.593820   14.682006    0.000000    0.000000    0.000000    0.000000
  0.027014028   -0.914164  177.363052  -95.935104   22.109680    0.000000    0.000000    0.000000    0.000000
  0.027214429   -0.933707  175.561584  -95.951232   17.878613    0.000000    0.000000    0.000000    0.000000
  0.027414830   -0.949205  173.757675  -96.619746   22.347832    0.000000    0.000000    0.000000    0.000000
  0.027615230   -0.965491  171.952850  -96.432553   24.544867    0.000000    0.000000    0.000000    0.000000
  0.027815631   -0.984321  170.117966  -96.492007   18.279522    0.000000    0.000000    0.000000    0.000000
  0.028016032   -1.004335  168.285172  -95.802143   26.264254    0.000000    0.000000    0.000000    0.000000
  0.028216433   -1.025590  166.450882  -96.170164   21.101637    0.000000    0.000000    0.000000    0.000000
  0.028416834   -1.045114  164.603760  -95.941189   25.163446    0.000000    0.000000    0.000000    0.000000
  0.028617234   -1.065357  162.748291  -97.367984   22.686316    0.000000    0.000000    0.000000    0.000000
  0.028817635   -1.083501  160.899597  -96.330915   22.787239    0.000000    0.000000    0.000000    0.000000
  0.029018036   -1.101897  159.065186  -96.609064   22.761276    0.000000    0.000000    0.000000    0.000000
  0.029218437   -1.120744  157.234344  -95.882328   20.493263    0.000000    0.000000    0.000000    0.000000
  0.029418838   -1.143920  155.405823  -95.998658   17.667887    0.000000    0.000000    0.000000    0.000000
  0.029619238   -1.168436  153.548981  -96.813499   17.424540    0.000000    0.000000    0.000000    0.000000
  0.029819639   -1.196340  151.674652  -96.672831   17.151339    0.000000    0.000000    0.000000    0.000000
  0.030020040   -1.228552  149.772903  -96.578794   17.466427    0.000000    0.000000    0.000000    0.000000
  0.030220441   -1.258203  147.856049  -96.811214   11.946279    0.000000    0.000000    0.000000    0.000000
  0.030420842   -1.287566  145.919189  -97.136492   12.809114    0.000000    0.000000    0.000000    0.000000
  0.030621242   -1.319600  144.010620  -97.516470   13.652176    0.000000    0.000000    0.000000    0.000000
  0.030821643   -1.351246  142.102417  -96.543136   14.028440    0.000000    0.000000    0.000000    0.000000
  0.031022044   -1.386240  140.161896  -97.372568   11.234370    0.000000    0.000000    0.000000    0.000000
  0.031222445   -1.419367  138.235962  -97.014356   13.967323    0.000000    0.000000    0.000000    0.000000
  0.031422846   -1.456729  136.268723  -97.416796   13.161679    0.000000    0.000000    0.000000    0.000000
  0.031623246   -1.495834  134.256454  -97.736733    8.657916    0.000000    0.000000    0.000000    0.000000
  0.031823647   -1.534393  132.265015  -97.207128   14.952583    0.000000    0.000000    0.000000    0.000000
  0.032024048   -1.571716  130.234680  -98.054264   17.618528    0.000000    0.000000    0.000000    0.000000
  0.032224449   -1.607977  128.229340  -98.596837    8.518328    0.000000    0.000000    0.000000    0.000000
  0.032424850   -1.644883  126.216171  -98.215921    9.470100    0.000000    0.000000    0.000000    0.000000
  0.032625251   -1.681217  124.185417  -98.111173    4.057158    0.000000    0.000000    0.000000    0.000000
  0.032825651   -1.717875  122.189621  -98.688138   11.474660    0.000000    0.000000    0.000000    0.000000
  0.033026052   -1.755732  120.169243  -99.505031   23.595352    0.000000    0.000000    0.000000    0.000000
  0.033226453   -1.798593  118.180977  -99.048319   12.120737    0.000000    0.000000    0.000000    0.000000
  0.033426854   -1.845087  116.192307  -98.941973   10.545856    0.000000    0.000000    0.000000    0.000000
  0.033627255   -1.892440  114.171051  -98.720566    6.119128    0.000000    0.000000    0.000000    0.000000
  0.033827655   -1.943445  112.155647  -99.049075   15.175700    0.000000    0.000000    0.000000    0.000000
  0.034028056   -1.995661  110.111282  -98.942489    4.608817    0.000000    0.000000    0.000000    0.000000
  0.034228457   -2.045788  108.009193  -98.446022   11.235752    0.000000    0.000000    0.000000    0.000000
  0.034428858   -2.095909  105.899025  -97.979234   15.846671    0.000000    0.000000    0.000000    0.000000
  0.034629259   -2.143186  103.764053  -98.960655   11.919621    0.000000    0.000000    0.000000    0.000000
  0.034829659   -2.190569  101.641579  -99.146664   14.994009    0.000000    0.000000    0.000000    0.000000
  0.035030060   -2.236520   99.533653  -98.579693   15.990753    0.000000    0.000000    0.000000    0.000000
  0.035230461   -2.280919   97.431038 -100.109887   16.194033    0.000000    0.000000    0.000000    0.000000
  0.035430862   -2.322674   95.318428 -100.343866    8.215617    0.000000    0.000000    0.000000    0.000000
  0.035631263   -2.366924   93.238129  -99.738225   -2.929369    0.000000    0.000000    0.000000    0.000000
  0.035831663   -2.412198   91.159035  -99.306804   12.921910    0.000000    0.000000    0.000000    0.000000
  0.036032064   -2.454691   89.089363  -99.318568   10.843420    0.000000    0.000000    0.000000    0.000000
  0.036232465   -2.501162   87.045158  -99.933320    7.126243    0.000000    0.000000    0.000000    0.000000
  0.036432866   -2.549047   85.000710  -98.585906    4.833852    0.000000    0.000000    0.000000    0.000000
  0.036633267   -2.601328   82.938683  -98.932354    6.351511    0.000000    0.000000    0.000000    0.000000
  0.036833667   -2.656331   80.881744  -98.401889   -0.126733    0.000000    0.000000    0.000000    0.000000
  0.037034068   -2.716594   78.821800  -98.424145    4.549155    0.000000    0.000000    0.000000    0.000000
  0.037234469   -2.779239   76.744034 -100.639964    5.454389    0.000000    0.000000    0.000000    0.000000
  0.037434870   -2.845384   74.644188 -100.952700   -2.438627    0.000000    0.000000    0.000000    0.000000
  0.037635271   -2.916852   72.548500  -99.281212    7.472006    0.000000    0.000000    0.000000    0.000000
  0.037835671   -2.990849   70.519753 -101.347510    5.225780    0.000000    0.000000    0.000000    0.000000
  0.038036072   -3.050350   68.483574 -100.586737    9.812038    0.000000    0.000000    0.000000    0.000000
  0.038236473   -3.099731   66.402657 -100.681137   -0.759151    0.000000    0.000000    0.000000    0.000000
  0.038436874   -3.148263   64.246834 -100.222583    7.595773    0.000000    0.000000    0.000000    0.000000
  0.038637275   -3.198195   62.077103 -101.581372    8.452780    0.000000    0.000000    0.000000    0.000000
  0.038837675   -3.244201   59.945934 -100.629186    8.817158    0.000000    0.000000    0.000000    0.000000
  0.039038076   -3.289147   57.848724  -99.149700   14.193496    0.000000    0.000000    0.000000    0.000000
  0.039238477   -3.331082   55.764336 -100.982106    1.411166    0.000000    0.000000    0.000000    0.000000
  0.039438878   -3.376731   53.700706  -99.122348   10.956071    0.000000    0.000000    0.000000    0.000000
  0.039639279   -3.427559   51.685989 -100.169022    8.677729    0.000000    0.000000    0.000000    0.000000
  0.039839679   -3.481878   49.641403  -99.175639    1.086976    0.000000    0.000000    0.000000    0.000000
  0.040040080   -3.535521   47.594013 -100.012610    3.206458    0.000000    0.000000    0.000000    0.000000
  0.040240481   -3.589694   45.549160  -99.743333   10.727576    0.000000    0.000000    0.000000    0.000000
  0.040440882   -3.647686   43.475315 -102.012315    1.583291    0.000000    0.000000    0.000000    0.000000
  0.040641283   -3.704239   41.421154 -100.704399    2.981675    0.000000    0.000000    0.000000    0.000000
  0.040841683   -3.759252   39.363491  -99.979351    0.443983    0.000000    0.000000    0.000000    0.000000
  0.041042084   -3.813471   37.331215 -100.363234   11.777015    0.000000    0.000000    0.000000    0.000000
  0.041242485   -3.865321   35.285877 -100.905858   12.912256    0.000000    0.000000    0.000000    0.000000
  0.041442886   -3.918041   33.266308  -99.833393    2.102831    0.000000    0.000000    0.000000    0.000000
  0.041643287   -3.972501   31.207472 -100.465379    4.521157    0.000000    0.000000    0.000000    0.000000
  0.041843687   -4.022038   29.177202 -100.211778   -6.112311    0.000000    0.000000    0.000000    0.000000
  0.042044088   -4.073734   27.148487 -100.296638   -5.499761    0.000000    0.000000    0.000000    0.000000
  0.042244489   -4.121682   25.171682 -103.473409    0.955263    0.000000    0.000000    0.000000    0.000000
  0.042444890   -4.171497   23.170376 -100.669914  -13.340086    0.000000    0.000000    0.000000    0.000000
  0.042645291   -4.222280   21.167660 -100.378187   -4.205526    0.000000    0.000000    0.000000    0.000000
  0.042845691   -4.274457   19.185041 -101.902468   -4.587855    0.000000    0.000000    0.000000    0.000000
  0.043046092   -4.325295   17.213736 -101.362478  -11.130727    0.000000    0.000000    0.000000    0.000000
  0.043246493   -4.375935   15.233319 -101.131112   -2.119654    0.000000    0.000000    0.000000    0.000000
  0.043446894   -4.424525   13.242213 -106.365021    3.936087    0.000000    0.000000    0.000000    0.000000
  0.043647295   -4.473241   11.259438 -101.563020    6.018710    0.000000    0.000000    0.000000    0.000000
  0.043847695   -4.519971    9.272852 -101.928977    5.066450    0.000000    0.000000    0.000000    0.000000
  0.044048096   -4.568179    7.287314 -101.328616    4.029968    0.000000    0.000000    0.000000    0.000000
  0.044248497   -4.616951    5.308480 -101.967836    5.520704    0.000000    0.000000    0.000000    0.000000
  0.044448898   -4.665100    3.338424 -101.538098    7.472168    0.000000    0.000000    0.000000    0.000000
  0.044649299   -4.711608    1.380435 -102.807782   24.868732    0.000000    0.000000    0.000000    0.000000
  0.044849699   -4.756035   -0.553926 -101.749032    7.672705    0.000000    0.000000    0.000000    0.000000
  0.045050100   -4.798727   -2.491987 -101.237088   20.525728    0.000000    0.000000    0.000000    0.000000
  0.045250501   -4.835834   -4.441301 -102.135851   12.945713    0.000000    0.000000    0.000000    0.000000
  0.045450902   -4.874760   -6.376458 -102.635135   13.356243    0.000000    0.000000    0.000000    0.000000
  0.045651303   -4.912836   -8.286994 -101.137625   12.350213    0.000000    0.000000    0.000000    0.000000
  0.045851703   -4.948719  -10.190868 -102.973546   12.651542    0.000000    0.000000    0.000000    0.000000
  0.046052104   -4.988944  -12.078737 -101.629269   13.353035    0.000000    0.000000    0.000000    0.000000
  0.046252505   -5.024752  -13.946979 -100.331090    6.435764    0.000000    0.000000    0.000000    0.000000
  0.046452906   -5.061937  -15.812530 -100.649320    1.507182    0.000000    0.000000    0.000000    0.000000
  0.046653307   -5.098418  -17.669817 -103.342893   -0.159649    0.000000    0.000000    0.000000    0.000000
  0.046853707   -5.134186  -19.503429 -101.513266   -0.638399    0.000000    0.000000    0.000000    0.000000
  0.047054108   -5.169229  -21.343849 -101.195677   -2.550355    0.000000    0.000000    0.000000    0.000000
  0.047254509   -5.201796  -23.153103 -101.134043    3.483468    0.000000    0.000000    0.000000    0.000000
  0.047454910   -5.232732  -24.927797 -100.798084   -7.768977    0.000000    0.000000    0.000000    0.000000
  0.047655311   -5.260767  -26.710142 -102.383895   26.129946    0.000000    0.000000    0.000000    0.000000
  0.047855711   -5.288915  -28.453903 -103.047599    3.097853    0.000000    0.000000    0.000000    0.000000
  0.048056112   -5.320717  -30.176670 -103.003412    3.259386    0.000000    0.000000    0.000000    0.000000
  0.048256513   -5.350878  -31.898294 -102.519385    6.051533    0.000000    0.000000    0.000000    0.000000
  0.048456914   -5.384839  -33.599354 -102.287191  -13.216140    0.000000    0.000000    0.000000    0.000000
  0.048657315   -5.417813  -35.308491 -103.829718   16.446482    0.000000    0.000000    0.000000    0.000000
  0.048857715   -5.445722  -37.033310 -102.701226    4.178942    0.000000    0.000000    0.000000    0.000000
  0.049058116   -5.475062  -38.731590 -104.276900   -1.371691    0.000000    0.000000    0.000000    0.000000
  0.049258517   -5.504327  -40.440220 -103.894882   18.012026    0.000000    0.000000    0.000000    0.000000
  0.049458918   -5.531920  -42.139656 -103.036283   -3.169935    0.000000    0.000000    0.000000    0.000000
  0.049659319   -5.561340  -43.829025 -103.880184    2.811905    0.000000    0.000000    0.000000    0.000000
  0.049859719   -5.591397  -45.490654 -103.152081    0.584791    0.000000    0.000000    0.000000    0.000000
  0.050060120   -5.620203  -47.177246 -103.915379   12.207791    0.000000    0.000000    0.000000    0.000000
  0.050260521   -5.645755  -48.846947 -104.102758   17.828447    0.000000    0.000000    0.000000    0.000000
  0.050460922   -5.667799  -50.556305 -103.147206   10.353292    0.000000    0.000000    0.000000    0.000000
  0.050661323   -5.687040  -52.232651 -101.923487   11.213490    0.000000    0.000000    0.000000    0.000000
  0.050861723   -5.708136  -53.885616 -103.205100   20.270763    0.000000    0.000000    0.000000    0.000000
  0.051062124   -5.724599  -55.527081 -102.527003   21.769201    0.000000    0.000000    0.000000    0.000000
  0.051262525   -5.743415  -57.151531 -100.886430   -4.179776    0.000000    0.000000    0.000000    0.000000
  0.051462926   -5.756339  -58.737194 -101.049983   12.614193    0.000000    0.000000    0.000000    0.000000
  0.051663327   -5.771936  -60.312298 -100.728257    6.941811    0.000000    0.000000    0.000000    0.000000
  0.051863727   -5.785794  -61.878147 -100.828318   12.945731    0.000000    0.000000    0.000000    0.000000
  0.052064128   -5.801574  -63.410213 -101.855624    0.679914    0.000000    0.000000    0.000000    0.000000
  0.052264529   -5.818230  -64.943436 -102.299776    0.888217    0.000000    0.000000    0.000000    0.000000
  0.052464930   -5.833370  -66.467323 -101.715694    4.262596    0.000000    0.000000    0.000000    0.000000
  0.052665331   -5.846458  -68.019432 -102.932298   10.115858    0.000000    0.000000    0.000000    0.000000
  0.052865731   -5.863620  -69.517914 -104.275225    3.829687    0.000000    0.000000    0.000000    0.000000
