! Anritsu VNA Master:                     Model: MS2036C/10/77
! SN:                                  1601066
! /bd0/18may07/256.ns.m8.s2p
! Existing Calibration Information:
! TYPE:                         Current Settings,       Active Cal Settings
! TIME:             	   05/07/2018 03:19:56 PM,    05/07/2018 03:13:55 PM
! INTERNAL TEMP:    	                   61.3 C,                    60.5 C
! # POINTS:         	                      500,                       500
! START FREQ:       	               20.000 MHz,                20.000 MHz
! STOP FREQ:        	              120.000 MHz,               120.000 MHz
! SOURCE POWER:     	                     High,                      High
! IFBW:             	                    50 Hz,                     50 Hz
! AVG FACTOR:       	                       1 ,                        1 
! REF PLANE 1:      	                     0 mm,                      0 mm
! REF PLANE 2:      	                     0 mm,                      0 mm
! CAL TYPE:         	                 Full S11,                  Full S11
! CAL METHOD:       	                     SOLT,                      SOLT
! CAL LINE TYPE:    	                     Coax,                      Coax
! DUT PORT 1:       	                K-Conn(F),                 K-Conn(F)
! DUT PORT 2:       	                K-Conn(F),                 K-Conn(F)
! CAL STATUS:       	        OK: Accuracy High,                        --
# GHZ S DB R 50.0
! FREQ.GHZ       S11DB        S11A       S21DB        S21A       S12DB        S12A       S22DB        S22A
  0.020000000   -0.619447 -125.920685  -90.766810   27.364296    0.000000    0.000000    0.000000    0.000000
  0.020200401   -0.618312 -127.405006  -91.228338   23.943884    0.000000    0.000000    0.000000    0.000000
  0.020400802   -0.618556 -128.872055  -91.740599   28.242773    0.000000    0.000000    0.000000    0.000000
  0.020601202   -0.623312 -130.336136  -91.904939   29.216196    0.000000    0.000000    0.000000    0.000000
  0.020801603   -0.626646 -131.843552  -92.443516   27.655928    0.000000    0.000000    0.000000    0.000000
  0.021002004   -0.633024 -133.355652  -92.542284   28.083185    0.000000    0.000000    0.000000    0.000000
  0.021202405   -0.639771 -134.885696  -92.605473   28.696243    0.000000    0.000000    0.000000    0.000000
  0.021402806   -0.645850 -136.430756  -93.383121   24.532042    0.000000    0.000000    0.000000    0.000000
  0.021603206   -0.650151 -137.974060  -93.332091   32.069958    0.000000    0.000000    0.000000    0.000000
  0.021803607   -0.655817 -139.510132  -93.258635   35.732155    0.000000    0.000000    0.000000    0.000000
  0.022004008   -0.659714 -141.031662  -93.592201   31.432709    0.000000    0.000000    0.000000    0.000000
  0.022204409   -0.666284 -142.591583  -93.475775   36.052578    0.000000    0.000000    0.000000    0.000000
  0.022404810   -0.672098 -144.171875  -93.066716   36.807228    0.000000    0.000000    0.000000    0.000000
  0.022605210   -0.677735 -145.748535  -93.075502   32.184242    0.000000    0.000000    0.000000    0.000000
  0.022805611   -0.683600 -147.351196  -93.381044   34.440941    0.000000    0.000000    0.000000    0.000000
  0.023006012   -0.685453 -148.946152  -93.748234   32.994434    0.000000    0.000000    0.000000    0.000000
  0.023206413   -0.687148 -150.542923  -93.081719   28.771324    0.000000    0.000000    0.000000    0.000000
  0.023406814   -0.687533 -152.135284  -93.528805   28.890362    0.000000    0.000000    0.000000    0.000000
  0.023607214   -0.695170 -153.721191  -92.847494   29.497808    0.000000    0.000000    0.000000    0.000000
  0.023807615   -0.702152 -155.338684  -92.958328   30.090221    0.000000    0.000000    0.000000    0.000000
  0.024008016   -0.712914 -156.953766  -92.715259   28.780672    0.000000    0.000000    0.000000    0.000000
  0.024208417   -0.723060 -158.606644  -93.443252   25.318459    0.000000    0.000000    0.000000    0.000000
  0.024408818   -0.733065 -160.260513  -92.994452   25.576986    0.000000    0.000000    0.000000    0.000000
  0.024609218   -0.741202 -161.927155  -93.078331   22.759081    0.000000    0.000000    0.000000    0.000000
  0.024809619   -0.751219 -163.587143  -93.931603   23.004259    0.000000    0.000000    0.000000    0.000000
  0.025010020   -0.764595 -165.256226  -94.333103   22.997467    0.000000    0.000000    0.000000    0.000000
  0.025210421   -0.776507 -166.941956  -94.080756   19.019487    0.000000    0.000000    0.000000    0.000000
  0.025410822   -0.791606 -168.632965  -93.837542   13.043558    0.000000    0.000000    0.000000    0.000000
  0.025611222   -0.806186 -170.347046  -94.738477   14.019183    0.000000    0.000000    0.000000    0.000000
  0.025811623   -0.820636 -172.081390  -95.309650   19.783445    0.000000    0.000000    0.000000    0.000000
  0.026012024   -0.832793 -173.831696  -95.775456   17.980331    0.000000    0.000000    0.000000    0.000000
  0.026212425   -0.843632 -175.576584  -94.745660   16.176853    0.000000    0.000000    0.000000    0.000000
  0.026412826   -0.856471 -177.316452  -95.811864   18.283756    0.000000    0.000000    0.000000    0.000000
  0.026613226   -0.872080 -179.083344  -96.024225   23.402924    0.000000    0.000000    0.000000    0.000000
  0.026813627   -0.888272  179.133240  -96.154807   20.878256    0.000000    0.000000    0.000000    0.000000
  0.027014028   -0.904888  177.353668  -96.201221   16.137541    0.000000    0.000000    0.000000    0.000000
  0.027214429   -0.923842  175.547272  -96.547029   18.686417    0.000000    0.000000    0.000000    0.000000
  0.027414830   -0.938804  173.729721  -96.223151   18.650198    0.000000    0.000000    0.000000    0.000000
  0.027615230   -0.956750  171.921783  -96.832097   23.481613    0.000000    0.000000    0.000000    0.000000
  0.027815631   -0.977377  170.088318  -96.850738   24.455099    0.000000    0.000000    0.000000    0.000000
  0.028016032   -0.997361  168.234451  -97.522956   20.810884    0.000000    0.000000    0.000000    0.000000
  0.028216433   -1.018550  166.401886  -96.271116   20.674381    0.000000    0.000000    0.000000    0.000000
  0.028416834   -1.039321  164.551697  -97.159276   20.695400    0.000000    0.000000    0.000000    0.000000
  0.028617234   -1.059006  162.689240  -96.662679   18.677238    0.000000    0.000000    0.000000    0.000000
  0.028817635   -1.076324  160.846237  -95.480347   19.493364    0.000000    0.000000    0.000000    0.000000
  0.029018036   -1.096369  159.013626  -96.819778   23.579611    0.000000    0.000000    0.000000    0.000000
  0.029218437   -1.117243  157.156021  -95.828674   18.512493    0.000000    0.000000    0.000000    0.000000
  0.029418838   -1.140179  155.336609  -95.889398   15.877907    0.000000    0.000000    0.000000    0.000000
  0.029619238   -1.165089  153.467941  -97.087738   15.434554    0.000000    0.000000    0.000000    0.000000
  0.029819639   -1.192799  151.587662  -96.400934   20.704239    0.000000    0.000000    0.000000    0.000000
  0.030020040   -1.223555  149.682663  -96.820617   11.111695    0.000000    0.000000    0.000000    0.000000
  0.030220441   -1.254217  147.755630  -96.342164   15.238635    0.000000    0.000000    0.000000    0.000000
  0.030420842   -1.283023  145.830917  -97.298745   12.987127    0.000000    0.000000    0.000000    0.000000
  0.030621242   -1.314804  143.910675  -96.816620    6.423394    0.000000    0.000000    0.000000    0.000000
  0.030821643   -1.346247  141.988525  -97.643034    2.778109    0.000000    0.000000    0.000000    0.000000
  0.031022044   -1.380645  140.060959  -96.959947   11.604456    0.000000    0.000000    0.000000    0.000000
  0.031222445   -1.411270  138.131653  -97.112999   15.202080    0.000000    0.000000    0.000000    0.000000
  0.031422846   -1.448085  136.156281  -97.561917   14.145814    0.000000    0.000000    0.000000    0.000000
  0.031623246   -1.487320  134.174469  -98.216016    3.280518    0.000000    0.000000    0.000000    0.000000
  0.031823647   -1.525495  132.158249  -96.434033    4.516878    0.000000    0.000000    0.000000    0.000000
  0.032024048   -1.561750  130.157028  -99.060235    9.273979    0.000000    0.000000    0.000000    0.000000
  0.032224449   -1.598727  128.132019  -98.925111    6.313697    0.000000    0.000000    0.000000    0.000000
  0.032424850   -1.636203  126.139236  -97.712431    9.642037    0.000000    0.000000    0.000000    0.000000
  0.032625251   -1.671045  124.134178  -97.816112    7.732431    0.000000    0.000000    0.000000    0.000000
  0.032825651   -1.709212  122.135872  -98.482710   12.429118    0.000000    0.000000    0.000000    0.000000
  0.033026052   -1.748869  120.117493  -98.597562   11.496138    0.000000    0.000000    0.000000    0.000000
  0.033226453   -1.788316  118.129990  -98.240465   11.671796    0.000000    0.000000    0.000000    0.000000
  0.033426854   -1.834997  116.127815  -98.991317   12.626109    0.000000    0.000000    0.000000    0.000000
  0.033627255   -1.884278  114.149635  -99.485498   13.107519    0.000000    0.000000    0.000000    0.000000
  0.033827655   -1.935660  112.112877  -99.286366   13.978592    0.000000    0.000000    0.000000    0.000000
  0.034028056   -1.988387  110.059517  -98.539365   13.033209    0.000000    0.000000    0.000000    0.000000
  0.034228457   -2.038655  107.971741  -99.447092    6.694154    0.000000    0.000000    0.000000    0.000000
  0.034428858   -2.092764  105.840813  -97.583385   13.071020    0.000000    0.000000    0.000000    0.000000
  0.034629259   -2.142455  103.726036  -98.422937   10.590038    0.000000    0.000000    0.000000    0.000000
  0.034829659   -2.187158  101.601646  -98.386414    6.383773    0.000000    0.000000    0.000000    0.000000
  0.035030060   -2.234265   99.458656  -99.507707    5.738821    0.000000    0.000000    0.000000    0.000000
  0.035230461   -2.281927   97.335098  -99.487840   -3.454766    0.000000    0.000000    0.000000    0.000000
  0.035430862   -2.324338   95.224754  -99.337311    1.259633    0.000000    0.000000    0.000000    0.000000
  0.035631263   -2.367502   93.112289  -98.492650   10.789426    0.000000    0.000000    0.000000    0.000000
  0.035831663   -2.411927   91.031082  -98.712160    6.797874    0.000000    0.000000    0.000000    0.000000
  0.036032064   -2.458358   88.960556  -97.939966    1.397070    0.000000    0.000000    0.000000    0.000000
  0.036232465   -2.501656   86.896988  -98.824575   -1.042708    0.000000    0.000000    0.000000    0.000000
  0.036432866   -2.548557   84.825783  -99.391464   13.822857    0.000000    0.000000    0.000000    0.000000
  0.036633267   -2.599353   82.776863  -98.850295    0.288835    0.000000    0.000000    0.000000    0.000000
  0.036833667   -2.651226   80.726318 -101.540717    3.020171    0.000000    0.000000    0.000000    0.000000
  0.037034068   -2.710834   78.659851 -100.715467    6.542254    0.000000    0.000000    0.000000    0.000000
  0.037234469   -2.771247   76.589966 -101.663222    7.602081    0.000000    0.000000    0.000000    0.000000
  0.037434870   -2.838327   74.510696  -98.718459    5.185227    0.000000    0.000000    0.000000    0.000000
  0.037635271   -2.906244   72.414665 -100.224886    4.131635    0.000000    0.000000    0.000000    0.000000
  0.037835671   -2.979766   70.369690 -101.151593    2.656253    0.000000    0.000000    0.000000    0.000000
  0.038036072   -3.038915   68.367577  -99.804988   15.219779    0.000000    0.000000    0.000000    0.000000
  0.038236473   -3.087751   66.285255  -99.592021   -2.019230    0.000000    0.000000    0.000000    0.000000
  0.038436874   -3.138099   64.164459 -101.167813   11.129981    0.000000    0.000000    0.000000    0.000000
  0.038637275   -3.189399   62.036770  -99.718361    6.879154    0.000000    0.000000    0.000000    0.000000
  0.038837675   -3.237236   59.929173 -100.163559   10.558787    0.000000    0.000000    0.000000    0.000000
  0.039038076   -3.280309   57.841621 -101.420339    8.017684    0.000000    0.000000    0.000000    0.000000
  0.039238477   -3.322501   55.770325 -101.305994    9.524582    0.000000    0.000000    0.000000    0.000000
  0.039438878   -3.371285   53.728443 -100.216758   -0.790021    0.000000    0.000000    0.000000    0.000000
  0.039639279   -3.420252   51.697208 -101.024557    0.892318    0.000000    0.000000    0.000000    0.000000
  0.039839679   -3.478513   49.670357  -99.139626    8.819920    0.000000    0.000000    0.000000    0.000000
  0.040040080   -3.534006   47.634254 -100.468156   12.435057    0.000000    0.000000    0.000000    0.000000
  0.040240481   -3.592599   45.599525 -100.675396   11.173336    0.000000    0.000000    0.000000    0.000000
  0.040440882   -3.652341   43.526585  -99.639158    4.468386    0.000000    0.000000    0.000000    0.000000
  0.040641283   -3.710703   41.453644 -100.630239    2.996970    0.000000    0.000000    0.000000    0.000000
  0.040841683   -3.769881   39.381012  -99.931373   13.848437    0.000000    0.000000    0.000000    0.000000
  0.041042084   -3.822960   37.330086 -100.379091    1.665084    0.000000    0.000000    0.000000    0.000000
  0.041242485   -3.879074   35.268726  -99.277043    3.716408    0.000000    0.000000    0.000000    0.000000
  0.041442886   -3.932824   33.204048  -99.475779   -2.239925    0.000000    0.000000    0.000000    0.000000
  0.041643287   -3.988154   31.137259  -99.600924    9.799653    0.000000    0.000000    0.000000    0.000000
  0.041843687   -4.036712   29.055481 -100.675809    2.050545    0.000000    0.000000    0.000000    0.000000
  0.042044088   -4.088275   27.002140 -100.683043   10.073968    0.000000    0.000000    0.000000    0.000000
  0.042244489   -4.137816   24.956278 -100.272084   -2.907701    0.000000    0.000000    0.000000    0.000000
  0.042444890   -4.185669   22.947229 -103.286739   -2.845554    0.000000    0.000000    0.000000    0.000000
  0.042645291   -4.234326   20.925335 -102.411703   -5.591228    0.000000    0.000000    0.000000    0.000000
  0.042845691   -4.282104   18.927877 -102.472333   -5.683129    0.000000    0.000000    0.000000    0.000000
  0.043046092   -4.330750   16.937319 -103.628281   -6.724029    0.000000    0.000000    0.000000    0.000000
  0.043246493   -4.375668   14.931552 -102.640709    9.142785    0.000000    0.000000    0.000000    0.000000
  0.043446894   -4.421618   12.944195 -102.064673    8.961335    0.000000    0.000000    0.000000    0.000000
  0.043647295   -4.466580   10.957362 -103.443546    8.510336    0.000000    0.000000    0.000000    0.000000
  0.043847695   -4.511797    8.985272 -104.302873   16.630516    0.000000    0.000000    0.000000    0.000000
  0.044048096   -4.557386    7.019820 -105.427402   14.074739    0.000000    0.000000    0.000000    0.000000
  0.044248497   -4.602285    5.070552 -103.377805    6.819732    0.000000    0.000000    0.000000    0.000000
  0.044448898   -4.643707    3.112180 -102.338616    7.761400    0.000000    0.000000    0.000000    0.000000
  0.044649299   -4.689737    1.184005 -102.853817   24.700518    0.000000    0.000000    0.000000    0.000000
  0.044849699   -4.732512   -0.724391 -101.717839    4.305439    0.000000    0.000000    0.000000    0.000000
  0.045050100   -4.773987   -2.623495 -103.282047   -5.672309    0.000000    0.000000    0.000000    0.000000
  0.045250501   -4.814268   -4.549833 -102.939525   12.066926    0.000000    0.000000    0.000000    0.000000
  0.045450902   -4.851998   -6.421175 -103.291222   24.114367    0.000000    0.000000    0.000000    0.000000
  0.045651303   -4.890120   -8.312749 -100.499654    8.853389    0.000000    0.000000    0.000000    0.000000
  0.045851703   -4.929704  -10.161261 -101.992141    0.226770    0.000000    0.000000    0.000000    0.000000
  0.046052104   -4.969547  -12.021801 -100.042374    5.985077    0.000000    0.000000    0.000000    0.000000
  0.046252505   -5.008251  -13.884149 -101.897763   11.304550    0.000000    0.000000    0.000000    0.000000
  0.046452906   -5.047903  -15.719274 -101.471322    5.973433    0.000000    0.000000    0.000000    0.000000
  0.046653307   -5.086878  -17.559750 -100.809533   -0.179402    0.000000    0.000000    0.000000    0.000000
  0.046853707   -5.123951  -19.410154 -100.694386   -3.705426    0.000000    0.000000    0.000000    0.000000
  0.047054108   -5.163310  -21.229212 -102.542675    5.135838    0.000000    0.000000    0.000000    0.000000
  0.047254509   -5.199812  -23.038925 -101.194608   -8.107035    0.000000    0.000000    0.000000    0.000000
  0.047454910   -5.234355  -24.841040 -102.095620   -1.746014    0.000000    0.000000    0.000000    0.000000
  0.047655311   -5.265854  -26.619221 -101.347386    5.839974    0.000000    0.000000    0.000000    0.000000
  0.047855711   -5.298949  -28.375874 -102.058143   -7.555747    0.000000    0.000000    0.000000    0.000000
  0.048056112   -5.331484  -30.117361 -103.054426   -3.491230    0.000000    0.000000    0.000000    0.000000
  0.048256513   -5.361732  -31.868818 -105.832056    2.144994    0.000000    0.000000    0.000000    0.000000
  0.048456914   -5.393092  -33.604824 -104.905225   -7.831040    0.000000    0.000000    0.000000    0.000000
  0.048657315   -5.428547  -35.334938 -101.864436   -2.440633    0.000000    0.000000    0.000000    0.000000
  0.048857715   -5.454188  -37.066189 -103.803953   -0.292293    0.000000    0.000000    0.000000    0.000000
  0.049058116   -5.486706  -38.817043 -102.024454   10.196917    0.000000    0.000000    0.000000    0.000000
  0.049258517   -5.512268  -40.521286 -106.861834   -7.675966    0.000000    0.000000    0.000000    0.000000
  0.049458918   -5.536932  -42.220642 -104.412335   14.172249    0.000000    0.000000    0.000000    0.000000
  0.049659319   -5.566963  -43.945568 -105.874956    4.392852    0.000000    0.000000    0.000000    0.000000
  0.049859719   -5.592821  -45.605671 -103.113505    6.287192    0.000000    0.000000    0.000000    0.000000
  0.050060120   -5.618055  -47.294228 -102.703297    8.466608    0.000000    0.000000    0.000000    0.000000
  0.050260521   -5.640872  -48.980133 -104.936759    6.034316    0.000000    0.000000    0.000000    0.000000
  0.050460922   -5.664227  -50.657089 -104.118337   10.528749    0.000000    0.000000    0.000000    0.000000
  0.050661323   -5.684224  -52.322708 -102.250313    6.696207    0.000000    0.000000    0.000000    0.000000
  0.050861723   -5.698576  -53.957405 -101.969089   -4.565247    0.000000    0.000000    0.000000    0.000000
  0.051062124   -5.716078  -55.600922 -102.530984    9.228193    0.000000    0.000000    0.000000    0.000000
  0.051262525   -5.733776  -57.193344 -101.864115   -4.937157    0.000000    0.000000    0.000000    0.000000
  0.051462926   -5.750773  -58.764935 -103.274821    0.619651    0.000000    0.000000    0.000000    0.000000
  0.051663327   -5.762883  -60.308678 -101.682138   10.242513    0.000000    0.000000    0.000000    0.000000
  0.051863727   -5.778176  -61.867847 -102.352503   17.955481    0.000000    0.000000    0.000000    0.000000
  0.052064128   -5.796172  -63.387455 -101.487139    5.209701    0.000000    0.000000    0.000000    0.000000
  0.052264529   -5.814636  -64.907814 -104.459487    5.505762    0.000000    0.000000    0.000000    0.000000
  0.052464930   -5.830013  -66.424385 -102.986581   12.833246    0.000000    0.000000    0.000000    0.000000
  0.052665331   -5.849049  -67.954720 -102.640562   -7.464217    0.000000    0.000000    0.000000    0.000000
  0.052865731   -5.865613  -69.433914 -102.944418    3.517901    0.000000    0.000000    0.000000    0.000000
