! Anritsu VNA Master:                     Model: MS2036C/10/77
! SN:                                  1601066
! /bd0/18may07/256.ns.cal2.s2p
! Existing Calibration Information:
! TYPE:                         Current Settings,       Active Cal Settings
! TIME:             	   05/07/2018 02:59:52 PM,    05/07/2018 02:58:54 PM
! INTERNAL TEMP:    	                   58.8 C,                    58.8 C
! # POINTS:         	                      500,                       500
! START FREQ:       	               20.000 MHz,                20.000 MHz
! STOP FREQ:        	              120.000 MHz,               120.000 MHz
! SOURCE POWER:     	                     High,                      High
! IFBW:             	                    50 Hz,                     50 Hz
! AVG FACTOR:       	                       1 ,                        1 
! REF PLANE 1:      	                     0 mm,                      0 mm
! REF PLANE 2:      	                     0 mm,                      0 mm
! CAL TYPE:         	                 Full S11,                  Full S11
! CAL METHOD:       	                     SOLT,                      SOLT
! CAL LINE TYPE:    	                     Coax,                      Coax
! DUT PORT 1:       	                K-Conn(F),                 K-Conn(F)
! DUT PORT 2:       	                K-Conn(F),                 K-Conn(F)
! CAL STATUS:       	        OK: Accuracy High,                        --
# GHZ S DB R 50.0
! FREQ.GHZ       S11DB        S11A       S21DB        S21A       S12DB        S12A       S22DB        S22A
  0.020000000  -74.615972  -56.470665  -91.510307   34.024864    0.000000    0.000000    0.000000    0.000000
  0.020200401  -75.425588  -80.662056  -91.119577   33.583054    0.000000    0.000000    0.000000    0.000000
  0.020400802  -73.632416  -62.805305  -91.071370   34.206371    0.000000    0.000000    0.000000    0.000000
  0.020601202  -73.663999  -45.025394  -91.334775   35.980961    0.000000    0.000000    0.000000    0.000000
  0.020801603  -88.237597    6.078407  -92.271587   34.920547    0.000000    0.000000    0.000000    0.000000
  0.021002004  -87.697338  -99.389435  -91.834947   33.713097    0.000000    0.000000    0.000000    0.000000
  0.021202405  -77.703645  -29.124704  -92.018117   30.334539    0.000000    0.000000    0.000000    0.000000
  0.021402806  -77.019215  -79.401123  -92.079453   31.700909    0.000000    0.000000    0.000000    0.000000
  0.021603206  -75.956815  -33.116608  -93.106879   33.601608    0.000000    0.000000    0.000000    0.000000
  0.021803607  -81.779313   24.746758  -92.386573   30.471411    0.000000    0.000000    0.000000    0.000000
  0.022004008  -73.139620   19.660706  -91.829623   27.708839    0.000000    0.000000    0.000000    0.000000
  0.022204409  -72.750430   49.489685  -92.466573   30.040344    0.000000    0.000000    0.000000    0.000000
  0.022404810  -72.017860   54.828201  -93.476449   32.091557    0.000000    0.000000    0.000000    0.000000
  0.022605210  -75.377141    0.185460  -93.002791   30.976227    0.000000    0.000000    0.000000    0.000000
  0.022805611  -76.646152   43.808121  -92.533452   26.594229    0.000000    0.000000    0.000000    0.000000
  0.023006012  -74.652788   30.212549  -92.391208   27.711922    0.000000    0.000000    0.000000    0.000000
  0.023206413  -73.637359   47.517555  -93.535121   25.737728    0.000000    0.000000    0.000000    0.000000
  0.023406814  -78.312588   62.058006  -93.262881   30.350601    0.000000    0.000000    0.000000    0.000000
  0.023607214  -83.412478   72.959061  -93.690181   27.105333    0.000000    0.000000    0.000000    0.000000
  0.023807615  -73.980416   38.007313  -93.517800   22.120144    0.000000    0.000000    0.000000    0.000000
  0.024008016  -77.731270   65.144905  -94.240080   24.882656    0.000000    0.000000    0.000000    0.000000
  0.024208417  -83.169094   80.221939  -93.714031   24.358404    0.000000    0.000000    0.000000    0.000000
  0.024408818  -70.260807   95.756798  -94.409025   24.295572    0.000000    0.000000    0.000000    0.000000
  0.024609218  -74.311531  111.749069  -94.217873   26.958656    0.000000    0.000000    0.000000    0.000000
  0.024809619  -79.980730   97.910110  -94.601960   24.647627    0.000000    0.000000    0.000000    0.000000
  0.025010020  -87.742505   19.392952  -94.323148   17.718756    0.000000    0.000000    0.000000    0.000000
  0.025210421  -74.346333  107.865341  -94.170220   20.894213    0.000000    0.000000    0.000000    0.000000
  0.025410822  -76.159373   17.996185  -94.600154   26.962194    0.000000    0.000000    0.000000    0.000000
  0.025611222  -79.545251   70.907867  -94.758445   19.001165    0.000000    0.000000    0.000000    0.000000
  0.025811623  -87.452700 -137.934647  -94.969788   23.376606    0.000000    0.000000    0.000000    0.000000
  0.026012024  -76.418791  102.350220  -94.880276   19.784124    0.000000    0.000000    0.000000    0.000000
  0.026212425  -88.853386   53.343758  -94.407946   22.831654    0.000000    0.000000    0.000000    0.000000
  0.026412826  -77.595336  106.114685  -95.167959   17.916346    0.000000    0.000000    0.000000    0.000000
  0.026613226  -74.396418   70.655724  -95.158342   20.575315    0.000000    0.000000    0.000000    0.000000
  0.026813627  -87.516157   73.266991  -95.010941   20.610989    0.000000    0.000000    0.000000    0.000000
  0.027014028  -78.189126  106.487495  -95.050136   15.083669    0.000000    0.000000    0.000000    0.000000
  0.027214429  -80.224424  169.632080  -95.783675   15.292246    0.000000    0.000000    0.000000    0.000000
  0.027414830  -77.594502   58.094959  -95.290103   18.503204    0.000000    0.000000    0.000000    0.000000
  0.027615230  -82.471795   58.865055  -96.133638   17.875965    0.000000    0.000000    0.000000    0.000000
  0.027815631  -89.314868 -103.118912  -96.878158   16.693420    0.000000    0.000000    0.000000    0.000000
  0.028016032  -78.765623  119.806915  -95.905076   22.005228    0.000000    0.000000    0.000000    0.000000
  0.028216433  -90.562007   22.754444  -96.051027   16.509697    0.000000    0.000000    0.000000    0.000000
  0.028416834  -77.833969   93.585068  -95.943304   19.612637    0.000000    0.000000    0.000000    0.000000
  0.028617234  -83.836583 -142.119400  -96.075051   22.256042    0.000000    0.000000    0.000000    0.000000
  0.028817635  -82.215623   19.409819  -97.089385   19.629030    0.000000    0.000000    0.000000    0.000000
  0.029018036  -80.822631  165.154922  -96.716173   23.556042    0.000000    0.000000    0.000000    0.000000
  0.029218437  -76.936919   96.125435  -96.889099   20.053484    0.000000    0.000000    0.000000    0.000000
  0.029418838  -88.996607  121.204765  -96.776414   13.648855    0.000000    0.000000    0.000000    0.000000
  0.029619238  -75.454433   83.426620  -97.749067   22.550447    0.000000    0.000000    0.000000    0.000000
  0.029819639  -74.223412  158.954269  -96.444339   16.739880    0.000000    0.000000    0.000000    0.000000
  0.030020040  -79.651296  154.908249  -97.978949   12.247071    0.000000    0.000000    0.000000    0.000000
  0.030220441  -76.440854  162.080460  -97.304661   14.084641    0.000000    0.000000    0.000000    0.000000
  0.030420842  -92.953095   51.504974  -98.067292   15.815531    0.000000    0.000000    0.000000    0.000000
  0.030621242  -78.001258  176.556137  -97.241639   20.242903    0.000000    0.000000    0.000000    0.000000
  0.030821643  -84.128393 -160.136719  -98.122968   19.210728    0.000000    0.000000    0.000000    0.000000
  0.031022044  -82.420881  -69.868446  -99.409208   12.134035    0.000000    0.000000    0.000000    0.000000
  0.031222445  -77.612074  159.588531  -97.453138   10.785698    0.000000    0.000000    0.000000    0.000000
  0.031422846  -81.816098  146.533569  -98.788621   13.410810    0.000000    0.000000    0.000000    0.000000
  0.031623246  -93.172145    2.745378  -97.158303   13.953168    0.000000    0.000000    0.000000    0.000000
  0.031823647  -81.909964 -169.074402  -98.593704   10.925070    0.000000    0.000000    0.000000    0.000000
  0.032024048  -80.032790   -9.981088  -98.380698   18.375553    0.000000    0.000000    0.000000    0.000000
  0.032224449  -81.796125 -158.594345  -98.565639   10.315256    0.000000    0.000000    0.000000    0.000000
  0.032424850  -78.206723  -62.501278  -97.881125   12.860110    0.000000    0.000000    0.000000    0.000000
  0.032625251  -86.928066   22.059673  -98.540861    2.337405    0.000000    0.000000    0.000000    0.000000
  0.032825651  -78.910965  -82.391998  -97.925326   10.338425    0.000000    0.000000    0.000000    0.000000
  0.033026052  -74.798237  -31.562895  -98.881354   14.213464    0.000000    0.000000    0.000000    0.000000
  0.033226453  -76.363233  -13.192096  -98.027420    6.876517    0.000000    0.000000    0.000000    0.000000
  0.033426854  -79.605188  -62.698227  -98.006205    3.758934    0.000000    0.000000    0.000000    0.000000
  0.033627255  -74.086143  -26.930759  -98.520368   13.134352    0.000000    0.000000    0.000000    0.000000
  0.033827655  -82.098461  -13.299754  -97.780946    6.604740    0.000000    0.000000    0.000000    0.000000
  0.034028056  -76.862234   15.634727  -97.846130   16.143044    0.000000    0.000000    0.000000    0.000000
  0.034228457  -74.531503    8.652356  -98.186199   13.363600    0.000000    0.000000    0.000000    0.000000
  0.034428858  -75.984991   34.592976 -100.008555    8.854021    0.000000    0.000000    0.000000    0.000000
  0.034629259  -73.646377   49.889858  -98.545141    6.879119    0.000000    0.000000    0.000000    0.000000
  0.034829659  -72.627472   68.209900  -98.317982   -1.629358    0.000000    0.000000    0.000000    0.000000
  0.035030060  -76.318771   29.289425 -100.198272    3.019176    0.000000    0.000000    0.000000    0.000000
  0.035230461  -77.189532   52.304100  -99.222997    8.051177    0.000000    0.000000    0.000000    0.000000
  0.035430862  -72.551116   55.739994  -98.957104    6.834893    0.000000    0.000000    0.000000    0.000000
  0.035631263  -74.798542   86.293732  -98.278049    6.943955    0.000000    0.000000    0.000000    0.000000
  0.035831663  -77.921509   62.126549  -98.304439   -2.019007    0.000000    0.000000    0.000000    0.000000
  0.036032064  -79.478422   54.486263  -99.081869    3.760141    0.000000    0.000000    0.000000    0.000000
  0.036232465  -72.493838   96.635574  -99.991326   11.444681    0.000000    0.000000    0.000000    0.000000
  0.036432866  -70.887083  111.592621  -99.975026    3.286462    0.000000    0.000000    0.000000    0.000000
  0.036633267  -76.131036  103.373283 -100.310303   14.927845    0.000000    0.000000    0.000000    0.000000
  0.036833667  -71.400273   94.733650 -100.040324   11.901346    0.000000    0.000000    0.000000    0.000000
  0.037034068  -75.523127  104.773315  -99.866108   -4.888708    0.000000    0.000000    0.000000    0.000000
  0.037234469  -72.589871  125.096512 -100.387102   16.165855    0.000000    0.000000    0.000000    0.000000
  0.037434870  -74.628712  161.383255  -99.231242    1.533591    0.000000    0.000000    0.000000    0.000000
  0.037635271  -72.033261  137.583496  -98.620219   -4.849314    0.000000    0.000000    0.000000    0.000000
  0.037835671  -78.652870  154.207520  -99.371142    5.328130    0.000000    0.000000    0.000000    0.000000
  0.038036072  -72.527441 -177.244156 -100.820042    8.074669    0.000000    0.000000    0.000000    0.000000
  0.038236473  -68.644657 -173.386108 -100.287633   -4.248528    0.000000    0.000000    0.000000    0.000000
  0.038436874  -71.524003  149.465500  -99.203993   13.986844    0.000000    0.000000    0.000000    0.000000
  0.038637275  -75.298670 -170.108414  -99.474392   10.056161    0.000000    0.000000    0.000000    0.000000
  0.038837675  -74.162009 -161.136551  -99.414852   12.535280    0.000000    0.000000    0.000000    0.000000
  0.039038076  -73.830946 -158.154343  -99.683673    5.213113    0.000000    0.000000    0.000000    0.000000
  0.039238477  -77.824583 -157.177734  -99.721342    5.292230    0.000000    0.000000    0.000000    0.000000
  0.039438878  -73.416938  -98.847046 -100.165762   16.339294    0.000000    0.000000    0.000000    0.000000
  0.039639279  -72.611420 -160.045105 -101.541330   13.484351    0.000000    0.000000    0.000000    0.000000
  0.039839679  -72.486972 -139.523666 -100.100323    8.665184    0.000000    0.000000    0.000000    0.000000
  0.040040080  -77.347187 -124.648483  -99.900014    3.190402    0.000000    0.000000    0.000000    0.000000
  0.040240481  -77.517264  -96.329865 -102.231866    8.950940    0.000000    0.000000    0.000000    0.000000
  0.040440882  -74.384447  -60.854813 -101.428338    5.180003    0.000000    0.000000    0.000000    0.000000
  0.040641283  -75.714048  -34.019554 -100.486705   12.743667    0.000000    0.000000    0.000000    0.000000
  0.040841683  -76.163298 -107.416191 -101.546744   -2.494877    0.000000    0.000000    0.000000    0.000000
  0.041042084  -81.741526   20.014362 -101.526982    8.578302    0.000000    0.000000    0.000000    0.000000
  0.041242485  -72.514587  -39.331516 -100.120500    8.330862    0.000000    0.000000    0.000000    0.000000
  0.041442886  -74.599261  -18.959105  -99.792011   -3.522147    0.000000    0.000000    0.000000    0.000000
  0.041643287  -75.861901   -8.841155 -100.573755   -0.996295    0.000000    0.000000    0.000000    0.000000
  0.041843687  -73.929431   -4.965399 -101.554858    4.651567    0.000000    0.000000    0.000000    0.000000
  0.042044088  -69.719283   -9.585137 -101.919851    5.677589    0.000000    0.000000    0.000000    0.000000
  0.042244489  -70.294769   21.730719 -102.016598    3.361204    0.000000    0.000000    0.000000    0.000000
  0.042444890  -72.184545   16.902531  -99.986138   11.468341    0.000000    0.000000    0.000000    0.000000
  0.042645291  -68.233580   13.649347 -102.227208    2.759570    0.000000    0.000000    0.000000    0.000000
  0.042845691  -81.558140   40.952389 -100.543756    7.211765    0.000000    0.000000    0.000000    0.000000
  0.043046092  -72.483147   46.613464 -102.917652    6.241603    0.000000    0.000000    0.000000    0.000000
  0.043246493  -69.900899   63.982426 -101.491905    4.315394    0.000000    0.000000    0.000000    0.000000
  0.043446894  -75.697659   75.187958 -100.934356   11.888859    0.000000    0.000000    0.000000    0.000000
  0.043647295  -75.354230   86.249542 -100.740130   14.106095    0.000000    0.000000    0.000000    0.000000
  0.043847695  -73.265600   82.869919 -102.035661    2.184084    0.000000    0.000000    0.000000    0.000000
  0.044048096  -70.356707   88.421570 -102.115712   -3.044880    0.000000    0.000000    0.000000    0.000000
  0.044248497  -69.220240   88.694359 -101.317548   -2.235517    0.000000    0.000000    0.000000    0.000000
  0.044448898  -69.279915  115.322952 -101.604754    4.950934    0.000000    0.000000    0.000000    0.000000
  0.044649299  -76.143041  159.543259 -102.039906   -0.098178    0.000000    0.000000    0.000000    0.000000
  0.044849699  -73.667954  140.106277 -102.025554    2.990727    0.000000    0.000000    0.000000    0.000000
  0.045050100  -72.954248  126.097710 -101.566000  -14.544172    0.000000    0.000000    0.000000    0.000000
  0.045250501  -70.333824  116.520172 -104.867446   18.213333    0.000000    0.000000    0.000000    0.000000
  0.045450902  -69.153631  121.785500 -101.627810   -3.855996    0.000000    0.000000    0.000000    0.000000
  0.045651303  -71.180842  124.844589 -101.942034    7.089621    0.000000    0.000000    0.000000    0.000000
  0.045851703  -71.634280  173.984131 -101.982563    0.379625    0.000000    0.000000    0.000000    0.000000
  0.046052104  -73.055167  166.026779 -102.306026    9.323960    0.000000    0.000000    0.000000    0.000000
  0.046252505  -73.195146 -164.476303 -104.017871    8.306493    0.000000    0.000000    0.000000    0.000000
  0.046452906  -74.247915  170.461700 -102.841562   -0.128289    0.000000    0.000000    0.000000    0.000000
  0.046653307  -79.553366 -165.853622 -102.003773   -3.406914    0.000000    0.000000    0.000000    0.000000
  0.046853707  -79.109722 -168.887238 -103.212745   13.298963    0.000000    0.000000    0.000000    0.000000
  0.047054108  -71.060225 -161.110947 -102.666039   21.589485    0.000000    0.000000    0.000000    0.000000
  0.047254509  -73.802334 -128.093323 -102.446689   -1.021620    0.000000    0.000000    0.000000    0.000000
  0.047454910  -75.759045 -176.513947 -102.928607    1.684917    0.000000    0.000000    0.000000    0.000000
  0.047655311  -69.616022 -155.032150 -104.239121    7.494810    0.000000    0.000000    0.000000    0.000000
  0.047855711  -74.086076 -150.585892 -103.048146   -2.939703    0.000000    0.000000    0.000000    0.000000
  0.048056112  -76.215946 -155.205994 -100.717140    3.008221    0.000000    0.000000    0.000000    0.000000
  0.048256513  -75.958371 -106.514877 -102.728568    2.612560    0.000000    0.000000    0.000000    0.000000
  0.048456914  -83.689682  174.965408 -103.365669   -1.335913    0.000000    0.000000    0.000000    0.000000
  0.048657315  -81.958510  -58.708618 -101.678577    4.411647    0.000000    0.000000    0.000000    0.000000
  0.048857715  -70.369948  -85.818054 -101.983866   10.339247    0.000000    0.000000    0.000000    0.000000
  0.049058116  -87.365418 -112.607903 -102.414210   -0.563026    0.000000    0.000000    0.000000    0.000000
  0.049258517  -85.910360  -99.291824 -103.511477   -6.821788    0.000000    0.000000    0.000000    0.000000
  0.049458918  -79.399467  -27.678091 -103.396836    6.018888    0.000000    0.000000    0.000000    0.000000
  0.049659319  -81.796727  -38.324501 -103.047153   -0.511110    0.000000    0.000000    0.000000    0.000000
  0.049859719  -74.686971   -6.843699 -105.028489    6.848263    0.000000    0.000000    0.000000    0.000000
  0.050060120  -82.326399   -4.870839 -103.000093    0.375257    0.000000    0.000000    0.000000    0.000000
  0.050260521  -86.188469   -9.295007 -102.165035   -0.886131    0.000000    0.000000    0.000000    0.000000
  0.050460922  -82.255188  -48.953869 -100.970804    0.700226    0.000000    0.000000    0.000000    0.000000
  0.050661323  -82.150779  -68.773331 -106.118977   11.299624    0.000000    0.000000    0.000000    0.000000
  0.050861723  -80.041132  -46.935925 -102.560184   -0.328187    0.000000    0.000000    0.000000    0.000000
  0.051062124  -89.534144  144.152313 -104.364223   15.498360    0.000000    0.000000    0.000000    0.000000
  0.051262525  -74.487187  107.357025 -103.472532    9.601914    0.000000    0.000000    0.000000    0.000000
  0.051462926  -78.156068   22.237448 -104.034484    3.635018    0.000000    0.000000    0.000000    0.000000
  0.051663327  -80.021358   -9.239771 -102.871829   -2.586322    0.000000    0.000000    0.000000    0.000000
  0.051863727  -82.240385  152.094574 -103.986509    1.953041    0.000000    0.000000    0.000000    0.000000
  0.052064128  -82.958645  130.091156 -105.072959    5.817145    0.000000    0.000000    0.000000    0.000000
  0.052264529  -80.476526   81.636253 -104.441438    8.521118    0.000000    0.000000    0.000000    0.000000
  0.052464930  -85.079453   58.691441 -103.949367    2.032220    0.000000    0.000000    0.000000    0.000000
  0.052665331  -83.833778  126.230927 -102.049492    4.399306    0.000000    0.000000    0.000000    0.000000
  0.052865731  -84.809092  154.930267 -105.113977   18.455873    0.000000    0.000000    0.000000    0.000000
