! Anritsu VNA Master:                     Model: MS2036C/10/77
! SN:                                  1601066
! /bd0/18may26.balun/4b.47.3.s2p
! Existing Calibration Information:
! TYPE:                         Current Settings,       Active Cal Settings
! TIME:             	   05/26/2018 05:14:59 PM,    05/26/2018 05:08:07 PM
! INTERNAL TEMP:    	                   52.8 C,                    52.5 C
! # POINTS:         	                      500,                       500
! START FREQ:       	               20.000 MHz,                20.000 MHz
! STOP FREQ:        	              120.000 MHz,               120.000 MHz
! SOURCE POWER:     	                     High,                      High
! IFBW:             	                    50 Hz,                     50 Hz
! AVG FACTOR:       	                       1 ,                        1 
! REF PLANE 1:      	                     0 mm,                      0 mm
! REF PLANE 2:      	                     0 mm,                      0 mm
! CAL TYPE:         	                 Full S11,                  Full S11
! CAL METHOD:       	                     SOLT,                      SOLT
! CAL LINE TYPE:    	                     Coax,                      Coax
! DUT PORT 1:       	                K-Conn(M),                 K-Conn(M)
! DUT PORT 2:       	                K-Conn(M),                 K-Conn(M)
! CAL STATUS:       	        OK: Accuracy High,                        --
# GHZ S DB R 50.0
! FREQ.GHZ       S11DB        S11A       S21DB        S21A       S12DB        S12A       S22DB        S22A
  0.020000000   -0.020574  -56.016827  -90.444834   35.990707    0.000000    0.000000    0.000000    0.000000
  0.020200401   -0.016779  -56.588882  -90.950200   36.145557    0.000000    0.000000    0.000000    0.000000
  0.020400802   -0.014202  -57.150097  -90.610866   35.017849    0.000000    0.000000    0.000000    0.000000
  0.020601202   -0.013222  -57.692905  -90.833476   30.941799    0.000000    0.000000    0.000000    0.000000
  0.020801603   -0.014014  -58.244171  -91.321659   28.213398    0.000000    0.000000    0.000000    0.000000
  0.021002004   -0.011702  -58.809227  -91.229755   29.435530    0.000000    0.000000    0.000000    0.000000
  0.021202405   -0.014777  -59.377472  -91.627112   28.338406    0.000000    0.000000    0.000000    0.000000
  0.021402806   -0.015884  -59.912964  -91.889075   30.601091    0.000000    0.000000    0.000000    0.000000
  0.021603206   -0.018540  -60.465862  -91.936461   26.863987    0.000000    0.000000    0.000000    0.000000
  0.021803607   -0.022908  -60.995972  -92.752387   26.626566    0.000000    0.000000    0.000000    0.000000
  0.022004008   -0.025065  -61.511951  -92.790718   29.116262    0.000000    0.000000    0.000000    0.000000
  0.022204409   -0.028562  -62.054302  -92.768618   23.876966    0.000000    0.000000    0.000000    0.000000
  0.022404810   -0.030259  -62.610382  -92.315551   26.717167    0.000000    0.000000    0.000000    0.000000
  0.022605210   -0.031053  -63.168457  -93.677632   28.526188    0.000000    0.000000    0.000000    0.000000
  0.022805611   -0.028819  -63.717537  -93.090343   30.122261    0.000000    0.000000    0.000000    0.000000
  0.023006012   -0.022187  -64.276527  -94.053970   27.667019    0.000000    0.000000    0.000000    0.000000
  0.023206413   -0.013378  -64.843498  -93.724773   37.362209    0.000000    0.000000    0.000000    0.000000
  0.023406814   -0.010365  -65.384880  -94.069809   32.862770    0.000000    0.000000    0.000000    0.000000
  0.023607214   -0.007253  -65.956627  -93.506506   34.671459    0.000000    0.000000    0.000000    0.000000
  0.023807615   -0.006623  -66.478996  -92.968015   31.419170    0.000000    0.000000    0.000000    0.000000
  0.024008016   -0.012477  -66.978943  -93.609618   30.109686    0.000000    0.000000    0.000000    0.000000
  0.024208417   -0.017429  -67.456451  -93.636020   31.063829    0.000000    0.000000    0.000000    0.000000
  0.024408818   -0.026222  -67.939026  -93.567681   25.748137    0.000000    0.000000    0.000000    0.000000
  0.024609218   -0.029882  -68.458748  -93.316006   29.230392    0.000000    0.000000    0.000000    0.000000
  0.024809619   -0.034286  -68.980171  -93.536309   24.574768    0.000000    0.000000    0.000000    0.000000
  0.025010020   -0.038352  -69.564590  -93.834108   22.557884    0.000000    0.000000    0.000000    0.000000
  0.025210421   -0.039870  -70.131500  -94.366177   21.967632    0.000000    0.000000    0.000000    0.000000
  0.025410822   -0.042301  -70.705101  -94.101648   20.094875    0.000000    0.000000    0.000000    0.000000
  0.025611222   -0.041561  -71.273109  -94.864053   19.444096    0.000000    0.000000    0.000000    0.000000
  0.025811623   -0.041763  -71.848457  -93.923912   12.882956    0.000000    0.000000    0.000000    0.000000
  0.026012024   -0.038097  -72.404381  -94.298979   17.994282    0.000000    0.000000    0.000000    0.000000
  0.026212425   -0.035791  -72.954544  -95.209218   21.399410    0.000000    0.000000    0.000000    0.000000
  0.026412826   -0.030718  -73.476173  -95.192116    9.478914    0.000000    0.000000    0.000000    0.000000
  0.026613226   -0.033346  -73.978653  -95.960234   19.111572    0.000000    0.000000    0.000000    0.000000
  0.026813627   -0.036566  -74.492401  -96.609467   17.081715    0.000000    0.000000    0.000000    0.000000
  0.027014028   -0.039803  -74.952362  -95.530100   19.266352    0.000000    0.000000    0.000000    0.000000
  0.027214429   -0.049224  -75.431664  -96.259172   25.373224    0.000000    0.000000    0.000000    0.000000
  0.027414830   -0.059459  -75.952576  -96.410035   20.679296    0.000000    0.000000    0.000000    0.000000
  0.027615230   -0.066905  -76.540916  -95.698586   18.509150    0.000000    0.000000    0.000000    0.000000
  0.027815631   -0.070220  -77.112778  -95.717569   24.398254    0.000000    0.000000    0.000000    0.000000
  0.028016032   -0.069434  -77.718636  -97.121658   28.640743    0.000000    0.000000    0.000000    0.000000
  0.028216433   -0.062474  -78.331642  -95.400771   21.686625    0.000000    0.000000    0.000000    0.000000
  0.028416834   -0.052875  -78.933517  -96.753882   28.024500    0.000000    0.000000    0.000000    0.000000
  0.028617234   -0.047016  -79.513283  -96.468457   24.617491    0.000000    0.000000    0.000000    0.000000
  0.028817635   -0.035968  -80.065750  -96.961071   20.358614    0.000000    0.000000    0.000000    0.000000
  0.029018036   -0.028016  -80.546280  -96.475193   20.491341    0.000000    0.000000    0.000000    0.000000
  0.029218437   -0.019037  -81.004417  -96.256018   24.595257    0.000000    0.000000    0.000000    0.000000
  0.029418838   -0.014477  -81.428520  -96.188593   19.205379    0.000000    0.000000    0.000000    0.000000
  0.029619238   -0.012908  -81.853516  -95.715045   10.579627    0.000000    0.000000    0.000000    0.000000
  0.029819639   -0.014528  -82.293121  -96.578404   16.673115    0.000000    0.000000    0.000000    0.000000
  0.030020040   -0.017876  -82.780769  -95.883606    8.629484    0.000000    0.000000    0.000000    0.000000
  0.030220441   -0.026772  -83.277298  -96.342700   10.418536    0.000000    0.000000    0.000000    0.000000
  0.030420842   -0.038201  -83.837303  -96.540150   11.568604    0.000000    0.000000    0.000000    0.000000
  0.030621242   -0.046865  -84.385201  -97.571533   10.114422    0.000000    0.000000    0.000000    0.000000
  0.030821643   -0.048039  -84.953751  -96.471180    7.206412    0.000000    0.000000    0.000000    0.000000
  0.031022044   -0.050995  -85.509918  -97.663352   16.988596    0.000000    0.000000    0.000000    0.000000
  0.031222445   -0.047042  -86.066696  -96.847597    6.285222    0.000000    0.000000    0.000000    0.000000
  0.031422846   -0.045695  -86.603851  -96.264558   12.576630    0.000000    0.000000    0.000000    0.000000
  0.031623246   -0.048472  -87.136147  -97.918242   12.445226    0.000000    0.000000    0.000000    0.000000
  0.031823647   -0.046642  -87.648514  -99.230444   17.837097    0.000000    0.000000    0.000000    0.000000
  0.032024048   -0.043645  -88.133682  -97.880996   16.994564    0.000000    0.000000    0.000000    0.000000
  0.032224449   -0.042196  -88.588890  -98.368793    1.073452    0.000000    0.000000    0.000000    0.000000
  0.032424850   -0.052816  -89.035965  -97.943667   11.266081    0.000000    0.000000    0.000000    0.000000
  0.032625251   -0.063475  -89.520660  -98.642104    4.672779    0.000000    0.000000    0.000000    0.000000
  0.032825651   -0.073854  -90.046738  -99.202612   13.306517    0.000000    0.000000    0.000000    0.000000
  0.033026052   -0.082123  -90.574516  -98.822282   14.556687    0.000000    0.000000    0.000000    0.000000
  0.033226453   -0.087078  -91.133842  -98.052130   13.237883    0.000000    0.000000    0.000000    0.000000
  0.033426854   -0.094493  -91.715096  -98.543447    9.741741    0.000000    0.000000    0.000000    0.000000
  0.033627255   -0.097970  -92.325226  -97.083541   16.507933    0.000000    0.000000    0.000000    0.000000
  0.033827655   -0.098568  -92.919304  -98.742213   12.976679    0.000000    0.000000    0.000000    0.000000
  0.034028056   -0.096818  -93.506447  -97.221077   19.799902    0.000000    0.000000    0.000000    0.000000
  0.034228457   -0.089925  -94.079323  -97.501783    9.372343    0.000000    0.000000    0.000000    0.000000
  0.034428858   -0.078301  -94.615547  -98.340767    8.440565    0.000000    0.000000    0.000000    0.000000
  0.034629259   -0.068764  -95.124504  -97.805320    8.651905    0.000000    0.000000    0.000000    0.000000
  0.034829659   -0.060731  -95.614235  -97.865985   14.807674    0.000000    0.000000    0.000000    0.000000
  0.035030060   -0.054978  -96.080482  -98.235822    4.222328    0.000000    0.000000    0.000000    0.000000
  0.035230461   -0.050060  -96.547173  -99.657510    7.082986    0.000000    0.000000    0.000000    0.000000
  0.035430862   -0.049834  -96.990936  -98.847289    2.754854    0.000000    0.000000    0.000000    0.000000
  0.035631263   -0.052580  -97.436256  -99.025004   13.814681    0.000000    0.000000    0.000000    0.000000
  0.035831663   -0.062462  -97.924774  -99.374070    8.779642    0.000000    0.000000    0.000000    0.000000
  0.036032064   -0.070272  -98.457932  -98.713481   -1.711612    0.000000    0.000000    0.000000    0.000000
  0.036232465   -0.074719  -99.018578  -99.403351    5.558152    0.000000    0.000000    0.000000    0.000000
  0.036432866   -0.078543  -99.593170  -99.308821    8.657059    0.000000    0.000000    0.000000    0.000000
  0.036633267   -0.082379 -100.141815  -99.817458    5.980567    0.000000    0.000000    0.000000    0.000000
  0.036833667   -0.082776 -100.679771  -99.121551   13.868975    0.000000    0.000000    0.000000    0.000000
  0.037034068   -0.076076 -101.227310  -99.300108   -0.791500    0.000000    0.000000    0.000000    0.000000
  0.037234469   -0.065004 -101.718437 -100.224395    2.538552    0.000000    0.000000    0.000000    0.000000
  0.037434870   -0.057587 -102.166405 -100.207784   13.466498    0.000000    0.000000    0.000000    0.000000
  0.037635271   -0.053784 -102.599312 -100.291999   13.579603    0.000000    0.000000    0.000000    0.000000
  0.037835671   -0.052535 -103.023689 -100.363432   18.463968    0.000000    0.000000    0.000000    0.000000
  0.038036072   -0.061365 -103.468201 -100.542580   -5.784873    0.000000    0.000000    0.000000    0.000000
  0.038236473   -0.068870 -103.958092 -100.187254   11.778910    0.000000    0.000000    0.000000    0.000000
  0.038436874   -0.077897 -104.434944 -100.107091   10.975601    0.000000    0.000000    0.000000    0.000000
  0.038637275   -0.082662 -104.919975  -98.065255   10.912174    0.000000    0.000000    0.000000    0.000000
  0.038837675   -0.094473 -105.415298  -99.540129    3.264726    0.000000    0.000000    0.000000    0.000000
  0.039038076   -0.105606 -105.962090 -100.102850    6.145353    0.000000    0.000000    0.000000    0.000000
  0.039238477   -0.112643 -106.510544  -99.126644   18.322004    0.000000    0.000000    0.000000    0.000000
  0.039438878   -0.116267 -107.060112 -100.070898    0.397244    0.000000    0.000000    0.000000    0.000000
  0.039639279   -0.113916 -107.594444  -99.437563   -2.475282    0.000000    0.000000    0.000000    0.000000
  0.039839679   -0.110369 -108.125053  -99.412715    2.391482    0.000000    0.000000    0.000000    0.000000
  0.040040080   -0.104556 -108.619286 -100.720579   -4.224221    0.000000    0.000000    0.000000    0.000000
  0.040240481   -0.100044 -109.116890 -100.399746   -6.142275    0.000000    0.000000    0.000000    0.000000
  0.040440882   -0.093235 -109.600418 -100.843685    8.518802    0.000000    0.000000    0.000000    0.000000
  0.040641283   -0.092020 -110.069107 -100.460924    2.880921    0.000000    0.000000    0.000000    0.000000
  0.040841683   -0.090311 -110.561516 -101.151465   -6.720989    0.000000    0.000000    0.000000    0.000000
  0.041042084   -0.093658 -111.014679 -103.011581    3.742262    0.000000    0.000000    0.000000    0.000000
  0.041242485   -0.102390 -111.518677 -102.287003    0.327478    0.000000    0.000000    0.000000    0.000000
  0.041442886   -0.112659 -111.991104 -101.935856    8.924591    0.000000    0.000000    0.000000    0.000000
  0.041643287   -0.121813 -112.531006 -102.456480    7.636933    0.000000    0.000000    0.000000    0.000000
  0.041843687   -0.128237 -113.091576 -102.423206    7.438907    0.000000    0.000000    0.000000    0.000000
  0.042044088   -0.130602 -113.651276 -102.912013   14.780615    0.000000    0.000000    0.000000    0.000000
  0.042244489   -0.124821 -114.220436 -101.276309   12.500467    0.000000    0.000000    0.000000    0.000000
  0.042444890   -0.113470 -114.743973 -102.712178    7.098959    0.000000    0.000000    0.000000    0.000000
  0.042645291   -0.099863 -115.233696 -103.225707    5.240668    0.000000    0.000000    0.000000    0.000000
  0.042845691   -0.095124 -115.694740 -101.641874   18.317825    0.000000    0.000000    0.000000    0.000000
  0.043046092   -0.092312 -116.149200  -99.090993   13.045342    0.000000    0.000000    0.000000    0.000000
  0.043246493   -0.093625 -116.616547  -99.881758   12.241276    0.000000    0.000000    0.000000    0.000000
  0.043446894   -0.097306 -117.054115 -100.557320    8.722673    0.000000    0.000000    0.000000    0.000000
  0.043647295   -0.102682 -117.527191  -99.866831   10.271519    0.000000    0.000000    0.000000    0.000000
  0.043847695   -0.107751 -117.994568 -100.031323    5.958013    0.000000    0.000000    0.000000    0.000000
  0.044048096   -0.114040 -118.452049  -99.552876    1.210647    0.000000    0.000000    0.000000    0.000000
  0.044248497   -0.125262 -118.955132 -100.485405   -2.144989    0.000000    0.000000    0.000000    0.000000
  0.044448898   -0.131782 -119.456306 -100.360950   -2.526796    0.000000    0.000000    0.000000    0.000000
  0.044649299   -0.132265 -119.960045  -99.869734  -10.865471    0.000000    0.000000    0.000000    0.000000
  0.044849699   -0.131889 -120.463280 -100.062623    0.431768    0.000000    0.000000    0.000000    0.000000
  0.045050100   -0.132579 -120.962379 -100.667508    6.225547    0.000000    0.000000    0.000000    0.000000
  0.045250501   -0.128742 -121.446259 -101.040072   -6.433475    0.000000    0.000000    0.000000    0.000000
  0.045450902   -0.128146 -121.921280 -102.710329   -6.400033    0.000000    0.000000    0.000000    0.000000
  0.045651303   -0.126194 -122.410378 -103.192484    0.091498    0.000000    0.000000    0.000000    0.000000
  0.045851703   -0.124121 -122.887489 -103.216743  -15.480303    0.000000    0.000000    0.000000    0.000000
  0.046052104   -0.123197 -123.347107 -102.942041   -4.109673    0.000000    0.000000    0.000000    0.000000
  0.046252505   -0.120307 -123.824432 -105.628614   13.227331    0.000000    0.000000    0.000000    0.000000
  0.046452906   -0.123790 -124.243904 -102.746342   21.152607    0.000000    0.000000    0.000000    0.000000
  0.046653307   -0.129752 -124.696411 -102.035723   17.793858    0.000000    0.000000    0.000000    0.000000
  0.046853707   -0.139349 -125.176247 -104.694346   31.090174    0.000000    0.000000    0.000000    0.000000
  0.047054108   -0.146448 -125.673256 -103.577265   18.991814    0.000000    0.000000    0.000000    0.000000
  0.047254509   -0.148603 -126.210243 -102.577882    5.013452    0.000000    0.000000    0.000000    0.000000
  0.047454910   -0.144225 -126.743111 -102.258276   17.723896    0.000000    0.000000    0.000000    0.000000
  0.047655311   -0.135778 -127.249008 -101.457367   23.896631    0.000000    0.000000    0.000000    0.000000
  0.047855711   -0.128515 -127.728706 -101.577201   15.195113    0.000000    0.000000    0.000000    0.000000
  0.048056112   -0.122370 -128.193329 -102.949482    7.414024    0.000000    0.000000    0.000000    0.000000
  0.048256513   -0.120468 -128.659760 -101.259656   19.254623    0.000000    0.000000    0.000000    0.000000
  0.048456914   -0.120820 -129.117905 -102.689421    1.195093    0.000000    0.000000    0.000000    0.000000
  0.048657315   -0.121758 -129.563217 -100.512256   10.200491    0.000000    0.000000    0.000000    0.000000
  0.048857715   -0.124368 -130.021072  -99.743831   -5.435911    0.000000    0.000000    0.000000    0.000000
  0.049058116   -0.128267 -130.449326 -101.453939   -0.556737    0.000000    0.000000    0.000000    0.000000
  0.049258517   -0.136608 -130.913483 -100.961175   -0.266335    0.000000    0.000000    0.000000    0.000000
  0.049458918   -0.141026 -131.402771 -101.286433    4.402754    0.000000    0.000000    0.000000    0.000000
  0.049659319   -0.144880 -131.884857 -100.617058   -4.961699    0.000000    0.000000    0.000000    0.000000
  0.049859719   -0.147724 -132.383957 -101.844184    5.372169    0.000000    0.000000    0.000000    0.000000
  0.050060120   -0.150006 -132.856339 -104.386179  -11.441938    0.000000    0.000000    0.000000    0.000000
  0.050260521   -0.150617 -133.326401 -103.927379   -3.152335    0.000000    0.000000    0.000000    0.000000
  0.050460922   -0.153562 -133.794098 -104.486924   -8.767360    0.000000    0.000000    0.000000    0.000000
  0.050661323   -0.153743 -134.276459 -103.450245   -6.755898    0.000000    0.000000    0.000000    0.000000
  0.050861723   -0.155702 -134.757797 -104.677693    3.156014    0.000000    0.000000    0.000000    0.000000
  0.051062124   -0.154924 -135.256989 -106.893060   -0.129127    0.000000    0.000000    0.000000    0.000000
  0.051262525   -0.152639 -135.725250 -102.431776    2.017522    0.000000    0.000000    0.000000    0.000000
  0.051462926   -0.149314 -136.181152 -104.217515    5.363151    0.000000    0.000000    0.000000    0.000000
  0.051663327   -0.153026 -136.614334 -107.072726   -5.763453    0.000000    0.000000    0.000000    0.000000
  0.051863727   -0.157519 -137.038498 -106.226228   15.693689    0.000000    0.000000    0.000000    0.000000
  0.052064128   -0.163935 -137.496674 -106.138219    9.990602    0.000000    0.000000    0.000000    0.000000
  0.052264529   -0.169444 -137.975281 -102.997832   23.501394    0.000000    0.000000    0.000000    0.000000
  0.052464930   -0.174773 -138.461609 -100.110986   14.617875    0.000000    0.000000    0.000000    0.000000
  0.052665331   -0.173966 -138.964264 -104.849326   22.355560    0.000000    0.000000    0.000000    0.000000
  0.052865731   -0.171527 -139.441010 -100.266827   18.187687    0.000000    0.000000    0.000000    0.000000
