! Anritsu VNA Master:                     Model: MS2036C/10/77
! SN:                                  1601066
! /bd0/18may26.balun/4b.me4.s2p
! Existing Calibration Information:
! TYPE:                         Current Settings,       Active Cal Settings
! TIME:             	   05/26/2018 05:24:02 PM,    05/26/2018 05:08:07 PM
! INTERNAL TEMP:    	                   52.5 C,                    52.5 C
! # POINTS:         	                      500,                       500
! START FREQ:       	               20.000 MHz,                20.000 MHz
! STOP FREQ:        	              120.000 MHz,               120.000 MHz
! SOURCE POWER:     	                     High,                      High
! IFBW:             	                    50 Hz,                     50 Hz
! AVG FACTOR:       	                       1 ,                        1 
! REF PLANE 1:      	                     0 mm,                      0 mm
! REF PLANE 2:      	                     0 mm,                      0 mm
! CAL TYPE:         	                 Full S11,                  Full S11
! CAL METHOD:       	                     SOLT,                      SOLT
! CAL LINE TYPE:    	                     Coax,                      Coax
! DUT PORT 1:       	                K-Conn(M),                 K-Conn(M)
! DUT PORT 2:       	                K-Conn(M),                 K-Conn(M)
! CAL STATUS:       	        OK: Accuracy High,                        --
# GHZ S DB R 50.0
! FREQ.GHZ       S11DB        S11A       S21DB        S21A       S12DB        S12A       S22DB        S22A
  0.020000000   -0.610673 -127.065697  -91.218667   30.516796    0.000000    0.000000    0.000000    0.000000
  0.020200401   -0.608593 -128.574402  -90.961527   31.494347    0.000000    0.000000    0.000000    0.000000
  0.020400802   -0.606200 -130.079666  -91.955395   26.229534    0.000000    0.000000    0.000000    0.000000
  0.020601202   -0.605834 -131.549011  -92.202594   31.486069    0.000000    0.000000    0.000000    0.000000
  0.020801603   -0.610428 -133.043777  -92.315919   27.671549    0.000000    0.000000    0.000000    0.000000
  0.021002004   -0.614614 -134.574814  -93.398288   27.521429    0.000000    0.000000    0.000000    0.000000
  0.021202405   -0.622550 -136.120956  -92.515002   28.309067    0.000000    0.000000    0.000000    0.000000
  0.021402806   -0.627842 -137.643585  -93.384091   30.588303    0.000000    0.000000    0.000000    0.000000
  0.021603206   -0.630164 -139.188812  -93.144853   30.884182    0.000000    0.000000    0.000000    0.000000
  0.021803607   -0.637566 -140.719879  -93.470340   29.449986    0.000000    0.000000    0.000000    0.000000
  0.022004008   -0.645185 -142.284332  -92.478567   37.660656    0.000000    0.000000    0.000000    0.000000
  0.022204409   -0.648698 -143.864059  -92.925622   34.918243    0.000000    0.000000    0.000000    0.000000
  0.022404810   -0.650188 -145.447800  -92.899476   36.187073    0.000000    0.000000    0.000000    0.000000
  0.022605210   -0.651436 -147.025894  -92.972327   33.071644    0.000000    0.000000    0.000000    0.000000
  0.022805611   -0.653292 -148.611313  -92.440788   36.265541    0.000000    0.000000    0.000000    0.000000
  0.023006012   -0.658021 -150.192902  -92.698598   34.880657    0.000000    0.000000    0.000000    0.000000
  0.023206413   -0.665221 -151.794312  -92.617512   30.818308    0.000000    0.000000    0.000000    0.000000
  0.023406814   -0.676828 -153.415253  -92.691891   29.595243    0.000000    0.000000    0.000000    0.000000
  0.023607214   -0.684178 -155.064316  -92.560782   30.804317    0.000000    0.000000    0.000000    0.000000
  0.023807615   -0.691357 -156.713181  -92.567421   31.575169    0.000000    0.000000    0.000000    0.000000
  0.024008016   -0.701344 -158.355743  -93.190694   23.612558    0.000000    0.000000    0.000000    0.000000
  0.024208417   -0.710902 -159.999619  -92.946715   20.195791    0.000000    0.000000    0.000000    0.000000
  0.024408818   -0.725299 -161.658127  -94.392690   21.741100    0.000000    0.000000    0.000000    0.000000
  0.024609218   -0.736040 -163.353302  -93.359406   22.134890    0.000000    0.000000    0.000000    0.000000
  0.024809619   -0.740278 -165.059967  -93.991101   22.477631    0.000000    0.000000    0.000000    0.000000
  0.025010020   -0.748629 -166.758926  -94.173971   17.525398    0.000000    0.000000    0.000000    0.000000
  0.025210421   -0.755405 -168.443970  -94.524759   21.043562    0.000000    0.000000    0.000000    0.000000
  0.025410822   -0.766982 -170.148499  -94.813310   19.023832    0.000000    0.000000    0.000000    0.000000
  0.025611222   -0.776936 -171.841019  -94.781747   20.445087    0.000000    0.000000    0.000000    0.000000
  0.025811623   -0.786981 -173.560379  -96.577574   18.709490    0.000000    0.000000    0.000000    0.000000
  0.026012024   -0.798609 -175.294098  -95.441838   21.307068    0.000000    0.000000    0.000000    0.000000
  0.026212425   -0.812722 -177.025436  -95.447375   20.000679    0.000000    0.000000    0.000000    0.000000
  0.026412826   -0.830031 -178.773926  -95.739714   21.061163    0.000000    0.000000    0.000000    0.000000
  0.026613226   -0.846152  179.470551  -95.301276   25.775314    0.000000    0.000000    0.000000    0.000000
  0.026813627   -0.863364  177.695969  -95.760820   21.767351    0.000000    0.000000    0.000000    0.000000
  0.027014028   -0.877961  175.930740  -95.413501   25.266605    0.000000    0.000000    0.000000    0.000000
  0.027214429   -0.893748  174.159546  -95.450634   22.890779    0.000000    0.000000    0.000000    0.000000
  0.027414830   -0.909718  172.381714  -95.029930   21.904882    0.000000    0.000000    0.000000    0.000000
  0.027615230   -0.929324  170.574966  -96.300124   20.722878    0.000000    0.000000    0.000000    0.000000
  0.027815631   -0.951032  168.748779  -95.178650   25.027117    0.000000    0.000000    0.000000    0.000000
  0.028016032   -0.972496  166.889786  -96.017218   19.316593    0.000000    0.000000    0.000000    0.000000
  0.028216433   -0.992567  165.015289  -95.290346   19.401203    0.000000    0.000000    0.000000    0.000000
  0.028416834   -1.014971  163.146454  -96.064431   20.573103    0.000000    0.000000    0.000000    0.000000
  0.028617234   -1.036169  161.262192  -95.139299   16.851748    0.000000    0.000000    0.000000    0.000000
  0.028817635   -1.061272  159.367340  -96.091161   13.652955    0.000000    0.000000    0.000000    0.000000
  0.029018036   -1.086730  157.431625  -96.020731   17.185875    0.000000    0.000000    0.000000    0.000000
  0.029218437   -1.110382  155.496750  -97.052516    9.927531    0.000000    0.000000    0.000000    0.000000
  0.029418838   -1.128482  153.572098  -97.162412   14.425798    0.000000    0.000000    0.000000    0.000000
  0.029619238   -1.150221  151.663284  -97.765275   13.802756    0.000000    0.000000    0.000000    0.000000
  0.029819639   -1.171522  149.775772  -98.389691   14.157994    0.000000    0.000000    0.000000    0.000000
  0.030020040   -1.195453  147.877045  -97.126238   19.332195    0.000000    0.000000    0.000000    0.000000
  0.030220441   -1.223097  145.978302  -96.363775   11.862092    0.000000    0.000000    0.000000    0.000000
  0.030420842   -1.258573  144.085403  -98.389426   20.437317    0.000000    0.000000    0.000000    0.000000
  0.030621242   -1.298350  142.121185  -97.783261   16.697628    0.000000    0.000000    0.000000    0.000000
  0.030821643   -1.334191  140.144867  -97.139271   19.780455    0.000000    0.000000    0.000000    0.000000
  0.031022044   -1.367203  138.130081  -96.819806   19.487873    0.000000    0.000000    0.000000    0.000000
  0.031222445   -1.392528  136.121704  -97.329790   18.610657    0.000000    0.000000    0.000000    0.000000
  0.031422846   -1.422170  134.101791  -97.492961   11.018492    0.000000    0.000000    0.000000    0.000000
  0.031623246   -1.446904  132.109253  -97.020145   15.062022    0.000000    0.000000    0.000000    0.000000
  0.031823647   -1.470180  130.124908  -99.122345   19.111162    0.000000    0.000000    0.000000    0.000000
  0.032024048   -1.495822  128.148392  -97.863734    9.295005    0.000000    0.000000    0.000000    0.000000
  0.032224449   -1.526657  126.205421  -97.351871   15.341877    0.000000    0.000000    0.000000    0.000000
  0.032424850   -1.556258  124.231918  -96.663590   15.809071    0.000000    0.000000    0.000000    0.000000
  0.032625251   -1.594819  122.254715  -97.110640   15.930132    0.000000    0.000000    0.000000    0.000000
  0.032825651   -1.635701  120.281136  -98.681094   14.049616    0.000000    0.000000    0.000000    0.000000
  0.033026052   -1.681135  118.297386  -98.081511   13.644322    0.000000    0.000000    0.000000    0.000000
  0.033226453   -1.726923  116.263863  -97.401299    6.552716    0.000000    0.000000    0.000000    0.000000
  0.033426854   -1.774279  114.219337  -98.604077    6.546123    0.000000    0.000000    0.000000    0.000000
  0.033627255   -1.821044  112.150917  -98.342997   14.156285    0.000000    0.000000    0.000000    0.000000
  0.033827655   -1.864941  110.040314  -99.014285   16.615862    0.000000    0.000000    0.000000    0.000000
  0.034028056   -1.907490  107.917839  -98.269005   17.626566    0.000000    0.000000    0.000000    0.000000
  0.034228457   -1.954017  105.814476  -98.767365   10.098845    0.000000    0.000000    0.000000    0.000000
  0.034428858   -1.995242  103.708138  -99.053709    7.767656    0.000000    0.000000    0.000000    0.000000
  0.034629259   -2.030789  101.617973  -99.181641   13.135174    0.000000    0.000000    0.000000    0.000000
  0.034829659   -2.067087   99.561813  -99.499965   19.403936    0.000000    0.000000    0.000000    0.000000
  0.035030060   -2.102189   97.524956  -99.919232    8.604345    0.000000    0.000000    0.000000    0.000000
  0.035230461   -2.146029   95.553749  -99.052483    7.015274    0.000000    0.000000    0.000000    0.000000
  0.035430862   -2.199106   93.557594  -98.541309   15.061310    0.000000    0.000000    0.000000    0.000000
  0.035631263   -2.256018   91.524368  -98.121958   13.158309    0.000000    0.000000    0.000000    0.000000
  0.035831663   -2.315848   89.470619  -98.732388   11.757023    0.000000    0.000000    0.000000    0.000000
  0.036032064   -2.372019   87.367424  -99.672279   24.731310    0.000000    0.000000    0.000000    0.000000
  0.036232465   -2.434442   85.229378  -97.942038   17.207056    0.000000    0.000000    0.000000    0.000000
  0.036432866   -2.490657   83.069481  -98.736505   10.061599    0.000000    0.000000    0.000000    0.000000
  0.036633267   -2.541203   80.903069  -98.107594    3.767403    0.000000    0.000000    0.000000    0.000000
  0.036833667   -2.590147   78.722969  -99.623970    8.358786    0.000000    0.000000    0.000000    0.000000
  0.037034068   -2.636624   76.591805  -99.975018   10.521591    0.000000    0.000000    0.000000    0.000000
  0.037234469   -2.681539   74.439224  -99.044584   -0.563397    0.000000    0.000000    0.000000    0.000000
  0.037434870   -2.722825   72.335472  -98.984973    5.275684    0.000000    0.000000    0.000000    0.000000
  0.037635271   -2.767950   70.231071  -99.851071    6.770356    0.000000    0.000000    0.000000    0.000000
  0.037835671   -2.818955   68.140038  -98.540951    7.045497    0.000000    0.000000    0.000000    0.000000
  0.038036072   -2.872237   66.051613  -98.931691    5.823923    0.000000    0.000000    0.000000    0.000000
  0.038236473   -2.926536   63.969631  -99.507451    6.558244    0.000000    0.000000    0.000000    0.000000
  0.038436874   -2.984570   61.875252 -100.834958   18.313931    0.000000    0.000000    0.000000    0.000000
  0.038637275   -3.045377   59.774700 -101.367996   -3.518099    0.000000    0.000000    0.000000    0.000000
  0.038837675   -3.105244   57.631123 -101.444888    9.932623    0.000000    0.000000    0.000000    0.000000
  0.039038076   -3.161863   55.454330 -101.895123   16.567209    0.000000    0.000000    0.000000    0.000000
  0.039238477   -3.213548   53.290192 -100.446752    8.773019    0.000000    0.000000    0.000000    0.000000
  0.039438878   -3.258725   51.138554 -100.097853    2.997066    0.000000    0.000000    0.000000    0.000000
  0.039639279   -3.297523   49.039982 -100.549475   11.659974    0.000000    0.000000    0.000000    0.000000
  0.039839679   -3.337709   46.995747 -102.186656    2.986016    0.000000    0.000000    0.000000    0.000000
  0.040040080   -3.378168   44.998924 -101.476269   11.862464    0.000000    0.000000    0.000000    0.000000
  0.040240481   -3.426401   43.018467 -100.128965    6.739920    0.000000    0.000000    0.000000    0.000000
  0.040440882   -3.480782   41.026833  -99.771243   11.459489    0.000000    0.000000    0.000000    0.000000
  0.040641283   -3.536735   39.002838  -99.776089    2.932678    0.000000    0.000000    0.000000    0.000000
  0.040841683   -3.594144   36.980862  -99.767636    8.672239    0.000000    0.000000    0.000000    0.000000
  0.041042084   -3.650191   34.955425  -99.749117    4.702713    0.000000    0.000000    0.000000    0.000000
  0.041242485   -3.706050   32.944672  -99.879796    7.190957    0.000000    0.000000    0.000000    0.000000
  0.041442886   -3.761809   30.911619 -103.077437   11.580511    0.000000    0.000000    0.000000    0.000000
  0.041643287   -3.816177   28.875454  -99.373389   -3.084492    0.000000    0.000000    0.000000    0.000000
  0.041843687   -3.866039   26.833857 -101.047845   -5.933171    0.000000    0.000000    0.000000    0.000000
  0.042044088   -3.915458   24.788418 -102.721104    7.662745    0.000000    0.000000    0.000000    0.000000
  0.042244489   -3.963086   22.780273 -101.038785    5.196675    0.000000    0.000000    0.000000    0.000000
  0.042444890   -4.012636   20.794783 -100.731843    3.451651    0.000000    0.000000    0.000000    0.000000
  0.042645291   -4.058604   18.792023 -101.949452    2.656181    0.000000    0.000000    0.000000    0.000000
  0.042845691   -4.105899   16.800980 -100.648835    4.675331    0.000000    0.000000    0.000000    0.000000
  0.043046092   -4.152316   14.785218 -100.663249   17.839392    0.000000    0.000000    0.000000    0.000000
  0.043246493   -4.197370   12.810188 -101.682113   -0.849617    0.000000    0.000000    0.000000    0.000000
  0.043446894   -4.241378   10.812901 -102.817714   18.120874    0.000000    0.000000    0.000000    0.000000
  0.043647295   -4.288135    8.851422 -100.709239    8.724495    0.000000    0.000000    0.000000    0.000000
  0.043847695   -4.334787    6.873682 -102.123970   12.829313    0.000000    0.000000    0.000000    0.000000
  0.044048096   -4.379983    4.912831 -100.679170   13.273523    0.000000    0.000000    0.000000    0.000000
  0.044248497   -4.423524    2.958465 -101.738477   22.222481    0.000000    0.000000    0.000000    0.000000
  0.044448898   -4.459892    0.993646 -100.432767    5.149349    0.000000    0.000000    0.000000    0.000000
  0.044649299   -4.501681   -0.944016 -101.800230    6.200529    0.000000    0.000000    0.000000    0.000000
  0.044849699   -4.539283   -2.867250 -102.533949  -15.131799    0.000000    0.000000    0.000000    0.000000
  0.045050100   -4.577255   -4.772171 -101.641621    2.834391    0.000000    0.000000    0.000000    0.000000
  0.045250501   -4.618408   -6.704321 -100.561316   11.956728    0.000000    0.000000    0.000000    0.000000
  0.045450902   -4.660740   -8.605675 -101.447433   12.855368    0.000000    0.000000    0.000000    0.000000
  0.045651303   -4.697084  -10.525369 -100.847303   -4.588015    0.000000    0.000000    0.000000    0.000000
  0.045851703   -4.732843  -12.427784  -99.408416   -5.947271    0.000000    0.000000    0.000000    0.000000
  0.046052104   -4.767123  -14.311250 -100.560759   -5.688171    0.000000    0.000000    0.000000    0.000000
  0.046252505   -4.801079  -16.205944 -101.624014    1.133587    0.000000    0.000000    0.000000    0.000000
  0.046452906   -4.833928  -18.065334 -103.154342    0.200260    0.000000    0.000000    0.000000    0.000000
  0.046653307   -4.866721  -19.924738 -102.808560    2.759745    0.000000    0.000000    0.000000    0.000000
  0.046853707   -4.896636  -21.779236 -102.860975    9.722552    0.000000    0.000000    0.000000    0.000000
  0.047054108   -4.928291  -23.608473 -101.339213    7.970203    0.000000    0.000000    0.000000    0.000000
  0.047254509   -4.952845  -25.433773 -100.417521   -4.641138    0.000000    0.000000    0.000000    0.000000
  0.047454910   -4.981065  -27.270891 -102.925044  -11.567071    0.000000    0.000000    0.000000    0.000000
  0.047655311   -5.006022  -29.080641 -102.666176    7.261083    0.000000    0.000000    0.000000    0.000000
  0.047855711   -5.031164  -30.866974 -103.736912   -3.055936    0.000000    0.000000    0.000000    0.000000
  0.048056112   -5.056424  -32.649887 -104.021910  -12.911915    0.000000    0.000000    0.000000    0.000000
  0.048256513   -5.081622  -34.421593 -104.865859   -6.382155    0.000000    0.000000    0.000000    0.000000
  0.048456914   -5.103735  -36.195778 -105.380331   10.831444    0.000000    0.000000    0.000000    0.000000
  0.048657315   -5.122279  -37.965637 -102.048836    8.401592    0.000000    0.000000    0.000000    0.000000
  0.048857715   -5.139592  -39.682533 -103.444549    4.919981    0.000000    0.000000    0.000000    0.000000
  0.049058116   -5.155371  -41.379951 -101.893209    8.536843    0.000000    0.000000    0.000000    0.000000
  0.049258517   -5.177547  -43.038113 -102.747140   -2.013829    0.000000    0.000000    0.000000    0.000000
  0.049458918   -5.195973  -44.688511 -101.345596   -1.151196    0.000000    0.000000    0.000000    0.000000
  0.049659319   -5.219960  -46.321625 -103.390932   14.592317    0.000000    0.000000    0.000000    0.000000
  0.049859719   -5.249046  -47.990139 -101.541795    3.394581    0.000000    0.000000    0.000000    0.000000
  0.050060120   -5.274122  -49.644577 -100.840501    6.943718    0.000000    0.000000    0.000000    0.000000
  0.050260521   -5.301294  -51.342381 -102.595670    1.248094    0.000000    0.000000    0.000000    0.000000
  0.050460922   -5.330140  -53.003670 -101.015280   -5.049979    0.000000    0.000000    0.000000    0.000000
  0.050661323   -5.351635  -54.697758 -101.674481    5.991613    0.000000    0.000000    0.000000    0.000000
  0.050861723   -5.369996  -56.387901 -102.068424    3.678180    0.000000    0.000000    0.000000    0.000000
  0.051062124   -5.384712  -58.069778 -101.407601    1.705063    0.000000    0.000000    0.000000    0.000000
  0.051262525   -5.397381  -59.704704 -103.220948  -11.768885    0.000000    0.000000    0.000000    0.000000
  0.051462926   -5.410566  -61.351715 -102.369742    4.113256    0.000000    0.000000    0.000000    0.000000
  0.051663327   -5.425968  -62.955856 -104.789018    2.878639    0.000000    0.000000    0.000000    0.000000
  0.051863727   -5.439676  -64.528671 -103.439139   -1.737391    0.000000    0.000000    0.000000    0.000000
  0.052064128   -5.453487  -66.132790 -104.527116   -9.269064    0.000000    0.000000    0.000000    0.000000
  0.052264529   -5.467437  -67.682343 -102.604659   -2.948321    0.000000    0.000000    0.000000    0.000000
  0.052464930   -5.481009  -69.266617 -104.444918   -0.814456    0.000000    0.000000    0.000000    0.000000
  0.052665331   -5.491824  -70.857491 -103.745284   21.946297    0.000000    0.000000    0.000000    0.000000
  0.052865731   -5.504556  -72.384743 -103.631875   -5.412879    0.000000    0.000000    0.000000    0.000000
