! Anritsu VNA Master:                     Model: MS2036C/10/77
! SN:                                  1601066
! /bd0/18may10/252.ew.m3.s2p
! Existing Calibration Information:
! TYPE:                         Current Settings,       Active Cal Settings
! TIME:             	   05/10/2018 06:29:04 PM,    05/10/2018 06:18:15 PM
! INTERNAL TEMP:    	                   60.5 C,                    60.0 C
! # POINTS:         	                      487,                       487
! START FREQ:       	           20.601 202 MHz,            20.601 202 MHz
! STOP FREQ:        	          117.995 991 MHz,           117.995 991 MHz
! SOURCE POWER:     	                     High,                      High
! IFBW:             	                    50 Hz,                     50 Hz
! AVG FACTOR:       	                       1 ,                        1 
! REF PLANE 1:      	                     0 mm,                      0 mm
! REF PLANE 2:      	                     0 mm,                      0 mm
! CAL TYPE:         	                 Full S22,                  Full S22
! CAL METHOD:       	                     SOLT,                      SOLT
! CAL LINE TYPE:    	                     Coax,                      Coax
! DUT PORT 1:       	                K-Conn(M),                 K-Conn(M)
! DUT PORT 2:       	                K-Conn(M),                 K-Conn(M)
! CAL STATUS:       	        OK: Accuracy High,                        --
# GHZ S DB R 50.0
! FREQ.GHZ       S11DB        S11A       S21DB        S21A       S12DB        S12A       S22DB        S22A
  0.020601202    0.000000    0.000000    0.000000    0.000000  -90.730062   30.851719   -0.648511 -129.430374
  0.020801603    0.000000    0.000000    0.000000    0.000000  -90.467328   30.247656   -0.652317 -130.947464
  0.021002004    0.000000    0.000000    0.000000    0.000000  -91.094298   30.432711   -0.655273 -132.480484
  0.021202405    0.000000    0.000000    0.000000    0.000000  -91.755944   35.807426   -0.658032 -134.015991
  0.021402806    0.000000    0.000000    0.000000    0.000000  -91.459527   35.038025   -0.661363 -135.560104
  0.021603206    0.000000    0.000000    0.000000    0.000000  -91.735660   35.226940   -0.663323 -137.086838
  0.021803607    0.000000    0.000000    0.000000    0.000000  -92.375872   35.185394   -0.667647 -138.639267
  0.022004008    0.000000    0.000000    0.000000    0.000000  -92.344597   41.325127   -0.674892 -140.186813
  0.022204409    0.000000    0.000000    0.000000    0.000000  -92.026935   37.743378   -0.678230 -141.767090
  0.022404810    0.000000    0.000000    0.000000    0.000000  -92.026123   41.941147   -0.680530 -143.367844
  0.022605210    0.000000    0.000000    0.000000    0.000000  -91.822064   40.651711   -0.684836 -144.958649
  0.022805611    0.000000    0.000000    0.000000    0.000000  -91.916319   37.953209   -0.688476 -146.569321
  0.023006012    0.000000    0.000000    0.000000    0.000000  -91.538588   39.797291   -0.693201 -148.168610
  0.023206413    0.000000    0.000000    0.000000    0.000000  -91.077790   41.601242   -0.694466 -149.749405
  0.023406814    0.000000    0.000000    0.000000    0.000000  -91.297812   41.670425   -0.697595 -151.359375
  0.023607214    0.000000    0.000000    0.000000    0.000000  -91.245453   39.793282   -0.703364 -152.957764
  0.023807615    0.000000    0.000000    0.000000    0.000000  -91.742487   36.938763   -0.711962 -154.563431
  0.024008016    0.000000    0.000000    0.000000    0.000000  -91.053367   36.432858   -0.721024 -156.184433
  0.024208417    0.000000    0.000000    0.000000    0.000000  -91.252900   35.004124   -0.726338 -157.832413
  0.024408818    0.000000    0.000000    0.000000    0.000000  -91.164485   34.915234   -0.733586 -159.480804
  0.024609218    0.000000    0.000000    0.000000    0.000000  -91.486476   30.655975   -0.739474 -161.115692
  0.024809619    0.000000    0.000000    0.000000    0.000000  -90.989522   32.615055   -0.747406 -162.763382
  0.025010020    0.000000    0.000000    0.000000    0.000000  -91.802971   28.239803   -0.757759 -164.412109
  0.025210421    0.000000    0.000000    0.000000    0.000000  -92.027349   27.300419   -0.768581 -166.061478
  0.025410822    0.000000    0.000000    0.000000    0.000000  -92.444495   27.510336   -0.781281 -167.736664
  0.025611222    0.000000    0.000000    0.000000    0.000000  -92.825532   28.026125   -0.792908 -169.406174
  0.025811623    0.000000    0.000000    0.000000    0.000000  -92.530358   24.948664   -0.805185 -171.112045
  0.026012024    0.000000    0.000000    0.000000    0.000000  -92.920187   26.695585   -0.816715 -172.817657
  0.026212425    0.000000    0.000000    0.000000    0.000000  -93.325223   23.485449   -0.828630 -174.544449
  0.026412826    0.000000    0.000000    0.000000    0.000000  -93.822470   23.506268   -0.843715 -176.265030
  0.026613226    0.000000    0.000000    0.000000    0.000000  -94.105990   23.006170   -0.860831 -178.023178
  0.026813627    0.000000    0.000000    0.000000    0.000000  -93.611294   22.692938   -0.877242 -179.783112
  0.027014028    0.000000    0.000000    0.000000    0.000000  -94.389329   30.705816   -0.894982  178.449814
  0.027214429    0.000000    0.000000    0.000000    0.000000  -94.937125   27.556252   -0.911198  176.669724
  0.027414830    0.000000    0.000000    0.000000    0.000000  -93.543653   29.226936   -0.929088  174.882385
  0.027615230    0.000000    0.000000    0.000000    0.000000  -94.662348   28.158403   -0.947370  173.075912
  0.027815631    0.000000    0.000000    0.000000    0.000000  -94.226966   30.748535   -0.966520  171.251221
  0.028016032    0.000000    0.000000    0.000000    0.000000  -94.333283   27.881199   -0.984831  169.413147
  0.028216433    0.000000    0.000000    0.000000    0.000000  -94.381308   28.194086   -1.006101  167.568298
  0.028416834    0.000000    0.000000    0.000000    0.000000  -94.404957   33.502735   -1.026984  165.719513
  0.028617234    0.000000    0.000000    0.000000    0.000000  -94.479060   33.290474   -1.047833  163.859802
  0.028817635    0.000000    0.000000    0.000000    0.000000  -94.450843   32.360680   -1.069048  161.996124
  0.029018036    0.000000    0.000000    0.000000    0.000000  -94.647973   28.829647   -1.092829  160.145859
  0.029218437    0.000000    0.000000    0.000000    0.000000  -94.279348   33.750191   -1.117270  158.274948
  0.029418838    0.000000    0.000000    0.000000    0.000000  -93.837262   29.601210   -1.140897  156.373276
  0.029619238    0.000000    0.000000    0.000000    0.000000  -94.445742   31.130632   -1.166130  154.486099
  0.029819639    0.000000    0.000000    0.000000    0.000000  -94.315610   25.232502   -1.191903  152.589569
  0.030020040    0.000000    0.000000    0.000000    0.000000  -94.119668   31.845613   -1.218671  150.680115
  0.030220441    0.000000    0.000000    0.000000    0.000000  -94.020244   24.075573   -1.245899  148.776169
  0.030420842    0.000000    0.000000    0.000000    0.000000  -94.196236   28.022943   -1.274610  146.860291
  0.030621242    0.000000    0.000000    0.000000    0.000000  -94.669789   25.894344   -1.304076  144.965210
  0.030821643    0.000000    0.000000    0.000000    0.000000  -94.487748   24.268782   -1.337291  143.048950
  0.031022044    0.000000    0.000000    0.000000    0.000000  -95.177507   23.835058   -1.370490  141.114670
  0.031222445    0.000000    0.000000    0.000000    0.000000  -93.830689   18.019058   -1.397464  139.190903
  0.031422846    0.000000    0.000000    0.000000    0.000000  -95.543680   18.065199   -1.433701  137.233231
  0.031623246    0.000000    0.000000    0.000000    0.000000  -95.319637   21.958021   -1.470099  135.264069
  0.031823647    0.000000    0.000000    0.000000    0.000000  -94.867839   18.834103   -1.509475  133.288757
  0.032024048    0.000000    0.000000    0.000000    0.000000  -95.058605   19.017908   -1.549626  131.306519
  0.032224449    0.000000    0.000000    0.000000    0.000000  -94.456042   22.291439   -1.590202  129.305084
  0.032424850    0.000000    0.000000    0.000000    0.000000  -95.238238   14.377468   -1.632083  127.301666
  0.032625250    0.000000    0.000000    0.000000    0.000000  -95.140155   10.332420   -1.673537  125.277359
  0.032825651    0.000000    0.000000    0.000000    0.000000  -96.071430   23.041334   -1.716527  123.244148
  0.033026052    0.000000    0.000000    0.000000    0.000000  -94.858555   16.627043   -1.759732  121.184273
  0.033226453    0.000000    0.000000    0.000000    0.000000  -96.319736   14.939041   -1.800431  119.103981
  0.033426854    0.000000    0.000000    0.000000    0.000000  -96.472453   17.364691   -1.843929  117.055290
  0.033627254    0.000000    0.000000    0.000000    0.000000  -97.325254   20.224812   -1.889816  114.994484
  0.033827655    0.000000    0.000000    0.000000    0.000000  -95.562750   23.714750   -1.932711  112.927979
  0.034028056    0.000000    0.000000    0.000000    0.000000  -96.871035   30.602144   -1.979216  110.872505
  0.034228457    0.000000    0.000000    0.000000    0.000000  -96.581009   26.409100   -2.026794  108.799591
  0.034428858    0.000000    0.000000    0.000000    0.000000  -96.403421   24.667477   -2.072352  106.702339
  0.034629258    0.000000    0.000000    0.000000    0.000000  -96.041208   27.739264   -2.119353  104.610023
  0.034829659    0.000000    0.000000    0.000000    0.000000  -96.982756   28.132950   -2.166361  102.517204
  0.035030060    0.000000    0.000000    0.000000    0.000000  -96.015467   22.155418   -2.216056  100.436188
  0.035230461    0.000000    0.000000    0.000000    0.000000  -96.680832   28.519266   -2.269368   98.349129
  0.035430862    0.000000    0.000000    0.000000    0.000000  -96.865673   21.243818   -2.317888   96.284447
  0.035631262    0.000000    0.000000    0.000000    0.000000  -96.247683   27.507730   -2.369052   94.194565
  0.035831663    0.000000    0.000000    0.000000    0.000000  -95.426173   26.855288   -2.421098   92.120438
  0.036032064    0.000000    0.000000    0.000000    0.000000  -97.173582   24.131424   -2.471541   90.045807
  0.036232465    0.000000    0.000000    0.000000    0.000000  -96.145105   22.085447   -2.524201   87.980019
  0.036432866    0.000000    0.000000    0.000000    0.000000  -97.019559   26.053253   -2.577665   85.903435
  0.036633266    0.000000    0.000000    0.000000    0.000000  -96.320096   20.171110   -2.632573   83.847092
  0.036833667    0.000000    0.000000    0.000000    0.000000  -96.566404   22.198988   -2.686401   81.781525
  0.037034068    0.000000    0.000000    0.000000    0.000000  -95.956556   20.132103   -2.747049   79.707016
  0.037234469    0.000000    0.000000    0.000000    0.000000  -96.620112   11.798562   -2.800927   77.639473
  0.037434870    0.000000    0.000000    0.000000    0.000000  -96.901944   19.137905   -2.860060   75.588364
  0.037635270    0.000000    0.000000    0.000000    0.000000  -96.530715   21.020948   -2.920863   73.530502
  0.037835671    0.000000    0.000000    0.000000    0.000000  -97.307285   18.190460   -2.978762   71.448608
  0.038036072    0.000000    0.000000    0.000000    0.000000  -97.100219   22.378912   -3.040312   69.356613
  0.038236473    0.000000    0.000000    0.000000    0.000000  -98.013897   19.814146   -3.102124   67.261398
  0.038436874    0.000000    0.000000    0.000000    0.000000  -98.167864   22.921028   -3.165586   65.147194
  0.038637274    0.000000    0.000000    0.000000    0.000000  -98.107074   16.952082   -3.228452   63.043587
  0.038837675    0.000000    0.000000    0.000000    0.000000  -97.244347   32.456139   -3.290347   60.948475
  0.039038076    0.000000    0.000000    0.000000    0.000000  -98.003791   28.546944   -3.350456   58.873234
  0.039238477    0.000000    0.000000    0.000000    0.000000  -97.083001   22.681593   -3.409840   56.773739
  0.039438878    0.000000    0.000000    0.000000    0.000000  -97.991885   25.669487   -3.472595   54.700848
  0.039639278    0.000000    0.000000    0.000000    0.000000  -98.683553   21.908798   -3.533599   52.600513
  0.039839679    0.000000    0.000000    0.000000    0.000000  -97.693027   32.514099   -3.591743   50.482414
  0.040040080    0.000000    0.000000    0.000000    0.000000  -98.497788   27.055452   -3.652298   48.396790
  0.040240481    0.000000    0.000000    0.000000    0.000000  -97.402486   35.879223   -3.709160   46.275314
  0.040440882    0.000000    0.000000    0.000000    0.000000  -98.308330   25.578672   -3.765157   44.209877
  0.040641283    0.000000    0.000000    0.000000    0.000000  -96.500809   30.349518   -3.822880   42.138020
  0.040841683    0.000000    0.000000    0.000000    0.000000  -97.185585   28.773251   -3.877500   40.077301
  0.041042084    0.000000    0.000000    0.000000    0.000000  -98.487506   32.037937   -3.934953   38.044716
  0.041242485    0.000000    0.000000    0.000000    0.000000  -96.880565   17.625046   -3.993292   35.997311
  0.041442886    0.000000    0.000000    0.000000    0.000000  -97.624707   35.150600   -4.047284   33.950745
  0.041643287    0.000000    0.000000    0.000000    0.000000  -98.719776   28.870796   -4.104990   31.912006
  0.041843687    0.000000    0.000000    0.000000    0.000000  -97.750833   32.397484   -4.155872   29.852814
  0.042044088    0.000000    0.000000    0.000000    0.000000  -97.923904   25.113319   -4.211185   27.838337
  0.042244489    0.000000    0.000000    0.000000    0.000000  -97.385896   24.334726   -4.263705   25.815777
  0.042444890    0.000000    0.000000    0.000000    0.000000  -97.359751   21.081793   -4.316837   23.832802
  0.042645291    0.000000    0.000000    0.000000    0.000000  -98.540149   28.443033   -4.373665   21.837708
  0.042845691    0.000000    0.000000    0.000000    0.000000  -98.888353   23.125465   -4.426922   19.845613
  0.043046092    0.000000    0.000000    0.000000    0.000000  -98.940270   20.955027   -4.480879   17.859644
  0.043246493    0.000000    0.000000    0.000000    0.000000  -98.203709   24.556009   -4.535018   15.873534
  0.043446894    0.000000    0.000000    0.000000    0.000000  -98.254644   24.720131   -4.585712   13.890828
  0.043647295    0.000000    0.000000    0.000000    0.000000  -98.836838   25.036329   -4.638411   11.922449
  0.043847695    0.000000    0.000000    0.000000    0.000000  -98.689021   24.565256   -4.689348    9.948475
  0.044048096    0.000000    0.000000    0.000000    0.000000  -97.834702   22.987623   -4.740427    7.990412
  0.044248497    0.000000    0.000000    0.000000    0.000000  -99.008464   25.938286   -4.790512    6.027633
  0.044448898    0.000000    0.000000    0.000000    0.000000  -99.557100   24.893187   -4.842700    4.089515
  0.044649299    0.000000    0.000000    0.000000    0.000000 -100.608394   26.055492   -4.890328    2.128058
  0.044849699    0.000000    0.000000    0.000000    0.000000  -99.477995   33.755283   -4.939553    0.199689
  0.045050100    0.000000    0.000000    0.000000    0.000000  -98.647037   27.603725   -4.987438   -1.807763
  0.045250501    0.000000    0.000000    0.000000    0.000000  -98.327124   30.076860   -5.035653   -3.724407
  0.045450902    0.000000    0.000000    0.000000    0.000000  -98.457603   35.875614   -5.082748   -5.650481
  0.045651303    0.000000    0.000000    0.000000    0.000000  -98.176130   21.203251   -5.125546   -7.584131
  0.045851703    0.000000    0.000000    0.000000    0.000000  -98.781369   35.953918   -5.167739   -9.481199
  0.046052104    0.000000    0.000000    0.000000    0.000000  -98.564071   41.310379   -5.211020  -11.375713
  0.046252505    0.000000    0.000000    0.000000    0.000000  -98.969040   30.530663   -5.250761  -13.253983
  0.046452906    0.000000    0.000000    0.000000    0.000000  -99.262125   30.853045   -5.292152  -15.119199
  0.046653307    0.000000    0.000000    0.000000    0.000000  -99.966919   31.274651   -5.329997  -16.996300
  0.046853707    0.000000    0.000000    0.000000    0.000000  -98.461329   33.665318   -5.368677  -18.827158
  0.047054108    0.000000    0.000000    0.000000    0.000000  -98.336987   37.292805   -5.407820  -20.692764
  0.047254509    0.000000    0.000000    0.000000    0.000000  -99.167289   32.023438   -5.442632  -22.519733
  0.047454910    0.000000    0.000000    0.000000    0.000000  -98.770459   28.437880   -5.478173  -24.327257
  0.047655311    0.000000    0.000000    0.000000    0.000000  -98.751992   19.629789   -5.514354  -26.133806
  0.047855711    0.000000    0.000000    0.000000    0.000000  -99.913239   20.418081   -5.551655  -27.901752
  0.048056112    0.000000    0.000000    0.000000    0.000000  -99.873956   31.631758   -5.585781  -29.684637
  0.048256513    0.000000    0.000000    0.000000    0.000000  -98.028477   27.511412   -5.622982  -31.425240
  0.048456914    0.000000    0.000000    0.000000    0.000000  -98.930127   22.911074   -5.659164  -33.167492
  0.048657315    0.000000    0.000000    0.000000    0.000000  -98.514826   35.174961   -5.690820  -34.906704
  0.048857715    0.000000    0.000000    0.000000    0.000000  -98.289308   33.284504   -5.723440  -36.672054
  0.049058116    0.000000    0.000000    0.000000    0.000000  -99.071489   22.746689   -5.757818  -38.408009
  0.049258517    0.000000    0.000000    0.000000    0.000000  -99.955615   29.711685   -5.789429  -40.119637
  0.049458918    0.000000    0.000000    0.000000    0.000000  -99.174552   29.662966   -5.820956  -41.836205
  0.049659319    0.000000    0.000000    0.000000    0.000000  -99.060556   38.042404   -5.853643  -43.527599
  0.049859719    0.000000    0.000000    0.000000    0.000000  -98.923537   30.816061   -5.885838  -45.214611
  0.050060120    0.000000    0.000000    0.000000    0.000000  -99.179752   29.431149   -5.916340  -46.914791
  0.050260521    0.000000    0.000000    0.000000    0.000000  -99.867263   49.544365   -5.944534  -48.611256
  0.050460922    0.000000    0.000000    0.000000    0.000000  -99.566174   33.578991   -5.971633  -50.327175
  0.050661323    0.000000    0.000000    0.000000    0.000000 -100.586352   25.099834   -5.996585  -51.981586
  0.050861723    0.000000    0.000000    0.000000    0.000000  -98.271051   36.075737   -6.022279  -53.667053
  0.051062124    0.000000    0.000000    0.000000    0.000000  -98.508142   35.002934   -6.044399  -55.322765
  0.051262525    0.000000    0.000000    0.000000    0.000000  -99.808402   33.359966   -6.068685  -56.967171
  0.051462926    0.000000    0.000000    0.000000    0.000000  -99.420762   30.768248   -6.091339  -58.606480
  0.051663327    0.000000    0.000000    0.000000    0.000000  -99.195709   36.280800   -6.108905  -60.213280
  0.051863727    0.000000    0.000000    0.000000    0.000000  -98.227755   35.990540   -6.126273  -61.861877
  0.052064128    0.000000    0.000000    0.000000    0.000000  -98.157003   30.752510   -6.141995  -63.440197
  0.052264529    0.000000    0.000000    0.000000    0.000000  -98.342550   30.978897   -6.154469  -65.047035
  0.052464930    0.000000    0.000000    0.000000    0.000000  -99.440054   31.441967   -6.161058  -66.619499
  0.052665331    0.000000    0.000000    0.000000    0.000000  -99.161129   36.612915   -6.175562  -68.151688
  0.052865731    0.000000    0.000000    0.000000    0.000000  -98.128921   40.306984   -6.187988  -69.704094
  0.053066132    0.000000    0.000000    0.000000    0.000000  -97.863721   29.905079   -6.200624  -71.231087
  0.053266533    0.000000    0.000000    0.000000    0.000000  -98.423798   30.056606   -6.207125  -72.709381
  0.053466934    0.000000    0.000000    0.000000    0.000000  -98.674088   33.755970   -6.220991  -74.227814
