! Anritsu VNA Master:                     Model: MS2036C/10/77
! SN:                                  1601066
! /card0/usr/18may27.balun/252b.47.s2p
! Existing Calibration Information:
! TYPE:                         Current Settings,       Active Cal Settings
! TIME:             	   05/27/2018 12:01:25 PM,    05/27/2018 11:54:56 AM
! INTERNAL TEMP:    	                   50.5 C,                    49.3 C
! # POINTS:         	                      500,                       500
! START FREQ:       	               20.000 MHz,                20.000 MHz
! STOP FREQ:        	              120.000 MHz,               120.000 MHz
! SOURCE POWER:     	                     High,                      High
! IFBW:             	                    50 Hz,                     50 Hz
! AVG FACTOR:       	                       1 ,                        1 
! REF PLANE 1:      	                     0 mm,                      0 mm
! REF PLANE 2:      	                     0 mm,                      0 mm
! CAL TYPE:         	                 Full S11,                  Full S11
! CAL METHOD:       	                     SOLT,                      SOLT
! CAL LINE TYPE:    	                     Coax,                      Coax
! DUT PORT 1:       	                K-Conn(M),                 K-Conn(M)
! DUT PORT 2:       	                K-Conn(M),                 K-Conn(M)
! CAL STATUS:       	        OK: Accuracy High,                        --
# GHZ S DB R 50.0
! FREQ.GHZ       S11DB        S11A       S21DB        S21A       S12DB        S12A       S22DB        S22A
  0.020000000   -0.009262  -55.483616  -90.823592   37.501633    0.000000    0.000000    0.000000    0.000000
  0.020200401   -0.008537  -56.038979  -90.025813   35.140419    0.000000    0.000000    0.000000    0.000000
  0.020400802   -0.005900  -56.551498  -90.743897   30.873173    0.000000    0.000000    0.000000    0.000000
  0.020601202   -0.005736  -57.068916  -91.105325   33.235603    0.000000    0.000000    0.000000    0.000000
  0.020801603   -0.004898  -57.601608  -91.160199   29.266958    0.000000    0.000000    0.000000    0.000000
  0.021002004   -0.005908  -58.139370  -91.780485   28.372892    0.000000    0.000000    0.000000    0.000000
  0.021202405   -0.005979  -58.660309  -91.661711   29.382694    0.000000    0.000000    0.000000    0.000000
  0.021402806   -0.007758  -59.214668  -91.994422   24.602463    0.000000    0.000000    0.000000    0.000000
  0.021603206   -0.010226  -59.733482  -92.529095   23.930965    0.000000    0.000000    0.000000    0.000000
  0.021803607   -0.011874  -60.252220  -92.849196   29.483068    0.000000    0.000000    0.000000    0.000000
  0.022004008   -0.013182  -60.793152  -93.574176   31.206888    0.000000    0.000000    0.000000    0.000000
  0.022204409   -0.015143  -61.345535  -93.860593   26.356451    0.000000    0.000000    0.000000    0.000000
  0.022404810   -0.020509  -61.918232  -93.647808   36.087078    0.000000    0.000000    0.000000    0.000000
  0.022605210   -0.023951  -62.479927  -93.760467   36.982029    0.000000    0.000000    0.000000    0.000000
  0.022805611   -0.021784  -63.022327  -93.571164   32.930080    0.000000    0.000000    0.000000    0.000000
  0.023006012   -0.015205  -63.599075  -93.275069   31.281973    0.000000    0.000000    0.000000    0.000000
  0.023206413   -0.007295  -64.197502  -93.457760   33.878403    0.000000    0.000000    0.000000    0.000000
  0.023406814   -0.003863  -64.754692  -93.801375   29.677172    0.000000    0.000000    0.000000    0.000000
  0.023607214   -0.006393  -65.322823  -92.950761   33.728043    0.000000    0.000000    0.000000    0.000000
  0.023807615   -0.007600  -65.848808  -93.293618   31.749714    0.000000    0.000000    0.000000    0.000000
  0.024008016   -0.010586  -66.341232  -93.387813   28.004498    0.000000    0.000000    0.000000    0.000000
  0.024208417   -0.016971  -66.843582  -93.570262   31.866186    0.000000    0.000000    0.000000    0.000000
  0.024408818   -0.025802  -67.322693  -92.906931   28.147270    0.000000    0.000000    0.000000    0.000000
  0.024609218   -0.031400  -67.808899  -93.695316   24.558752    0.000000    0.000000    0.000000    0.000000
  0.024809619   -0.035035  -68.320328  -93.208422   24.723389    0.000000    0.000000    0.000000    0.000000
  0.025010020   -0.038470  -68.859337  -93.155182   21.114395    0.000000    0.000000    0.000000    0.000000
  0.025210421   -0.038320  -69.418991  -93.529411   23.700071    0.000000    0.000000    0.000000    0.000000
  0.025410822   -0.041859  -69.953606  -93.596585   21.702705    0.000000    0.000000    0.000000    0.000000
  0.025611222   -0.038714  -70.518387  -93.739602   18.573553    0.000000    0.000000    0.000000    0.000000
  0.025811623   -0.039576  -71.042618  -94.598885   17.447935    0.000000    0.000000    0.000000    0.000000
  0.026012024   -0.035245  -71.574944  -94.467594   20.263018    0.000000    0.000000    0.000000    0.000000
  0.026212425   -0.032306  -72.106987  -94.655391   15.389233    0.000000    0.000000    0.000000    0.000000
  0.026412826   -0.029037  -72.628357  -95.092676   17.255312    0.000000    0.000000    0.000000    0.000000
  0.026613226   -0.030633  -73.120171  -96.101446   23.720604    0.000000    0.000000    0.000000    0.000000
  0.026813627   -0.032782  -73.613426  -95.079737   20.555079    0.000000    0.000000    0.000000    0.000000
  0.027014028   -0.037953  -74.097885  -96.005604   21.985468    0.000000    0.000000    0.000000    0.000000
  0.027214429   -0.045929  -74.587433  -96.730356   21.031538    0.000000    0.000000    0.000000    0.000000
  0.027414830   -0.057794  -75.147774  -95.886292   24.770964    0.000000    0.000000    0.000000    0.000000
  0.027615230   -0.063722  -75.732079  -96.343575   20.601824    0.000000    0.000000    0.000000    0.000000
  0.027815631   -0.068800  -76.337364  -96.276857   25.262646    0.000000    0.000000    0.000000    0.000000
  0.028016032   -0.066397  -76.980743  -96.180092   25.338066    0.000000    0.000000    0.000000    0.000000
  0.028216433   -0.057024  -77.605560  -96.538351   20.146513    0.000000    0.000000    0.000000    0.000000
  0.028416834   -0.048124  -78.233566  -96.650808   25.121323    0.000000    0.000000    0.000000    0.000000
  0.028617234   -0.042677  -78.826668  -95.496751   23.416025    0.000000    0.000000    0.000000    0.000000
  0.028817635   -0.034251  -79.392181  -96.068614   22.219269    0.000000    0.000000    0.000000    0.000000
  0.029018036   -0.024448  -79.888550  -95.378581   21.699947    0.000000    0.000000    0.000000    0.000000
  0.029218437   -0.018861  -80.334366  -95.939466   18.289873    0.000000    0.000000    0.000000    0.000000
  0.029418838   -0.012888  -80.760010  -96.481548   20.776760    0.000000    0.000000    0.000000    0.000000
  0.029619238   -0.013568  -81.174911  -96.535437   17.038286    0.000000    0.000000    0.000000    0.000000
  0.029819639   -0.013322  -81.601112  -96.673244   16.194592    0.000000    0.000000    0.000000    0.000000
  0.030020040   -0.019723  -82.042999  -97.173841   18.623430    0.000000    0.000000    0.000000    0.000000
  0.030220441   -0.027102  -82.528610  -97.174960   10.508617    0.000000    0.000000    0.000000    0.000000
  0.030420842   -0.036825  -83.032623  -96.549768   10.456742    0.000000    0.000000    0.000000    0.000000
  0.030621242   -0.045392  -83.551537  -97.223547   11.180518    0.000000    0.000000    0.000000    0.000000
  0.030821643   -0.049019  -84.086563  -96.304101    6.859605    0.000000    0.000000    0.000000    0.000000
  0.031022044   -0.048938  -84.604561  -97.158393   13.400374    0.000000    0.000000    0.000000    0.000000
  0.031222445   -0.047071  -85.130104  -96.825557    7.657761    0.000000    0.000000    0.000000    0.000000
  0.031422846   -0.046290  -85.650444  -98.247865    4.018393    0.000000    0.000000    0.000000    0.000000
  0.031623246   -0.045930  -86.147209  -97.303961    9.999857    0.000000    0.000000    0.000000    0.000000
  0.031823647   -0.042650  -86.643745  -98.291039   12.145666    0.000000    0.000000    0.000000    0.000000
  0.032024048   -0.041740  -87.107445  -97.542302   14.417560    0.000000    0.000000    0.000000    0.000000
  0.032224449   -0.041130  -87.559235  -97.663195   16.694338    0.000000    0.000000    0.000000    0.000000
  0.032424850   -0.049888  -88.021225  -98.043283   13.697718    0.000000    0.000000    0.000000    0.000000
  0.032625251   -0.060734  -88.511398  -98.865858    9.700129    0.000000    0.000000    0.000000    0.000000
  0.032825651   -0.069219  -89.042496  -97.946033   14.538251    0.000000    0.000000    0.000000    0.000000
  0.033026052   -0.076953  -89.604568  -97.494337   14.334022    0.000000    0.000000    0.000000    0.000000
  0.033226453   -0.084945  -90.200119  -97.617058   18.982712    0.000000    0.000000    0.000000    0.000000
  0.033426854   -0.088892  -90.811089  -98.488703   10.240972    0.000000    0.000000    0.000000    0.000000
  0.033627255   -0.091967  -91.449783  -96.785281   14.596483    0.000000    0.000000    0.000000    0.000000
  0.033827655   -0.093947  -92.080734  -99.071247   12.170696    0.000000    0.000000    0.000000    0.000000
  0.034028056   -0.086392  -92.691299  -97.720852   13.481427    0.000000    0.000000    0.000000    0.000000
  0.034228457   -0.081297  -93.264923  -98.419876   10.258825    0.000000    0.000000    0.000000    0.000000
  0.034428858   -0.071639  -93.812729  -98.005670    6.908320    0.000000    0.000000    0.000000    0.000000
  0.034629259   -0.059758  -94.318542  -97.708606    9.016294    0.000000    0.000000    0.000000    0.000000
  0.034829659   -0.049122  -94.808395  -97.662346   14.801011    0.000000    0.000000    0.000000    0.000000
  0.035030060   -0.045861  -95.254410  -98.244305    7.630742    0.000000    0.000000    0.000000    0.000000
  0.035230461   -0.041266  -95.701942  -99.710010    7.882726    0.000000    0.000000    0.000000    0.000000
  0.035430862   -0.043570  -96.123611  -97.834521    2.742577    0.000000    0.000000    0.000000    0.000000
  0.035631263   -0.047817  -96.554291  -98.515572    8.451555    0.000000    0.000000    0.000000    0.000000
  0.035831663   -0.059826  -97.022331  -98.927836   -3.465837    0.000000    0.000000    0.000000    0.000000
  0.036032064   -0.067965  -97.533272  -99.706731   13.649020    0.000000    0.000000    0.000000    0.000000
  0.036232465   -0.077089  -98.053864  -99.114436    6.978318    0.000000    0.000000    0.000000    0.000000
  0.036432866   -0.080302  -98.591621 -101.866364   14.990385    0.000000    0.000000    0.000000    0.000000
  0.036633267   -0.081405  -99.118233  -98.971015    5.197530    0.000000    0.000000    0.000000    0.000000
  0.036833667   -0.082419  -99.636444  -99.133421   13.585537    0.000000    0.000000    0.000000    0.000000
  0.037034068   -0.077105 -100.160255 -101.321911   17.761351    0.000000    0.000000    0.000000    0.000000
  0.037234469   -0.062925 -100.642662  -99.589192    3.927567    0.000000    0.000000    0.000000    0.000000
  0.037434870   -0.056037 -101.076675 -100.403554    7.582368    0.000000    0.000000    0.000000    0.000000
  0.037635271   -0.051253 -101.494064  -99.818650    4.668818    0.000000    0.000000    0.000000    0.000000
  0.037835671   -0.053166 -101.908905  -98.905389   19.903765    0.000000    0.000000    0.000000    0.000000
  0.038036072   -0.057532 -102.370018  -99.128612   15.037430    0.000000    0.000000    0.000000    0.000000
  0.038236473   -0.064791 -102.847710  -98.547727    6.686403    0.000000    0.000000    0.000000    0.000000
  0.038436874   -0.073766 -103.348381  -99.887023    5.897425    0.000000    0.000000    0.000000    0.000000
  0.038637275   -0.079491 -103.844574  -98.479751    5.399614    0.000000    0.000000    0.000000    0.000000
  0.038837675   -0.090924 -104.376915  -99.462775    9.162403    0.000000    0.000000    0.000000    0.000000
  0.039038076   -0.099944 -104.924591  -97.983801    4.155347    0.000000    0.000000    0.000000    0.000000
  0.039238477   -0.109450 -105.477417  -99.914411    2.772951    0.000000    0.000000    0.000000    0.000000
  0.039438878   -0.108814 -106.050537  -99.730868    6.697966    0.000000    0.000000    0.000000    0.000000
  0.039639279   -0.105519 -106.589249  -99.148892   -1.192418    0.000000    0.000000    0.000000    0.000000
  0.039839679   -0.101459 -107.115669 -100.279230    5.534777    0.000000    0.000000    0.000000    0.000000
  0.040040080   -0.093372 -107.617020 -100.014372   -7.127003    0.000000    0.000000    0.000000    0.000000
  0.040240481   -0.087882 -108.099640 -101.474456    6.441948    0.000000    0.000000    0.000000    0.000000
  0.040440882   -0.081906 -108.565903 -100.931658   -2.705306    0.000000    0.000000    0.000000    0.000000
  0.040641283   -0.081222 -109.040497 -100.070771    1.371750    0.000000    0.000000    0.000000    0.000000
  0.040841683   -0.082195 -109.496071 -103.036234    1.314930    0.000000    0.000000    0.000000    0.000000
  0.041042084   -0.086203 -109.966103 -100.895451    5.218208    0.000000    0.000000    0.000000    0.000000
  0.041242485   -0.095408 -110.424583 -102.099567    7.880941    0.000000    0.000000    0.000000    0.000000
  0.041442886   -0.107053 -110.901474 -100.149283    8.116410    0.000000    0.000000    0.000000    0.000000
  0.041643287   -0.115621 -111.455521 -101.026241   10.320257    0.000000    0.000000    0.000000    0.000000
  0.041843687   -0.122698 -112.015419 -101.307501    5.996192    0.000000    0.000000    0.000000    0.000000
  0.042044088   -0.124742 -112.571747 -103.271292    5.402203    0.000000    0.000000    0.000000    0.000000
  0.042244489   -0.117669 -113.121979 -102.319049   17.898590    0.000000    0.000000    0.000000    0.000000
  0.042444890   -0.104772 -113.658112 -101.498122   20.197094    0.000000    0.000000    0.000000    0.000000
  0.042645291   -0.091197 -114.167847 -101.637902   13.062887    0.000000    0.000000    0.000000    0.000000
  0.042845691   -0.084083 -114.635666 -100.069672    5.286617    0.000000    0.000000    0.000000    0.000000
  0.043046092   -0.079806 -115.094208 -100.705742   19.102802    0.000000    0.000000    0.000000    0.000000
  0.043246493   -0.080448 -115.534401  -99.384046    6.666963    0.000000    0.000000    0.000000    0.000000
  0.043446894   -0.081595 -116.035240 -100.552707    1.302556    0.000000    0.000000    0.000000    0.000000
  0.043647295   -0.086904 -116.486496  -99.065825   -0.210872    0.000000    0.000000    0.000000    0.000000
  0.043847695   -0.087832 -116.949097 -100.137376    9.006674    0.000000    0.000000    0.000000    0.000000
  0.044048096   -0.092373 -117.419205 -100.571962    5.214427    0.000000    0.000000    0.000000    0.000000
  0.044248497   -0.100271 -117.870743 -100.573711    3.333849    0.000000    0.000000    0.000000    0.000000
  0.044448898   -0.105416 -118.382217  -99.046381   -8.379038    0.000000    0.000000    0.000000    0.000000
  0.044649299   -0.107381 -118.869621 -102.096043   -7.207958    0.000000    0.000000    0.000000    0.000000
  0.044849699   -0.105763 -119.356834 -102.407728    0.517527    0.000000    0.000000    0.000000    0.000000
  0.045050100   -0.105072 -119.806000 -100.649745    8.531404    0.000000    0.000000    0.000000    0.000000
  0.045250501   -0.100980 -120.234222 -102.171789   -5.605695    0.000000    0.000000    0.000000    0.000000
  0.045450902   -0.098095 -120.661629 -101.390606   -9.216130    0.000000    0.000000    0.000000    0.000000
  0.045651303   -0.098058 -121.102776 -103.007900   -9.874523    0.000000    0.000000    0.000000    0.000000
  0.045851703   -0.095220 -121.547981 -102.930381    6.747435    0.000000    0.000000    0.000000    0.000000
  0.046052104   -0.097261 -121.976265 -104.134747   -5.903402    0.000000    0.000000    0.000000    0.000000
  0.046252505   -0.096445 -122.388397 -105.319845   -0.206827    0.000000    0.000000    0.000000    0.000000
  0.046452906   -0.104234 -122.786598 -102.139261   14.272412    0.000000    0.000000    0.000000    0.000000
  0.046653307   -0.118253 -123.184456 -103.199450    0.495341    0.000000    0.000000    0.000000    0.000000
  0.046853707   -0.132157 -123.638252 -102.845498    8.232476    0.000000    0.000000    0.000000    0.000000
  0.047054108   -0.145054 -124.134552 -104.316773   17.709309    0.000000    0.000000    0.000000    0.000000
  0.047254509   -0.147375 -124.669815 -104.556498   27.529377    0.000000    0.000000    0.000000    0.000000
  0.047454910   -0.148952 -125.220871 -102.434959   13.676314    0.000000    0.000000    0.000000    0.000000
  0.047655311   -0.142579 -125.741501 -102.159839   16.583706    0.000000    0.000000    0.000000    0.000000
  0.047855711   -0.136092 -126.265800 -101.858156   13.443279    0.000000    0.000000    0.000000    0.000000
  0.048056112   -0.130356 -126.776192 -101.822303   18.523960    0.000000    0.000000    0.000000    0.000000
  0.048256513   -0.128968 -127.267609 -102.386062   24.320034    0.000000    0.000000    0.000000    0.000000
  0.048456914   -0.131409 -127.776436 -103.139368   17.915009    0.000000    0.000000    0.000000    0.000000
  0.048657315   -0.130762 -128.279297 -101.344618   12.682833    0.000000    0.000000    0.000000    0.000000
  0.048857715   -0.133626 -128.779480 -103.299043   10.559408    0.000000    0.000000    0.000000    0.000000
  0.049058116   -0.135885 -129.287430 -101.202299    9.731825    0.000000    0.000000    0.000000    0.000000
  0.049258517   -0.139159 -129.794159 -101.345350    0.768808    0.000000    0.000000    0.000000    0.000000
  0.049458918   -0.144803 -130.315781 -101.430977  -18.774801    0.000000    0.000000    0.000000    0.000000
  0.049659319   -0.142887 -130.858078  -99.555872  -10.984405    0.000000    0.000000    0.000000    0.000000
  0.049859719   -0.144386 -131.370209 -101.544952    4.054443    0.000000    0.000000    0.000000    0.000000
  0.050060120   -0.139925 -131.881439 -101.460865   -9.961763    0.000000    0.000000    0.000000    0.000000
  0.050260521   -0.135118 -132.349731 -103.943080  -11.858197    0.000000    0.000000    0.000000    0.000000
  0.050460922   -0.136220 -132.810318 -103.999027   -1.838993    0.000000    0.000000    0.000000    0.000000
  0.050661323   -0.135721 -133.276947 -105.602054   -5.070656    0.000000    0.000000    0.000000    0.000000
  0.050861723   -0.130377 -133.736893 -106.564467   -3.666924    0.000000    0.000000    0.000000    0.000000
  0.051062124   -0.126425 -134.207199 -102.742821    1.738483    0.000000    0.000000    0.000000    0.000000
  0.051262525   -0.122743 -134.633911 -104.524454   -0.371865    0.000000    0.000000    0.000000    0.000000
  0.051462926   -0.119741 -135.042679 -106.005696   30.815300    0.000000    0.000000    0.000000    0.000000
  0.051663327   -0.121350 -135.417175 -106.079928   10.076798    0.000000    0.000000    0.000000    0.000000
  0.051863727   -0.128011 -135.794220 -104.523952   13.860089    0.000000    0.000000    0.000000    0.000000
  0.052064128   -0.137695 -136.205841 -104.500964   18.410917    0.000000    0.000000    0.000000    0.000000
  0.052264529   -0.146883 -136.631287 -107.443410    2.047154    0.000000    0.000000    0.000000    0.000000
  0.052464930   -0.150132 -137.098801 -105.382837   25.262941    0.000000    0.000000    0.000000    0.000000
  0.052665331   -0.153556 -137.557205 -102.648561   19.828424    0.000000    0.000000    0.000000    0.000000
  0.052865731   -0.150861 -138.030685 -102.448386   21.712059    0.000000    0.000000    0.000000    0.000000
