! Anritsu VNA Master:                     Model: MS2036C/10/77
! SN:                                  1601066
! /card0/usr/18may27.balun/252b.47.2.s2p
! Existing Calibration Information:
! TYPE:                         Current Settings,       Active Cal Settings
! TIME:             	   05/27/2018 12:29:02 PM,    05/27/2018 12:21:44 PM
! INTERNAL TEMP:    	                   53.8 C,                    53.3 C
! # POINTS:         	                      500,                       500
! START FREQ:       	               20.000 MHz,                20.000 MHz
! STOP FREQ:        	              120.000 MHz,               120.000 MHz
! SOURCE POWER:     	                     High,                      High
! IFBW:             	                    50 Hz,                     50 Hz
! AVG FACTOR:       	                       1 ,                        1 
! REF PLANE 1:      	                     0 mm,                      0 mm
! REF PLANE 2:      	                     0 mm,                      0 mm
! CAL TYPE:         	                 Full S11,                  Full S11
! CAL METHOD:       	                     SOLT,                      SOLT
! CAL LINE TYPE:    	                     Coax,                      Coax
! DUT PORT 1:       	                K-Conn(M),                 K-Conn(M)
! DUT PORT 2:       	                K-Conn(M),                 K-Conn(M)
! CAL STATUS:       	        OK: Accuracy High,                        --
# GHZ S DB R 50.0
! FREQ.GHZ       S11DB        S11A       S21DB        S21A       S12DB        S12A       S22DB        S22A
  0.020000000   -0.028288  -56.456863  -89.699401   38.261005    0.000000    0.000000    0.000000    0.000000
  0.020200401   -0.024442  -57.025658  -90.450351   31.823519    0.000000    0.000000    0.000000    0.000000
  0.020400802   -0.020658  -57.598911  -90.263461   34.300789    0.000000    0.000000    0.000000    0.000000
  0.020601202   -0.019373  -58.153694  -90.863226   31.591270    0.000000    0.000000    0.000000    0.000000
  0.020801603   -0.017825  -58.722649  -91.103004   29.109873    0.000000    0.000000    0.000000    0.000000
  0.021002004   -0.018766  -59.299271  -91.836041   29.329321    0.000000    0.000000    0.000000    0.000000
  0.021202405   -0.019472  -59.870571  -92.093428   26.846855    0.000000    0.000000    0.000000    0.000000
  0.021402806   -0.017862  -60.408398  -92.012240   26.147038    0.000000    0.000000    0.000000    0.000000
  0.021603206   -0.023081  -60.960129  -92.261489   27.907747    0.000000    0.000000    0.000000    0.000000
  0.021803607   -0.025135  -61.471752  -92.969047   27.589832    0.000000    0.000000    0.000000    0.000000
  0.022004008   -0.024907  -61.996895  -94.074126   26.933233    0.000000    0.000000    0.000000    0.000000
  0.022204409   -0.028104  -62.536934  -93.831260   29.809889    0.000000    0.000000    0.000000    0.000000
  0.022404810   -0.031905  -63.077038  -93.053534   30.246130    0.000000    0.000000    0.000000    0.000000
  0.022605210   -0.032645  -63.602646  -93.327772   30.986774    0.000000    0.000000    0.000000    0.000000
  0.022805611   -0.028123  -64.150200  -93.475781   32.284294    0.000000    0.000000    0.000000    0.000000
  0.023006012   -0.018693  -64.719627  -94.123918   28.894442    0.000000    0.000000    0.000000    0.000000
  0.023206413   -0.013283  -65.249809  -94.194466   38.546528    0.000000    0.000000    0.000000    0.000000
  0.023406814   -0.009348  -65.786987  -93.561525   32.907143    0.000000    0.000000    0.000000    0.000000
  0.023607214   -0.009541  -66.338364  -93.364482   32.407856    0.000000    0.000000    0.000000    0.000000
  0.023807615   -0.009094  -66.860870  -93.489835   30.051859    0.000000    0.000000    0.000000    0.000000
  0.024008016   -0.013120  -67.357811  -93.264791   35.136906    0.000000    0.000000    0.000000    0.000000
  0.024208417   -0.017476  -67.841125  -93.132022   31.267954    0.000000    0.000000    0.000000    0.000000
  0.024408818   -0.026375  -68.351746  -92.672724   26.144766    0.000000    0.000000    0.000000    0.000000
  0.024609218   -0.030870  -68.871811  -93.441564   28.649101    0.000000    0.000000    0.000000    0.000000
  0.024809619   -0.037663  -69.418579  -93.342149   24.336649    0.000000    0.000000    0.000000    0.000000
  0.025010020   -0.038164  -70.005058  -93.353642   23.394949    0.000000    0.000000    0.000000    0.000000
  0.025210421   -0.040722  -70.590141  -94.160943   27.038244    0.000000    0.000000    0.000000    0.000000
  0.025410822   -0.043832  -71.183182  -94.296345   21.067619    0.000000    0.000000    0.000000    0.000000
  0.025611222   -0.042943  -71.788582  -93.634137   21.431751    0.000000    0.000000    0.000000    0.000000
  0.025811623   -0.040127  -72.368370  -94.801707   14.791808    0.000000    0.000000    0.000000    0.000000
  0.026012024   -0.038463  -72.946068  -94.110492   14.505919    0.000000    0.000000    0.000000    0.000000
  0.026212425   -0.033926  -73.505470  -95.190729   14.341928    0.000000    0.000000    0.000000    0.000000
  0.026412826   -0.027894  -74.053543  -94.926975   12.253278    0.000000    0.000000    0.000000    0.000000
  0.026613226   -0.030953  -74.548790  -95.588616   23.620495    0.000000    0.000000    0.000000    0.000000
  0.026813627   -0.033108  -75.049850  -95.350807   11.366776    0.000000    0.000000    0.000000    0.000000
  0.027014028   -0.036440  -75.516685  -96.248766   26.497404    0.000000    0.000000    0.000000    0.000000
  0.027214429   -0.045598  -75.982796  -96.202601   20.022255    0.000000    0.000000    0.000000    0.000000
  0.027414830   -0.054625  -76.498039  -96.152655   18.429991    0.000000    0.000000    0.000000    0.000000
  0.027615230   -0.062840  -77.066292  -97.095694   17.501448    0.000000    0.000000    0.000000    0.000000
  0.027815631   -0.064392  -77.633469  -96.842329   25.292904    0.000000    0.000000    0.000000    0.000000
  0.028016032   -0.065562  -78.219597  -96.303628   27.870171    0.000000    0.000000    0.000000    0.000000
  0.028216433   -0.056289  -78.816444  -96.069379   24.646151    0.000000    0.000000    0.000000    0.000000
  0.028416834   -0.049007  -79.412506  -95.298330   27.007481    0.000000    0.000000    0.000000    0.000000
  0.028617234   -0.041120  -79.999825  -96.529147   24.033056    0.000000    0.000000    0.000000    0.000000
  0.028817635   -0.034627  -80.550148  -96.769532   21.441551    0.000000    0.000000    0.000000    0.000000
  0.029018036   -0.026611  -81.042702  -95.082993   19.598135    0.000000    0.000000    0.000000    0.000000
  0.029218437   -0.019751  -81.507179  -95.778037   23.048090    0.000000    0.000000    0.000000    0.000000
  0.029418838   -0.015103  -81.962280  -95.858148   17.335739    0.000000    0.000000    0.000000    0.000000
  0.029619238   -0.014175  -82.394714  -96.518095   14.050632    0.000000    0.000000    0.000000    0.000000
  0.029819639   -0.016939  -82.855721  -95.832797   16.358696    0.000000    0.000000    0.000000    0.000000
  0.030020040   -0.022970  -83.357063  -97.446058   11.902369    0.000000    0.000000    0.000000    0.000000
  0.030220441   -0.032972  -83.895401  -97.190423   15.257319    0.000000    0.000000    0.000000    0.000000
  0.030420842   -0.044066  -84.459236  -96.910239   10.173764    0.000000    0.000000    0.000000    0.000000
  0.030621242   -0.051439  -85.041473  -96.839207    9.831054    0.000000    0.000000    0.000000    0.000000
  0.030821643   -0.056512  -85.628815  -97.469999   12.850505    0.000000    0.000000    0.000000    0.000000
  0.031022044   -0.056225  -86.209221  -97.811899   13.666908    0.000000    0.000000    0.000000    0.000000
  0.031222445   -0.053984  -86.785011  -97.094730   14.313969    0.000000    0.000000    0.000000    0.000000
  0.031422846   -0.054222  -87.347389  -96.843260   13.185736    0.000000    0.000000    0.000000    0.000000
  0.031623246   -0.055259  -87.881248  -98.512600   10.620302    0.000000    0.000000    0.000000    0.000000
  0.031823647   -0.049588  -88.404938  -97.187309    8.091534    0.000000    0.000000    0.000000    0.000000
  0.032024048   -0.045493  -88.876831  -99.382772   12.959421    0.000000    0.000000    0.000000    0.000000
  0.032224449   -0.047572  -89.324623  -98.239556   11.359066    0.000000    0.000000    0.000000    0.000000
  0.032424850   -0.052065  -89.775047  -97.477305    6.403015    0.000000    0.000000    0.000000    0.000000
  0.032625251   -0.062342  -90.248566  -97.608031   10.894774    0.000000    0.000000    0.000000    0.000000
  0.032825651   -0.072402  -90.746101  -98.680530   10.624264    0.000000    0.000000    0.000000    0.000000
  0.033026052   -0.079360  -91.258453  -98.138403   11.192218    0.000000    0.000000    0.000000    0.000000
  0.033226453   -0.084230  -91.819885  -96.151377   13.010165    0.000000    0.000000    0.000000    0.000000
  0.033426854   -0.090085  -92.382118  -98.231767    9.611691    0.000000    0.000000    0.000000    0.000000
  0.033627255   -0.096428  -92.978127  -98.901989   18.406063    0.000000    0.000000    0.000000    0.000000
  0.033827655   -0.097011  -93.567566  -97.734257    9.573406    0.000000    0.000000    0.000000    0.000000
  0.034028056   -0.091869  -94.170341  -97.429534    8.423839    0.000000    0.000000    0.000000    0.000000
  0.034228457   -0.087559  -94.709312  -99.410013   18.191530    0.000000    0.000000    0.000000    0.000000
  0.034428858   -0.078325  -95.281296  -98.393490    9.599061    0.000000    0.000000    0.000000    0.000000
  0.034629259   -0.065599  -95.788162  -99.166533    6.325465    0.000000    0.000000    0.000000    0.000000
  0.034829659   -0.060682  -96.295860  -97.331041    7.644723    0.000000    0.000000    0.000000    0.000000
  0.035030060   -0.054283  -96.757133  -97.774469   10.982148    0.000000    0.000000    0.000000    0.000000
  0.035230461   -0.050840  -97.243347  -97.865557    7.484453    0.000000    0.000000    0.000000    0.000000
  0.035430862   -0.051243  -97.714653  -99.271380    5.947813    0.000000    0.000000    0.000000    0.000000
  0.035631263   -0.060229  -98.187737 -100.421378    8.249785    0.000000    0.000000    0.000000    0.000000
  0.035831663   -0.067338  -98.695114  -99.735869   10.589365    0.000000    0.000000    0.000000    0.000000
  0.036032064   -0.075360  -99.243561  -99.083209   10.079172    0.000000    0.000000    0.000000    0.000000
  0.036232465   -0.084199  -99.829445  -99.636507    5.509225    0.000000    0.000000    0.000000    0.000000
  0.036432866   -0.087292 -100.411942  -99.968782    9.764004    0.000000    0.000000    0.000000    0.000000
  0.036633267   -0.089527 -100.971558 -100.613489    3.861157    0.000000    0.000000    0.000000    0.000000
  0.036833667   -0.092022 -101.543144 -101.371950    7.453564    0.000000    0.000000    0.000000    0.000000
  0.037034068   -0.084918 -102.091286  -98.626915    8.260750    0.000000    0.000000    0.000000    0.000000
  0.037234469   -0.071203 -102.591873  -99.916856   21.962507    0.000000    0.000000    0.000000    0.000000
  0.037434870   -0.060838 -103.046906  -99.567584   12.160427    0.000000    0.000000    0.000000    0.000000
  0.037635271   -0.055455 -103.465271  -99.629146    9.852144    0.000000    0.000000    0.000000    0.000000
  0.037835671   -0.057427 -103.879738  -99.833034   11.679503    0.000000    0.000000    0.000000    0.000000
  0.038036072   -0.063839 -104.333336  -99.305083   23.072748    0.000000    0.000000    0.000000    0.000000
  0.038236473   -0.070473 -104.795670 -100.612500    9.928347    0.000000    0.000000    0.000000    0.000000
  0.038436874   -0.077758 -105.288170  -99.728779   11.324908    0.000000    0.000000    0.000000    0.000000
  0.038637275   -0.083808 -105.762444  -99.691827   22.712906    0.000000    0.000000    0.000000    0.000000
  0.038837675   -0.095750 -106.288185 -102.315651   10.406305    0.000000    0.000000    0.000000    0.000000
  0.039038076   -0.106875 -106.822952  -98.575872   -1.678887    0.000000    0.000000    0.000000    0.000000
  0.039238477   -0.114317 -107.383217 -100.208749    7.405199    0.000000    0.000000    0.000000    0.000000
  0.039438878   -0.117424 -107.956863  -99.278816    4.814459    0.000000    0.000000    0.000000    0.000000
  0.039639279   -0.114559 -108.496567 -100.320691   12.737709    0.000000    0.000000    0.000000    0.000000
  0.039839679   -0.108907 -109.045448  -99.837760    5.249989    0.000000    0.000000    0.000000    0.000000
  0.040040080   -0.101460 -109.573601 -100.594666    4.398656    0.000000    0.000000    0.000000    0.000000
  0.040240481   -0.096059 -110.067245 -101.470132    1.786380    0.000000    0.000000    0.000000    0.000000
  0.040440882   -0.088309 -110.579742 -100.948760   -9.726468    0.000000    0.000000    0.000000    0.000000
  0.040641283   -0.087931 -111.079971 -100.477026   12.904355    0.000000    0.000000    0.000000    0.000000
  0.040841683   -0.088497 -111.574730 -101.381865    5.567770    0.000000    0.000000    0.000000    0.000000
  0.041042084   -0.089351 -112.052155 -102.412717   -3.332399    0.000000    0.000000    0.000000    0.000000
  0.041242485   -0.095221 -112.536240 -100.202372    3.840983    0.000000    0.000000    0.000000    0.000000
  0.041442886   -0.104468 -113.040779 -103.151770   12.528397    0.000000    0.000000    0.000000    0.000000
  0.041643287   -0.115199 -113.567986 -101.021111   17.090456    0.000000    0.000000    0.000000    0.000000
  0.041843687   -0.121294 -114.123108 -100.480886   12.906275    0.000000    0.000000    0.000000    0.000000
  0.042044088   -0.121632 -114.668648 -102.259139    3.207632    0.000000    0.000000    0.000000    0.000000
  0.042244489   -0.115259 -115.214264 -101.828900   13.141020    0.000000    0.000000    0.000000    0.000000
  0.042444890   -0.104010 -115.733582 -101.818556   13.460078    0.000000    0.000000    0.000000    0.000000
  0.042645291   -0.091590 -116.199440 -103.438634    6.257709    0.000000    0.000000    0.000000    0.000000
  0.042845691   -0.085461 -116.644646 -101.256514   16.873842    0.000000    0.000000    0.000000    0.000000
  0.043046092   -0.083574 -117.084808 -101.770800    5.900942    0.000000    0.000000    0.000000    0.000000
  0.043246493   -0.085695 -117.499062 -100.572058   15.327529    0.000000    0.000000    0.000000    0.000000
  0.043446894   -0.090606 -117.956810 -100.857213   14.114680    0.000000    0.000000    0.000000    0.000000
  0.043647295   -0.095037 -118.410629 -100.406588   20.712523    0.000000    0.000000    0.000000    0.000000
  0.043847695   -0.102220 -118.858475  -99.118680    3.489336    0.000000    0.000000    0.000000    0.000000
  0.044048096   -0.111075 -119.332268  -98.677566   13.923113    0.000000    0.000000    0.000000    0.000000
  0.044248497   -0.120908 -119.809441 -100.116994    1.069698    0.000000    0.000000    0.000000    0.000000
  0.044448898   -0.128858 -120.336441 -102.400320    6.536967    0.000000    0.000000    0.000000    0.000000
  0.044649299   -0.135541 -120.856003 -100.450672   -3.495648    0.000000    0.000000    0.000000    0.000000
  0.044849699   -0.137240 -121.406189 -100.605620   14.457865    0.000000    0.000000    0.000000    0.000000
  0.045050100   -0.138190 -121.930130  -99.669356   -5.417786    0.000000    0.000000    0.000000    0.000000
  0.045250501   -0.133616 -122.457611 -101.319284   -8.213660    0.000000    0.000000    0.000000    0.000000
  0.045450902   -0.132480 -122.969551 -104.072185    1.687503    0.000000    0.000000    0.000000    0.000000
  0.045651303   -0.132753 -123.507156 -102.069220    0.034370    0.000000    0.000000    0.000000    0.000000
  0.045851703   -0.129282 -124.028732 -102.266223    2.764310    0.000000    0.000000    0.000000    0.000000
  0.046052104   -0.129159 -124.561050 -104.614932   -8.666802    0.000000    0.000000    0.000000    0.000000
  0.046252505   -0.128342 -125.051300 -104.327869   10.242938    0.000000    0.000000    0.000000    0.000000
  0.046452906   -0.131809 -125.497047 -102.434685    9.942126    0.000000    0.000000    0.000000    0.000000
  0.046653307   -0.137076 -125.976692 -102.910164    8.552895    0.000000    0.000000    0.000000    0.000000
  0.046853707   -0.147120 -126.464218 -103.656604    4.823713    0.000000    0.000000    0.000000    0.000000
  0.047054108   -0.151184 -126.987686 -102.494223    5.615479    0.000000    0.000000    0.000000    0.000000
  0.047254509   -0.152314 -127.522171 -104.231579   22.888243    0.000000    0.000000    0.000000    0.000000
  0.047454910   -0.145419 -128.032990 -103.018198    0.321034    0.000000    0.000000    0.000000    0.000000
  0.047655311   -0.134831 -128.538452 -101.411980   12.380228    0.000000    0.000000    0.000000    0.000000
  0.047855711   -0.123600 -128.991653 -102.772950   34.959446    0.000000    0.000000    0.000000    0.000000
  0.048056112   -0.116850 -129.418732 -101.890871   19.314474    0.000000    0.000000    0.000000    0.000000
  0.048256513   -0.111739 -129.856384 -102.500355   11.921943    0.000000    0.000000    0.000000    0.000000
  0.048456914   -0.108624 -130.259338 -103.260916    8.811422    0.000000    0.000000    0.000000    0.000000
  0.048657315   -0.108885 -130.685486 -103.647884    3.579964    0.000000    0.000000    0.000000    0.000000
  0.048857715   -0.112321 -131.082123 -100.326901   10.897399    0.000000    0.000000    0.000000    0.000000
  0.049058116   -0.116201 -131.500519 -102.399414   -0.180843    0.000000    0.000000    0.000000    0.000000
  0.049258517   -0.122414 -131.936203 -100.301531    1.333717    0.000000    0.000000    0.000000    0.000000
  0.049458918   -0.132103 -132.400269 -102.632606    4.089710    0.000000    0.000000    0.000000    0.000000
  0.049659319   -0.136841 -132.869690 -102.523417   -1.018809    0.000000    0.000000    0.000000    0.000000
  0.049859719   -0.139821 -133.353485 -100.782155    3.147317    0.000000    0.000000    0.000000    0.000000
  0.050060120   -0.142877 -133.826233 -103.238183  -15.303985    0.000000    0.000000    0.000000    0.000000
  0.050260521   -0.144455 -134.295029 -102.655704   -9.904181    0.000000    0.000000    0.000000    0.000000
  0.050460922   -0.147945 -134.799255 -105.602145  -12.488358    0.000000    0.000000    0.000000    0.000000
  0.050661323   -0.150938 -135.296234 -105.878683  -10.876878    0.000000    0.000000    0.000000    0.000000
  0.050861723   -0.152139 -135.820084 -102.915698   -7.392824    0.000000    0.000000    0.000000    0.000000
  0.051062124   -0.152985 -136.325760 -104.588372    2.720459    0.000000    0.000000    0.000000    0.000000
  0.051262525   -0.149775 -136.832153 -103.194240   -3.225791    0.000000    0.000000    0.000000    0.000000
  0.051462926   -0.148662 -137.309006 -103.138461    3.382749    0.000000    0.000000    0.000000    0.000000
  0.051663327   -0.151510 -137.775223 -107.264720   34.065823    0.000000    0.000000    0.000000    0.000000
  0.051863727   -0.156872 -138.235809 -104.958629    7.536657    0.000000    0.000000    0.000000    0.000000
  0.052064128   -0.165501 -138.709641 -103.362695   20.174105    0.000000    0.000000    0.000000    0.000000
  0.052264529   -0.170911 -139.205338 -103.968646   11.470310    0.000000    0.000000    0.000000    0.000000
  0.052464930   -0.170666 -139.731888 -103.449369   15.970075    0.000000    0.000000    0.000000    0.000000
  0.052665331   -0.170930 -140.230576 -105.388786   28.373678    0.000000    0.000000    0.000000    0.000000
  0.052865731   -0.166546 -140.740891 -103.533217   26.109644    0.000000    0.000000    0.000000    0.000000
