! Anritsu VNA Master:                     Model: MS2036C/10/77
! SN:                                  1601066
! /card0/usr/18may27.balun/252b.66.2.s2p
! Existing Calibration Information:
! TYPE:                         Current Settings,       Active Cal Settings
! TIME:             	   05/27/2018 12:31:09 PM,    05/27/2018 12:21:44 PM
! INTERNAL TEMP:    	                   53.8 C,                    53.3 C
! # POINTS:         	                      500,                       500
! START FREQ:       	               20.000 MHz,                20.000 MHz
! STOP FREQ:        	              120.000 MHz,               120.000 MHz
! SOURCE POWER:     	                     High,                      High
! IFBW:             	                    50 Hz,                     50 Hz
! AVG FACTOR:       	                       1 ,                        1 
! REF PLANE 1:      	                     0 mm,                      0 mm
! REF PLANE 2:      	                     0 mm,                      0 mm
! CAL TYPE:         	                 Full S11,                  Full S11
! CAL METHOD:       	                     SOLT,                      SOLT
! CAL LINE TYPE:    	                     Coax,                      Coax
! DUT PORT 1:       	                K-Conn(M),                 K-Conn(M)
! DUT PORT 2:       	                K-Conn(M),                 K-Conn(M)
! CAL STATUS:       	        OK: Accuracy High,                        --
# GHZ S DB R 50.0
! FREQ.GHZ       S11DB        S11A       S21DB        S21A       S12DB        S12A       S22DB        S22A
  0.020000000   -0.037978  -68.673347  -90.448569   35.320549    0.000000    0.000000    0.000000    0.000000
  0.020200401   -0.035921  -69.339851  -90.679360   33.007595    0.000000    0.000000    0.000000    0.000000
  0.020400802   -0.031405  -70.018646  -90.842420   33.489738    0.000000    0.000000    0.000000    0.000000
  0.020601202   -0.029468  -70.670029  -90.646765   31.736719    0.000000    0.000000    0.000000    0.000000
  0.020801603   -0.025312  -71.334267  -91.350326   30.248241    0.000000    0.000000    0.000000    0.000000
  0.021002004   -0.027470  -72.006058  -91.824322   25.423260    0.000000    0.000000    0.000000    0.000000
  0.021202405   -0.029645  -72.655838  -91.803492   25.621391    0.000000    0.000000    0.000000    0.000000
  0.021402806   -0.029079  -73.284157  -92.346281   26.721846    0.000000    0.000000    0.000000    0.000000
  0.021603206   -0.034514  -73.926155  -92.936166   24.567064    0.000000    0.000000    0.000000    0.000000
  0.021803607   -0.037606  -74.524475  -92.443190   28.220493    0.000000    0.000000    0.000000    0.000000
  0.022004008   -0.037691  -75.134796  -93.476781   31.551674    0.000000    0.000000    0.000000    0.000000
  0.022204409   -0.040083  -75.766273  -93.401534   26.726637    0.000000    0.000000    0.000000    0.000000
  0.022404810   -0.044199  -76.385399  -94.166765   33.017006    0.000000    0.000000    0.000000    0.000000
  0.022605210   -0.043611  -76.994591  -93.388302   33.823456    0.000000    0.000000    0.000000    0.000000
  0.022805611   -0.037208  -77.628067  -93.338660   30.421034    0.000000    0.000000    0.000000    0.000000
  0.023006012   -0.028414  -78.274879  -93.412161   30.342228    0.000000    0.000000    0.000000    0.000000
  0.023206413   -0.022936  -78.894981  -93.306808   32.953602    0.000000    0.000000    0.000000    0.000000
  0.023406814   -0.019805  -79.511475  -92.958720   35.841602    0.000000    0.000000    0.000000    0.000000
  0.023607214   -0.020119  -80.136742  -92.992872   30.758554    0.000000    0.000000    0.000000    0.000000
  0.023807615   -0.022762  -80.735268  -93.389307   30.586885    0.000000    0.000000    0.000000    0.000000
  0.024008016   -0.028256  -81.325325  -93.734054   29.566185    0.000000    0.000000    0.000000    0.000000
  0.024208417   -0.035273  -81.891296  -92.755103   31.798185    0.000000    0.000000    0.000000    0.000000
  0.024408818   -0.043954  -82.505074  -93.245058   28.547092    0.000000    0.000000    0.000000    0.000000
  0.024609218   -0.047798  -83.115700  -93.154153   28.839249    0.000000    0.000000    0.000000    0.000000
  0.024809619   -0.053749  -83.763763  -92.990768   25.295883    0.000000    0.000000    0.000000    0.000000
  0.025010020   -0.054925  -84.445145  -93.497922   22.288448    0.000000    0.000000    0.000000    0.000000
  0.025210421   -0.059458  -85.116707  -93.419324   18.692398    0.000000    0.000000    0.000000    0.000000
  0.025410822   -0.061934  -85.813797  -93.439016   18.968805    0.000000    0.000000    0.000000    0.000000
  0.025611222   -0.059728  -86.503128  -94.691353   20.049274    0.000000    0.000000    0.000000    0.000000
  0.025811623   -0.053483  -87.170624  -94.303593   13.134920    0.000000    0.000000    0.000000    0.000000
  0.026012024   -0.047924  -87.798889  -94.420804   22.994576    0.000000    0.000000    0.000000    0.000000
  0.026212425   -0.045122  -88.408783  -95.570487   16.723928    0.000000    0.000000    0.000000    0.000000
  0.026412826   -0.044108  -89.019325  -95.988482   20.539675    0.000000    0.000000    0.000000    0.000000
  0.026613226   -0.047712  -89.585541  -95.901298   22.692963    0.000000    0.000000    0.000000    0.000000
  0.026813627   -0.052049  -90.173660  -95.412952   23.357302    0.000000    0.000000    0.000000    0.000000
  0.027014028   -0.058179  -90.710197  -96.534360   22.023434    0.000000    0.000000    0.000000    0.000000
  0.027214429   -0.068905  -91.261482  -96.035460   17.480824    0.000000    0.000000    0.000000    0.000000
  0.027414830   -0.078484  -91.864845  -97.145382   27.856911    0.000000    0.000000    0.000000    0.000000
  0.027615230   -0.084313  -92.504684  -95.880111   20.624659    0.000000    0.000000    0.000000    0.000000
  0.027815631   -0.083768  -93.146667  -96.783738   24.519941    0.000000    0.000000    0.000000    0.000000
  0.028016032   -0.081620  -93.807144  -95.705413   27.932364    0.000000    0.000000    0.000000    0.000000
  0.028216433   -0.071437  -94.465164  -95.764591   20.507025    0.000000    0.000000    0.000000    0.000000
  0.028416834   -0.064900  -95.125565  -96.280816   28.054762    0.000000    0.000000    0.000000    0.000000
  0.028617234   -0.058064  -95.755409  -95.868250   23.324045    0.000000    0.000000    0.000000    0.000000
  0.028817635   -0.052132  -96.361786  -95.951120   22.235851    0.000000    0.000000    0.000000    0.000000
  0.029018036   -0.045902  -96.909943  -95.734447   17.580891    0.000000    0.000000    0.000000    0.000000
  0.029218437   -0.041785  -97.453445  -95.329922   15.702323    0.000000    0.000000    0.000000    0.000000
  0.029418838   -0.038785  -97.997566  -95.930362   11.817282    0.000000    0.000000    0.000000    0.000000
  0.029619238   -0.039113  -98.518372  -96.274697   19.696552    0.000000    0.000000    0.000000    0.000000
  0.029819639   -0.043598  -99.057304  -96.263548   17.945004    0.000000    0.000000    0.000000    0.000000
  0.030020040   -0.050055  -99.645271  -97.181106   15.795877    0.000000    0.000000    0.000000    0.000000
  0.030220441   -0.062203 -100.263557  -97.863811    9.645978    0.000000    0.000000    0.000000    0.000000
  0.030420842   -0.073600 -100.905891  -96.998985   14.063431    0.000000    0.000000    0.000000    0.000000
  0.030621242   -0.079786 -101.577667  -97.132264    7.203715    0.000000    0.000000    0.000000    0.000000
  0.030821643   -0.081370 -102.260635  -96.642257    8.587027    0.000000    0.000000    0.000000    0.000000
  0.031022044   -0.078407 -102.913353  -99.048280   12.134179    0.000000    0.000000    0.000000    0.000000
  0.031222445   -0.073597 -103.556000  -96.031622   13.644097    0.000000    0.000000    0.000000    0.000000
  0.031422846   -0.070081 -104.148819  -97.141437   15.950148    0.000000    0.000000    0.000000    0.000000
  0.031623246   -0.069408 -104.716881  -97.284391   15.648156    0.000000    0.000000    0.000000    0.000000
  0.031823647   -0.064842 -105.255447  -97.198296   12.602739    0.000000    0.000000    0.000000    0.000000
  0.032024048   -0.065400 -105.765038  -98.437237   10.933770    0.000000    0.000000    0.000000    0.000000
  0.032224449   -0.072983 -106.255135  -98.737133   16.005983    0.000000    0.000000    0.000000    0.000000
  0.032424850   -0.080700 -106.762802  -98.717715   13.988264    0.000000    0.000000    0.000000    0.000000
  0.032625251   -0.090653 -107.319443  -97.919492   15.135654    0.000000    0.000000    0.000000    0.000000
  0.032825651   -0.101386 -107.878571  -98.860048    6.159892    0.000000    0.000000    0.000000    0.000000
  0.033026052   -0.106701 -108.471153  -98.161000   19.662033    0.000000    0.000000    0.000000    0.000000
  0.033226453   -0.108252 -109.068260  -97.799393   17.587257    0.000000    0.000000    0.000000    0.000000
  0.033426854   -0.111121 -109.692039  -97.262625   16.567778    0.000000    0.000000    0.000000    0.000000
  0.033627255   -0.115191 -110.312195  -97.796151   14.567057    0.000000    0.000000    0.000000    0.000000
  0.033827655   -0.115516 -110.936668  -98.952024   17.777359    0.000000    0.000000    0.000000    0.000000
  0.034028056   -0.111412 -111.582596  -97.591956   22.750441    0.000000    0.000000    0.000000    0.000000
  0.034228457   -0.108587 -112.164627  -98.453591    6.092781    0.000000    0.000000    0.000000    0.000000
  0.034428858   -0.100693 -112.779495  -98.271800    5.935343    0.000000    0.000000    0.000000    0.000000
  0.034629259   -0.090660 -113.342094  -98.984440    6.197973    0.000000    0.000000    0.000000    0.000000
  0.034829659   -0.087423 -113.888458  -97.907410    7.981847    0.000000    0.000000    0.000000    0.000000
  0.035030060   -0.082810 -114.400787  -98.529802   10.859678    0.000000    0.000000    0.000000    0.000000
  0.035230461   -0.081383 -114.942833  -97.429018    2.180765    0.000000    0.000000    0.000000    0.000000
  0.035430862   -0.085235 -115.495888  -98.336737    7.554970    0.000000    0.000000    0.000000    0.000000
  0.035631263   -0.092780 -116.045593  -97.928342    4.876336    0.000000    0.000000    0.000000    0.000000
  0.035831663   -0.099514 -116.612991 -100.914398    9.164308    0.000000    0.000000    0.000000    0.000000
  0.036032064   -0.109431 -117.228821 -100.724793   15.237967    0.000000    0.000000    0.000000    0.000000
  0.036232465   -0.118146 -117.870689 -100.107372    6.586681    0.000000    0.000000    0.000000    0.000000
  0.036432866   -0.120189 -118.508820  -99.244485    7.947191    0.000000    0.000000    0.000000    0.000000
  0.036633267   -0.120175 -119.137047 -102.354455    2.612782    0.000000    0.000000    0.000000    0.000000
  0.036833667   -0.115565 -119.754677  -99.799265    8.179098    0.000000    0.000000    0.000000    0.000000
  0.037034068   -0.103968 -120.319244  -99.312548   14.311997    0.000000    0.000000    0.000000    0.000000
  0.037234469   -0.090997 -120.813110 -100.205827   10.728981    0.000000    0.000000    0.000000    0.000000
  0.037434870   -0.086281 -121.268913 -100.412368   10.555247    0.000000    0.000000    0.000000    0.000000
  0.037635271   -0.084932 -121.727440  -99.989349   16.431803    0.000000    0.000000    0.000000    0.000000
  0.037835671   -0.090885 -122.198929  -99.994205    7.761560    0.000000    0.000000    0.000000    0.000000
  0.038036072   -0.099945 -122.712898  -99.773156   18.566664    0.000000    0.000000    0.000000    0.000000
  0.038236473   -0.106538 -123.243889  -98.131663   15.173045    0.000000    0.000000    0.000000    0.000000
  0.038436874   -0.112753 -123.791977  -98.019817   16.468113    0.000000    0.000000    0.000000    0.000000
  0.038637275   -0.117453 -124.312637 -100.349290   18.897541    0.000000    0.000000    0.000000    0.000000
  0.038837675   -0.126186 -124.876114  -99.718251    3.363474    0.000000    0.000000    0.000000    0.000000
  0.039038076   -0.135171 -125.449486 -100.077674   -0.366185    0.000000    0.000000    0.000000    0.000000
  0.039238477   -0.139825 -126.045715  -99.840642   10.843534    0.000000    0.000000    0.000000    0.000000
  0.039438878   -0.143040 -126.637184 -101.375131    2.784213    0.000000    0.000000    0.000000    0.000000
  0.039639279   -0.139986 -127.204292 -100.805583    0.113158    0.000000    0.000000    0.000000    0.000000
  0.039839679   -0.134627 -127.769836  -99.757355   -7.074733    0.000000    0.000000    0.000000    0.000000
  0.040040080   -0.128918 -128.314224  -99.357901    5.178820    0.000000    0.000000    0.000000    0.000000
  0.040240481   -0.126935 -128.846329 -102.090993    5.317860    0.000000    0.000000    0.000000    0.000000
  0.040440882   -0.121876 -129.411774 -101.316909   -1.024028    0.000000    0.000000    0.000000    0.000000
  0.040641283   -0.121703 -129.962997 -101.447660    3.328020    0.000000    0.000000    0.000000    0.000000
  0.040841683   -0.121777 -130.491272 -102.549579    4.664019    0.000000    0.000000    0.000000    0.000000
  0.041042084   -0.124131 -131.006790 -101.662056    0.779673    0.000000    0.000000    0.000000    0.000000
  0.041242485   -0.131043 -131.513885 -101.993033   10.384209    0.000000    0.000000    0.000000    0.000000
  0.041442886   -0.141522 -132.060944 -102.291222   -6.387462    0.000000    0.000000    0.000000    0.000000
  0.041643287   -0.152108 -132.638306 -104.184253    5.467083    0.000000    0.000000    0.000000    0.000000
  0.041843687   -0.155332 -133.231705 -102.391529   -2.211852    0.000000    0.000000    0.000000    0.000000
  0.042044088   -0.151458 -133.814560 -102.458079   11.930274    0.000000    0.000000    0.000000    0.000000
  0.042244489   -0.137541 -134.367554 -102.840763    4.444392    0.000000    0.000000    0.000000    0.000000
  0.042444890   -0.126318 -134.867874 -100.244261   22.647444    0.000000    0.000000    0.000000    0.000000
  0.042645291   -0.120061 -135.314865 -100.891549   13.143732    0.000000    0.000000    0.000000    0.000000
  0.042845691   -0.119008 -135.776596 -100.278401   15.916456    0.000000    0.000000    0.000000    0.000000
  0.043046092   -0.118846 -136.257614 -100.873535    7.306621    0.000000    0.000000    0.000000    0.000000
  0.043246493   -0.124064 -136.717422 -101.301137    3.216340    0.000000    0.000000    0.000000    0.000000
  0.043446894   -0.129513 -137.219299 -101.412543   12.536244    0.000000    0.000000    0.000000    0.000000
  0.043647295   -0.133212 -137.701447 -100.392309   15.140656    0.000000    0.000000    0.000000    0.000000
  0.043847695   -0.140486 -138.185455 -100.140531   -0.962954    0.000000    0.000000    0.000000    0.000000
  0.044048096   -0.148217 -138.694946 -101.366013   -5.755136    0.000000    0.000000    0.000000    0.000000
  0.044248497   -0.156968 -139.221375 -103.300932    7.368474    0.000000    0.000000    0.000000    0.000000
  0.044448898   -0.161496 -139.768631 -100.634352   -4.238728    0.000000    0.000000    0.000000    0.000000
  0.044649299   -0.164989 -140.317673 -100.584462   -3.757957    0.000000    0.000000    0.000000    0.000000
  0.044849699   -0.165657 -140.862335 -103.517953   -3.348805    0.000000    0.000000    0.000000    0.000000
  0.045050100   -0.167111 -141.389404 -102.687427   -5.478262    0.000000    0.000000    0.000000    0.000000
  0.045250501   -0.168157 -141.936218 -101.547757   -6.287107    0.000000    0.000000    0.000000    0.000000
  0.045450902   -0.167773 -142.488266 -103.580484   -2.618809    0.000000    0.000000    0.000000    0.000000
  0.045651303   -0.167159 -143.062271 -101.224473    3.460950    0.000000    0.000000    0.000000    0.000000
  0.045851703   -0.164085 -143.600861 -104.545040   13.558436    0.000000    0.000000    0.000000    0.000000
  0.046052104   -0.163675 -144.154572 -102.822999    2.412262    0.000000    0.000000    0.000000    0.000000
  0.046252505   -0.163391 -144.661148 -103.551961    2.426430    0.000000    0.000000    0.000000    0.000000
  0.046452906   -0.168130 -145.137283 -104.985814    0.678781    0.000000    0.000000    0.000000    0.000000
  0.046653307   -0.174759 -145.642120 -104.350626   20.895721    0.000000    0.000000    0.000000    0.000000
  0.046853707   -0.181443 -146.155045 -105.703126   34.172092    0.000000    0.000000    0.000000    0.000000
  0.047054108   -0.183241 -146.704956 -104.857178    9.155788    0.000000    0.000000    0.000000    0.000000
  0.047254509   -0.180762 -147.252060 -101.103801    5.934363    0.000000    0.000000    0.000000    0.000000
  0.047454910   -0.169435 -147.754913 -103.413843   16.648325    0.000000    0.000000    0.000000    0.000000
  0.047655311   -0.160081 -148.240707 -102.709122   10.518430    0.000000    0.000000    0.000000    0.000000
  0.047855711   -0.155760 -148.682510 -101.841412   16.558491    0.000000    0.000000    0.000000    0.000000
  0.048056112   -0.151344 -149.119827 -100.250713    3.343978    0.000000    0.000000    0.000000    0.000000
  0.048256513   -0.151202 -149.575317 -100.566933   -0.714896    0.000000    0.000000    0.000000    0.000000
  0.048456914   -0.148625 -150.014008 -101.108194  -12.495596    0.000000    0.000000    0.000000    0.000000
  0.048657315   -0.149653 -150.449554 -100.677952    5.011836    0.000000    0.000000    0.000000    0.000000
  0.048857715   -0.153168 -150.869797 -102.321349    3.626322    0.000000    0.000000    0.000000    0.000000
  0.049058116   -0.159077 -151.316528  -99.729060   -0.891119    0.000000    0.000000    0.000000    0.000000
  0.049258517   -0.164379 -151.795090 -102.020362  -13.643693    0.000000    0.000000    0.000000    0.000000
  0.049458918   -0.170869 -152.279343 -101.436997   -5.074166    0.000000    0.000000    0.000000    0.000000
  0.049659319   -0.173060 -152.765015 -102.039900   -3.654500    0.000000    0.000000    0.000000    0.000000
  0.049859719   -0.174385 -153.258377 -101.589251   -9.441648    0.000000    0.000000    0.000000    0.000000
  0.050060120   -0.177448 -153.738358 -105.627454    5.466517    0.000000    0.000000    0.000000    0.000000
  0.050260521   -0.180609 -154.212448 -104.460030   -4.377242    0.000000    0.000000    0.000000    0.000000
  0.050460922   -0.184808 -154.723175 -102.800512  -18.990097    0.000000    0.000000    0.000000    0.000000
  0.050661323   -0.187315 -155.237228 -105.835378   -4.290946    0.000000    0.000000    0.000000    0.000000
  0.050861723   -0.189166 -155.784409 -104.403394   -4.826921    0.000000    0.000000    0.000000    0.000000
  0.051062124   -0.187887 -156.291199 -105.183175    8.442419    0.000000    0.000000    0.000000    0.000000
  0.051262525   -0.184936 -156.806625 -106.619244   10.163248    0.000000    0.000000    0.000000    0.000000
  0.051462926   -0.186439 -157.303299 -107.283224    7.450556    0.000000    0.000000    0.000000    0.000000
  0.051663327   -0.190207 -157.784973 -101.862973   14.581246    0.000000    0.000000    0.000000    0.000000
  0.051863727   -0.195140 -158.267990 -103.792524   24.828308    0.000000    0.000000    0.000000    0.000000
  0.052064128   -0.199537 -158.765976 -104.376640   14.851717    0.000000    0.000000    0.000000    0.000000
  0.052264529   -0.203147 -159.274200 -101.447160   25.221869    0.000000    0.000000    0.000000    0.000000
  0.052464930   -0.199670 -159.798447 -101.616782   19.766546    0.000000    0.000000    0.000000    0.000000
  0.052665331   -0.198287 -160.293655 -101.997626    6.768960    0.000000    0.000000    0.000000    0.000000
  0.052865731   -0.194997 -160.769470 -102.447552    0.672370    0.000000    0.000000    0.000000    0.000000
