! Anritsu VNA Master:                     Model: MS2036C/10/77
! SN:                                  1601066
! /card0/usr/18may27.balun/252b.66.3.s2p
! Existing Calibration Information:
! TYPE:                         Current Settings,       Active Cal Settings
! TIME:             	   05/27/2018 12:58:59 PM,    05/27/2018 12:49:51 PM
! INTERNAL TEMP:    	                   52.3 C,                    52.5 C
! # POINTS:         	                      500,                       500
! START FREQ:       	               20.000 MHz,                20.000 MHz
! STOP FREQ:        	              120.000 MHz,               120.000 MHz
! SOURCE POWER:     	                     High,                      High
! IFBW:             	                    50 Hz,                     50 Hz
! AVG FACTOR:       	                       1 ,                        1 
! REF PLANE 1:      	                     0 mm,                      0 mm
! REF PLANE 2:      	                     0 mm,                      0 mm
! CAL TYPE:         	                 Full S11,                  Full S11
! CAL METHOD:       	                     SOLT,                      SOLT
! CAL LINE TYPE:    	                     Coax,                      Coax
! DUT PORT 1:       	                K-Conn(M),                 K-Conn(M)
! DUT PORT 2:       	                K-Conn(M),                 K-Conn(M)
! CAL STATUS:       	        OK: Accuracy High,                        --
# GHZ S DB R 50.0
! FREQ.GHZ       S11DB        S11A       S21DB        S21A       S12DB        S12A       S22DB        S22A
  0.020000000   -0.039940  -68.243401  -90.329311   37.692074    0.000000    0.000000    0.000000    0.000000
  0.020200401   -0.036723  -68.908875  -90.780357   34.874325    0.000000    0.000000    0.000000    0.000000
  0.020400802   -0.036021  -69.562393  -90.825138   31.848888    0.000000    0.000000    0.000000    0.000000
  0.020601202   -0.035251  -70.201523  -91.162374   26.871475    0.000000    0.000000    0.000000    0.000000
  0.020801603   -0.032439  -70.849548  -90.823456   29.584599    0.000000    0.000000    0.000000    0.000000
  0.021002004   -0.033957  -71.515503  -91.500473   29.030907    0.000000    0.000000    0.000000    0.000000
  0.021202405   -0.037470  -72.157173  -92.347291   30.270742    0.000000    0.000000    0.000000    0.000000
  0.021402806   -0.040747  -72.807297  -93.020646   25.314621    0.000000    0.000000    0.000000    0.000000
  0.021603206   -0.044597  -73.428078  -92.584718   29.826651    0.000000    0.000000    0.000000    0.000000
  0.021803607   -0.047301  -74.063843  -92.305271   25.824265    0.000000    0.000000    0.000000    0.000000
  0.022004008   -0.050852  -74.659889  -93.020359   29.232782    0.000000    0.000000    0.000000    0.000000
  0.022204409   -0.055296  -75.315353  -93.327023   30.636019    0.000000    0.000000    0.000000    0.000000
  0.022404810   -0.056707  -75.963188  -92.623473   32.943249    0.000000    0.000000    0.000000    0.000000
  0.022605210   -0.055830  -76.590996  -93.133499   34.293839    0.000000    0.000000    0.000000    0.000000
  0.022805611   -0.052327  -77.234573  -93.853326   31.334385    0.000000    0.000000    0.000000    0.000000
  0.023006012   -0.045944  -77.884377  -94.435561   36.227024    0.000000    0.000000    0.000000    0.000000
  0.023206413   -0.038040  -78.513718  -92.910679   34.011703    0.000000    0.000000    0.000000    0.000000
  0.023406814   -0.033171  -79.151581  -93.140785   34.398163    0.000000    0.000000    0.000000    0.000000
  0.023607214   -0.029903  -79.770447  -93.639989   32.044430    0.000000    0.000000    0.000000    0.000000
  0.023807615   -0.033669  -80.365440  -93.519281   34.195633    0.000000    0.000000    0.000000    0.000000
  0.024008016   -0.038518  -80.926300  -93.286250   32.564346    0.000000    0.000000    0.000000    0.000000
  0.024208417   -0.044831  -81.510803  -92.732083   29.959450    0.000000    0.000000    0.000000    0.000000
  0.024408818   -0.050349  -82.078018  -92.937201   28.181671    0.000000    0.000000    0.000000    0.000000
  0.024609218   -0.056251  -82.674385  -92.857119   21.345804    0.000000    0.000000    0.000000    0.000000
  0.024809619   -0.058054  -83.287315  -93.138950   26.063786    0.000000    0.000000    0.000000    0.000000
  0.025010020   -0.064256  -83.946198  -94.052398   30.174921    0.000000    0.000000    0.000000    0.000000
  0.025210421   -0.066826  -84.603149  -93.236207   22.090321    0.000000    0.000000    0.000000    0.000000
  0.025410822   -0.068967  -85.270264  -94.386295   18.000237    0.000000    0.000000    0.000000    0.000000
  0.025611222   -0.067806  -85.923790  -93.641988   15.497983    0.000000    0.000000    0.000000    0.000000
  0.025811623   -0.066786  -86.589546  -94.459603   20.439957    0.000000    0.000000    0.000000    0.000000
  0.026012024   -0.060213  -87.204697  -94.740653   14.538365    0.000000    0.000000    0.000000    0.000000
  0.026212425   -0.056959  -87.815842  -95.082899   12.798003    0.000000    0.000000    0.000000    0.000000
  0.026412826   -0.061522  -88.414787  -95.223947   13.894138    0.000000    0.000000    0.000000    0.000000
  0.026613226   -0.066740  -89.014984  -95.591901   16.187325    0.000000    0.000000    0.000000    0.000000
  0.026813627   -0.071193  -89.592567  -96.162447   21.321419    0.000000    0.000000    0.000000    0.000000
  0.027014028   -0.078308  -90.142670  -94.978926   12.503651    0.000000    0.000000    0.000000    0.000000
  0.027214429   -0.089926  -90.734016  -95.497248   22.836761    0.000000    0.000000    0.000000    0.000000
  0.027414830   -0.099178  -91.352875  -95.989973   28.130793    0.000000    0.000000    0.000000    0.000000
  0.027615230   -0.106040  -92.023445  -96.102589   24.591391    0.000000    0.000000    0.000000    0.000000
  0.027815631   -0.105358  -92.715721  -96.008259   15.911721    0.000000    0.000000    0.000000    0.000000
  0.028016032   -0.102871  -93.386284  -95.987500   28.275801    0.000000    0.000000    0.000000    0.000000
  0.028216433   -0.092112  -94.065048  -96.313143   18.543770    0.000000    0.000000    0.000000    0.000000
  0.028416834   -0.083801  -94.721184  -96.668030   20.305248    0.000000    0.000000    0.000000    0.000000
  0.028617234   -0.074360  -95.353943  -96.175774   15.321670    0.000000    0.000000    0.000000    0.000000
  0.028817635   -0.067370  -95.938873  -96.256508   18.109377    0.000000    0.000000    0.000000    0.000000
  0.029018036   -0.060569  -96.493645  -95.584654   17.832180    0.000000    0.000000    0.000000    0.000000
  0.029218437   -0.054614  -97.013222  -96.246410   20.920927    0.000000    0.000000    0.000000    0.000000
  0.029418838   -0.050587  -97.525734  -96.424071   15.225957    0.000000    0.000000    0.000000    0.000000
  0.029619238   -0.048014  -98.005882  -96.010323   15.626423    0.000000    0.000000    0.000000    0.000000
  0.029819639   -0.051880  -98.524178  -96.433035   12.456799    0.000000    0.000000    0.000000    0.000000
  0.030020040   -0.059360  -99.079094  -97.155715    4.224737    0.000000    0.000000    0.000000    0.000000
  0.030220441   -0.067048  -99.661880  -97.025465    7.182671    0.000000    0.000000    0.000000    0.000000
  0.030420842   -0.079702 -100.264740  -96.078591    7.475026    0.000000    0.000000    0.000000    0.000000
  0.030621242   -0.088812 -100.927658  -97.606324   12.091950    0.000000    0.000000    0.000000    0.000000
  0.030821643   -0.088757 -101.571007  -97.482671    9.080183    0.000000    0.000000    0.000000    0.000000
  0.031022044   -0.087084 -102.175690  -97.141382   10.659483    0.000000    0.000000    0.000000    0.000000
  0.031222445   -0.081188 -102.792160  -97.034490   13.145841    0.000000    0.000000    0.000000    0.000000
  0.031422846   -0.078878 -103.389008  -97.188570   10.112328    0.000000    0.000000    0.000000    0.000000
  0.031623246   -0.080512 -103.949051  -98.261379    9.980206    0.000000    0.000000    0.000000    0.000000
  0.031823647   -0.080863 -104.478798  -97.948712    4.745381    0.000000    0.000000    0.000000    0.000000
  0.032024048   -0.082510 -104.987183  -99.318121    9.462531    0.000000    0.000000    0.000000    0.000000
  0.032224449   -0.090520 -105.506081  -97.878338    4.147331    0.000000    0.000000    0.000000    0.000000
  0.032424850   -0.103136 -106.037659  -97.054947   16.511221    0.000000    0.000000    0.000000    0.000000
  0.032625251   -0.112857 -106.601730  -98.520159   12.791355    0.000000    0.000000    0.000000    0.000000
  0.032825651   -0.124229 -107.219421  -96.434806   16.984034    0.000000    0.000000    0.000000    0.000000
  0.033026052   -0.128256 -107.819695  -98.612273   23.220465    0.000000    0.000000    0.000000    0.000000
  0.033226453   -0.131743 -108.437492  -97.536230   17.699505    0.000000    0.000000    0.000000    0.000000
  0.033426854   -0.132844 -109.066116  -98.797500   17.424961    0.000000    0.000000    0.000000    0.000000
  0.033627255   -0.135572 -109.698601  -98.245035   15.645367    0.000000    0.000000    0.000000    0.000000
  0.033827655   -0.135412 -110.349716  -98.044322    8.893262    0.000000    0.000000    0.000000    0.000000
  0.034028056   -0.132269 -110.966782  -97.847977   11.078254    0.000000    0.000000    0.000000    0.000000
  0.034228457   -0.123662 -111.543404  -97.022725   11.363290    0.000000    0.000000    0.000000    0.000000
  0.034428858   -0.117548 -112.123322  -98.610908    8.341309    0.000000    0.000000    0.000000    0.000000
  0.034629259   -0.105954 -112.671570  -98.663411    0.953299    0.000000    0.000000    0.000000    0.000000
  0.034829659   -0.097815 -113.190834  -99.583513   -1.674523    0.000000    0.000000    0.000000    0.000000
  0.035030060   -0.094447 -113.696976  -98.791871    8.423899    0.000000    0.000000    0.000000    0.000000
  0.035230461   -0.094126 -114.189850  -99.480205    9.881644    0.000000    0.000000    0.000000    0.000000
  0.035430862   -0.093268 -114.688072 -100.048360    2.645418    0.000000    0.000000    0.000000    0.000000
  0.035631263   -0.100408 -115.220070  -99.939798   10.208592    0.000000    0.000000    0.000000    0.000000
  0.035831663   -0.107828 -115.769875  -99.333648   13.779665    0.000000    0.000000    0.000000    0.000000
  0.036032064   -0.118283 -116.354729 -100.351301    4.638918    0.000000    0.000000    0.000000    0.000000
  0.036232465   -0.126069 -116.953835  -99.563729    9.516338    0.000000    0.000000    0.000000    0.000000
  0.036432866   -0.131350 -117.600876 -100.002446    1.945976    0.000000    0.000000    0.000000    0.000000
  0.036633267   -0.130067 -118.227776 -100.367896    8.912381    0.000000    0.000000    0.000000    0.000000
  0.036833667   -0.127268 -118.831169 -100.905138    3.251977    0.000000    0.000000    0.000000    0.000000
  0.037034068   -0.115729 -119.373718  -99.505203   12.573788    0.000000    0.000000    0.000000    0.000000
  0.037234469   -0.106229 -119.877907 -101.273460   14.030177    0.000000    0.000000    0.000000    0.000000
  0.037434870   -0.103404 -120.344200  -98.563739   19.741570    0.000000    0.000000    0.000000    0.000000
  0.037635271   -0.103029 -120.833221 -101.365727    6.749455    0.000000    0.000000    0.000000    0.000000
  0.037835671   -0.110401 -121.314964  -99.515421   15.717219    0.000000    0.000000    0.000000    0.000000
  0.038036072   -0.120322 -121.858566  -99.221996   21.849272    0.000000    0.000000    0.000000    0.000000
  0.038236473   -0.127641 -122.407280  -99.365380    9.743679    0.000000    0.000000    0.000000    0.000000
  0.038436874   -0.132691 -122.946114  -98.655055   11.417682    0.000000    0.000000    0.000000    0.000000
  0.038637275   -0.139609 -123.491653  -99.342133   13.581173    0.000000    0.000000    0.000000    0.000000
  0.038837675   -0.147001 -124.050087  -98.728482    7.179419    0.000000    0.000000    0.000000    0.000000
  0.039038076   -0.154111 -124.638443  -99.664970    2.351764    0.000000    0.000000    0.000000    0.000000
  0.039238477   -0.158436 -125.208488  -99.394345    3.726558    0.000000    0.000000    0.000000    0.000000
  0.039438878   -0.157525 -125.784561 -100.630554    1.655756    0.000000    0.000000    0.000000    0.000000
  0.039639279   -0.153325 -126.355988 -101.031188    1.790322    0.000000    0.000000    0.000000    0.000000
  0.039839679   -0.148246 -126.875626 -100.510667   -1.504784    0.000000    0.000000    0.000000    0.000000
  0.040040080   -0.145004 -127.394409  -98.897009    0.996629    0.000000    0.000000    0.000000    0.000000
  0.040240481   -0.140095 -127.901047 -100.719976   -0.886395    0.000000    0.000000    0.000000    0.000000
  0.040440882   -0.138324 -128.423615 -101.183643    9.272964    0.000000    0.000000    0.000000    0.000000
  0.040641283   -0.137483 -128.949173 -101.285605   -3.358171    0.000000    0.000000    0.000000    0.000000
  0.040841683   -0.137577 -129.455231 -102.638354    0.017987    0.000000    0.000000    0.000000    0.000000
  0.041042084   -0.141418 -129.946442 -101.111036    3.927105    0.000000    0.000000    0.000000    0.000000
  0.041242485   -0.148002 -130.442886  -99.503312    0.703990    0.000000    0.000000    0.000000    0.000000
  0.041442886   -0.162358 -130.978058 -102.011161    6.342281    0.000000    0.000000    0.000000    0.000000
  0.041643287   -0.171242 -131.548981 -101.357671    8.343243    0.000000    0.000000    0.000000    0.000000
  0.041843687   -0.175739 -132.132919 -101.530874    9.466985    0.000000    0.000000    0.000000    0.000000
  0.042044088   -0.172132 -132.724457 -103.250642   16.098999    0.000000    0.000000    0.000000    0.000000
  0.042244489   -0.160062 -133.285889 -100.349558   22.987843    0.000000    0.000000    0.000000    0.000000
  0.042444890   -0.149482 -133.792862 -100.196870   16.093359    0.000000    0.000000    0.000000    0.000000
  0.042645291   -0.142055 -134.264465 -100.608824   19.509756    0.000000    0.000000    0.000000    0.000000
  0.042845691   -0.142636 -134.746872 -100.987605   12.058211    0.000000    0.000000    0.000000    0.000000
  0.043046092   -0.145605 -135.230255  -99.283394    9.887723    0.000000    0.000000    0.000000    0.000000
  0.043246493   -0.149820 -135.728729 -100.993579   13.725305    0.000000    0.000000    0.000000    0.000000
  0.043446894   -0.154378 -136.226425 -100.237393    9.997818    0.000000    0.000000    0.000000    0.000000
  0.043647295   -0.157380 -136.714981 -100.383603   -0.012273    0.000000    0.000000    0.000000    0.000000
  0.043847695   -0.161409 -137.209457 -101.566904    5.164191    0.000000    0.000000    0.000000    0.000000
  0.044048096   -0.169102 -137.721375 -102.671381    0.613122    0.000000    0.000000    0.000000    0.000000
  0.044248497   -0.174244 -138.268158 -103.880276   -7.215782    0.000000    0.000000    0.000000    0.000000
  0.044448898   -0.175355 -138.784988 -100.054872   -4.889756    0.000000    0.000000    0.000000    0.000000
  0.044649299   -0.174394 -139.308029 -101.455403   -5.437253    0.000000    0.000000    0.000000    0.000000
  0.044849699   -0.174393 -139.813446 -100.574156    5.056769    0.000000    0.000000    0.000000    0.000000
  0.045050100   -0.173945 -140.311462 -101.634169    9.354280    0.000000    0.000000    0.000000    0.000000
  0.045250501   -0.174278 -140.813828 -102.559943   -8.317230    0.000000    0.000000    0.000000    0.000000
  0.045450902   -0.175614 -141.317780 -102.964435  -19.028534    0.000000    0.000000    0.000000    0.000000
  0.045651303   -0.175778 -141.851349 -105.374119   12.149965    0.000000    0.000000    0.000000    0.000000
  0.045851703   -0.172356 -142.358261 -102.556686    5.744325    0.000000    0.000000    0.000000    0.000000
  0.046052104   -0.169633 -142.861801 -103.927421    0.708698    0.000000    0.000000    0.000000    0.000000
  0.046252505   -0.171254 -143.336838 -102.903389   15.965296    0.000000    0.000000    0.000000    0.000000
  0.046452906   -0.176125 -143.817200 -103.653157    9.510390    0.000000    0.000000    0.000000    0.000000
  0.046653307   -0.186725 -144.295486 -103.782700    6.429858    0.000000    0.000000    0.000000    0.000000
  0.046853707   -0.196229 -144.828659 -103.131380    7.383667    0.000000    0.000000    0.000000    0.000000
  0.047054108   -0.199911 -145.374115 -102.933988   23.863079    0.000000    0.000000    0.000000    0.000000
  0.047254509   -0.199787 -145.929993 -102.911345   10.952160    0.000000    0.000000    0.000000    0.000000
  0.047454910   -0.194246 -146.476517 -101.472654   15.641775    0.000000    0.000000    0.000000    0.000000
  0.047655311   -0.188821 -146.955994 -102.235461    5.650587    0.000000    0.000000    0.000000    0.000000
  0.047855711   -0.184985 -147.453476 -102.553575   10.377892    0.000000    0.000000    0.000000    0.000000
  0.048056112   -0.182976 -147.927292 -101.693905    9.684430    0.000000    0.000000    0.000000    0.000000
  0.048256513   -0.184200 -148.409531 -100.307478   19.896591    0.000000    0.000000    0.000000    0.000000
  0.048456914   -0.186003 -148.894165 -101.483973   -0.423733    0.000000    0.000000    0.000000    0.000000
  0.048657315   -0.185824 -149.361145 -101.658360    8.657995    0.000000    0.000000    0.000000    0.000000
  0.048857715   -0.187787 -149.818512 -102.233965   -1.826100    0.000000    0.000000    0.000000    0.000000
  0.049058116   -0.194579 -150.278946 -101.389855   -1.022772    0.000000    0.000000    0.000000    0.000000
  0.049258517   -0.199445 -150.768829 -100.854855   -4.506813    0.000000    0.000000    0.000000    0.000000
  0.049458918   -0.201425 -151.271408 -102.323764  -29.093109    0.000000    0.000000    0.000000    0.000000
  0.049659319   -0.203673 -151.767441 -100.577473   -9.309114    0.000000    0.000000    0.000000    0.000000
  0.049859719   -0.202416 -152.238617 -105.140835  -19.020824    0.000000    0.000000    0.000000    0.000000
  0.050060120   -0.201912 -152.703476 -102.383518   -2.505264    0.000000    0.000000    0.000000    0.000000
  0.050260521   -0.204816 -153.163528 -101.625128  -12.251706    0.000000    0.000000    0.000000    0.000000
  0.050460922   -0.206382 -153.639496 -105.708800  -11.681652    0.000000    0.000000    0.000000    0.000000
  0.050661323   -0.205760 -154.126938 -105.052006    5.190819    0.000000    0.000000    0.000000    0.000000
  0.050861723   -0.205420 -154.620758 -107.352793    0.432236    0.000000    0.000000    0.000000    0.000000
  0.051062124   -0.202383 -155.092758 -106.460297   20.927053    0.000000    0.000000    0.000000    0.000000
  0.051262525   -0.200422 -155.569122 -104.901997   35.500786    0.000000    0.000000    0.000000    0.000000
  0.051462926   -0.202175 -156.016281 -103.181864    2.315422    0.000000    0.000000    0.000000    0.000000
  0.051663327   -0.206150 -156.463699 -105.554034   17.459352    0.000000    0.000000    0.000000    0.000000
  0.051863727   -0.211677 -156.917633 -104.088505   17.183996    0.000000    0.000000    0.000000    0.000000
  0.052064128   -0.217374 -157.404343 -105.958981   17.983671    0.000000    0.000000    0.000000    0.000000
  0.052264529   -0.222580 -157.897583 -103.352480   10.292521    0.000000    0.000000    0.000000    0.000000
  0.052464930   -0.220479 -158.408081 -102.545753   10.781786    0.000000    0.000000    0.000000    0.000000
  0.052665331   -0.219918 -158.892731 -106.539135    8.531559    0.000000    0.000000    0.000000    0.000000
  0.052865731   -0.217131 -159.378174 -101.661665   16.296177    0.000000    0.000000    0.000000    0.000000
