! Anritsu VNA Master:                     Model: MS2036C/10/77
! SN:                                  1601066
! /card0/usr/18may27.balun/252b.m8.s2p
! Existing Calibration Information:
! TYPE:                         Current Settings,       Active Cal Settings
! TIME:             	   05/27/2018 01:31:50 PM,    05/27/2018 01:14:08 PM
! INTERNAL TEMP:    	                   51.8 C,                    52.0 C
! # POINTS:         	                      500,                       500
! START FREQ:       	               20.000 MHz,                20.000 MHz
! STOP FREQ:        	              120.000 MHz,               120.000 MHz
! SOURCE POWER:     	                     High,                      High
! IFBW:             	                    50 Hz,                     50 Hz
! AVG FACTOR:       	                       1 ,                        1 
! REF PLANE 1:      	                     0 mm,                      0 mm
! REF PLANE 2:      	                     0 mm,                      0 mm
! CAL TYPE:         	                 Full S11,                  Full S11
! CAL METHOD:       	                     SOLT,                      SOLT
! CAL LINE TYPE:    	                     Coax,                      Coax
! DUT PORT 1:       	                K-Conn(M),                 K-Conn(M)
! DUT PORT 2:       	                K-Conn(M),                 K-Conn(M)
! CAL STATUS:       	        OK: Accuracy High,                        --
# GHZ S DB R 50.0
! FREQ.GHZ       S11DB        S11A       S21DB        S21A       S12DB        S12A       S22DB        S22A
  0.020000000   -0.625506 -125.701180  -90.743877   33.826984    0.000000    0.000000    0.000000    0.000000
  0.020200401   -0.622117 -127.190277  -90.860508   29.256042    0.000000    0.000000    0.000000    0.000000
  0.020400802   -0.621996 -128.644135  -91.295869   29.248974    0.000000    0.000000    0.000000    0.000000
  0.020601202   -0.623882 -130.076767  -92.433348   28.717178    0.000000    0.000000    0.000000    0.000000
  0.020801603   -0.625604 -131.533249  -92.220239   30.339949    0.000000    0.000000    0.000000    0.000000
  0.021002004   -0.632922 -133.030334  -92.402546   28.366907    0.000000    0.000000    0.000000    0.000000
  0.021202405   -0.640924 -134.535828  -92.826603   30.531233    0.000000    0.000000    0.000000    0.000000
  0.021402806   -0.646796 -136.033081  -93.072886   30.211908    0.000000    0.000000    0.000000    0.000000
  0.021603206   -0.654087 -137.524506  -93.332324   34.164879    0.000000    0.000000    0.000000    0.000000
  0.021803607   -0.659626 -139.016724  -93.474068   35.448254    0.000000    0.000000    0.000000    0.000000
  0.022004008   -0.666658 -140.541489  -93.308485   35.132729    0.000000    0.000000    0.000000    0.000000
  0.022204409   -0.670837 -142.078262  -93.053599   36.335186    0.000000    0.000000    0.000000    0.000000
  0.022404810   -0.673536 -143.619843  -92.388790   36.960640    0.000000    0.000000    0.000000    0.000000
  0.022605210   -0.676247 -145.149963  -92.513378   30.540989    0.000000    0.000000    0.000000    0.000000
  0.022805611   -0.677742 -146.681793  -92.887399   32.937237    0.000000    0.000000    0.000000    0.000000
  0.023006012   -0.681454 -148.209442  -92.080199   30.630964    0.000000    0.000000    0.000000    0.000000
  0.023206413   -0.689285 -149.768387  -93.039286   33.473587    0.000000    0.000000    0.000000    0.000000
  0.023406814   -0.698016 -151.353333  -92.745296   29.106285    0.000000    0.000000    0.000000    0.000000
  0.023607214   -0.705434 -152.938995  -92.561455   28.877678    0.000000    0.000000    0.000000    0.000000
  0.023807615   -0.713911 -154.537048  -92.135346   27.499559    0.000000    0.000000    0.000000    0.000000
  0.024008016   -0.722543 -156.125015  -92.333669   22.677223    0.000000    0.000000    0.000000    0.000000
  0.024208417   -0.730995 -157.722595  -93.062906   27.963169    0.000000    0.000000    0.000000    0.000000
  0.024408818   -0.743745 -159.346939  -93.392725   24.680357    0.000000    0.000000    0.000000    0.000000
  0.024609218   -0.754726 -160.998901  -93.491743   18.272280    0.000000    0.000000    0.000000    0.000000
  0.024809619   -0.761114 -162.672226  -93.934218   17.299086    0.000000    0.000000    0.000000    0.000000
  0.025010020   -0.766393 -164.334732  -94.046585   23.425179    0.000000    0.000000    0.000000    0.000000
  0.025210421   -0.772110 -165.993225  -94.356082   13.228788    0.000000    0.000000    0.000000    0.000000
  0.025410822   -0.783018 -167.661514  -95.079091   17.265158    0.000000    0.000000    0.000000    0.000000
  0.025611222   -0.791483 -169.324478  -95.072109   21.632879    0.000000    0.000000    0.000000    0.000000
  0.025811623   -0.800612 -171.028168  -95.199899   19.282747    0.000000    0.000000    0.000000    0.000000
  0.026012024   -0.810980 -172.722504  -96.048629   20.779217    0.000000    0.000000    0.000000    0.000000
  0.026212425   -0.824612 -174.432404  -95.289915   26.450783    0.000000    0.000000    0.000000    0.000000
  0.026412826   -0.841749 -176.149612  -95.317623   23.903385    0.000000    0.000000    0.000000    0.000000
  0.026613226   -0.858658 -177.882553  -95.876184   23.860210    0.000000    0.000000    0.000000    0.000000
  0.026813627   -0.874166 -179.613724  -95.746691   23.434179    0.000000    0.000000    0.000000    0.000000
  0.027014028   -0.890274  178.645584  -95.357624   22.264204    0.000000    0.000000    0.000000    0.000000
  0.027214429   -0.904941  176.916702  -95.574606   25.317438    0.000000    0.000000    0.000000    0.000000
  0.027414830   -0.920396  175.161285  -94.619692   23.555529    0.000000    0.000000    0.000000    0.000000
  0.027615230   -0.938326  173.411621  -95.663861   16.125868    0.000000    0.000000    0.000000    0.000000
  0.027815631   -0.959574  171.622833  -95.046378   27.652079    0.000000    0.000000    0.000000    0.000000
  0.028016032   -0.980294  169.821915  -95.589255   22.108980    0.000000    0.000000    0.000000    0.000000
  0.028216433   -0.999920  168.005859  -95.561615   16.921041    0.000000    0.000000    0.000000    0.000000
  0.028416834   -1.022215  166.193375  -95.702462   16.025234    0.000000    0.000000    0.000000    0.000000
  0.028617234   -1.046447  164.381393  -95.479755   16.597620    0.000000    0.000000    0.000000    0.000000
  0.028817635   -1.071792  162.544998  -95.532712   11.779729    0.000000    0.000000    0.000000    0.000000
  0.029018036   -1.098791  160.676697  -96.353416   14.018600    0.000000    0.000000    0.000000    0.000000
  0.029218437   -1.123989  158.802124  -96.294953   18.329571    0.000000    0.000000    0.000000    0.000000
  0.029418838   -1.147146  156.929718  -96.913516    8.937522    0.000000    0.000000    0.000000    0.000000
  0.029619238   -1.170214  155.093750  -97.647523   13.488594    0.000000    0.000000    0.000000    0.000000
  0.029819639   -1.194872  153.243958  -97.817462   12.078504    0.000000    0.000000    0.000000    0.000000
  0.030020040   -1.220834  151.410995  -97.235168    6.532780    0.000000    0.000000    0.000000    0.000000
  0.030220441   -1.251780  149.561966  -96.635904   14.945109    0.000000    0.000000    0.000000    0.000000
  0.030420842   -1.289079  147.704636  -98.256390   12.872240    0.000000    0.000000    0.000000    0.000000
  0.030621242   -1.328533  145.815598  -97.064952   18.214930    0.000000    0.000000    0.000000    0.000000
  0.030821643   -1.364814  143.882080  -97.025311   17.380682    0.000000    0.000000    0.000000    0.000000
  0.031022044   -1.398423  141.931229  -97.439114   18.827394    0.000000    0.000000    0.000000    0.000000
  0.031222445   -1.423056  139.962509  -97.629543   15.514502    0.000000    0.000000    0.000000    0.000000
  0.031422846   -1.452211  138.011322  -97.336240    6.620447    0.000000    0.000000    0.000000    0.000000
  0.031623246   -1.480967  136.040833  -97.229332   13.542582    0.000000    0.000000    0.000000    0.000000
  0.031823647   -1.499978  134.116776  -97.320266   15.517202    0.000000    0.000000    0.000000    0.000000
  0.032024048   -1.524587  132.187759  -96.455031   14.010521    0.000000    0.000000    0.000000    0.000000
  0.032224449   -1.551267  130.265778  -97.799463    9.572621    0.000000    0.000000    0.000000    0.000000
  0.032424850   -1.580051  128.338196  -97.852447   13.561972    0.000000    0.000000    0.000000    0.000000
  0.032625251   -1.615609  126.409592  -96.489147   -3.193456    0.000000    0.000000    0.000000    0.000000
  0.032825651   -1.655962  124.447220  -97.434590   17.435455    0.000000    0.000000    0.000000    0.000000
  0.033026052   -1.698693  122.504112  -98.056802    6.319318    0.000000    0.000000    0.000000    0.000000
  0.033226453   -1.742500  120.493675  -98.138225    9.156823    0.000000    0.000000    0.000000    0.000000
  0.033426854   -1.788065  118.475136  -97.879423    9.838561    0.000000    0.000000    0.000000    0.000000
  0.033627255   -1.833750  116.419960  -98.761508   10.071983    0.000000    0.000000    0.000000    0.000000
  0.033827655   -1.877063  114.337784  -99.198219    8.367011    0.000000    0.000000    0.000000    0.000000
  0.034028056   -1.925527  112.235542  -98.462538    1.444510    0.000000    0.000000    0.000000    0.000000
  0.034228457   -1.970493  110.143982 -100.420651    8.477582    0.000000    0.000000    0.000000    0.000000
  0.034428858   -2.014455  108.046669  -98.694412   15.882350    0.000000    0.000000    0.000000    0.000000
  0.034629259   -2.051118  105.970436  -99.193539   14.023656    0.000000    0.000000    0.000000    0.000000
  0.034829659   -2.086180  103.900597  -99.357976   23.432156    0.000000    0.000000    0.000000    0.000000
  0.035030060   -2.126690  101.854744  -98.922976   13.816114    0.000000    0.000000    0.000000    0.000000
  0.035230461   -2.170276   99.849228  -99.413472   12.467484    0.000000    0.000000    0.000000    0.000000
  0.035430862   -2.224680   97.840279  -98.925057    7.460740    0.000000    0.000000    0.000000    0.000000
  0.035631263   -2.283503   95.840820  -99.292099   11.134950    0.000000    0.000000    0.000000    0.000000
  0.035831663   -2.344829   93.782845  -98.498741    9.631251    0.000000    0.000000    0.000000    0.000000
  0.036032064   -2.404511   91.669159  -98.979665   13.689480    0.000000    0.000000    0.000000    0.000000
  0.036232465   -2.467404   89.491341 -100.413573   15.091821    0.000000    0.000000    0.000000    0.000000
  0.036432866   -2.524509   87.316200  -98.287931    7.499295    0.000000    0.000000    0.000000    0.000000
  0.036633267   -2.576836   85.125069  -98.615564   -1.367888    0.000000    0.000000    0.000000    0.000000
  0.036833667   -2.628114   82.973961  -98.069255   -2.267131    0.000000    0.000000    0.000000    0.000000
  0.037034068   -2.677735   80.801781  -99.925104    6.056510    0.000000    0.000000    0.000000    0.000000
  0.037234469   -2.724190   78.657684  -99.216103    5.995900    0.000000    0.000000    0.000000    0.000000
  0.037434870   -2.769527   76.549240  -99.069675   10.818891    0.000000    0.000000    0.000000    0.000000
  0.037635271   -2.821327   74.473442 -102.129904    3.417836    0.000000    0.000000    0.000000    0.000000
  0.037835671   -2.876051   72.387360  -99.146943    4.754668    0.000000    0.000000    0.000000    0.000000
  0.038036072   -2.933407   70.321999 -100.923533   12.685843    0.000000    0.000000    0.000000    0.000000
  0.038236473   -2.990256   68.258095 -101.041635    1.088641    0.000000    0.000000    0.000000    0.000000
  0.038436874   -3.047264   66.182732  -99.815651   -6.769337    0.000000    0.000000    0.000000    0.000000
  0.038637275   -3.112439   64.049110  -98.661432    4.538085    0.000000    0.000000    0.000000    0.000000
  0.038837675   -3.178504   61.867592 -100.749724    0.456302    0.000000    0.000000    0.000000    0.000000
  0.039038076   -3.240006   59.663265 -101.838394    6.273773    0.000000    0.000000    0.000000    0.000000
  0.039238477   -3.298786   57.455776  -99.651162    2.407422    0.000000    0.000000    0.000000    0.000000
  0.039438878   -3.350143   55.279987 -101.565370    8.979000    0.000000    0.000000    0.000000    0.000000
  0.039639279   -3.399069   53.137119  -98.715814   13.833314    0.000000    0.000000    0.000000    0.000000
  0.039839679   -3.443186   51.028660  -99.328305   15.166462    0.000000    0.000000    0.000000    0.000000
  0.040040080   -3.491412   48.986359  -99.325793    0.510974    0.000000    0.000000    0.000000    0.000000
  0.040240481   -3.547301   46.936317 -100.536903    7.627811    0.000000    0.000000    0.000000    0.000000
  0.040440882   -3.605533   44.892559  -99.994613   16.048115    0.000000    0.000000    0.000000    0.000000
  0.040641283   -3.669660   42.830902 -101.283227    5.142966    0.000000    0.000000    0.000000    0.000000
  0.040841683   -3.733171   40.748226  -99.728383   -4.381347    0.000000    0.000000    0.000000    0.000000
  0.041042084   -3.798582   38.669258 -100.785177   15.570135    0.000000    0.000000    0.000000    0.000000
  0.041242485   -3.860449   36.579258  -99.506300   -0.588284    0.000000    0.000000    0.000000    0.000000
  0.041442886   -3.921266   34.471134 -100.768197   -3.255537    0.000000    0.000000    0.000000    0.000000
  0.041643287   -3.978825   32.374676  -99.513762    2.019261    0.000000    0.000000    0.000000    0.000000
  0.041843687   -4.038768   30.241512 -100.592810    1.568926    0.000000    0.000000    0.000000    0.000000
  0.042044088   -4.093275   28.151094 -101.581601   -6.089034    0.000000    0.000000    0.000000    0.000000
  0.042244489   -4.148358   26.063707 -101.929213   -0.513650    0.000000    0.000000    0.000000    0.000000
  0.042444890   -4.200773   23.996901 -101.748627   -6.472913    0.000000    0.000000    0.000000    0.000000
  0.042645291   -4.255700   21.940393 -101.060968   -4.905677    0.000000    0.000000    0.000000    0.000000
  0.042845691   -4.307173   19.861023 -102.362323  -10.680270    0.000000    0.000000    0.000000    0.000000
  0.043046092   -4.361387   17.797783 -100.991718    3.068717    0.000000    0.000000    0.000000    0.000000
  0.043246493   -4.411700   15.733493 -101.903239   15.868236    0.000000    0.000000    0.000000    0.000000
  0.043446894   -4.464417   13.679232 -101.332497    7.936216    0.000000    0.000000    0.000000    0.000000
  0.043647295   -4.518044   11.614864 -103.690148   10.328704    0.000000    0.000000    0.000000    0.000000
  0.043847695   -4.569088    9.558335 -101.283674   11.890053    0.000000    0.000000    0.000000    0.000000
  0.044048096   -4.621564    7.510750 -102.998902   -1.303713    0.000000    0.000000    0.000000    0.000000
  0.044248497   -4.668368    5.463333 -104.101850    6.316765    0.000000    0.000000    0.000000    0.000000
  0.044448898   -4.711962    3.437904 -101.153270   13.037401    0.000000    0.000000    0.000000    0.000000
  0.044649299   -4.753706    1.417794 -100.517253   12.713943    0.000000    0.000000    0.000000    0.000000
  0.044849699   -4.796876   -0.564879 -100.975872    3.915562    0.000000    0.000000    0.000000    0.000000
  0.045050100   -4.837777   -2.534834 -100.515109   12.726893    0.000000    0.000000    0.000000    0.000000
  0.045250501   -4.880514   -4.515380 -101.118849   -1.646826    0.000000    0.000000    0.000000    0.000000
  0.045450902   -4.921019   -6.467937  -99.432960   -0.259603    0.000000    0.000000    0.000000    0.000000
  0.045651303   -4.959705   -8.436383 -101.370840   -2.638342    0.000000    0.000000    0.000000    0.000000
  0.045851703   -4.997964  -10.365290  -99.747752    0.329726    0.000000    0.000000    0.000000    0.000000
  0.046052104   -5.030225  -12.281515 -101.635789    2.531901    0.000000    0.000000    0.000000    0.000000
  0.046252505   -5.064098  -14.201244 -101.201215    1.495605    0.000000    0.000000    0.000000    0.000000
  0.046452906   -5.099298  -16.092720 -102.051101   -0.236086    0.000000    0.000000    0.000000    0.000000
  0.046653307   -5.134128  -17.936993 -101.767000    1.904179    0.000000    0.000000    0.000000    0.000000
  0.046853707   -5.164651  -19.812860 -102.275429   -0.049780    0.000000    0.000000    0.000000    0.000000
  0.047054108   -5.199445  -21.656252 -103.975663   15.231967    0.000000    0.000000    0.000000    0.000000
  0.047254509   -5.229123  -23.510788 -104.905291    4.719459    0.000000    0.000000    0.000000    0.000000
  0.047454910   -5.259967  -25.361351 -103.664449   -4.646490    0.000000    0.000000    0.000000    0.000000
  0.047655311   -5.288867  -27.182817 -105.334256    2.912559    0.000000    0.000000    0.000000    0.000000
  0.047855711   -5.318139  -28.992199 -101.383639  -11.460744    0.000000    0.000000    0.000000    0.000000
  0.048056112   -5.350907  -30.816437 -104.940296   -1.004316    0.000000    0.000000    0.000000    0.000000
  0.048256513   -5.376245  -32.641003 -102.341516   10.053061    0.000000    0.000000    0.000000    0.000000
  0.048456914   -5.400376  -34.462078 -103.805096    8.364808    0.000000    0.000000    0.000000    0.000000
  0.048657315   -5.421690  -36.276257 -104.032561    8.658193    0.000000    0.000000    0.000000    0.000000
  0.048857715   -5.444881  -38.077236 -102.212624   10.904545    0.000000    0.000000    0.000000    0.000000
  0.049058116   -5.466549  -39.846260 -102.385891    1.126117    0.000000    0.000000    0.000000    0.000000
  0.049258517   -5.485125  -41.597370 -102.045874   20.885996    0.000000    0.000000    0.000000    0.000000
  0.049458918   -5.509391  -43.298538 -102.113584    9.631640    0.000000    0.000000    0.000000    0.000000
  0.049659319   -5.533669  -45.054775 -102.563904   16.884235    0.000000    0.000000    0.000000    0.000000
  0.049859719   -5.556995  -46.793972 -103.582627   10.021803    0.000000    0.000000    0.000000    0.000000
  0.050060120   -5.583335  -48.551598 -103.440489   -6.570365    0.000000    0.000000    0.000000    0.000000
  0.050260521   -5.603383  -50.313278 -102.583145   10.394382    0.000000    0.000000    0.000000    0.000000
  0.050460922   -5.628193  -52.050953 -102.256074   11.069799    0.000000    0.000000    0.000000    0.000000
  0.050661323   -5.646665  -53.802109 -102.671985   -0.003752    0.000000    0.000000    0.000000    0.000000
  0.050861723   -5.663869  -55.570759 -104.234012  -23.608503    0.000000    0.000000    0.000000    0.000000
  0.051062124   -5.672103  -57.307499 -103.729269  -11.536899    0.000000    0.000000    0.000000    0.000000
  0.051262525   -5.678310  -58.994583 -103.869585  -13.616099    0.000000    0.000000    0.000000    0.000000
  0.051462926   -5.688668  -60.653328 -104.015045  -10.923004    0.000000    0.000000    0.000000    0.000000
  0.051663327   -5.697479  -62.297016 -103.845798    1.949851    0.000000    0.000000    0.000000    0.000000
  0.051863727   -5.715787  -63.926487 -104.922140   -6.329576    0.000000    0.000000    0.000000    0.000000
  0.052064128   -5.726342  -65.528770 -103.107692    6.653700    0.000000    0.000000    0.000000    0.000000
  0.052264529   -5.737652  -67.138557 -103.258198   -7.261706    0.000000    0.000000    0.000000    0.000000
  0.052464930   -5.747946  -68.749382 -103.625054    5.181820    0.000000    0.000000    0.000000    0.000000
  0.052665331   -5.756790  -70.345604 -103.917742   13.419566    0.000000    0.000000    0.000000    0.000000
  0.052865731   -5.768884  -71.904541 -103.173971   24.279997    0.000000    0.000000    0.000000    0.000000
