! Anritsu VNA Master:                     Model: MS2036C/10/77
! SN:                                  1601066
! /card0/usr/18may27.balun/252b.m6.s2p
! Existing Calibration Information:
! TYPE:                         Current Settings,       Active Cal Settings
! TIME:             	   05/27/2018 01:16:28 PM,    05/27/2018 01:14:08 PM
! INTERNAL TEMP:    	                   52.0 C,                    52.0 C
! # POINTS:         	                      500,                       500
! START FREQ:       	               20.000 MHz,                20.000 MHz
! STOP FREQ:        	              120.000 MHz,               120.000 MHz
! SOURCE POWER:     	                     High,                      High
! IFBW:             	                    50 Hz,                     50 Hz
! AVG FACTOR:       	                       1 ,                        1 
! REF PLANE 1:      	                     0 mm,                      0 mm
! REF PLANE 2:      	                     0 mm,                      0 mm
! CAL TYPE:         	                 Full S11,                  Full S11
! CAL METHOD:       	                     SOLT,                      SOLT
! CAL LINE TYPE:    	                     Coax,                      Coax
! DUT PORT 1:       	                K-Conn(M),                 K-Conn(M)
! DUT PORT 2:       	                K-Conn(M),                 K-Conn(M)
! CAL STATUS:       	        OK: Accuracy High,                        --
# GHZ S DB R 50.0
! FREQ.GHZ       S11DB        S11A       S21DB        S21A       S12DB        S12A       S22DB        S22A
  0.020000000   -0.629721 -125.497940  -91.025426   33.573803    0.000000    0.000000    0.000000    0.000000
  0.020200401   -0.627000 -126.980324  -91.608856   30.740427    0.000000    0.000000    0.000000    0.000000
  0.020400802   -0.626565 -128.427536  -91.395352   25.501984    0.000000    0.000000    0.000000    0.000000
  0.020601202   -0.628140 -129.863541  -92.352028   28.374840    0.000000    0.000000    0.000000    0.000000
  0.020801603   -0.632501 -131.314285  -92.546875   25.205971    0.000000    0.000000    0.000000    0.000000
  0.021002004   -0.639176 -132.815887  -92.971873   27.534824    0.000000    0.000000    0.000000    0.000000
  0.021202405   -0.647179 -134.331116  -92.550485   29.670666    0.000000    0.000000    0.000000    0.000000
  0.021402806   -0.654115 -135.830444  -93.076483   28.569637    0.000000    0.000000    0.000000    0.000000
  0.021603206   -0.659955 -137.335724  -93.183029   31.640875    0.000000    0.000000    0.000000    0.000000
  0.021803607   -0.666383 -138.832108  -93.036307   33.831059    0.000000    0.000000    0.000000    0.000000
  0.022004008   -0.672688 -140.364731  -93.501243   36.316341    0.000000    0.000000    0.000000    0.000000
  0.022204409   -0.678343 -141.916367  -92.659874   32.808361    0.000000    0.000000    0.000000    0.000000
  0.022404810   -0.680693 -143.465057  -92.609421   30.735233    0.000000    0.000000    0.000000    0.000000
  0.022605210   -0.682187 -144.994522  -92.791061   37.134388    0.000000    0.000000    0.000000    0.000000
  0.022805611   -0.682565 -146.529083  -92.696922   32.358669    0.000000    0.000000    0.000000    0.000000
  0.023006012   -0.685968 -148.052460  -92.396743   32.760101    0.000000    0.000000    0.000000    0.000000
  0.023206413   -0.693491 -149.613983  -92.668074   32.675995    0.000000    0.000000    0.000000    0.000000
  0.023406814   -0.702787 -151.185944  -92.323488   31.481775    0.000000    0.000000    0.000000    0.000000
  0.023607214   -0.708831 -152.754974  -92.179389   26.147768    0.000000    0.000000    0.000000    0.000000
  0.023807615   -0.716677 -154.349365  -92.717424   30.871052    0.000000    0.000000    0.000000    0.000000
  0.024008016   -0.724495 -155.929276  -92.851493   25.518778    0.000000    0.000000    0.000000    0.000000
  0.024208417   -0.733664 -157.504257  -92.787886   23.306034    0.000000    0.000000    0.000000    0.000000
  0.024408818   -0.745720 -159.120544  -93.331475   21.662125    0.000000    0.000000    0.000000    0.000000
  0.024609218   -0.757216 -160.748291  -93.006757   22.253778    0.000000    0.000000    0.000000    0.000000
  0.024809619   -0.764885 -162.414948  -94.306409   17.372650    0.000000    0.000000    0.000000    0.000000
  0.025010020   -0.768647 -164.073914  -94.250236   20.846819    0.000000    0.000000    0.000000    0.000000
  0.025210421   -0.776457 -165.723221  -94.618295   20.499586    0.000000    0.000000    0.000000    0.000000
  0.025410822   -0.784738 -167.387070  -94.587919   21.362911    0.000000    0.000000    0.000000    0.000000
  0.025611222   -0.794723 -169.040344  -95.348903   18.664896    0.000000    0.000000    0.000000    0.000000
  0.025811623   -0.804871 -170.751266  -95.380599   23.849911    0.000000    0.000000    0.000000    0.000000
  0.026012024   -0.815238 -172.443542  -95.819014   25.612535    0.000000    0.000000    0.000000    0.000000
  0.026212425   -0.827992 -174.156113  -95.765593   20.468214    0.000000    0.000000    0.000000    0.000000
  0.026412826   -0.846265 -175.871475  -95.728884   19.975616    0.000000    0.000000    0.000000    0.000000
  0.026613226   -0.862896 -177.606796  -95.727014   27.438650    0.000000    0.000000    0.000000    0.000000
  0.026813627   -0.877906 -179.337997  -95.561736   25.113398    0.000000    0.000000    0.000000    0.000000
  0.027014028   -0.893594  178.923248  -95.909313   24.707771    0.000000    0.000000    0.000000    0.000000
  0.027214429   -0.908257  177.188095  -95.047600   23.028063    0.000000    0.000000    0.000000    0.000000
  0.027414830   -0.923887  175.439072  -95.446616   22.590635    0.000000    0.000000    0.000000    0.000000
  0.027615230   -0.939960  173.693436  -94.986776   21.222971    0.000000    0.000000    0.000000    0.000000
  0.027815631   -0.961179  171.921844  -95.405277   16.509565    0.000000    0.000000    0.000000    0.000000
  0.028016032   -0.981053  170.128036  -95.127700   15.969640    0.000000    0.000000    0.000000    0.000000
  0.028216433   -1.000554  168.322968  -95.691478   18.109768    0.000000    0.000000    0.000000    0.000000
  0.028416834   -1.023096  166.519287  -95.914437   20.231686    0.000000    0.000000    0.000000    0.000000
  0.028617234   -1.046148  164.721710  -95.483075   15.199162    0.000000    0.000000    0.000000    0.000000
  0.028817635   -1.071763  162.897247  -96.186920   13.268999    0.000000    0.000000    0.000000    0.000000
  0.029018036   -1.098986  161.048340  -96.210855   13.787636    0.000000    0.000000    0.000000    0.000000
  0.029218437   -1.124272  159.177643  -96.259894   11.960655    0.000000    0.000000    0.000000    0.000000
  0.029418838   -1.148127  157.317963  -97.102678    6.276699    0.000000    0.000000    0.000000    0.000000
  0.029619238   -1.171549  155.483337  -96.938738   18.426746    0.000000    0.000000    0.000000    0.000000
  0.029819639   -1.196543  153.637161  -97.761181   16.176023    0.000000    0.000000    0.000000    0.000000
  0.030020040   -1.223226  151.804672  -97.054834    8.478025    0.000000    0.000000    0.000000    0.000000
  0.030220441   -1.255936  149.959808  -97.478423   11.215077    0.000000    0.000000    0.000000    0.000000
  0.030420842   -1.293156  148.089874  -98.411147   19.614170    0.000000    0.000000    0.000000    0.000000
  0.030621242   -1.333003  146.194107  -96.383004   17.238846    0.000000    0.000000    0.000000    0.000000
  0.030821643   -1.369457  144.256683  -97.007652   21.014290    0.000000    0.000000    0.000000    0.000000
  0.031022044   -1.403790  142.294540  -97.198963   17.472799    0.000000    0.000000    0.000000    0.000000
  0.031222445   -1.430198  140.332001  -97.090312   10.060959    0.000000    0.000000    0.000000    0.000000
  0.031422846   -1.459622  138.356583  -97.911867   13.037836    0.000000    0.000000    0.000000    0.000000
  0.031623246   -1.484963  136.392853  -97.780507   11.239745    0.000000    0.000000    0.000000    0.000000
  0.031823647   -1.505961  134.463501  -96.421609   13.219909    0.000000    0.000000    0.000000    0.000000
  0.032024048   -1.529402  132.527222  -97.099621   12.155670    0.000000    0.000000    0.000000    0.000000
  0.032224449   -1.553523  130.620697  -98.073587   10.555719    0.000000    0.000000    0.000000    0.000000
  0.032424850   -1.581001  128.699020  -96.522213    9.738136    0.000000    0.000000    0.000000    0.000000
  0.032625251   -1.617457  126.774773  -97.377001    9.698215    0.000000    0.000000    0.000000    0.000000
  0.032825651   -1.656450  124.832870  -96.830970   11.977259    0.000000    0.000000    0.000000    0.000000
  0.033026052   -1.697823  122.892357  -97.492791   17.910511    0.000000    0.000000    0.000000    0.000000
  0.033226453   -1.742161  120.905075  -98.473781    1.358765    0.000000    0.000000    0.000000    0.000000
  0.033426854   -1.786758  118.904663  -98.762548   11.348422    0.000000    0.000000    0.000000    0.000000
  0.033627255   -1.832314  116.866753  -97.796205    9.512736    0.000000    0.000000    0.000000    0.000000
  0.033827655   -1.876186  114.801956  -98.741215    5.468284    0.000000    0.000000    0.000000    0.000000
  0.034028056   -1.924640  112.713623  -99.219465   10.123813    0.000000    0.000000    0.000000    0.000000
  0.034228457   -1.972351  110.643112  -97.968436    2.724914    0.000000    0.000000    0.000000    0.000000
  0.034428858   -2.016749  108.541885  -98.345164    5.954872    0.000000    0.000000    0.000000    0.000000
  0.034629259   -2.054760  106.480347  -99.301121    9.481913    0.000000    0.000000    0.000000    0.000000
  0.034829659   -2.090826  104.407265 -100.045420   20.622177    0.000000    0.000000    0.000000    0.000000
  0.035030060   -2.131608  102.368637  -98.933411   10.914688    0.000000    0.000000    0.000000    0.000000
  0.035230461   -2.176634  100.352638  -99.392371    9.674079    0.000000    0.000000    0.000000    0.000000
  0.035430862   -2.232431   98.333282  -98.700131    1.716455    0.000000    0.000000    0.000000    0.000000
  0.035631263   -2.290873   96.316483 -100.553903    7.607662    0.000000    0.000000    0.000000    0.000000
  0.035831663   -2.352437   94.252556  -98.134342    8.436534    0.000000    0.000000    0.000000    0.000000
  0.036032064   -2.411434   92.128494  -97.500173   12.684418    0.000000    0.000000    0.000000    0.000000
  0.036232465   -2.476263   89.945107  -98.549042   14.174453    0.000000    0.000000    0.000000    0.000000
  0.036432866   -2.531216   87.763802  -98.395070    1.759272    0.000000    0.000000    0.000000    0.000000
  0.036633267   -2.583727   85.555527  -99.432017   14.466083    0.000000    0.000000    0.000000    0.000000
  0.036833667   -2.635647   83.397720  -98.807430   -0.259746    0.000000    0.000000    0.000000    0.000000
  0.037034068   -2.684545   81.217018  -98.964921   -0.476998    0.000000    0.000000    0.000000    0.000000
  0.037234469   -2.729348   79.077583  -99.430038   -0.021156    0.000000    0.000000    0.000000    0.000000
  0.037434870   -2.773929   76.978432 -100.042778    2.641280    0.000000    0.000000    0.000000    0.000000
  0.037635271   -2.825115   74.904678  -99.589645   -0.820850    0.000000    0.000000    0.000000    0.000000
  0.037835671   -2.877715   72.814903  -99.691662    0.407834    0.000000    0.000000    0.000000    0.000000
  0.038036072   -2.936383   70.771690 -100.393377    3.041311    0.000000    0.000000    0.000000    0.000000
  0.038236473   -2.993448   68.719025  -99.889318   17.301512    0.000000    0.000000    0.000000    0.000000
  0.038436874   -3.050425   66.654068 -101.038976    1.676201    0.000000    0.000000    0.000000    0.000000
  0.038637275   -3.116098   64.542053  -99.938198    6.437676    0.000000    0.000000    0.000000    0.000000
  0.038837675   -3.184180   62.377037  -99.732091   16.846336    0.000000    0.000000    0.000000    0.000000
  0.039038076   -3.246482   60.190304 -100.705316   11.068870    0.000000    0.000000    0.000000    0.000000
  0.039238477   -3.307912   57.983879  -99.955281   -3.163381    0.000000    0.000000    0.000000    0.000000
  0.039438878   -3.360425   55.795856 -100.214551   16.262197    0.000000    0.000000    0.000000    0.000000
  0.039639279   -3.410190   53.652794 -101.877702    3.556650    0.000000    0.000000    0.000000    0.000000
  0.039839679   -3.455161   51.551334  -99.268446    2.625375    0.000000    0.000000    0.000000    0.000000
  0.040040080   -3.505345   49.481903  -99.764678   13.051694    0.000000    0.000000    0.000000    0.000000
  0.040240481   -3.562254   47.415619 -101.129657   17.241455    0.000000    0.000000    0.000000    0.000000
  0.040440882   -3.621242   45.369564  -99.247322   13.240891    0.000000    0.000000    0.000000    0.000000
  0.040641283   -3.683618   43.280453  -99.289631   -0.501999    0.000000    0.000000    0.000000    0.000000
  0.040841683   -3.746675   41.185867  -99.901233    4.555959    0.000000    0.000000    0.000000    0.000000
  0.041042084   -3.813353   39.084202  -99.385084    1.697432    0.000000    0.000000    0.000000    0.000000
  0.041242485   -3.871213   36.977409  -99.523182    9.756880    0.000000    0.000000    0.000000    0.000000
  0.041442886   -3.932447   34.863949 -100.609869    0.607877    0.000000    0.000000    0.000000    0.000000
  0.041643287   -3.988621   32.762478 -101.662150   16.848770    0.000000    0.000000    0.000000    0.000000
  0.041843687   -4.046170   30.618704 -100.262816   -1.404201    0.000000    0.000000    0.000000    0.000000
  0.042044088   -4.099529   28.534740  -99.919257   -2.418747    0.000000    0.000000    0.000000    0.000000
  0.042244489   -4.152385   26.462967 -101.776273   -5.474699    0.000000    0.000000    0.000000    0.000000
  0.042444890   -4.204772   24.408451 -101.642077    7.353669    0.000000    0.000000    0.000000    0.000000
  0.042645291   -4.255555   22.360449 -101.418347    9.299185    0.000000    0.000000    0.000000    0.000000
  0.042845691   -4.309289   20.311632 -100.297546   -7.068270    0.000000    0.000000    0.000000    0.000000
  0.043046092   -4.360612   18.251549 -100.714289   -4.949851    0.000000    0.000000    0.000000    0.000000
  0.043246493   -4.413089   16.234749 -102.330604   13.280876    0.000000    0.000000    0.000000    0.000000
  0.043446894   -4.465605   14.169157 -103.187482    6.491382    0.000000    0.000000    0.000000    0.000000
  0.043647295   -4.519570   12.146657  -99.527725   16.324604    0.000000    0.000000    0.000000    0.000000
  0.043847695   -4.574126   10.113239 -102.088248    6.780584    0.000000    0.000000    0.000000    0.000000
  0.044048096   -4.626298    8.076246 -101.585815   -0.722094    0.000000    0.000000    0.000000    0.000000
  0.044248497   -4.674322    6.046213 -101.341988    7.991336    0.000000    0.000000    0.000000    0.000000
  0.044448898   -4.719592    4.011196 -101.302064   25.281225    0.000000    0.000000    0.000000    0.000000
  0.044649299   -4.764290    1.995972 -101.875932   19.989960    0.000000    0.000000    0.000000    0.000000
  0.044849699   -4.807912    0.010996 -100.818844    6.023538    0.000000    0.000000    0.000000    0.000000
  0.045050100   -4.850847   -1.972968 -100.379836    5.095661    0.000000    0.000000    0.000000    0.000000
  0.045250501   -4.892106   -3.948096 -100.248377   15.355794    0.000000    0.000000    0.000000    0.000000
  0.045450902   -4.933371   -5.913610 -100.498868   21.442188    0.000000    0.000000    0.000000    0.000000
  0.045651303   -4.971530   -7.880858 -101.678946   11.484418    0.000000    0.000000    0.000000    0.000000
  0.045851703   -5.009617   -9.822968  -99.512213    5.631579    0.000000    0.000000    0.000000    0.000000
  0.046052104   -5.042016  -11.766045 -101.146316    1.527324    0.000000    0.000000    0.000000    0.000000
  0.046252505   -5.075796  -13.674536 -100.382134    1.697527    0.000000    0.000000    0.000000    0.000000
  0.046452906   -5.108759  -15.564869 -101.963680   -1.048886    0.000000    0.000000    0.000000    0.000000
  0.046653307   -5.144223  -17.418474 -104.117399   -3.789094    0.000000    0.000000    0.000000    0.000000
  0.046853707   -5.175578  -19.280661 -101.240318  -17.544777    0.000000    0.000000    0.000000    0.000000
  0.047054108   -5.210173  -21.117970 -101.640316    1.971414    0.000000    0.000000    0.000000    0.000000
  0.047254509   -5.241037  -22.966928 -103.845303    1.914430    0.000000    0.000000    0.000000    0.000000
  0.047454910   -5.269561  -24.808172 -105.548311  -17.405626    0.000000    0.000000    0.000000    0.000000
  0.047655311   -5.298213  -26.619423 -101.482722   -6.215876    0.000000    0.000000    0.000000    0.000000
  0.047855711   -5.328369  -28.417385 -102.475936    6.558849    0.000000    0.000000    0.000000    0.000000
  0.048056112   -5.361374  -30.239614 -104.364286    0.238852    0.000000    0.000000    0.000000    0.000000
  0.048256513   -5.389725  -32.062054 -104.451460   17.138412    0.000000    0.000000    0.000000    0.000000
  0.048456914   -5.412752  -33.863400 -102.229479    8.600442    0.000000    0.000000    0.000000    0.000000
  0.048657315   -5.436878  -35.681995 -103.750283    9.892838    0.000000    0.000000    0.000000    0.000000
  0.048857715   -5.459743  -37.496571 -103.037271   14.105299    0.000000    0.000000    0.000000    0.000000
  0.049058116   -5.480293  -39.271919 -102.083341   15.166381    0.000000    0.000000    0.000000    0.000000
  0.049258517   -5.501609  -41.023746 -100.591433   25.143179    0.000000    0.000000    0.000000    0.000000
  0.049458918   -5.523430  -42.745579 -104.846558   24.649662    0.000000    0.000000    0.000000    0.000000
  0.049659319   -5.547373  -44.492260 -101.888317   -8.012891    0.000000    0.000000    0.000000    0.000000
  0.049859719   -5.572186  -46.253948 -103.746266    8.394318    0.000000    0.000000    0.000000    0.000000
  0.050060120   -5.597074  -48.005001 -102.683799   -7.849203    0.000000    0.000000    0.000000    0.000000
  0.050260521   -5.619122  -49.783833 -103.110625   -5.377578    0.000000    0.000000    0.000000    0.000000
  0.050460922   -5.643401  -51.530415 -101.589991    2.282788    0.000000    0.000000    0.000000    0.000000
  0.050661323   -5.660046  -53.260284 -102.735723    8.298129    0.000000    0.000000    0.000000    0.000000
  0.050861723   -5.675652  -55.053596 -102.223431   -6.766860    0.000000    0.000000    0.000000    0.000000
  0.051062124   -5.682716  -56.761753 -102.522114   -5.996952    0.000000    0.000000    0.000000    0.000000
  0.051262525   -5.689988  -58.452751 -102.609761    1.481907    0.000000    0.000000    0.000000    0.000000
  0.051462926   -5.701412  -60.115978 -101.981271    4.690427    0.000000    0.000000    0.000000    0.000000
  0.051663327   -5.710535  -61.741543 -104.959477    0.806487    0.000000    0.000000    0.000000    0.000000
  0.051863727   -5.726129  -63.376549 -105.182125    6.964302    0.000000    0.000000    0.000000    0.000000
  0.052064128   -5.738107  -64.957466 -104.669573   11.078619    0.000000    0.000000    0.000000    0.000000
  0.052264529   -5.750941  -66.567612 -104.514991    6.843044    0.000000    0.000000    0.000000    0.000000
  0.052464930   -5.762900  -68.178490 -103.381057   -6.348506    0.000000    0.000000    0.000000    0.000000
  0.052665331   -5.773028  -69.771385 -103.772001    0.970133    0.000000    0.000000    0.000000    0.000000
  0.052865731   -5.782448  -71.321495 -103.612450    9.916686    0.000000    0.000000    0.000000    0.000000
