! Anritsu VNA Master:                     Model: MS2036C/10/77
! SN:                                  1601066
! /card0/usr/18may27.balun/252b.m3.bad.s2p
! Existing Calibration Information:
! TYPE:                         Current Settings,       Active Cal Settings
! TIME:             	   05/27/2018 12:42:48 PM,    05/27/2018 12:21:44 PM
! INTERNAL TEMP:    	                   53.0 C,                    53.3 C
! # POINTS:         	                      500,                       500
! START FREQ:       	               20.000 MHz,                20.000 MHz
! STOP FREQ:        	              120.000 MHz,               120.000 MHz
! SOURCE POWER:     	                     High,                      High
! IFBW:             	                    50 Hz,                     50 Hz
! AVG FACTOR:       	                       1 ,                        1 
! REF PLANE 1:      	                     0 mm,                      0 mm
! REF PLANE 2:      	                     0 mm,                      0 mm
! CAL TYPE:         	                 Full S11,                  Full S11
! CAL METHOD:       	                     SOLT,                      SOLT
! CAL LINE TYPE:    	                     Coax,                      Coax
! DUT PORT 1:       	                K-Conn(M),                 K-Conn(M)
! DUT PORT 2:       	                K-Conn(M),                 K-Conn(M)
! CAL STATUS:       	        OK: Accuracy High,                        --
# GHZ S DB R 50.0
! FREQ.GHZ       S11DB        S11A       S21DB        S21A       S12DB        S12A       S22DB        S22A
  0.020000000   -0.627417 -126.287277  -90.867753   32.025055    0.000000    0.000000    0.000000    0.000000
  0.020200401   -0.623959 -127.766777  -91.156267   28.678253    0.000000    0.000000    0.000000    0.000000
  0.020400802   -0.621407 -129.239700  -91.630023   27.635822    0.000000    0.000000    0.000000    0.000000
  0.020601202   -0.619093 -130.657852  -91.924279   31.206127    0.000000    0.000000    0.000000    0.000000
  0.020801603   -0.620831 -132.119583  -91.347728   27.265890    0.000000    0.000000    0.000000    0.000000
  0.021002004   -0.626327 -133.591537  -92.507861   32.610874    0.000000    0.000000    0.000000    0.000000
  0.021202405   -0.632180 -135.077164  -92.427354   30.674471    0.000000    0.000000    0.000000    0.000000
  0.021402806   -0.635169 -136.538147  -94.106200   32.754875    0.000000    0.000000    0.000000    0.000000
  0.021603206   -0.642436 -138.022858  -93.519370   30.204121    0.000000    0.000000    0.000000    0.000000
  0.021803607   -0.647668 -139.476227  -93.782891   36.210434    0.000000    0.000000    0.000000    0.000000
  0.022004008   -0.653725 -140.962662  -93.174708   35.859268    0.000000    0.000000    0.000000    0.000000
  0.022204409   -0.659399 -142.491531  -92.710089   35.385891    0.000000    0.000000    0.000000    0.000000
  0.022404810   -0.665919 -144.017334  -92.709625   34.517929    0.000000    0.000000    0.000000    0.000000
  0.022605210   -0.668292 -145.533127  -92.482309   34.063168    0.000000    0.000000    0.000000    0.000000
  0.022805611   -0.668150 -147.078262  -92.940836   34.876465    0.000000    0.000000    0.000000    0.000000
  0.023006012   -0.674843 -148.643936  -92.514295   36.287510    0.000000    0.000000    0.000000    0.000000
  0.023206413   -0.684403 -150.207428  -92.885795   30.347237    0.000000    0.000000    0.000000    0.000000
  0.023406814   -0.696794 -151.811615  -92.301909   28.963673    0.000000    0.000000    0.000000    0.000000
  0.023607214   -0.708043 -153.449097  -92.050274   25.473721    0.000000    0.000000    0.000000    0.000000
  0.023807615   -0.716244 -155.088257  -92.030305   26.061304    0.000000    0.000000    0.000000    0.000000
  0.024008016   -0.724734 -156.735611  -93.044395   22.460583    0.000000    0.000000    0.000000    0.000000
  0.024208417   -0.734467 -158.382721  -93.054265   23.134045    0.000000    0.000000    0.000000    0.000000
  0.024408818   -0.747328 -160.066269  -93.534860   21.413029    0.000000    0.000000    0.000000    0.000000
  0.024609218   -0.756435 -161.755981  -94.202687   11.997985    0.000000    0.000000    0.000000    0.000000
  0.024809619   -0.763740 -163.472244  -93.966990   16.274012    0.000000    0.000000    0.000000    0.000000
  0.025010020   -0.765270 -165.162048  -94.646028   17.590094    0.000000    0.000000    0.000000    0.000000
  0.025210421   -0.771503 -166.847992  -94.346912   18.927710    0.000000    0.000000    0.000000    0.000000
  0.025410822   -0.779400 -168.520111  -94.286220   17.073734    0.000000    0.000000    0.000000    0.000000
  0.025611222   -0.785251 -170.188202  -95.990145   22.721914    0.000000    0.000000    0.000000    0.000000
  0.025811623   -0.792113 -171.871735  -95.060531   22.934887    0.000000    0.000000    0.000000    0.000000
  0.026012024   -0.801580 -173.544815  -95.257700   21.542091    0.000000    0.000000    0.000000    0.000000
  0.026212425   -0.812060 -175.228424  -95.912752   20.599123    0.000000    0.000000    0.000000    0.000000
  0.026412826   -0.828501 -176.903549  -95.294104   24.023178    0.000000    0.000000    0.000000    0.000000
  0.026613226   -0.845229 -178.604462  -96.060836   25.708675    0.000000    0.000000    0.000000    0.000000
  0.026813627   -0.861764  179.685760  -95.869642   23.492859    0.000000    0.000000    0.000000    0.000000
  0.027014028   -0.878783  177.980896  -95.942115   23.670593    0.000000    0.000000    0.000000    0.000000
  0.027214429   -0.895075  176.264587  -95.371985   19.181807    0.000000    0.000000    0.000000    0.000000
  0.027414830   -0.913058  174.528351  -96.070421   21.836128    0.000000    0.000000    0.000000    0.000000
  0.027615230   -0.931127  172.764297  -95.580506   21.770771    0.000000    0.000000    0.000000    0.000000
  0.027815631   -0.955815  170.975296  -96.462856   18.543987    0.000000    0.000000    0.000000    0.000000
  0.028016032   -0.979805  169.141525  -94.894907   21.174789    0.000000    0.000000    0.000000    0.000000
  0.028216433   -1.002705  167.290253  -95.014969   20.158756    0.000000    0.000000    0.000000    0.000000
  0.028416834   -1.027056  165.416275  -95.499002   14.140859    0.000000    0.000000    0.000000    0.000000
  0.028617234   -1.051707  163.545624  -96.083748   16.922092    0.000000    0.000000    0.000000    0.000000
  0.028817635   -1.079219  161.646988  -96.980876   18.411180    0.000000    0.000000    0.000000    0.000000
  0.029018036   -1.106155  159.714691  -96.780221   14.636675    0.000000    0.000000    0.000000    0.000000
  0.029218437   -1.132344  157.779053  -96.486577   11.299960    0.000000    0.000000    0.000000    0.000000
  0.029418838   -1.153379  155.847946  -96.860085   12.473929    0.000000    0.000000    0.000000    0.000000
  0.029619238   -1.174325  153.950623  -96.958574   18.012484    0.000000    0.000000    0.000000    0.000000
  0.029819639   -1.195009  152.073456  -97.401685   17.416353    0.000000    0.000000    0.000000    0.000000
  0.030020040   -1.217267  150.206345  -98.094683   12.412252    0.000000    0.000000    0.000000    0.000000
  0.030220441   -1.245935  148.363998  -97.272410   10.890565    0.000000    0.000000    0.000000    0.000000
  0.030420842   -1.276704  146.516266  -97.298355   19.406261    0.000000    0.000000    0.000000    0.000000
  0.030621242   -1.314517  144.638229  -97.432316   25.955927    0.000000    0.000000    0.000000    0.000000
  0.030821643   -1.348146  142.735580  -97.456692   11.727730    0.000000    0.000000    0.000000    0.000000
  0.031022044   -1.381275  140.822632  -97.441024   13.135076    0.000000    0.000000    0.000000    0.000000
  0.031222445   -1.406256  138.904129  -96.924257   10.287990    0.000000    0.000000    0.000000    0.000000
  0.031422846   -1.434804  136.987747  -97.108731   13.310871    0.000000    0.000000    0.000000    0.000000
  0.031623246   -1.461099  135.091461  -96.705653   18.416424    0.000000    0.000000    0.000000    0.000000
  0.031823647   -1.485607  133.198990  -96.959094   19.682056    0.000000    0.000000    0.000000    0.000000
  0.032024048   -1.510042  131.305847  -97.542025   17.855932    0.000000    0.000000    0.000000    0.000000
  0.032224449   -1.538835  129.427567  -96.801200   10.534594    0.000000    0.000000    0.000000    0.000000
  0.032424850   -1.569596  127.522827  -97.702295   11.685590    0.000000    0.000000    0.000000    0.000000
  0.032625251   -1.609099  125.590012  -97.840068   15.212011    0.000000    0.000000    0.000000    0.000000
  0.032825651   -1.652278  123.636368  -97.711878   11.933647    0.000000    0.000000    0.000000    0.000000
  0.033026052   -1.701136  121.648193  -97.357561    6.247251    0.000000    0.000000    0.000000    0.000000
  0.033226453   -1.749799  119.629715  -97.398746    9.961029    0.000000    0.000000    0.000000    0.000000
  0.033426854   -1.796480  117.556366  -99.130505    6.417627    0.000000    0.000000    0.000000    0.000000
  0.033627255   -1.843332  115.441521  -97.442979   11.525113    0.000000    0.000000    0.000000    0.000000
  0.033827655   -1.889963  113.308090  -98.235457    0.552444    0.000000    0.000000    0.000000    0.000000
  0.034028056   -1.937612  111.166420  -98.968944   15.738841    0.000000    0.000000    0.000000    0.000000
  0.034228457   -1.980630  108.980492  -99.436653    6.796059    0.000000    0.000000    0.000000    0.000000
  0.034428858   -2.021940  106.835136  -99.035587    3.887307    0.000000    0.000000    0.000000    0.000000
  0.034629259   -2.058712  104.710045  -99.078004    5.482698    0.000000    0.000000    0.000000    0.000000
  0.034829659   -2.093717  102.611076  -98.087427   15.384209    0.000000    0.000000    0.000000    0.000000
  0.035030060   -2.127190  100.538742  -99.480744    4.928163    0.000000    0.000000    0.000000    0.000000
  0.035230461   -2.166238   98.495361 -100.007448    1.909630    0.000000    0.000000    0.000000    0.000000
  0.035430862   -2.215231   96.519600  -98.763813   21.349272    0.000000    0.000000    0.000000    0.000000
  0.035631263   -2.267897   94.510094  -98.423665   21.885845    0.000000    0.000000    0.000000    0.000000
  0.035831663   -2.327251   92.470009  -98.562125   10.674972    0.000000    0.000000    0.000000    0.000000
  0.036032064   -2.387346   90.400566  -99.108740    9.554029    0.000000    0.000000    0.000000    0.000000
  0.036232465   -2.442754   88.298409  -98.814033   14.996310    0.000000    0.000000    0.000000    0.000000
  0.036432866   -2.500646   86.158768  -98.334078   15.617243    0.000000    0.000000    0.000000    0.000000
  0.036633267   -2.553506   84.021965  -98.861262    5.601529    0.000000    0.000000    0.000000    0.000000
  0.036833667   -2.604615   81.898987  -98.943373    4.510175    0.000000    0.000000    0.000000    0.000000
  0.037034068   -2.657222   79.780457  -98.737339   11.569408    0.000000    0.000000    0.000000    0.000000
  0.037234469   -2.706347   77.668114  -99.505455   -1.338187    0.000000    0.000000    0.000000    0.000000
  0.037434870   -2.759181   75.575096 -100.841877    3.586236    0.000000    0.000000    0.000000    0.000000
  0.037635271   -2.813829   73.491791  -99.198706    6.061666    0.000000    0.000000    0.000000    0.000000
  0.037835671   -2.870350   71.395012 -100.016883    3.357605    0.000000    0.000000    0.000000    0.000000
  0.038036072   -2.930454   69.335846 -100.725048    2.351730    0.000000    0.000000    0.000000    0.000000
  0.038236473   -2.991660   67.250122  -99.874271    1.589354    0.000000    0.000000    0.000000    0.000000
  0.038436874   -3.052679   65.134399 -100.597226   -4.078703    0.000000    0.000000    0.000000    0.000000
  0.038637275   -3.119695   62.976974  -99.294824    8.928838    0.000000    0.000000    0.000000    0.000000
  0.038837675   -3.185965   60.778801 -101.579792    7.601851    0.000000    0.000000    0.000000    0.000000
  0.039038076   -3.250325   58.541157  -98.824854    1.156155    0.000000    0.000000    0.000000    0.000000
  0.039238477   -3.306806   56.305981 -100.499007    3.725079    0.000000    0.000000    0.000000    0.000000
  0.039438878   -3.357759   54.112492  -99.228714   10.020016    0.000000    0.000000    0.000000    0.000000
  0.039639279   -3.404166   51.905327 -100.108838    9.621591    0.000000    0.000000    0.000000    0.000000
  0.039839679   -3.445808   49.790588 -100.494130    1.528416    0.000000    0.000000    0.000000    0.000000
  0.040040080   -3.492031   47.761421  -99.611157   15.388838    0.000000    0.000000    0.000000    0.000000
  0.040240481   -3.544805   45.704212 -101.605846   -5.043454    0.000000    0.000000    0.000000    0.000000
  0.040440882   -3.604002   43.681614 -100.805433    8.019615    0.000000    0.000000    0.000000    0.000000
  0.040641283   -3.667599   41.621731  -99.471960   11.040721    0.000000    0.000000    0.000000    0.000000
  0.040841683   -3.726006   39.552113  -99.718833   13.306417    0.000000    0.000000    0.000000    0.000000
  0.041042084   -3.792296   37.460876  -99.897127   13.378641    0.000000    0.000000    0.000000    0.000000
  0.041242485   -3.855429   35.373913  -98.109665    4.410088    0.000000    0.000000    0.000000    0.000000
  0.041442886   -3.919159   33.275558  -99.725067   -0.430033    0.000000    0.000000    0.000000    0.000000
  0.041643287   -3.981720   31.152281 -100.877036   -1.405309    0.000000    0.000000    0.000000    0.000000
  0.041843687   -4.038085   29.023376 -100.550013    7.837760    0.000000    0.000000    0.000000    0.000000
  0.042044088   -4.095228   26.886375 -101.545878   -3.858045    0.000000    0.000000    0.000000    0.000000
  0.042244489   -4.151614   24.771521 -101.477519   10.278518    0.000000    0.000000    0.000000    0.000000
  0.042444890   -4.206374   22.665308 -101.230277   -4.282133    0.000000    0.000000    0.000000    0.000000
  0.042645291   -4.260306   20.554546 -101.025675   -2.607825    0.000000    0.000000    0.000000    0.000000
  0.042845691   -4.309860   18.457685 -102.620327   10.666665    0.000000    0.000000    0.000000    0.000000
  0.043046092   -4.358489   16.351318 -101.904911    8.428692    0.000000    0.000000    0.000000    0.000000
  0.043246493   -4.405041   14.256384 -102.404901    6.424280    0.000000    0.000000    0.000000    0.000000
  0.043446894   -4.450640   12.199359 -102.036478    9.009567    0.000000    0.000000    0.000000    0.000000
  0.043647295   -4.499648   10.141079 -104.456288    6.048197    0.000000    0.000000    0.000000    0.000000
  0.043847695   -4.542941    8.107144 -101.637244   11.643246    0.000000    0.000000    0.000000    0.000000
  0.044048096   -4.587962    6.124293 -100.902729    7.228878    0.000000    0.000000    0.000000    0.000000
  0.044248497   -4.629893    4.118827 -101.467301   20.214094    0.000000    0.000000    0.000000    0.000000
  0.044448898   -4.669048    2.178590 -101.038765    6.952932    0.000000    0.000000    0.000000    0.000000
  0.044649299   -4.706046    0.242483 -101.857338    6.235039    0.000000    0.000000    0.000000    0.000000
  0.044849699   -4.750672   -1.657740 -101.832257   15.681849    0.000000    0.000000    0.000000    0.000000
  0.045050100   -4.792372   -3.544160 -101.027857   12.693009    0.000000    0.000000    0.000000    0.000000
  0.045250501   -4.835013   -5.417480 -102.275299    4.241716    0.000000    0.000000    0.000000    0.000000
  0.045450902   -4.878775   -7.286172 -100.812187   -2.997629    0.000000    0.000000    0.000000    0.000000
  0.045651303   -4.921526   -9.162926 -101.798321   11.057775    0.000000    0.000000    0.000000    0.000000
  0.045851703   -4.967698  -11.042033 -100.432734   11.860445    0.000000    0.000000    0.000000    0.000000
  0.046052104   -5.020200  -12.931627 -101.982927   -4.769576    0.000000    0.000000    0.000000    0.000000
  0.046252505   -5.065035  -14.819733 -101.682031    2.965610    0.000000    0.000000    0.000000    0.000000
  0.046452906   -5.112791  -16.717257 -100.974622    8.607100    0.000000    0.000000    0.000000    0.000000
  0.046653307   -5.163622  -18.622257 -102.236168    4.224815    0.000000    0.000000    0.000000    0.000000
  0.046853707   -5.208603  -20.565781 -101.000451   -1.565669    0.000000    0.000000    0.000000    0.000000
  0.047054108   -5.254934  -22.520180 -103.602747   -7.712326    0.000000    0.000000    0.000000    0.000000
  0.047254509   -5.294315  -24.498062 -103.927855   -7.039489    0.000000    0.000000    0.000000    0.000000
  0.047454910   -5.329181  -26.476456 -104.264630   -6.388990    0.000000    0.000000    0.000000    0.000000
  0.047655311   -5.362612  -28.463160 -103.212369   -2.699201    0.000000    0.000000    0.000000    0.000000
  0.047855711   -5.394164  -30.460110 -102.442912   -2.121047    0.000000    0.000000    0.000000    0.000000
  0.048056112   -5.421024  -32.414520 -103.294571    9.390295    0.000000    0.000000    0.000000    0.000000
  0.048256513   -5.439420  -34.387997 -102.610576    6.328692    0.000000    0.000000    0.000000    0.000000
  0.048456914   -5.454067  -36.345566 -102.699243   -1.464520    0.000000    0.000000    0.000000    0.000000
  0.048657315   -5.463545  -38.283848 -103.350770    3.514599    0.000000    0.000000    0.000000    0.000000
  0.048857715   -5.469932  -40.139236 -104.620914   15.368440    0.000000    0.000000    0.000000    0.000000
  0.049058116   -5.474416  -41.970047 -101.512649   13.202261    0.000000    0.000000    0.000000    0.000000
  0.049258517   -5.475500  -43.720585 -101.735489    5.688767    0.000000    0.000000    0.000000    0.000000
  0.049458918   -5.486524  -45.414356 -101.257500    4.750281    0.000000    0.000000    0.000000    0.000000
  0.049659319   -5.490781  -47.088657 -102.777381    8.757582    0.000000    0.000000    0.000000    0.000000
  0.049859719   -5.500462  -48.771645 -101.773038   11.899200    0.000000    0.000000    0.000000    0.000000
  0.050060120   -5.515050  -50.417915 -102.032086    9.109004    0.000000    0.000000    0.000000    0.000000
  0.050260521   -5.528670  -52.038879 -101.860708   13.067209    0.000000    0.000000    0.000000    0.000000
  0.050460922   -5.549767  -53.678310 -101.460890    5.193121    0.000000    0.000000    0.000000    0.000000
  0.050661323   -5.563231  -55.279438 -102.890428    2.063846    0.000000    0.000000    0.000000    0.000000
  0.050861723   -5.580321  -56.910328 -103.691049   -6.457408    0.000000    0.000000    0.000000    0.000000
  0.051062124   -5.597949  -58.513042 -103.491799   -5.512903    0.000000    0.000000    0.000000    0.000000
  0.051262525   -5.613004  -60.097313 -102.918484  -15.941102    0.000000    0.000000    0.000000    0.000000
  0.051462926   -5.631259  -61.691189 -106.080335   -0.447912    0.000000    0.000000    0.000000    0.000000
  0.051663327   -5.654396  -63.266281 -102.229798   12.495050    0.000000    0.000000    0.000000    0.000000
  0.051863727   -5.678257  -64.819962 -103.961344   -5.149089    0.000000    0.000000    0.000000    0.000000
  0.052064128   -5.707329  -66.427612 -104.634513    3.777980    0.000000    0.000000    0.000000    0.000000
  0.052264529   -5.731722  -68.045471 -104.480646    0.988498    0.000000    0.000000    0.000000    0.000000
  0.052464930   -5.751134  -69.688240 -104.322632   -5.941359    0.000000    0.000000    0.000000    0.000000
  0.052665331   -5.772857  -71.352158 -105.133676    9.765704    0.000000    0.000000    0.000000    0.000000
  0.052865731   -5.793218  -73.027580 -103.311989   14.007350    0.000000    0.000000    0.000000    0.000000
