! Anritsu VNA Master:                     Model: MS2036C/10/77
! SN:                                  1601066
! /card0/usr/18may27.balun/252b.m.s2p
! Existing Calibration Information:
! TYPE:                         Current Settings,       Active Cal Settings
! TIME:             	   05/27/2018 11:58:24 AM,    05/27/2018 11:54:56 AM
! INTERNAL TEMP:    	                   50.0 C,                    49.3 C
! # POINTS:         	                      500,                       500
! START FREQ:       	               20.000 MHz,                20.000 MHz
! STOP FREQ:        	              120.000 MHz,               120.000 MHz
! SOURCE POWER:     	                     High,                      High
! IFBW:             	                    50 Hz,                     50 Hz
! AVG FACTOR:       	                       1 ,                        1 
! REF PLANE 1:      	                     0 mm,                      0 mm
! REF PLANE 2:      	                     0 mm,                      0 mm
! CAL TYPE:         	                 Full S11,                  Full S11
! CAL METHOD:       	                     SOLT,                      SOLT
! CAL LINE TYPE:    	                     Coax,                      Coax
! DUT PORT 1:       	                K-Conn(M),                 K-Conn(M)
! DUT PORT 2:       	                K-Conn(M),                 K-Conn(M)
! CAL STATUS:       	        OK: Accuracy High,                        --
# GHZ S DB R 50.0
! FREQ.GHZ       S11DB        S11A       S21DB        S21A       S12DB        S12A       S22DB        S22A
  0.020000000   -0.617174 -125.163025  -90.583131   33.939644    0.000000    0.000000    0.000000    0.000000
  0.020200401   -0.618655 -126.617584  -91.332182   33.466518    0.000000    0.000000    0.000000    0.000000
  0.020400802   -0.617088 -128.060425  -91.222668   26.523355    0.000000    0.000000    0.000000    0.000000
  0.020601202   -0.619888 -129.502716  -92.066694   25.147465    0.000000    0.000000    0.000000    0.000000
  0.020801603   -0.624518 -130.973404  -92.064385   27.888920    0.000000    0.000000    0.000000    0.000000
  0.021002004   -0.629820 -132.476563  -92.535061   28.864359    0.000000    0.000000    0.000000    0.000000
  0.021202405   -0.637487 -133.982864  -93.188707   29.042538    0.000000    0.000000    0.000000    0.000000
  0.021402806   -0.643761 -135.525284  -93.000720   30.091433    0.000000    0.000000    0.000000    0.000000
  0.021603206   -0.648114 -137.034348  -93.133892   34.266037    0.000000    0.000000    0.000000    0.000000
  0.021803607   -0.653556 -138.552917  -93.071652   32.501774    0.000000    0.000000    0.000000    0.000000
  0.022004008   -0.658401 -140.095810  -93.659465   39.074093    0.000000    0.000000    0.000000    0.000000
  0.022204409   -0.662189 -141.654037  -92.847788   39.204174    0.000000    0.000000    0.000000    0.000000
  0.022404810   -0.666309 -143.208801  -92.646269   35.383633    0.000000    0.000000    0.000000    0.000000
  0.022605210   -0.670156 -144.748581  -92.485019   37.742008    0.000000    0.000000    0.000000    0.000000
  0.022805611   -0.668315 -146.268570  -92.355812   32.502377    0.000000    0.000000    0.000000    0.000000
  0.023006012   -0.671102 -147.784973  -92.828847   35.858269    0.000000    0.000000    0.000000    0.000000
  0.023206413   -0.677757 -149.335800  -92.511671   31.497850    0.000000    0.000000    0.000000    0.000000
  0.023406814   -0.687436 -150.892593  -92.895349   29.244900    0.000000    0.000000    0.000000    0.000000
  0.023607214   -0.696806 -152.443344  -92.391890   28.802826    0.000000    0.000000    0.000000    0.000000
  0.023807615   -0.704566 -154.005692  -91.493807   28.947237    0.000000    0.000000    0.000000    0.000000
  0.024008016   -0.712645 -155.567276  -92.828557   30.679947    0.000000    0.000000    0.000000    0.000000
  0.024208417   -0.724619 -157.124512  -93.161525   23.746969    0.000000    0.000000    0.000000    0.000000
  0.024408818   -0.736459 -158.708206  -93.424049   22.551073    0.000000    0.000000    0.000000    0.000000
  0.024609218   -0.748021 -160.330765  -94.043978   23.044504    0.000000    0.000000    0.000000    0.000000
  0.024809619   -0.756390 -161.969330  -94.001727   21.265867    0.000000    0.000000    0.000000    0.000000
  0.025010020   -0.763264 -163.608017  -94.274879   23.367781    0.000000    0.000000    0.000000    0.000000
  0.025210421   -0.771993 -165.250305  -94.883545   20.776678    0.000000    0.000000    0.000000    0.000000
  0.025410822   -0.780928 -166.906876  -94.655809   18.319717    0.000000    0.000000    0.000000    0.000000
  0.025611222   -0.791384 -168.574875  -94.857999   23.379597    0.000000    0.000000    0.000000    0.000000
  0.025811623   -0.801792 -170.264709  -95.099317   20.834970    0.000000    0.000000    0.000000    0.000000
  0.026012024   -0.813381 -171.967972  -95.002154   19.966202    0.000000    0.000000    0.000000    0.000000
  0.026212425   -0.827476 -173.694199  -95.271699   24.892427    0.000000    0.000000    0.000000    0.000000
  0.026412826   -0.844973 -175.420212  -95.643845   19.688168    0.000000    0.000000    0.000000    0.000000
  0.026613226   -0.861174 -177.162643  -94.948465   21.716417    0.000000    0.000000    0.000000    0.000000
  0.026813627   -0.877121 -178.915054  -96.101595   28.225508    0.000000    0.000000    0.000000    0.000000
  0.027014028   -0.894246  179.330139  -95.120132   22.637024    0.000000    0.000000    0.000000    0.000000
  0.027214429   -0.908419  177.585449  -95.576058   22.303102    0.000000    0.000000    0.000000    0.000000
  0.027414830   -0.923819  175.841461  -95.492995   20.013208    0.000000    0.000000    0.000000    0.000000
  0.027615230   -0.939904  174.075943  -95.184827   25.750063    0.000000    0.000000    0.000000    0.000000
  0.027815631   -0.959413  172.320831  -95.283973   24.098509    0.000000    0.000000    0.000000    0.000000
  0.028016032   -0.979762  170.527832  -95.299632   21.070951    0.000000    0.000000    0.000000    0.000000
  0.028216433   -0.998805  168.740128  -95.208226   21.522482    0.000000    0.000000    0.000000    0.000000
  0.028416834   -1.020168  166.946213  -95.072134   16.084024    0.000000    0.000000    0.000000    0.000000
  0.028617234   -1.044491  165.160645  -96.090809   15.828438    0.000000    0.000000    0.000000    0.000000
  0.028817635   -1.070732  163.362381  -95.412749   15.929049    0.000000    0.000000    0.000000    0.000000
  0.029018036   -1.097967  161.540192  -96.830984   15.232807    0.000000    0.000000    0.000000    0.000000
  0.029218437   -1.123218  159.685699  -97.054225   18.719505    0.000000    0.000000    0.000000    0.000000
  0.029418838   -1.146527  157.830063  -96.314735   19.356899    0.000000    0.000000    0.000000    0.000000
  0.029619238   -1.170374  156.025925  -96.813445   12.542923    0.000000    0.000000    0.000000    0.000000
  0.029819639   -1.197711  154.198700  -97.436711   15.242402    0.000000    0.000000    0.000000    0.000000
  0.030020040   -1.225236  152.372849  -98.182155   17.652555    0.000000    0.000000    0.000000    0.000000
  0.030220441   -1.257925  150.540436  -97.079653   12.025104    0.000000    0.000000    0.000000    0.000000
  0.030420842   -1.296418  148.671448  -97.911774   13.872955    0.000000    0.000000    0.000000    0.000000
  0.030621242   -1.338421  146.751083  -98.632345   15.289575    0.000000    0.000000    0.000000    0.000000
  0.030821643   -1.376386  144.810776  -97.354756   16.360619    0.000000    0.000000    0.000000    0.000000
  0.031022044   -1.410988  142.827560  -97.361244   19.470184    0.000000    0.000000    0.000000    0.000000
  0.031222445   -1.439781  140.850769  -97.539923   19.552700    0.000000    0.000000    0.000000    0.000000
  0.031422846   -1.469774  138.854004  -97.852600   17.891232    0.000000    0.000000    0.000000    0.000000
  0.031623246   -1.497238  136.883316  -97.078519   15.790643    0.000000    0.000000    0.000000    0.000000
  0.031823647   -1.520707  134.921143  -98.078807   17.284008    0.000000    0.000000    0.000000    0.000000
  0.032024048   -1.542314  132.992569  -98.020844   16.778688    0.000000    0.000000    0.000000    0.000000
  0.032224449   -1.568603  131.069870  -97.250253   11.020915    0.000000    0.000000    0.000000    0.000000
  0.032424850   -1.598111  129.152344  -97.075418   21.990103    0.000000    0.000000    0.000000    0.000000
  0.032625251   -1.631197  127.225197  -98.283293   11.776268    0.000000    0.000000    0.000000    0.000000
  0.032825651   -1.671606  125.280693  -97.236823    8.580398    0.000000    0.000000    0.000000    0.000000
  0.033026052   -1.714133  123.363144  -97.727607   11.409624    0.000000    0.000000    0.000000    0.000000
  0.033226453   -1.757676  121.398270  -97.718349   16.001722    0.000000    0.000000    0.000000    0.000000
  0.033426854   -1.802313  119.416893  -97.372072   10.276018    0.000000    0.000000    0.000000    0.000000
  0.033627255   -1.843326  117.407959  -99.239241   12.113843    0.000000    0.000000    0.000000    0.000000
  0.033827655   -1.888646  115.382553  -98.417994    5.590324    0.000000    0.000000    0.000000    0.000000
  0.034028056   -1.936546  113.340347  -98.704674    9.563703    0.000000    0.000000    0.000000    0.000000
  0.034228457   -1.979632  111.266708  -98.537868   12.636228    0.000000    0.000000    0.000000    0.000000
  0.034428858   -2.023958  109.210678  -98.789871    8.842865    0.000000    0.000000    0.000000    0.000000
  0.034629259   -2.066906  107.136482  -98.958118   10.489562    0.000000    0.000000    0.000000    0.000000
  0.034829659   -2.103075  105.105667  -98.361365    6.058058    0.000000    0.000000    0.000000    0.000000
  0.035030060   -2.144001  103.072182  -97.788838   11.529106    0.000000    0.000000    0.000000    0.000000
  0.035230461   -2.191404  101.079216  -99.233080   28.289970    0.000000    0.000000    0.000000    0.000000
  0.035430862   -2.242523   99.060020  -99.285889   14.552070    0.000000    0.000000    0.000000    0.000000
  0.035631263   -2.304009   97.036240  -97.477247   18.693092    0.000000    0.000000    0.000000    0.000000
  0.035831663   -2.366941   94.944122  -99.417933   14.512692    0.000000    0.000000    0.000000    0.000000
  0.036032064   -2.429262   92.813576  -97.319293   11.955850    0.000000    0.000000    0.000000    0.000000
  0.036232465   -2.486791   90.644096  -97.461836    3.786370    0.000000    0.000000    0.000000    0.000000
  0.036432866   -2.548020   88.444435  -98.714702    6.081040    0.000000    0.000000    0.000000    0.000000
  0.036633267   -2.601407   86.237976  -99.602149   11.729243    0.000000    0.000000    0.000000    0.000000
  0.036833667   -2.650128   84.033012  -98.921330   -2.667689    0.000000    0.000000    0.000000    0.000000
  0.037034068   -2.697580   81.880157  -98.669132    2.996533    0.000000    0.000000    0.000000    0.000000
  0.037234469   -2.746595   79.737595  -99.218370   -0.984872    0.000000    0.000000    0.000000    0.000000
  0.037434870   -2.788088   77.631493  -99.493173   -0.642663    0.000000    0.000000    0.000000    0.000000
  0.037635271   -2.838424   75.571518  -98.950984    7.288858    0.000000    0.000000    0.000000    0.000000
  0.037835671   -2.891582   73.501335 -100.168493    3.888148    0.000000    0.000000    0.000000    0.000000
  0.038036072   -2.951006   71.478882 -100.028309    2.829546    0.000000    0.000000    0.000000    0.000000
  0.038236473   -3.007857   69.437523 -101.211525    2.932050    0.000000    0.000000    0.000000    0.000000
  0.038436874   -3.066051   67.378471  -99.799242    2.901916    0.000000    0.000000    0.000000    0.000000
  0.038637275   -3.131239   65.261375 -100.584101    2.420306    0.000000    0.000000    0.000000    0.000000
  0.038837675   -3.195875   63.109840 -100.528085    6.786957    0.000000    0.000000    0.000000    0.000000
  0.039038076   -3.261838   60.931686 -103.022744   14.162237    0.000000    0.000000    0.000000    0.000000
  0.039238477   -3.319772   58.745022  -99.476060    3.801728    0.000000    0.000000    0.000000    0.000000
  0.039438878   -3.374680   56.559925  -99.989631    2.862785    0.000000    0.000000    0.000000    0.000000
  0.039639279   -3.421913   54.409275 -100.399727   11.842026    0.000000    0.000000    0.000000    0.000000
  0.039839679   -3.466638   52.319344 -100.648001    2.788577    0.000000    0.000000    0.000000    0.000000
  0.040040080   -3.515932   50.271889  -99.480859   17.191700    0.000000    0.000000    0.000000    0.000000
  0.040240481   -3.570290   48.204578 -101.256249   13.461396    0.000000    0.000000    0.000000    0.000000
  0.040440882   -3.631863   46.143291  -98.832441    9.108379    0.000000    0.000000    0.000000    0.000000
  0.040641283   -3.692245   44.064873 -100.200835   14.492724    0.000000    0.000000    0.000000    0.000000
  0.040841683   -3.755425   41.950142  -97.901922   11.637090    0.000000    0.000000    0.000000    0.000000
  0.041042084   -3.819496   39.852818  -99.872287    8.894001    0.000000    0.000000    0.000000    0.000000
  0.041242485   -3.876970   37.753242 -100.050564    0.559751    0.000000    0.000000    0.000000    0.000000
  0.041442886   -3.937928   35.634724  -99.866835   -2.033245    0.000000    0.000000    0.000000    0.000000
  0.041643287   -3.995477   33.528839  -99.768439    1.595071    0.000000    0.000000    0.000000    0.000000
  0.041843687   -4.049957   31.417273 -101.820386    7.803769    0.000000    0.000000    0.000000    0.000000
  0.042044088   -4.100552   29.348841 -100.978386   -0.472982    0.000000    0.000000    0.000000    0.000000
  0.042244489   -4.151886   27.286594 -101.768891    0.498783    0.000000    0.000000    0.000000    0.000000
  0.042444890   -4.205483   25.264071 -102.015674    3.010364    0.000000    0.000000    0.000000    0.000000
  0.042645291   -4.257408   23.238628 -100.505749    4.879543    0.000000    0.000000    0.000000    0.000000
  0.042845691   -4.307290   21.230417 -102.933019   -5.471208    0.000000    0.000000    0.000000    0.000000
  0.043046092   -4.359885   19.178448 -101.667765    4.910231    0.000000    0.000000    0.000000    0.000000
  0.043246493   -4.412222   17.178654 -102.036069   13.044494    0.000000    0.000000    0.000000    0.000000
  0.043446894   -4.467141   15.168713 -102.028757   -2.957851    0.000000    0.000000    0.000000    0.000000
  0.043647295   -4.523011   13.166906 -103.473307   26.928688    0.000000    0.000000    0.000000    0.000000
  0.043847695   -4.577636   11.147120 -101.876648    5.894091    0.000000    0.000000    0.000000    0.000000
  0.044048096   -4.631970    9.143262 -102.340698   19.588669    0.000000    0.000000    0.000000    0.000000
  0.044248497   -4.681660    7.080532 -101.618356    8.667831    0.000000    0.000000    0.000000    0.000000
  0.044448898   -4.726188    5.059008 -101.780661    3.950143    0.000000    0.000000    0.000000    0.000000
  0.044649299   -4.769644    3.032358 -102.017208   15.440918    0.000000    0.000000    0.000000    0.000000
  0.044849699   -4.813770    1.033124 -101.957114   12.872565    0.000000    0.000000    0.000000    0.000000
  0.045050100   -4.860090   -0.956912 -102.012309    4.722947    0.000000    0.000000    0.000000    0.000000
  0.045250501   -4.904276   -2.956841 -102.116073    3.024569    0.000000    0.000000    0.000000    0.000000
  0.045450902   -4.944619   -4.930575 -101.717774   15.280154    0.000000    0.000000    0.000000    0.000000
  0.045651303   -4.981872   -6.933650 -102.565946   -0.897656    0.000000    0.000000    0.000000    0.000000
  0.045851703   -5.015935   -8.894258 -101.136592   -2.824728    0.000000    0.000000    0.000000    0.000000
  0.046052104   -5.048587  -10.846059  -99.606506  -11.609068    0.000000    0.000000    0.000000    0.000000
  0.046252505   -5.077592  -12.786518 -100.685798   -2.944695    0.000000    0.000000    0.000000    0.000000
  0.046452906   -5.108985  -14.694852 -101.229775    2.624118    0.000000    0.000000    0.000000    0.000000
  0.046653307   -5.137562  -16.552366 -102.226048   -0.121976    0.000000    0.000000    0.000000    0.000000
  0.046853707   -5.165305  -18.406969 -103.741703   -4.777366    0.000000    0.000000    0.000000    0.000000
  0.047054108   -5.198074  -20.246927 -102.445991    2.146669    0.000000    0.000000    0.000000    0.000000
  0.047254509   -5.225254  -22.093639 -101.373085   -2.203940    0.000000    0.000000    0.000000    0.000000
  0.047454910   -5.252288  -23.923679 -102.571698    3.813375    0.000000    0.000000    0.000000    0.000000
  0.047655311   -5.278945  -25.709318 -103.394930    0.389912    0.000000    0.000000    0.000000    0.000000
  0.047855711   -5.307569  -27.497074 -103.307114   15.435725    0.000000    0.000000    0.000000    0.000000
  0.048056112   -5.338465  -29.272617 -103.570711    8.217247    0.000000    0.000000    0.000000    0.000000
  0.048256513   -5.366109  -31.060135 -103.215459    7.208076    0.000000    0.000000    0.000000    0.000000
  0.048456914   -5.390765  -32.845657 -105.174552   15.406781    0.000000    0.000000    0.000000    0.000000
  0.048657315   -5.414334  -34.636967 -103.561957   13.079847    0.000000    0.000000    0.000000    0.000000
  0.048857715   -5.437517  -36.389446 -102.370772    9.572253    0.000000    0.000000    0.000000    0.000000
  0.049058116   -5.461453  -38.135277 -101.867557    0.749624    0.000000    0.000000    0.000000    0.000000
  0.049258517   -5.482863  -39.861092 -105.281458   -4.089700    0.000000    0.000000    0.000000    0.000000
  0.049458918   -5.510211  -41.556519 -102.327457    2.234402    0.000000    0.000000    0.000000    0.000000
  0.049659319   -5.533269  -43.308872 -102.891260   -4.722222    0.000000    0.000000    0.000000    0.000000
  0.049859719   -5.558736  -45.041954 -101.932038   10.599379    0.000000    0.000000    0.000000    0.000000
  0.050060120   -5.589673  -46.817474 -101.304451   11.759831    0.000000    0.000000    0.000000    0.000000
  0.050260521   -5.612305  -48.579746 -101.814220   -6.017845    0.000000    0.000000    0.000000    0.000000
  0.050460922   -5.636566  -50.363495 -100.560568   -7.725709    0.000000    0.000000    0.000000    0.000000
  0.050661323   -5.656922  -52.122513 -101.983421   -5.689762    0.000000    0.000000    0.000000    0.000000
  0.050861723   -5.666180  -53.878429 -102.016868   -0.398448    0.000000    0.000000    0.000000    0.000000
  0.051062124   -5.674444  -55.656906 -103.115542    3.702204    0.000000    0.000000    0.000000    0.000000
  0.051262525   -5.681083  -57.367645 -104.467278    0.163484    0.000000    0.000000    0.000000    0.000000
  0.051462926   -5.687292  -59.059032 -104.038600    8.018569    0.000000    0.000000    0.000000    0.000000
  0.051663327   -5.694906  -60.689182 -103.239538   -9.542225    0.000000    0.000000    0.000000    0.000000
  0.051863727   -5.705484  -62.313469 -103.882382   -6.968546    0.000000    0.000000    0.000000    0.000000
  0.052064128   -5.720977  -63.939308 -103.435294   -9.763899    0.000000    0.000000    0.000000    0.000000
  0.052264529   -5.727419  -65.550003 -106.075424   -8.587319    0.000000    0.000000    0.000000    0.000000
  0.052464930   -5.735877  -67.149040 -105.088366   -8.257033    0.000000    0.000000    0.000000    0.000000
  0.052665331   -5.745964  -68.732300 -101.931761    1.146374    0.000000    0.000000    0.000000    0.000000
  0.052865731   -5.756941  -70.303810 -104.299712    7.144725    0.000000    0.000000    0.000000    0.000000
