! Anritsu VNA Master:                     Model: MS2036C/10/77
! SN:                                  1601066
! /card0/usr/18may27.balun/252b.r200.s2p
! Existing Calibration Information:
! TYPE:                         Current Settings,       Active Cal Settings
! TIME:             	   05/27/2018 12:08:29 PM,    05/27/2018 11:54:56 AM
! INTERNAL TEMP:    	                   51.5 C,                    49.3 C
! # POINTS:         	                      500,                       500
! START FREQ:       	               20.000 MHz,                20.000 MHz
! STOP FREQ:        	              120.000 MHz,               120.000 MHz
! SOURCE POWER:     	                     High,                      High
! IFBW:             	                    50 Hz,                     50 Hz
! AVG FACTOR:       	                       1 ,                        1 
! REF PLANE 1:      	                     0 mm,                      0 mm
! REF PLANE 2:      	                     0 mm,                      0 mm
! CAL TYPE:         	                 Full S11,                  Full S11
! CAL METHOD:       	                     SOLT,                      SOLT
! CAL LINE TYPE:    	                     Coax,                      Coax
! DUT PORT 1:       	                K-Conn(M),                 K-Conn(M)
! DUT PORT 2:       	                K-Conn(M),                 K-Conn(M)
! CAL STATUS:       	        OK: Accuracy High,                        --
# GHZ S DB R 50.0
! FREQ.GHZ       S11DB        S11A       S21DB        S21A       S12DB        S12A       S22DB        S22A
  0.020000000   -4.543192  -21.832644  -90.457899   39.518234    0.000000    0.000000    0.000000    0.000000
  0.020200401   -4.544020  -22.041092  -90.707935   38.492653    0.000000    0.000000    0.000000    0.000000
  0.020400802   -4.540978  -22.245815  -90.582552   37.201061    0.000000    0.000000    0.000000    0.000000
  0.020601202   -4.539545  -22.432287  -91.306124   33.198982    0.000000    0.000000    0.000000    0.000000
  0.020801603   -4.540745  -22.628593  -91.413098   31.448656    0.000000    0.000000    0.000000    0.000000
  0.021002004   -4.541738  -22.818365  -91.337175   32.142906    0.000000    0.000000    0.000000    0.000000
  0.021202405   -4.542128  -23.026924  -91.791614   28.987619    0.000000    0.000000    0.000000    0.000000
  0.021402806   -4.546259  -23.223579  -91.661163   27.974878    0.000000    0.000000    0.000000    0.000000
  0.021603206   -4.550246  -23.415451  -91.751137   27.648975    0.000000    0.000000    0.000000    0.000000
  0.021803607   -4.554267  -23.612307  -92.133511   28.595818    0.000000    0.000000    0.000000    0.000000
  0.022004008   -4.558421  -23.829603  -91.983666   29.786308    0.000000    0.000000    0.000000    0.000000
  0.022204409   -4.562449  -24.041901  -92.534231   27.982592    0.000000    0.000000    0.000000    0.000000
  0.022404810   -4.566205  -24.249361  -92.819897   30.111128    0.000000    0.000000    0.000000    0.000000
  0.022605210   -4.572381  -24.496355  -93.450642   26.280622    0.000000    0.000000    0.000000    0.000000
  0.022805611   -4.574557  -24.754881  -93.369824   30.019388    0.000000    0.000000    0.000000    0.000000
  0.023006012   -4.576445  -25.011898  -93.130270   25.561949    0.000000    0.000000    0.000000    0.000000
  0.023206413   -4.575013  -25.292494  -93.291988   28.588511    0.000000    0.000000    0.000000    0.000000
  0.023406814   -4.574631  -25.541477  -93.848755   29.480019    0.000000    0.000000    0.000000    0.000000
  0.023607214   -4.572361  -25.826195  -93.424824   29.896393    0.000000    0.000000    0.000000    0.000000
  0.023807615   -4.572842  -26.082973  -93.432018   30.227686    0.000000    0.000000    0.000000    0.000000
  0.024008016   -4.570580  -26.355629  -94.331958   34.454666    0.000000    0.000000    0.000000    0.000000
  0.024208417   -4.569696  -26.585953  -92.961633   35.406254    0.000000    0.000000    0.000000    0.000000
  0.024408818   -4.570390  -26.806084  -93.119768   27.583981    0.000000    0.000000    0.000000    0.000000
  0.024609218   -4.571840  -27.017361  -93.485387   31.432592    0.000000    0.000000    0.000000    0.000000
  0.024809619   -4.570205  -27.229214  -93.824689   28.494177    0.000000    0.000000    0.000000    0.000000
  0.025010020   -4.569534  -27.430599  -93.698022   26.444044    0.000000    0.000000    0.000000    0.000000
  0.025210421   -4.568125  -27.655594  -94.131470   25.043911    0.000000    0.000000    0.000000    0.000000
  0.025410822   -4.566882  -27.865555  -94.502523   26.507004    0.000000    0.000000    0.000000    0.000000
  0.025611222   -4.564897  -28.075560  -93.478781   20.139299    0.000000    0.000000    0.000000    0.000000
  0.025811623   -4.563135  -28.273352  -93.645674   25.139521    0.000000    0.000000    0.000000    0.000000
  0.026012024   -4.562990  -28.484272  -94.504041   21.747330    0.000000    0.000000    0.000000    0.000000
  0.026212425   -4.562096  -28.692902  -95.076780   19.499765    0.000000    0.000000    0.000000    0.000000
  0.026412826   -4.562909  -28.921404  -94.899820   18.013723    0.000000    0.000000    0.000000    0.000000
  0.026613226   -4.562392  -29.113293  -95.678853   18.379114    0.000000    0.000000    0.000000    0.000000
  0.026813627   -4.560188  -29.296154  -95.866168   10.523589    0.000000    0.000000    0.000000    0.000000
  0.027014028   -4.563578  -29.461607  -95.490685   16.204260    0.000000    0.000000    0.000000    0.000000
  0.027214429   -4.569212  -29.616018  -95.392187   20.740162    0.000000    0.000000    0.000000    0.000000
  0.027414830   -4.573658  -29.803152  -96.334689   15.823146    0.000000    0.000000    0.000000    0.000000
  0.027615230   -4.579220  -30.008739  -96.000905   18.902025    0.000000    0.000000    0.000000    0.000000
  0.027815631   -4.588694  -30.246458  -95.577027   19.637602    0.000000    0.000000    0.000000    0.000000
  0.028016032   -4.598115  -30.509192  -95.814049   18.370787    0.000000    0.000000    0.000000    0.000000
  0.028216433   -4.600776  -30.797138  -96.961561   21.315096    0.000000    0.000000    0.000000    0.000000
  0.028416834   -4.599662  -31.118841  -95.926205   18.777639    0.000000    0.000000    0.000000    0.000000
  0.028617234   -4.597076  -31.413847  -96.405388   20.494759    0.000000    0.000000    0.000000    0.000000
  0.028817635   -4.594741  -31.714279  -96.025225   17.481430    0.000000    0.000000    0.000000    0.000000
  0.029018036   -4.591349  -32.001541  -95.861457   21.328650    0.000000    0.000000    0.000000    0.000000
  0.029218437   -4.585655  -32.259205  -95.517557   20.827909    0.000000    0.000000    0.000000    0.000000
  0.029418838   -4.578688  -32.483692  -95.848968   23.655071    0.000000    0.000000    0.000000    0.000000
  0.029619238   -4.573282  -32.693871  -97.267469   19.219769    0.000000    0.000000    0.000000    0.000000
  0.029819639   -4.565398  -32.874893  -96.368818   13.524921    0.000000    0.000000    0.000000    0.000000
  0.030020040   -4.558173  -33.030334  -96.352012   24.097685    0.000000    0.000000    0.000000    0.000000
  0.030220441   -4.555104  -33.211800  -96.602143   12.131501    0.000000    0.000000    0.000000    0.000000
  0.030420842   -4.556460  -33.422729  -96.266954   20.142929    0.000000    0.000000    0.000000    0.000000
  0.030621242   -4.555439  -33.613121  -96.747318   16.442701    0.000000    0.000000    0.000000    0.000000
  0.030821643   -4.555095  -33.811874  -97.062728    8.287066    0.000000    0.000000    0.000000    0.000000
  0.031022044   -4.555127  -34.007275  -97.137894   12.990224    0.000000    0.000000    0.000000    0.000000
  0.031222445   -4.547803  -34.150524  -96.782236    8.976390    0.000000    0.000000    0.000000    0.000000
  0.031422846   -4.553909  -34.353180  -97.573982   17.954771    0.000000    0.000000    0.000000    0.000000
  0.031623246   -4.556058  -34.534981  -97.984276   13.883706    0.000000    0.000000    0.000000    0.000000
  0.031823647   -4.557380  -34.738693  -98.763410    8.042623    0.000000    0.000000    0.000000    0.000000
  0.032024048   -4.557636  -34.890598  -97.783751    5.906454    0.000000    0.000000    0.000000    0.000000
  0.032224449   -4.559033  -35.099300  -97.189168   14.493926    0.000000    0.000000    0.000000    0.000000
  0.032424850   -4.557109  -35.260006  -98.625058   19.473124    0.000000    0.000000    0.000000    0.000000
  0.032625251   -4.554649  -35.427471  -96.357802    9.770941    0.000000    0.000000    0.000000    0.000000
  0.032825651   -4.557590  -35.592957  -99.381910    3.179947    0.000000    0.000000    0.000000    0.000000
  0.033026052   -4.564583  -35.756760  -99.572594   16.507769    0.000000    0.000000    0.000000    0.000000
  0.033226453   -4.578102  -35.936882  -97.270017   12.579766    0.000000    0.000000    0.000000    0.000000
  0.033426854   -4.587545  -36.162025  -98.186748   13.224937    0.000000    0.000000    0.000000    0.000000
  0.033627255   -4.597947  -36.443695  -97.713595    4.942854    0.000000    0.000000    0.000000    0.000000
  0.033827655   -4.606570  -36.753494  -97.636025   11.756732    0.000000    0.000000    0.000000    0.000000
  0.034028056   -4.612680  -37.082893  -97.940826   19.586163    0.000000    0.000000    0.000000    0.000000
  0.034228457   -4.618340  -37.377415  -97.317132    6.893191    0.000000    0.000000    0.000000    0.000000
  0.034428858   -4.619634  -37.677353  -97.965452   17.521631    0.000000    0.000000    0.000000    0.000000
  0.034629259   -4.613685  -37.977299  -98.501547   12.821907    0.000000    0.000000    0.000000    0.000000
  0.034829659   -4.609241  -38.291698  -99.483718    4.574831    0.000000    0.000000    0.000000    0.000000
  0.035030060   -4.599999  -38.582127  -98.954425   11.826134    0.000000    0.000000    0.000000    0.000000
  0.035230461   -4.592267  -38.854111  -99.098165    8.725282    0.000000    0.000000    0.000000    0.000000
  0.035430862   -4.585870  -39.073959  -98.783802   10.618259    0.000000    0.000000    0.000000    0.000000
  0.035631263   -4.581317  -39.293423  -99.289499    0.880195    0.000000    0.000000    0.000000    0.000000
  0.035831663   -4.579778  -39.502182  -98.955179   10.799018    0.000000    0.000000    0.000000    0.000000
  0.036032064   -4.580084  -39.720215 -100.661195    7.305294    0.000000    0.000000    0.000000    0.000000
  0.036232465   -4.584159  -39.938744  -98.572211    6.519650    0.000000    0.000000    0.000000    0.000000
  0.036432866   -4.580422  -40.173271 -100.971459   -3.841737    0.000000    0.000000    0.000000    0.000000
  0.036633267   -4.582549  -40.392628  -98.893019   -0.694225    0.000000    0.000000    0.000000    0.000000
  0.036833667   -4.581772  -40.606617  -98.631723    5.083443    0.000000    0.000000    0.000000    0.000000
  0.037034068   -4.583639  -40.833752  -99.749199    8.671333    0.000000    0.000000    0.000000    0.000000
  0.037234469   -4.580332  -41.020466  -98.393184    7.108479    0.000000    0.000000    0.000000    0.000000
  0.037434870   -4.580389  -41.187641  -98.554371    8.967313    0.000000    0.000000    0.000000    0.000000
  0.037635271   -4.574001  -41.384918  -99.777101   21.233021    0.000000    0.000000    0.000000    0.000000
  0.037835671   -4.570026  -41.592457  -98.962345   12.313349    0.000000    0.000000    0.000000    0.000000
  0.038036072   -4.564076  -41.799866 -100.244341   25.131718    0.000000    0.000000    0.000000    0.000000
  0.038236473   -4.557487  -41.975567 -100.265925    8.480487    0.000000    0.000000    0.000000    0.000000
  0.038436874   -4.557331  -42.096146  -98.202157   15.868772    0.000000    0.000000    0.000000    0.000000
  0.038637275   -4.561740  -42.237602 -100.860775   18.875166    0.000000    0.000000    0.000000    0.000000
  0.038837675   -4.571105  -42.403839  -99.142058   10.276475    0.000000    0.000000    0.000000    0.000000
  0.039038076   -4.582073  -42.612854  -99.285845   -0.716275    0.000000    0.000000    0.000000    0.000000
  0.039238477   -4.594301  -42.836155  -99.807795   14.175251    0.000000    0.000000    0.000000    0.000000
  0.039438878   -4.600289  -43.095596  -99.463823   10.322206    0.000000    0.000000    0.000000    0.000000
  0.039639279   -4.606565  -43.344078  -99.655947    0.187789    0.000000    0.000000    0.000000    0.000000
  0.039839679   -4.612100  -43.590736 -100.294045    8.351510    0.000000    0.000000    0.000000    0.000000
  0.040040080   -4.609649  -43.865139  -99.494749    8.115485    0.000000    0.000000    0.000000    0.000000
  0.040240481   -4.606458  -44.112709 -100.036704   -0.758131    0.000000    0.000000    0.000000    0.000000
  0.040440882   -4.600253  -44.369183 -101.017847    5.610341    0.000000    0.000000    0.000000    0.000000
  0.040641283   -4.596125  -44.580898 -101.431199   10.748453    0.000000    0.000000    0.000000    0.000000
  0.040841683   -4.589361  -44.777420  -99.917999    3.464983    0.000000    0.000000    0.000000    0.000000
  0.041042084   -4.591436  -44.960545 -100.744657    3.672955    0.000000    0.000000    0.000000    0.000000
  0.041242485   -4.596237  -45.142155 -100.568136   -1.275632    0.000000    0.000000    0.000000    0.000000
  0.041442886   -4.599480  -45.338631 -101.556822   -0.404483    0.000000    0.000000    0.000000    0.000000
  0.041643287   -4.605054  -45.584419 -102.856590    1.738967    0.000000    0.000000    0.000000    0.000000
  0.041843687   -4.613286  -45.823895 -103.021404    4.149665    0.000000    0.000000    0.000000    0.000000
  0.042044088   -4.617942  -46.074924 -102.749242    2.166197    0.000000    0.000000    0.000000    0.000000
  0.042244489   -4.620174  -46.281372 -103.918610    8.332003    0.000000    0.000000    0.000000    0.000000
  0.042444890   -4.622804  -46.519825 -101.547998   12.854104    0.000000    0.000000    0.000000    0.000000
  0.042645291   -4.625229  -46.768143 -102.372421    7.351218    0.000000    0.000000    0.000000    0.000000
  0.042845691   -4.628317  -47.014988 -102.774742   11.173864    0.000000    0.000000    0.000000    0.000000
  0.043046092   -4.625203  -47.282604 -101.914969   19.287235    0.000000    0.000000    0.000000    0.000000
  0.043246493   -4.623185  -47.544384 -100.647972    8.208362    0.000000    0.000000    0.000000    0.000000
  0.043446894   -4.616581  -47.825531 -101.327775   -2.885205    0.000000    0.000000    0.000000    0.000000
  0.043647295   -4.611783  -48.048382 -100.831580   13.367168    0.000000    0.000000    0.000000    0.000000
  0.043847695   -4.608845  -48.258629 -101.540311    9.431596    0.000000    0.000000    0.000000    0.000000
  0.044048096   -4.611106  -48.443527 -103.722862    6.508788    0.000000    0.000000    0.000000    0.000000
  0.044248497   -4.617085  -48.671974 -101.143758    5.289154    0.000000    0.000000    0.000000    0.000000
  0.044448898   -4.624270  -48.934319 -101.772919    3.016529    0.000000    0.000000    0.000000    0.000000
  0.044649299   -4.626722  -49.203056 -101.679172   13.147840    0.000000    0.000000    0.000000    0.000000
  0.044849699   -4.628285  -49.492558 -101.173667    6.386909    0.000000    0.000000    0.000000    0.000000
  0.045050100   -4.629893  -49.766994  -99.288831    7.171913    0.000000    0.000000    0.000000    0.000000
  0.045250501   -4.623532  -50.042065 -100.543294   -1.381344    0.000000    0.000000    0.000000    0.000000
  0.045450902   -4.615963  -50.316307 -103.438039    8.225446    0.000000    0.000000    0.000000    0.000000
  0.045651303   -4.607782  -50.572430 -103.393080   -1.353621    0.000000    0.000000    0.000000    0.000000
  0.045851703   -4.596517  -50.827065 -103.405241  -12.572634    0.000000    0.000000    0.000000    0.000000
  0.046052104   -4.584779  -51.010029 -102.892983    2.786057    0.000000    0.000000    0.000000    0.000000
  0.046252505   -4.576479  -51.194794 -103.011953    2.260584    0.000000    0.000000    0.000000    0.000000
  0.046452906   -4.573455  -51.360386 -103.640213   -4.762647    0.000000    0.000000    0.000000    0.000000
  0.046653307   -4.576055  -51.492523 -100.888005    8.082947    0.000000    0.000000    0.000000    0.000000
  0.046853707   -4.577334  -51.640682 -103.197404    4.739889    0.000000    0.000000    0.000000    0.000000
  0.047054108   -4.579302  -51.803162 -104.008538    9.170341    0.000000    0.000000    0.000000    0.000000
  0.047254509   -4.578991  -51.974655 -104.646742    4.754527    0.000000    0.000000    0.000000    0.000000
  0.047454910   -4.580721  -52.109066 -106.225546    7.182889    0.000000    0.000000    0.000000    0.000000
  0.047655311   -4.583779  -52.267952 -103.493518    5.278990    0.000000    0.000000    0.000000    0.000000
  0.047855711   -4.590798  -52.434704 -102.374572   14.458816    0.000000    0.000000    0.000000    0.000000
  0.048056112   -4.593547  -52.603577 -104.970063   -0.455637    0.000000    0.000000    0.000000    0.000000
  0.048256513   -4.596314  -52.787350 -105.461633  -19.575207    0.000000    0.000000    0.000000    0.000000
  0.048456914   -4.598266  -53.002525 -102.411638    6.595622    0.000000    0.000000    0.000000    0.000000
  0.048657315   -4.597366  -53.199421 -102.939441   -0.088829    0.000000    0.000000    0.000000    0.000000
  0.048857715   -4.599571  -53.396191 -107.459952   20.638863    0.000000    0.000000    0.000000    0.000000
  0.049058116   -4.604979  -53.558346 -101.926339    5.973101    0.000000    0.000000    0.000000    0.000000
  0.049258517   -4.609283  -53.735260 -104.207066   12.621760    0.000000    0.000000    0.000000    0.000000
  0.049458918   -4.619324  -53.931557 -100.555116   19.211754    0.000000    0.000000    0.000000    0.000000
  0.049659319   -4.628448  -54.179455 -101.540034    6.265702    0.000000    0.000000    0.000000    0.000000
  0.049859719   -4.637952  -54.421028 -101.163457   -6.714815    0.000000    0.000000    0.000000    0.000000
  0.050060120   -4.648535  -54.707523 -103.167639   13.092317    0.000000    0.000000    0.000000    0.000000
  0.050260521   -4.655532  -54.992752 -102.591191    3.336025    0.000000    0.000000    0.000000    0.000000
  0.050460922   -4.663286  -55.297626 -101.862448    5.501715    0.000000    0.000000    0.000000    0.000000
  0.050661323   -4.666458  -55.626801 -104.179642    7.396618    0.000000    0.000000    0.000000    0.000000
  0.050861723   -4.661279  -55.943871 -101.678833    4.103297    0.000000    0.000000    0.000000    0.000000
  0.051062124   -4.655311  -56.281605 -102.816382    2.746947    0.000000    0.000000    0.000000    0.000000
  0.051262525   -4.647387  -56.550591 -103.723243  -16.809647    0.000000    0.000000    0.000000    0.000000
  0.051462926   -4.643147  -56.837555 -103.725236  -15.074046    0.000000    0.000000    0.000000    0.000000
  0.051663327   -4.636554  -57.063759 -103.133583   -0.722229    0.000000    0.000000    0.000000    0.000000
  0.051863727   -4.634877  -57.298988 -103.254425   -6.823428    0.000000    0.000000    0.000000    0.000000
  0.052064128   -4.634762  -57.535992 -102.315622    8.842807    0.000000    0.000000    0.000000    0.000000
  0.052264529   -4.631326  -57.778442 -101.400067   -3.725353    0.000000    0.000000    0.000000    0.000000
  0.052464930   -4.628334  -57.999001 -105.994063   14.113992    0.000000    0.000000    0.000000    0.000000
  0.052665331   -4.625755  -58.207561 -103.506422    9.761922    0.000000    0.000000    0.000000    0.000000
  0.052865731   -4.626357  -58.409046 -104.748116   -3.331993    0.000000    0.000000    0.000000    0.000000
