! Anritsu VNA Master:                     Model: MS2036C/10/77
! SN:                                  1601066
! /card0/usr/18may27.balun/252b.r200.2.s2p
! Existing Calibration Information:
! TYPE:                         Current Settings,       Active Cal Settings
! TIME:             	   05/27/2018 12:38:43 PM,    05/27/2018 12:21:44 PM
! INTERNAL TEMP:    	                   53.3 C,                    53.3 C
! # POINTS:         	                      500,                       500
! START FREQ:       	               20.000 MHz,                20.000 MHz
! STOP FREQ:        	              120.000 MHz,               120.000 MHz
! SOURCE POWER:     	                     High,                      High
! IFBW:             	                    50 Hz,                     50 Hz
! AVG FACTOR:       	                       1 ,                        1 
! REF PLANE 1:      	                     0 mm,                      0 mm
! REF PLANE 2:      	                     0 mm,                      0 mm
! CAL TYPE:         	                 Full S11,                  Full S11
! CAL METHOD:       	                     SOLT,                      SOLT
! CAL LINE TYPE:    	                     Coax,                      Coax
! DUT PORT 1:       	                K-Conn(M),                 K-Conn(M)
! DUT PORT 2:       	                K-Conn(M),                 K-Conn(M)
! CAL STATUS:       	        OK: Accuracy High,                        --
# GHZ S DB R 50.0
! FREQ.GHZ       S11DB        S11A       S21DB        S21A       S12DB        S12A       S22DB        S22A
  0.020000000   -4.560619  -22.928143  -91.145136   37.180389    0.000000    0.000000    0.000000    0.000000
  0.020200401   -4.559657  -23.183445  -91.212333   36.220791    0.000000    0.000000    0.000000    0.000000
  0.020400802   -4.558522  -23.467398  -90.514183   38.603428    0.000000    0.000000    0.000000    0.000000
  0.020601202   -4.558871  -23.728477  -90.863261   33.523949    0.000000    0.000000    0.000000    0.000000
  0.020801603   -4.555641  -24.002062  -90.955619   35.818954    0.000000    0.000000    0.000000    0.000000
  0.021002004   -4.554964  -24.293385  -91.209365   32.398296    0.000000    0.000000    0.000000    0.000000
  0.021202405   -4.554996  -24.577469  -91.676157   30.831398    0.000000    0.000000    0.000000    0.000000
  0.021402806   -4.549852  -24.849796  -92.007950   26.578527    0.000000    0.000000    0.000000    0.000000
  0.021603206   -4.548943  -25.096823  -92.342168   31.867487    0.000000    0.000000    0.000000    0.000000
  0.021803607   -4.546180  -25.328766  -91.932613   28.802187    0.000000    0.000000    0.000000    0.000000
  0.022004008   -4.541766  -25.567692  -92.603997   29.268972    0.000000    0.000000    0.000000    0.000000
  0.022204409   -4.536992  -25.779514  -92.055760   23.270399    0.000000    0.000000    0.000000    0.000000
  0.022404810   -4.533281  -25.962782  -92.891805   30.189573    0.000000    0.000000    0.000000    0.000000
  0.022605210   -4.530304  -26.165104  -92.977421   27.194305    0.000000    0.000000    0.000000    0.000000
  0.022805611   -4.526951  -26.384508  -93.774282   26.500612    0.000000    0.000000    0.000000    0.000000
  0.023006012   -4.522488  -26.573849  -93.450191   25.709854    0.000000    0.000000    0.000000    0.000000
  0.023206413   -4.517714  -26.756222  -94.167853   26.939716    0.000000    0.000000    0.000000    0.000000
  0.023406814   -4.516321  -26.927851  -93.607868   26.865526    0.000000    0.000000    0.000000    0.000000
  0.023607214   -4.515854  -27.131723  -94.181809   27.670929    0.000000    0.000000    0.000000    0.000000
  0.023807615   -4.517096  -27.318659  -93.392704   30.516796    0.000000    0.000000    0.000000    0.000000
  0.024008016   -4.519536  -27.493891  -93.914049   27.484562    0.000000    0.000000    0.000000    0.000000
  0.024208417   -4.522110  -27.671917  -93.278053   29.394461    0.000000    0.000000    0.000000    0.000000
  0.024408818   -4.531485  -27.857674  -93.759829   28.567940    0.000000    0.000000    0.000000    0.000000
  0.024609218   -4.538953  -28.053072  -93.988746   29.736729    0.000000    0.000000    0.000000    0.000000
  0.024809619   -4.547126  -28.245932  -93.466776   27.563812    0.000000    0.000000    0.000000    0.000000
  0.025010020   -4.552902  -28.490358  -93.521367   24.421112    0.000000    0.000000    0.000000    0.000000
  0.025210421   -4.560518  -28.726414  -93.489082   25.157196    0.000000    0.000000    0.000000    0.000000
  0.025410822   -4.566017  -28.998428  -94.113364   20.636070    0.000000    0.000000    0.000000    0.000000
  0.025611222   -4.569406  -29.282822  -93.911131   21.735195    0.000000    0.000000    0.000000    0.000000
  0.025811623   -4.571427  -29.588524  -94.353636   19.169334    0.000000    0.000000    0.000000    0.000000
  0.026012024   -4.574140  -29.881250  -94.273213   22.972406    0.000000    0.000000    0.000000    0.000000
  0.026212425   -4.576243  -30.187384  -94.417271   20.558140    0.000000    0.000000    0.000000    0.000000
  0.026412826   -4.572630  -30.505182  -94.837269   18.791471    0.000000    0.000000    0.000000    0.000000
  0.026613226   -4.566668  -30.780651  -94.485559   17.525959    0.000000    0.000000    0.000000    0.000000
  0.026813627   -4.560909  -31.046471  -95.132339   16.145895    0.000000    0.000000    0.000000    0.000000
  0.027014028   -4.555819  -31.267086  -94.679622   15.779957    0.000000    0.000000    0.000000    0.000000
  0.027214429   -4.553125  -31.470284  -95.712320   27.357897    0.000000    0.000000    0.000000    0.000000
  0.027414830   -4.549956  -31.659016  -95.750636   15.279314    0.000000    0.000000    0.000000    0.000000
  0.027615230   -4.549750  -31.864117  -96.188747   19.938158    0.000000    0.000000    0.000000    0.000000
  0.027815631   -4.546952  -32.081100  -95.560999   16.490992    0.000000    0.000000    0.000000    0.000000
  0.028016032   -4.553655  -32.298351  -96.147559   20.347067    0.000000    0.000000    0.000000    0.000000
  0.028216433   -4.551383  -32.519123  -96.609946   18.655596    0.000000    0.000000    0.000000    0.000000
  0.028416834   -4.546744  -32.753273  -96.530797   17.560560    0.000000    0.000000    0.000000    0.000000
  0.028617234   -4.539708  -32.979362  -96.167877   18.916147    0.000000    0.000000    0.000000    0.000000
  0.028817635   -4.537661  -33.199707  -95.542488   18.585300    0.000000    0.000000    0.000000    0.000000
  0.029018036   -4.537469  -33.404507  -97.050441   17.644659    0.000000    0.000000    0.000000    0.000000
  0.029218437   -4.537396  -33.584316  -97.262949   20.881134    0.000000    0.000000    0.000000    0.000000
  0.029418838   -4.537002  -33.761578  -96.756951   20.180014    0.000000    0.000000    0.000000    0.000000
  0.029619238   -4.536725  -33.905010  -96.020793   17.125584    0.000000    0.000000    0.000000    0.000000
  0.029819639   -4.539330  -34.048237  -96.569682   21.810728    0.000000    0.000000    0.000000    0.000000
  0.030020040   -4.541165  -34.206573  -96.729716   21.170258    0.000000    0.000000    0.000000    0.000000
  0.030220441   -4.551139  -34.414669  -96.975500   14.478604    0.000000    0.000000    0.000000    0.000000
  0.030420842   -4.560543  -34.656670  -96.427614   15.737545    0.000000    0.000000    0.000000    0.000000
  0.030621242   -4.568862  -34.925014  -96.067015   16.536844    0.000000    0.000000    0.000000    0.000000
  0.030821643   -4.578644  -35.208778  -97.303691   14.374768    0.000000    0.000000    0.000000    0.000000
  0.031022044   -4.585407  -35.498302  -96.755895   15.368159    0.000000    0.000000    0.000000    0.000000
  0.031222445   -4.583121  -35.759941  -96.441424   12.364535    0.000000    0.000000    0.000000    0.000000
  0.031422846   -4.589116  -36.073479  -97.306127   14.714309    0.000000    0.000000    0.000000    0.000000
  0.031623246   -4.595746  -36.396358  -97.261417   14.596418    0.000000    0.000000    0.000000    0.000000
  0.031823647   -4.594463  -36.729698  -98.218070   16.342264    0.000000    0.000000    0.000000    0.000000
  0.032024048   -4.591117  -37.019161  -98.247146   10.731244    0.000000    0.000000    0.000000    0.000000
  0.032224449   -4.584800  -37.302391  -97.777612    6.142120    0.000000    0.000000    0.000000    0.000000
  0.032424850   -4.573701  -37.568584  -98.100133    2.864994    0.000000    0.000000    0.000000    0.000000
  0.032625251   -4.564579  -37.837143  -97.815601    7.697621    0.000000    0.000000    0.000000    0.000000
  0.032825651   -4.554538  -38.020298  -98.115106   16.046032    0.000000    0.000000    0.000000    0.000000
  0.033026052   -4.551705  -38.198742  -98.026548   21.151239    0.000000    0.000000    0.000000    0.000000
  0.033226453   -4.549442  -38.374435  -99.293163   18.753500    0.000000    0.000000    0.000000    0.000000
  0.033426854   -4.550674  -38.570702  -98.618148   13.587770    0.000000    0.000000    0.000000    0.000000
  0.033627255   -4.552756  -38.791672  -98.413902   21.538910    0.000000    0.000000    0.000000    0.000000
  0.033827655   -4.552512  -39.023556  -97.382281    5.159795    0.000000    0.000000    0.000000    0.000000
  0.034028056   -4.555095  -39.274433  -98.452030   17.349821    0.000000    0.000000    0.000000    0.000000
  0.034228457   -4.556059  -39.450302  -98.355395    7.660235    0.000000    0.000000    0.000000    0.000000
  0.034428858   -4.553949  -39.681274  -97.963389    8.947136    0.000000    0.000000    0.000000    0.000000
  0.034629259   -4.547669  -39.881336  -97.950733   13.425035    0.000000    0.000000    0.000000    0.000000
  0.034829659   -4.550404  -40.099747  -98.136798    6.676231    0.000000    0.000000    0.000000    0.000000
  0.035030060   -4.542085  -40.264400  -97.907858   12.636922    0.000000    0.000000    0.000000    0.000000
  0.035230461   -4.541825  -40.460575  -99.392534    5.821433    0.000000    0.000000    0.000000    0.000000
  0.035430862   -4.542746  -40.641701  -99.176203    8.404041    0.000000    0.000000    0.000000    0.000000
  0.035631263   -4.550548  -40.814777 -100.069127    6.888858    0.000000    0.000000    0.000000    0.000000
  0.035831663   -4.558017  -41.000908  -98.484107   10.776489    0.000000    0.000000    0.000000    0.000000
  0.036032064   -4.567597  -41.233929  -99.480996   -0.457128    0.000000    0.000000    0.000000    0.000000
  0.036232465   -4.577658  -41.482956 -100.331293    5.554515    0.000000    0.000000    0.000000    0.000000
  0.036432866   -4.584815  -41.754787 -100.684489    0.130531    0.000000    0.000000    0.000000    0.000000
  0.036633267   -4.593612  -42.048664  -99.731820   -1.374877    0.000000    0.000000    0.000000    0.000000
  0.036833667   -4.601600  -42.350132 -102.798363   14.534106    0.000000    0.000000    0.000000    0.000000
  0.037034068   -4.606928  -42.650116  -99.453987    7.437827    0.000000    0.000000    0.000000    0.000000
  0.037234469   -4.607395  -42.924194 -100.568696    4.624946    0.000000    0.000000    0.000000    0.000000
  0.037434870   -4.606181  -43.216236  -99.523496    2.722453    0.000000    0.000000    0.000000    0.000000
  0.037635271   -4.599821  -43.501400  -99.442139   17.423075    0.000000    0.000000    0.000000    0.000000
  0.037835671   -4.594153  -43.784565  -99.263608    7.027839    0.000000    0.000000    0.000000    0.000000
  0.038036072   -4.585652  -44.072102  -99.648666    7.376639    0.000000    0.000000    0.000000    0.000000
  0.038236473   -4.575200  -44.286812 -100.061231   10.698216    0.000000    0.000000    0.000000    0.000000
  0.038436874   -4.568302  -44.466312  -98.952588   13.928168    0.000000    0.000000    0.000000    0.000000
  0.038637275   -4.565435  -44.632679  -99.824045    8.555002    0.000000    0.000000    0.000000    0.000000
  0.038837675   -4.570169  -44.830502  -99.812182    9.148600    0.000000    0.000000    0.000000    0.000000
  0.039038076   -4.577933  -45.022991  -99.711625   14.614684    0.000000    0.000000    0.000000    0.000000
  0.039238477   -4.586269  -45.254032  -99.922853    2.737580    0.000000    0.000000    0.000000    0.000000
  0.039438878   -4.593686  -45.495926  -99.172997   14.407794    0.000000    0.000000    0.000000    0.000000
  0.039639279   -4.595235  -45.730034  -99.203670   10.480495    0.000000    0.000000    0.000000    0.000000
  0.039839679   -4.596580  -45.967037 -100.086008    7.539392    0.000000    0.000000    0.000000    0.000000
  0.040040080   -4.594435  -46.218502  -99.514781    2.687153    0.000000    0.000000    0.000000    0.000000
  0.040240481   -4.592012  -46.458195  -99.795971    5.612415    0.000000    0.000000    0.000000    0.000000
  0.040440882   -4.585609  -46.708073 -100.405105    1.774059    0.000000    0.000000    0.000000    0.000000
  0.040641283   -4.582824  -46.937469  -99.385358    0.729734    0.000000    0.000000    0.000000    0.000000
  0.040841683   -4.582828  -47.124844 -100.997668   -3.778820    0.000000    0.000000    0.000000    0.000000
  0.041042084   -4.582175  -47.330963 -100.114495    7.187363    0.000000    0.000000    0.000000    0.000000
  0.041242485   -4.589950  -47.550415 -101.064552  -10.486564    0.000000    0.000000    0.000000    0.000000
  0.041442886   -4.594245  -47.795479 -102.308411    2.491723    0.000000    0.000000    0.000000    0.000000
  0.041643287   -4.601156  -48.059673 -102.088148    5.970206    0.000000    0.000000    0.000000    0.000000
  0.041843687   -4.606571  -48.332264 -101.400237    1.225997    0.000000    0.000000    0.000000    0.000000
  0.042044088   -4.611857  -48.625851 -100.584631   11.212928    0.000000    0.000000    0.000000    0.000000
  0.042244489   -4.609381  -48.895397 -102.552265    4.622439    0.000000    0.000000    0.000000    0.000000
  0.042444890   -4.609189  -49.158516 -102.012485    1.688330    0.000000    0.000000    0.000000    0.000000
  0.042645291   -4.608294  -49.425846 -100.748648   -2.817127    0.000000    0.000000    0.000000    0.000000
  0.042845691   -4.604906  -49.689789 -102.906143   15.376598    0.000000    0.000000    0.000000    0.000000
  0.043046092   -4.596621  -49.969604  -99.314768    5.676136    0.000000    0.000000    0.000000    0.000000
  0.043246493   -4.587298  -50.220501 -105.351968   15.009578    0.000000    0.000000    0.000000    0.000000
  0.043446894   -4.573376  -50.446487 -101.819368    9.420650    0.000000    0.000000    0.000000    0.000000
  0.043647295   -4.565828  -50.638664 -100.182358   16.757900    0.000000    0.000000    0.000000    0.000000
  0.043847695   -4.560112  -50.780308 -101.292728    5.102627    0.000000    0.000000    0.000000    0.000000
  0.044048096   -4.561226  -50.898998 -101.681132    6.841063    0.000000    0.000000    0.000000    0.000000
  0.044248497   -4.565676  -51.038601 -100.882295   13.063393    0.000000    0.000000    0.000000    0.000000
  0.044448898   -4.572389  -51.192833 -101.526877    4.803078    0.000000    0.000000    0.000000    0.000000
  0.044649299   -4.579600  -51.380791 -101.134563    9.237654    0.000000    0.000000    0.000000    0.000000
  0.044849699   -4.587848  -51.589211 -101.509362    3.982661    0.000000    0.000000    0.000000    0.000000
  0.045050100   -4.598405  -51.801449 -101.746650    7.297435    0.000000    0.000000    0.000000    0.000000
  0.045250501   -4.601571  -52.018623  -99.770807    2.903498    0.000000    0.000000    0.000000    0.000000
  0.045450902   -4.605763  -52.252113 -100.098950   -4.176612    0.000000    0.000000    0.000000    0.000000
  0.045651303   -4.607244  -52.486305 -100.636556   -1.433249    0.000000    0.000000    0.000000    0.000000
  0.045851703   -4.609647  -52.746071 -101.249829    3.852076    0.000000    0.000000    0.000000    0.000000
  0.046052104   -4.612489  -52.986919 -102.024033    2.081058    0.000000    0.000000    0.000000    0.000000
  0.046252505   -4.619282  -53.217907 -103.481865  -22.629261    0.000000    0.000000    0.000000    0.000000
  0.046452906   -4.627779  -53.440865 -101.699149    0.815105    0.000000    0.000000    0.000000    0.000000
  0.046653307   -4.640227  -53.702969 -102.399556    3.405184    0.000000    0.000000    0.000000    0.000000
  0.046853707   -4.650174  -53.997227 -103.728465    1.143327    0.000000    0.000000    0.000000    0.000000
  0.047054108   -4.656258  -54.308220 -104.244564    4.028362    0.000000    0.000000    0.000000    0.000000
  0.047254509   -4.661387  -54.640358 -103.748596    9.699589    0.000000    0.000000    0.000000    0.000000
  0.047454910   -4.662837  -54.915756 -103.627680   -6.045206    0.000000    0.000000    0.000000    0.000000
  0.047655311   -4.666785  -55.251930 -103.914585    3.043303    0.000000    0.000000    0.000000    0.000000
  0.047855711   -4.665244  -55.567402 -105.827540   17.455681    0.000000    0.000000    0.000000    0.000000
  0.048056112   -4.659572  -55.890682 -103.109615   17.777987    0.000000    0.000000    0.000000    0.000000
  0.048256513   -4.653314  -56.221523 -106.023589   14.955976    0.000000    0.000000    0.000000    0.000000
  0.048456914   -4.639305  -56.542801 -104.422948   11.160838    0.000000    0.000000    0.000000    0.000000
  0.048657315   -4.626309  -56.831711 -102.848670    7.528006    0.000000    0.000000    0.000000    0.000000
  0.048857715   -4.615603  -57.078381 -101.024694   13.136559    0.000000    0.000000    0.000000    0.000000
  0.049058116   -4.603355  -57.295860 -100.264956    7.951814    0.000000    0.000000    0.000000    0.000000
  0.049258517   -4.592514  -57.487354 -102.064490    4.360651    0.000000    0.000000    0.000000    0.000000
  0.049458918   -4.590707  -57.652935 -100.462400    7.337035    0.000000    0.000000    0.000000    0.000000
  0.049659319   -4.585371  -57.806854 -100.877990    0.138593    0.000000    0.000000    0.000000    0.000000
  0.049859719   -4.584104  -58.004494 -102.359422   -2.588495    0.000000    0.000000    0.000000    0.000000
  0.050060120   -4.585358  -58.160343 -104.039080  -13.579015    0.000000    0.000000    0.000000    0.000000
  0.050260521   -4.587228  -58.347378 -100.498235    1.290879    0.000000    0.000000    0.000000    0.000000
  0.050460922   -4.590264  -58.538185 -101.704828    3.825187    0.000000    0.000000    0.000000    0.000000
  0.050661323   -4.590767  -58.734108 -102.914941   -3.749854    0.000000    0.000000    0.000000    0.000000
  0.050861723   -4.588074  -58.952675 -103.393279   -0.784090    0.000000    0.000000    0.000000    0.000000
  0.051062124   -4.589144  -59.142422 -102.584447    8.728006    0.000000    0.000000    0.000000    0.000000
  0.051262525   -4.586201  -59.315693 -102.853810   10.387629    0.000000    0.000000    0.000000    0.000000
  0.051462926   -4.587293  -59.507141 -103.495325   -6.484986    0.000000    0.000000    0.000000    0.000000
  0.051663327   -4.592836  -59.684685 -103.866616  -23.331217    0.000000    0.000000    0.000000    0.000000
  0.051863727   -4.598778  -59.857819 -104.072192    1.216073    0.000000    0.000000    0.000000    0.000000
  0.052064128   -4.608762  -60.046890 -105.193309    6.368086    0.000000    0.000000    0.000000    0.000000
  0.052264529   -4.618363  -60.282101 -104.013695   -0.424921    0.000000    0.000000    0.000000    0.000000
  0.052464930   -4.624273  -60.517410 -105.107154    5.807250    0.000000    0.000000    0.000000    0.000000
  0.052665331   -4.633000  -60.760685 -104.490353   14.056168    0.000000    0.000000    0.000000    0.000000
  0.052865731   -4.642509  -61.041393 -105.954213    1.903973    0.000000    0.000000    0.000000    0.000000
