! Anritsu VNA Master:                     Model: MS2036C/10/77
! SN:                                  1601066
! /card0/usr/18may27.balun/252b.r200.3.s2p
! Existing Calibration Information:
! TYPE:                         Current Settings,       Active Cal Settings
! TIME:             	   05/27/2018 01:05:04 PM,    05/27/2018 12:49:51 PM
! INTERNAL TEMP:    	                   52.3 C,                    52.5 C
! # POINTS:         	                      500,                       500
! START FREQ:       	               20.000 MHz,                20.000 MHz
! STOP FREQ:        	              120.000 MHz,               120.000 MHz
! SOURCE POWER:     	                     High,                      High
! IFBW:             	                    50 Hz,                     50 Hz
! AVG FACTOR:       	                       1 ,                        1 
! REF PLANE 1:      	                     0 mm,                      0 mm
! REF PLANE 2:      	                     0 mm,                      0 mm
! CAL TYPE:         	                 Full S11,                  Full S11
! CAL METHOD:       	                     SOLT,                      SOLT
! CAL LINE TYPE:    	                     Coax,                      Coax
! DUT PORT 1:       	                K-Conn(M),                 K-Conn(M)
! DUT PORT 2:       	                K-Conn(M),                 K-Conn(M)
! CAL STATUS:       	        OK: Accuracy High,                        --
# GHZ S DB R 50.0
! FREQ.GHZ       S11DB        S11A       S21DB        S21A       S12DB        S12A       S22DB        S22A
  0.020000000   -4.524022  -22.509869  -90.892271   40.281284    0.000000    0.000000    0.000000    0.000000
  0.020200401   -4.528632  -22.752092  -90.594736   38.995705    0.000000    0.000000    0.000000    0.000000
  0.020400802   -4.538291  -22.984680  -90.826556   34.875717    0.000000    0.000000    0.000000    0.000000
  0.020601202   -4.550426  -23.234325  -91.143988   36.635967    0.000000    0.000000    0.000000    0.000000
  0.020801603   -4.544900  -23.464678  -91.342700   32.738213    0.000000    0.000000    0.000000    0.000000
  0.021002004   -4.536922  -23.716091  -91.259949   33.155167    0.000000    0.000000    0.000000    0.000000
  0.021202405   -4.534755  -23.958027  -91.162900   31.715727    0.000000    0.000000    0.000000    0.000000
  0.021402806   -4.543043  -24.196861  -91.635158   33.827221    0.000000    0.000000    0.000000    0.000000
  0.021603206   -4.549573  -24.434074  -91.779656   26.473555    0.000000    0.000000    0.000000    0.000000
  0.021803607   -4.550962  -24.651821  -92.802599   32.077572    0.000000    0.000000    0.000000    0.000000
  0.022004008   -4.545187  -24.864212  -93.310866   26.088097    0.000000    0.000000    0.000000    0.000000
  0.022204409   -4.528000  -25.087713  -92.473649   25.660114    0.000000    0.000000    0.000000    0.000000
  0.022404810   -4.541316  -25.293488  -92.826196   25.746923    0.000000    0.000000    0.000000    0.000000
  0.022605210   -4.548703  -25.514544  -93.227863   26.327682    0.000000    0.000000    0.000000    0.000000
  0.022805611   -4.555187  -25.743057  -93.320183   27.641258    0.000000    0.000000    0.000000    0.000000
  0.023006012   -4.553993  -25.974806  -93.051639   26.495529    0.000000    0.000000    0.000000    0.000000
  0.023206413   -4.547365  -26.188238  -93.396900   28.636608    0.000000    0.000000    0.000000    0.000000
  0.023406814   -4.542930  -26.405878  -94.376131   25.506502    0.000000    0.000000    0.000000    0.000000
  0.023607214   -4.541580  -26.640820  -93.406529   30.389177    0.000000    0.000000    0.000000    0.000000
  0.023807615   -4.545368  -26.865282  -94.020586   31.890266    0.000000    0.000000    0.000000    0.000000
  0.024008016   -4.544978  -27.066294  -93.945090   26.407295    0.000000    0.000000    0.000000    0.000000
  0.024208417   -4.546626  -27.277197  -93.804955   25.846846    0.000000    0.000000    0.000000    0.000000
  0.024408818   -4.551106  -27.465031  -93.864763   30.107935    0.000000    0.000000    0.000000    0.000000
  0.024609218   -4.556361  -27.656931  -93.426539   30.882389    0.000000    0.000000    0.000000    0.000000
  0.024809619   -4.558784  -27.866247  -93.869530   28.633001    0.000000    0.000000    0.000000    0.000000
  0.025010020   -4.563575  -28.090458  -93.489215   26.791245    0.000000    0.000000    0.000000    0.000000
  0.025210421   -4.567938  -28.316715  -93.524378   23.173635    0.000000    0.000000    0.000000    0.000000
  0.025410822   -4.569730  -28.560392  -94.422630   29.521017    0.000000    0.000000    0.000000    0.000000
  0.025611222   -4.569374  -28.808897  -94.258187   17.809582    0.000000    0.000000    0.000000    0.000000
  0.025811623   -4.572004  -29.065144  -94.782647   20.741064    0.000000    0.000000    0.000000    0.000000
  0.026012024   -4.574768  -29.337711  -94.755214   19.142378    0.000000    0.000000    0.000000    0.000000
  0.026212425   -4.573430  -29.605736  -94.393170   15.609194    0.000000    0.000000    0.000000    0.000000
  0.026412826   -4.575595  -29.882849  -95.072594   16.120371    0.000000    0.000000    0.000000    0.000000
  0.026613226   -4.573516  -30.143606  -94.779638   21.572340    0.000000    0.000000    0.000000    0.000000
  0.026813627   -4.567566  -30.358364  -95.597073   21.362017    0.000000    0.000000    0.000000    0.000000
  0.027014028   -4.565456  -30.565182  -95.833747   18.634413    0.000000    0.000000    0.000000    0.000000
  0.027214429   -4.568009  -30.757263  -95.479007   15.456810    0.000000    0.000000    0.000000    0.000000
  0.027414830   -4.568299  -30.950838  -95.756824   17.362165    0.000000    0.000000    0.000000    0.000000
  0.027615230   -4.570887  -31.161003  -95.972223   19.694630    0.000000    0.000000    0.000000    0.000000
  0.027815631   -4.576816  -31.413847  -95.964842   17.115158    0.000000    0.000000    0.000000    0.000000
  0.028016032   -4.582320  -31.643509  -96.082996   18.776232    0.000000    0.000000    0.000000    0.000000
  0.028216433   -4.582617  -31.900009  -95.950863   23.457399    0.000000    0.000000    0.000000    0.000000
  0.028416834   -4.577874  -32.165813  -95.897380   20.800713    0.000000    0.000000    0.000000    0.000000
  0.028617234   -4.571468  -32.436722  -96.797850   26.744440    0.000000    0.000000    0.000000    0.000000
  0.028817635   -4.569747  -32.677765  -95.935144   15.522505    0.000000    0.000000    0.000000    0.000000
  0.029018036   -4.568004  -32.914524  -96.368382   19.860491    0.000000    0.000000    0.000000    0.000000
  0.029218437   -4.562164  -33.128162  -96.454911   18.061630    0.000000    0.000000    0.000000    0.000000
  0.029418838   -4.556353  -33.315731  -96.503503   15.873621    0.000000    0.000000    0.000000    0.000000
  0.029619238   -4.554069  -33.476116  -95.814392   18.768511    0.000000    0.000000    0.000000    0.000000
  0.029819639   -4.551222  -33.624374  -96.553106   20.637045    0.000000    0.000000    0.000000    0.000000
  0.030020040   -4.548239  -33.783237  -96.607130   18.217216    0.000000    0.000000    0.000000    0.000000
  0.030220441   -4.535680  -33.979080  -96.371504   18.358288    0.000000    0.000000    0.000000    0.000000
  0.030420842   -4.554525  -34.191151  -96.620899   15.523026    0.000000    0.000000    0.000000    0.000000
  0.030621242   -4.530969  -34.438187  -96.224613   14.787642    0.000000    0.000000    0.000000    0.000000
  0.030821643   -4.543119  -34.674011  -97.529287   11.524176    0.000000    0.000000    0.000000    0.000000
  0.031022044   -4.532880  -34.922371  -98.033647    9.255902    0.000000    0.000000    0.000000    0.000000
  0.031222445   -4.526058  -35.119953  -97.236113   12.621136    0.000000    0.000000    0.000000    0.000000
  0.031422846   -4.534594  -35.397472  -97.298298   13.492745    0.000000    0.000000    0.000000    0.000000
  0.031623246   -4.546531  -35.664845  -97.347760   19.493576    0.000000    0.000000    0.000000    0.000000
  0.031823647   -4.560847  -35.929356  -97.890483   14.914351    0.000000    0.000000    0.000000    0.000000
  0.032024048   -4.559837  -36.182571  -97.569783   10.518880    0.000000    0.000000    0.000000    0.000000
  0.032224449   -4.560740  -36.442863  -97.677393   14.664742    0.000000    0.000000    0.000000    0.000000
  0.032424850   -4.560246  -36.678970  -97.688968    9.149887    0.000000    0.000000    0.000000    0.000000
  0.032625251   -4.555496  -36.903412  -97.151480    5.965358    0.000000    0.000000    0.000000    0.000000
  0.032825651   -4.554223  -37.120373  -97.700394   10.666862    0.000000    0.000000    0.000000    0.000000
  0.033026052   -4.553738  -37.310215  -98.231391   18.882717    0.000000    0.000000    0.000000    0.000000
  0.033226453   -4.560827  -37.490402  -97.641003   11.258418    0.000000    0.000000    0.000000    0.000000
  0.033426854   -4.567482  -37.716240  -98.913503   15.528737    0.000000    0.000000    0.000000    0.000000
  0.033627255   -4.571926  -37.964439  -97.315270   13.537591    0.000000    0.000000    0.000000    0.000000
  0.033827655   -4.570998  -38.241623  -98.415872   16.790066    0.000000    0.000000    0.000000    0.000000
  0.034028056   -4.573192  -38.514389  -98.048886   10.772130    0.000000    0.000000    0.000000    0.000000
  0.034228457   -4.572264  -38.755241  -99.528126    8.711056    0.000000    0.000000    0.000000    0.000000
  0.034428858   -4.572509  -38.986763  -99.322638   11.201630    0.000000    0.000000    0.000000    0.000000
  0.034629259   -4.577346  -39.215485  -98.087368   14.322192    0.000000    0.000000    0.000000    0.000000
  0.034829659   -4.560121  -39.486164  -99.032719    5.255894    0.000000    0.000000    0.000000    0.000000
  0.035030060   -4.552839  -39.689037  -98.490187   13.095990    0.000000    0.000000    0.000000    0.000000
  0.035230461   -4.550267  -39.894768  -97.992841   12.888478    0.000000    0.000000    0.000000    0.000000
  0.035430862   -4.548215  -40.069134  -99.865359    9.453159    0.000000    0.000000    0.000000    0.000000
  0.035631263   -4.550704  -40.245884  -98.833167   10.979889    0.000000    0.000000    0.000000    0.000000
  0.035831663   -4.549017  -40.415501  -98.742569   11.689393    0.000000    0.000000    0.000000    0.000000
  0.036032064   -4.557355  -40.635040  -99.480824   14.276393    0.000000    0.000000    0.000000    0.000000
  0.036232465   -4.564470  -40.833332  -98.535589    4.465156    0.000000    0.000000    0.000000    0.000000
  0.036432866   -4.580862  -41.087112  -99.051061   15.893721    0.000000    0.000000    0.000000    0.000000
  0.036633267   -4.585862  -41.356022  -99.192030    4.296827    0.000000    0.000000    0.000000    0.000000
  0.036833667   -4.589442  -41.608158  -98.916998   10.061625    0.000000    0.000000    0.000000    0.000000
  0.037034068   -4.589074  -41.873768 -100.540854   16.804638    0.000000    0.000000    0.000000    0.000000
  0.037234469   -4.590252  -42.116146 -100.905450   10.258651    0.000000    0.000000    0.000000    0.000000
  0.037434870   -4.595740  -42.340698 -100.098516   16.189703    0.000000    0.000000    0.000000    0.000000
  0.037635271   -4.595785  -42.619743 -100.607886    4.968402    0.000000    0.000000    0.000000    0.000000
  0.037835671   -4.589463  -42.893406 -100.563686  -11.621531    0.000000    0.000000    0.000000    0.000000
  0.038036072   -4.580837  -43.150139 -101.417068   13.063796    0.000000    0.000000    0.000000    0.000000
  0.038236473   -4.573247  -43.371284  -99.531676   15.080776    0.000000    0.000000    0.000000    0.000000
  0.038436874   -4.570681  -43.534405 -100.167937    8.019578    0.000000    0.000000    0.000000    0.000000
  0.038637275   -4.575350  -43.717197 -100.548476   14.656048    0.000000    0.000000    0.000000    0.000000
  0.038837675   -4.581498  -43.915775 -100.093867   11.501418    0.000000    0.000000    0.000000    0.000000
  0.039038076   -4.588948  -44.158409  -99.882690   18.820381    0.000000    0.000000    0.000000    0.000000
  0.039238477   -4.599804  -44.388622 -100.519380    7.047089    0.000000    0.000000    0.000000    0.000000
  0.039438878   -4.603976  -44.649078 -100.587503   17.717846    0.000000    0.000000    0.000000    0.000000
  0.039639279   -4.604579  -44.924759 -100.342729   -0.504943    0.000000    0.000000    0.000000    0.000000
  0.039839679   -4.596813  -45.185562  -98.550920    3.313427    0.000000    0.000000    0.000000    0.000000
  0.040040080   -4.600558  -45.427574 -100.255126   15.137033    0.000000    0.000000    0.000000    0.000000
  0.040240481   -4.597301  -45.679375  -99.944831    2.644578    0.000000    0.000000    0.000000    0.000000
  0.040440882   -4.596118  -45.943600 -102.577674    6.811049    0.000000    0.000000    0.000000    0.000000
  0.040641283   -4.587400  -46.152161  -99.831653   14.945997    0.000000    0.000000    0.000000    0.000000
  0.040841683   -4.584242  -46.350548 -100.975805   12.193258    0.000000    0.000000    0.000000    0.000000
  0.041042084   -4.582365  -46.536667  -99.802998    8.042043    0.000000    0.000000    0.000000    0.000000
  0.041242485   -4.582479  -46.740841  -98.765800   -1.247825    0.000000    0.000000    0.000000    0.000000
  0.041442886   -4.587782  -46.950127 -100.724679    0.421924    0.000000    0.000000    0.000000    0.000000
  0.041643287   -4.593966  -47.175045 -100.075499    2.903363    0.000000    0.000000    0.000000    0.000000
  0.041843687   -4.599732  -47.404816 -101.705209    6.294337    0.000000    0.000000    0.000000    0.000000
  0.042044088   -4.605093  -47.655205 -101.125835    4.735169    0.000000    0.000000    0.000000    0.000000
  0.042244489   -4.606753  -47.884724 -102.091081   12.557816    0.000000    0.000000    0.000000    0.000000
  0.042444890   -4.607807  -48.138020 -103.522155    0.056865    0.000000    0.000000    0.000000    0.000000
  0.042645291   -4.606717  -48.368805 -101.996473   -2.540222    0.000000    0.000000    0.000000    0.000000
  0.042845691   -4.608439  -48.615589 -102.625625    4.153708    0.000000    0.000000    0.000000    0.000000
  0.043046092   -4.603886  -48.857887 -102.358127    3.424873    0.000000    0.000000    0.000000    0.000000
  0.043246493   -4.598931  -49.124634 -102.110363   12.644051    0.000000    0.000000    0.000000    0.000000
  0.043446894   -4.582511  -49.334953 -101.192640   11.463754    0.000000    0.000000    0.000000    0.000000
  0.043647295   -4.581912  -49.541183 -100.241470    4.495063    0.000000    0.000000    0.000000    0.000000
  0.043847695   -4.582416  -49.700233 -100.321455    6.936536    0.000000    0.000000    0.000000    0.000000
  0.044048096   -4.586287  -49.859779 -100.473673   16.540852    0.000000    0.000000    0.000000    0.000000
  0.044248497   -4.591204  -50.059093  -99.907233    8.276730    0.000000    0.000000    0.000000    0.000000
  0.044448898   -4.598369  -50.246246 -100.484936   -1.427599    0.000000    0.000000    0.000000    0.000000
  0.044649299   -4.605658  -50.463993 -101.262751    1.235366    0.000000    0.000000    0.000000    0.000000
  0.044849699   -4.612306  -50.688953 -101.819499    6.543213    0.000000    0.000000    0.000000    0.000000
  0.045050100   -4.616771  -50.924503 -101.461793    5.442942    0.000000    0.000000    0.000000    0.000000
  0.045250501   -4.621408  -51.165375 -101.059411    1.333287    0.000000    0.000000    0.000000    0.000000
  0.045450902   -4.620519  -51.418682 -100.765569  -13.751088    0.000000    0.000000    0.000000    0.000000
  0.045651303   -4.620630  -51.673050 -101.207855   -1.861661    0.000000    0.000000    0.000000    0.000000
  0.045851703   -4.613404  -51.927784 -102.430685   -9.806325    0.000000    0.000000    0.000000    0.000000
  0.046052104   -4.613097  -52.147770 -102.457022   -2.545967    0.000000    0.000000    0.000000    0.000000
  0.046252505   -4.610641  -52.356983 -101.445571  -17.448858    0.000000    0.000000    0.000000    0.000000
  0.046452906   -4.614468  -52.576828 -103.819110  -14.874232    0.000000    0.000000    0.000000    0.000000
  0.046653307   -4.622273  -52.785740 -103.129215    1.585519    0.000000    0.000000    0.000000    0.000000
  0.046853707   -4.628849  -53.030663 -101.975292    1.713092    0.000000    0.000000    0.000000    0.000000
  0.047054108   -4.635323  -53.296169 -102.640145    0.659406    0.000000    0.000000    0.000000    0.000000
  0.047254509   -4.637347  -53.548958 -102.962082   -2.550011    0.000000    0.000000    0.000000    0.000000
  0.047454910   -4.643334  -53.800205 -102.644039    4.195120    0.000000    0.000000    0.000000    0.000000
  0.047655311   -4.647029  -54.049767 -102.300642    7.525882    0.000000    0.000000    0.000000    0.000000
  0.047855711   -4.647892  -54.332058 -102.175981    5.500893    0.000000    0.000000    0.000000    0.000000
  0.048056112   -4.646602  -54.612579 -103.193526   15.626311    0.000000    0.000000    0.000000    0.000000
  0.048256513   -4.632996  -54.889542 -102.795192   18.283571    0.000000    0.000000    0.000000    0.000000
  0.048456914   -4.638155  -55.195007 -102.162142   14.240187    0.000000    0.000000    0.000000    0.000000
  0.048657315   -4.634447  -55.457634 -102.241940   14.870363    0.000000    0.000000    0.000000    0.000000
  0.048857715   -4.628174  -55.691269 -101.860027    7.152995    0.000000    0.000000    0.000000    0.000000
  0.049058116   -4.620589  -55.892590 -102.571183   12.219401    0.000000    0.000000    0.000000    0.000000
  0.049258517   -4.620504  -56.087227 -102.282703   16.971483    0.000000    0.000000    0.000000    0.000000
  0.049458918   -4.616468  -56.279110 -100.451792    7.967143    0.000000    0.000000    0.000000    0.000000
  0.049659319   -4.622525  -56.479744 -103.132558    1.863027    0.000000    0.000000    0.000000    0.000000
  0.049859719   -4.623480  -56.681305 -103.093361    8.511637    0.000000    0.000000    0.000000    0.000000
  0.050060120   -4.626776  -56.892303 -102.723235   11.202681    0.000000    0.000000    0.000000    0.000000
  0.050260521   -4.632513  -57.114986 -101.866443   -1.900023    0.000000    0.000000    0.000000    0.000000
  0.050460922   -4.633875  -57.340248 -101.966808   -8.086040    0.000000    0.000000    0.000000    0.000000
  0.050661323   -4.633682  -57.588898 -102.432857   -3.743547    0.000000    0.000000    0.000000    0.000000
  0.050861723   -4.628324  -57.818829 -102.147302   -1.455545    0.000000    0.000000    0.000000    0.000000
  0.051062124   -4.623939  -58.054840 -102.846753   -4.302982    0.000000    0.000000    0.000000    0.000000
  0.051262525   -4.618156  -58.246868 -103.896699   -9.712608    0.000000    0.000000    0.000000    0.000000
  0.051462926   -4.617434  -58.450020 -102.826798   -9.536835    0.000000    0.000000    0.000000    0.000000
  0.051663327   -4.620327  -58.627312 -102.141386    3.022340    0.000000    0.000000    0.000000    0.000000
  0.051863727   -4.621708  -58.809296 -103.479483   -3.684267    0.000000    0.000000    0.000000    0.000000
  0.052064128   -4.627514  -59.020237 -104.224229    1.051054    0.000000    0.000000    0.000000    0.000000
  0.052264529   -4.634600  -59.222458 -104.626633  -29.153545    0.000000    0.000000    0.000000    0.000000
  0.052464930   -4.639085  -59.448818 -103.156847   12.160359    0.000000    0.000000    0.000000    0.000000
  0.052665331   -4.644250  -59.678387 -103.445328   -0.462848    0.000000    0.000000    0.000000    0.000000
  0.052865731   -4.648668  -59.898350 -103.250275   15.550338    0.000000    0.000000    0.000000    0.000000
