! Anritsu VNA Master:                     Model: MS2036C/10/77
! SN:                                  1601066
! /card0/usr/18may27.balun/252b.r50.2.s2p
! Existing Calibration Information:
! TYPE:                         Current Settings,       Active Cal Settings
! TIME:             	   05/27/2018 12:35:56 PM,    05/27/2018 12:21:44 PM
! INTERNAL TEMP:    	                   53.5 C,                    53.3 C
! # POINTS:         	                      500,                       500
! START FREQ:       	               20.000 MHz,                20.000 MHz
! STOP FREQ:        	              120.000 MHz,               120.000 MHz
! SOURCE POWER:     	                     High,                      High
! IFBW:             	                    50 Hz,                     50 Hz
! AVG FACTOR:       	                       1 ,                        1 
! REF PLANE 1:      	                     0 mm,                      0 mm
! REF PLANE 2:      	                     0 mm,                      0 mm
! CAL TYPE:         	                 Full S11,                  Full S11
! CAL METHOD:       	                     SOLT,                      SOLT
! CAL LINE TYPE:    	                     Coax,                      Coax
! DUT PORT 1:       	                K-Conn(M),                 K-Conn(M)
! DUT PORT 2:       	                K-Conn(M),                 K-Conn(M)
! CAL STATUS:       	        OK: Accuracy High,                        --
# GHZ S DB R 50.0
! FREQ.GHZ       S11DB        S11A       S21DB        S21A       S12DB        S12A       S22DB        S22A
  0.020000000  -38.865005   54.330971  -91.069568   35.382854    0.000000    0.000000    0.000000    0.000000
  0.020200401  -39.001622   54.298286  -91.554873   34.401703    0.000000    0.000000    0.000000    0.000000
  0.020400802  -39.190977   55.066227  -91.190928   37.633961    0.000000    0.000000    0.000000    0.000000
  0.020601202  -39.373594   54.388664  -91.662504   35.501816    0.000000    0.000000    0.000000    0.000000
  0.020801603  -39.588658   54.145962  -91.711265   32.034637    0.000000    0.000000    0.000000    0.000000
  0.021002004  -39.802582   53.014591  -91.467693   34.936741    0.000000    0.000000    0.000000    0.000000
  0.021202405  -39.892914   51.289177  -92.068853   33.363453    0.000000    0.000000    0.000000    0.000000
  0.021402806  -40.078724   48.960514  -91.699115   31.456388    0.000000    0.000000    0.000000    0.000000
  0.021603206  -39.926728   47.692924  -92.260012   33.569473    0.000000    0.000000    0.000000    0.000000
  0.021803607  -39.921139   44.712940  -91.912635   31.310444    0.000000    0.000000    0.000000    0.000000
  0.022004008  -39.821192   42.747601  -92.708700   35.221088    0.000000    0.000000    0.000000    0.000000
  0.022204409  -39.533757   41.197262  -92.133535   32.286980    0.000000    0.000000    0.000000    0.000000
  0.022404810  -39.175435   39.656425  -92.575191   30.684052    0.000000    0.000000    0.000000    0.000000
  0.022605210  -38.788235   38.110249  -93.371055   31.532558    0.000000    0.000000    0.000000    0.000000
  0.022805611  -38.514461   36.862103  -92.627962   25.713097    0.000000    0.000000    0.000000    0.000000
  0.023006012  -38.145939   37.183014  -93.292608   31.072887    0.000000    0.000000    0.000000    0.000000
  0.023206413  -37.783442   38.165638  -93.150590   26.552614    0.000000    0.000000    0.000000    0.000000
  0.023406814  -37.500780   38.544918  -92.531769   25.372568    0.000000    0.000000    0.000000    0.000000
  0.023607214  -37.267380   39.591164  -93.767512   28.022806    0.000000    0.000000    0.000000    0.000000
  0.023807615  -37.035230   40.759819  -93.084875   26.359852    0.000000    0.000000    0.000000    0.000000
  0.024008016  -36.834853   41.675388  -93.747762   28.879314    0.000000    0.000000    0.000000    0.000000
  0.024208417  -36.639203   42.963467  -94.154563   29.507076    0.000000    0.000000    0.000000    0.000000
  0.024408818  -36.520590   45.228264  -93.852540   23.928553    0.000000    0.000000    0.000000    0.000000
  0.024609218  -36.557369   46.246010  -93.945579   28.847410    0.000000    0.000000    0.000000    0.000000
  0.024809619  -36.525878   47.906986  -94.814328   29.834301    0.000000    0.000000    0.000000    0.000000
  0.025010020  -36.638851   48.608589  -94.899717   21.350521    0.000000    0.000000    0.000000    0.000000
  0.025210421  -36.760815   50.042522  -94.547345   25.381237    0.000000    0.000000    0.000000    0.000000
  0.025410822  -36.744247   50.922382  -94.585753   22.888424    0.000000    0.000000    0.000000    0.000000
  0.025611222  -36.947403   51.712414  -94.382419   22.838161    0.000000    0.000000    0.000000    0.000000
  0.025811623  -37.120606   51.615788  -94.733921   22.741524    0.000000    0.000000    0.000000    0.000000
  0.026012024  -37.283222   51.929588  -94.972492   20.170832    0.000000    0.000000    0.000000    0.000000
  0.026212425  -37.456426   50.933285  -95.310507   20.680571    0.000000    0.000000    0.000000    0.000000
  0.026412826  -37.708759   50.354092  -96.200275   20.853863    0.000000    0.000000    0.000000    0.000000
  0.026613226  -37.708992   48.546757  -95.079943   13.120574    0.000000    0.000000    0.000000    0.000000
  0.026813627  -37.783721   47.495995  -95.509265   20.099447    0.000000    0.000000    0.000000    0.000000
  0.027014028  -37.845457   46.196522  -95.646322   19.740290    0.000000    0.000000    0.000000    0.000000
  0.027214429  -37.758631   43.686523  -96.335864   22.558031    0.000000    0.000000    0.000000    0.000000
  0.027414830  -37.585371   42.290215  -94.993395   15.200557    0.000000    0.000000    0.000000    0.000000
  0.027615230  -37.439799   40.685585  -97.081822   20.178333    0.000000    0.000000    0.000000    0.000000
  0.027815631  -37.158476   39.427387  -95.807916   21.458090    0.000000    0.000000    0.000000    0.000000
  0.028016032  -36.897442   39.262726  -96.726478   19.697296    0.000000    0.000000    0.000000    0.000000
  0.028216433  -36.606358   38.259327  -96.347568   18.734144    0.000000    0.000000    0.000000    0.000000
  0.028416834  -36.242709   38.342136  -96.241171   15.545714    0.000000    0.000000    0.000000    0.000000
  0.028617234  -36.040756   38.769001  -95.985025   18.082022    0.000000    0.000000    0.000000    0.000000
  0.028817635  -35.762580   39.208302  -96.480250   20.131641    0.000000    0.000000    0.000000    0.000000
  0.029018036  -35.520953   40.687012  -96.100652   21.653494    0.000000    0.000000    0.000000    0.000000
  0.029218437  -35.353174   41.738209  -96.207120   16.132195    0.000000    0.000000    0.000000    0.000000
  0.029418838  -35.249906   43.264126  -95.927757   19.659824    0.000000    0.000000    0.000000    0.000000
  0.029619238  -35.129177   44.505367  -96.595850   19.266109    0.000000    0.000000    0.000000    0.000000
  0.029819639  -35.050128   45.894855  -96.349137   19.608494    0.000000    0.000000    0.000000    0.000000
  0.030020040  -35.067660   47.346809  -97.343394   19.568451    0.000000    0.000000    0.000000    0.000000
  0.030220441  -35.097357   49.170860  -96.929094   13.477111    0.000000    0.000000    0.000000    0.000000
  0.030420842  -35.194791   50.295597  -95.849455   18.598146    0.000000    0.000000    0.000000    0.000000
  0.030621242  -35.323465   51.056694  -97.563184   13.004982    0.000000    0.000000    0.000000    0.000000
  0.030821643  -35.418025   52.234550  -96.494186   14.631927    0.000000    0.000000    0.000000    0.000000
  0.031022044  -35.639282   52.893261  -97.560038   14.687579    0.000000    0.000000    0.000000    0.000000
  0.031222445  -35.786772   53.232777  -97.621660   16.906664    0.000000    0.000000    0.000000    0.000000
  0.031422846  -36.041546   53.255333  -97.889228   14.863280    0.000000    0.000000    0.000000    0.000000
  0.031623246  -36.200088   53.106632  -96.077409   20.872120    0.000000    0.000000    0.000000    0.000000
  0.031823647  -36.598368   51.854778  -97.931402   11.024569    0.000000    0.000000    0.000000    0.000000
  0.032024048  -36.706840   50.989994  -98.312393   10.228815    0.000000    0.000000    0.000000    0.000000
  0.032224449  -36.819710   49.008808  -98.221551   16.830940    0.000000    0.000000    0.000000    0.000000
  0.032424850  -36.949738   47.376240  -97.472495   14.539371    0.000000    0.000000    0.000000    0.000000
  0.032625251  -36.944275   45.235683  -98.290754   12.487410    0.000000    0.000000    0.000000    0.000000
  0.032825651  -36.854475   43.290390  -98.358914   15.092174    0.000000    0.000000    0.000000    0.000000
  0.033026052  -36.735709   41.597477  -98.791681   16.895124    0.000000    0.000000    0.000000    0.000000
  0.033226453  -36.615927   39.547291  -98.627227    1.674849    0.000000    0.000000    0.000000    0.000000
  0.033426854  -36.274489   38.168896  -98.841715    4.429355    0.000000    0.000000    0.000000    0.000000
  0.033627255  -35.975003   37.330559  -97.736311   16.513891    0.000000    0.000000    0.000000    0.000000
  0.033827655  -35.766953   36.492474  -97.640458    9.395086    0.000000    0.000000    0.000000    0.000000
  0.034028056  -35.543424   36.552334 -100.349072   13.360212    0.000000    0.000000    0.000000    0.000000
  0.034228457  -35.184115   36.641960  -99.436081   16.939524    0.000000    0.000000    0.000000    0.000000
  0.034428858  -34.965917   37.007515  -99.100780   14.860518    0.000000    0.000000    0.000000    0.000000
  0.034629259  -34.748653   37.824554  -98.028383    8.439620    0.000000    0.000000    0.000000    0.000000
  0.034829659  -34.589757   38.986866  -97.948835    8.122252    0.000000    0.000000    0.000000    0.000000
  0.035030060  -34.357256   39.547661  -99.016099    9.978303    0.000000    0.000000    0.000000    0.000000
  0.035230461  -34.299851   40.979446  -99.263262   14.548123    0.000000    0.000000    0.000000    0.000000
  0.035430862  -34.284483   42.569851 -100.220514   12.806166    0.000000    0.000000    0.000000    0.000000
  0.035631263  -34.182958   43.680565  -98.638415   10.168484    0.000000    0.000000    0.000000    0.000000
  0.035831663  -34.198659   44.438026  -98.632821   17.338699    0.000000    0.000000    0.000000    0.000000
  0.036032064  -34.250011   45.855186  -99.184875   10.317102    0.000000    0.000000    0.000000    0.000000
  0.036232465  -34.297999   46.741905  -98.654234   11.971633    0.000000    0.000000    0.000000    0.000000
  0.036432866  -34.420779   47.136921 -100.464916    2.889147    0.000000    0.000000    0.000000    0.000000
  0.036633267  -34.496907   47.264400  -99.572731    5.593251    0.000000    0.000000    0.000000    0.000000
  0.036833667  -34.649486   48.343899 -100.576354    6.103925    0.000000    0.000000    0.000000    0.000000
  0.037034068  -34.864227   47.920010  -99.808333    4.250395    0.000000    0.000000    0.000000    0.000000
  0.037234469  -34.943694   47.800236  -99.839400   11.303336    0.000000    0.000000    0.000000    0.000000
  0.037434870  -35.138680   47.087852  -99.421211   11.939945    0.000000    0.000000    0.000000    0.000000
  0.037635271  -35.222239   46.366531 -100.880710   19.010229    0.000000    0.000000    0.000000    0.000000
  0.037835671  -35.244803   45.456032  -98.871788    5.676197    0.000000    0.000000    0.000000    0.000000
  0.038036072  -35.274578   44.564037 -100.261451   10.959334    0.000000    0.000000    0.000000    0.000000
  0.038236473  -35.280229   43.167187  -98.830324    4.186028    0.000000    0.000000    0.000000    0.000000
  0.038436874  -35.279556   42.309525 -100.152155    9.320529    0.000000    0.000000    0.000000    0.000000
  0.038637275  -35.162863   40.990215  -99.749648    2.553832    0.000000    0.000000    0.000000    0.000000
  0.038837675  -35.070757   40.674931  -99.133307    6.657086    0.000000    0.000000    0.000000    0.000000
  0.039038076  -34.886843   39.923454  -99.135659    8.937024    0.000000    0.000000    0.000000    0.000000
  0.039238477  -34.763711   39.735756 -101.102282   -7.231032    0.000000    0.000000    0.000000    0.000000
  0.039438878  -34.652099   39.472729 -100.289538    5.139830    0.000000    0.000000    0.000000    0.000000
  0.039639279  -34.402967   39.507481  -99.369086    1.897560    0.000000    0.000000    0.000000    0.000000
  0.039839679  -34.260546   39.457504 -101.827763    4.629584    0.000000    0.000000    0.000000    0.000000
  0.040040080  -34.192402   39.917927  -99.734611   -0.858358    0.000000    0.000000    0.000000    0.000000
  0.040240481  -34.053314   40.711983 -101.857654    1.165817    0.000000    0.000000    0.000000    0.000000
  0.040440882  -34.021496   40.917503  -99.553219   11.713278    0.000000    0.000000    0.000000    0.000000
  0.040641283  -34.102174   42.040749 -100.314764    0.934165    0.000000    0.000000    0.000000    0.000000
  0.040841683  -34.002666   43.051552  -99.137123   17.048813    0.000000    0.000000    0.000000    0.000000
  0.041042084  -34.110179   43.236115  -99.143806    9.244914    0.000000    0.000000    0.000000    0.000000
  0.041242485  -34.133256   43.519794 -101.121388    6.223746    0.000000    0.000000    0.000000    0.000000
  0.041442886  -34.278891   44.077168 -101.953357    9.239036    0.000000    0.000000    0.000000    0.000000
  0.041643287  -34.275702   43.997849 -102.428389   11.207182    0.000000    0.000000    0.000000    0.000000
  0.041843687  -34.376163   43.829674 -101.258085    4.801063    0.000000    0.000000    0.000000    0.000000
  0.042044088  -34.545155   44.096226 -101.665135   16.321238    0.000000    0.000000    0.000000    0.000000
  0.042244489  -34.621999   43.255375 -100.689982   17.359449    0.000000    0.000000    0.000000    0.000000
  0.042444890  -34.696543   42.167809 -100.657890    7.749672    0.000000    0.000000    0.000000    0.000000
  0.042645291  -34.809991   41.033474 -101.002234    2.184847    0.000000    0.000000    0.000000    0.000000
  0.042845691  -34.779796   40.358730 -101.883017    6.102149    0.000000    0.000000    0.000000    0.000000
  0.043046092  -34.819944   39.240070 -102.523081   -9.692623    0.000000    0.000000    0.000000    0.000000
  0.043246493  -34.688934   37.469067 -102.073390    8.141285    0.000000    0.000000    0.000000    0.000000
  0.043446894  -34.619810   36.809513 -101.473421   -6.157347    0.000000    0.000000    0.000000    0.000000
  0.043647295  -34.485291   35.489388 -101.345077    4.509882    0.000000    0.000000    0.000000    0.000000
  0.043847695  -34.274902   34.507866 -102.714818  -12.738452    0.000000    0.000000    0.000000    0.000000
  0.044048096  -34.070013   34.016438 -102.286858   -1.031020    0.000000    0.000000    0.000000    0.000000
  0.044248497  -33.838118   33.355247 -101.504376    9.507439    0.000000    0.000000    0.000000    0.000000
  0.044448898  -33.652604   33.528225 -101.553067   -0.995681    0.000000    0.000000    0.000000    0.000000
  0.044649299  -33.413028   33.399906 -103.697924    4.598180    0.000000    0.000000    0.000000    0.000000
  0.044849699  -33.270549   33.908508 -100.136985    6.453142    0.000000    0.000000    0.000000    0.000000
  0.045050100  -33.116663   34.726669 -100.684432    3.984068    0.000000    0.000000    0.000000    0.000000
  0.045250501  -32.924076   35.805496  -99.806487   -0.756137    0.000000    0.000000    0.000000    0.000000
  0.045450902  -32.803397   36.644012 -102.569245    6.700055    0.000000    0.000000    0.000000    0.000000
  0.045651303  -32.666465   38.035027 -103.132180   23.212465    0.000000    0.000000    0.000000    0.000000
  0.045851703  -32.673506   39.108589 -102.256782   11.047472    0.000000    0.000000    0.000000    0.000000
  0.046052104  -32.654651   40.542202 -101.139635    5.543434    0.000000    0.000000    0.000000    0.000000
  0.046252505  -32.651343   42.075790 -101.741252    4.219183    0.000000    0.000000    0.000000    0.000000
  0.046452906  -32.696053   43.023739 -101.517212   17.265955    0.000000    0.000000    0.000000    0.000000
  0.046653307  -32.877244   44.200966 -100.716272    4.949529    0.000000    0.000000    0.000000    0.000000
  0.046853707  -33.022937   45.205402 -101.761564    7.167781    0.000000    0.000000    0.000000    0.000000
  0.047054108  -33.226168   46.087040 -102.150968    8.832080    0.000000    0.000000    0.000000    0.000000
  0.047254509  -33.395867   46.218563 -101.754079   10.351295    0.000000    0.000000    0.000000    0.000000
  0.047454910  -33.599646   46.116772 -102.435454    7.060225    0.000000    0.000000    0.000000    0.000000
  0.047655311  -33.897851   46.210781 -103.711337    4.567629    0.000000    0.000000    0.000000    0.000000
  0.047855711  -34.141995   45.952160 -104.838267   14.950812    0.000000    0.000000    0.000000    0.000000
  0.048056112  -34.356262   44.830334 -101.394875    0.160375    0.000000    0.000000    0.000000    0.000000
  0.048256513  -34.534266   43.447678 -103.787676   15.587788    0.000000    0.000000    0.000000    0.000000
  0.048456914  -34.727737   41.804504 -101.909097    1.612834    0.000000    0.000000    0.000000    0.000000
  0.048657315  -34.875103   39.829765 -103.788655    5.248005    0.000000    0.000000    0.000000    0.000000
  0.048857715  -34.915942   37.830738 -102.509863   -2.310913    0.000000    0.000000    0.000000    0.000000
  0.049058116  -34.884768   35.674248 -102.428912    7.536806    0.000000    0.000000    0.000000    0.000000
  0.049258517  -34.872279   33.754436 -103.521958   -8.576313    0.000000    0.000000    0.000000    0.000000
  0.049458918  -34.741529   32.349884 -103.262921    6.653199    0.000000    0.000000    0.000000    0.000000
  0.049659319  -34.490581   30.330023 -101.574760   16.729717    0.000000    0.000000    0.000000    0.000000
  0.049859719  -34.314295   29.058846 -104.323184   15.121881    0.000000    0.000000    0.000000    0.000000
  0.050060120  -34.035464   28.194309 -104.065282    1.887910    0.000000    0.000000    0.000000    0.000000
  0.050260521  -33.774014   27.244411 -101.543321    5.235761    0.000000    0.000000    0.000000    0.000000
  0.050460922  -33.536304   26.817625 -101.636477    2.309936    0.000000    0.000000    0.000000    0.000000
  0.050661323  -33.306683   27.141233 -102.664095   10.338588    0.000000    0.000000    0.000000    0.000000
  0.050861723  -33.077402   27.294212 -102.343579   12.443881    0.000000    0.000000    0.000000    0.000000
  0.051062124  -32.823304   27.916370 -104.878146   -5.247358    0.000000    0.000000    0.000000    0.000000
  0.051262525  -32.672610   28.543266 -105.206452   12.088964    0.000000    0.000000    0.000000    0.000000
  0.051462926  -32.522419   28.890072 -101.763968   -6.835340    0.000000    0.000000    0.000000    0.000000
  0.051663327  -32.367381   29.672216 -102.845975    4.003609    0.000000    0.000000    0.000000    0.000000
  0.051863727  -32.305583   30.301779 -101.372515    0.926418    0.000000    0.000000    0.000000    0.000000
  0.052064128  -32.257130   31.478962 -103.330864    3.807050    0.000000    0.000000    0.000000    0.000000
  0.052264529  -32.226903   32.288834 -104.360795   14.270901    0.000000    0.000000    0.000000    0.000000
  0.052464930  -32.288670   32.696251 -103.178366   -4.661667    0.000000    0.000000    0.000000    0.000000
  0.052665331  -32.228246   33.362339 -105.415880    4.091013    0.000000    0.000000    0.000000    0.000000
  0.052865731  -32.290574   34.064705 -104.054977   -2.210019    0.000000    0.000000    0.000000    0.000000
