! Anritsu VNA Master:                     Model: MS2036C/10/77
! SN:                                  1601066
! /card0/usr/18may27.balun/252b.r50.5.s2p
! Existing Calibration Information:
! TYPE:                         Current Settings,       Active Cal Settings
! TIME:             	   05/27/2018 01:26:34 PM,    05/27/2018 01:14:08 PM
! INTERNAL TEMP:    	                   52.0 C,                    52.0 C
! # POINTS:         	                      500,                       500
! START FREQ:       	               20.000 MHz,                20.000 MHz
! STOP FREQ:        	              120.000 MHz,               120.000 MHz
! SOURCE POWER:     	                     High,                      High
! IFBW:             	                    50 Hz,                     50 Hz
! AVG FACTOR:       	                       1 ,                        1 
! REF PLANE 1:      	                     0 mm,                      0 mm
! REF PLANE 2:      	                     0 mm,                      0 mm
! CAL TYPE:         	                 Full S11,                  Full S11
! CAL METHOD:       	                     SOLT,                      SOLT
! CAL LINE TYPE:    	                     Coax,                      Coax
! DUT PORT 1:       	                K-Conn(M),                 K-Conn(M)
! DUT PORT 2:       	                K-Conn(M),                 K-Conn(M)
! CAL STATUS:       	        OK: Accuracy High,                        --
# GHZ S DB R 50.0
! FREQ.GHZ       S11DB        S11A       S21DB        S21A       S12DB        S12A       S22DB        S22A
  0.020000000  -39.000421   51.944317  -91.148601   33.708996    0.000000    0.000000    0.000000    0.000000
  0.020200401  -39.030549   51.339367  -90.758094   40.672939    0.000000    0.000000    0.000000    0.000000
  0.020400802  -39.109244   52.339523  -91.342793   35.925312    0.000000    0.000000    0.000000    0.000000
  0.020601202  -39.003521   52.081612  -91.154802   33.384884    0.000000    0.000000    0.000000    0.000000
  0.020801603  -38.884460   51.209091  -92.222441   37.848690    0.000000    0.000000    0.000000    0.000000
  0.021002004  -38.945321   51.814682  -92.130861   35.283592    0.000000    0.000000    0.000000    0.000000
  0.021202405  -39.002065   52.152054  -92.104122   32.417831    0.000000    0.000000    0.000000    0.000000
  0.021402806  -38.937067   51.578728  -91.942436   32.913902    0.000000    0.000000    0.000000    0.000000
  0.021603206  -38.895059   51.003693  -91.890963   33.557377    0.000000    0.000000    0.000000    0.000000
  0.021803607  -38.795298   50.727604  -92.073924   33.461010    0.000000    0.000000    0.000000    0.000000
  0.022004008  -38.857635   50.169899  -92.252089   31.226563    0.000000    0.000000    0.000000    0.000000
  0.022204409  -38.738895   50.291126  -92.180105   29.155735    0.000000    0.000000    0.000000    0.000000
  0.022404810  -38.583176   49.881893  -92.207251   28.530348    0.000000    0.000000    0.000000    0.000000
  0.022605210  -38.559157   48.894257  -92.999257   34.234180    0.000000    0.000000    0.000000    0.000000
  0.022805611  -38.469974   48.892246  -92.898595   29.445240    0.000000    0.000000    0.000000    0.000000
  0.023006012  -38.416822   48.821934  -92.968675   28.089766    0.000000    0.000000    0.000000    0.000000
  0.023206413  -38.267048   48.455074  -93.063261   28.053181    0.000000    0.000000    0.000000    0.000000
  0.023406814  -38.235675   48.594299  -93.133506   31.053391    0.000000    0.000000    0.000000    0.000000
  0.023607214  -38.104328   48.645565  -93.735643   27.588688    0.000000    0.000000    0.000000    0.000000
  0.023807615  -38.094103   48.593025  -93.268066   27.141748    0.000000    0.000000    0.000000    0.000000
  0.024008016  -37.984506   48.069622  -93.703517   26.247076    0.000000    0.000000    0.000000    0.000000
  0.024208417  -37.932730   48.214817  -93.439069   26.530088    0.000000    0.000000    0.000000    0.000000
  0.024408818  -37.859745   47.815113  -94.746033   26.897158    0.000000    0.000000    0.000000    0.000000
  0.024609218  -37.758473   48.348991  -93.372434   27.758287    0.000000    0.000000    0.000000    0.000000
  0.024809619  -37.633440   48.542805  -93.845898   28.961740    0.000000    0.000000    0.000000    0.000000
  0.025010020  -37.646117   47.879467  -93.780332   24.938171    0.000000    0.000000    0.000000    0.000000
  0.025210421  -37.564623   47.899380  -94.656428   25.491314    0.000000    0.000000    0.000000    0.000000
  0.025410822  -37.550259   48.390732  -94.496738   20.422092    0.000000    0.000000    0.000000    0.000000
  0.025611222  -37.414878   48.015320  -94.330754   23.602919    0.000000    0.000000    0.000000    0.000000
  0.025811623  -37.354349   48.379795  -95.275271   27.712288    0.000000    0.000000    0.000000    0.000000
  0.026012024  -37.389669   48.092785  -95.004578   20.317619    0.000000    0.000000    0.000000    0.000000
  0.026212425  -37.293731   48.546867  -94.906585   20.757437    0.000000    0.000000    0.000000    0.000000
  0.026412826  -37.235990   48.095779  -95.164032   18.125494    0.000000    0.000000    0.000000    0.000000
  0.026613226  -37.206960   48.431171  -95.002697   22.766823    0.000000    0.000000    0.000000    0.000000
  0.026813627  -37.130584   48.702858  -95.414200   22.344040    0.000000    0.000000    0.000000    0.000000
  0.027014028  -37.061043   48.656879  -95.842463   17.994370    0.000000    0.000000    0.000000    0.000000
  0.027214429  -37.090035   47.934799  -95.184290   21.171408    0.000000    0.000000    0.000000    0.000000
  0.027414830  -37.033355   48.203854  -95.010121   19.282175    0.000000    0.000000    0.000000    0.000000
  0.027615230  -36.995859   48.115215  -95.545976   21.054937    0.000000    0.000000    0.000000    0.000000
  0.027815631  -36.901361   47.998268  -95.780636   18.026823    0.000000    0.000000    0.000000    0.000000
  0.028016032  -36.838312   48.264660  -96.010653   18.621624    0.000000    0.000000    0.000000    0.000000
  0.028216433  -36.831759   48.644947  -95.886675   18.676853    0.000000    0.000000    0.000000    0.000000
  0.028416834  -36.814351   47.950897  -95.729999   18.819403    0.000000    0.000000    0.000000    0.000000
  0.028617234  -36.824345   48.389118  -96.395557   18.855665    0.000000    0.000000    0.000000    0.000000
  0.028817635  -36.666900   48.554398  -96.886111   16.371849    0.000000    0.000000    0.000000    0.000000
  0.029018036  -36.697316   48.456013  -96.535540   15.426559    0.000000    0.000000    0.000000    0.000000
  0.029218437  -36.711842   48.713402  -96.509799   13.634661    0.000000    0.000000    0.000000    0.000000
  0.029418838  -36.633110   48.349880  -96.457256   18.397100    0.000000    0.000000    0.000000    0.000000
  0.029619238  -36.632084   48.334671  -95.958592   24.916876    0.000000    0.000000    0.000000    0.000000
  0.029819639  -36.616474   47.883030  -96.323454   15.496340    0.000000    0.000000    0.000000    0.000000
  0.030020040  -36.586113   48.425396  -97.776967   21.096092    0.000000    0.000000    0.000000    0.000000
  0.030220441  -36.562083   48.059948  -96.672894   17.923954    0.000000    0.000000    0.000000    0.000000
  0.030420842  -36.560307   47.427681  -96.737136   18.177483    0.000000    0.000000    0.000000    0.000000
  0.030621242  -36.533958   47.341694  -96.180775   14.869216    0.000000    0.000000    0.000000    0.000000
  0.030821643  -36.530886   47.277775  -98.172022   15.050550    0.000000    0.000000    0.000000    0.000000
  0.031022044  -36.491347   47.065212  -96.110663   17.456579    0.000000    0.000000    0.000000    0.000000
  0.031222445  -36.441867   46.821495  -97.635298    7.292633    0.000000    0.000000    0.000000    0.000000
  0.031422846  -36.393714   46.272781  -97.497281    9.671478    0.000000    0.000000    0.000000    0.000000
  0.031623246  -36.302161   46.082066  -96.556511   13.447003    0.000000    0.000000    0.000000    0.000000
  0.031823647  -36.335340   46.343452  -98.172893    8.499545    0.000000    0.000000    0.000000    0.000000
  0.032024048  -36.258766   45.454033  -97.215933   17.894419    0.000000    0.000000    0.000000    0.000000
  0.032224449  -36.217033   45.330505  -97.287865    9.213798    0.000000    0.000000    0.000000    0.000000
  0.032424850  -36.126596   45.222809  -97.135405   15.360530    0.000000    0.000000    0.000000    0.000000
  0.032625251  -36.102120   44.702812  -96.319823    6.698267    0.000000    0.000000    0.000000    0.000000
  0.032825651  -36.015256   44.600773  -98.054995    9.660516    0.000000    0.000000    0.000000    0.000000
  0.033026052  -36.025122   44.889767  -97.657772   10.143430    0.000000    0.000000    0.000000    0.000000
  0.033226453  -35.926442   44.363266  -99.816753   23.963053    0.000000    0.000000    0.000000    0.000000
  0.033426854  -35.776894   44.451126  -98.128504    8.097474    0.000000    0.000000    0.000000    0.000000
  0.033627255  -35.749674   43.969227  -98.642018   11.975750    0.000000    0.000000    0.000000    0.000000
  0.033827655  -35.616487   44.499325  -98.239112   12.902176    0.000000    0.000000    0.000000    0.000000
  0.034028056  -35.571311   43.963657  -97.754158   11.699726    0.000000    0.000000    0.000000    0.000000
  0.034228457  -35.579368   44.268375  -97.928919    9.197923    0.000000    0.000000    0.000000    0.000000
  0.034428858  -35.510536   44.153088  -97.570595   10.912233    0.000000    0.000000    0.000000    0.000000
  0.034629259  -35.543022   44.298595  -98.491239   14.022345    0.000000    0.000000    0.000000    0.000000
  0.034829659  -35.352074   44.856224  -99.652733    6.446379    0.000000    0.000000    0.000000    0.000000
  0.035030060  -35.357714   45.009026  -98.269379    9.176795    0.000000    0.000000    0.000000    0.000000
  0.035230461  -35.366858   45.040401 -100.040405   13.680094    0.000000    0.000000    0.000000    0.000000
  0.035430862  -35.352598   45.179615  -98.208634   11.628598    0.000000    0.000000    0.000000    0.000000
  0.035631263  -35.413543   45.321133  -98.655672   14.620464    0.000000    0.000000    0.000000    0.000000
  0.035831663  -35.380461   45.321579  -98.315190    2.772336    0.000000    0.000000    0.000000    0.000000
  0.036032064  -35.349806   45.489330  -98.729138   -1.302133    0.000000    0.000000    0.000000    0.000000
  0.036232465  -35.363260   44.839645  -99.085671    7.073601    0.000000    0.000000    0.000000    0.000000
  0.036432866  -35.378419   45.101139 -101.000514   -1.073004    0.000000    0.000000    0.000000    0.000000
  0.036633267  -35.295398   44.217182  -99.846786   10.451307    0.000000    0.000000    0.000000    0.000000
  0.036833667  -35.394081   44.644539  -99.530176    0.019918    0.000000    0.000000    0.000000    0.000000
  0.037034068  -35.339520   43.834320  -98.535489    2.732777    0.000000    0.000000    0.000000    0.000000
  0.037234469  -35.299667   43.745304  -98.390560    2.937779    0.000000    0.000000    0.000000    0.000000
  0.037434870  -35.258446   43.618134  -99.207682   -1.035242    0.000000    0.000000    0.000000    0.000000
  0.037635271  -35.259817   43.355846  -99.733837   10.340660    0.000000    0.000000    0.000000    0.000000
  0.037835671  -35.223806   42.875198 -100.835144   16.298260    0.000000    0.000000    0.000000    0.000000
  0.038036072  -35.132816   42.144791 -100.647868   -0.125746    0.000000    0.000000    0.000000    0.000000
  0.038236473  -35.113203   42.223801  -99.398870    5.067428    0.000000    0.000000    0.000000    0.000000
  0.038436874  -35.068779   42.512226 -100.705461   -2.036983    0.000000    0.000000    0.000000    0.000000
  0.038637275  -34.960680   41.812962 -101.326215    4.451211    0.000000    0.000000    0.000000    0.000000
  0.038837675  -34.938277   41.445919 -100.283235   10.776221    0.000000    0.000000    0.000000    0.000000
  0.039038076  -34.851197   41.604370 -100.395576    8.385617    0.000000    0.000000    0.000000    0.000000
  0.039238477  -34.741150   41.504276 -100.164928   -6.617029    0.000000    0.000000    0.000000    0.000000
  0.039438878  -34.712543   41.266010  -99.277054    1.910552    0.000000    0.000000    0.000000    0.000000
  0.039639279  -34.602662   41.513634 -100.675925    0.088613    0.000000    0.000000    0.000000    0.000000
  0.039839679  -34.562896   41.518078  -99.354061   13.759220    0.000000    0.000000    0.000000    0.000000
  0.040040080  -34.499269   41.985542 -101.529239    3.687990    0.000000    0.000000    0.000000    0.000000
  0.040240481  -34.449989   41.918449 -102.390335   11.736972    0.000000    0.000000    0.000000    0.000000
  0.040440882  -34.395632   42.137508 -100.852907    6.992662    0.000000    0.000000    0.000000    0.000000
  0.040641283  -34.327234   42.125782  -99.696313    7.861065    0.000000    0.000000    0.000000    0.000000
  0.040841683  -34.330401   42.909695  -99.775962    1.335727    0.000000    0.000000    0.000000    0.000000
  0.041042084  -34.362231   42.846512 -102.637766    4.472919    0.000000    0.000000    0.000000    0.000000
  0.041242485  -34.304666   43.151344 -101.070933    4.763344    0.000000    0.000000    0.000000    0.000000
  0.041442886  -34.293959   43.225281  -99.464943    1.855457    0.000000    0.000000    0.000000    0.000000
  0.041643287  -34.285280   43.406750 -100.827150   14.008976    0.000000    0.000000    0.000000    0.000000
  0.041843687  -34.322236   43.166153 -100.503274    4.374369    0.000000    0.000000    0.000000    0.000000
  0.042044088  -34.341818   43.574661  -99.486366   -3.115216    0.000000    0.000000    0.000000    0.000000
  0.042244489  -34.333684   43.459908 -100.380481    7.023815    0.000000    0.000000    0.000000    0.000000
  0.042444890  -34.366154   43.794163 -101.679988   13.477730    0.000000    0.000000    0.000000    0.000000
  0.042645291  -34.311045   43.960716 -100.420486    9.254368    0.000000    0.000000    0.000000    0.000000
  0.042845691  -34.423957   43.649837 -103.130576   11.507650    0.000000    0.000000    0.000000    0.000000
  0.043046092  -34.345853   43.878345 -101.409963   -0.050085    0.000000    0.000000    0.000000    0.000000
  0.043246493  -34.452767   43.701839 -101.008514    3.862784    0.000000    0.000000    0.000000    0.000000
  0.043446894  -34.482127   43.688641 -101.897003   16.859745    0.000000    0.000000    0.000000    0.000000
  0.043647295  -34.491907   42.788731 -100.787160    3.467452    0.000000    0.000000    0.000000    0.000000
  0.043847695  -34.521212   42.836277 -101.199155   -1.241182    0.000000    0.000000    0.000000    0.000000
  0.044048096  -34.577681   42.354282 -101.003920    1.386305    0.000000    0.000000    0.000000    0.000000
  0.044248497  -34.527052   41.895065 -102.043930   12.725487    0.000000    0.000000    0.000000    0.000000
  0.044448898  -34.623762   41.316711 -102.794639    2.976908    0.000000    0.000000    0.000000    0.000000
  0.044649299  -34.668739   40.625481 -102.595149   11.579151    0.000000    0.000000    0.000000    0.000000
  0.044849699  -34.676813   40.242428 -102.775859   10.268397    0.000000    0.000000    0.000000    0.000000
  0.045050100  -34.621532   39.386139 -102.076648    1.903778    0.000000    0.000000    0.000000    0.000000
  0.045250501  -34.602709   38.416866 -100.201596    7.715609    0.000000    0.000000    0.000000    0.000000
  0.045450902  -34.561761   37.957119 -101.538754    3.190748    0.000000    0.000000    0.000000    0.000000
  0.045651303  -34.503063   37.794041 -102.834360    7.557423    0.000000    0.000000    0.000000    0.000000
  0.045851703  -34.420672   37.004570 -102.303716    2.213379    0.000000    0.000000    0.000000    0.000000
  0.046052104  -34.330154   36.265385 -103.840454    6.901227    0.000000    0.000000    0.000000    0.000000
  0.046252505  -34.236100   35.954548 -102.412951    2.538563    0.000000    0.000000    0.000000    0.000000
  0.046452906  -34.197746   35.399231 -102.076437    1.855023    0.000000    0.000000    0.000000    0.000000
  0.046653307  -34.112726   35.383064 -101.843577    6.895382    0.000000    0.000000    0.000000    0.000000
  0.046853707  -33.958707   34.672379 -103.407622    4.464893    0.000000    0.000000    0.000000    0.000000
  0.047054108  -33.896099   34.524830 -102.640019    5.381651    0.000000    0.000000    0.000000    0.000000
  0.047254509  -33.797521   34.359077 -102.939880    9.765823    0.000000    0.000000    0.000000    0.000000
  0.047454910  -33.573448   34.616409 -101.728429   13.105140    0.000000    0.000000    0.000000    0.000000
  0.047655311  -33.486606   34.264156 -103.329343    7.942893    0.000000    0.000000    0.000000    0.000000
  0.047855711  -33.345161   34.504696 -100.723949   11.569235    0.000000    0.000000    0.000000    0.000000
  0.048056112  -33.283918   35.294830 -101.073823   15.294908    0.000000    0.000000    0.000000    0.000000
  0.048256513  -33.242984   35.608109 -101.882654  -13.333605    0.000000    0.000000    0.000000    0.000000
  0.048456914  -33.124040   35.430874 -103.919587    0.804730    0.000000    0.000000    0.000000    0.000000
  0.048657315  -33.057800   36.080616 -105.118152   -4.209804    0.000000    0.000000    0.000000    0.000000
  0.048857715  -33.035506   36.602692 -102.293036    1.888153    0.000000    0.000000    0.000000    0.000000
  0.049058116  -33.045528   37.154701 -102.311260   -0.502173    0.000000    0.000000    0.000000    0.000000
  0.049258517  -33.057119   37.328930 -102.864571    3.747321    0.000000    0.000000    0.000000    0.000000
  0.049458918  -33.049260   37.959843 -103.249900   11.400840    0.000000    0.000000    0.000000    0.000000
  0.049659319  -33.011658   38.622990 -103.369707   10.385550    0.000000    0.000000    0.000000    0.000000
  0.049859719  -33.110283   38.501530 -103.555739  -10.162179    0.000000    0.000000    0.000000    0.000000
  0.050060120  -33.135504   39.290798 -103.705636    8.032619    0.000000    0.000000    0.000000    0.000000
  0.050260521  -33.231251   39.191063 -105.358893   24.811148    0.000000    0.000000    0.000000    0.000000
  0.050460922  -33.245080   39.464058 -103.317806   -5.727400    0.000000    0.000000    0.000000    0.000000
  0.050661323  -33.341421   39.205200 -100.928870   11.221386    0.000000    0.000000    0.000000    0.000000
  0.050861723  -33.401109   39.646130 -103.771611    6.819580    0.000000    0.000000    0.000000    0.000000
  0.051062124  -33.488279   39.215347 -102.594446    0.273004    0.000000    0.000000    0.000000    0.000000
  0.051262525  -33.501382   38.671749 -101.255155    5.795407    0.000000    0.000000    0.000000    0.000000
  0.051462926  -33.557469   38.270863 -103.061327   -4.401162    0.000000    0.000000    0.000000    0.000000
  0.051663327  -33.626849   37.785305 -102.104524    4.751092    0.000000    0.000000    0.000000    0.000000
  0.051863727  -33.677661   37.462982 -102.099958   12.894402    0.000000    0.000000    0.000000    0.000000
  0.052064128  -33.670112   36.610138 -103.424637    7.213581    0.000000    0.000000    0.000000    0.000000
  0.052264529  -33.672847   35.536777 -101.583996   21.002565    0.000000    0.000000    0.000000    0.000000
  0.052464930  -33.678268   34.898006 -105.148529    2.415160    0.000000    0.000000    0.000000    0.000000
  0.052665331  -33.678195   34.090538 -103.195823   -3.325760    0.000000    0.000000    0.000000    0.000000
  0.052865731  -33.561796   33.252068 -105.615888    9.669533    0.000000    0.000000    0.000000    0.000000
