! Anritsu VNA Master:                     Model: MS2036C/10/77
! SN:                                  1601066
! /card0/usr/18may27.balun/252b.r2..3.s2p
! Existing Calibration Information:
! TYPE:                         Current Settings,       Active Cal Settings
! TIME:             	   05/27/2018 01:01:02 PM,    05/27/2018 12:49:51 PM
! INTERNAL TEMP:    	                   52.3 C,                    52.5 C
! # POINTS:         	                      500,                       500
! START FREQ:       	               20.000 MHz,                20.000 MHz
! STOP FREQ:        	              120.000 MHz,               120.000 MHz
! SOURCE POWER:     	                     High,                      High
! IFBW:             	                    50 Hz,                     50 Hz
! AVG FACTOR:       	                       1 ,                        1 
! REF PLANE 1:      	                     0 mm,                      0 mm
! REF PLANE 2:      	                     0 mm,                      0 mm
! CAL TYPE:         	                 Full S11,                  Full S11
! CAL METHOD:       	                     SOLT,                      SOLT
! CAL LINE TYPE:    	                     Coax,                      Coax
! DUT PORT 1:       	                K-Conn(M),                 K-Conn(M)
! DUT PORT 2:       	                K-Conn(M),                 K-Conn(M)
! CAL STATUS:       	        OK: Accuracy High,                        --
# GHZ S DB R 50.0
! FREQ.GHZ       S11DB        S11A       S21DB        S21A       S12DB        S12A       S22DB        S22A
  0.020000000   -7.288447  154.471939  -91.052395   33.682804    0.000000    0.000000    0.000000    0.000000
  0.020200401   -7.290810  154.219193  -92.126570   31.928495    0.000000    0.000000    0.000000    0.000000
  0.020400802   -7.287791  153.989319  -92.151494   32.878387    0.000000    0.000000    0.000000    0.000000
  0.020601202   -7.289226  153.738892  -91.979465   36.216194    0.000000    0.000000    0.000000    0.000000
  0.020801603   -7.285489  153.484863  -92.612109   33.293495    0.000000    0.000000    0.000000    0.000000
  0.021002004   -7.280290  153.250336  -92.945936   35.824032    0.000000    0.000000    0.000000    0.000000
  0.021202405   -7.280499  153.000427  -92.200582   32.413528    0.000000    0.000000    0.000000    0.000000
  0.021402806   -7.285998  152.761948  -92.568917   35.956882    0.000000    0.000000    0.000000    0.000000
  0.021603206   -7.292337  152.536804  -91.871068   36.474804    0.000000    0.000000    0.000000    0.000000
  0.021803607   -7.292721  152.301559  -92.758806   32.345074    0.000000    0.000000    0.000000    0.000000
  0.022004008   -7.299468  152.044693  -91.749033   34.088093    0.000000    0.000000    0.000000    0.000000
  0.022204409   -7.301107  151.820297  -92.356577   33.845821    0.000000    0.000000    0.000000    0.000000
  0.022404810   -7.301480  151.547150  -92.726181   35.777439    0.000000    0.000000    0.000000    0.000000
  0.022605210   -7.307386  151.299011  -92.238994   29.500483    0.000000    0.000000    0.000000    0.000000
  0.022805611   -7.308423  151.038864  -92.218967   32.185822    0.000000    0.000000    0.000000    0.000000
  0.023006012   -7.308012  150.767822  -92.870544   28.362782    0.000000    0.000000    0.000000    0.000000
  0.023206413   -7.309430  150.481750  -92.569775   30.263872    0.000000    0.000000    0.000000    0.000000
  0.023406814   -7.308596  150.198410  -92.662921   26.571548    0.000000    0.000000    0.000000    0.000000
  0.023607214   -7.308092  149.909363  -92.770011   27.746328    0.000000    0.000000    0.000000    0.000000
  0.023807615   -7.306732  149.628967  -92.956301   21.220436    0.000000    0.000000    0.000000    0.000000
  0.024008016   -7.306121  149.369492  -93.217541   23.100019    0.000000    0.000000    0.000000    0.000000
  0.024208417   -7.304220  149.122635  -94.075232   26.224699    0.000000    0.000000    0.000000    0.000000
  0.024408818   -7.306028  148.887329  -93.378422   23.402357    0.000000    0.000000    0.000000    0.000000
  0.024609218   -7.307839  148.653046  -94.676295   20.348967    0.000000    0.000000    0.000000    0.000000
  0.024809619   -7.306998  148.426025  -94.107845   21.691160    0.000000    0.000000    0.000000    0.000000
  0.025010020   -7.304556  148.183472  -94.793943   24.468294    0.000000    0.000000    0.000000    0.000000
  0.025210421   -7.311538  147.928284  -94.573615   22.704960    0.000000    0.000000    0.000000    0.000000
  0.025410822   -7.311160  147.658646  -93.980587   26.444347    0.000000    0.000000    0.000000    0.000000
  0.025611222   -7.311548  147.387848  -94.136157   25.494198    0.000000    0.000000    0.000000    0.000000
  0.025811623   -7.301177  147.119354  -94.976365   17.367708    0.000000    0.000000    0.000000    0.000000
  0.026012024   -7.296972  146.874573  -94.214016   22.728632    0.000000    0.000000    0.000000    0.000000
  0.026212425   -7.297822  146.602142  -94.927097   22.960035    0.000000    0.000000    0.000000    0.000000
  0.026412826   -7.293821  146.347733  -94.882700   20.862881    0.000000    0.000000    0.000000    0.000000
  0.026613226   -7.291242  146.143204  -94.672149   26.828465    0.000000    0.000000    0.000000    0.000000
  0.026813627   -7.289798  145.933426  -94.428786   23.626822    0.000000    0.000000    0.000000    0.000000
  0.027014028   -7.293297  145.728409  -94.786023   23.096445    0.000000    0.000000    0.000000    0.000000
  0.027214429   -7.293924  145.533508  -95.315690   20.363424    0.000000    0.000000    0.000000    0.000000
  0.027414830   -7.298998  145.345093  -95.881057   22.430891    0.000000    0.000000    0.000000    0.000000
  0.027615230   -7.303720  145.117020  -96.192924   15.028705    0.000000    0.000000    0.000000    0.000000
  0.027815631   -7.309753  144.869507  -95.720222   22.677038    0.000000    0.000000    0.000000    0.000000
  0.028016032   -7.314990  144.585602  -96.149258   24.604486    0.000000    0.000000    0.000000    0.000000
  0.028216433   -7.316739  144.305954  -95.182787   20.225637    0.000000    0.000000    0.000000    0.000000
  0.028416834   -7.321792  144.013489  -95.746044   17.610119    0.000000    0.000000    0.000000    0.000000
  0.028617234   -7.321784  143.732544  -96.706793   18.302862    0.000000    0.000000    0.000000    0.000000
  0.028817635   -7.320957  143.416473  -96.393419   13.359426    0.000000    0.000000    0.000000    0.000000
  0.029018036   -7.320743  143.141235  -96.788025   16.285135    0.000000    0.000000    0.000000    0.000000
  0.029218437   -7.316167  142.836380  -97.079384   12.844902    0.000000    0.000000    0.000000    0.000000
  0.029418838   -7.311326  142.598618  -96.305541   11.812025    0.000000    0.000000    0.000000    0.000000
  0.029619238   -7.307681  142.379120  -97.537853   12.162620    0.000000    0.000000    0.000000    0.000000
  0.029819639   -7.303917  142.170044  -96.551726   15.229201    0.000000    0.000000    0.000000    0.000000
  0.030020040   -7.300023  141.952621  -97.218633   15.585353    0.000000    0.000000    0.000000    0.000000
  0.030220441   -7.303611  141.756561  -97.054164   16.204184    0.000000    0.000000    0.000000    0.000000
  0.030420842   -7.307626  141.529907  -96.535387   18.446196    0.000000    0.000000    0.000000    0.000000
  0.030621242   -7.309828  141.300690  -97.032550   15.533919    0.000000    0.000000    0.000000    0.000000
  0.030821643   -7.316251  140.999664  -98.261312   14.065387    0.000000    0.000000    0.000000    0.000000
  0.031022044   -7.315172  140.707550  -96.952770   18.987938    0.000000    0.000000    0.000000    0.000000
  0.031222445   -7.304402  140.460526  -96.220875   17.516870    0.000000    0.000000    0.000000    0.000000
  0.031422846   -7.302112  140.209061  -97.720022   10.411340    0.000000    0.000000    0.000000    0.000000
  0.031623246   -7.299838  139.917664  -97.266112    9.600789    0.000000    0.000000    0.000000    0.000000
  0.031823647   -7.292139  139.666397  -98.221632   16.139757    0.000000    0.000000    0.000000    0.000000
  0.032024048   -7.286494  139.447922  -97.315321   19.518366    0.000000    0.000000    0.000000    0.000000
  0.032224449   -7.281197  139.227036  -97.894495    9.032001    0.000000    0.000000    0.000000    0.000000
  0.032424850   -7.273647  138.999161  -97.598240    8.115378    0.000000    0.000000    0.000000    0.000000
  0.032625251   -7.269865  138.817932  -97.788161    4.790641    0.000000    0.000000    0.000000    0.000000
  0.032825651   -7.271746  138.599030  -96.696182   11.820451    0.000000    0.000000    0.000000    0.000000
  0.033026052   -7.275021  138.410080  -98.086598   15.800573    0.000000    0.000000    0.000000    0.000000
  0.033226453   -7.284540  138.178299  -98.382613   10.278766    0.000000    0.000000    0.000000    0.000000
  0.033426854   -7.291414  137.922882  -98.733162   11.693400    0.000000    0.000000    0.000000    0.000000
  0.033627255   -7.292763  137.659424  -97.099035   11.727813    0.000000    0.000000    0.000000    0.000000
  0.033827655   -7.298408  137.376617  -98.895524   11.108323    0.000000    0.000000    0.000000    0.000000
  0.034028056   -7.304881  137.101822  -99.075193    7.907642    0.000000    0.000000    0.000000    0.000000
  0.034228457   -7.314780  136.799988  -98.676062   13.040185    0.000000    0.000000    0.000000    0.000000
  0.034428858   -7.311609  136.511444  -99.277294    9.851282    0.000000    0.000000    0.000000    0.000000
  0.034629259   -7.313423  136.235687  -98.371661    3.098454    0.000000    0.000000    0.000000    0.000000
  0.034829659   -7.310190  135.960236  -97.847753    3.711077    0.000000    0.000000    0.000000    0.000000
  0.035030060   -7.302850  135.687500  -98.432467    6.112130    0.000000    0.000000    0.000000    0.000000
  0.035230461   -7.291955  135.397064  -98.670868    9.505517    0.000000    0.000000    0.000000    0.000000
  0.035430862   -7.287106  135.172119  -98.081259   13.547642    0.000000    0.000000    0.000000    0.000000
  0.035631263   -7.281348  134.984634  -98.565579    4.691884    0.000000    0.000000    0.000000    0.000000
  0.035831663   -7.282724  134.816910  -99.472711   14.675759    0.000000    0.000000    0.000000    0.000000
  0.036032064   -7.283799  134.579514  -98.707867   13.484191    0.000000    0.000000    0.000000    0.000000
  0.036232465   -7.291268  134.328430  -97.872405    3.666771    0.000000    0.000000    0.000000    0.000000
  0.036432866   -7.296276  134.073303  -99.539583   16.170708    0.000000    0.000000    0.000000    0.000000
  0.036633267   -7.304521  133.796402  -98.570448    9.358709    0.000000    0.000000    0.000000    0.000000
  0.036833667   -7.304714  133.514481  -99.357844   12.346530    0.000000    0.000000    0.000000    0.000000
  0.037034068   -7.305905  133.271591  -99.672430   19.585945    0.000000    0.000000    0.000000    0.000000
  0.037234469   -7.302333  132.990326  -98.797544    8.900126    0.000000    0.000000    0.000000    0.000000
  0.037434870   -7.295321  132.713989  -99.235533   11.659329    0.000000    0.000000    0.000000    0.000000
  0.037635271   -7.284387  132.491089  -99.857117    8.807056    0.000000    0.000000    0.000000    0.000000
  0.037835671   -7.280895  132.227448  -99.600056   12.327120    0.000000    0.000000    0.000000    0.000000
  0.038036072   -7.273141  132.005020  -99.599891    5.517586    0.000000    0.000000    0.000000    0.000000
  0.038236473   -7.272969  131.820602 -100.163984    8.329245    0.000000    0.000000    0.000000    0.000000
  0.038436874   -7.271519  131.617737 -100.777441    3.289497    0.000000    0.000000    0.000000    0.000000
  0.038637275   -7.274563  131.425140 -100.479596    0.464872    0.000000    0.000000    0.000000    0.000000
  0.038837675   -7.281438  131.198380 -100.999854   -3.390279    0.000000    0.000000    0.000000    0.000000
  0.039038076   -7.286283  130.936371 -100.206005   -0.578613    0.000000    0.000000    0.000000    0.000000
  0.039238477   -7.293044  130.664078 -100.786073   -9.914274    0.000000    0.000000    0.000000    0.000000
  0.039438878   -7.296885  130.395737 -100.079062   12.300407    0.000000    0.000000    0.000000    0.000000
  0.039639279   -7.301942  130.162094 -101.440497   -1.405633    0.000000    0.000000    0.000000    0.000000
  0.039839679   -7.302276  129.864319 -100.180768   -0.769834    0.000000    0.000000    0.000000    0.000000
  0.040040080   -7.298959  129.600418  -99.421346   11.639235    0.000000    0.000000    0.000000    0.000000
  0.040240481   -7.295527  129.328873 -100.245366    9.242337    0.000000    0.000000    0.000000    0.000000
  0.040440882   -7.290566  129.046295  -99.186218   10.642096    0.000000    0.000000    0.000000    0.000000
  0.040641283   -7.282035  128.769012 -100.735477   17.792849    0.000000    0.000000    0.000000    0.000000
  0.040841683   -7.273186  128.549835 -102.329513    7.041749    0.000000    0.000000    0.000000    0.000000
  0.041042084   -7.272516  128.348083 -100.553825    7.338317    0.000000    0.000000    0.000000    0.000000
  0.041242485   -7.273158  128.139572 -104.206241   14.709565    0.000000    0.000000    0.000000    0.000000
  0.041442886   -7.275591  127.987007  -99.336194   17.049698    0.000000    0.000000    0.000000    0.000000
  0.041643287   -7.285942  127.743568 -101.720427   15.682908    0.000000    0.000000    0.000000    0.000000
  0.041843687   -7.290290  127.467751 -101.463963   -7.837019    0.000000    0.000000    0.000000    0.000000
  0.042044088   -7.295394  127.208588  -99.488087   12.993220    0.000000    0.000000    0.000000    0.000000
  0.042244489   -7.298120  126.973091 -100.217548   -0.295415    0.000000    0.000000    0.000000    0.000000
  0.042444890   -7.299940  126.692650 -100.279263    3.717906    0.000000    0.000000    0.000000    0.000000
  0.042645291   -7.300203  126.408485 -100.280928   -0.968922    0.000000    0.000000    0.000000    0.000000
  0.042845691   -7.294732  126.163139 -100.002575    8.928861    0.000000    0.000000    0.000000    0.000000
  0.043046092   -7.290215  125.857094 -101.522838    0.290252    0.000000    0.000000    0.000000    0.000000
  0.043246493   -7.281004  125.603561 -101.424301    6.300836    0.000000    0.000000    0.000000    0.000000
  0.043446894   -7.276524  125.399117 -102.073756   -1.881803    0.000000    0.000000    0.000000    0.000000
  0.043647295   -7.276633  125.181259 -100.707481    6.348806    0.000000    0.000000    0.000000    0.000000
  0.043847695   -7.277943  124.958542 -101.963206    6.643358    0.000000    0.000000    0.000000    0.000000
  0.044048096   -7.282880  124.723915 -102.617603    2.204173    0.000000    0.000000    0.000000    0.000000
  0.044248497   -7.287253  124.480209 -102.597463   -9.926902    0.000000    0.000000    0.000000    0.000000
  0.044448898   -7.290955  124.237946 -102.057867    5.498697    0.000000    0.000000    0.000000    0.000000
  0.044649299   -7.292274  123.963181 -102.085934    6.688691    0.000000    0.000000    0.000000    0.000000
  0.044849699   -7.297902  123.693008 -103.214255    7.250185    0.000000    0.000000    0.000000    0.000000
  0.045050100   -7.299801  123.424591 -102.158636   11.715719    0.000000    0.000000    0.000000    0.000000
  0.045250501   -7.299740  123.147491 -100.429634   -2.017448    0.000000    0.000000    0.000000    0.000000
  0.045450902   -7.298250  122.877014 -104.841381    0.889085    0.000000    0.000000    0.000000    0.000000
  0.045651303   -7.289582  122.566650 -103.358786    3.491103    0.000000    0.000000    0.000000    0.000000
  0.045851703   -7.284714  122.290848 -101.710591    0.076634    0.000000    0.000000    0.000000    0.000000
  0.046052104   -7.272408  122.049988 -100.333899    5.111578    0.000000    0.000000    0.000000    0.000000
  0.046252505   -7.263799  121.820976 -100.852433    2.637149    0.000000    0.000000    0.000000    0.000000
  0.046452906   -7.259893  121.628349 -102.761203   18.662403    0.000000    0.000000    0.000000    0.000000
  0.046653307   -7.261048  121.444603 -101.138759    6.949539    0.000000    0.000000    0.000000    0.000000
  0.046853707   -7.262111  121.237137 -100.942026    4.451470    0.000000    0.000000    0.000000    0.000000
  0.047054108   -7.268052  121.009003 -101.232136   -1.411251    0.000000    0.000000    0.000000    0.000000
  0.047254509   -7.273329  120.787704 -101.079863   11.343220    0.000000    0.000000    0.000000    0.000000
  0.047454910   -7.275031  120.544258 -102.169693   -4.389105    0.000000    0.000000    0.000000    0.000000
  0.047655311   -7.277578  120.297539 -102.089410   11.690915    0.000000    0.000000    0.000000    0.000000
  0.047855711   -7.276376  120.060394 -100.279049    6.820827    0.000000    0.000000    0.000000    0.000000
  0.048056112   -7.275725  119.803825 -102.534239   -8.618268    0.000000    0.000000    0.000000    0.000000
  0.048256513   -7.273824  119.506615 -104.033520    1.651589    0.000000    0.000000    0.000000    0.000000
  0.048456914   -7.263599  119.297012 -101.815082   -2.815242    0.000000    0.000000    0.000000    0.000000
  0.048657315   -7.258786  119.054771 -101.602850   -5.654487    0.000000    0.000000    0.000000    0.000000
  0.048857715   -7.260029  118.813766 -103.465464   10.004156    0.000000    0.000000    0.000000    0.000000
  0.049058116   -7.260160  118.601151 -103.052903    3.202680    0.000000    0.000000    0.000000    0.000000
  0.049258517   -7.260099  118.412186 -102.970783    4.444544    0.000000    0.000000    0.000000    0.000000
  0.049458918   -7.266496  118.213989 -104.612878   -1.350286    0.000000    0.000000    0.000000    0.000000
  0.049659319   -7.270094  117.972328 -105.600109   -7.487507    0.000000    0.000000    0.000000    0.000000
  0.049859719   -7.275284  117.728745 -103.743474    3.096346    0.000000    0.000000    0.000000    0.000000
  0.050060120   -7.283526  117.448235 -105.992308  -13.297988    0.000000    0.000000    0.000000    0.000000
  0.050260521   -7.285279  117.180611 -103.784916   10.951745    0.000000    0.000000    0.000000    0.000000
  0.050460922   -7.286406  116.936432 -104.625167   17.080824    0.000000    0.000000    0.000000    0.000000
  0.050661323   -7.286982  116.686417 -103.428895    4.706966    0.000000    0.000000    0.000000    0.000000
  0.050861723   -7.287184  116.366425 -102.467635    7.133750    0.000000    0.000000    0.000000    0.000000
  0.051062124   -7.281196  116.062592 -101.268046   17.946657    0.000000    0.000000    0.000000    0.000000
  0.051262525   -7.276440  115.766815 -102.454725   14.510462    0.000000    0.000000    0.000000    0.000000
  0.051462926   -7.270805  115.527390 -102.445690   10.109460    0.000000    0.000000    0.000000    0.000000
  0.051663327   -7.266279  115.288979 -102.793157    2.132128    0.000000    0.000000    0.000000    0.000000
  0.051863727   -7.267911  115.093918 -103.982049    7.775836    0.000000    0.000000    0.000000    0.000000
  0.052064128   -7.263483  114.863800 -102.741358    0.176556    0.000000    0.000000    0.000000    0.000000
  0.052264529   -7.266970  114.630051 -103.167819   14.448734    0.000000    0.000000    0.000000    0.000000
  0.052464930   -7.270666  114.398331 -101.840243   -0.755500    0.000000    0.000000    0.000000    0.000000
  0.052665331   -7.275006  114.154236 -102.435112    4.490605    0.000000    0.000000    0.000000    0.000000
  0.052865731   -7.275693  113.908371 -101.844375   -4.215303    0.000000    0.000000    0.000000    0.000000
