! Anritsu VNA Master:                     Model: MS2036C/10/77
! SN:                                  1601066
! /card0/usr/18may27.balun/252b.r20.2.s2p
! Existing Calibration Information:
! TYPE:                         Current Settings,       Active Cal Settings
! TIME:             	   05/27/2018 12:32:58 PM,    05/27/2018 12:21:44 PM
! INTERNAL TEMP:    	                   53.5 C,                    53.3 C
! # POINTS:         	                      500,                       500
! START FREQ:       	               20.000 MHz,                20.000 MHz
! STOP FREQ:        	              120.000 MHz,               120.000 MHz
! SOURCE POWER:     	                     High,                      High
! IFBW:             	                    50 Hz,                     50 Hz
! AVG FACTOR:       	                       1 ,                        1 
! REF PLANE 1:      	                     0 mm,                      0 mm
! REF PLANE 2:      	                     0 mm,                      0 mm
! CAL TYPE:         	                 Full S11,                  Full S11
! CAL METHOD:       	                     SOLT,                      SOLT
! CAL LINE TYPE:    	                     Coax,                      Coax
! DUT PORT 1:       	                K-Conn(M),                 K-Conn(M)
! DUT PORT 2:       	                K-Conn(M),                 K-Conn(M)
! CAL STATUS:       	        OK: Accuracy High,                        --
# GHZ S DB R 50.0
! FREQ.GHZ       S11DB        S11A       S21DB        S21A       S12DB        S12A       S22DB        S22A
  0.020000000   -7.282921  153.944092  -91.326555   30.083513    0.000000    0.000000    0.000000    0.000000
  0.020200401   -7.281307  153.706146  -91.563105   34.975067    0.000000    0.000000    0.000000    0.000000
  0.020400802   -7.277636  153.500336  -91.840210   32.078163    0.000000    0.000000    0.000000    0.000000
  0.020601202   -7.276522  153.277252  -91.820686   33.376247    0.000000    0.000000    0.000000    0.000000
  0.020801603   -7.273497  153.069977  -92.330088   34.481483    0.000000    0.000000    0.000000    0.000000
  0.021002004   -7.270084  152.829742  -91.954550   34.147156    0.000000    0.000000    0.000000    0.000000
  0.021202405   -7.274525  152.610779  -92.184265   31.554737    0.000000    0.000000    0.000000    0.000000
  0.021402806   -7.284352  152.409363  -91.989318   32.003090    0.000000    0.000000    0.000000    0.000000
  0.021603206   -7.287648  152.154892  -92.125193   35.281528    0.000000    0.000000    0.000000    0.000000
  0.021803607   -7.295758  151.915634  -92.149642   32.884029    0.000000    0.000000    0.000000    0.000000
  0.022004008   -7.307171  151.673325  -92.487675   37.948689    0.000000    0.000000    0.000000    0.000000
  0.022204409   -7.308534  151.417679  -92.291111   34.032082    0.000000    0.000000    0.000000    0.000000
  0.022404810   -7.317114  151.139664  -92.422083   32.138462    0.000000    0.000000    0.000000    0.000000
  0.022605210   -7.324164  150.841766  -92.186936   30.309921    0.000000    0.000000    0.000000    0.000000
  0.022805611   -7.326497  150.538391  -92.522363   31.159883    0.000000    0.000000    0.000000    0.000000
  0.023006012   -7.329921  150.233353  -92.755309   28.413784    0.000000    0.000000    0.000000    0.000000
  0.023206413   -7.327976  149.892075  -93.206545   26.311314    0.000000    0.000000    0.000000    0.000000
  0.023406814   -7.327087  149.588608  -92.837007   23.345270    0.000000    0.000000    0.000000    0.000000
  0.023607214   -7.328345  149.265640  -93.066106   27.343437    0.000000    0.000000    0.000000    0.000000
  0.023807615   -7.321282  148.942200  -93.165024   25.161575    0.000000    0.000000    0.000000    0.000000
  0.024008016   -7.319447  148.631760  -93.229083   21.815950    0.000000    0.000000    0.000000    0.000000
  0.024208417   -7.311310  148.374344  -93.506060   25.780460    0.000000    0.000000    0.000000    0.000000
  0.024408818   -7.308691  148.098465  -94.001851   20.549019    0.000000    0.000000    0.000000    0.000000
  0.024609218   -7.305464  147.882660  -93.932952   22.467690    0.000000    0.000000    0.000000    0.000000
  0.024809619   -7.303051  147.651947  -94.351736   23.201126    0.000000    0.000000    0.000000    0.000000
  0.025010020   -7.297890  147.429672  -93.972866   25.410021    0.000000    0.000000    0.000000    0.000000
  0.025210421   -7.293944  147.189331  -94.696620   24.849773    0.000000    0.000000    0.000000    0.000000
  0.025410822   -7.294284  146.940948  -95.108884   25.614500    0.000000    0.000000    0.000000    0.000000
  0.025611222   -7.293086  146.726089  -94.566136   24.440519    0.000000    0.000000    0.000000    0.000000
  0.025811623   -7.288267  146.486053  -94.415810   22.295607    0.000000    0.000000    0.000000    0.000000
  0.026012024   -7.282791  146.253448  -95.632169   25.122412    0.000000    0.000000    0.000000    0.000000
  0.026212425   -7.280326  146.017349  -94.657064   20.335238    0.000000    0.000000    0.000000    0.000000
  0.026412826   -7.282927  145.805588  -96.184490   28.068195    0.000000    0.000000    0.000000    0.000000
  0.026613226   -7.285049  145.565613  -95.325520   19.432831    0.000000    0.000000    0.000000    0.000000
  0.026813627   -7.288838  145.371567  -94.752399   25.062315    0.000000    0.000000    0.000000    0.000000
  0.027014028   -7.296284  145.175781  -95.560307   16.921074    0.000000    0.000000    0.000000    0.000000
  0.027214429   -7.304050  144.959747  -95.951497   19.825001    0.000000    0.000000    0.000000    0.000000
  0.027414830   -7.310741  144.745178  -95.654050   21.754511    0.000000    0.000000    0.000000    0.000000
  0.027615230   -7.318404  144.493622  -95.471126   16.917667    0.000000    0.000000    0.000000    0.000000
  0.027815631   -7.331873  144.202606  -95.232403   19.742779    0.000000    0.000000    0.000000    0.000000
  0.028016032   -7.338122  143.870758  -95.752853   17.799734    0.000000    0.000000    0.000000    0.000000
  0.028216433   -7.344146  143.548492  -95.868064   14.526401    0.000000    0.000000    0.000000    0.000000
  0.028416834   -7.346787  143.175568  -95.075252   19.585484    0.000000    0.000000    0.000000    0.000000
  0.028617234   -7.346293  142.827866  -96.054095   10.525688    0.000000    0.000000    0.000000    0.000000
  0.028817635   -7.342680  142.476547  -95.956907   11.806381    0.000000    0.000000    0.000000    0.000000
  0.029018036   -7.340768  142.126617  -96.648498   12.662237    0.000000    0.000000    0.000000    0.000000
  0.029218437   -7.330100  141.815918  -96.734673   16.725548    0.000000    0.000000    0.000000    0.000000
  0.029418838   -7.320144  141.540405  -96.793971   15.715957    0.000000    0.000000    0.000000    0.000000
  0.029619238   -7.306914  141.294983  -98.152611   15.917465    0.000000    0.000000    0.000000    0.000000
  0.029819639   -7.296470  141.058746  -97.746599   16.413624    0.000000    0.000000    0.000000    0.000000
  0.030020040   -7.285288  140.879517  -97.192823   11.224409    0.000000    0.000000    0.000000    0.000000
  0.030220441   -7.278431  140.679718  -96.885010   15.967070    0.000000    0.000000    0.000000    0.000000
  0.030420842   -7.276187  140.487549  -96.760452   15.858619    0.000000    0.000000    0.000000    0.000000
  0.030621242   -7.282364  140.289963  -97.081905   19.496292    0.000000    0.000000    0.000000    0.000000
  0.030821643   -7.280277  140.039536  -97.206098   17.551302    0.000000    0.000000    0.000000    0.000000
  0.031022044   -7.279980  139.801208  -97.327536   18.059591    0.000000    0.000000    0.000000    0.000000
  0.031222445   -7.265589  139.593109  -97.230076   12.506780    0.000000    0.000000    0.000000    0.000000
  0.031422846   -7.267591  139.355957  -96.751606   15.889344    0.000000    0.000000    0.000000    0.000000
  0.031623246   -7.267539  139.128006  -98.088319   13.532858    0.000000    0.000000    0.000000    0.000000
  0.031823647   -7.266151  138.937302  -97.461620   11.976757    0.000000    0.000000    0.000000    0.000000
  0.032024048   -7.265181  138.729263  -98.390653    6.097459    0.000000    0.000000    0.000000    0.000000
  0.032224449   -7.263004  138.515137  -97.790088   13.542846    0.000000    0.000000    0.000000    0.000000
  0.032424850   -7.263774  138.310516  -98.689337   13.026447    0.000000    0.000000    0.000000    0.000000
  0.032625251   -7.263724  138.111115  -98.385257   15.024059    0.000000    0.000000    0.000000    0.000000
  0.032825651   -7.269586  137.888000  -99.303286   13.067180    0.000000    0.000000    0.000000    0.000000
  0.033026052   -7.280789  137.654633  -98.753238   19.320732    0.000000    0.000000    0.000000    0.000000
  0.033226453   -7.291181  137.402634  -97.889228   11.963171    0.000000    0.000000    0.000000    0.000000
  0.033426854   -7.300030  137.108170  -97.211973    9.354796    0.000000    0.000000    0.000000    0.000000
  0.033627255   -7.309007  136.775375  -99.280838    7.531106    0.000000    0.000000    0.000000    0.000000
  0.033827655   -7.317644  136.445389  -98.461776    5.403122    0.000000    0.000000    0.000000    0.000000
  0.034028056   -7.322254  136.126129  -97.397481   15.333673    0.000000    0.000000    0.000000    0.000000
  0.034228457   -7.326305  135.747284  -97.927829    4.694877    0.000000    0.000000    0.000000    0.000000
  0.034428858   -7.325484  135.444260  -99.369169    9.911497    0.000000    0.000000    0.000000    0.000000
  0.034629259   -7.319566  135.101440  -98.001063   14.250013    0.000000    0.000000    0.000000    0.000000
  0.034829659   -7.313732  134.817474  -98.466441    8.407811    0.000000    0.000000    0.000000    0.000000
  0.035030060   -7.301113  134.514542  -99.631478    9.353101    0.000000    0.000000    0.000000    0.000000
  0.035230461   -7.287098  134.208633  -99.227608   10.254472    0.000000    0.000000    0.000000    0.000000
  0.035430862   -7.271221  133.972366  -98.401266   10.272669    0.000000    0.000000    0.000000    0.000000
  0.035631263   -7.261888  133.772476  -98.633503   16.518621    0.000000    0.000000    0.000000    0.000000
  0.035831663   -7.257198  133.616409  -99.583949    0.687048    0.000000    0.000000    0.000000    0.000000
  0.036032064   -7.258251  133.439682  -98.516256   17.907459    0.000000    0.000000    0.000000    0.000000
  0.036232465   -7.258135  133.220795  -98.575101   17.570440    0.000000    0.000000    0.000000    0.000000
  0.036432866   -7.262270  132.988174  -98.687765   11.150428    0.000000    0.000000    0.000000    0.000000
  0.036633267   -7.270724  132.737137  -98.661145   15.464115    0.000000    0.000000    0.000000    0.000000
  0.036833667   -7.271692  132.507401  -99.640322   10.970926    0.000000    0.000000    0.000000    0.000000
  0.037034068   -7.274145  132.276459  -98.834683   18.364079    0.000000    0.000000    0.000000    0.000000
  0.037234469   -7.274219  132.013733 -100.393206   -6.724998    0.000000    0.000000    0.000000    0.000000
  0.037434870   -7.273011  131.773621  -98.062772    1.819325    0.000000    0.000000    0.000000    0.000000
  0.037635271   -7.271013  131.536926 -100.102728    0.997378    0.000000    0.000000    0.000000    0.000000
  0.037835671   -7.267882  131.276703  -99.194976    6.026126    0.000000    0.000000    0.000000    0.000000
  0.038036072   -7.261692  131.083359 -100.900958    7.119072    0.000000    0.000000    0.000000    0.000000
  0.038236473   -7.264957  130.863373 -100.176238    3.028318    0.000000    0.000000    0.000000    0.000000
  0.038436874   -7.268439  130.655823 -100.513633   -2.807496    0.000000    0.000000    0.000000    0.000000
  0.038637275   -7.277513  130.413727 -100.147513   11.388120    0.000000    0.000000    0.000000    0.000000
  0.038837675   -7.282724  130.143661  -99.465941    8.246447    0.000000    0.000000    0.000000    0.000000
  0.039038076   -7.289521  129.831940 -100.817452   10.023386    0.000000    0.000000    0.000000    0.000000
  0.039238477   -7.292449  129.530502 -100.579331    9.197686    0.000000    0.000000    0.000000    0.000000
  0.039438878   -7.300071  129.241898  -99.643360   17.381165    0.000000    0.000000    0.000000    0.000000
  0.039639279   -7.300243  128.922287  -99.974420   11.891689    0.000000    0.000000    0.000000    0.000000
  0.039839679   -7.297751  128.620270 -101.101463    3.974434    0.000000    0.000000    0.000000    0.000000
  0.040040080   -7.293395  128.370712 -100.918559   12.767190    0.000000    0.000000    0.000000    0.000000
  0.040240481   -7.285352  128.068985 -100.964253    5.080829    0.000000    0.000000    0.000000    0.000000
  0.040440882   -7.275694  127.798798 -100.614782    1.388093    0.000000    0.000000    0.000000    0.000000
  0.040641283   -7.261240  127.548660 -101.669106    0.466927    0.000000    0.000000    0.000000    0.000000
  0.040841683   -7.246997  127.328522  -98.843352    7.799011    0.000000    0.000000    0.000000    0.000000
  0.041042084   -7.245040  127.149475 -102.620521  -10.501239    0.000000    0.000000    0.000000    0.000000
  0.041242485   -7.242409  126.999130 -100.776790   11.935690    0.000000    0.000000    0.000000    0.000000
  0.041442886   -7.246351  126.845726 -101.612460   10.055957    0.000000    0.000000    0.000000    0.000000
  0.041643287   -7.254011  126.640106 -101.506441   -6.406535    0.000000    0.000000    0.000000    0.000000
  0.041843687   -7.259388  126.412865  -99.900753    6.373558    0.000000    0.000000    0.000000    0.000000
  0.042044088   -7.268573  126.168617  -99.896680    9.579826    0.000000    0.000000    0.000000    0.000000
  0.042244489   -7.277644  125.936638 -101.217220    7.195451    0.000000    0.000000    0.000000    0.000000
  0.042444890   -7.284652  125.665970 -101.289374    9.698592    0.000000    0.000000    0.000000    0.000000
  0.042645291   -7.286621  125.421600 -101.068126   -1.811548    0.000000    0.000000    0.000000    0.000000
  0.042845691   -7.289389  125.117020 -101.510581   -6.172464    0.000000    0.000000    0.000000    0.000000
  0.043046092   -7.288118  124.819878 -101.362313   -8.202995    0.000000    0.000000    0.000000    0.000000
  0.043246493   -7.283393  124.520294 -100.158891   -4.530772    0.000000    0.000000    0.000000    0.000000
  0.043446894   -7.279492  124.251740 -101.992285   -6.718793    0.000000    0.000000    0.000000    0.000000
  0.043647295   -7.282623  123.986946  -99.818931   -1.729452    0.000000    0.000000    0.000000    0.000000
  0.043847695   -7.284572  123.717743 -101.698409   15.852541    0.000000    0.000000    0.000000    0.000000
  0.044048096   -7.286941  123.454597 -103.183137   15.590337    0.000000    0.000000    0.000000    0.000000
  0.044248497   -7.295678  123.148216 -100.927798    0.365922    0.000000    0.000000    0.000000    0.000000
  0.044448898   -7.298404  122.835800 -104.102145    5.421787    0.000000    0.000000    0.000000    0.000000
  0.044649299   -7.293993  122.527473 -102.513345    6.260315    0.000000    0.000000    0.000000    0.000000
  0.044849699   -7.293772  122.236191 -102.162246    2.761756    0.000000    0.000000    0.000000    0.000000
  0.045050100   -7.281128  121.925407 -104.188389   16.900845    0.000000    0.000000    0.000000    0.000000
  0.045250501   -7.270689  121.670845 -101.757403    3.349688    0.000000    0.000000    0.000000    0.000000
  0.045450902   -7.261660  121.378128 -102.267553   15.526795    0.000000    0.000000    0.000000    0.000000
  0.045651303   -7.246498  121.071770 -103.285531    3.207101    0.000000    0.000000    0.000000    0.000000
  0.045851703   -7.233461  120.847046 -102.454131    7.789860    0.000000    0.000000    0.000000    0.000000
  0.046052104   -7.217074  120.640457 -100.994894   15.302971    0.000000    0.000000    0.000000    0.000000
  0.046252505   -7.201344  120.465988 -101.258594   10.244591    0.000000    0.000000    0.000000    0.000000
  0.046452906   -7.195985  120.329910 -102.295903   -4.286526    0.000000    0.000000    0.000000    0.000000
  0.046653307   -7.194373  120.229225 -101.300303   13.272959    0.000000    0.000000    0.000000    0.000000
  0.046853707   -7.198050  120.098717 -101.852274   10.581451    0.000000    0.000000    0.000000    0.000000
  0.047054108   -7.202669  119.936821 -103.564454    5.148791    0.000000    0.000000    0.000000    0.000000
  0.047254509   -7.211630  119.812309 -101.672871   20.749887    0.000000    0.000000    0.000000    0.000000
  0.047454910   -7.218416  119.600639 -102.081338   -2.597584    0.000000    0.000000    0.000000    0.000000
  0.047655311   -7.231099  119.434723 -103.346329    9.105054    0.000000    0.000000    0.000000    0.000000
  0.047855711   -7.238611  119.217087 -103.013618   -0.534441    0.000000    0.000000    0.000000    0.000000
  0.048056112   -7.245159  118.984367 -102.019584    3.663250    0.000000    0.000000    0.000000    0.000000
  0.048256513   -7.254197  118.703728 -101.644864  -12.061205    0.000000    0.000000    0.000000    0.000000
  0.048456914   -7.261593  118.456451 -101.470391   -6.892910    0.000000    0.000000    0.000000    0.000000
  0.048657315   -7.267016  118.203674 -103.180938  -21.542995    0.000000    0.000000    0.000000    0.000000
  0.048857715   -7.275920  117.923035 -102.307392    7.793942    0.000000    0.000000    0.000000    0.000000
  0.049058116   -7.285242  117.664024 -101.648826   -1.932182    0.000000    0.000000    0.000000    0.000000
  0.049258517   -7.297709  117.400093 -105.543096    3.714843    0.000000    0.000000    0.000000    0.000000
  0.049458918   -7.303742  117.102448 -105.290216   13.246589    0.000000    0.000000    0.000000    0.000000
  0.049659319   -7.312684  116.765694 -103.338036    4.522728    0.000000    0.000000    0.000000    0.000000
  0.049859719   -7.317962  116.431763 -103.376229    6.378580    0.000000    0.000000    0.000000    0.000000
  0.050060120   -7.323549  116.073601 -101.402614    5.007857    0.000000    0.000000    0.000000    0.000000
  0.050260521   -7.325123  115.742607 -106.005514  -17.045942    0.000000    0.000000    0.000000    0.000000
  0.050460922   -7.324773  115.396965 -104.042986   15.949895    0.000000    0.000000    0.000000    0.000000
  0.050661323   -7.315528  115.039185 -102.881471    7.504872    0.000000    0.000000    0.000000    0.000000
  0.050861723   -7.306022  114.702835 -101.877755    5.089128    0.000000    0.000000    0.000000    0.000000
  0.051062124   -7.293544  114.374794 -101.711954    7.666087    0.000000    0.000000    0.000000    0.000000
  0.051262525   -7.278018  114.069984  -99.010301    4.949387    0.000000    0.000000    0.000000    0.000000
  0.051462926   -7.265387  113.802628 -101.947280   14.129394    0.000000    0.000000    0.000000    0.000000
  0.051663327   -7.254635  113.564568 -100.861325   -9.510251    0.000000    0.000000    0.000000    0.000000
  0.051863727   -7.242542  113.351822 -103.512132    4.629064    0.000000    0.000000    0.000000    0.000000
  0.052064128   -7.233799  113.158142 -101.675349   15.885323    0.000000    0.000000    0.000000    0.000000
  0.052264529   -7.232592  112.996635 -103.383615    9.652473    0.000000    0.000000    0.000000    0.000000
  0.052464930   -7.234632  112.802917 -101.558254   -7.827393    0.000000    0.000000    0.000000    0.000000
  0.052665331   -7.232351  112.567986 -102.901774    8.742640    0.000000    0.000000    0.000000    0.000000
  0.052865731   -7.236326  112.364220 -103.241241    6.442256    0.000000    0.000000    0.000000    0.000000
