! Anritsu VNA Master:                     Model: MS2036C/10/77
! SN:                                  1601066
! /card0/usr/18may27.balun/252b.r50.3.s2p
! Existing Calibration Information:
! TYPE:                         Current Settings,       Active Cal Settings
! TIME:             	   05/27/2018 01:03:25 PM,    05/27/2018 12:49:51 PM
! INTERNAL TEMP:    	                   52.3 C,                    52.5 C
! # POINTS:         	                      500,                       500
! START FREQ:       	               20.000 MHz,                20.000 MHz
! STOP FREQ:        	              120.000 MHz,               120.000 MHz
! SOURCE POWER:     	                     High,                      High
! IFBW:             	                    50 Hz,                     50 Hz
! AVG FACTOR:       	                       1 ,                        1 
! REF PLANE 1:      	                     0 mm,                      0 mm
! REF PLANE 2:      	                     0 mm,                      0 mm
! CAL TYPE:         	                 Full S11,                  Full S11
! CAL METHOD:       	                     SOLT,                      SOLT
! CAL LINE TYPE:    	                     Coax,                      Coax
! DUT PORT 1:       	                K-Conn(M),                 K-Conn(M)
! DUT PORT 2:       	                K-Conn(M),                 K-Conn(M)
! CAL STATUS:       	        OK: Accuracy High,                        --
# GHZ S DB R 50.0
! FREQ.GHZ       S11DB        S11A       S21DB        S21A       S12DB        S12A       S22DB        S22A
  0.020000000  -39.121627   52.566463  -91.423437   39.110405    0.000000    0.000000    0.000000    0.000000
  0.020200401  -39.079085   52.268578  -91.032494   35.294682    0.000000    0.000000    0.000000    0.000000
  0.020400802  -39.060485   52.919716  -91.686492   34.731010    0.000000    0.000000    0.000000    0.000000
  0.020601202  -39.114080   52.131210  -91.862049   35.239498    0.000000    0.000000    0.000000    0.000000
  0.020801603  -39.080323   51.727928  -91.859206   34.254772    0.000000    0.000000    0.000000    0.000000
  0.021002004  -39.093009   52.146908  -91.091809   33.710072    0.000000    0.000000    0.000000    0.000000
  0.021202405  -39.069954   51.927616  -92.081833   35.047836    0.000000    0.000000    0.000000    0.000000
  0.021402806  -39.021001   51.280628  -92.434927   34.034798    0.000000    0.000000    0.000000    0.000000
  0.021603206  -39.036791   50.362614  -92.138969   31.452564    0.000000    0.000000    0.000000    0.000000
  0.021803607  -39.002926   49.646904  -92.521288   32.023125    0.000000    0.000000    0.000000    0.000000
  0.022004008  -38.867648   49.246220  -92.126299   25.482449    0.000000    0.000000    0.000000    0.000000
  0.022204409  -38.789143   48.656868  -92.419457   29.914274    0.000000    0.000000    0.000000    0.000000
  0.022404810  -38.590848   48.814987  -92.115491   30.813593    0.000000    0.000000    0.000000    0.000000
  0.022605210  -38.476606   47.455185  -92.208395   28.051006    0.000000    0.000000    0.000000    0.000000
  0.022805611  -38.421382   47.657719  -93.954070   33.071239    0.000000    0.000000    0.000000    0.000000
  0.023006012  -38.263310   47.927551  -93.127448   27.183084    0.000000    0.000000    0.000000    0.000000
  0.023206413  -38.094316   47.983772  -92.959242   26.331196    0.000000    0.000000    0.000000    0.000000
  0.023406814  -37.966928   47.806313  -93.064673   27.262239    0.000000    0.000000    0.000000    0.000000
  0.023607214  -37.821225   47.615009  -93.058371   24.842924    0.000000    0.000000    0.000000    0.000000
  0.023807615  -37.750747   48.214649  -93.451792   28.066303    0.000000    0.000000    0.000000    0.000000
  0.024008016  -37.696057   48.332588  -93.398908   23.613052    0.000000    0.000000    0.000000    0.000000
  0.024208417  -37.604053   48.735058  -93.475598   28.792427    0.000000    0.000000    0.000000    0.000000
  0.024408818  -37.525441   48.658245  -94.094912   30.855219    0.000000    0.000000    0.000000    0.000000
  0.024609218  -37.488403   49.695801  -93.846091   28.993210    0.000000    0.000000    0.000000    0.000000
  0.024809619  -37.400717   49.733093  -93.748315   21.621944    0.000000    0.000000    0.000000    0.000000
  0.025010020  -37.449919   50.343914  -94.298581   26.275326    0.000000    0.000000    0.000000    0.000000
  0.025210421  -37.468578   49.658947  -94.529524   24.457380    0.000000    0.000000    0.000000    0.000000
  0.025410822  -37.378926   50.952385  -94.319642   24.052250    0.000000    0.000000    0.000000    0.000000
  0.025611222  -37.362548   50.269131  -93.947096   21.560575    0.000000    0.000000    0.000000    0.000000
  0.025811623  -37.350282   51.094116  -95.425597   21.125381    0.000000    0.000000    0.000000    0.000000
  0.026012024  -37.423722   50.624443  -94.625716   26.746483    0.000000    0.000000    0.000000    0.000000
  0.026212425  -37.430895   50.402454  -94.770381   18.951576    0.000000    0.000000    0.000000    0.000000
  0.026412826  -37.389868   50.488808  -95.026282   20.214102    0.000000    0.000000    0.000000    0.000000
  0.026613226  -37.389729   49.843956  -95.260493   20.386194    0.000000    0.000000    0.000000    0.000000
  0.026813627  -37.489753   49.653236  -95.336899   20.252363    0.000000    0.000000    0.000000    0.000000
  0.027014028  -37.392013   49.198204  -95.242181   22.676012    0.000000    0.000000    0.000000    0.000000
  0.027214429  -37.431840   48.685188  -95.045213   17.589176    0.000000    0.000000    0.000000    0.000000
  0.027414830  -37.374915   47.996574  -95.419945   20.717043    0.000000    0.000000    0.000000    0.000000
  0.027615230  -37.346469   47.337414  -95.168806   20.450790    0.000000    0.000000    0.000000    0.000000
  0.027815631  -37.291047   47.066330  -96.178036   19.076115    0.000000    0.000000    0.000000    0.000000
  0.028016032  -37.110750   46.521667  -96.020791   22.469633    0.000000    0.000000    0.000000    0.000000
  0.028216433  -36.976060   46.402744  -96.049923   22.896551    0.000000    0.000000    0.000000    0.000000
  0.028416834  -36.853210   46.117119  -96.793194   17.878160    0.000000    0.000000    0.000000    0.000000
  0.028617234  -36.763887   45.662663  -95.925473   22.571836    0.000000    0.000000    0.000000    0.000000
  0.028817635  -36.641733   45.849937  -95.991785   20.587494    0.000000    0.000000    0.000000    0.000000
  0.029018036  -36.604113   46.084988  -96.543844   17.950100    0.000000    0.000000    0.000000    0.000000
  0.029218437  -36.484715   46.211296  -96.433063   20.470085    0.000000    0.000000    0.000000    0.000000
  0.029418838  -36.432121   46.625114  -96.744820   14.480728    0.000000    0.000000    0.000000    0.000000
  0.029619238  -36.319529   46.919132  -96.877452   14.462601    0.000000    0.000000    0.000000    0.000000
  0.029819639  -36.284581   46.859089  -96.531808   16.299379    0.000000    0.000000    0.000000    0.000000
  0.030020040  -36.196690   47.368660  -96.463247   17.647291    0.000000    0.000000    0.000000    0.000000
  0.030220441  -36.226339   47.799095  -96.416604   14.843258    0.000000    0.000000    0.000000    0.000000
  0.030420842  -36.146849   47.894619  -97.628346   16.190481    0.000000    0.000000    0.000000    0.000000
  0.030621242  -36.194864   48.489334  -97.363165   16.792175    0.000000    0.000000    0.000000    0.000000
  0.030821643  -36.209175   48.454166  -96.729607   19.959906    0.000000    0.000000    0.000000    0.000000
  0.031022044  -36.140440   48.704647  -97.151812   14.745359    0.000000    0.000000    0.000000    0.000000
  0.031222445  -36.175361   48.732662  -97.356341   15.392439    0.000000    0.000000    0.000000    0.000000
  0.031422846  -36.214135   48.961830  -97.710261    9.733739    0.000000    0.000000    0.000000    0.000000
  0.031623246  -36.179584   48.801956  -96.908803   17.625021    0.000000    0.000000    0.000000    0.000000
  0.031823647  -36.141373   48.649330  -97.191142   11.915406    0.000000    0.000000    0.000000    0.000000
  0.032024048  -36.250247   48.328239  -98.377759   16.543531    0.000000    0.000000    0.000000    0.000000
  0.032224449  -36.256049   48.013260  -97.311018    9.642243    0.000000    0.000000    0.000000    0.000000
  0.032424850  -36.230564   47.945541  -98.024300   11.950404    0.000000    0.000000    0.000000    0.000000
  0.032625251  -36.293533   46.747253  -97.909836    9.842191    0.000000    0.000000    0.000000    0.000000
  0.032825651  -36.273855   46.623737  -96.671312   16.842033    0.000000    0.000000    0.000000    0.000000
  0.033026052  -36.255683   45.492836  -97.389345   11.335973    0.000000    0.000000    0.000000    0.000000
  0.033226453  -36.211459   45.170776  -97.426693   14.193575    0.000000    0.000000    0.000000    0.000000
  0.033426854  -36.112478   44.455658  -98.490709   11.424681    0.000000    0.000000    0.000000    0.000000
  0.033627255  -36.050604   44.237877  -97.535994   12.575080    0.000000    0.000000    0.000000    0.000000
  0.033827655  -35.880944   44.276573  -98.259487   10.787257    0.000000    0.000000    0.000000    0.000000
  0.034028056  -35.817696   44.045242  -98.817028   19.814749    0.000000    0.000000    0.000000    0.000000
  0.034228457  -35.676983   42.955803  -97.247484   10.394092    0.000000    0.000000    0.000000    0.000000
  0.034428858  -35.614552   43.501343  -98.355232   16.002197    0.000000    0.000000    0.000000    0.000000
  0.034629259  -35.544503   43.117825  -98.158270   14.170149    0.000000    0.000000    0.000000    0.000000
  0.034829659  -35.494775   43.400024  -99.137294    6.691183    0.000000    0.000000    0.000000    0.000000
  0.035030060  -35.396763   43.454010  -98.393512   17.474134    0.000000    0.000000    0.000000    0.000000
  0.035230461  -35.305470   44.130131  -98.420960    5.401902    0.000000    0.000000    0.000000    0.000000
  0.035430862  -35.207294   43.954853  -99.381940    3.479624    0.000000    0.000000    0.000000    0.000000
  0.035631263  -35.244078   44.194843  -98.199171    4.877856    0.000000    0.000000    0.000000    0.000000
  0.035831663  -35.206497   44.619938  -99.075325   10.705526    0.000000    0.000000    0.000000    0.000000
  0.036032064  -35.138436   45.082870  -98.708132   12.133466    0.000000    0.000000    0.000000    0.000000
  0.036232465  -35.090137   44.451412  -98.936355   14.871596    0.000000    0.000000    0.000000    0.000000
  0.036432866  -35.141499   44.990971 -100.168178    6.281191    0.000000    0.000000    0.000000    0.000000
  0.036633267  -35.149050   45.282066  -99.264161    4.050411    0.000000    0.000000    0.000000    0.000000
  0.036833667  -35.170132   45.842937  -98.869492   -0.880198    0.000000    0.000000    0.000000    0.000000
  0.037034068  -35.175289   45.298729  -99.457337   -2.765129    0.000000    0.000000    0.000000    0.000000
  0.037234469  -35.195535   45.115112 -101.339041   10.169365    0.000000    0.000000    0.000000    0.000000
  0.037434870  -35.137191   45.390697  -99.137814    5.308490    0.000000    0.000000    0.000000    0.000000
  0.037635271  -35.232102   45.259975  -99.370572    4.058269    0.000000    0.000000    0.000000    0.000000
  0.037835671  -35.228960   44.563278  -99.807522    4.978474    0.000000    0.000000    0.000000    0.000000
  0.038036072  -35.206243   45.123882  -99.069876   12.491699    0.000000    0.000000    0.000000    0.000000
  0.038236473  -35.225226   44.584511 -100.456980    9.420921    0.000000    0.000000    0.000000    0.000000
  0.038436874  -35.209197   44.133186 -101.875243   12.518551    0.000000    0.000000    0.000000    0.000000
  0.038637275  -35.237546   43.912094  -99.783854    2.287572    0.000000    0.000000    0.000000    0.000000
  0.038837675  -35.149128   43.186764  -99.586442   16.533785    0.000000    0.000000    0.000000    0.000000
  0.039038076  -35.159844   43.243736 -100.970673   -1.612662    0.000000    0.000000    0.000000    0.000000
  0.039238477  -35.054141   42.579514 -101.108994    2.765483    0.000000    0.000000    0.000000    0.000000
  0.039438878  -35.026497   42.347256 -100.187108   -2.079843    0.000000    0.000000    0.000000    0.000000
  0.039639279  -34.977708   41.879078  -99.059327    4.677100    0.000000    0.000000    0.000000    0.000000
  0.039839679  -34.876914   41.960552 -101.268080   10.388872    0.000000    0.000000    0.000000    0.000000
  0.040040080  -34.857146   41.859291 -100.600003   14.219943    0.000000    0.000000    0.000000    0.000000
  0.040240481  -34.783087   41.795628 -101.219212   16.136074    0.000000    0.000000    0.000000    0.000000
  0.040440882  -34.738881   41.130573 -100.146018    4.906024    0.000000    0.000000    0.000000    0.000000
  0.040641283  -34.685211   41.339184 -100.932888   12.934347    0.000000    0.000000    0.000000    0.000000
  0.040841683  -34.698729   41.327744 -101.729399   19.167170    0.000000    0.000000    0.000000    0.000000
  0.041042084  -34.697869   41.227116 -102.162114   12.808205    0.000000    0.000000    0.000000    0.000000
  0.041242485  -34.649112   41.182259 -102.824221   28.386583    0.000000    0.000000    0.000000    0.000000
  0.041442886  -34.624617   41.258842 -100.046193    1.317757    0.000000    0.000000    0.000000    0.000000
  0.041643287  -34.550960   41.104439  -99.622240   -2.999449    0.000000    0.000000    0.000000    0.000000
  0.041843687  -34.436070   40.792919 -100.532112    7.428430    0.000000    0.000000    0.000000    0.000000
  0.042044088  -34.468597   40.858757 -100.619378   10.247781    0.000000    0.000000    0.000000    0.000000
  0.042244489  -34.471780   40.604420 -101.551766   10.993385    0.000000    0.000000    0.000000    0.000000
  0.042444890  -34.477112   40.653778 -101.668980    8.613608    0.000000    0.000000    0.000000    0.000000
  0.042645291  -34.476333   39.898708 -102.802558    2.903402    0.000000    0.000000    0.000000    0.000000
  0.042845691  -34.461903   40.330166 -100.173135    2.819324    0.000000    0.000000    0.000000    0.000000
  0.043046092  -34.386505   39.942379 -101.052248   23.754475    0.000000    0.000000    0.000000    0.000000
  0.043246493  -34.329685   39.716667 -100.665839   -3.556773    0.000000    0.000000    0.000000    0.000000
  0.043446894  -34.285716   39.394142 -102.215166    4.201004    0.000000    0.000000    0.000000    0.000000
  0.043647295  -34.279350   38.819817 -102.479505    4.555619    0.000000    0.000000    0.000000    0.000000
  0.043847695  -34.225934   38.797066 -102.160956   13.129194    0.000000    0.000000    0.000000    0.000000
  0.044048096  -34.115760   38.620724 -101.027549   14.871430    0.000000    0.000000    0.000000    0.000000
  0.044248497  -34.102342   38.529301 -102.776027   -3.348438    0.000000    0.000000    0.000000    0.000000
  0.044448898  -34.013743   38.092979 -101.273260   12.845789    0.000000    0.000000    0.000000    0.000000
  0.044649299  -33.922784   38.299850 -100.657210    8.790220    0.000000    0.000000    0.000000    0.000000
  0.044849699  -33.909834   38.099812 -101.609299    9.382648    0.000000    0.000000    0.000000    0.000000
  0.045050100  -33.819382   38.366486 -101.482642    4.274727    0.000000    0.000000    0.000000    0.000000
  0.045250501  -33.784589   38.336292 -101.303647    7.459843    0.000000    0.000000    0.000000    0.000000
  0.045450902  -33.676240   38.307201 -101.767969   -1.497314    0.000000    0.000000    0.000000    0.000000
  0.045651303  -33.588970   38.817776 -103.750362   11.620910    0.000000    0.000000    0.000000    0.000000
  0.045851703  -33.584354   38.894855 -103.027735    5.217439    0.000000    0.000000    0.000000    0.000000
  0.046052104  -33.605657   39.440975 -102.522368   11.193550    0.000000    0.000000    0.000000    0.000000
  0.046252505  -33.524738   39.777096 -102.551891    6.143177    0.000000    0.000000    0.000000    0.000000
  0.046452906  -33.566772   39.914425 -102.716028    3.118912    0.000000    0.000000    0.000000    0.000000
  0.046653307  -33.534544   40.108719 -102.845732   10.032344    0.000000    0.000000    0.000000    0.000000
  0.046853707  -33.591108   40.460773 -103.590704    8.224218    0.000000    0.000000    0.000000    0.000000
  0.047054108  -33.635463   40.443153 -101.645834    8.319152    0.000000    0.000000    0.000000    0.000000
  0.047254509  -33.627540   40.621166 -101.158745    7.865159    0.000000    0.000000    0.000000    0.000000
  0.047454910  -33.703184   40.816963 -105.021004    0.998654    0.000000    0.000000    0.000000    0.000000
  0.047655311  -33.727945   40.657986 -101.845030   18.179222    0.000000    0.000000    0.000000    0.000000
  0.047855711  -33.812077   40.516987 -102.225881   -8.764681    0.000000    0.000000    0.000000    0.000000
  0.048056112  -33.836596   40.155205 -103.045581    7.460964    0.000000    0.000000    0.000000    0.000000
  0.048256513  -33.894825   39.647812 -101.810508    9.443294    0.000000    0.000000    0.000000    0.000000
  0.048456914  -33.914329   39.530121 -101.206596    1.964381    0.000000    0.000000    0.000000    0.000000
  0.048657315  -33.957001   39.125835 -102.370348   -1.499326    0.000000    0.000000    0.000000    0.000000
  0.048857715  -33.894846   38.468887 -104.467814    5.903214    0.000000    0.000000    0.000000    0.000000
  0.049058116  -33.921518   37.526432 -101.281548   -2.642869    0.000000    0.000000    0.000000    0.000000
  0.049258517  -33.877615   37.195683 -100.824554   -0.525815    0.000000    0.000000    0.000000    0.000000
  0.049458918  -33.952110   36.797249 -103.622583   19.822750    0.000000    0.000000    0.000000    0.000000
  0.049659319  -33.885770   36.101612 -102.726350  -10.385637    0.000000    0.000000    0.000000    0.000000
  0.049859719  -33.825001   35.628857 -102.519027    6.530020    0.000000    0.000000    0.000000    0.000000
  0.050060120  -33.796786   34.996708 -101.738314    6.226230    0.000000    0.000000    0.000000    0.000000
  0.050260521  -33.677975   34.392147 -102.772477    8.888312    0.000000    0.000000    0.000000    0.000000
  0.050460922  -33.597985   34.371189 -102.014736    6.207056    0.000000    0.000000    0.000000    0.000000
  0.050661323  -33.558263   34.010632 -102.312190   -3.867758    0.000000    0.000000    0.000000    0.000000
  0.050861723  -33.498862   33.553463 -103.515959    1.338607    0.000000    0.000000    0.000000    0.000000
  0.051062124  -33.380085   33.451946 -102.644888   -5.600302    0.000000    0.000000    0.000000    0.000000
  0.051262525  -33.235381   33.506058 -100.822575    7.346643    0.000000    0.000000    0.000000    0.000000
  0.051462926  -33.137814   33.637856 -103.048610    2.150504    0.000000    0.000000    0.000000    0.000000
  0.051663327  -33.048275   33.343525 -101.437981    5.636589    0.000000    0.000000    0.000000    0.000000
  0.051863727  -33.015309   33.599758 -104.523482   12.162868    0.000000    0.000000    0.000000    0.000000
  0.052064128  -32.977704   33.869404 -101.454073    4.656377    0.000000    0.000000    0.000000    0.000000
  0.052264529  -32.874166   34.052193 -103.376881   -0.460763    0.000000    0.000000    0.000000    0.000000
  0.052464930  -32.918868   34.150753 -102.543009    5.391508    0.000000    0.000000    0.000000    0.000000
  0.052665331  -32.842946   34.505428 -106.612463   -2.620748    0.000000    0.000000    0.000000    0.000000
  0.052865731  -32.822861   34.436699 -103.633510    4.180825    0.000000    0.000000    0.000000    0.000000
