! Anritsu VNA Master:                     Model: MS2036C/10/77
! SN:                                  1601066
! /card0/usr/18may27.balun/252b.r20.5.s2p
! Existing Calibration Information:
! TYPE:                         Current Settings,       Active Cal Settings
! TIME:             	   05/27/2018 01:25:01 PM,    05/27/2018 01:14:08 PM
! INTERNAL TEMP:    	                   52.0 C,                    52.0 C
! # POINTS:         	                      500,                       500
! START FREQ:       	               20.000 MHz,                20.000 MHz
! STOP FREQ:        	              120.000 MHz,               120.000 MHz
! SOURCE POWER:     	                     High,                      High
! IFBW:             	                    50 Hz,                     50 Hz
! AVG FACTOR:       	                       1 ,                        1 
! REF PLANE 1:      	                     0 mm,                      0 mm
! REF PLANE 2:      	                     0 mm,                      0 mm
! CAL TYPE:         	                 Full S11,                  Full S11
! CAL METHOD:       	                     SOLT,                      SOLT
! CAL LINE TYPE:    	                     Coax,                      Coax
! DUT PORT 1:       	                K-Conn(M),                 K-Conn(M)
! DUT PORT 2:       	                K-Conn(M),                 K-Conn(M)
! CAL STATUS:       	        OK: Accuracy High,                        --
# GHZ S DB R 50.0
! FREQ.GHZ       S11DB        S11A       S21DB        S21A       S12DB        S12A       S22DB        S22A
  0.020000000   -7.288515  154.555161  -91.822557   34.581059    0.000000    0.000000    0.000000    0.000000
  0.020200401   -7.290326  154.312164  -92.042035   33.287796    0.000000    0.000000    0.000000    0.000000
  0.020400802   -7.287206  154.079819  -91.840942   32.455185    0.000000    0.000000    0.000000    0.000000
  0.020601202   -7.286059  153.837860  -92.249963   33.289574    0.000000    0.000000    0.000000    0.000000
  0.020801603   -7.284134  153.555801  -91.969198   38.984005    0.000000    0.000000    0.000000    0.000000
  0.021002004   -7.280267  153.304855  -93.093374   35.131237    0.000000    0.000000    0.000000    0.000000
  0.021202405   -7.279217  153.061218  -92.288146   36.848251    0.000000    0.000000    0.000000    0.000000
  0.021402806   -7.284238  152.810089  -92.283884   32.404819    0.000000    0.000000    0.000000    0.000000
  0.021603206   -7.284377  152.589920  -92.197645   37.156727    0.000000    0.000000    0.000000    0.000000
  0.021803607   -7.288522  152.332413  -92.186860   36.218204    0.000000    0.000000    0.000000    0.000000
  0.022004008   -7.291065  152.110428  -91.912939   33.689251    0.000000    0.000000    0.000000    0.000000
  0.022204409   -7.292450  151.872528  -91.394533   33.983196    0.000000    0.000000    0.000000    0.000000
  0.022404810   -7.292326  151.626892  -92.460644   34.763943    0.000000    0.000000    0.000000    0.000000
  0.022605210   -7.297758  151.381104  -92.103049   32.216141    0.000000    0.000000    0.000000    0.000000
  0.022805611   -7.297362  151.126816  -92.488671   32.832466    0.000000    0.000000    0.000000    0.000000
  0.023006012   -7.295532  150.881607  -92.784113   30.283464    0.000000    0.000000    0.000000    0.000000
  0.023206413   -7.294255  150.605103  -92.722557   26.096453    0.000000    0.000000    0.000000    0.000000
  0.023406814   -7.296688  150.339935  -93.336525   28.445229    0.000000    0.000000    0.000000    0.000000
  0.023607214   -7.295324  150.063828  -92.759437   24.810225    0.000000    0.000000    0.000000    0.000000
  0.023807615   -7.294765  149.788406  -93.202781   23.958084    0.000000    0.000000    0.000000    0.000000
  0.024008016   -7.296682  149.532837  -93.370850   23.350899    0.000000    0.000000    0.000000    0.000000
  0.024208417   -7.295617  149.310684  -93.895361   24.699457    0.000000    0.000000    0.000000    0.000000
  0.024408818   -7.299612  149.065140  -94.076417   25.924019    0.000000    0.000000    0.000000    0.000000
  0.024609218   -7.303955  148.842346  -94.519372   18.474957    0.000000    0.000000    0.000000    0.000000
  0.024809619   -7.303705  148.585632  -94.662779   23.654800    0.000000    0.000000    0.000000    0.000000
  0.025010020   -7.304694  148.349884  -94.273605   27.918665    0.000000    0.000000    0.000000    0.000000
  0.025210421   -7.306601  148.095932  -94.082094   22.048115    0.000000    0.000000    0.000000    0.000000
  0.025410822   -7.313480  147.815659  -94.645146   22.438152    0.000000    0.000000    0.000000    0.000000
  0.025611222   -7.312649  147.533203  -95.614812   25.869156    0.000000    0.000000    0.000000    0.000000
  0.025811623   -7.307497  147.233475  -94.582108   22.217606    0.000000    0.000000    0.000000    0.000000
  0.026012024   -7.302826  146.976196  -95.584159   26.094933    0.000000    0.000000    0.000000    0.000000
  0.026212425   -7.297502  146.697449  -94.501261   20.171339    0.000000    0.000000    0.000000    0.000000
  0.026412826   -7.294754  146.426010  -94.819508   20.545828    0.000000    0.000000    0.000000    0.000000
  0.026613226   -7.295399  146.205338  -94.910770   18.200975    0.000000    0.000000    0.000000    0.000000
  0.026813627   -7.289334  145.986694  -94.779729   23.409554    0.000000    0.000000    0.000000    0.000000
  0.027014028   -7.287985  145.775223  -94.906900   26.647020    0.000000    0.000000    0.000000    0.000000
  0.027214429   -7.294052  145.586823  -94.566857   17.262285    0.000000    0.000000    0.000000    0.000000
  0.027414830   -7.291121  145.374710  -95.049522   19.646055    0.000000    0.000000    0.000000    0.000000
  0.027615230   -7.292424  145.159866  -95.265064   20.944271    0.000000    0.000000    0.000000    0.000000
  0.027815631   -7.298519  144.917694  -95.105842   21.473576    0.000000    0.000000    0.000000    0.000000
  0.028016032   -7.301394  144.663147  -95.285232   15.494497    0.000000    0.000000    0.000000    0.000000
  0.028216433   -7.303739  144.391678  -95.668375   17.491377    0.000000    0.000000    0.000000    0.000000
  0.028416834   -7.303354  144.119370  -95.826209   17.131857    0.000000    0.000000    0.000000    0.000000
  0.028617234   -7.303994  143.864899  -96.547293   19.799442    0.000000    0.000000    0.000000    0.000000
  0.028817635   -7.303007  143.570282  -96.900949   16.150763    0.000000    0.000000    0.000000    0.000000
  0.029018036   -7.306225  143.300980  -96.237106   19.050386    0.000000    0.000000    0.000000    0.000000
  0.029218437   -7.301699  143.030243  -96.921770   13.889765    0.000000    0.000000    0.000000    0.000000
  0.029418838   -7.297801  142.795853  -96.479085   12.361663    0.000000    0.000000    0.000000    0.000000
  0.029619238   -7.295873  142.590607  -96.755775   11.960214    0.000000    0.000000    0.000000    0.000000
  0.029819639   -7.292382  142.389343  -96.797801   10.675929    0.000000    0.000000    0.000000    0.000000
  0.030020040   -7.291422  142.205444  -96.326379   17.016203    0.000000    0.000000    0.000000    0.000000
  0.030220441   -7.295318  141.992249  -97.882073   20.085663    0.000000    0.000000    0.000000    0.000000
  0.030420842   -7.304229  141.768402  -97.709139   11.844238    0.000000    0.000000    0.000000    0.000000
  0.030621242   -7.311256  141.515808  -98.061936   14.555823    0.000000    0.000000    0.000000    0.000000
  0.030821643   -7.316787  141.217651  -97.425152   20.772253    0.000000    0.000000    0.000000    0.000000
  0.031022044   -7.318550  140.916809  -98.234594   15.510861    0.000000    0.000000    0.000000    0.000000
  0.031222445   -7.307824  140.653412  -97.918666   14.372004    0.000000    0.000000    0.000000    0.000000
  0.031422846   -7.308101  140.368286  -97.022045   10.916676    0.000000    0.000000    0.000000    0.000000
  0.031623246   -7.309284  140.065872  -97.232149   14.156322    0.000000    0.000000    0.000000    0.000000
  0.031823647   -7.298181  139.815933  -96.395855    7.631848    0.000000    0.000000    0.000000    0.000000
  0.032024048   -7.293992  139.578156  -97.467525   12.525344    0.000000    0.000000    0.000000    0.000000
  0.032224449   -7.288112  139.328369  -96.356498   14.283008    0.000000    0.000000    0.000000    0.000000
  0.032424850   -7.277245  139.096207  -97.284961   13.777135    0.000000    0.000000    0.000000    0.000000
  0.032625251   -7.273914  138.904419  -97.083833    9.290212    0.000000    0.000000    0.000000    0.000000
  0.032825651   -7.275655  138.647919  -98.150354   23.978220    0.000000    0.000000    0.000000    0.000000
  0.033026052   -7.274205  138.466873  -98.051257   19.072090    0.000000    0.000000    0.000000    0.000000
  0.033226453   -7.276053  138.236328  -98.693269   10.051020    0.000000    0.000000    0.000000    0.000000
  0.033426854   -7.282775  137.984802  -99.030540   -1.371590    0.000000    0.000000    0.000000    0.000000
  0.033627255   -7.284737  137.731277  -99.121796    7.645256    0.000000    0.000000    0.000000    0.000000
  0.033827655   -7.287782  137.453491  -97.897597   14.509016    0.000000    0.000000    0.000000    0.000000
  0.034028056   -7.295423  137.184708  -98.380236    8.241060    0.000000    0.000000    0.000000    0.000000
  0.034228457   -7.298447  136.927155  -97.965989    4.550902    0.000000    0.000000    0.000000    0.000000
  0.034428858   -7.302152  136.653152  -99.099628   10.414135    0.000000    0.000000    0.000000    0.000000
  0.034629259   -7.299005  136.387909  -98.762894   -4.838466    0.000000    0.000000    0.000000    0.000000
  0.034829659   -7.292531  136.126984  -99.146748   14.266047    0.000000    0.000000    0.000000    0.000000
  0.035030060   -7.288889  135.856415  -98.670223    4.184757    0.000000    0.000000    0.000000    0.000000
  0.035230461   -7.282713  135.603455  -98.595753   15.164642    0.000000    0.000000    0.000000    0.000000
  0.035430862   -7.273458  135.383957  -98.341725   11.769807    0.000000    0.000000    0.000000    0.000000
  0.035631263   -7.271233  135.197159  -98.764120    8.994301    0.000000    0.000000    0.000000    0.000000
  0.035831663   -7.272021  135.031540  -98.904899   13.955072    0.000000    0.000000    0.000000    0.000000
  0.036032064   -7.274090  134.786850  -98.860920   13.367431    0.000000    0.000000    0.000000    0.000000
  0.036232465   -7.288398  134.562302  -99.721656   11.194145    0.000000    0.000000    0.000000    0.000000
  0.036432866   -7.292016  134.309891  -98.593274    4.814003    0.000000    0.000000    0.000000    0.000000
  0.036633267   -7.301659  133.991302  -98.472729    9.982471    0.000000    0.000000    0.000000    0.000000
  0.036833667   -7.305011  133.732910  -99.006143    7.302832    0.000000    0.000000    0.000000    0.000000
  0.037034068   -7.307674  133.446381  -97.538175   12.167095    0.000000    0.000000    0.000000    0.000000
  0.037234469   -7.306308  133.155045  -99.597248   12.457314    0.000000    0.000000    0.000000    0.000000
  0.037434870   -7.299161  132.889221 -100.284384    0.704963    0.000000    0.000000    0.000000    0.000000
  0.037635271   -7.291409  132.640213 -100.822141    0.536732    0.000000    0.000000    0.000000    0.000000
  0.037835671   -7.285056  132.367813  -99.552849    7.254673    0.000000    0.000000    0.000000    0.000000
  0.038036072   -7.275750  132.155045 -101.127454   -4.013170    0.000000    0.000000    0.000000    0.000000
  0.038236473   -7.275876  131.943771 -100.018368    2.775432    0.000000    0.000000    0.000000    0.000000
  0.038436874   -7.270497  131.747284 -100.482255    5.158557    0.000000    0.000000    0.000000    0.000000
  0.038637275   -7.279244  131.530548 -100.889325    3.207301    0.000000    0.000000    0.000000    0.000000
  0.038837675   -7.283509  131.297974  -99.770657   -0.695900    0.000000    0.000000    0.000000    0.000000
  0.039038076   -7.286971  131.014236  -99.980488    9.412560    0.000000    0.000000    0.000000    0.000000
  0.039238477   -7.293928  130.749252 -100.152074   -2.111534    0.000000    0.000000    0.000000    0.000000
  0.039438878   -7.296480  130.474380  -99.727942    9.065120    0.000000    0.000000    0.000000    0.000000
  0.039639279   -7.297352  130.230026 -101.372274    4.691029    0.000000    0.000000    0.000000    0.000000
  0.039839679   -7.295811  129.956894 -101.790845   -0.601046    0.000000    0.000000    0.000000    0.000000
  0.040040080   -7.294608  129.686447 -102.466344   -2.582491    0.000000    0.000000    0.000000    0.000000
  0.040240481   -7.292336  129.411819 -101.202534   -6.313392    0.000000    0.000000    0.000000    0.000000
  0.040440882   -7.282215  129.113068 -102.367241    6.824493    0.000000    0.000000    0.000000    0.000000
  0.040641283   -7.276294  128.852432 -101.221136   12.991607    0.000000    0.000000    0.000000    0.000000
  0.040841683   -7.262957  128.632904  -99.974066    0.768531    0.000000    0.000000    0.000000    0.000000
  0.041042084   -7.261220  128.458466 -102.353595    3.262661    0.000000    0.000000    0.000000    0.000000
  0.041242485   -7.262052  128.266220 -101.570521    9.485640    0.000000    0.000000    0.000000    0.000000
  0.041442886   -7.266561  128.075836  -99.003975   12.177482    0.000000    0.000000    0.000000    0.000000
  0.041643287   -7.268018  127.846100 -101.349160    3.907705    0.000000    0.000000    0.000000    0.000000
  0.041843687   -7.277067  127.587410 -100.992098   15.312442    0.000000    0.000000    0.000000    0.000000
  0.042044088   -7.280368  127.349098 -101.553825    9.105042    0.000000    0.000000    0.000000    0.000000
  0.042244489   -7.283145  127.118057 -100.331835    4.868562    0.000000    0.000000    0.000000    0.000000
  0.042444890   -7.282574  126.838196 -100.745164    8.545354    0.000000    0.000000    0.000000    0.000000
  0.042645291   -7.275649  126.569702 -100.276993   -0.350459    0.000000    0.000000    0.000000    0.000000
  0.042845691   -7.274795  126.315224 -100.649653   -0.198119    0.000000    0.000000    0.000000    0.000000
  0.043046092   -7.266049  126.054314  -99.559975   -1.877685    0.000000    0.000000    0.000000    0.000000
  0.043246493   -7.255221  125.840057 -100.689474    5.230395    0.000000    0.000000    0.000000    0.000000
  0.043446894   -7.248719  125.638557 -100.883811   -8.364418    0.000000    0.000000    0.000000    0.000000
  0.043647295   -7.252024  125.450661 -101.967912    1.653968    0.000000    0.000000    0.000000    0.000000
  0.043847695   -7.250598  125.256042 -100.477482   -1.876321    0.000000    0.000000    0.000000    0.000000
  0.044048096   -7.256540  125.063950 -100.817433   15.465406    0.000000    0.000000    0.000000    0.000000
  0.044248497   -7.263038  124.817062 -104.303440   -0.524192    0.000000    0.000000    0.000000    0.000000
  0.044448898   -7.269583  124.611900 -100.258642   -2.184956    0.000000    0.000000    0.000000    0.000000
  0.044649299   -7.276844  124.365685 -104.573515   -2.948381    0.000000    0.000000    0.000000    0.000000
  0.044849699   -7.278847  124.125069 -101.069374   -0.551673    0.000000    0.000000    0.000000    0.000000
  0.045050100   -7.284618  123.882874 -103.558636   14.316599    0.000000    0.000000    0.000000    0.000000
  0.045250501   -7.292284  123.604263 -103.110773   19.074240    0.000000    0.000000    0.000000    0.000000
  0.045450902   -7.292773  123.338898 -103.003722   -2.744199    0.000000    0.000000    0.000000    0.000000
  0.045651303   -7.289467  123.040764 -103.265783   10.266535    0.000000    0.000000    0.000000    0.000000
  0.045851703   -7.285496  122.755379 -103.269509   -3.212774    0.000000    0.000000    0.000000    0.000000
  0.046052104   -7.283834  122.472984 -101.883284   12.340997    0.000000    0.000000    0.000000    0.000000
  0.046252505   -7.283325  122.212975 -100.878809   13.155697    0.000000    0.000000    0.000000    0.000000
  0.046452906   -7.282711  122.008759 -101.519608   16.686209    0.000000    0.000000    0.000000    0.000000
  0.046653307   -7.283413  121.776588 -102.977450    2.935122    0.000000    0.000000    0.000000    0.000000
  0.046853707   -7.290633  121.522972 -102.260416    4.614238    0.000000    0.000000    0.000000    0.000000
  0.047054108   -7.297993  121.245148 -101.594812   -1.746694    0.000000    0.000000    0.000000    0.000000
  0.047254509   -7.302230  120.962090 -100.622927    0.698312    0.000000    0.000000    0.000000    0.000000
  0.047454910   -7.303435  120.677612 -101.316754    6.335749    0.000000    0.000000    0.000000    0.000000
  0.047655311   -7.311082  120.383850 -102.077937   -9.197293    0.000000    0.000000    0.000000    0.000000
  0.047855711   -7.307806  120.072960 -102.322371    5.086924    0.000000    0.000000    0.000000    0.000000
  0.048056112   -7.299513  119.791016  -99.618476    1.612166    0.000000    0.000000    0.000000    0.000000
  0.048256513   -7.287920  119.480827 -101.255215   -2.375155    0.000000    0.000000    0.000000    0.000000
  0.048456914   -7.283783  119.194969 -101.032225  -10.914233    0.000000    0.000000    0.000000    0.000000
  0.048657315   -7.270017  118.973839 -102.242657   -4.841599    0.000000    0.000000    0.000000    0.000000
  0.048857715   -7.261518  118.732445 -102.772677   -7.868030    0.000000    0.000000    0.000000    0.000000
  0.049058116   -7.254129  118.538277 -102.538739    0.702455    0.000000    0.000000    0.000000    0.000000
  0.049258517   -7.255913  118.343201 -103.338080   -8.690594    0.000000    0.000000    0.000000    0.000000
  0.049458918   -7.251683  118.124641 -103.918676    3.831579    0.000000    0.000000    0.000000    0.000000
  0.049659319   -7.248595  117.912521 -104.081255   -1.602244    0.000000    0.000000    0.000000    0.000000
  0.049859719   -7.251257  117.722824 -102.604565    6.512258    0.000000    0.000000    0.000000    0.000000
  0.050060120   -7.251071  117.516685 -105.923613    0.430347    0.000000    0.000000    0.000000    0.000000
  0.050260521   -7.253031  117.309334 -105.129987    2.117688    0.000000    0.000000    0.000000    0.000000
  0.050460922   -7.250622  117.091545 -105.937601    0.770931    0.000000    0.000000    0.000000    0.000000
  0.050661323   -7.252413  116.860809 -103.023924   19.058922    0.000000    0.000000    0.000000    0.000000
  0.050861723   -7.246795  116.630150 -102.036194    9.129783    0.000000    0.000000    0.000000    0.000000
  0.051062124   -7.246008  116.370834 -104.525744    0.473243    0.000000    0.000000    0.000000    0.000000
  0.051262525   -7.245694  116.109131 -101.781836   14.771500    0.000000    0.000000    0.000000    0.000000
  0.051462926   -7.240966  115.921303 -103.258592    4.554431    0.000000    0.000000    0.000000    0.000000
  0.051663327   -7.245050  115.728142 -101.604893    0.102354    0.000000    0.000000    0.000000    0.000000
  0.051863727   -7.240592  115.534538 -102.270655    5.561534    0.000000    0.000000    0.000000    0.000000
  0.052064128   -7.248705  115.327980 -101.728297   -1.175139    0.000000    0.000000    0.000000    0.000000
  0.052264529   -7.256151  115.101227 -104.538414   17.604509    0.000000    0.000000    0.000000    0.000000
  0.052464930   -7.263514  114.876572 -104.366003   -0.484743    0.000000    0.000000    0.000000    0.000000
  0.052665331   -7.274082  114.618507 -100.963417    6.503588    0.000000    0.000000    0.000000    0.000000
  0.052865731   -7.281319  114.330147 -102.522858    5.164538    0.000000    0.000000    0.000000    0.000000
